 time            v(vbep)         time            v(vben)         time            v(vout)         time            v(vphi1)        time            v(vphi2)        time            v(vref)         yes             currtemp       
 0.00000000e+00  7.58483705e-01  0.00000000e+00  7.12171071e-01  0.00000000e+00  9.11377451e-02  0.00000000e+00  0.00000000e+00  0.00000000e+00  1.79997235e+00  0.00000000e+00  7.12171071e-01  1.00000000e+00 -2.00000000e+01 
 5.00000000e-12  7.58469962e-01  5.00000000e-12  7.12159606e-01  5.00000000e-12  9.15649665e-02  5.00000000e-12  1.80000000e-02  5.00000000e-12  1.80006499e+00  5.00000000e-12  7.12159606e-01                                 
 1.00000000e-11  7.58456401e-01  1.00000000e-11  7.12148366e-01  1.00000000e-11  9.19105088e-02  1.00000000e-11  3.60000000e-02  1.00000000e-11  1.80011634e+00  1.00000000e-11  7.12148366e-01                                 
 2.00000000e-11  7.58429369e-01  2.00000000e-11  7.12125943e-01  2.00000000e-11  9.24843753e-02  2.00000000e-11  7.20000000e-02  2.00000000e-11  1.80017032e+00  2.00000000e-11  7.12125943e-01                                 
 4.00000000e-11  7.58375470e-01  4.00000000e-11  7.12081205e-01  4.00000000e-11  9.31922531e-02  4.00000000e-11  1.44000000e-01  4.00000000e-11  1.80015912e+00  4.00000000e-11  7.12081205e-01                                 
 8.00000000e-11  7.58267982e-01  8.00000000e-11  7.11991949e-01  8.00000000e-11  9.39830682e-02  8.00000000e-11  2.88000000e-01  8.00000000e-11  1.80011117e+00  8.00000000e-11  7.11991949e-01                                 
 1.60000000e-10  7.58054327e-01  1.60000000e-10  7.11814340e-01  1.60000000e-10  9.51628721e-02  1.60000000e-10  5.76000000e-01  1.60000000e-10  1.80008110e+00  1.60000000e-10  7.11814340e-01                                 
 3.20000000e-10  7.57632167e-01  3.20000000e-10  7.11462695e-01  3.20000000e-10  1.11685324e-01  3.20000000e-10  1.15200000e+00  3.20000000e-10  1.80013283e+00  3.20000000e-10  7.11462695e-01                                 
 5.00000000e-10  7.57165401e-01  5.00000000e-10  7.11072779e-01  5.00000000e-10  3.91310297e-01  5.00000000e-10  1.80000000e+00  5.00000000e-10  1.26284273e-01  5.00000000e-10  7.11072779e-01                                 
 5.20597417e-10  7.57112600e-01  5.20597417e-10  7.11028591e-01  5.20597417e-10  4.50034317e-01  5.20597417e-10  1.80000000e+00  5.20597417e-10  2.56067494e-02  5.20597417e-10  7.11028591e-01                                 
 5.61792251e-10  7.57007220e-01  5.61792251e-10  7.10940369e-01  5.61792251e-10  5.57154511e-01  5.61792251e-10  1.80000000e+00  5.61792251e-10 -1.09030775e-02  5.61792251e-10  7.10940369e-01                                 
 6.44181918e-10  7.56797792e-01  6.44181918e-10  7.10764866e-01  6.44181918e-10  7.22286290e-01  6.44181918e-10  1.80000000e+00  6.44181918e-10  9.94090495e-03  6.44181918e-10  7.10764866e-01                                 
 7.61055662e-10  7.56503694e-01  7.61055662e-10  7.10518018e-01  7.61055662e-10  8.89325579e-01  7.61055662e-10  1.80000000e+00  7.61055662e-10 -7.91473718e-03  7.61055662e-10  7.10518018e-01                                 
 9.42299939e-10  7.56054336e-01  9.42299939e-10  7.10139981e-01  9.42299939e-10  1.07998770e+00  9.42299939e-10  1.80000000e+00  9.42299939e-10  8.13228382e-03  9.42299939e-10  7.10139981e-01                                 
 1.20139070e-09  7.55425685e-01  1.20139070e-09  7.09609358e-01  1.20139070e-09  1.29596209e+00  1.20139070e-09  1.80000000e+00  1.20139070e-09 -6.91758270e-03  1.20139070e-09  7.09609358e-01                                 
 1.65733140e-09  7.54356369e-01  1.65733140e-09  7.08702204e-01  1.65733140e-09  1.55555136e+00  1.65733140e-09  1.80000000e+00  1.65733140e-09  7.24156867e-03  1.65733140e-09  7.08702204e-01                                 
 2.31635909e-09  7.52887469e-01  2.31635909e-09  7.07446870e-01  2.31635909e-09  1.71408376e+00  2.31635909e-09  1.80000000e+00  2.31635909e-09 -6.80474108e-03  2.31635909e-09  7.07446870e-01                                 
 2.67565363e-09  7.52122203e-01  2.67565363e-09  7.06788639e-01  2.67565363e-09  1.73851091e+00  2.67565363e-09  1.80000000e+00  2.67565363e-09  6.62537763e-03  2.67565363e-09  7.06788639e-01                                 
 3.12350941e-09  7.51200166e-01  3.12350941e-09  7.05991913e-01  3.12350941e-09  1.74975978e+00  3.12350941e-09  1.80000000e+00  3.12350941e-09 -6.33869199e-03  3.12350941e-09  7.05991913e-01                                 
 3.59360813e-09  7.50267851e-01  3.59360813e-09  7.05182328e-01  3.59360813e-09  1.75365550e+00  3.59360813e-09  1.80000000e+00  3.59360813e-09  6.17509960e-03  3.59360813e-09  7.05182328e-01                                 
 4.53380556e-09  7.48500999e-01  4.53380556e-09  7.03637702e-01  4.53380556e-09  1.75402705e+00  4.53380556e-09  1.80000000e+00  4.53380556e-09 -6.04190467e-03  4.53380556e-09  7.03637702e-01                                 
 5.68706403e-09  7.46491973e-01  5.68706403e-09  7.01865329e-01  5.68706403e-09  1.75310176e+00  5.68706403e-09  1.80000000e+00  5.68706403e-09  5.98990736e-03  5.68706403e-09  7.01865329e-01                                 
 7.99358099e-09  7.42895233e-01  7.99358099e-09  6.98654093e-01  7.99358099e-09  1.75034612e+00  7.99358099e-09  1.80000000e+00  7.99358099e-09 -5.92376389e-03  7.99358099e-09  6.98654093e-01                                 
 1.26066149e-08  7.36939178e-01  1.26066149e-08  6.93241018e-01  1.26066149e-08  1.74467559e+00  1.26066149e-08  1.80000000e+00  1.26066149e-08  5.92942892e-03  1.26066149e-08  6.93241018e-01                                 
 1.93266839e-08  7.30285288e-01  1.93266839e-08  6.87059570e-01  1.93266839e-08  1.73488883e+00  1.93266839e-08  1.80000000e+00  1.93266839e-08 -5.88996677e-03  1.93266839e-08  6.87059570e-01                                 
 2.20353790e-08  7.28114711e-01  2.20353790e-08  6.85008873e-01  2.20353790e-08  1.73093089e+00  2.20353790e-08  1.80000000e+00  2.20353790e-08  5.87991528e-03  2.20353790e-08  6.85008873e-01                                 
 2.36356888e-08  7.26937867e-01  2.36356888e-08  6.83889758e-01  2.36356888e-08  1.72855119e+00  2.36356888e-08  1.80000000e+00  2.36356888e-08 -5.80059188e-03  2.36356888e-08  6.83889758e-01                                 
 2.58641520e-08  7.25410757e-01  2.58641520e-08  6.82429941e-01  2.58641520e-08  1.72563377e+00  2.58641520e-08  1.80000000e+00  2.58641520e-08  5.78309156e-03  2.58641520e-08  6.82429941e-01                                 
 2.97089788e-08  7.23025820e-01  2.97089788e-08  6.80134481e-01  2.97089788e-08  1.72029109e+00  2.97089788e-08  1.80000000e+00  2.97089788e-08 -5.73730453e-03  2.97089788e-08  6.80134481e-01                                 
 3.63819370e-08  7.19423168e-01  3.63819370e-08  6.76641169e-01  3.63819370e-08  1.71164572e+00  3.63819370e-08  1.80000000e+00  3.63819370e-08  5.74666314e-03  3.63819370e-08  6.76641169e-01                                 
 4.26776287e-08  7.16466276e-01  4.26776287e-08  6.73760111e-01  4.26776287e-08  1.70311533e+00  4.26776287e-08  1.80000000e+00  4.26776287e-08 -5.71018216e-03  4.26776287e-08  6.73760111e-01                                 
 5.52690121e-08  7.11407415e-01  5.52690121e-08  6.68815465e-01  5.52690121e-08  1.68697488e+00  5.52690121e-08  1.80000000e+00  5.52690121e-08  5.72571947e-03  5.52690121e-08  6.68815465e-01                                 
 7.44152098e-08  7.05313330e-01  7.44152098e-08  6.62822714e-01  7.44152098e-08  1.66303204e+00  7.44152098e-08  1.80000000e+00  7.44152098e-08 -5.69831308e-03  7.44152098e-08  6.62822714e-01                                 
 1.12707605e-07  6.96205419e-01  1.12707605e-07  6.53839695e-01  1.12707605e-07  1.61884110e+00  1.12707605e-07  1.80000000e+00  1.12707605e-07  5.71917380e-03  1.12707605e-07  6.53839695e-01                                 
 1.67807396e-07  6.84764490e-01  1.67807396e-07  6.42975323e-01  1.67807396e-07  1.55594370e+00  1.67807396e-07  1.80000000e+00  1.67807396e-07 -5.69452967e-03  1.67807396e-07  6.42975323e-01                                 
 2.28012406e-07  6.74085047e-01  2.28012406e-07  6.33091278e-01  2.28012406e-07  1.48810872e+00  2.28012406e-07  1.80000000e+00  2.28012406e-07  5.71622185e-03  2.28012406e-07  6.33091278e-01                                 
 3.17391045e-07  6.61520234e-01  3.17391045e-07  6.21588582e-01  3.17391045e-07  1.38890292e+00  3.17391045e-07  1.80000000e+00  3.17391045e-07 -5.69202708e-03  3.17391045e-07  6.21588582e-01                                 
 4.64978782e-07  6.43482940e-01  4.64978782e-07  6.05558871e-01  4.64978782e-07  1.22621378e+00  4.64978782e-07  1.80000000e+00  4.64978782e-07  5.71472381e-03  4.64978782e-07  6.05558871e-01                                 
 7.32052650e-07  6.14860823e-01  7.32052650e-07  5.81041009e-01  7.32052650e-07  9.28835803e-01  7.32052650e-07  1.80000000e+00  7.32052650e-07 -5.69103821e-03  7.32052650e-07  5.81041009e-01                                 
 1.17168206e-06  5.72475907e-01  1.17168206e-06  5.46022143e-01  1.17168206e-06  6.26721422e-01  1.17168206e-06  1.80000000e+00  1.17168206e-06  5.71476324e-03  1.17168206e-06  5.46022143e-01                                 
 1.19052128e-06  5.71055141e-01  1.19052128e-06  5.44863044e-01  1.19052128e-06  6.19147139e-01  1.19052128e-06  1.80000000e+00  1.19052128e-06  9.64812950e-07  1.19052128e-06  5.44863044e-01                                 
 1.22819972e-06  5.68036863e-01  1.22819972e-06  5.42405719e-01  1.22819972e-06  6.04221476e-01  1.22819972e-06  1.80000000e+00  1.22819972e-06 -1.22818876e-06  1.22819972e-06  5.42405719e-01                                 
 1.30355660e-06  5.62168243e-01  1.30355660e-06  5.37635891e-01  1.30355660e-06  5.77591751e-01  1.30355660e-06  1.80000000e+00  1.30355660e-06  9.88291252e-07  1.30355660e-06  5.37635891e-01                                 
 1.45427036e-06  5.56086330e-01  1.45427036e-06  5.32649428e-01  1.45427036e-06  5.47837536e-01  1.45427036e-06  1.80000000e+00  1.45427036e-06 -1.10325990e-06  1.45427036e-06  5.32649428e-01                                 
 1.58602145e-06  5.72022240e-01  1.58602145e-06  5.45314884e-01  1.58602145e-06  5.55467752e-01  1.58602145e-06  1.80000000e+00  1.58602145e-06  1.33867167e-06  1.58602145e-06  5.45314884e-01                                 
 1.60401648e-06  5.78122016e-01  1.60401648e-06  5.50183439e-01  1.60401648e-06  5.60396078e-01  1.60401648e-06  1.80000000e+00  1.60401648e-06  3.31677119e-07  1.60401648e-06  5.50183439e-01                                 
 1.64000654e-06  5.95512477e-01  1.64000654e-06  5.64069912e-01  1.64000654e-06  5.74959845e-01  1.64000654e-06  1.80000000e+00  1.64000654e-06  6.14839985e-07  1.64000654e-06  5.64069912e-01                                 
 1.71198666e-06  7.64460746e-01  1.71198666e-06  7.14179042e-01  1.71198666e-06  7.26983765e-01  1.71198666e-06  1.80000000e+00  1.71198666e-06  4.71822142e-06  1.71198666e-06  7.14179042e-01                                 
 1.78286414e-06  8.55591965e-01  1.78286414e-06  8.05978748e-01  1.78286414e-06  7.97764723e-01  1.78286414e-06  1.80000000e+00  1.78286414e-06 -9.69412123e-07  1.78286414e-06  8.05978748e-01                                 
 1.84828386e-06  9.34360750e-01  1.84828386e-06  8.64158124e-01  1.84828386e-06  8.53169333e-01  1.84828386e-06  1.80000000e+00  1.84828386e-06  4.16836472e-06  1.84828386e-06  8.64158124e-01                                 
 1.90076904e-06  9.48577977e-01  1.90076904e-06  8.72476742e-01  1.90076904e-06  8.84644824e-01  1.90076904e-06  1.80000000e+00  1.90076904e-06 -2.99113145e-06  1.90076904e-06  8.72476742e-01                                 
 1.95165892e-06  9.39000865e-01  1.95165892e-06  8.67032183e-01  1.95165892e-06  8.59823176e-01  1.95165892e-06  1.80000000e+00  1.95165892e-06  2.12704550e-06  1.95165892e-06  8.67032183e-01                                 
 1.96037403e-06  9.42115043e-01  1.96037403e-06  8.68764588e-01  1.96037403e-06  8.66245708e-01  1.96037403e-06  1.80000000e+00  1.96037403e-06  7.45443444e-07  1.96037403e-06  8.68764588e-01                                 
 1.97780426e-06  9.44351657e-01  1.97780426e-06  8.70086442e-01  1.97780426e-06  8.72323681e-01  1.97780426e-06  1.80000000e+00  1.97780426e-06 -9.48361868e-08  1.97780426e-06  8.70086442e-01                                 
 2.01266472e-06  9.42500300e-01  2.01266472e-06  8.69044423e-01  2.01266472e-06  8.68217920e-01  2.01266472e-06  1.80000000e+00  2.01266472e-06 -1.03679321e-07  2.01266472e-06  8.69044423e-01                                 
 2.05609723e-06  9.42744912e-01  2.05609723e-06  8.69164149e-01  2.05609723e-06  8.69569047e-01  2.05609723e-06  1.80000000e+00  2.05609723e-06  1.77309112e-07  2.05609723e-06  8.69164149e-01                                 
 2.10477074e-06  9.41511111e-01  2.10477074e-06  8.68492173e-01  2.10477074e-06  8.68063126e-01  2.10477074e-06  1.80000000e+00  2.10477074e-06 -2.28844583e-07  2.10477074e-06  8.68492173e-01                                 
 2.20211778e-06  9.40366900e-01  2.20211778e-06  8.67807621e-01  2.20211778e-06  8.67131705e-01  2.20211778e-06  1.80000000e+00  2.20211778e-06  2.24056625e-07  2.20211778e-06  8.67807621e-01                                 
 2.35012549e-06  9.37634521e-01  2.35012549e-06  8.66265571e-01  2.35012549e-06  8.65400847e-01  2.35012549e-06  1.80000000e+00  2.35012549e-06 -2.43366516e-07  2.35012549e-06  8.66265571e-01                                 
 2.63692051e-06  9.31585694e-01  2.63692051e-06  8.62656772e-01  2.63692051e-06  8.61174531e-01  2.63692051e-06  1.80000000e+00  2.63692051e-06  2.14889710e-07  2.63692051e-06  8.62656772e-01                                 
 2.70861927e-06  9.29411919e-01  2.70861927e-06  8.61362629e-01  2.70861927e-06  8.59960452e-01  2.70861927e-06  1.80000000e+00  2.70861927e-06 -2.36398914e-08  2.70861927e-06  8.61362629e-01                                 
 2.85201678e-06  9.24382554e-01  2.85201678e-06  8.58264157e-01  2.85201678e-06  8.56589908e-01  2.85201678e-06  1.80000000e+00  2.85201678e-06 -4.00046472e-08  2.85201678e-06  8.58264157e-01                                 
 3.08618841e-06  9.07178441e-01  3.08618841e-06  8.46991496e-01  3.08618841e-06  8.44436311e-01  3.08618841e-06  1.80000000e+00  3.08618841e-06 -1.25478691e-07  3.08618841e-06  8.46991496e-01                                 
 3.35606054e-06  8.65342972e-01  3.35606054e-06  8.14606100e-01  3.35606054e-06  8.12476235e-01  3.35606054e-06  1.80000000e+00  3.35606054e-06 -2.81811891e-07  3.35606054e-06  8.14606100e-01                                 
 3.55120987e-06  8.49864240e-01  3.55120987e-06  8.00845082e-01  3.55120987e-06  8.00944585e-01  3.55120987e-06  1.80000000e+00  3.55120987e-06  7.57031097e-08  3.55120987e-06  8.00845082e-01                                 
 3.76240306e-06  8.54661612e-01  3.76240306e-06  8.05194631e-01  3.76240306e-06  8.05162112e-01  3.76240306e-06  1.80000000e+00  3.76240306e-06  1.66816105e-08  3.76240306e-06  8.05194631e-01                                 
 4.05208878e-06  8.51953321e-01  4.05208878e-06  8.02750311e-01  4.05208878e-06  8.02834344e-01  4.05208878e-06  1.80000000e+00  4.05208878e-06 -1.94875533e-08  4.05208878e-06  8.02750311e-01                                 
 4.32036159e-06  8.53340609e-01  4.32036159e-06  8.04003059e-01  4.32036159e-06  8.04014882e-01  4.32036159e-06  1.80000000e+00  4.32036159e-06  5.93054125e-08  4.32036159e-06  8.04003059e-01                                 
 4.85690723e-06  8.52599000e-01  4.85690723e-06  8.03335752e-01  4.85690723e-06  8.03393774e-01  4.85690723e-06  1.80000000e+00  4.85690723e-06 -3.85023756e-08  4.85690723e-06  8.03335752e-01                                 
 5.64162112e-06  8.53075325e-01  5.64162112e-06  8.03763205e-01  5.64162112e-06  8.03786960e-01  5.64162112e-06  1.80000000e+00  5.64162112e-06  6.49514405e-08  5.64162112e-06  8.03763205e-01                                 
 6.64162112e-06  8.52759766e-01  6.64162112e-06  8.03481296e-01  6.64162112e-06  8.03531814e-01  6.64162112e-06  1.80000000e+00  6.64162112e-06 -4.10545271e-08  6.64162112e-06  8.03481296e-01                                 
 7.64162112e-06  8.52951908e-01  7.64162112e-06  8.03651632e-01  7.64162112e-06  8.03680756e-01  7.64162112e-06  1.80000000e+00  7.64162112e-06  6.62977123e-08  7.64162112e-06  8.03651632e-01                                 
 8.64162112e-06  8.52850730e-01  8.64162112e-06  8.03563480e-01  8.64162112e-06  8.03608762e-01  8.64162112e-06  1.80000000e+00  8.64162112e-06 -4.17689938e-08  8.64162112e-06  8.03563480e-01                                 
 9.64162112e-06  8.52875411e-01  9.64162112e-06  8.03582370e-01  9.64162112e-06  8.03616210e-01  9.64162112e-06  1.80000000e+00  9.64162112e-06  6.65194197e-08  9.64162112e-06  8.03582370e-01                                 
 1.00005000e-05  8.52970949e-01  1.00005000e-05  8.03672206e-01  1.00005000e-05  8.03710897e-01  1.00005000e-05  1.80000000e+00  1.00005000e-05 -4.07803925e-08  1.00005000e-05  8.03672206e-01                                 
 1.00005500e-05  8.52973457e-01  1.00005500e-05  8.03674672e-01  1.00005500e-05  7.97129811e-01  1.00005500e-05  1.62000000e+00  1.00005500e-05 -9.03575991e-05  1.00005500e-05  8.03674672e-01                                 
 1.00006500e-05  8.52978935e-01  1.00006500e-05  8.03679337e-01  1.00006500e-05  7.88778256e-01  1.00006500e-05  1.26000000e+00  1.00006500e-05 -3.11059842e-05  1.00006500e-05  8.03679337e-01                                 
 1.00008500e-05  8.52987181e-01  1.00008500e-05  8.03686114e-01  1.00008500e-05  7.91110173e-01  1.00008500e-05  5.40000000e-01  1.00008500e-05 -6.03130140e-05  1.00008500e-05  8.03686114e-01                                 
 1.00010000e-05  8.52989299e-01  1.00010000e-05  8.03688269e-01  1.00010000e-05  6.31387336e-01  1.00010000e-05  0.00000000e+00  1.00010000e-05  1.46896677e+00  1.00010000e-05  8.03688269e-01                                 
 1.00010154e-05  8.52989411e-01  1.00010154e-05  8.03688346e-01  1.00010154e-05  5.86935180e-01  1.00010154e-05  0.00000000e+00  1.00010154e-05  1.62729909e+00  1.00010154e-05  8.03688346e-01                                 
 1.00010462e-05  8.52990153e-01  1.00010462e-05  8.03688741e-01  1.00010462e-05  5.10885196e-01  1.00010462e-05  0.00000000e+00  1.00010462e-05  1.78615215e+00  1.00010462e-05  8.03688741e-01                                 
 1.00011078e-05  8.52991894e-01  1.00011078e-05  8.03689864e-01  1.00011078e-05  4.48668144e-01  1.00011078e-05  0.00000000e+00  1.00011078e-05  1.80565603e+00  1.00011078e-05  8.03689864e-01                                 
 1.00011819e-05  8.52993220e-01  1.00011819e-05  8.03691070e-01  1.00011819e-05  4.57485511e-01  1.00011819e-05  0.00000000e+00  1.00011819e-05  1.79857871e+00  1.00011819e-05  8.03691070e-01                                 
 1.00013079e-05  8.52994122e-01  1.00013079e-05  8.03692013e-01  1.00013079e-05  4.72299207e-01  1.00013079e-05  0.00000000e+00  1.00013079e-05  1.80270390e+00  1.00013079e-05  8.03692013e-01                                 
 1.00014397e-05  8.52993735e-01  1.00014397e-05  8.03691795e-01  1.00014397e-05  4.80860325e-01  1.00014397e-05  0.00000000e+00  1.00014397e-05  1.79872217e+00  1.00014397e-05  8.03691795e-01                                 
 1.00017033e-05  8.52990283e-01  1.00017033e-05  8.03688933e-01  1.00017033e-05  4.91110237e-01  1.00017033e-05  0.00000000e+00  1.00017033e-05  1.80162542e+00  1.00017033e-05  8.03688933e-01                                 
 1.00020996e-05  8.52981593e-01  1.00020996e-05  8.03681364e-01  1.00020996e-05  4.97125392e-01  1.00020996e-05  0.00000000e+00  1.00020996e-05  1.79866608e+00  1.00020996e-05  8.03681364e-01                                 
