 time            v(vbep)         time            v(vben)         time            v(vout)         time            v(vphi1)        time            v(vphi2)        time            v(vref)         yes             currtemp       
 0.00000000e+00  6.71224736e-01  0.00000000e+00  6.16872023e-01  0.00000000e+00  1.05283584e-01  0.00000000e+00  0.00000000e+00  0.00000000e+00  1.79998119e+00  0.00000000e+00  5.00000000e-01  1.00000000e+00  2.40000000e+01 
 5.00000000e-12  6.71211924e-01  5.00000000e-12  6.16861346e-01  5.00000000e-12  1.05779965e-01  5.00000000e-12  1.80000000e-02  5.00000000e-12  1.80006278e+00  5.00000000e-12  5.00000000e-01                                 
 1.00000000e-11  6.71199246e-01  1.00000000e-11  6.16850869e-01  1.00000000e-11  1.06224935e-01  1.00000000e-11  3.60000000e-02  1.00000000e-11  1.80010207e+00  1.00000000e-11  5.00000000e-01                                 
 2.00000000e-11  6.71173956e-01  2.00000000e-11  6.16829965e-01  2.00000000e-11  1.07040013e-01  2.00000000e-11  7.20000000e-02  2.00000000e-11  1.80013636e+00  2.00000000e-11  5.00000000e-01                                 
 4.00000000e-11  6.71123496e-01  4.00000000e-11  6.16788246e-01  4.00000000e-11  1.08324767e-01  4.00000000e-11  1.44000000e-01  4.00000000e-11  1.80011204e+00  4.00000000e-11  5.00000000e-01                                 
 8.00000000e-11  6.71022810e-01  8.00000000e-11  6.16704972e-01  8.00000000e-11  1.10079143e-01  8.00000000e-11  2.88000000e-01  8.00000000e-11  1.80006738e+00  8.00000000e-11  5.00000000e-01                                 
 1.60000000e-10  6.70822439e-01  1.60000000e-10  6.16539103e-01  1.60000000e-10  1.12287716e-01  1.60000000e-10  5.76000000e-01  1.60000000e-10  1.80002775e+00  1.60000000e-10  5.00000000e-01                                 
 3.20000000e-10  6.70425645e-01  3.20000000e-10  6.16210080e-01  3.20000000e-10  1.44901408e-01  3.20000000e-10  1.15200000e+00  3.20000000e-10  1.80003808e+00  3.20000000e-10  5.00000000e-01                                 
 5.00000000e-10  6.69985552e-01  5.00000000e-10  6.15844280e-01  5.00000000e-10  4.95655491e-01  5.00000000e-10  1.80000000e+00  5.00000000e-10  1.11625653e-01  5.00000000e-10  5.00000000e-01                                 
 5.21566529e-10  6.69933319e-01  5.21566529e-10  6.15800796e-01  5.21566529e-10  5.63119306e-01  5.21566529e-10  1.80000000e+00  5.21566529e-10  2.10548559e-02  5.21566529e-10  5.00000000e-01                                 
 5.64699586e-10  6.69829038e-01  5.64699586e-10  6.15713959e-01  5.64699586e-10  6.84639547e-01  5.64699586e-10  1.80000000e+00  5.64699586e-10 -9.98675805e-03  5.64699586e-10  5.00000000e-01                                 
 6.50965702e-10  6.69621604e-01  6.50965702e-10  6.15541071e-01  6.50965702e-10  8.70344189e-01  6.50965702e-10  1.80000000e+00  6.50965702e-10  8.48049354e-03  6.50965702e-10  5.00000000e-01                                 
 7.73865800e-10  6.69328634e-01  7.73865800e-10  6.15296550e-01  7.73865800e-10  1.06999590e+00  7.73865800e-10  1.80000000e+00  7.73865800e-10 -7.38697592e-03  7.73865800e-10  5.00000000e-01                                 
 9.65752764e-10  6.68877063e-01  9.65752764e-10  6.14918878e-01  9.65752764e-10  1.31944825e+00  9.65752764e-10  1.80000000e+00  9.65752764e-10  6.96608767e-03  9.65752764e-10  5.00000000e-01                                 
 1.32196068e-09  6.68056994e-01  1.32196068e-09  6.14230635e-01  1.32196068e-09  1.64123532e+00  1.32196068e-09  1.80000000e+00  1.32196068e-09 -6.58804214e-03  1.32196068e-09  5.00000000e-01                                 
 1.96286590e-09  6.66637340e-01  1.96286590e-09  6.13032111e-01  1.96286590e-09  1.86489917e+00  1.96286590e-09  1.80000000e+00  1.96286590e-09  6.53284131e-03  1.96286590e-09  5.00000000e-01                                 
 2.22181759e-09  6.66083206e-01  2.22181759e-09  6.12561820e-01  2.22181759e-09  1.88460224e+00  2.22181759e-09  1.80000000e+00  2.22181759e-09 -6.10934038e-03  2.22181759e-09  5.00000000e-01                                 
 2.53965904e-09  6.65417285e-01  2.53965904e-09  6.11994895e-01  2.53965904e-09  1.89281761e+00  2.53965904e-09  1.80000000e+00  2.53965904e-09  5.90229565e-03  2.53965904e-09  5.00000000e-01                                 
 2.89128830e-09  6.64698070e-01  2.89128830e-09  6.11380470e-01  2.89128830e-09  1.89670799e+00  2.89128830e-09  1.80000000e+00  2.89128830e-09 -5.62200219e-03  2.89128830e-09  5.00000000e-01                                 
 3.59454681e-09  6.63310986e-01  3.59454681e-09  6.10189455e-01  3.59454681e-09  1.90011591e+00  3.59454681e-09  1.80000000e+00  3.59454681e-09  5.55626995e-03  3.59454681e-09  5.00000000e-01                                 
 4.52104507e-09  6.61579736e-01  4.52104507e-09  6.08692012e-01  4.52104507e-09  1.89881007e+00  4.52104507e-09  1.80000000e+00  4.52104507e-09 -5.43623438e-03  4.52104507e-09  5.00000000e-01                                 
 6.37404157e-09  6.58396830e-01  6.37404157e-09  6.05909647e-01  6.37404157e-09  1.89018213e+00  6.37404157e-09  1.80000000e+00  6.37404157e-09  5.43442593e-03  6.37404157e-09  5.00000000e-01                                 
 9.08758300e-09  6.54282160e-01  9.08758300e-09  6.02260132e-01  9.08758300e-09  1.87826977e+00  9.08758300e-09  1.80000000e+00  9.08758300e-09 -5.36558807e-03  9.08758300e-09  5.00000000e-01                                 
 1.05413325e-08  6.52301226e-01  1.05413325e-08  6.00482344e-01  1.05413325e-08  1.87346156e+00  1.05413325e-08  1.80000000e+00  1.05413325e-08  5.34744036e-03  1.05413325e-08  5.00000000e-01                                 
 1.22358620e-08  6.50152951e-01  1.22358620e-08  5.98540757e-01  1.22358620e-08  1.86832999e+00  1.22358620e-08  1.80000000e+00  1.22358620e-08 -5.27497089e-03  1.22358620e-08  5.00000000e-01                                 
 1.40904000e-08  6.47976818e-01  1.40904000e-08  5.96559904e-01  1.40904000e-08  1.86332844e+00  1.40904000e-08  1.80000000e+00  1.40904000e-08  5.26194839e-03  1.40904000e-08  5.00000000e-01                                 
 1.71612105e-08  6.44715578e-01  1.71612105e-08  5.93565736e-01  1.71612105e-08  1.85585757e+00  1.71612105e-08  1.80000000e+00  1.71612105e-08 -5.21326653e-03  1.71612105e-08  5.00000000e-01                                 
 2.08262919e-08  6.41293794e-01  2.08262919e-08  5.90390569e-01  2.08262919e-08  1.84800658e+00  2.08262919e-08  1.80000000e+00  2.08262919e-08  5.21776176e-03  2.08262919e-08  5.00000000e-01                                 
 2.66008451e-08  6.36697083e-01  2.66008451e-08  5.86072765e-01  2.66008451e-08  1.83711060e+00  2.66008451e-08  1.80000000e+00  2.66008451e-08 -5.18120409e-03  2.66008451e-08  5.00000000e-01                                 
 3.52737663e-08  6.31061869e-01  3.52737663e-08  5.80705947e-01  3.52737663e-08  1.82299889e+00  3.52737663e-08  1.80000000e+00  3.52737663e-08  5.19696721e-03  3.52737663e-08  5.00000000e-01                                 
 5.26196089e-08  6.22394071e-01  5.26196089e-08  5.72342269e-01  5.26196089e-08  1.79776238e+00  5.26196089e-08  1.80000000e+00  5.26196089e-08 -5.16861392e-03  5.26196089e-08  5.00000000e-01                                 
 8.40188525e-08  6.11153159e-01  8.40188525e-08  5.61399091e-01  8.40188525e-08  1.75738725e+00  8.40188525e-08  1.80000000e+00  8.40188525e-08  5.19067349e-03  8.40188525e-08  5.00000000e-01                                 
 1.36564756e-07  5.95256229e-01  1.36564756e-07  5.46440951e-01  1.36564756e-07  1.69240122e+00  1.36564756e-07  1.80000000e+00  1.36564756e-07 -5.16508188e-03  1.36564756e-07  5.00000000e-01                                 
 1.84904974e-07  5.82731211e-01  1.84904974e-07  5.34987723e-01  1.84904974e-07  1.63359853e+00  1.84904974e-07  1.80000000e+00  1.84904974e-07  5.18787927e-03  1.84904974e-07  5.00000000e-01                                 
 2.81475515e-07  5.62223601e-01  2.81475515e-07  5.16586858e-01  2.81475515e-07  1.51741676e+00  2.81475515e-07  1.80000000e+00  2.81475515e-07 -5.16283511e-03  2.81475515e-07  5.00000000e-01                                 
 3.79114798e-07  5.42551135e-01  3.79114798e-07  4.99590007e-01  3.79114798e-07  1.39829085e+00  3.79114798e-07  1.80000000e+00  3.79114798e-07  5.18642997e-03  3.79114798e-07  5.00000000e-01                                 
 5.74393363e-07  5.00878175e-01  5.74393363e-07  4.64928582e-01  5.74393363e-07  1.15482589e+00  5.74393363e-07  1.80000000e+00  5.74393363e-07 -5.16175861e-03  5.74393363e-07  5.00000000e-01                                 
 6.15154171e-07  4.91148639e-01  6.15154171e-07  4.57037712e-01  6.15154171e-07  1.10230021e+00  6.15154171e-07  1.80000000e+00  6.15154171e-07 -1.63812194e-07  6.15154171e-07  5.00000000e-01                                 
 6.96675789e-07  4.71888668e-01  6.96675789e-07  4.41461370e-01  6.96675789e-07  9.99061996e-01  6.96675789e-07  1.80000000e+00  6.96675789e-07  6.63049039e-07  6.96675789e-07  5.00000000e-01                                 
 7.74044068e-07  4.69552988e-01  7.74044068e-07  4.39502231e-01  7.74044068e-07  9.29028661e-01  7.74044068e-07  1.80000000e+00  7.74044068e-07  9.04654598e-09  7.74044068e-07  5.00000000e-01                                 
 7.86216941e-07  4.73691978e-01  7.86216941e-07  4.42803181e-01  7.86216941e-07  9.23355890e-01  7.86216941e-07  1.80000000e+00  7.86216941e-07  4.88234864e-07  7.86216941e-07  5.00000000e-01                                 
 8.10562689e-07  4.88925864e-01  8.10562689e-07  4.54965347e-01  8.10562689e-07  9.17866363e-01  8.10562689e-07  1.80000000e+00  8.10562689e-07  7.26995319e-07  8.10562689e-07  5.00000000e-01                                 
 8.47709478e-07  5.72828489e-01  8.47709478e-07  5.21946727e-01  8.47709478e-07  9.60300322e-01  8.47709478e-07  1.80000000e+00  8.47709478e-07  1.91762717e-06  8.47709478e-07  5.00000000e-01                                 
 8.82227976e-07  7.12307540e-01  8.82227976e-07  6.53643624e-01  8.82227976e-07  1.05861768e+00  8.82227976e-07  1.80000000e+00  8.82227976e-07  3.10398181e-06  8.82227976e-07  5.00000000e-01                                 
 9.15189512e-07  7.59598357e-01  9.15189512e-07  7.03333643e-01  9.15189512e-07  1.07332858e+00  9.15189512e-07  1.80000000e+00  9.15189512e-07 -3.16655957e-07  9.15189512e-07  5.00000000e-01                                 
 9.47428764e-07  7.80723133e-01  9.47428764e-07  7.22738988e-01  9.47428764e-07  1.05789841e+00  9.47428764e-07  1.80000000e+00  9.47428764e-07  1.77481914e-06  9.47428764e-07  5.00000000e-01                                 
 9.89660098e-07  7.94530896e-01  9.89660098e-07  7.35203032e-01  9.89660098e-07  1.02938537e+00  9.89660098e-07  1.80000000e+00  9.89660098e-07 -5.43457587e-07  9.89660098e-07  5.00000000e-01                                 
 1.03546781e-06  8.00249994e-01  1.03546781e-06  7.40030933e-01  1.03546781e-06  9.87272832e-01  1.03546781e-06  1.80000000e+00  1.03546781e-06  1.35032868e-06  1.03546781e-06  5.00000000e-01                                 
 1.11432391e-06  8.03206034e-01  1.11432391e-06  7.42623309e-01  1.11432391e-06  9.24466709e-01  1.11432391e-06  1.80000000e+00  1.11432391e-06 -5.65816208e-07  1.11432391e-06  5.00000000e-01                                 
 1.18858934e-06  7.84489955e-01  1.18858934e-06  7.26235551e-01  1.18858934e-06  8.55972891e-01  1.18858934e-06  1.80000000e+00  1.18858934e-06  9.08169982e-07  1.18858934e-06  5.00000000e-01                                 
 1.19819175e-06  7.81424699e-01  1.19819175e-06  7.23518090e-01  1.19819175e-06  8.47830876e-01  1.19819175e-06  1.80000000e+00  1.19819175e-06  1.67374703e-07  1.19819175e-06  5.00000000e-01                                 
 1.21739656e-06  7.78648198e-01  1.21739656e-06  7.20980621e-01  1.21739656e-06  8.33724060e-01  1.21739656e-06  1.80000000e+00  1.21739656e-06  3.25221181e-07  1.21739656e-06  5.00000000e-01                                 
 1.25580619e-06  7.85554170e-01  1.25580619e-06  7.27205869e-01  1.25580619e-06  8.17060733e-01  1.25580619e-06  1.80000000e+00  1.25580619e-06  5.97918557e-07  1.25580619e-06  5.00000000e-01                                 
 1.31933278e-06  7.95025247e-01  1.31933278e-06  7.35587242e-01  1.31933278e-06  7.89234775e-01  1.31933278e-06  1.80000000e+00  1.31933278e-06  3.12717746e-07  1.31933278e-06  5.00000000e-01                                 
 1.38713666e-06  7.89232344e-01  1.38713666e-06  7.30511971e-01  1.38713666e-06  7.47329727e-01  1.38713666e-06  1.80000000e+00  1.38713666e-06  2.71503123e-07  1.38713666e-06  5.00000000e-01                                 
 1.48774280e-06  7.85628992e-01  1.48774280e-06  7.27290837e-01  1.48774280e-06  6.92572551e-01  1.48774280e-06  1.80000000e+00  1.48774280e-06  3.74986817e-07  1.48774280e-06  5.00000000e-01                                 
 1.59256670e-06  7.93067350e-01  1.59256670e-06  7.33875811e-01  1.59256670e-06  6.47844534e-01  1.59256670e-06  1.80000000e+00  1.59256670e-06  4.17882290e-07  1.59256670e-06  5.00000000e-01                                 
 1.74724564e-06  7.86867709e-01  1.74724564e-06  7.28411160e-01  1.74724564e-06  5.72100319e-01  1.74724564e-06  1.80000000e+00  1.74724564e-06  2.28213357e-07  1.74724564e-06  5.00000000e-01                                 
 1.90898273e-06  7.89612831e-01  1.90898273e-06  7.30830843e-01  1.90898273e-06  5.24135479e-01  1.90898273e-06  1.80000000e+00  1.90898273e-06  4.91599285e-07  1.90898273e-06  5.00000000e-01                                 
 2.12137158e-06  7.90406020e-01  2.12137158e-06  7.31551298e-01  2.12137158e-06  4.97918404e-01  2.12137158e-06  1.80000000e+00  2.12137158e-06  2.14954359e-07  2.12137158e-06  5.00000000e-01                                 
 2.16239743e-06  7.88646325e-01  2.16239743e-06  7.29987310e-01  2.16239743e-06  4.94764249e-01  2.16239743e-06  1.80000000e+00  2.16239743e-06  3.17201481e-07  2.16239743e-06  5.00000000e-01                                 
 2.24444915e-06  7.88722449e-01  2.24444915e-06  7.30049684e-01  2.24444915e-06  4.92838789e-01  2.24444915e-06  1.80000000e+00  2.24444915e-06  3.79918517e-07  2.24444915e-06  5.00000000e-01                                 
 2.38473271e-06  7.90268370e-01  2.38473271e-06  7.31421611e-01  2.38473271e-06  5.00425553e-01  2.38473271e-06  1.80000000e+00  2.38473271e-06  3.34758167e-07  2.38473271e-06  5.00000000e-01                                 
 2.52843542e-06  7.88441663e-01  2.52843542e-06  7.29803200e-01  2.52843542e-06  5.01855755e-01  2.52843542e-06  1.80000000e+00  2.52843542e-06  3.42356082e-07  2.52843542e-06  5.00000000e-01                                 
 2.73356592e-06  7.89925400e-01  2.73356592e-06  7.31116491e-01  2.73356592e-06  4.98989908e-01  2.73356592e-06  1.80000000e+00  2.73356592e-06  3.64851353e-07  2.73356592e-06  5.00000000e-01                                 
 2.94723809e-06  7.89034187e-01  2.94723809e-06  7.30330105e-01  2.94723809e-06  5.00278030e-01  2.94723809e-06  1.80000000e+00  2.94723809e-06  3.26969868e-07  2.94723809e-06  5.00000000e-01                                 
 3.26405893e-06  7.89381779e-01  3.26405893e-06  7.30635104e-01  3.26405893e-06  5.00351984e-01  3.26405893e-06  1.80000000e+00  3.26405893e-06  3.70969001e-07  3.26405893e-06  5.00000000e-01                                 
 3.89770062e-06  7.89367823e-01  3.89770062e-06  7.30625739e-01  3.89770062e-06  4.99955692e-01  3.89770062e-06  1.80000000e+00  3.89770062e-06  3.26265987e-07  3.89770062e-06  5.00000000e-01                                 
 4.88061026e-06  7.89209740e-01  4.88061026e-06  7.30482766e-01  4.88061026e-06  5.00362433e-01  4.88061026e-06  1.80000000e+00  4.88061026e-06  3.70336625e-07  4.88061026e-06  5.00000000e-01                                 
 5.88061026e-06  7.89493736e-01  5.88061026e-06  7.30737129e-01  5.88061026e-06  5.00002343e-01  5.88061026e-06  1.80000000e+00  5.88061026e-06  3.27198183e-07  5.88061026e-06  5.00000000e-01                                 
 6.88061026e-06  7.89091709e-01  6.88061026e-06  7.30378280e-01  6.88061026e-06  5.00279827e-01  6.88061026e-06  1.80000000e+00  6.88061026e-06  3.69096754e-07  6.88061026e-06  5.00000000e-01                                 
 7.88061026e-06  7.89602376e-01  7.88061026e-06  7.30833143e-01  7.88061026e-06  5.00109598e-01  7.88061026e-06  1.80000000e+00  7.88061026e-06  3.28727030e-07  7.88061026e-06  5.00000000e-01                                 
 8.88061026e-06  7.88990952e-01  8.88061026e-06  7.30289115e-01  8.88061026e-06  5.00152981e-01  8.88061026e-06  1.80000000e+00  8.88061026e-06  3.67303501e-07  8.88061026e-06  5.00000000e-01                                 
 9.88061026e-06  7.89692203e-01  9.88061026e-06  7.30912444e-01  9.88061026e-06  5.00246618e-01  9.88061026e-06  1.80000000e+00  9.88061026e-06  3.30758592e-07  9.88061026e-06  5.00000000e-01                                 
 1.00005000e-05  7.88791902e-01  1.00005000e-05  7.30113560e-01  1.00005000e-05  4.99655968e-01  1.00005000e-05  1.80000000e+00  1.00005000e-05  3.55377870e-07  1.00005000e-05  5.00000000e-01                                 
 1.00005500e-05  7.88792260e-01  1.00005500e-05  7.30113877e-01  1.00005500e-05  4.91678172e-01  1.00005500e-05  1.62000000e+00  1.00005500e-05 -7.55724898e-05  1.00005500e-05  5.00000000e-01                                 
 1.00006500e-05  7.88792999e-01  1.00006500e-05  7.30114521e-01  1.00006500e-05  4.77880791e-01  1.00006500e-05  1.26000000e+00  1.00006500e-05 -5.63792086e-05  1.00006500e-05  5.00000000e-01                                 
 1.00008500e-05  7.88794525e-01  1.00008500e-05  7.30115849e-01  1.00008500e-05  4.76207451e-01  1.00008500e-05  5.40000000e-01  1.00008500e-05 -2.68924225e-03  1.00008500e-05  5.00000000e-01                                 
 1.00010000e-05  7.88795574e-01  1.00010000e-05  7.30116795e-01  1.00010000e-05  4.37708136e-01  1.00010000e-05  0.00000000e+00  1.00010000e-05  1.56605808e+00  1.00010000e-05  5.00000000e-01                                 
 1.00010185e-05  7.88795652e-01  1.00010185e-05  7.30116882e-01  1.00010185e-05  4.14915224e-01  1.00010185e-05  0.00000000e+00  1.00010185e-05  1.70189477e+00  1.00010185e-05  5.00000000e-01                                 
 1.00010554e-05  7.88795851e-01  1.00010554e-05  7.30117071e-01  1.00010554e-05  3.67360416e-01  1.00010554e-05  0.00000000e+00  1.00010554e-05  1.81213873e+00  1.00010554e-05  5.00000000e-01                                 
 1.00011293e-05  7.88796456e-01  1.00011293e-05  7.30117549e-01  1.00011293e-05  2.99745274e-01  1.00011293e-05  0.00000000e+00  1.00011293e-05  1.79096997e+00  1.00011293e-05  5.00000000e-01                                 
 1.00012208e-05  7.88797321e-01  1.00012208e-05  7.30118266e-01  1.00012208e-05  2.74316863e-01  1.00012208e-05  0.00000000e+00  1.00012208e-05  1.80331668e+00  1.00012208e-05  5.00000000e-01                                 
 1.00013812e-05  7.88798754e-01  1.00013812e-05  7.30119537e-01  1.00013812e-05  2.69464717e-01  1.00013812e-05  0.00000000e+00  1.00013812e-05  1.79715963e+00  1.00013812e-05  5.00000000e-01                                 
 1.00015385e-05  7.88800048e-01  1.00015385e-05  7.30120692e-01  1.00015385e-05  2.71258235e-01  1.00015385e-05  0.00000000e+00  1.00015385e-05  1.80178639e+00  1.00015385e-05  5.00000000e-01                                 
 1.00018532e-05  7.88802330e-01  1.00018532e-05  7.30122746e-01  1.00018532e-05  2.71531475e-01  1.00018532e-05  0.00000000e+00  1.00018532e-05  1.79850947e+00  1.00018532e-05  5.00000000e-01                                 
 1.00021677e-05  7.88804447e-01  1.00021677e-05  7.30124633e-01  1.00021677e-05  2.71601837e-01  1.00021677e-05  0.00000000e+00  1.00021677e-05  1.80120303e+00  1.00021677e-05  5.00000000e-01                                 
