 time            v(vbep)         time            v(vben)         time            v(vout)         time            v(vphi1)        time            v(vphi2)        time            v(vref)         time            v(voutc)        time            v(voutcc)       yes             currtemp       
 0.00000000e+00  7.44960498e-01  0.00000000e+00  6.82601843e-01  0.00000000e+00  1.54605911e+00  0.00000000e+00  0.00000000e+00  0.00000000e+00  1.80000000e+00  0.00000000e+00  6.84272074e-01  0.00000000e+00  1.54605910e+00  0.00000000e+00  1.55298623e+00  1.00000000e+00  4.60000000e+01 
 1.00000000e-11  7.44985612e-01  1.00000000e-11  6.82673425e-01  1.00000000e-11  1.54683555e+00  1.00000000e-11  1.80000000e-02  1.00000000e-11  1.80025241e+00  1.00000000e-11  6.84805073e-01  1.00000000e-11  1.54653038e+00  1.00000000e-11  1.55300036e+00                                 
 2.00000000e-11  7.44992487e-01  2.00000000e-11  6.82718128e-01  2.00000000e-11  1.54730930e+00  2.00000000e-11  3.60000000e-02  2.00000000e-11  1.80035214e+00  2.00000000e-11  6.85200302e-01  2.00000000e-11  1.54688617e+00  2.00000000e-11  1.55300561e+00                                 
 4.00000000e-11  7.44992487e-01  4.00000000e-11  6.82776926e-01  4.00000000e-11  1.54787574e+00  4.00000000e-11  7.20000000e-02  4.00000000e-11  1.80038991e+00  4.00000000e-11  6.85778142e-01  4.00000000e-11  1.54741578e+00  4.00000000e-11  1.55300736e+00                                 
 8.00000000e-11  7.44980764e-01  8.00000000e-11  6.82814594e-01  8.00000000e-11  1.54798246e+00  8.00000000e-11  1.44000000e-01  8.00000000e-11  1.80018554e+00  8.00000000e-11  6.86226230e-01  8.00000000e-11  1.54784542e+00  8.00000000e-11  1.55299679e+00                                 
 1.60000000e-10  7.44977966e-01  1.60000000e-10  6.82825206e-01  1.60000000e-10  1.54764689e+00  1.60000000e-10  2.88000000e-01  1.60000000e-10  1.80000465e+00  1.60000000e-10  6.86305131e-01  1.60000000e-10  1.54789446e+00  1.60000000e-10  1.55298732e+00                                 
 3.20000000e-10  7.44973869e-01  3.20000000e-10  6.82821065e-01  3.20000000e-10  1.54727118e+00  3.20000000e-10  5.76000000e-01  3.20000000e-10  1.79998726e+00  3.20000000e-10  6.86156302e-01  3.20000000e-10  1.54757889e+00  3.20000000e-10  1.55298284e+00                                 
 6.40000000e-10  7.44890526e-01  6.40000000e-10  6.82430109e-01  6.40000000e-10  1.54525231e+00  6.40000000e-10  1.15200000e+00  6.40000000e-10  1.81110194e+00  6.40000000e-10  6.83793958e-01  6.40000000e-10  1.55207878e+00  6.40000000e-10  1.55301057e+00                                 
 1.00000000e-09  7.45511447e-01  1.00000000e-09  6.82722995e-01  1.00000000e-09  1.52171471e+00  1.00000000e-09  1.80000000e+00  1.00000000e-09  9.59025705e-02  1.00000000e-09  6.96259426e-01  1.00000000e-09  1.55366084e+00  1.00000000e-09  1.55298333e+00                                 
 1.03666890e-09  7.45562867e-01  1.03666890e-09  6.82753205e-01  1.03666890e-09  1.52057886e+00  1.03666890e-09  1.80000000e+00  1.03666890e-09  2.17684893e-02  1.03666890e-09  6.99306439e-01  1.03666890e-09  1.55533973e+00  1.03666890e-09  1.55301778e+00                                 
 1.11000670e-09  7.45692275e-01  1.11000670e-09  6.82814950e-01  1.11000670e-09  1.51938343e+00  1.11000670e-09  1.80000000e+00  1.11000670e-09 -1.03752461e-02  1.11000670e-09  7.03241503e-01  1.11000670e-09  1.55840284e+00  1.11000670e-09  1.55304125e+00                                 
 1.25668230e-09  7.45808092e-01  1.25668230e-09  6.82682707e-01  1.25668230e-09  1.51700414e+00  1.25668230e-09  1.80000000e+00  1.25668230e-09  8.53153705e-03  1.25668230e-09  7.03459812e-01  1.25668230e-09  1.55885365e+00  1.25668230e-09  1.55299386e+00                                 
 1.45756912e-09  7.45786232e-01  1.45756912e-09  6.82660004e-01  1.45756912e-09  1.51630117e+00  1.45756912e-09  1.80000000e+00  1.45756912e-09 -6.58024608e-03  1.45756912e-09  7.02795340e-01  1.45756912e-09  1.55807783e+00  1.45756912e-09  1.55302705e+00                                 
 1.67813190e-09  7.45693637e-01  1.67813190e-09  6.82655562e-01  1.67813190e-09  1.51611014e+00  1.67813190e-09  1.80000000e+00  1.67813190e-09  5.60769165e-03  1.67813190e-09  7.01408373e-01  1.67813190e-09  1.55707683e+00  1.67813190e-09  1.55304117e+00                                 
 2.04703829e-09  7.45445584e-01  2.04703829e-09  6.82608945e-01  2.04703829e-09  1.51601306e+00  2.04703829e-09  1.80000000e+00  2.04703829e-09 -5.05476298e-03  2.04703829e-09  6.99074825e-01  2.04703829e-09  1.55492558e+00  2.04703829e-09  1.55313794e+00                                 
 2.48641878e-09  7.45220318e-01  2.48641878e-09  6.82612721e-01  2.48641878e-09  1.51613450e+00  2.48641878e-09  1.80000000e+00  2.48641878e-09  4.53641637e-03  2.48641878e-09  6.96743826e-01  2.48641878e-09  1.55307801e+00  2.48641878e-09  1.55324436e+00                                 
 3.15102026e-09  7.44991030e-01  3.15102026e-09  6.82568095e-01  3.15102026e-09  1.51536459e+00  3.15102026e-09  1.80000000e+00  3.15102026e-09 -4.36545941e-03  3.15102026e-09  6.93269489e-01  3.15102026e-09  1.54997498e+00  3.15102026e-09  1.55342053e+00                                 
 4.13553750e-09  7.44853157e-01  4.13553750e-09  6.82585409e-01  4.13553750e-09  1.51439610e+00  4.13553750e-09  1.80000000e+00  4.13553750e-09  4.12059719e-03  4.13553750e-09  6.89665243e-01  4.13553750e-09  1.54702752e+00  4.13553750e-09  1.55360261e+00                                 
 6.10457198e-09  7.44752195e-01  6.10457198e-09  6.82563790e-01  6.10457198e-09  1.51121336e+00  6.10457198e-09  1.80000000e+00  6.10457198e-09 -4.08307544e-03  6.10457198e-09  6.84866445e-01  6.10457198e-09  1.54281357e+00  6.10457198e-09  1.55372252e+00                                 
 7.69004313e-09  7.44781611e-01  7.69004313e-09  6.82600436e-01  7.69004313e-09  1.50773047e+00  7.69004313e-09  1.80000000e+00  7.69004313e-09  3.96513599e-03  7.69004313e-09  6.83413941e-01  7.69004313e-09  1.54170106e+00  7.69004313e-09  1.55360104e+00                                 
 9.13120271e-09  7.44806610e-01  9.13120271e-09  6.82578138e-01  9.13120271e-09  1.50284838e+00  9.13120271e-09  1.80000000e+00  9.13120271e-09 -3.87106764e-03  9.13120271e-09  6.82485602e-01  9.13120271e-09  1.54078876e+00  9.13120271e-09  1.55340700e+00                                 
 1.07008758e-08  7.44858707e-01  1.07008758e-08  6.82609899e-01  1.07008758e-08  1.49683839e+00  1.07008758e-08  1.80000000e+00  1.07008758e-08  3.77188552e-03  1.07008758e-08  6.82390413e-01  1.07008758e-08  1.54081974e+00  1.07008758e-08  1.55314474e+00                                 
 1.28811187e-08  7.44897717e-01  1.28811187e-08  6.82585171e-01  1.28811187e-08  1.48643400e+00  1.28811187e-08  1.80000000e+00  1.28811187e-08 -3.70843762e-03  1.28811187e-08  6.82099786e-01  1.28811187e-08  1.54044524e+00  1.28811187e-08  1.55277125e+00                                 
 1.55301516e-08  7.44945888e-01  1.55301516e-08  6.82614884e-01  1.55301516e-08  1.47284225e+00  1.55301516e-08  1.80000000e+00  1.55301516e-08  3.65505894e-03  1.55301516e-08  6.82495108e-01  1.55301516e-08  1.54087835e+00  1.55301516e-08  1.55233143e+00                                 
 1.91302945e-08  7.44960469e-01  1.91302945e-08  6.82588136e-01  1.91302945e-08  1.45250240e+00  1.91302945e-08  1.80000000e+00  1.91302945e-08 -3.61550711e-03  1.91302945e-08  6.82584344e-01  1.91302945e-08  1.54081997e+00  1.91302945e-08  1.55180987e+00                                 
 2.39323572e-08  7.44977717e-01  2.39323572e-08  6.82616376e-01  2.39323572e-08  1.42499894e+00  2.39323572e-08  1.80000000e+00  2.39323572e-08  3.58812963e-03  2.39323572e-08  6.83205657e-01  2.39323572e-08  1.54143662e+00  2.39323572e-08  1.55123866e+00                                 
 3.17655134e-08  7.44965792e-01  3.17655134e-08  6.82588525e-01  3.17655134e-08  1.37896930e+00  3.17655134e-08  1.80000000e+00  3.17655134e-08 -3.56939217e-03  3.17655134e-08  6.83426705e-01  3.17655134e-08  1.54148881e+00  3.17655134e-08  1.55056520e+00                                 
 4.53224065e-08  7.44969411e-01  4.53224065e-08  6.82616015e-01  4.53224065e-08  1.29987133e+00  4.53224065e-08  1.80000000e+00  4.53224065e-08  3.56047926e-03  4.53224065e-08  6.84085420e-01  4.53224065e-08  1.54213884e+00  4.53224065e-08  1.54987419e+00                                 
 7.06066918e-08  7.44956476e-01  7.06066918e-08  6.82587954e-01  7.06066918e-08  1.15246359e+00  7.06066918e-08  1.80000000e+00  7.06066918e-08 -3.55391829e-03  7.06066918e-08  6.84115841e-01  7.06066918e-08  1.54204337e+00  7.06066918e-08  1.54935827e+00                                 
 1.05524152e-07  7.44964973e-01  1.05524152e-07  6.82615728e-01  1.05524152e-07  9.52524597e-01  1.05524152e-07  1.80000000e+00  1.05524152e-07  3.55194689e-03  1.05524152e-07  6.84389027e-01  1.05524152e-07  1.54238338e+00  1.05524152e-07  1.54919784e+00                                 
 1.55983605e-07  7.44956430e-01  1.55983605e-07  6.82587926e-01  1.55983605e-07  7.35866527e-01  1.55983605e-07  1.80000000e+00  1.55983605e-07 -3.54306968e-03  1.55983605e-07  6.84152514e-01  1.55983605e-07  1.54206928e+00  1.55983605e-07  1.54916283e+00                                 
 1.96936161e-07  7.44965894e-01  1.96936161e-07  6.82615914e-01  1.96936161e-07  6.81380298e-01  1.96936161e-07  1.80000000e+00  1.96936161e-07  3.55179395e-03  1.96936161e-07  6.84395556e-01  1.96936161e-07  1.54238454e+00  1.96936161e-07  1.54915878e+00                                 
 2.36606248e-07  7.44952871e-01  2.36606248e-07  6.82587614e-01  2.36606248e-07  6.86573068e-01  2.36606248e-07  1.80000000e+00  2.36606248e-07 -3.53483203e-03  2.36606248e-07  6.84151854e-01  2.36606248e-07  1.54206593e+00  2.36606248e-07  1.54915906e+00                                 
 2.61206187e-07  7.44968612e-01  2.61206187e-07  6.82616110e-01  2.61206187e-07  6.86061677e-01  2.61206187e-07  1.80000000e+00  2.61206187e-07  3.54309687e-03  2.61206187e-07  6.84391171e-01  2.61206187e-07  1.54237843e+00  2.61206187e-07  1.54915524e+00                                 
 2.89712246e-07  7.44952650e-01  2.89712246e-07  6.82587568e-01  2.89712246e-07  6.85925230e-01  2.89712246e-07  1.80000000e+00  2.89712246e-07 -3.52503739e-03  2.89712246e-07  6.84152994e-01  2.89712246e-07  1.54206516e+00  2.89712246e-07  1.54915566e+00                                 
 3.38492545e-07  7.44968157e-01  3.38492545e-07  6.82616105e-01  3.38492545e-07  6.86052713e-01  3.38492545e-07  1.80000000e+00  3.38492545e-07  3.53587250e-03  3.38492545e-07  6.84391069e-01  3.38492545e-07  1.54237557e+00  3.38492545e-07  1.54915221e+00                                 
 3.99591269e-07  7.44953004e-01  3.99591269e-07  6.82587576e-01  3.99591269e-07  6.85896352e-01  3.99591269e-07  1.80000000e+00  3.99591269e-07 -3.52027648e-03  3.99591269e-07  6.84153058e-01  3.99591269e-07  1.54206151e+00  3.99591269e-07  1.54915170e+00                                 
 5.19653775e-07  7.44967907e-01  5.19653775e-07  6.82616099e-01  5.19653775e-07  6.86066996e-01  5.19653775e-07  1.80000000e+00  5.19653775e-07  3.53266202e-03  5.19653775e-07  6.84391037e-01  5.19653775e-07  1.54236925e+00  5.19653775e-07  1.54914599e+00                                 
 7.05480464e-07  7.44953146e-01  7.05480464e-07  6.82587579e-01  7.05480464e-07  6.85889371e-01  7.05480464e-07  1.80000000e+00  7.05480464e-07 -3.51850199e-03  7.05480464e-07  6.84153071e-01  7.05480464e-07  1.54205102e+00  7.05480464e-07  1.54914118e+00                                 
 1.03582660e-06  7.44967820e-01  1.03582660e-06  6.82616096e-01  1.03582660e-06  6.86070745e-01  1.03582660e-06  1.80000000e+00  1.03582660e-06  3.53156971e-03  1.03582660e-06  6.84391030e-01  1.03582660e-06  1.54235145e+00  1.03582660e-06  1.54912825e+00                                 
 1.63186563e-06  7.44953195e-01  1.63186563e-06  6.82587581e-01  1.63186563e-06  6.85887297e-01  1.63186563e-06  1.80000000e+00  1.63186563e-06 -3.51788881e-03  1.63186563e-06  6.84153075e-01  1.63186563e-06  1.54201911e+00  1.63186563e-06  1.54910930e+00                                 
 2.65421276e-06  7.44967792e-01  2.65421276e-06  6.82616096e-01  2.65421276e-06  6.86071832e-01  2.65421276e-06  1.80000000e+00  2.65421276e-06  3.53122472e-03  2.65421276e-06  6.84391028e-01  2.65421276e-06  1.54229572e+00  2.65421276e-06  1.54907259e+00                                 
 3.85421276e-06  7.44953214e-01  3.85421276e-06  6.82587581e-01  3.85421276e-06  6.85886540e-01  3.85421276e-06  1.80000000e+00  3.85421276e-06 -3.51766709e-03  3.85421276e-06  6.84153076e-01  3.85421276e-06  1.54194264e+00  3.85421276e-06  1.54903292e+00                                 
 5.05421276e-06  7.44967774e-01  5.05421276e-06  6.82616095e-01  5.05421276e-06  6.86072493e-01  5.05421276e-06  1.80000000e+00  5.05421276e-06  3.53100879e-03  5.05421276e-06  6.84391027e-01  5.05421276e-06  1.54221316e+00  5.05421276e-06  1.54899014e+00                                 
 6.00100000e-06  7.44953234e-01  6.00100000e-06  6.82587582e-01  6.00100000e-06  6.85885772e-01  6.00100000e-06  1.80000000e+00  6.00100000e-06 -3.51742681e-03  6.00100000e-06  6.84153078e-01  6.00100000e-06  1.54186876e+00  6.00100000e-06  1.54895914e+00                                 
 6.00110000e-06  7.44912275e-01  6.00110000e-06  6.82362066e-01  6.00110000e-06  6.84170506e-01  6.00110000e-06  1.62000000e+00  6.00110000e-06 -3.92089978e-04  6.00110000e-06  6.82681179e-01  6.00110000e-06  1.54066171e+00  6.00110000e-06  1.54894862e+00                                 
 6.00130000e-06  7.44946143e-01  6.00130000e-06  6.82365749e-01  6.00130000e-06  6.84374376e-01  6.00130000e-06  1.26000000e+00  6.00130000e-06  2.57478841e-04  6.00130000e-06  6.82527631e-01  6.00130000e-06  1.54054083e+00  6.00130000e-06  1.54896280e+00                                 
 6.00165644e-06  7.45003841e-01  6.00165644e-06  6.82590281e-01  6.00165644e-06  6.86493287e-01  6.00165644e-06  6.18411045e-01  6.00165644e-06 -1.98734234e-03  6.00165644e-06  6.83277609e-01  6.00165644e-06  1.53852411e+00  6.00165644e-06  1.54894554e+00                                 
 6.00200000e-06  7.44949539e-01  6.00200000e-06  6.80983098e-01  6.00200000e-06  7.18309559e-01  6.00200000e-06  0.00000000e+00  6.00200000e-06  1.59637483e+00  6.00200000e-06  6.66111680e-01  6.00200000e-06  1.35024702e+00  6.00200000e-06  1.54835310e+00                                 
 6.00204080e-06  7.44963564e-01  6.00204080e-06  6.80615368e-01  6.00204080e-06  7.24633655e-01  6.00204080e-06  0.00000000e+00  6.00204080e-06  1.72025517e+00  6.00204080e-06  6.61989419e-01  6.00204080e-06  1.29190633e+00  6.00204080e-06  1.54836590e+00                                 
 6.00212241e-06  7.44962416e-01  6.00212241e-06  6.79910571e-01  6.00212241e-06  7.29173542e-01  6.00212241e-06  0.00000000e+00  6.00212241e-06  1.81349213e+00  6.00212241e-06  6.54372203e-01  6.00212241e-06  1.17020546e+00  6.00212241e-06  1.54871884e+00                                 
 6.00226927e-06  7.44958240e-01  6.00226927e-06  6.79781193e-01  6.00226927e-06  7.20298540e-01  6.00226927e-06  0.00000000e+00  6.00226927e-06  1.79008349e+00  6.00226927e-06  6.53869719e-01  6.00226927e-06  9.92722471e-01  6.00226927e-06  1.54918876e+00                                 
 6.00241781e-06  7.44960896e-01  6.00241781e-06  6.80171470e-01  6.00241781e-06  7.15241149e-01  6.00241781e-06  0.00000000e+00  6.00241781e-06  1.80331870e+00  6.00241781e-06  6.58549863e-01  6.00241781e-06  8.70962169e-01  6.00241781e-06  1.54915975e+00                                 
 6.00260774e-06  7.44957161e-01  6.00260774e-06  6.80886067e-01  6.00260774e-06  7.05074822e-01  6.00260774e-06  0.00000000e+00  6.00260774e-06  1.79679498e+00  6.00260774e-06  6.65709637e-01  6.00260774e-06  7.67538029e-01  6.00260774e-06  1.54934592e+00                                 
 6.00283044e-06  7.44960628e-01  6.00283044e-06  6.81953872e-01  6.00283044e-06  6.93948265e-01  6.00283044e-06  0.00000000e+00  6.00283044e-06  1.80158940e+00  6.00283044e-06  6.76079634e-01  6.00283044e-06  7.15020952e-01  6.00283044e-06  1.54928792e+00                                 
 6.00303627e-06  7.44957615e-01  6.00303627e-06  6.82481900e-01  6.00303627e-06  6.89941884e-01  6.00303627e-06  0.00000000e+00  6.00303627e-06  1.79904749e+00  6.00303627e-06  6.80188106e-01  6.00303627e-06  6.96782260e-01  6.00303627e-06  1.54906232e+00                                 
 6.00331664e-06  7.44960844e-01  6.00331664e-06  6.82938334e-01  6.00331664e-06  6.87003016e-01  6.00331664e-06  0.00000000e+00  6.00331664e-06  1.80071222e+00  6.00331664e-06  6.83795869e-01  6.00331664e-06  6.89501120e-01  6.00331664e-06  1.54829699e+00                                 
 6.00360127e-06  7.44958425e-01  6.00360127e-06  6.83049545e-01  6.00360127e-06  6.87210902e-01  6.00360127e-06  0.00000000e+00  6.00360127e-06  1.79955496e+00  6.00360127e-06  6.84391685e-01  6.00360127e-06  6.87163280e-01  6.00360127e-06  1.54731584e+00                                 
 6.00409604e-06  7.44961224e-01  6.00409604e-06  6.83130756e-01  6.00409604e-06  6.87360276e-01  6.00409604e-06  0.00000000e+00  6.00409604e-06  1.80038409e+00  6.00409604e-06  6.85399790e-01  6.00409604e-06  6.87610445e-01  6.00409604e-06  1.54522709e+00                                 
 6.00477764e-06  7.44959099e-01  6.00477764e-06  6.83055435e-01  6.00477764e-06  6.89421296e-01  6.00477764e-06  0.00000000e+00  6.00477764e-06  1.79969930e+00  6.00477764e-06  6.85257298e-01  6.00477764e-06  6.88727608e-01  6.00477764e-06  1.54207810e+00                                 
 6.00614084e-06  7.44961546e-01  6.00614084e-06  6.82977852e-01  6.00614084e-06  6.92471080e-01  6.00614084e-06  0.00000000e+00  6.00614084e-06  1.80029873e+00  6.00614084e-06  6.85722898e-01  6.00614084e-06  6.92548358e-01  6.00614084e-06  1.53523382e+00                                 
 6.00878695e-06  7.44959372e-01  6.00878695e-06  6.82775774e-01  6.00878695e-06  7.00095237e-01  6.00878695e-06  0.00000000e+00  6.00878695e-06  1.79973693e+00  6.00878695e-06  6.85346680e-01  6.00878695e-06  6.99322132e-01  6.00878695e-06  1.52128489e+00                                 
 6.01407918e-06  7.44961611e-01  6.01407918e-06  6.82619168e-01  6.01407918e-06  7.13873163e-01  6.01407918e-06  0.00000000e+00  6.01407918e-06  1.80027913e+00  6.01407918e-06  6.85360331e-01  6.01407918e-06  7.13927266e-01  6.01407918e-06  1.49283084e+00                                 
 6.02466364e-06  7.44959395e-01  6.02466364e-06  6.82562789e-01  6.02466364e-06  7.41713789e-01  6.02466364e-06  0.00000000e+00  6.02466364e-06  1.79974529e+00  6.02466364e-06  6.84605293e-01  6.02466364e-06  7.40830720e-01  6.02466364e-06  1.43844844e+00                                 
 6.04271787e-06  7.44961600e-01  6.04271787e-06  6.82614933e-01  6.04271787e-06  7.84821406e-01  6.04271787e-06  0.00000000e+00  6.04271787e-06  1.80027309e+00  6.04271787e-06  6.84554801e-01  6.04271787e-06  7.84955851e-01  6.04271787e-06  1.35431969e+00                                 
 6.07882632e-06  7.44959398e-01  6.07882632e-06  6.82585385e-01  6.07882632e-06  8.61465526e-01  6.07882632e-06  0.00000000e+00  6.07882632e-06  1.79974497e+00  6.07882632e-06  6.84100805e-01  6.07882632e-06  8.59818654e-01  6.07882632e-06  1.20938775e+00                                 
 6.14188724e-06  7.44961598e-01  6.14188724e-06  6.82618060e-01  6.14188724e-06  9.64399813e-01  6.14188724e-06  0.00000000e+00  6.14188724e-06  1.80026720e+00  6.14188724e-06  6.84419836e-01  6.14188724e-06  9.65389050e-01  6.14188724e-06  1.03518259e+00                                 
 6.24825961e-06  7.44959399e-01  6.24825961e-06  6.82585833e-01  6.24825961e-06  1.07680116e+00  6.24825961e-06  0.00000000e+00  6.24825961e-06  1.79973989e+00  6.24825961e-06  6.84110309e-01  6.24825961e-06  1.07426081e+00  6.24825961e-06  1.02666347e+00                                 
