 time            v(vbep)         time            v(vben)         time            v(vout)         time            v(vphi1)        time            v(vphi2)        time            v(vref)         time            v(voutc)        time            v(voutcc)       yes             currtemp       
 0.00000000e+00  7.34313409e-01  0.00000000e+00  6.70450158e-01  0.00000000e+00  1.52742589e+00  0.00000000e+00  0.00000000e+00  0.00000000e+00  1.80000000e+00  0.00000000e+00  6.71766081e-01  0.00000000e+00  1.52742588e+00  0.00000000e+00  1.53456180e+00  1.00000000e+00  5.30000000e+01 
 1.00000000e-11  7.34338524e-01  1.00000000e-11  6.70522096e-01  1.00000000e-11  1.52819805e+00  1.00000000e-11  1.80000000e-02  1.00000000e-11  1.80025311e+00  1.00000000e-11  6.72300030e-01  1.00000000e-11  1.52789769e+00  1.00000000e-11  1.53457552e+00                                 
 2.00000000e-11  7.34345390e-01  2.00000000e-11  6.70566868e-01  2.00000000e-11  1.52866595e+00  2.00000000e-11  3.60000000e-02  2.00000000e-11  1.80035272e+00  2.00000000e-11  6.72695497e-01  2.00000000e-11  1.52825302e+00  2.00000000e-11  1.53458047e+00                                 
 4.00000000e-11  7.34345406e-01  4.00000000e-11  6.70625625e-01  4.00000000e-11  1.52922132e+00  4.00000000e-11  7.20000000e-02  4.00000000e-11  1.80038993e+00  4.00000000e-11  6.73273557e-01  4.00000000e-11  1.52878096e+00  4.00000000e-11  1.53458185e+00                                 
 8.00000000e-11  7.34333761e-01  8.00000000e-11  6.70662996e-01  8.00000000e-11  1.52931570e+00  8.00000000e-11  1.44000000e-01  8.00000000e-11  1.80018498e+00  8.00000000e-11  6.73722719e-01  8.00000000e-11  1.52920656e+00  8.00000000e-11  1.53457127e+00                                 
 1.60000000e-10  7.34331008e-01  1.60000000e-10  6.70673352e-01  1.60000000e-10  1.52897897e+00  1.60000000e-10  2.88000000e-01  1.60000000e-10  1.80000515e+00  1.60000000e-10  6.73808480e-01  1.60000000e-10  1.52925286e+00  1.60000000e-10  1.53456191e+00                                 
 3.20000000e-10  7.34326694e-01  3.20000000e-10  6.70666872e-01  3.20000000e-10  1.52859739e+00  3.20000000e-10  5.76000000e-01  3.20000000e-10  1.79998456e+00  3.20000000e-10  6.73650787e-01  3.20000000e-10  1.52891996e+00  3.20000000e-10  1.53455712e+00                                 
 6.40000000e-10  7.34243245e-01  6.40000000e-10  6.70260876e-01  6.40000000e-10  1.52673375e+00  6.40000000e-10  1.15200000e+00  6.40000000e-10  1.81058373e+00  6.40000000e-10  6.71111550e-01  6.40000000e-10  1.53313888e+00  6.40000000e-10  1.53458389e+00                                 
 1.00000000e-09  7.34849579e-01  1.00000000e-09  6.70592942e-01  1.00000000e-09  1.50430761e+00  1.00000000e-09  1.80000000e+00  1.00000000e-09  9.89506157e-02  1.00000000e-09  6.84949622e-01  1.00000000e-09  1.53622179e+00  1.00000000e-09  1.53456801e+00                                 
 1.03687036e-09  7.34911224e-01  1.03687036e-09  6.70616288e-01  1.03687036e-09  1.50303187e+00  1.03687036e-09  1.80000000e+00  1.03687036e-09  2.27821497e-02  1.03687036e-09  6.88086828e-01  1.03687036e-09  1.53796057e+00  1.03687036e-09  1.53459866e+00                                 
 1.11061107e-09  7.35059763e-01  1.11061107e-09  6.70668972e-01  1.11061107e-09  1.50151503e+00  1.11061107e-09  1.80000000e+00  1.11061107e-09 -1.07786046e-02  1.11061107e-09  6.92114120e-01  1.11061107e-09  1.54109399e+00  1.11061107e-09  1.53461876e+00                                 
 1.25809251e-09  7.35184320e-01  1.25809251e-09  6.70530538e-01  1.25809251e-09  1.49875724e+00  1.25809251e-09  1.80000000e+00  1.25809251e-09  8.72525380e-03  1.25809251e-09  6.92273814e-01  1.25809251e-09  1.54150437e+00  1.25809251e-09  1.53457088e+00                                 
 1.45145589e-09  7.35157489e-01  1.45145589e-09  6.70510149e-01  1.45145589e-09  1.49802251e+00  1.45145589e-09  1.80000000e+00  1.45145589e-09 -6.69285321e-03  1.45145589e-09  6.91486788e-01  1.45145589e-09  1.54062073e+00  1.45145589e-09  1.53460521e+00                                 
 1.66625442e-09  7.35060619e-01  1.66625442e-09  6.70506382e-01  1.66625442e-09  1.49780627e+00  1.66625442e-09  1.80000000e+00  1.66625442e-09  5.63428801e-03  1.66625442e-09  6.90002461e-01  1.66625442e-09  1.53953811e+00  1.66625442e-09  1.53462617e+00                                 
 2.02427885e-09  7.34813101e-01  2.02427885e-09  6.70460201e-01  2.02427885e-09  1.49755613e+00  2.02427885e-09  1.80000000e+00  2.02427885e-09 -5.05116123e-03  2.02427885e-09  6.87505154e-01  2.02427885e-09  1.53724532e+00  2.02427885e-09  1.53473462e+00                                 
 2.49944486e-09  7.34563731e-01  2.49944486e-09  6.70463266e-01  2.49944486e-09  1.49748881e+00  2.49944486e-09  1.80000000e+00  2.49944486e-09  4.55752996e-03  2.49944486e-09  6.84726443e-01  2.49944486e-09  1.53501402e+00  2.49944486e-09  1.53487349e+00                                 
 3.18797935e-09  7.34321571e-01  3.18797935e-09  6.70417583e-01  3.18797935e-09  1.49656423e+00  3.18797935e-09  1.80000000e+00  3.18797935e-09 -4.38156777e-03  3.18797935e-09  6.80869988e-01  3.18797935e-09  1.53158264e+00  3.18797935e-09  1.53508299e+00                                 
 4.22787075e-09  7.34174652e-01  4.22787075e-09  6.70434620e-01  4.22787075e-09  1.49534012e+00  4.22787075e-09  1.80000000e+00  4.22787075e-09  4.15356048e-03  4.22787075e-09  6.76864462e-01  4.22787075e-09  1.52829286e+00  4.22787075e-09  1.53529787e+00                                 
 5.97587272e-09  7.34095803e-01  5.97587272e-09  6.70410370e-01  5.97587272e-09  1.49163067e+00  5.97587272e-09  1.80000000e+00  5.97587272e-09 -4.09596564e-03  5.97587272e-09  6.72398216e-01  5.97587272e-09  1.52436155e+00  5.97587272e-09  1.53541390e+00                                 
 7.50131258e-09  7.34129382e-01  7.50131258e-09  6.70446455e-01  7.50131258e-09  1.48733926e+00  7.50131258e-09  1.80000000e+00  7.50131258e-09  3.97296650e-03  7.50131258e-09  6.70856991e-01  7.50131258e-09  1.52317373e+00  7.50131258e-09  1.53529449e+00                                 
 8.91567032e-09  7.34157975e-01  8.91567032e-09  6.70424002e-01  8.91567032e-09  1.48163627e+00  8.91567032e-09  1.80000000e+00  8.91567032e-09 -3.87340596e-03  8.91567032e-09  6.69865668e-01  8.91567032e-09  1.52220734e+00  8.91567032e-09  1.53509147e+00                                 
 1.04443642e-08  7.34212393e-01  1.04443642e-08  6.70456931e-01  1.04443642e-08  1.47481810e+00  1.04443642e-08  1.80000000e+00  1.04443642e-08  3.76934368e-03  1.04443642e-08  6.69753286e-01  1.04443642e-08  1.52222326e+00  1.04443642e-08  1.53481812e+00                                 
 1.25132992e-08  7.34250792e-01  1.25132992e-08  6.70432328e-01  1.25132992e-08  1.46367700e+00  1.25132992e-08  1.80000000e+00  1.25132992e-08 -3.70091389e-03  1.25132992e-08  6.69452789e-01  1.25132992e-08  1.52184000e+00  1.25132992e-08  1.53443696e+00                                 
 1.50446682e-08  7.34299282e-01  1.50446682e-08  6.70463154e-01  1.50446682e-08  1.44919485e+00  1.50446682e-08  1.80000000e+00  1.50446682e-08  3.64335371e-03  1.50446682e-08  6.69855523e-01  1.50446682e-08  1.52227870e+00  1.50446682e-08  1.53398601e+00                                 
 1.84586411e-08  7.34313358e-01  1.84586411e-08  6.70436105e-01  1.84586411e-08  1.42785987e+00  1.84586411e-08  1.80000000e+00  1.84586411e-08 -3.60131589e-03  1.84586411e-08  6.69951428e-01  1.84586411e-08  1.52222592e+00  1.84586411e-08  1.53345475e+00                                 
 2.30239177e-08  7.34331569e-01  2.30239177e-08  6.70465080e-01  2.30239177e-08  1.39890085e+00  2.30239177e-08  1.80000000e+00  2.30239177e-08  3.57126680e-03  2.30239177e-08  6.70597288e-01  2.30239177e-08  1.52286273e+00  2.30239177e-08  1.53287434e+00                                 
 3.03451708e-08  7.34319283e-01  3.03451708e-08  6.70436710e-01  3.03451708e-08  1.35118246e+00  3.03451708e-08  1.80000000e+00  3.03451708e-08 -3.55150649e-03  3.03451708e-08  6.70837400e-01  3.03451708e-08  1.52293176e+00  3.03451708e-08  1.53220453e+00                                 
 4.32041178e-08  7.34323049e-01  4.32041178e-08  6.70464759e-01  4.32041178e-08  1.26778798e+00  4.32041178e-08  1.80000000e+00  4.32041178e-08  3.54125047e-03  4.32041178e-08  6.71539047e-01  4.32041178e-08  1.52361813e+00  4.32041178e-08  1.53151871e+00                                 
 6.66017487e-08  7.34309181e-01  6.66017487e-08  6.70435996e-01  6.66017487e-08  1.11624597e+00  6.66017487e-08  1.80000000e+00  6.66017487e-08 -3.53467753e-03  6.66017487e-08  6.71593644e-01  6.66017487e-08  1.52354500e+00  6.66017487e-08  1.53103903e+00                                 
 9.98269349e-08  7.34317821e-01  9.98269349e-08  6.70464326e-01  9.98269349e-08  9.05749065e-01  9.98269349e-08  1.80000000e+00  9.98269349e-08  3.53217322e-03  9.98269349e-08  6.71884200e-01  9.98269349e-08  1.52390019e+00  9.98269349e-08  1.53090475e+00                                 
 1.40393836e-07  7.34310281e-01  1.40393836e-07  6.70435970e-01  1.40393836e-07  7.18768860e-01  1.40393836e-07  1.80000000e+00  1.40393836e-07 -3.52192446e-03  1.40393836e-07  6.71644806e-01  1.40393836e-07  1.52358502e+00  1.40393836e-07  1.53088755e+00                                 
 1.73209102e-07  7.34317440e-01  1.73209102e-07  6.70464552e-01  1.73209102e-07  6.72180495e-01  1.73209102e-07  1.80000000e+00  1.73209102e-07  3.53072300e-03  1.73209102e-07  6.71892546e-01  1.73209102e-07  1.52390408e+00  1.73209102e-07  1.53088498e+00                                 
 2.04678974e-07  7.34307051e-01  2.04678974e-07  6.70435565e-01  2.04678974e-07  6.73144308e-01  2.04678974e-07  1.80000000e+00  2.04678974e-07 -3.51180319e-03  2.04678974e-07  6.71643758e-01  2.04678974e-07  1.52358201e+00  2.04678974e-07  1.53088522e+00                                 
 2.28613308e-07  7.34319817e-01  2.28613308e-07  6.70464780e-01  2.28613308e-07  6.73143185e-01  2.28613308e-07  1.80000000e+00  2.28613308e-07  3.52093336e-03  2.28613308e-07  6.71887907e-01  2.28613308e-07  1.52389807e+00  2.28613308e-07  1.53088176e+00                                 
 2.54502018e-07  7.34307132e-01  2.54502018e-07  6.70435520e-01  2.54502018e-07  6.73068369e-01  2.54502018e-07  1.80000000e+00  2.54502018e-07 -3.50118310e-03  2.54502018e-07  6.71644427e-01  2.54502018e-07  1.52358100e+00  2.54502018e-07  1.53088172e+00                                 
 3.06279439e-07  7.34319603e-01  3.06279439e-07  6.70464783e-01  3.06279439e-07  6.73169259e-01  3.06279439e-07  1.80000000e+00  3.06279439e-07  3.51323578e-03  3.06279439e-07  6.71887611e-01  3.06279439e-07  1.52389507e+00  3.06279439e-07  1.53087845e+00                                 
 4.01044770e-07  7.34307263e-01  4.01044770e-07  6.70435524e-01  4.01044770e-07  6.73054599e-01  4.01044770e-07  1.80000000e+00  4.01044770e-07 -3.49723286e-03  4.01044770e-07  6.71644539e-01  4.01044770e-07  1.52357621e+00  4.01044770e-07  1.53087645e+00                                 
 5.73985434e-07  7.34319528e-01  5.73985434e-07  6.70464779e-01  5.73985434e-07  6.73175313e-01  5.73985434e-07  1.80000000e+00  5.73985434e-07  3.51106848e-03  5.73985434e-07  6.71887560e-01  5.73985434e-07  1.52388598e+00  5.73985434e-07  1.53086945e+00                                 
 9.19866762e-07  7.34307304e-01  9.19866762e-07  6.70435527e-01  9.19866762e-07  6.73051438e-01  9.19866762e-07  1.80000000e+00  9.19866762e-07 -3.49608531e-03  9.19866762e-07  6.71644564e-01  9.19866762e-07  1.52355879e+00  9.19866762e-07  1.53085901e+00                                 
 1.61162942e-06  7.34319508e-01  1.61162942e-06  6.70464778e-01  1.61162942e-06  6.73176746e-01  1.61162942e-06  1.80000000e+00  1.61162942e-06  3.51049291e-03  1.61162942e-06  6.71887549e-01  1.61162942e-06  1.52385103e+00  1.61162942e-06  1.53083457e+00                                 
 2.81162942e-06  7.34307314e-01  2.81162942e-06  6.70435528e-01  2.81162942e-06  6.73050659e-01  2.81162942e-06  1.80000000e+00  2.81162942e-06 -3.49579197e-03  2.81162942e-06  6.71644570e-01  2.81162942e-06  1.52349513e+00  2.81162942e-06  1.53079542e+00                                 
 4.01162942e-06  7.34319500e-01  4.01162942e-06  6.70464778e-01  4.01162942e-06  6.73177281e-01  4.01162942e-06  1.80000000e+00  4.01162942e-06  3.51027279e-03  4.01162942e-06  6.71887545e-01  4.01162942e-06  1.52377025e+00  4.01162942e-06  1.53075391e+00                                 
 5.21162942e-06  7.34307322e-01  5.21162942e-06  6.70435529e-01  5.21162942e-06  6.73050102e-01  5.21162942e-06  1.80000000e+00  5.21162942e-06 -3.49558312e-03  5.21162942e-06  6.71644574e-01  5.21162942e-06  1.52341433e+00  5.21162942e-06  1.53071472e+00                                 
 6.00100000e-06  7.34319491e-01  6.00100000e-06  6.70464777e-01  6.00100000e-06  6.73177939e-01  6.00100000e-06  1.80000000e+00  6.00100000e-06  3.50999429e-03  6.00100000e-06  6.71887540e-01  6.00100000e-06  1.52370325e+00  6.00100000e-06  1.53068700e+00                                 
 6.00110000e-06  7.34267760e-01  6.00110000e-06  6.70212241e-01  6.00110000e-06  6.71297904e-01  6.00110000e-06  1.62000000e+00  6.00110000e-06  2.04303534e-04  6.00110000e-06  6.70192098e-01  6.00110000e-06  1.52220528e+00  6.00110000e-06  1.53067613e+00                                 
 6.00130000e-06  7.34299607e-01  6.00130000e-06  6.70211203e-01  6.00130000e-06  6.71444705e-01  6.00130000e-06  1.26000000e+00  6.00130000e-06 -2.38647567e-04  6.00130000e-06  6.69992977e-01  6.00130000e-06  1.52202923e+00  6.00130000e-06  1.53069294e+00                                 
 6.00165806e-06  7.34361359e-01  6.00165806e-06  6.70406390e-01  6.00165806e-06  6.73415533e-01  6.00165806e-06  6.15484256e-01  6.00165806e-06  2.99635807e-03  6.00165806e-06  6.70341442e-01  6.00165806e-06  1.51906267e+00  6.00165806e-06  1.53066919e+00                                 
 6.00200000e-06  7.34301295e-01  6.00200000e-06  6.68917433e-01  6.00200000e-06  7.06106676e-01  6.00200000e-06  0.00000000e+00  6.00200000e-06  1.60001784e+00  6.00200000e-06  6.54564626e-01  6.00200000e-06  1.32715905e+00  6.00200000e-06  1.53008587e+00                                 
 6.00204098e-06  7.34316179e-01  6.00204098e-06  6.68494726e-01  6.00204098e-06  7.12382800e-01  6.00204098e-06  0.00000000e+00  6.00204098e-06  1.72210014e+00  6.00204098e-06  6.49784278e-01  6.00204098e-06  1.26666800e+00  6.00204098e-06  1.53009618e+00                                 
 6.00212295e-06  7.34316567e-01  6.00212295e-06  6.67720072e-01  6.00212295e-06  7.16844202e-01  6.00212295e-06  0.00000000e+00  6.00212295e-06  1.81337628e+00  6.00212295e-06  6.41279524e-01  6.00212295e-06  1.14135663e+00  6.00212295e-06  1.53046261e+00                                 
 6.00228688e-06  7.34312104e-01  6.00228688e-06  6.67595568e-01  6.00228688e-06  7.07709307e-01  6.00228688e-06  0.00000000e+00  6.00228688e-06  1.78951060e+00  6.00228688e-06  6.40788862e-01  6.00228688e-06  9.42117701e-01  6.00228688e-06  1.53094715e+00                                 
 6.00243957e-06  7.34314526e-01  6.00243957e-06  6.68134181e-01  6.00243957e-06  7.01032554e-01  6.00243957e-06  0.00000000e+00  6.00243957e-06  1.80372730e+00  6.00243957e-06  6.46999527e-01  6.00243957e-06  8.23604190e-01  6.00243957e-06  1.53090562e+00                                 
 6.00262856e-06  7.34311089e-01  6.00262856e-06  6.68978088e-01  6.00262856e-06  6.89321634e-01  6.00262856e-06  0.00000000e+00  6.00262856e-06  1.79669997e+00  6.00262856e-06  6.55420896e-01  6.00262856e-06  7.34776541e-01  6.00262856e-06  1.53111743e+00                                 
 6.00285389e-06  7.34314143e-01  6.00285389e-06  6.70016480e-01  6.00285389e-06  6.79313437e-01  6.00285389e-06  0.00000000e+00  6.00285389e-06  1.80188628e+00  6.00285389e-06  6.65358769e-01  6.00285389e-06  6.94125142e-01  6.00285389e-06  1.53094622e+00                                 
 6.00306450e-06  7.34311365e-01  6.00306450e-06  6.70467185e-01  6.00306450e-06  6.76096768e-01  6.00306450e-06  0.00000000e+00  6.00306450e-06  1.79888111e+00  6.00306450e-06  6.68715434e-01  6.00306450e-06  6.80571313e-01  6.00306450e-06  1.53056709e+00                                 
 6.00332434e-06  7.34314222e-01  6.00332434e-06  6.70823002e-01  6.00332434e-06  6.74074978e-01  6.00332434e-06  0.00000000e+00  6.00332434e-06  1.80082501e+00  6.00332434e-06  6.71603799e-01  6.00332434e-06  6.76050743e-01  6.00332434e-06  1.52965744e+00                                 
 6.00364352e-06  7.34311938e-01  6.00364352e-06  6.70908095e-01  6.00364352e-06  6.74397745e-01  6.00364352e-06  0.00000000e+00  6.00364352e-06  1.79943809e+00  6.00364352e-06  6.72076671e-01  6.00364352e-06  6.74127532e-01  6.00364352e-06  1.52835871e+00                                 
 6.00417423e-06  7.34314436e-01  6.00417423e-06  6.70962960e-01  6.00417423e-06  6.74943204e-01  6.00417423e-06  0.00000000e+00  6.00417423e-06  1.80049226e+00  6.00417423e-06  6.72997855e-01  6.00417423e-06  6.75125708e-01  6.00417423e-06  1.52577792e+00                                 
 6.00497670e-06  7.34312319e-01  6.00497670e-06  6.70872119e-01  6.00497670e-06  6.77380780e-01  6.00497670e-06  0.00000000e+00  6.00497670e-06  1.79959161e+00  6.00497670e-06  6.72789068e-01  6.00497670e-06  6.76688486e-01  6.00497670e-06  1.52158306e+00                                 
 6.00649976e-06  7.34314491e-01  6.00649976e-06  6.70790416e-01  6.00649976e-06  6.81188251e-01  6.00649976e-06  0.00000000e+00  6.00649976e-06  1.80040538e+00  6.00649976e-06  6.73250813e-01  6.00649976e-06  6.81236542e-01  6.00649976e-06  1.51299523e+00                                 
 6.00954589e-06  7.34312334e-01  6.00954589e-06  6.70573803e-01  6.00954589e-06  6.90185553e-01  6.00954589e-06  0.00000000e+00  6.00954589e-06  1.79963159e+00  6.00954589e-06  6.72765347e-01  6.00954589e-06  6.89425599e-01  6.00954589e-06  1.49505365e+00                                 
 6.01563815e-06  7.34314457e-01  6.01563815e-06  6.70447263e-01  6.01563815e-06  7.06720843e-01  6.01563815e-06  0.00000000e+00  6.01563815e-06  1.80038489e+00  6.01563815e-06  6.72779852e-01  6.01563815e-06  7.06758159e-01  6.01563815e-06  1.45826867e+00                                 
 6.02782266e-06  7.34312351e-01  6.02782266e-06  6.70419063e-01  6.02782266e-06  7.39463979e-01  6.02782266e-06  0.00000000e+00  6.02782266e-06  1.79964033e+00  6.02782266e-06  6.71965159e-01  6.02782266e-06  7.38581364e-01  6.02782266e-06  1.38860760e+00                                 
 6.04367626e-06  7.34314459e-01  6.04367626e-06  6.70461767e-01  6.04367626e-06  7.78399961e-01  6.04367626e-06  0.00000000e+00  6.04367626e-06  1.80037799e+00  6.04367626e-06  6.72058196e-01  6.04367626e-06  7.78507098e-01  6.04367626e-06  1.30689347e+00                                 
 6.07538346e-06  7.34312359e-01  6.07538346e-06  6.70434488e-01  6.07538346e-06  8.48682549e-01  6.07538346e-06  0.00000000e+00  6.07538346e-06  1.79964123e+00  6.07538346e-06  6.71578759e-01  6.07538346e-06  8.47187755e-01  6.07538346e-06  1.16487618e+00                                 
 6.12740947e-06  7.34314459e-01  6.12740947e-06  6.70465775e-01  6.12740947e-06  9.40914190e-01  6.12740947e-06  0.00000000e+00  6.12740947e-06  1.80037198e+00  6.12740947e-06  6.71934143e-01  6.12740947e-06  9.41590447e-01  6.12740947e-06  1.00745285e+00                                 
 6.23146148e-06  7.34312360e-01  6.23146148e-06  6.70434595e-01  6.23146148e-06  1.06490005e+00  6.23146148e-06  0.00000000e+00  6.23146148e-06  1.79963632e+00  6.23146148e-06  6.71582056e-01  6.23146148e-06  1.06235344e+00  6.23146148e-06  1.00975320e+00                                 
 6.29758659e-06  7.34314458e-01  6.29758659e-06  6.70465728e-01  6.29758659e-06  1.11122953e+00  6.29758659e-06  0.00000000e+00  6.29758659e-06  1.80036724e+00  6.29758659e-06  6.71943008e-01  6.29758659e-06  1.11251586e+00  6.29758659e-06  1.10077919e+00                                 
