 time            v(vbep)         time            v(vben)         time            v(vout)         time            v(vphi1)        time            v(vphi2)        time            v(vref)         yes             currtemp       
 0.00000000e+00  7.78599564e-01  0.00000000e+00  7.32505713e-01  0.00000000e+00  1.13199399e+00  0.00000000e+00  0.00000000e+00  0.00000000e+00  1.79995002e+00  0.00000000e+00  5.00000000e-01  1.00000000e+00 -2.10000000e+01 
 5.00000000e-12  7.78570601e-01  5.00000000e-12  7.32481754e-01  5.00000000e-12  1.13272038e+00  5.00000000e-12  1.80000000e-02  5.00000000e-12  1.80004841e+00  5.00000000e-12  5.00000000e-01                                 
 1.00000000e-11  7.78542579e-01  1.00000000e-11  7.32458465e-01  1.00000000e-11  1.13337474e+00  1.00000000e-11  3.60000000e-02  1.00000000e-11  1.80009950e+00  1.00000000e-11  5.00000000e-01                                 
 2.00000000e-11  7.78487140e-01  2.00000000e-11  7.32412088e-01  2.00000000e-11  1.13457387e+00  2.00000000e-11  7.20000000e-02  2.00000000e-11  1.80014863e+00  2.00000000e-11  5.00000000e-01                                 
 4.00000000e-11  7.78377309e-01  4.00000000e-11  7.32319750e-01  4.00000000e-11  1.13646048e+00  4.00000000e-11  1.44000000e-01  4.00000000e-11  1.80012632e+00  4.00000000e-11  5.00000000e-01                                 
 8.00000000e-11  7.78158896e-01  8.00000000e-11  7.32136052e-01  8.00000000e-11  1.13890513e+00  8.00000000e-11  2.88000000e-01  8.00000000e-11  1.80006311e+00  8.00000000e-11  5.00000000e-01                                 
 1.60000000e-10  7.77727586e-01  1.60000000e-10  7.31772584e-01  1.60000000e-10  1.14095349e+00  1.60000000e-10  5.76000000e-01  1.60000000e-10  1.80000511e+00  1.60000000e-10  5.00000000e-01                                 
 3.20000000e-10  7.76885598e-01  3.20000000e-10  7.31060757e-01  3.20000000e-10  1.13213052e+00  3.20000000e-10  1.15200000e+00  3.20000000e-10  1.80025002e+00  3.20000000e-10  5.00000000e-01                                 
 5.00000000e-10  7.75970012e-01  5.00000000e-10  7.30283104e-01  5.00000000e-10  1.30259445e+00  5.00000000e-10  1.80000000e+00  5.00000000e-10  9.14078410e-02  5.00000000e-10  5.00000000e-01                                 
 5.20524734e-10  7.75867880e-01  5.20524734e-10  7.30196111e-01  5.20524734e-10  1.34021990e+00  5.20524734e-10  1.80000000e+00  5.20524734e-10  1.56704420e-02  5.20524734e-10  5.00000000e-01                                 
 5.61574202e-10  7.75664397e-01  5.61574202e-10  7.30022684e-01  5.61574202e-10  1.40794052e+00  5.61574202e-10  1.80000000e+00  5.61574202e-10 -7.50883265e-03  5.61574202e-10  5.00000000e-01                                 
 6.43673139e-10  7.75262172e-01  6.43673139e-10  7.29679348e-01  6.43673139e-10  1.51701284e+00  6.43673139e-10  1.80000000e+00  6.43673139e-10  6.55773570e-03  6.43673139e-10  5.00000000e-01                                 
 7.67578010e-10  7.74666784e-01  7.67578010e-10  7.29169848e-01  7.67578010e-10  1.64577698e+00  7.67578010e-10  1.80000000e+00  7.67578010e-10 -5.84635044e-03  7.67578010e-10  5.00000000e-01                                 
 9.54374126e-10  7.73794481e-01  9.54374126e-10  7.28420649e-01  9.54374126e-10  1.78567743e+00  9.54374126e-10  1.80000000e+00  9.54374126e-10  5.59169463e-03  9.54374126e-10  5.00000000e-01                                 
 1.32796636e-09  7.72133761e-01  1.32796636e-09  7.26985586e-01  1.32796636e-09  1.94208533e+00  1.32796636e-09  1.80000000e+00  1.32796636e-09 -5.32615854e-03  1.32796636e-09  5.00000000e-01                                 
 1.59859765e-09  7.70995880e-01  1.59859765e-09  7.25995570e-01  1.59859765e-09  1.98983296e+00  1.59859765e-09  1.80000000e+00  1.59859765e-09  5.18046844e-03  1.59859765e-09  5.00000000e-01                                 
 1.92071526e-09  7.69705309e-01  1.92071526e-09  7.24866334e-01  1.92071526e-09  2.01561474e+00  1.92071526e-09  1.80000000e+00  1.92071526e-09 -4.93752556e-03  1.92071526e-09  5.00000000e-01                                 
 2.26116284e-09  7.68410091e-01  2.26116284e-09  7.23726339e-01  2.26116284e-09  2.02586616e+00  2.26116284e-09  1.80000000e+00  2.26116284e-09  4.82181224e-03  2.26116284e-09  5.00000000e-01                                 
 2.80701086e-09  7.66463755e-01  2.80701086e-09  7.22001205e-01  2.80701086e-09  2.02989835e+00  2.80701086e-09  1.80000000e+00  2.80701086e-09 -4.68279224e-03  2.80701086e-09  5.00000000e-01                                 
 3.48778291e-09  7.64233072e-01  3.48778291e-09  7.20006634e-01  3.48778291e-09  2.02880168e+00  3.48778291e-09  1.80000000e+00  3.48778291e-09  4.63644856e-03  3.48778291e-09  5.00000000e-01                                 
 4.71580096e-09  7.60654441e-01  4.71580096e-09  7.16770973e-01  4.71580096e-09  2.02541210e+00  4.71580096e-09  1.80000000e+00  4.71580096e-09 -4.56737778e-03  4.71580096e-09  5.00000000e-01                                 
 6.67457101e-09  7.55847328e-01  6.67457101e-09  7.12359527e-01  6.67457101e-09  2.02084180e+00  6.67457101e-09  1.80000000e+00  6.67457101e-09  4.57091650e-03  6.67457101e-09  5.00000000e-01                                 
 8.92320464e-09  7.51317801e-01  8.92320464e-09  7.08138244e-01  8.92320464e-09  2.01673174e+00  8.92320464e-09  1.80000000e+00  8.92320464e-09 -4.51481219e-03  8.92320464e-09  5.00000000e-01                                 
 1.01286311e-08  7.49217734e-01  1.01286311e-08  7.06160865e-01  1.01286311e-08  2.01481774e+00  1.01286311e-08  1.80000000e+00  1.01286311e-08  4.49852051e-03  1.01286311e-08  5.00000000e-01                                 
 1.22545292e-08  7.45914389e-01  1.22545292e-08  7.03029298e-01  1.22545292e-08  2.01186627e+00  1.22545292e-08  1.80000000e+00  1.22545292e-08 -4.45190950e-03  1.22545292e-08  5.00000000e-01                                 
 1.42732100e-08  7.43164692e-01  1.42732100e-08  7.00403253e-01  1.42732100e-08  2.00944531e+00  1.42732100e-08  1.80000000e+00  1.42732100e-08  4.44619589e-03  1.42732100e-08  5.00000000e-01                                 
 1.83105716e-08  7.38472386e-01  1.83105716e-08  6.95887530e-01  1.83105716e-08  2.00539219e+00  1.83105716e-08  1.80000000e+00  1.83105716e-08 -4.41557852e-03  1.83105716e-08  5.00000000e-01                                 
 2.26510583e-08  7.34325227e-01  2.26510583e-08  6.91861298e-01  2.26510583e-08  2.00190602e+00  2.26510583e-08  1.80000000e+00  2.26510583e-08  4.42135675e-03  2.26510583e-08  5.00000000e-01                                 
 3.10903179e-08  7.27909387e-01  3.10903179e-08  6.85580362e-01  3.10903179e-08  1.99662754e+00  3.10903179e-08  1.80000000e+00  3.10903179e-08 -4.39814478e-03  3.10903179e-08  5.00000000e-01                                 
 4.16699358e-08  7.21814711e-01  4.16699358e-08  6.79563842e-01  4.16699358e-08  1.98889028e+00  4.16699358e-08  1.80000000e+00  4.16699358e-08  4.41074811e-03  4.16699358e-08  5.00000000e-01                                 
 5.61941849e-08  7.15205379e-01  5.61941849e-08  6.73047722e-01  5.61941849e-08  1.97213945e+00  5.61941849e-08  1.80000000e+00  5.61941849e-08 -4.38986864e-03  5.61941849e-08  5.00000000e-01                                 
 7.89649206e-08  7.06098917e-01  7.89649206e-08  6.64306256e-01  7.89649206e-08  1.95106015e+00  7.89649206e-08  1.80000000e+00  7.89649206e-08  4.40518592e-03  7.89649206e-08  5.00000000e-01                                 
 9.53003550e-08  6.99394997e-01  9.53003550e-08  6.58138059e-01  9.53003550e-08  1.93388377e+00  9.53003550e-08  1.80000000e+00  9.53003550e-08 -4.38467810e-03  9.53003550e-08  5.00000000e-01                                 
 1.12513064e-07  6.92494010e-01  1.12513064e-07  6.51909729e-01  1.12513064e-07  1.90471226e+00  1.12513064e-07  1.80000000e+00  1.12513064e-07  4.39920567e-03  1.12513064e-07  5.00000000e-01                                 
 1.28148681e-07  6.86528735e-01  1.28148681e-07  6.46592276e-01  1.28148681e-07  1.87517710e+00  1.28148681e-07  1.80000000e+00  1.28148681e-07 -4.37858727e-03  1.28148681e-07  5.00000000e-01                                 
 1.44289386e-07  6.81048471e-01  1.44289386e-07  6.41719426e-01  1.44289386e-07  1.85110355e+00  1.44289386e-07  1.80000000e+00  1.44289386e-07  4.39298163e-03  1.44289386e-07  5.00000000e-01                                 
 1.66906161e-07  6.75689509e-01  1.66906161e-07  6.36829849e-01  1.66906161e-07  1.81729624e+00  1.66906161e-07  1.80000000e+00  1.66906161e-07 -4.37330797e-03  1.66906161e-07  5.00000000e-01                                 
 1.92980260e-07  6.82850541e-01  1.92980260e-07  6.41832616e-01  1.92980260e-07  1.82639048e+00  1.92980260e-07  1.80000000e+00  1.92980260e-07  4.38932515e-03  1.92980260e-07  5.00000000e-01                                 
 2.12642386e-07  6.83889933e-01  2.12642386e-07  6.42175938e-01  2.12642386e-07  1.81076964e+00  2.12642386e-07  1.80000000e+00  2.12642386e-07 -4.36920739e-03  2.12642386e-07  5.00000000e-01                                 
 2.33274076e-07  6.76286829e-01  2.33274076e-07  6.35689928e-01  2.33274076e-07  1.78130964e+00  2.33274076e-07  1.80000000e+00  2.33274076e-07  4.38416463e-03  2.33274076e-07  5.00000000e-01                                 
 2.49206322e-07  6.73628133e-01  2.49206322e-07  6.33260302e-01  2.49206322e-07  1.76569980e+00  2.49206322e-07  1.80000000e+00  2.49206322e-07 -4.36363337e-03  2.49206322e-07  5.00000000e-01                                 
 2.66486334e-07  6.70515431e-01  2.66486334e-07  6.30468232e-01  2.66486334e-07  1.74676333e+00  2.66486334e-07  1.80000000e+00  2.66486334e-07  4.37819766e-03  2.66486334e-07  5.00000000e-01                                 
 2.93902717e-07  6.64846472e-01  2.93902717e-07  6.25508020e-01  2.93902717e-07  1.71605418e+00  2.93902717e-07  1.80000000e+00  2.93902717e-07 -4.35904245e-03  2.93902717e-07  5.00000000e-01                                 
 3.34339560e-07  6.56980417e-01  3.34339560e-07  6.18681162e-01  3.34339560e-07  1.66974413e+00  3.34339560e-07  1.80000000e+00  3.34339560e-07  4.37518248e-03  3.34339560e-07  5.00000000e-01                                 
 3.87459804e-07  6.46837169e-01  3.87459804e-07  6.10006252e-01  3.87459804e-07  1.61139183e+00  3.87459804e-07  1.80000000e+00  3.87459804e-07 -4.35691280e-03  3.87459804e-07  5.00000000e-01                                 
 4.81784004e-07  6.26549097e-01  4.81784004e-07  5.93105556e-01  4.81784004e-07  1.49626978e+00  4.81784004e-07  1.80000000e+00  4.81784004e-07  4.37372623e-03  4.81784004e-07  5.00000000e-01                                 
 5.76450143e-07  6.06634537e-01  5.76450143e-07  5.76792928e-01  5.76450143e-07  1.38563397e+00  5.76450143e-07  1.80000000e+00  5.76450143e-07 -4.35587572e-03  5.76450143e-07  5.00000000e-01                                 
 7.02297815e-07  5.76269548e-01  7.02297815e-07  5.52274693e-01  7.02297815e-07  1.22709364e+00  7.02297815e-07  1.80000000e+00  7.02297815e-07  4.37279701e-03  7.02297815e-07  5.00000000e-01                                 
 7.31184053e-07  5.68915334e-01  7.31184053e-07  5.46375008e-01  7.31184053e-07  1.19172304e+00  7.31184053e-07  1.80000000e+00  7.31184053e-07  3.60538999e-07  7.31184053e-07  5.00000000e-01                                 
 7.88956528e-07  5.54801751e-01  7.88956528e-07  5.35062788e-01  7.88956528e-07  1.11748993e+00  7.88956528e-07  1.80000000e+00  7.88956528e-07 -5.04109801e-07  7.88956528e-07  5.00000000e-01                                 
 8.03399647e-07  5.52391238e-01  8.03399647e-07  5.33132769e-01  8.03399647e-07  1.09940691e+00  8.03399647e-07  1.80000000e+00  8.03399647e-07 -4.58464119e-08  8.03399647e-07  5.00000000e-01                                 
 8.32285885e-07  5.50218459e-01  8.32285885e-07  5.31392777e-01  8.32285885e-07  1.06526380e+00  8.32285885e-07  1.80000000e+00  8.32285885e-07  1.60717157e-08  8.32285885e-07  5.00000000e-01                                 
 8.72670083e-07  5.67712475e-01  8.72670083e-07  5.45386005e-01  8.72670083e-07  1.03757634e+00  8.72670083e-07  1.80000000e+00  8.72670083e-07  2.95644449e-07  8.72670083e-07  5.00000000e-01                                 
 9.16774320e-07  7.08167051e-01  9.16774320e-07  6.58540645e-01  9.16774320e-07  1.13433121e+00  9.16774320e-07  1.80000000e+00  9.16774320e-07  2.01320374e-06  9.16774320e-07  5.00000000e-01                                 
 9.62476579e-07  8.26592874e-01  9.62476579e-07  7.78587979e-01  9.62476579e-07  1.20572222e+00  9.62476579e-07  1.80000000e+00  9.62476579e-07  5.94711170e-07  9.62476579e-07  5.00000000e-01                                 
 9.69518488e-07  8.33917080e-01  9.69518488e-07  7.86088398e-01  9.69518488e-07  1.20460137e+00  9.69518488e-07  1.80000000e+00  9.69518488e-07  5.83517592e-07  9.69518488e-07  5.00000000e-01                                 
 9.83602305e-07  8.48371174e-01  9.83602305e-07  7.99762131e-01  9.83602305e-07  1.20334897e+00  9.83602305e-07  1.80000000e+00  9.83602305e-07  5.60900664e-07  9.83602305e-07  5.00000000e-01                                 
 1.01176994e-06  8.77938187e-01  1.01176994e-06  8.25515477e-01  1.01176994e-06  1.20089404e+00  1.01176994e-06  1.80000000e+00  1.01176994e-06  5.58298267e-07  1.01176994e-06  5.00000000e-01                                 
 1.03939694e-06  9.13553716e-01  1.03939694e-06  8.51782037e-01  1.03939694e-06  1.20144463e+00  1.03939694e-06  1.80000000e+00  1.03939694e-06  7.01866990e-07  1.03939694e-06  5.00000000e-01                                 
 1.06905642e-06  9.53267104e-01  1.06905642e-06  8.75545366e-01  1.06905642e-06  1.20107960e+00  1.06905642e-06  1.80000000e+00  1.06905642e-06  5.26152981e-07  1.06905642e-06  5.00000000e-01                                 
 1.09372491e-06  9.59908618e-01  1.09372491e-06  8.79354098e-01  1.09372491e-06  1.18230049e+00  1.09372491e-06  1.80000000e+00  1.09372491e-06 -8.02441361e-08  1.09372491e-06  5.00000000e-01                                 
 1.12185661e-06  9.55544727e-01  1.12185661e-06  8.76919184e-01  1.12185661e-06  1.14935132e+00  1.12185661e-06  1.80000000e+00  1.12185661e-06 -4.03082378e-09  1.12185661e-06  5.00000000e-01                                 
 1.15303896e-06  9.57929102e-01  1.15303896e-06  8.78246977e-01  1.15303896e-06  1.11810624e+00  1.15303896e-06  1.80000000e+00  1.15303896e-06  5.83975378e-08  1.15303896e-06  5.00000000e-01                                 
 1.18643010e-06  9.55986481e-01  1.18643010e-06  8.77199437e-01  1.18643010e-06  1.08098416e+00  1.18643010e-06  1.80000000e+00  1.18643010e-06 -5.60321695e-08  1.18643010e-06  5.00000000e-01                                 
 1.23457344e-06  9.56563681e-01  1.23457344e-06  8.77508065e-01  1.23457344e-06  1.02628738e+00  1.23457344e-06  1.80000000e+00  1.23457344e-06  7.47200462e-08  1.23457344e-06  5.00000000e-01                                 
 1.29732992e-06  9.55232803e-01  1.29732992e-06  8.76811309e-01  1.29732992e-06  9.57482678e-01  1.29732992e-06  1.80000000e+00  1.29732992e-06 -5.81818328e-08  1.29732992e-06  5.00000000e-01                                 
 1.39690434e-06  9.54808905e-01  1.39690434e-06  8.76574761e-01  1.39690434e-06  8.81896173e-01  1.39690434e-06  1.80000000e+00  1.39690434e-06  7.90247510e-08  1.39690434e-06  5.00000000e-01                                 
 1.49028884e-06  9.53426484e-01  1.49028884e-06  8.75852280e-01  1.49028884e-06  8.15520284e-01  1.49028884e-06  1.80000000e+00  1.49028884e-06 -3.24184019e-08  1.49028884e-06  5.00000000e-01                                 
 1.58882090e-06  9.52778743e-01  1.58882090e-06  8.75487322e-01  1.58882090e-06  7.57678018e-01  1.58882090e-06  1.80000000e+00  1.58882090e-06  7.67570900e-08  1.58882090e-06  5.00000000e-01                                 
 1.78588501e-06  9.50401800e-01  1.78588501e-06  8.74221149e-01  1.78588501e-06  6.71225612e-01  1.78588501e-06  1.80000000e+00  1.78588501e-06 -4.85767252e-08  1.78588501e-06  5.00000000e-01                                 
 2.01430958e-06  9.48185516e-01  2.01430958e-06  8.72987779e-01  2.01430958e-06  5.89856911e-01  2.01430958e-06  1.80000000e+00  2.01430958e-06  6.27672695e-08  2.01430958e-06  5.00000000e-01                                 
 2.43871093e-06  9.42634032e-01  2.43871093e-06  8.69902539e-01  2.43871093e-06  5.12458832e-01  2.43871093e-06  1.80000000e+00  2.43871093e-06 -4.09665409e-08  2.43871093e-06  5.00000000e-01                                 
 2.87524114e-06  9.35709744e-01  2.87524114e-06  8.65865496e-01  2.87524114e-06  4.94915033e-01  2.87524114e-06  1.80000000e+00  2.87524114e-06  4.73731831e-08  2.87524114e-06  5.00000000e-01                                 
 2.93548430e-06  9.34266119e-01  2.93548430e-06  8.65024639e-01  2.93548430e-06  4.93916471e-01  2.93548430e-06  1.80000000e+00  2.93548430e-06  1.05131206e-09  2.93548430e-06  5.00000000e-01                                 
 3.05597062e-06  9.31348241e-01  3.05597062e-06  8.63274195e-01  3.05597062e-06  4.91224039e-01  3.05597062e-06  1.80000000e+00  3.05597062e-06 -4.19299311e-09  3.05597062e-06  5.00000000e-01                                 
 3.29694325e-06  9.22863336e-01  3.29694325e-06  8.58022431e-01  3.29694325e-06  4.83455418e-01  3.29694325e-06  1.80000000e+00  3.29694325e-06 -1.11712387e-08  3.29694325e-06  5.00000000e-01                                 
 3.57892694e-06  8.87248402e-01  3.57892694e-06  8.33030761e-01  3.57892694e-06  4.77194767e-01  3.57892694e-06  1.80000000e+00  3.57892694e-06 -1.00438843e-07  3.57892694e-06  5.00000000e-01                                 
 3.61862256e-06  8.77954705e-01  3.61862256e-06  8.25631514e-01  3.61862256e-06  4.75247215e-01  3.61862256e-06  1.80000000e+00  3.61862256e-06 -1.22541407e-07  3.61862256e-06  5.00000000e-01                                 
 3.69801381e-06  8.62174350e-01  3.69801381e-06  8.12243095e-01  3.69801381e-06  4.73573639e-01  3.69801381e-06  1.80000000e+00  3.69801381e-06 -8.67315832e-08  3.69801381e-06  5.00000000e-01                                 
 3.85679631e-06  8.52393220e-01  3.85679631e-06  8.03491875e-01  3.85679631e-06  4.85760979e-01  3.85679631e-06  1.80000000e+00  3.85679631e-06  3.41210731e-08  3.85679631e-06  5.00000000e-01                                 
 4.01821102e-06  8.55075120e-01  4.01821102e-06  8.05913995e-01  4.01821102e-06  4.99479089e-01  4.01821102e-06  1.80000000e+00  4.01821102e-06  6.46606441e-09  4.01821102e-06  5.00000000e-01                                 
 4.19415201e-06  8.54057982e-01  4.19415201e-06  8.05005578e-01  4.19415201e-06  5.01910893e-01  4.19415201e-06  1.80000000e+00  4.19415201e-06  9.29319878e-09  4.19415201e-06  5.00000000e-01                                 
 4.44577230e-06  8.54362509e-01  4.44577230e-06  8.05269555e-01  4.44577230e-06  5.02231022e-01  4.44577230e-06  1.80000000e+00  4.44577230e-06  1.47362666e-08  4.44577230e-06  5.00000000e-01                                 
 4.77278195e-06  8.54309129e-01  4.77278195e-06  8.05232873e-01  4.77278195e-06  5.01302534e-01  4.77278195e-06  1.80000000e+00  4.77278195e-06  8.25957675e-09  4.77278195e-06  5.00000000e-01                                 
 5.14002414e-06  8.54244180e-01  5.14002414e-06  8.05162583e-01  5.14002414e-06  5.00501473e-01  5.14002414e-06  1.80000000e+00  5.14002414e-06  1.43914398e-08  5.14002414e-06  5.00000000e-01                                 
 5.87450852e-06  8.54365276e-01  5.87450852e-06  8.05283552e-01  5.87450852e-06  5.00008249e-01  5.87450852e-06  1.80000000e+00  5.87450852e-06  8.86824515e-09  5.87450852e-06  5.00000000e-01                                 
 6.87450852e-06  8.54222142e-01  6.87450852e-06  8.05142707e-01  6.87450852e-06  4.99759345e-01  6.87450852e-06  1.80000000e+00  6.87450852e-06  1.39135204e-08  6.87450852e-06  5.00000000e-01                                 
