 time            v(vbep)         time            v(vben)         time            v(vout)         time            v(vphi1)        time            v(vphi2)        time            v(vref)         yes             currtemp       
 0.00000000e+00  8.25388493e-01  0.00000000e+00  7.75616959e-01  0.00000000e+00  1.00713881e+00  0.00000000e+00  0.00000000e+00  0.00000000e+00  1.79911718e+00  0.00000000e+00  5.00000000e-01  1.00000000e+00 -9.00000000e+00 
 5.00000000e-12  8.24993856e-01  5.00000000e-12  7.75404301e-01  5.00000000e-12  1.00784533e+00  5.00000000e-12  1.80000000e-02  5.00000000e-12  1.79941663e+00  5.00000000e-12  5.00000000e-01                                 
 1.00000000e-11  8.24688223e-01  1.00000000e-11  7.75246614e-01  1.00000000e-11  1.00847877e+00  1.00000000e-11  3.60000000e-02  1.00000000e-11  1.79962932e+00  1.00000000e-11  5.00000000e-01                                 
 2.00000000e-11  8.24184784e-01  2.00000000e-11  7.74952814e-01  2.00000000e-11  1.00962918e+00  2.00000000e-11  7.20000000e-02  2.00000000e-11  1.79992449e+00  2.00000000e-11  5.00000000e-01                                 
 4.00000000e-11  8.23477246e-01  4.00000000e-11  7.74390476e-01  4.00000000e-11  1.01139413e+00  4.00000000e-11  1.44000000e-01  4.00000000e-11  1.80009741e+00  4.00000000e-11  5.00000000e-01                                 
 8.00000000e-11  8.22253487e-01  8.00000000e-11  7.73274857e-01  8.00000000e-11  1.01354300e+00  8.00000000e-11  2.88000000e-01  8.00000000e-11  1.80006329e+00  8.00000000e-11  5.00000000e-01                                 
 1.60000000e-10  8.19871834e-01  1.60000000e-10  7.71099831e-01  1.60000000e-10  1.01534922e+00  1.60000000e-10  5.76000000e-01  1.60000000e-10  1.80000473e+00  1.60000000e-10  5.00000000e-01                                 
 3.20000000e-10  8.15326120e-01  3.20000000e-10  7.66947485e-01  3.20000000e-10  1.00673388e+00  3.20000000e-10  1.15200000e+00  3.20000000e-10  1.80031754e+00  3.20000000e-10  5.00000000e-01                                 
 5.00000000e-10  8.10577709e-01  5.00000000e-10  7.62606391e-01  5.00000000e-10  1.19287614e+00  5.00000000e-10  1.80000000e+00  5.00000000e-10  9.64196372e-02  5.00000000e-10  5.00000000e-01                                 
 5.20693837e-10  8.10061947e-01  5.20693837e-10  7.62134740e-01  5.20693837e-10  1.23428428e+00  5.20693837e-10  1.80000000e+00  5.20693837e-10  1.70612820e-02  5.20693837e-10  5.00000000e-01                                 
 5.62081511e-10  8.09037566e-01  5.62081511e-10  7.61196272e-01  5.62081511e-10  1.30974263e+00  5.62081511e-10  1.80000000e+00  5.62081511e-10 -8.11232763e-03  5.62081511e-10  5.00000000e-01                                 
 6.44856858e-10  8.07042246e-01  6.44856858e-10  7.59368705e-01  6.44856858e-10  1.43418969e+00  6.44856858e-10  1.80000000e+00  6.44856858e-10  7.04940266e-03  6.44856858e-10  5.00000000e-01                                 
 7.68161519e-10  8.04203516e-01  7.68161519e-10  7.56766095e-01  7.68161519e-10  1.58267703e+00  7.68161519e-10  1.80000000e+00  7.68161519e-10 -6.23559261e-03  7.68161519e-10  5.00000000e-01                                 
 9.55952319e-10  8.00166522e-01  9.55952319e-10  7.53059693e-01  9.55952319e-10  1.74949022e+00  9.55952319e-10  1.80000000e+00  9.55952319e-10  5.94960337e-03  9.55952319e-10  5.00000000e-01                                 
 1.33153392e-09  7.92993572e-01  1.33153392e-09  7.46455280e-01  1.33153392e-09  1.93932775e+00  1.33153392e-09  1.80000000e+00  1.33153392e-09 -5.65079763e-03  1.33153392e-09  5.00000000e-01                                 
 1.60792021e-09  7.88446792e-01  1.60792021e-09  7.42246722e-01  1.60792021e-09  1.99868865e+00  1.60792021e-09  1.80000000e+00  1.60792021e-09  5.49281799e-03  1.60792021e-09  5.00000000e-01                                 
 1.91261894e-09  7.84004349e-01  1.91261894e-09  7.38113476e-01  1.91261894e-09  2.02801110e+00  1.91261894e-09  1.80000000e+00  1.91261894e-09 -5.20925574e-03  1.91261894e-09  5.00000000e-01                                 
 2.23498842e-09  7.79843638e-01  2.23498842e-09  7.34225138e-01  2.23498842e-09  2.03945549e+00  2.23498842e-09  1.80000000e+00  2.23498842e-09  5.06675335e-03  2.23498842e-09  5.00000000e-01                                 
 2.72814562e-09  7.74328295e-01  2.72814562e-09  7.29039646e-01  2.72814562e-09  2.04236289e+00  2.72814562e-09  1.80000000e+00  2.72814562e-09 -4.90399614e-03  2.72814562e-09  5.00000000e-01                                 
 3.35237980e-09  7.68494073e-01  3.35237980e-09  7.23515926e-01  3.35237980e-09  2.03841901e+00  3.35237980e-09  1.80000000e+00  3.35237980e-09  4.84081679e-03  3.35237980e-09  5.00000000e-01                                 
 4.41433695e-09  7.60577165e-01  4.41433695e-09  7.15955671e-01  4.41433695e-09  2.03046735e+00  4.41433695e-09  1.80000000e+00  4.41433695e-09 -4.76036095e-03  4.41433695e-09  5.00000000e-01                                 
 6.05534749e-09  7.51500419e-01  6.05534749e-09  7.07199057e-01  6.05534749e-09  2.02128610e+00  6.05534749e-09  1.80000000e+00  6.05534749e-09  4.75237873e-03  6.05534749e-09  5.00000000e-01                                 
 9.20359541e-09  7.39601974e-01  9.20359541e-09  6.95595628e-01  9.20359541e-09  2.00978696e+00  9.20359541e-09  1.80000000e+00  9.20359541e-09 -4.70067203e-03  9.20359541e-09  5.00000000e-01                                 
 1.06764263e-08  7.35622101e-01  1.06764263e-08  6.91680385e-01  1.06764263e-08  2.00596589e+00  1.06764263e-08  1.80000000e+00  1.06764263e-08  4.68886568e-03  1.06764263e-08  5.00000000e-01                                 
 1.25626452e-08  7.31295670e-01  1.25626452e-08  6.87411252e-01  1.25626452e-08  2.00185530e+00  1.25626452e-08  1.80000000e+00  1.25626452e-08 -4.63719444e-03  1.25626452e-08  5.00000000e-01                                 
 1.45361426e-08  7.27453120e-01  1.45361426e-08  6.83609868e-01  1.45361426e-08  1.99822687e+00  1.45361426e-08  1.80000000e+00  1.45361426e-08  4.62898084e-03  1.45361426e-08  5.00000000e-01                                 
 1.79316098e-08  7.21957564e-01  1.79316098e-08  6.78158860e-01  1.79316098e-08  1.99304047e+00  1.79316098e-08  1.80000000e+00  1.79316098e-08 -4.59412811e-03  1.79316098e-08  5.00000000e-01                                 
 2.14362275e-08  7.17345980e-01  2.14362275e-08  6.73572873e-01  2.14362275e-08  1.98872064e+00  2.14362275e-08  1.80000000e+00  2.14362275e-08  4.59653118e-03  2.14362275e-08  5.00000000e-01                                 
 2.84454627e-08  7.10063140e-01  2.84454627e-08  6.66312490e-01  2.84454627e-08  1.98189279e+00  2.84454627e-08  1.80000000e+00  2.84454627e-08 -4.57051379e-03  2.84454627e-08  5.00000000e-01                                 
 3.59240211e-08  7.04161501e-01  3.59240211e-08  6.60413945e-01  3.59240211e-08  1.97638849e+00  3.59240211e-08  1.80000000e+00  3.59240211e-08  4.58156385e-03  3.59240211e-08  5.00000000e-01                                 
 5.08811378e-08  6.95368052e-01  5.08811378e-08  6.51605675e-01  5.08811378e-08  1.96817358e+00  5.08811378e-08  1.80000000e+00  5.08811378e-08 -4.55939202e-03  5.08811378e-08  5.00000000e-01                                 
 7.31827561e-08  6.86304811e-01  7.31827561e-08  6.42505116e-01  7.31827561e-08  1.95971966e+00  7.31827561e-08  1.80000000e+00  7.31827561e-08  4.57562674e-03  7.31827561e-08  5.00000000e-01                                 
 1.15562978e-07  6.75185065e-01  1.15562978e-07  6.31258932e-01  1.15562978e-07  1.95007064e+00  1.15562978e-07  1.80000000e+00  1.15562978e-07 -4.55569099e-03  1.15562978e-07  5.00000000e-01                                 
 1.75278521e-07  6.66379741e-01  1.75278521e-07  6.22080950e-01  1.75278521e-07  1.94564575e+00  1.75278521e-07  1.80000000e+00  1.75278521e-07  4.57354172e-03  1.75278521e-07  5.00000000e-01                                 
 2.13419313e-07  6.62309984e-01  2.13419313e-07  6.17837722e-01  2.13419313e-07  1.93578035e+00  2.13419313e-07  1.80000000e+00  2.13419313e-07 -4.55334633e-03  2.13419313e-07  5.00000000e-01                                 
 2.48487618e-07  6.56453911e-01  2.48487618e-07  6.12406574e-01  2.48487618e-07  1.91432734e+00  2.48487618e-07  1.80000000e+00  2.48487618e-07  4.57052641e-03  2.48487618e-07  5.00000000e-01                                 
 2.74900303e-07  6.47816417e-01  2.74900303e-07  6.05037207e-01  2.74900303e-07  1.88581568e+00  2.74900303e-07  1.80000000e+00  2.74900303e-07 -4.54991771e-03  2.74900303e-07  5.00000000e-01                                 
 3.03203959e-07  6.39661191e-01  3.03203959e-07  5.98078498e-01  3.03203959e-07  1.84577425e+00  3.03203959e-07  1.80000000e+00  3.03203959e-07  4.56659121e-03  3.03203959e-07  5.00000000e-01                                 
 3.24959256e-07  6.33888329e-01  3.24959256e-07  5.93167124e-01  3.24959256e-07  1.81092907e+00  3.24959256e-07  1.80000000e+00  3.24959256e-07 -4.54553744e-03  3.24959256e-07  5.00000000e-01                                 
 3.47610031e-07  6.38520833e-01  3.47610031e-07  5.96513928e-01  3.47610031e-07  1.81585273e+00  3.47610031e-07  1.80000000e+00  3.47610031e-07  4.56213198e-03  3.47610031e-07  5.00000000e-01                                 
 3.69619314e-07  6.41356348e-01  3.69619314e-07  5.98446810e-01  3.69619314e-07  1.80401729e+00  3.69619314e-07  1.80000000e+00  3.69619314e-07 -4.54089789e-03  3.69619314e-07  5.00000000e-01                                 
 3.89296567e-07  6.35810693e-01  3.89296567e-07  5.93778512e-01  3.89296567e-07  1.78060674e+00  3.89296567e-07  1.80000000e+00  3.89296567e-07  4.55667951e-03  3.89296567e-07  5.00000000e-01                                 
 4.09378371e-07  6.32140372e-01  4.09378371e-07  5.90612696e-01  4.09378371e-07  1.75847924e+00  4.09378371e-07  1.80000000e+00  4.09378371e-07 -4.53549132e-03  4.09378371e-07  5.00000000e-01                                 
 4.28913655e-07  6.28214712e-01  4.28913655e-07  5.87268305e-01  4.28913655e-07  1.73702871e+00  4.28913655e-07  1.80000000e+00  4.28913655e-07  4.55125417e-03  4.28913655e-07  5.00000000e-01                                 
 4.67984222e-07  6.20428900e-01  4.67984222e-07  5.80679627e-01  4.67984222e-07  1.69325363e+00  4.67984222e-07  1.80000000e+00  4.67984222e-07 -4.53141828e-03  4.67984222e-07  5.00000000e-01                                 
 5.21887642e-07  6.08281134e-01  5.21887642e-07  5.70572010e-01  5.21887642e-07  1.62949237e+00  5.21887642e-07  1.80000000e+00  5.21887642e-07  4.54887141e-03  5.21887642e-07  5.00000000e-01                                 
 6.12706208e-07  5.90959223e-01  6.12706208e-07  5.56241091e-01  6.12706208e-07  1.53042607e+00  6.12706208e-07  1.80000000e+00  6.12706208e-07 -4.52982260e-03  6.12706208e-07  5.00000000e-01                                 
 7.04686883e-07  5.63918792e-01  7.04686883e-07  5.34379552e-01  7.04686883e-07  1.41133836e+00  7.04686883e-07  1.80000000e+00  7.04686883e-07  4.54762787e-03  7.04686883e-07  5.00000000e-01                                 
 8.06499651e-07  5.27766560e-01  8.06499651e-07  5.05392170e-01  8.06499651e-07  1.27616636e+00  8.06499651e-07  1.80000000e+00  8.06499651e-07 -4.52876975e-03  8.06499651e-07  5.00000000e-01                                 
 8.79527305e-07  5.36241339e-01  8.79527305e-07  5.12205540e-01  8.79527305e-07  1.20798196e+00  8.79527305e-07  1.80000000e+00  8.79527305e-07  4.54671233e-03  8.79527305e-07  5.00000000e-01                                 
 8.82144204e-07  5.38265570e-01  8.82144204e-07  5.13827080e-01  8.82144204e-07  1.20811447e+00  8.82144204e-07  1.80000000e+00  8.82144204e-07  5.54409435e-06  8.82144204e-07  5.00000000e-01                                 
 8.87378002e-07  5.43149405e-01  8.87378002e-07  5.17738369e-01  8.87378002e-07  1.20791336e+00  8.87378002e-07  1.80000000e+00  8.87378002e-07 -4.81907636e-06  8.87378002e-07  5.00000000e-01                                 
 8.97845598e-07  5.59262126e-01  8.97845598e-07  5.30636390e-01  8.97845598e-07  1.21247602e+00  8.97845598e-07  1.80000000e+00  8.97845598e-07  5.96530780e-06  8.97845598e-07  5.00000000e-01                                 
 9.17162931e-07  6.27060707e-01  9.17162931e-07  5.84853674e-01  9.17162931e-07  1.25812717e+00  9.17162931e-07  1.80000000e+00  9.17162931e-07 -3.31991968e-06  9.17162931e-07  5.00000000e-01                                 
 9.41854745e-07  7.68114984e-01  9.41854745e-07  7.14741223e-01  9.41854745e-07  1.36742413e+00  9.41854745e-07  1.80000000e+00  9.41854745e-07  8.48735345e-06  9.41854745e-07  5.00000000e-01                                 
 9.64612643e-07  8.11635450e-01  9.64612643e-07  7.61787265e-01  9.64612643e-07  1.38802796e+00  9.64612643e-07  1.80000000e+00  9.64612643e-07 -5.86471676e-06  9.64612643e-07  5.00000000e-01                                 
 9.90726132e-07  8.37853276e-01  9.90726132e-07  7.86068246e-01  9.90726132e-07  1.38363567e+00  9.90726132e-07  1.80000000e+00  9.90726132e-07  6.90007039e-06  9.90726132e-07  5.00000000e-01                                 
 1.02510078e-06  8.65983569e-01  1.02510078e-06  8.09985662e-01  1.02510078e-06  1.37733284e+00  1.02510078e-06  1.80000000e+00  1.02510078e-06 -5.77946586e-06  1.02510078e-06  5.00000000e-01                                 
 1.06087871e-06  9.06643816e-01  1.06087871e-06  8.38977459e-01  1.06087871e-06  1.37186330e+00  1.06087871e-06  1.80000000e+00  1.06087871e-06  6.89283478e-06  1.06087871e-06  5.00000000e-01                                 
 1.09324956e-06  9.50464496e-01  1.09324956e-06  8.64245976e-01  1.09324956e-06  1.37917949e+00  1.09324956e-06  1.80000000e+00  1.09324956e-06 -5.32655594e-06  1.09324956e-06  5.00000000e-01                                 
 1.11964232e-06  9.55484126e-01  1.11964232e-06  8.67180272e-01  1.11964232e-06  1.35306725e+00  1.11964232e-06  1.80000000e+00  1.11964232e-06  5.57643811e-06  1.11964232e-06  5.00000000e-01                                 
 1.14998022e-06  9.51427607e-01  1.14998022e-06  8.64873218e-01  1.14998022e-06  1.32303880e+00  1.14998022e-06  1.80000000e+00  1.14998022e-06 -5.54147624e-06  1.14998022e-06  5.00000000e-01                                 
 1.18741778e-06  9.54701054e-01  1.18741778e-06  8.66704209e-01  1.18741778e-06  1.28438403e+00  1.18741778e-06  1.80000000e+00  1.18741778e-06  5.58390848e-06  1.18741778e-06  5.00000000e-01                                 
 1.22569888e-06  9.51674710e-01  1.22569888e-06  8.65061713e-01  1.22569888e-06  1.24678083e+00  1.22569888e-06  1.80000000e+00  1.22569888e-06 -5.50406952e-06  1.22569888e-06  5.00000000e-01                                 
 1.27784770e-06  9.53410789e-01  1.27784770e-06  8.66010467e-01  1.27784770e-06  1.19180571e+00  1.27784770e-06  1.80000000e+00  1.27784770e-06  5.52674584e-06  1.27784770e-06  5.00000000e-01                                 
 1.33973899e-06  9.51062237e-01  1.33973899e-06  8.64771415e-01  1.33973899e-06  1.12936644e+00  1.33973899e-06  1.80000000e+00  1.33973899e-06 -5.45089007e-06  1.33973899e-06  5.00000000e-01                                 
 1.42438836e-06  9.51744018e-01  1.42438836e-06  8.65142826e-01  1.42438836e-06  1.03619416e+00  1.42438836e-06  1.80000000e+00  1.42438836e-06  5.48076027e-06  1.42438836e-06  5.00000000e-01                                 
 1.54032117e-06  9.49275282e-01  1.54032117e-06  8.63856418e-01  1.54032117e-06  9.26554195e-01  1.54032117e-06  1.80000000e+00  1.54032117e-06 -5.41294067e-06  1.54032117e-06  5.00000000e-01                                 
 1.69284803e-06  9.48895330e-01  1.69284803e-06  8.63663231e-01  1.69284803e-06  8.18712149e-01  1.69284803e-06  1.80000000e+00  1.69284803e-06  5.47203823e-06  1.69284803e-06  5.00000000e-01                                 
 1.86925398e-06  9.45936337e-01  1.86925398e-06  8.62110705e-01  1.86925398e-06  7.25420664e-01  1.86925398e-06  1.80000000e+00  1.86925398e-06 -5.39552949e-06  1.86925398e-06  5.00000000e-01                                 
 2.05571463e-06  9.44879566e-01  2.05571463e-06  8.61545865e-01  2.05571463e-06  6.43978474e-01  2.05571463e-06  1.80000000e+00  2.05571463e-06  5.43598392e-06  2.05571463e-06  5.00000000e-01                                 
 2.25297782e-06  9.41650720e-01  2.25297782e-06  8.59824316e-01  2.25297782e-06  5.72102585e-01  2.25297782e-06  1.80000000e+00  2.25297782e-06 -5.37704374e-06  2.25297782e-06  5.00000000e-01                                 
 2.58166550e-06  9.38202289e-01  2.58166550e-06  8.57932924e-01  2.58166550e-06  5.07755480e-01  2.58166550e-06  1.80000000e+00  2.58166550e-06  5.42784318e-06  2.58166550e-06  5.00000000e-01                                 
 2.91361362e-06  9.31498345e-01  2.91361362e-06  8.54202241e-01  2.91361362e-06  4.96424850e-01  2.91361362e-06  1.80000000e+00  2.91361362e-06 -5.38253581e-06  2.91361362e-06  5.00000000e-01                                 
 2.95450800e-06  9.30916161e-01  2.95450800e-06  8.53860627e-01  2.95450800e-06  4.94522791e-01  2.95450800e-06  1.80000000e+00  2.95450800e-06  5.43931659e-09  2.95450800e-06  5.00000000e-01                                 
 3.03629675e-06  9.28931107e-01  3.03629675e-06  8.52726316e-01  3.03629675e-06  4.92498840e-01  3.03629675e-06  1.80000000e+00  3.03629675e-06  2.45960114e-08  3.03629675e-06  5.00000000e-01                                 
 3.19987426e-06  9.23428501e-01  3.19987426e-06  8.49514199e-01  3.19987426e-06  4.87287126e-01  3.19987426e-06  1.80000000e+00  3.19987426e-06 -4.51220313e-09  3.19987426e-06  5.00000000e-01                                 
 3.24076863e-06  9.21612247e-01  3.24076863e-06  8.48436177e-01  3.24076863e-06  4.85870177e-01  3.24076863e-06  1.80000000e+00  3.24076863e-06  4.14365014e-09  3.24076863e-06  5.00000000e-01                                 
 3.32255738e-06  9.17277088e-01  3.32255738e-06  8.45821806e-01  3.32255738e-06  4.88734868e-01  3.32255738e-06  1.80000000e+00  3.32255738e-06  8.98684277e-09  3.32255738e-06  5.00000000e-01                                 
 3.48613489e-06  8.90119684e-01  3.48613489e-06  8.28094046e-01  3.48613489e-06  4.81824335e-01  3.48613489e-06  1.80000000e+00  3.48613489e-06 -1.44439868e-07  3.48613489e-06  5.00000000e-01                                 
 3.62421618e-06  8.46828022e-01  3.62421618e-06  7.94092447e-01  3.62421618e-06  4.65606369e-01  3.62421618e-06  1.80000000e+00  3.62421618e-06 -1.69685840e-07  3.62421618e-06  5.00000000e-01                                 
 3.64219437e-06  8.42078740e-01  3.64219437e-06  7.89948557e-01  3.64219437e-06  4.66012027e-01  3.64219437e-06  1.80000000e+00  3.64219437e-06 -1.33060433e-07  3.64219437e-06  5.00000000e-01                                 
 3.67815074e-06  8.36063009e-01  3.67815074e-06  7.84557602e-01  3.67815074e-06  4.69734471e-01  3.67815074e-06  1.80000000e+00  3.67815074e-06 -2.25677296e-08  3.67815074e-06  5.00000000e-01                                 
 3.75006349e-06  8.36685283e-01  3.75006349e-06  7.85110975e-01  3.75006349e-06  4.84789022e-01  3.75006349e-06  1.80000000e+00  3.75006349e-06  8.08315455e-08  3.75006349e-06  5.00000000e-01                                 
 3.85619583e-06  8.38192519e-01  3.85619583e-06  7.86473409e-01  3.85619583e-06  4.96994085e-01  3.85619583e-06  1.80000000e+00  3.85619583e-06 -6.00466474e-09  3.85619583e-06  5.00000000e-01                                 
 3.96779810e-06  8.36468780e-01  3.96779810e-06  7.84919346e-01  3.96779810e-06  4.99829951e-01  3.96779810e-06  1.80000000e+00  3.96779810e-06  4.34194319e-08  3.96779810e-06  5.00000000e-01                                 
 4.14145212e-06  8.37849825e-01  4.14145212e-06  7.86163107e-01  4.14145212e-06  5.01864600e-01  4.14145212e-06  1.80000000e+00  4.14145212e-06  2.37587916e-08  4.14145212e-06  5.00000000e-01                                 
