 time            v(vbep)         time            v(vben)         time            v(vout)         time            v(vphi1)        time            v(vphi2)        time            v(vref)         time            v(voutc)        time            v(voutcc)       yes             currtemp       
 0.00000000e+00  8.42665345e-01  0.00000000e+00  7.94159115e-01  0.00000000e+00  1.74099964e+00  0.00000000e+00  0.00000000e+00  0.00000000e+00  1.80000000e+00  0.00000000e+00  7.98098150e-01  0.00000000e+00  1.74099964e+00  0.00000000e+00  1.74577664e+00  1.00000000e+00 -2.00000000e+01 
 1.00000000e-11  8.42686686e-01  1.00000000e-11  7.94224363e-01  1.00000000e-11  1.74183094e+00  1.00000000e-11  1.80000000e-02  1.00000000e-11  1.80024273e+00  1.00000000e-11  7.98612457e-01  1.00000000e-11  1.74145647e+00  1.00000000e-11  1.74579070e+00                                 
 2.00000000e-11  8.42692721e-01  2.00000000e-11  7.94265646e-01  2.00000000e-11  1.74240274e+00  2.00000000e-11  3.60000000e-02  2.00000000e-11  1.80034560e+00  2.00000000e-11  7.99002986e-01  2.00000000e-11  1.74181730e+00  2.00000000e-11  1.74579761e+00                                 
 4.00000000e-11  8.42692767e-01  4.00000000e-11  7.94319827e-01  4.00000000e-11  1.74318094e+00  4.00000000e-11  7.20000000e-02  4.00000000e-11  1.80039605e+00  4.00000000e-11  7.99583982e-01  4.00000000e-11  1.74237988e+00  4.00000000e-11  1.74580286e+00                                 
 8.00000000e-11  8.42681973e-01  8.00000000e-11  7.94351910e-01  8.00000000e-11  1.74360184e+00  8.00000000e-11  1.44000000e-01  8.00000000e-11  1.80020834e+00  8.00000000e-11  8.00060173e-01  8.00000000e-11  1.74293467e+00  8.00000000e-11  1.74579423e+00                                 
 1.60000000e-10  8.42678605e-01  1.60000000e-10  7.94350965e-01  1.60000000e-10  1.74343179e+00  1.60000000e-10  2.88000000e-01  1.60000000e-10  1.80001840e+00  1.60000000e-10  8.00138163e-01  1.60000000e-10  1.74319353e+00  1.60000000e-10  1.74578072e+00                                 
 3.20000000e-10  8.42676370e-01  3.20000000e-10  7.94348310e-01  3.20000000e-10  1.74315046e+00  3.20000000e-10  5.76000000e-01  3.20000000e-10  1.80002479e+00  3.20000000e-10  8.00105727e-01  3.20000000e-10  1.74323465e+00  3.20000000e-10  1.74577817e+00                                 
 6.40000000e-10  8.42607683e-01  6.40000000e-10  7.94157810e-01  6.40000000e-10  1.73560425e+00  6.40000000e-10  1.15200000e+00  6.40000000e-10  1.81355132e+00  6.40000000e-10  7.99841152e-01  6.40000000e-10  1.74746208e+00  6.40000000e-10  1.74580463e+00                                 
 9.93852655e-10  8.42981411e-01  9.93852655e-10  7.94153825e-01  9.93852655e-10  1.70376649e+00  9.93852655e-10  1.78893478e+00  9.93852655e-10  7.37527594e-02  9.93852655e-10  7.99451134e-01  9.93852655e-10  1.73470441e+00  9.93852655e-10  1.74567297e+00                                 
 1.00000000e-09  8.43001114e-01  1.00000000e-09  7.94194316e-01  1.00000000e-09  1.70342653e+00  1.00000000e-09  1.80000000e+00  1.00000000e-09  3.56047368e-02  1.00000000e-09  7.99990804e-01  1.00000000e-09  1.73464403e+00  1.00000000e-09  1.74568988e+00                                 
 1.01229469e-09  8.42987025e-01  1.01229469e-09  7.94216157e-01  1.01229469e-09  1.70343785e+00  1.01229469e-09  1.80000000e+00  1.01229469e-09  1.51400123e-02  1.01229469e-09  8.01092976e-01  1.01229469e-09  1.73535161e+00  1.01229469e-09  1.74573162e+00                                 
 1.03688407e-09  8.43003313e-01  1.03688407e-09  7.94274338e-01  1.03688407e-09  1.70363362e+00  1.03688407e-09  1.80000000e+00  1.03688407e-09 -1.14550736e-03  1.03688407e-09  8.02890179e-01  1.03688407e-09  1.73674623e+00  1.03688407e-09  1.74578710e+00                                 
 1.08606283e-09  8.43134340e-01  1.08606283e-09  7.94288094e-01  1.08606283e-09  1.70236372e+00  1.08606283e-09  1.80000000e+00  1.08606283e-09  2.10184220e-03  1.08606283e-09  8.03937848e-01  1.08606283e-09  1.73775017e+00  1.08606283e-09  1.74577997e+00                                 
 1.18442036e-09  8.43328781e-01  1.18442036e-09  7.94193480e-01  1.18442036e-09  1.69686161e+00  1.18442036e-09  1.80000000e+00  1.18442036e-09 -5.88794117e-04  1.18442036e-09  8.03985841e-01  1.18442036e-09  1.73774567e+00  1.18442036e-09  1.74576122e+00                                 
 1.38113540e-09  8.43469690e-01  1.38113540e-09  7.94168986e-01  1.38113540e-09  1.68995001e+00  1.38113540e-09  1.80000000e+00  1.38113540e-09  9.78682102e-04  1.38113540e-09  8.04830669e-01  1.38113540e-09  1.73847608e+00  1.38113540e-09  1.74578679e+00                                 
 1.59799819e-09  8.43401965e-01  1.59799819e-09  7.94149020e-01  1.59799819e-09  1.68896224e+00  1.59799819e-09  1.80000000e+00  1.59799819e-09 -7.75328801e-04  1.59799819e-09  8.04638406e-01  1.59799819e-09  1.73828388e+00  1.59799819e-09  1.74577345e+00                                 
 1.85499837e-09  8.43230975e-01  1.85499837e-09  7.94152741e-01  1.85499837e-09  1.69118170e+00  1.85499837e-09  1.80000000e+00  1.85499837e-09  6.55932111e-04  1.85499837e-09  8.04476959e-01  1.85499837e-09  1.73816907e+00  1.85499837e-09  1.74578864e+00                                 
 2.12627092e-09  8.43061067e-01  2.12627092e-09  7.94144789e-01  2.12627092e-09  1.69372321e+00  2.12627092e-09  1.80000000e+00  2.12627092e-09 -6.50074614e-04  2.12627092e-09  8.04024178e-01  2.12627092e-09  1.73776574e+00  2.12627092e-09  1.74577895e+00                                 
 2.60263166e-09  8.42821342e-01  2.60263166e-09  7.94147848e-01  2.60263166e-09  1.69816987e+00  2.60263166e-09  1.80000000e+00  2.60263166e-09  5.49033118e-04  2.60263166e-09  8.03513861e-01  2.60263166e-09  1.73735361e+00  2.60263166e-09  1.74578736e+00                                 
 3.47085847e-09  8.42597520e-01  3.47085847e-09  7.94139957e-01  3.47085847e-09  1.70456543e+00  3.47085847e-09  1.80000000e+00  3.47085847e-09 -5.91243894e-04  3.47085847e-09  8.02405081e-01  3.47085847e-09  1.73639945e+00  3.47085847e-09  1.74577024e+00                                 
 5.20731209e-09  8.42514362e-01  5.20731209e-09  7.94146083e-01  5.20731209e-09  1.71332549e+00  5.20731209e-09  1.80000000e+00  5.20731209e-09  5.27156753e-04  5.20731209e-09  8.00834902e-01  5.20731209e-09  1.73509213e+00  5.20731209e-09  1.74573724e+00                                 
 8.51491004e-09  8.42609942e-01  8.51491004e-09  7.94149080e-01  8.51491004e-09  1.71972273e+00  8.51491004e-09  1.80000000e+00  8.51491004e-09 -5.66801624e-04  8.51491004e-09  7.98848124e-01  8.51491004e-09  1.73339757e+00  8.51491004e-09  1.74557847e+00                                 
 1.11774179e-08  8.42629813e-01  1.11774179e-08  7.94158540e-01  1.11774179e-08  1.72013207e+00  1.11774179e-08  1.80000000e+00  1.11774179e-08  5.26342958e-04  1.11774179e-08  7.98242045e-01  1.11774179e-08  1.73290156e+00  1.11774179e-08  1.74541376e+00                                 
 1.40127969e-08  8.42643101e-01  1.40127969e-08  7.94155280e-01  1.40127969e-08  1.71904049e+00  1.40127969e-08  1.80000000e+00  1.40127969e-08 -5.48895238e-04  1.40127969e-08  7.97809114e-01  1.40127969e-08  1.73251475e+00  1.40127969e-08  1.74519618e+00                                 
 1.70997268e-08  8.42637907e-01  1.70997268e-08  7.94161298e-01  1.70997268e-08  1.71831471e+00  1.70997268e-08  1.80000000e+00  1.70997268e-08  5.24274828e-04  1.70997268e-08  7.97734879e-01  1.70997268e-08  1.73246224e+00  1.70997268e-08  1.74496317e+00                                 
 2.17229225e-08  8.42643747e-01  2.17229225e-08  7.94156613e-01  2.17229225e-08  1.71728294e+00  2.17229225e-08  1.80000000e+00  2.17229225e-08 -5.30963521e-04  2.17229225e-08  7.97591582e-01  2.17229225e-08  1.73231108e+00  2.17229225e-08  1.74459436e+00                                 
 2.74544935e-08  8.42656572e-01  2.74544935e-08  7.94161707e-01  2.74544935e-08  1.71385381e+00  2.74544935e-08  1.80000000e+00  2.74544935e-08  5.24222752e-04  2.74544935e-08  7.97696442e-01  2.74544935e-08  1.73239815e+00  2.74544935e-08  1.74416933e+00                                 
 3.62059145e-08  8.42668009e-01  3.62059145e-08  7.94156733e-01  3.62059145e-08  1.70521936e+00  3.62059145e-08  1.80000000e+00  3.62059145e-08 -5.24620160e-04  3.62059145e-08  7.97681304e-01  3.62059145e-08  1.73234218e+00  3.62059145e-08  1.74354650e+00                                 
 4.91105886e-08  8.42665719e-01  4.91105886e-08  7.94161712e-01  4.91105886e-08  1.69070977e+00  4.91105886e-08  1.80000000e+00  4.91105886e-08  5.21792535e-04  4.91105886e-08  7.97848405e-01  4.91105886e-08  1.73246746e+00  4.91105886e-08  1.74274137e+00                                 
 6.75261924e-08  8.42668362e-01  6.75261924e-08  7.94156684e-01  6.75261924e-08  1.66834073e+00  6.75261924e-08  1.80000000e+00  6.75261924e-08 -5.22810163e-04  6.75261924e-08  7.97857133e-01  6.75261924e-08  1.73242312e+00  6.75261924e-08  1.74174792e+00                                 
 1.04357400e-07  8.42664051e-01  1.04357400e-07  7.94161629e-01  1.04357400e-07  1.62027975e+00  1.04357400e-07  1.80000000e+00  1.04357400e-07  5.20420890e-04  1.04357400e-07  7.98045276e-01  1.04357400e-07  1.73255319e+00  1.04357400e-07  1.74026963e+00                                 
 1.78019816e-07  8.42667345e-01  1.78019816e-07  7.94156629e-01  1.78019816e-07  1.51911059e+00  1.78019816e-07  1.80000000e+00  1.78019816e-07 -5.22315512e-04  1.78019816e-07  7.98043134e-01  1.78019816e-07  1.73249093e+00  1.78019816e-07  1.73856756e+00                                 
 3.25344647e-07  8.42663433e-01  3.25344647e-07  7.94161604e-01  3.25344647e-07  1.31791715e+00  3.25344647e-07  1.80000000e+00  3.25344647e-07  5.20159197e-04  3.25344647e-07  7.98141204e-01  3.25344647e-07  1.73256170e+00  3.25344647e-07  1.73746117e+00                                 
 5.79170532e-07  8.42667258e-01  5.79170532e-07  7.94156626e-01  5.79170532e-07  9.85143147e-01  5.79170532e-07  1.80000000e+00  5.79170532e-07 -5.21923405e-04  5.79170532e-07  7.98056495e-01  5.79170532e-07  1.73245874e+00  5.79170532e-07  1.73729293e+00                                 
 8.24190184e-07  8.42663446e-01  8.24190184e-07  7.94161604e-01  8.24190184e-07  8.09331526e-01  8.24190184e-07  1.80000000e+00  8.24190184e-07  5.21238205e-04  8.24190184e-07  7.98138795e-01  8.24190184e-07  1.73253450e+00  8.24190184e-07  1.73731196e+00                                 
 1.05554336e-06  8.42667244e-01  1.05554336e-06  7.94156630e-01  1.05554336e-06  7.99260589e-01  1.05554336e-06  1.80000000e+00  1.05554336e-06 -5.20981665e-04  1.05554336e-06  7.98058611e-01  1.05554336e-06  1.73243991e+00  1.05554336e-06  1.73729236e+00                                 
 1.17550930e-06  8.42663354e-01  1.17550930e-06  7.94161589e-01  1.17550930e-06  8.02552652e-01  1.17550930e-06  1.80000000e+00  1.17550930e-06  5.21107563e-04  1.17550930e-06  7.98137209e-01  1.17550930e-06  1.73251775e+00  1.17550930e-06  1.73729404e+00                                 
 1.28990097e-06  8.42667436e-01  1.28990097e-06  7.94156654e-01  1.28990097e-06  8.01923745e-01  1.28990097e-06  1.80000000e+00  1.28990097e-06 -5.20748384e-04  1.28990097e-06  7.98058977e-01  1.28990097e-06  1.73243000e+00  1.28990097e-06  1.73728185e+00                                 
 1.45483093e-06  8.42663201e-01  1.45483093e-06  7.94161569e-01  1.45483093e-06  8.02269994e-01  1.45483093e-06  1.80000000e+00  1.45483093e-06  5.20888294e-04  1.45483093e-06  7.98137384e-01  1.45483093e-06  1.73250571e+00  1.45483093e-06  1.73728203e+00                                 
 1.60800361e-06  8.42667537e-01  1.60800361e-06  7.94156669e-01  1.60800361e-06  8.01969840e-01  1.60800361e-06  1.80000000e+00  1.60800361e-06 -5.20562124e-04  1.60800361e-06  7.98058841e-01  1.60800361e-06  1.73241601e+00  1.60800361e-06  1.73726806e+00                                 
 1.85449145e-06  8.42663129e-01  1.85449145e-06  7.94161558e-01  1.85449145e-06  8.02241986e-01  1.85449145e-06  1.80000000e+00  1.85449145e-06  5.20732375e-04  1.85449145e-06  7.98137484e-01  1.85449145e-06  1.73248834e+00  1.85449145e-06  1.73726463e+00                                 
 2.14393655e-06  8.42667578e-01  2.14393655e-06  7.94156675e-01  2.14393655e-06  8.01985371e-01  2.14393655e-06  1.80000000e+00  2.14393655e-06 -5.20452079e-04  2.14393655e-06  7.98058779e-01  2.14393655e-06  1.73239255e+00  2.14393655e-06  1.73724474e+00                                 
 2.54117973e-06  8.42663099e-01  2.54117973e-06  7.94161552e-01  2.54117973e-06  8.02215921e-01  2.54117973e-06  1.80000000e+00  2.54117973e-06  5.22088181e-04  2.54117973e-06  7.98137604e-01  2.54117973e-06  1.73245848e+00  2.54117973e-06  1.73723472e+00                                 
 3.16459923e-06  8.42667598e-01  3.16459923e-06  7.94156679e-01  3.16459923e-06  8.01987032e-01  3.16459923e-06  1.80000000e+00  3.16459923e-06 -5.20391826e-04  3.16459923e-06  7.98058765e-01  3.16459923e-06  1.73234802e+00  3.16459923e-06  1.73720037e+00                                 
 4.16384317e-06  8.42663088e-01  4.16384317e-06  7.94161551e-01  4.16384317e-06  8.02230168e-01  4.16384317e-06  1.80000000e+00  4.16384317e-06  5.20606971e-04  4.16384317e-06  7.98137535e-01  4.16384317e-06  1.73238762e+00  4.16384317e-06  1.73716423e+00                                 
 5.36384317e-06  8.42667605e-01  5.36384317e-06  7.94156680e-01  5.36384317e-06  8.01991913e-01  5.36384317e-06  1.80000000e+00  5.36384317e-06 -5.20365179e-04  5.36384317e-06  7.98058748e-01  5.36384317e-06  1.73225204e+00  5.36384317e-06  1.73710475e+00                                 
 6.00100000e-06  8.42663078e-01  6.00100000e-06  7.94161549e-01  6.00100000e-06  8.02219451e-01  6.00100000e-06  1.80000000e+00  6.00100000e-06  5.20959957e-04  6.00100000e-06  7.98137587e-01  6.00100000e-06  1.73230750e+00  6.00100000e-06  1.73708432e+00                                 
 6.00110000e-06  8.42635569e-01  6.00110000e-06  7.93941976e-01  6.00110000e-06  8.00083776e-01  6.00110000e-06  1.62000000e+00  6.00110000e-06 -6.13418215e-05  6.00110000e-06  7.96211556e-01  6.00110000e-06  1.73067387e+00  6.00110000e-06  1.73706532e+00                                 
 6.00130000e-06  8.42664318e-01  6.00130000e-06  7.94007755e-01  6.00130000e-06  8.00848409e-01  6.00130000e-06  1.26000000e+00  6.00130000e-06  1.99592122e-05  6.00130000e-06  7.96576091e-01  6.00130000e-06  1.73098353e+00  6.00130000e-06  1.73708940e+00                                 
 6.00170000e-06  8.42690522e-01  6.00170000e-06  7.94047826e-01  6.00170000e-06  8.01994475e-01  6.00170000e-06  5.40000000e-01  6.00170000e-06  1.44830521e-02  6.00170000e-06  7.95737674e-01  6.00170000e-06  1.72472710e+00  6.00170000e-06  1.73703778e+00                                 
 6.00200000e-06  8.42662183e-01  6.00200000e-06  7.91732668e-01  6.00200000e-06  8.52026281e-01  6.00200000e-06  0.00000000e+00  6.00200000e-06  1.58563275e+00  6.00200000e-06  7.65711520e-01  6.00200000e-06  1.51890484e+00  6.00200000e-06  1.73612999e+00                                 
 6.00205109e-06  8.42668568e-01  6.00205109e-06  7.91713050e-01  6.00205109e-06  8.50017959e-01  6.00205109e-06  0.00000000e+00  6.00205109e-06  1.73090418e+00  6.00205109e-06  7.65113685e-01  6.00205109e-06  1.45987407e+00  6.00205109e-06  1.73642420e+00                                 
 6.00215327e-06  8.42664329e-01  6.00215327e-06  7.91911420e-01  6.00215327e-06  8.40130843e-01  6.00215327e-06  0.00000000e+00  6.00215327e-06  1.82018458e+00  6.00215327e-06  7.67351755e-01  6.00215327e-06  1.34858866e+00  6.00215327e-06  1.73695848e+00                                 
 6.00230742e-06  8.42664291e-01  6.00230742e-06  7.92614602e-01  6.00230742e-06  8.26786528e-01  6.00230742e-06  0.00000000e+00  6.00230742e-06  1.78729514e+00  6.00230742e-06  7.75970388e-01  6.00230742e-06  1.22752750e+00  6.00230742e-06  1.73710153e+00                                 
 6.00247678e-06  8.42665250e-01  6.00247678e-06  7.92939604e-01  6.00247678e-06  8.23332668e-01  6.00247678e-06  0.00000000e+00  6.00247678e-06  1.80604352e+00  6.00247678e-06  7.79631333e-01  6.00247678e-06  1.13926619e+00  6.00247678e-06  1.73717021e+00                                 
 6.00272189e-06  8.42663571e-01  6.00272189e-06  7.93276312e-01  6.00272189e-06  8.17281426e-01  6.00272189e-06  0.00000000e+00  6.00272189e-06  1.79528942e+00  6.00272189e-06  7.83134564e-01  6.00272189e-06  1.04531353e+00  6.00272189e-06  1.73724324e+00                                 
 6.00297862e-06  8.42665555e-01  6.00297862e-06  7.93595861e-01  6.00297862e-06  8.15210245e-01  6.00297862e-06  0.00000000e+00  6.00297862e-06  1.80283957e+00  6.00297862e-06  7.86453032e-01  6.00297862e-06  9.72210236e-01  6.00297862e-06  1.73733170e+00                                 
 6.00349208e-06  8.42663791e-01  6.00349208e-06  7.93983985e-01  6.00349208e-06  8.10138810e-01  6.00349208e-06  0.00000000e+00  6.00349208e-06  1.79717171e+00  6.00349208e-06  7.90212018e-01  6.00349208e-06  8.63430151e-01  6.00349208e-06  1.73738278e+00                                 
 6.00405540e-06  8.42666022e-01  6.00405540e-06  7.94493223e-01  6.00405540e-06  8.04446508e-01  6.00405540e-06  0.00000000e+00  6.00405540e-06  1.80214298e+00  6.00405540e-06  7.96204387e-01  6.00405540e-06  8.13917044e-01  6.00405540e-06  1.73732422e+00                                 
 6.00456873e-06  8.42664125e-01  6.00456873e-06  7.94582674e-01  6.00456873e-06  8.02692299e-01  6.00456873e-06  0.00000000e+00  6.00456873e-06  1.79820127e+00  6.00456873e-06  7.97457170e-01  6.00456873e-06  8.03963806e-01  6.00456873e-06  1.73710412e+00                                 
 6.00515668e-06  8.42666248e-01  6.00515668e-06  7.94623229e-01  6.00515668e-06  8.02450874e-01  6.00515668e-06  0.00000000e+00  6.00515668e-06  1.80153456e+00  6.00515668e-06  7.98639838e-01  6.00515668e-06  8.02931992e-01  6.00515668e-06  1.73674718e+00                                 
 6.00581521e-06  8.42664320e-01  6.00581521e-06  7.94515896e-01  6.00581521e-06  8.02703703e-01  6.00581521e-06  0.00000000e+00  6.00581521e-06  1.79867497e+00  6.00581521e-06  7.98260908e-01  6.00581521e-06  8.02380593e-01  6.00581521e-06  1.73622582e+00                                 
 6.00710039e-06  8.42666332e-01  6.00710039e-06  7.94430234e-01  6.00710039e-06  8.03425866e-01  6.00710039e-06  0.00000000e+00  6.00710039e-06  1.80123430e+00  6.00710039e-06  7.98873255e-01  6.00710039e-06  8.03529300e-01  6.00710039e-06  1.73511595e+00                                 
 6.00967075e-06  8.42664381e-01  6.00967075e-06  7.94252089e-01  6.00967075e-06  8.05202450e-01  6.00967075e-06  0.00000000e+00  6.00967075e-06  1.79881471e+00  6.00967075e-06  7.98492319e-01  6.00967075e-06  8.04787463e-01  6.00967075e-06  1.73270161e+00                                 
 6.01481147e-06  8.42666320e-01  6.01481147e-06  7.94206141e-01  6.01481147e-06  8.09159642e-01  6.01481147e-06  0.00000000e+00  6.01481147e-06  1.80116803e+00  6.01481147e-06  7.98962901e-01  6.01481147e-06  8.09195246e-01  6.01481147e-06  1.72784049e+00                                 
 6.02509290e-06  8.42664377e-01  6.02509290e-06  7.94138571e-01  6.02509290e-06  8.17553814e-01  6.02509290e-06  0.00000000e+00  6.02509290e-06  1.79884738e+00  6.02509290e-06  7.98391740e-01  6.02509290e-06  8.17060238e-01  6.02509290e-06  1.71806959e+00                                 
 6.04340631e-06  8.42666316e-01  6.04340631e-06  7.94171836e-01  6.04340631e-06  8.32147367e-01  6.04340631e-06  0.00000000e+00  6.04340631e-06  1.80115122e+00  6.04340631e-06  7.98681669e-01  6.04340631e-06  8.32193918e-01  6.04340631e-06  1.69967912e+00                                 
 6.07986999e-06  8.42664376e-01  6.07986999e-06  7.94142155e-01  6.07986999e-06  8.59361641e-01  6.07986999e-06  0.00000000e+00  6.07986999e-06  1.79885585e+00  6.07986999e-06  7.98037216e-01  6.07986999e-06  8.58626600e-01  6.07986999e-06  1.65908370e+00                                 
