 time            v(vbep)         time            v(vben)         time            v(vout)         time            v(vphi1)        time            v(vphi2)        time            v(vref)         yes             currtemp       
 0.00000000e+00  5.47612959e-01  0.00000000e+00  4.81671234e-01  0.00000000e+00  2.94686812e-01  0.00000000e+00  0.00000000e+00  0.00000000e+00  1.79997128e+00  0.00000000e+00  4.81671234e-01  1.00000000e+00  8.90000000e+01 
 5.00000000e-12  5.47596275e-01  5.00000000e-12  4.81657373e-01  5.00000000e-12  2.95220363e-01  5.00000000e-12  1.80000000e-02  5.00000000e-12  1.80008063e+00  5.00000000e-12  4.81657373e-01                                 
 1.00000000e-11  5.47579790e-01  1.00000000e-11  4.81643790e-01  1.00000000e-11  2.95657108e-01  1.00000000e-11  3.60000000e-02  1.00000000e-11  1.80014048e+00  1.00000000e-11  4.81643790e-01                                 
 2.00000000e-11  5.47546919e-01  2.00000000e-11  4.81616694e-01  2.00000000e-11  2.96383170e-01  2.00000000e-11  7.20000000e-02  2.00000000e-11  1.80019931e+00  2.00000000e-11  4.81616694e-01                                 
 4.00000000e-11  5.47481359e-01  4.00000000e-11  4.81562632e-01  4.00000000e-11  2.97242172e-01  4.00000000e-11  1.44000000e-01  4.00000000e-11  1.80016467e+00  4.00000000e-11  4.81562632e-01                                 
 8.00000000e-11  5.47350598e-01  8.00000000e-11  4.81454764e-01  8.00000000e-11  2.97962307e-01  8.00000000e-11  2.88000000e-01  8.00000000e-11  1.80008009e+00  8.00000000e-11  4.81454764e-01                                 
 1.60000000e-10  5.47090559e-01  1.60000000e-10  4.81240040e-01  1.60000000e-10  2.98554458e-01  1.60000000e-10  5.76000000e-01  1.60000000e-10  1.80003748e+00  1.60000000e-10  4.81240040e-01                                 
 3.20000000e-10  5.46576180e-01  3.20000000e-10  4.80814532e-01  3.20000000e-10  3.00200497e-01  3.20000000e-10  1.15200000e+00  3.20000000e-10  1.80034714e+00  3.20000000e-10  4.80814532e-01                                 
 5.00000000e-10  5.46006336e-01  5.00000000e-10  4.80341936e-01  5.00000000e-10  5.29622658e-01  5.00000000e-10  1.80000000e+00  5.00000000e-10  1.95958824e-01  5.00000000e-10  4.80341936e-01                                 
 5.22836648e-10  5.45934775e-01  5.22836648e-10  4.80282489e-01  5.22836648e-10  5.85635495e-01  5.22836648e-10  1.80000000e+00  5.22836648e-10  4.94706232e-02  5.22836648e-10  4.80282489e-01                                 
 5.68509945e-10  5.45791948e-01  5.68509945e-10  4.80163799e-01  5.68509945e-10  6.89417580e-01  5.68509945e-10  1.80000000e+00  5.68509945e-10 -1.77222410e-02  5.68509945e-10  4.80163799e-01                                 
 6.59856538e-10  5.45508061e-01  6.59856538e-10  4.79927653e-01  6.59856538e-10  8.55670244e-01  6.59856538e-10  1.80000000e+00  6.59856538e-10  1.55026430e-02  6.59856538e-10  4.79927653e-01                                 
 7.77784509e-10  5.45144965e-01  7.77784509e-10  4.79625170e-01  7.77784509e-10  1.02214184e+00  7.77784509e-10  1.80000000e+00  7.77784509e-10 -1.10038137e-02  7.77784509e-10  4.79625170e-01                                 
 9.66910314e-10  5.44570387e-01  9.66910314e-10  4.79145485e-01  9.66910314e-10  1.23597360e+00  9.66910314e-10  1.80000000e+00  9.66910314e-10  1.12667238e-02  9.66910314e-10  4.79145485e-01                                 
 1.31204491e-09  5.43545370e-01  1.31204491e-09  4.78286695e-01  1.31204491e-09  1.51296925e+00  1.31204491e-09  1.80000000e+00  1.31204491e-09 -9.34025990e-03  1.31204491e-09  4.78286695e-01                                 
 1.88437218e-09  5.41908524e-01  1.88437218e-09  4.76907337e-01  1.88437218e-09  1.73007752e+00  1.88437218e-09  1.80000000e+00  1.88437218e-09  9.60692328e-03  1.88437218e-09  4.76907337e-01                                 
 2.17214042e-09  5.41113736e-01  2.17214042e-09  4.76234010e-01  2.17214042e-09  1.76573709e+00  2.17214042e-09  1.80000000e+00  2.17214042e-09 -8.58255639e-03  2.17214042e-09  4.76234010e-01                                 
 2.51667542e-09  5.40185248e-01  2.51667542e-09  4.75444576e-01  2.51667542e-09  1.78500942e+00  2.51667542e-09  1.80000000e+00  2.51667542e-09  8.18678367e-03  2.51667542e-09  4.75444576e-01                                 
 2.90047804e-09  5.39179099e-01  2.90047804e-09  4.74585708e-01  2.90047804e-09  1.79279508e+00  2.90047804e-09  1.80000000e+00  2.90047804e-09 -7.59562667e-03  2.90047804e-09  4.74585708e-01                                 
 3.57781028e-09  5.37470647e-01  3.57781028e-09  4.73119497e-01  3.57781028e-09  1.79614522e+00  3.57781028e-09  1.80000000e+00  3.57781028e-09  7.41865513e-03  3.57781028e-09  4.73119497e-01                                 
 4.32556590e-09  5.35676629e-01  4.32556590e-09  4.71569386e-01  4.32556590e-09  1.79462552e+00  4.32556590e-09  1.80000000e+00  4.32556590e-09 -7.12604690e-03  4.32556590e-09  4.71569386e-01                                 
 5.75321109e-09  5.32482910e-01  5.75321109e-09  4.68785212e-01  5.75321109e-09  1.79148668e+00  5.75321109e-09  1.80000000e+00  5.75321109e-09  7.07917476e-03  5.75321109e-09  4.68785212e-01                                 
 7.87758541e-09  5.28202087e-01  7.87758541e-09  4.65006695e-01  7.87758541e-09  1.78635801e+00  7.87758541e-09  1.80000000e+00  7.87758541e-09 -6.93371249e-03  7.87758541e-09  4.65006695e-01                                 
 9.33874200e-09  5.25535419e-01  9.33874200e-09  4.62626573e-01  9.33874200e-09  1.78336452e+00  9.33874200e-09  1.80000000e+00  9.33874200e-09  6.88414590e-03  9.33874200e-09  4.62626573e-01                                 
 1.08754254e-08  5.22932105e-01  1.08754254e-08  4.60285396e-01  1.08754254e-08  1.77981881e+00  1.08754254e-08  1.80000000e+00  1.08754254e-08 -6.72593488e-03  1.08754254e-08  4.60285396e-01                                 
 1.24525968e-08  5.20446830e-01  1.24525968e-08  4.58034958e-01  1.24525968e-08  1.77682250e+00  1.24525968e-08  1.80000000e+00  1.24525968e-08  6.67842392e-03  1.24525968e-08  4.58034958e-01                                 
 1.41219723e-08  5.17996587e-01  1.41219723e-08  4.55802141e-01  1.41219723e-08  1.77320474e+00  1.41219723e-08  1.80000000e+00  1.41219723e-08 -6.53708780e-03  1.41219723e-08  4.55802141e-01                                 
 1.56405057e-08  5.15911042e-01  1.56405057e-08  4.53890899e-01  1.56405057e-08  1.77046753e+00  1.56405057e-08  1.80000000e+00  1.56405057e-08  6.48513840e-03  1.56405057e-08  4.53890899e-01                                 
 1.76492357e-08  5.13337091e-01  1.76492357e-08  4.51518854e-01  1.76492357e-08  1.76631450e+00  1.76492357e-08  1.80000000e+00  1.76492357e-08 -6.36391293e-03  1.76492357e-08  4.51518854e-01                                 
 2.01201608e-08  5.10425874e-01  2.01201608e-08  4.48818438e-01  2.01201608e-08  1.76188809e+00  2.01201608e-08  1.80000000e+00  2.01201608e-08  6.35057847e-03  2.01201608e-08  4.48818438e-01                                 
 2.36312792e-08  5.06700888e-01  2.36312792e-08  4.45336033e-01  2.36312792e-08  1.75521856e+00  2.36312792e-08  1.80000000e+00  2.36312792e-08 -6.26258871e-03  2.36312792e-08  4.45336033e-01                                 
 2.84304991e-08  5.02246757e-01  2.84304991e-08  4.41131893e-01  2.84304991e-08  1.74713815e+00  2.84304991e-08  1.80000000e+00  2.84304991e-08  6.27881727e-03  2.84304991e-08  4.41131893e-01                                 
 3.62212438e-08  4.96163661e-01  3.62212438e-08  4.35325456e-01  3.62212438e-08  1.73411553e+00  3.62212438e-08  1.80000000e+00  3.62212438e-08 -6.21337147e-03  3.62212438e-08  4.35325456e-01                                 
 5.17492959e-08  4.86643866e-01  5.17492959e-08  4.26127034e-01  5.17492959e-08  1.71056866e+00  5.17492959e-08  1.80000000e+00  5.17492959e-08  6.25155933e-03  5.17492959e-08  4.26127034e-01                                 
 8.28054002e-08  4.73111841e-01  8.28054002e-08  4.12895499e-01  8.28054002e-08  1.66694120e+00  8.28054002e-08  1.80000000e+00  8.28054002e-08 -6.19886300e-03  8.28054002e-08  4.12895499e-01                                 
 1.26341202e-07  4.56945091e-01  1.26341202e-07  3.97612964e-01  1.26341202e-07  1.60820508e+00  1.26341202e-07  1.80000000e+00  1.26341202e-07  6.24394553e-03  1.26341202e-07  3.97612964e-01                                 
 1.82068752e-07  4.37812176e-01  1.82068752e-07  3.80217960e-01  1.82068752e-07  1.53254251e+00  1.82068752e-07  1.80000000e+00  1.82068752e-07 -6.19292291e-03  1.82068752e-07  3.80217960e-01                                 
 2.62811492e-07  4.14187576e-01  2.62811492e-07  3.59259832e-01  2.62811492e-07  1.42568533e+00  2.62811492e-07  1.80000000e+00  2.62811492e-07  6.23985127e-03  2.62811492e-07  3.59259832e-01                                 
 3.45473293e-07  3.89372707e-01  3.45473293e-07  3.38062067e-01  3.45473293e-07  1.31386301e+00  3.45473293e-07  1.80000000e+00  3.45473293e-07 -6.18946619e-03  3.45473293e-07  3.38062067e-01                                 
 4.90112488e-07  3.40185448e-01  4.90112488e-07  2.97446233e-01  4.90112488e-07  1.11816943e+00  4.90112488e-07  1.80000000e+00  4.90112488e-07  6.23713501e-03  4.90112488e-07  2.97446233e-01                                 
 5.26272286e-07  3.32651081e-01  5.26272286e-07  2.91294992e-01  5.26272286e-07  1.07719109e+00  5.26272286e-07  1.80000000e+00  5.26272286e-07  1.22956459e-05  5.26272286e-07  2.91294992e-01                                 
 5.98591884e-07  5.25775120e-01  5.98591884e-07  4.53634002e-01  5.98591884e-07  1.18898969e+00  5.98591884e-07  1.80000000e+00  5.98591884e-07  2.14280828e-05  5.98591884e-07  4.53634002e-01                                 
 6.74828515e-07  6.71518228e-01  6.74828515e-07  6.00457250e-01  6.74828515e-07  1.24933128e+00  6.74828515e-07  1.80000000e+00  6.74828515e-07  1.12435726e-05  6.74828515e-07  6.00457250e-01                                 
 7.74143219e-07  7.19814823e-01  7.74143219e-07  6.41219094e-01  7.74143219e-07  1.18895257e+00  7.74143219e-07  1.80000000e+00  7.74143219e-07  1.43248397e-05  7.74143219e-07  6.41219094e-01                                 
 8.45372645e-07  7.03549412e-01  8.45372645e-07  6.28182909e-01  8.45372645e-07  1.10308983e+00  8.45372645e-07  1.80000000e+00  8.45372645e-07  7.87924553e-06  8.45372645e-07  6.28182909e-01                                 
 8.54917687e-07  6.96336349e-01  8.54917687e-07  6.22264308e-01  8.54917687e-07  1.08658053e+00  8.54917687e-07  1.80000000e+00  8.54917687e-07  9.79330416e-06  8.54917687e-07  6.22264308e-01                                 
 8.74007770e-07  6.82181819e-01  8.74007770e-07  6.10156576e-01  8.74007770e-07  1.05564447e+00  8.74007770e-07  1.80000000e+00  8.74007770e-07  9.98339064e-06  8.74007770e-07  6.10156576e-01                                 
 9.12187937e-07  6.71340894e-01  9.12187937e-07  6.00494093e-01  9.12187937e-07  1.01361559e+00  9.12187937e-07  1.80000000e+00  9.12187937e-07  1.21424890e-05  9.12187937e-07  6.00494093e-01                                 
 9.70942323e-07  6.92994806e-01  9.70942323e-07  6.19390495e-01  9.70942323e-07  9.89147859e-01  9.70942323e-07  1.80000000e+00  9.70942323e-07  1.32860929e-05  9.70942323e-07  6.19390495e-01                                 
 1.03666000e-06  7.01782444e-01  1.03666000e-06  6.26762914e-01  1.03666000e-06  9.51493348e-01  1.03666000e-06  1.80000000e+00  1.03666000e-06  1.10816281e-05  1.03666000e-06  6.26762914e-01                                 
 1.10122632e-06  6.85572877e-01  1.10122632e-06  6.13080659e-01  1.10122632e-06  8.94972664e-01  1.10122632e-06  1.80000000e+00  1.10122632e-06  1.15192753e-05  1.10122632e-06  6.13080659e-01                                 
 1.17130393e-06  6.86914364e-01  1.17130393e-06  6.14202691e-01  1.17130393e-06  8.52994447e-01  1.17130393e-06  1.80000000e+00  1.17130393e-06  1.24280016e-05  1.17130393e-06  6.14202691e-01                                 
 1.24821523e-06  6.98566265e-01  1.24821523e-06  6.24093891e-01  1.24821523e-06  8.17243174e-01  1.24821523e-06  1.80000000e+00  1.24821523e-06  1.21832402e-05  1.24821523e-06  6.24093891e-01                                 
 1.36018860e-06  6.87501411e-01  1.36018860e-06  6.14735319e-01  1.36018860e-06  7.42497968e-01  1.36018860e-06  1.80000000e+00  1.36018860e-06  1.13148046e-05  1.36018860e-06  6.14735319e-01                                 
 1.46454447e-06  6.90763187e-01  1.46454447e-06  6.17509393e-01  1.46454447e-06  6.89581943e-01  1.46454447e-06  1.80000000e+00  1.46454447e-06  1.28729614e-05  1.46454447e-06  6.17509393e-01                                 
 1.58899814e-06  6.95210393e-01  1.58899814e-06  6.21291563e-01  1.58899814e-06  6.45522575e-01  1.58899814e-06  1.80000000e+00  1.58899814e-06  1.15119432e-05  1.58899814e-06  6.21291563e-01                                 
 1.77493119e-06  6.87488977e-01  1.77493119e-06  6.14713333e-01  1.77493119e-06  6.06522371e-01  1.77493119e-06  1.80000000e+00  1.77493119e-06  1.27297901e-05  1.77493119e-06  6.14713333e-01                                 
 1.79963858e-06  6.89912068e-01  1.79963858e-06  6.16789112e-01  1.79963858e-06  6.07928156e-01  1.79963858e-06  1.80000000e+00  1.79963858e-06  1.24957127e-05  1.79963858e-06  6.16789112e-01                                 
 1.84905336e-06  6.93281600e-01  1.84905336e-06  6.19656212e-01  1.84905336e-06  6.13060188e-01  1.84905336e-06  1.80000000e+00  1.84905336e-06  1.24272711e-05  1.84905336e-06  6.19656212e-01                                 
 1.94788292e-06  6.91681152e-01  1.94788292e-06  6.18305129e-01  1.94788292e-06  6.18646053e-01  1.94788292e-06  1.80000000e+00  1.94788292e-06  1.21373308e-05  1.94788292e-06  6.18305129e-01                                 
 2.08419220e-06  6.90781282e-01  2.08419220e-06  6.17532545e-01  2.08419220e-06  6.17858789e-01  2.08419220e-06  1.80000000e+00  2.08419220e-06  1.24083441e-05  2.08419220e-06  6.17532545e-01                                 
 2.22670609e-06  6.92965811e-01  2.22670609e-06  6.19392541e-01  2.22670609e-06  6.19482777e-01  2.22670609e-06  1.80000000e+00  2.22670609e-06  1.22359776e-05  2.22670609e-06  6.19392541e-01                                 
 2.47377385e-06  6.90440971e-01  2.47377385e-06  6.17245010e-01  2.47377385e-06  6.17545455e-01  2.47377385e-06  1.80000000e+00  2.47377385e-06  1.22956079e-05  2.47377385e-06  6.17245010e-01                                 
 2.87327412e-06  6.92818508e-01  2.87327412e-06  6.19266215e-01  2.87327412e-06  6.19384209e-01  2.87327412e-06  1.80000000e+00  2.87327412e-06  1.23072469e-05  2.87327412e-06  6.19266215e-01                                 
 3.35895727e-06  6.90675553e-01  3.35895727e-06  6.17446319e-01  3.35895727e-06  6.17736480e-01  3.35895727e-06  1.80000000e+00  3.35895727e-06  1.22499820e-05  3.35895727e-06  6.17446319e-01                                 
 4.18879313e-06  6.92616761e-01  4.18879313e-06  6.19095087e-01  4.18879313e-06  6.19215510e-01  4.18879313e-06  1.80000000e+00  4.18879313e-06  1.23369245e-05  4.18879313e-06  6.19095087e-01                                 
 5.18879313e-06  6.90838649e-01  5.18879313e-06  6.17585612e-01  5.18879313e-06  6.17878452e-01  5.18879313e-06  1.80000000e+00  5.18879313e-06  1.22319173e-05  5.18879313e-06  6.17585612e-01                                 
 6.18879313e-06  6.92462906e-01  6.18879313e-06  6.18963936e-01  6.18879313e-06  6.19080865e-01  6.18879313e-06  1.80000000e+00  6.18879313e-06  1.23518181e-05  6.18879313e-06  6.18963936e-01                                 
 7.18879313e-06  6.91003739e-01  7.18879313e-06  6.17726465e-01  7.18879313e-06  6.18023309e-01  7.18879313e-06  1.80000000e+00  7.18879313e-06  1.22184569e-05  7.18879313e-06  6.17726465e-01                                 
 8.18879313e-06  6.92296891e-01  8.18879313e-06  6.18822835e-01  8.18879313e-06  6.18934648e-01  8.18879313e-06  1.80000000e+00  8.18879313e-06  1.23637928e-05  8.18879313e-06  6.18822835e-01                                 
 9.18879313e-06  6.91178318e-01  9.18879313e-06  6.17875307e-01  9.18879313e-06  6.18178094e-01  9.18879313e-06  1.80000000e+00  9.18879313e-06  1.22080110e-05  9.18879313e-06  6.17875307e-01                                 
 1.00005000e-05  6.92103669e-01  1.00005000e-05  6.18658633e-01  1.00005000e-05  6.18762941e-01  1.00005000e-05  1.80000000e+00  1.00005000e-05  1.23735071e-05  1.00005000e-05  6.18658633e-01                                 
 1.00005500e-05  6.92105231e-01  1.00005500e-05  6.18659945e-01  1.00005500e-05  6.12021643e-01  1.00005500e-05  1.62000000e+00  1.00005500e-05 -1.22155274e-04  1.00005500e-05  6.18659945e-01                                 
 1.00006500e-05  6.92108337e-01  1.00006500e-05  6.18662579e-01  1.00006500e-05  6.00353769e-01  1.00006500e-05  1.26000000e+00  1.00006500e-05 -1.00437060e-04  1.00006500e-05  6.18662579e-01                                 
 1.00008500e-05  6.92114623e-01  1.00008500e-05  6.18667927e-01  1.00008500e-05  5.91028632e-01  1.00008500e-05  5.40000000e-01  1.00008500e-05  4.14955770e-02  1.00008500e-05  6.18667927e-01                                 
 1.00010000e-05  6.92119368e-01  1.00010000e-05  6.18671964e-01  1.00010000e-05  5.57375917e-01  1.00010000e-05  0.00000000e+00  1.00010000e-05  1.55588137e+00  1.00010000e-05  6.18671964e-01                                 
 1.00010247e-05  6.92120140e-01  1.00010247e-05  6.18672625e-01  1.00010247e-05  5.40420151e-01  1.00010247e-05  0.00000000e+00  1.00010247e-05  1.70498566e+00  1.00010247e-05  6.18672625e-01                                 
 1.00010742e-05  6.92121712e-01  1.00010742e-05  6.18673958e-01  1.00010742e-05  5.13844314e-01  1.00010742e-05  0.00000000e+00  1.00010742e-05  1.81828056e+00  1.00010742e-05  6.18673958e-01                                 
 1.00011732e-05  6.92124911e-01  1.00011732e-05  6.18676662e-01  1.00011732e-05  4.98081763e-01  1.00011732e-05  0.00000000e+00  1.00011732e-05  1.78982651e+00  1.00011732e-05  6.18676662e-01                                 
 1.00013141e-05  6.92129429e-01  1.00013141e-05  6.18680509e-01  1.00013141e-05  5.01836822e-01  1.00013141e-05  0.00000000e+00  1.00013141e-05  1.80673957e+00  1.00013141e-05  6.18680509e-01                                 
 1.00014675e-05  6.92134319e-01  1.00014675e-05  6.18684669e-01  1.00014675e-05  5.01382347e-01  1.00014675e-05  0.00000000e+00  1.00014675e-05  1.79548381e+00  1.00014675e-05  6.18684669e-01                                 
 1.00017531e-05  6.92143368e-01  1.00017531e-05  6.18692364e-01  1.00017531e-05  5.02245845e-01  1.00017531e-05  0.00000000e+00  1.00017531e-05  1.80367798e+00  1.00017531e-05  6.18692364e-01                                 
 1.00023244e-05  6.92161242e-01  1.00023244e-05  6.18707563e-01  1.00023244e-05  5.01979937e-01  1.00023244e-05  0.00000000e+00  1.00023244e-05  1.79667845e+00  1.00023244e-05  6.18707563e-01                                 
 1.00031718e-05  6.92187132e-01  1.00031718e-05  6.18729578e-01  1.00031718e-05  5.02429435e-01  1.00031718e-05  0.00000000e+00  1.00031718e-05  1.80308648e+00  1.00031718e-05  6.18729578e-01                                 
 1.00048665e-05  6.92235986e-01  1.00048665e-05  6.18771147e-01  1.00048665e-05  5.02588792e-01  1.00048665e-05  0.00000000e+00  1.00048665e-05  1.79701208e+00  1.00048665e-05  6.18771147e-01                                 
 1.00082560e-05  6.92319702e-01  1.00082560e-05  6.18842448e-01  1.00082560e-05  5.04180530e-01  1.00082560e-05  0.00000000e+00  1.00082560e-05  1.80292876e+00  1.00082560e-05  6.18842448e-01                                 
 1.00150349e-05  6.92430110e-01  1.00150349e-05  6.18936643e-01  1.00150349e-05  5.07454261e-01  1.00150349e-05  0.00000000e+00  1.00150349e-05  1.79709040e+00  1.00150349e-05  6.18936643e-01                                 
