 time            v(vbep)         time            v(vben)         time            v(vout)         time            v(vphi1)        time            v(vphi2)        time            v(vref)         yes             currtemp       
 0.00000000e+00  7.88159157e-01  0.00000000e+00  7.40291682e-01  0.00000000e+00  1.00644150e+00  0.00000000e+00  0.00000000e+00  0.00000000e+00  1.79984817e+00  0.00000000e+00  5.00000000e-01  1.00000000e+00 -1.20000000e+01 
 5.00000000e-12  7.88079596e-01  5.00000000e-12  7.40230113e-01  5.00000000e-12  1.00715613e+00  5.00000000e-12  1.80000000e-02  5.00000000e-12  1.79996903e+00  5.00000000e-12  5.00000000e-01                                 
 1.00000000e-11  7.88007577e-01  1.00000000e-11  7.40172420e-01  1.00000000e-11  1.00779649e+00  1.00000000e-11  3.60000000e-02  1.00000000e-11  1.80004028e+00  1.00000000e-11  5.00000000e-01                                 
 2.00000000e-11  7.87870190e-01  2.00000000e-11  7.40058281e-01  2.00000000e-11  1.00895973e+00  2.00000000e-11  7.20000000e-02  2.00000000e-11  1.80012254e+00  2.00000000e-11  5.00000000e-01                                 
 4.00000000e-11  7.87608655e-01  4.00000000e-11  7.39832248e-01  4.00000000e-11  1.01074506e+00  4.00000000e-11  1.44000000e-01  4.00000000e-11  1.80012195e+00  4.00000000e-11  5.00000000e-01                                 
 8.00000000e-11  7.87092063e-01  8.00000000e-11  7.39384749e-01  8.00000000e-11  1.01291373e+00  8.00000000e-11  2.88000000e-01  8.00000000e-11  1.80005986e+00  8.00000000e-11  5.00000000e-01                                 
 1.60000000e-10  7.86082317e-01  1.60000000e-10  7.38508142e-01  1.60000000e-10  1.01473238e+00  1.60000000e-10  5.76000000e-01  1.60000000e-10  1.80000855e+00  1.60000000e-10  5.00000000e-01                                 
 3.20000000e-10  7.84148493e-01  3.20000000e-10  7.36823632e-01  3.20000000e-10  1.00600235e+00  3.20000000e-10  1.15200000e+00  3.20000000e-10  1.80028368e+00  3.20000000e-10  5.00000000e-01                                 
 5.00000000e-10  7.82101762e-01  5.00000000e-10  7.35031387e-01  5.00000000e-10  1.18761104e+00  5.00000000e-10  1.80000000e+00  5.00000000e-10  9.51407982e-02  5.00000000e-10  5.00000000e-01                                 
 5.20661285e-10  7.81876136e-01  5.20661285e-10  7.34833168e-01  5.20661285e-10  1.22806280e+00  5.20661285e-10  1.80000000e+00  5.20661285e-10  1.66937188e-02  5.20661285e-10  5.00000000e-01                                 
 5.61983856e-10  7.81427785e-01  5.61983856e-10  7.34438937e-01  5.61983856e-10  1.30168989e+00  5.61983856e-10  1.80000000e+00  5.61983856e-10 -7.96599545e-03  5.61983856e-10  5.00000000e-01                                 
 6.44628997e-10  7.80549442e-01  6.44628997e-10  7.33665371e-01  6.44628997e-10  1.42296860e+00  6.44628997e-10  1.80000000e+00  6.44628997e-10  6.91892362e-03  6.44628997e-10  5.00000000e-01                                 
 7.68102399e-10  7.79281179e-01  7.68102399e-10  7.32545183e-01  7.68102399e-10  1.56846154e+00  7.68102399e-10  1.80000000e+00  7.68102399e-10 -6.14168422e-03  7.68102399e-10  5.00000000e-01                                 
 9.55644660e-10  7.77448238e-01  9.55644660e-10  7.30919635e-01  9.55644660e-10  1.73240132e+00  9.55644660e-10  1.80000000e+00  9.55644660e-10  5.85880924e-03  9.55644660e-10  5.00000000e-01                                 
 1.33072918e-09  7.74078067e-01  1.33072918e-09  7.27910689e-01  1.33072918e-09  1.92084531e+00  1.33072918e-09  1.80000000e+00  1.33072918e-09 -5.57103940e-03  1.33072918e-09  5.00000000e-01                                 
 1.61248436e-09  7.71780427e-01  1.61248436e-09  7.25842910e-01  1.61248436e-09  1.98155936e+00  1.61248436e-09  1.80000000e+00  1.61248436e-09  5.42163825e-03  1.61248436e-09  5.00000000e-01                                 
 1.92115745e-09  7.69456336e-01  1.92115745e-09  7.23738219e-01  1.92115745e-09  2.01142262e+00  1.92115745e-09  1.80000000e+00  1.92115745e-09 -5.14853350e-03  1.92115745e-09  5.00000000e-01                                 
 2.24638767e-09  7.67197026e-01  2.24638767e-09  7.21679834e-01  2.24638767e-09  2.02354125e+00  2.24638767e-09  1.80000000e+00  2.24638767e-09  5.01311431e-03  2.24638767e-09  5.00000000e-01                                 
 2.73957837e-09  7.64081874e-01  2.73957837e-09  7.18822414e-01  2.73957837e-09  2.02798579e+00  2.73957837e-09  1.80000000e+00  2.73957837e-09 -4.85233007e-03  2.73957837e-09  5.00000000e-01                                 
 3.36578020e-09  7.60574206e-01  3.36578020e-09  7.15578687e-01  3.36578020e-09  2.02627140e+00  3.36578020e-09  1.80000000e+00  3.36578020e-09  4.79360370e-03  3.36578020e-09  5.00000000e-01                                 
 4.42783547e-09  7.55489875e-01  4.42783547e-09  7.10831218e-01  4.42783547e-09  2.02138109e+00  4.42783547e-09  1.80000000e+00  4.42783547e-09 -4.71318689e-03  4.42783547e-09  5.00000000e-01                                 
 6.08506867e-09  7.49095314e-01  6.08506867e-09  7.04788422e-01  6.08506867e-09  2.01503750e+00  6.08506867e-09  1.80000000e+00  6.08506867e-09  4.70739410e-03  6.08506867e-09  5.00000000e-01                                 
 9.08744184e-09  7.40405716e-01  9.08744184e-09  6.96466075e-01  9.08744184e-09  2.00672582e+00  9.08744184e-09  1.80000000e+00  9.08744184e-09 -4.65502155e-03  9.08744184e-09  5.00000000e-01                                 
 1.05413654e-08  7.37139017e-01  1.05413654e-08  6.93302775e-01  1.05413654e-08  2.00360374e+00  1.05413654e-08  1.80000000e+00  1.05413654e-08  4.64393671e-03  1.05413654e-08  5.00000000e-01                                 
 1.24212383e-08  7.33465595e-01  1.24212383e-08  6.89729428e-01  1.24212383e-08  2.00012472e+00  1.24212383e-08  1.80000000e+00  1.24212383e-08 -4.59255583e-03  1.24212383e-08  5.00000000e-01                                 
 1.43846131e-08  7.30139861e-01  1.43846131e-08  6.86480692e-01  1.43846131e-08  1.99699066e+00  1.43846131e-08  1.80000000e+00  1.43846131e-08  4.58494095e-03  1.43846131e-08  5.00000000e-01                                 
 1.78209854e-08  7.25209590e-01  1.78209854e-08  6.81644295e-01  1.78209854e-08  1.99234495e+00  1.78209854e-08  1.80000000e+00  1.78209854e-08 -4.55063358e-03  1.78209854e-08  5.00000000e-01                                 
 2.13589152e-08  7.21010008e-01  2.13589152e-08  6.77506745e-01  2.13589152e-08  1.98841302e+00  2.13589152e-08  1.80000000e+00  2.13589152e-08  4.55343319e-03  2.13589152e-08  5.00000000e-01                                 
 2.84347749e-08  7.14271451e-01  2.84347749e-08  6.70840547e-01  2.84347749e-08  1.98209709e+00  2.84347749e-08  1.80000000e+00  2.84347749e-08 -4.52781384e-03  2.84347749e-08  5.00000000e-01                                 
 3.61391421e-08  7.08619571e-01  3.61391421e-08  6.65225320e-01  3.61391421e-08  1.97682120e+00  3.61391421e-08  1.80000000e+00  3.61391421e-08  4.53903849e-03  3.61391421e-08  5.00000000e-01                                 
 5.15478765e-08  7.00159683e-01  5.15478765e-08  6.56784074e-01  5.15478765e-08  1.96901668e+00  5.15478765e-08  1.80000000e+00  5.15478765e-08 -4.51726456e-03  5.15478765e-08  5.00000000e-01                                 
 7.46298698e-08  6.91636887e-01  7.46298698e-08  6.48184342e-01  7.46298698e-08  1.96202776e+00  7.46298698e-08  1.80000000e+00  7.46298698e-08  4.53341921e-03  7.46298698e-08  5.00000000e-01                                 
 1.04151972e-07  6.84475067e-01  1.04151972e-07  6.40831849e-01  1.04151972e-07  1.95757264e+00  1.04151972e-07  1.80000000e+00  1.04151972e-07 -4.51320424e-03  1.04151972e-07  5.00000000e-01                                 
 1.29914400e-07  6.79787852e-01  1.29914400e-07  6.36006668e-01  1.29914400e-07  1.95483996e+00  1.29914400e-07  1.80000000e+00  1.29914400e-07  4.52959391e-03  1.29914400e-07  5.00000000e-01                                 
 1.56849373e-07  6.75610107e-01  1.56849373e-07  6.31744429e-01  1.56849373e-07  1.95035795e+00  1.56849373e-07  1.80000000e+00  1.56849373e-07 -4.50916863e-03  1.56849373e-07  5.00000000e-01                                 
 1.86920050e-07  6.70342281e-01  1.86920050e-07  6.26677889e-01  1.86920050e-07  1.93071289e+00  1.86920050e-07  1.80000000e+00  1.86920050e-07  4.52581353e-03  1.86920050e-07  5.00000000e-01                                 
 2.16460700e-07  6.62028710e-01  2.16460700e-07  6.19340998e-01  2.16460700e-07  1.89221501e+00  2.16460700e-07  1.80000000e+00  2.16460700e-07 -4.50570721e-03  2.16460700e-07  5.00000000e-01                                 
 2.48385309e-07  6.51717840e-01  2.48385309e-07  6.10481231e-01  2.48385309e-07  1.83652555e+00  2.48385309e-07  1.80000000e+00  2.48385309e-07  4.52231851e-03  2.48385309e-07  5.00000000e-01                                 
 2.78944774e-07  6.44185690e-01  2.78944774e-07  6.03956553e-01  2.78944774e-07  1.79077872e+00  2.78944774e-07  1.80000000e+00  2.78944774e-07 -4.50226137e-03  2.78944774e-07  5.00000000e-01                                 
 3.10475464e-07  6.51441764e-01  3.10475464e-07  6.09187945e-01  3.10475464e-07  1.79164690e+00  3.10475464e-07  1.80000000e+00  3.10475464e-07  4.51928247e-03  3.10475464e-07  5.00000000e-01                                 
 3.34005912e-07  6.52066726e-01  3.34005912e-07  6.09303472e-01  3.34005912e-07  1.77317574e+00  3.34005912e-07  1.80000000e+00  3.34005912e-07 -4.49858097e-03  3.34005912e-07  5.00000000e-01                                 
 3.57868330e-07  6.43911794e-01  3.57868330e-07  6.02479836e-01  3.57868330e-07  1.73947423e+00  3.57868330e-07  1.80000000e+00  3.57868330e-07  4.51456632e-03  3.57868330e-07  5.00000000e-01                                 
 3.76267214e-07  6.41255353e-01  3.76267214e-07  6.00122384e-01  3.76267214e-07  1.72173748e+00  3.76267214e-07  1.80000000e+00  3.76267214e-07 -4.49340300e-03  3.76267214e-07  5.00000000e-01                                 
 3.96344739e-07  6.37530844e-01  3.96344739e-07  5.96912519e-01  3.96344739e-07  1.69920732e+00  3.96344739e-07  1.80000000e+00  3.96344739e-07  4.50903701e-03  3.96344739e-07  5.00000000e-01                                 
 4.25005882e-07  6.31564254e-01  4.25005882e-07  5.91847730e-01  4.25005882e-07  1.66669616e+00  4.25005882e-07  1.80000000e+00  4.25005882e-07 -4.48900027e-03  4.25005882e-07  5.00000000e-01                                 
 4.69022030e-07  6.22350218e-01  4.69022030e-07  5.84099802e-01  4.69022030e-07  1.61574938e+00  4.69022030e-07  1.80000000e+00  4.69022030e-07  4.50600336e-03  4.69022030e-07  5.00000000e-01                                 
 5.28707946e-07  6.09722983e-01  5.28707946e-07  5.73605875e-01  5.28707946e-07  1.54655708e+00  5.28707946e-07  1.80000000e+00  5.28707946e-07 -4.48694568e-03  5.28707946e-07  5.00000000e-01                                 
 6.48079779e-07  5.76797280e-01  6.48079779e-07  5.46844552e-01  6.48079779e-07  1.39674924e+00  6.48079779e-07  1.80000000e+00  6.48079779e-07  4.50464185e-03  6.48079779e-07  5.00000000e-01                                 
 7.86882220e-07  5.33245377e-01  7.86882220e-07  5.11881497e-01  7.86882220e-07  1.21643034e+00  7.86882220e-07  1.80000000e+00  7.86882220e-07 -4.48615993e-03  7.86882220e-07  5.00000000e-01                                 
 8.01485859e-07  5.28252941e-01  8.01485859e-07  5.07891840e-01  8.01485859e-07  1.19635517e+00  8.01485859e-07  1.80000000e+00  8.01485859e-07 -9.41252125e-07  8.01485859e-07  5.00000000e-01                                 
 8.30693137e-07  5.22629126e-01  8.30693137e-07  5.03405132e-01  8.30693137e-07  1.16080832e+00  8.30693137e-07  1.80000000e+00  8.30693137e-07  8.50482612e-07  8.30693137e-07  5.00000000e-01                                 
 8.61224515e-07  5.41464158e-01  8.61224515e-07  5.18496286e-01  8.61224515e-07  1.14763147e+00  8.61224515e-07  1.80000000e+00  8.61224515e-07 -3.79103135e-07  8.61224515e-07  5.00000000e-01                                 
 8.88719990e-07  6.24272163e-01  8.88719990e-07  5.84727511e-01  8.88719990e-07  1.20004661e+00  8.88719990e-07  1.80000000e+00  8.88719990e-07  2.58644381e-06  8.88719990e-07  5.00000000e-01                                 
 9.23989035e-07  7.92682032e-01  9.23989035e-07  7.42326382e-01  9.23989035e-07  1.32612562e+00  9.23989035e-07  1.80000000e+00  9.23989035e-07  1.78463457e-06  9.23989035e-07  5.00000000e-01                                 
 9.55323660e-07  8.36348906e-01  9.55323660e-07  7.85934187e-01  9.55323660e-07  1.33772038e+00  9.55323660e-07  1.80000000e+00  9.55323660e-07  1.33277243e-07  9.55323660e-07  5.00000000e-01                                 
 9.88748257e-07  8.67286559e-01  9.88748257e-07  8.12475167e-01  9.88748257e-07  1.32960463e+00  9.88748257e-07  1.80000000e+00  9.88748257e-07  7.32656511e-07  9.88748257e-07  5.00000000e-01                                 
 1.01830722e-06  8.99758200e-01  1.01830722e-06  8.36530839e-01  1.01830722e-06  1.33040868e+00  1.01830722e-06  1.80000000e+00  1.01830722e-06  6.60629611e-07  1.01830722e-06  5.00000000e-01                                 
 1.05784783e-06  9.51593391e-01  1.05784783e-06  8.67317773e-01  1.05784783e-06  1.32732452e+00  1.05784783e-06  1.80000000e+00  1.05784783e-06  5.10217841e-07  1.05784783e-06  5.00000000e-01                                 
 1.06282883e-06  9.55280835e-01  1.06282883e-06  8.69316383e-01  1.06282883e-06  1.32759379e+00  1.06282883e-06  1.80000000e+00  1.06282883e-06  6.55920358e-07  1.06282883e-06  5.00000000e-01                                 
 1.07279082e-06  9.57561553e-01  1.07279082e-06  8.70634830e-01  1.07279082e-06  1.32119753e+00  1.07279082e-06  1.80000000e+00  1.07279082e-06 -2.96543730e-08  1.07279082e-06  5.00000000e-01                                 
 1.09271481e-06  9.55325224e-01  1.09271481e-06  8.69467644e-01  1.09271481e-06  1.29887105e+00  1.09271481e-06  1.80000000e+00  1.09271481e-06  4.51041631e-08  1.09271481e-06  5.00000000e-01                                 
 1.11509979e-06  9.56011761e-01  1.11509979e-06  8.69803027e-01  1.11509979e-06  1.27710005e+00  1.11509979e-06  1.80000000e+00  1.11509979e-06  1.08514894e-08  1.11509979e-06  5.00000000e-01                                 
 1.14421125e-06  9.55221504e-01  1.14421125e-06  8.69431763e-01  1.14421125e-06  1.24711985e+00  1.14421125e-06  1.80000000e+00  1.14421125e-06  1.73149791e-08  1.14421125e-06  5.00000000e-01                                 
 1.20099557e-06  9.54716648e-01  1.20099557e-06  8.69138077e-01  1.20099557e-06  1.18911582e+00  1.20099557e-06  1.80000000e+00  1.20099557e-06  1.74984367e-08  1.20099557e-06  5.00000000e-01                                 
 1.29527334e-06  9.53515232e-01  1.29527334e-06  8.68557712e-01  1.29527334e-06  1.09024712e+00  1.29527334e-06  1.80000000e+00  1.29527334e-06  1.77999862e-08  1.29527334e-06  5.00000000e-01                                 
 1.48382888e-06  9.51299675e-01  1.48382888e-06  8.67373648e-01  1.48382888e-06  9.08840877e-01  1.48382888e-06  1.80000000e+00  1.48382888e-06  2.06416836e-08  1.48382888e-06  5.00000000e-01                                 
 1.69142648e-06  9.48816894e-01  1.69142648e-06  8.66109702e-01  1.69142648e-06  7.73565270e-01  1.69142648e-06  1.80000000e+00  1.69142648e-06  3.92019003e-08  1.69142648e-06  5.00000000e-01                                 
 1.95313747e-06  9.45577305e-01  1.95313747e-06  8.64348106e-01  1.95313747e-06  6.53358350e-01  1.95313747e-06  1.80000000e+00  1.95313747e-06  3.34275407e-09  1.95313747e-06  5.00000000e-01                                 
 2.22117129e-06  9.42110818e-01  2.22117129e-06  8.62511617e-01  2.22117129e-06  5.56526205e-01  2.22117129e-06  1.80000000e+00  2.22117129e-06  3.16514303e-08  2.22117129e-06  5.00000000e-01                                 
 2.58823057e-06  9.36348964e-01  2.58823057e-06  8.59277509e-01  2.58823057e-06  4.96952281e-01  2.58823057e-06  1.80000000e+00  2.58823057e-06  9.80169506e-09  2.58823057e-06  5.00000000e-01                                 
 2.63377254e-06  9.35551750e-01  2.63377254e-06  8.58849366e-01  2.63377254e-06  4.96188794e-01  2.63377254e-06  1.80000000e+00  2.63377254e-06  1.35624970e-08  2.63377254e-06  5.00000000e-01                                 
 2.72485648e-06  9.33766647e-01  2.72485648e-06  8.57837722e-01  2.72485648e-06  4.94478212e-01  2.72485648e-06  1.80000000e+00  2.72485648e-06  1.04611163e-08  2.72485648e-06  5.00000000e-01                                 
 2.74762747e-06  9.33290800e-01  2.74762747e-06  8.57565881e-01  2.74762747e-06  4.94026319e-01  2.74762747e-06  1.80000000e+00  2.74762747e-06  1.10005377e-08  2.74762747e-06  5.00000000e-01                                 
 2.79316944e-06  9.32301281e-01  2.79316944e-06  8.56999360e-01  2.79316944e-06  4.93088373e-01  2.79316944e-06  1.80000000e+00  2.79316944e-06  1.02570381e-08  2.79316944e-06  5.00000000e-01                                 
 2.88425339e-06  9.30091967e-01  2.88425339e-06  8.55724167e-01  2.88425339e-06  4.91011980e-01  2.88425339e-06  1.80000000e+00  2.88425339e-06  8.23074663e-09  2.88425339e-06  5.00000000e-01                                 
 3.06642127e-06  9.24172008e-01  3.06642127e-06  8.52235913e-01  3.06642127e-06  4.85509678e-01  3.06642127e-06  1.80000000e+00  3.06642127e-06  8.86292262e-10  3.06642127e-06  5.00000000e-01                                 
 3.11196325e-06  9.22125741e-01  3.11196325e-06  8.51005643e-01  3.11196325e-06  4.83667338e-01  3.11196325e-06  1.80000000e+00  3.11196325e-06 -2.37702065e-09  3.11196325e-06  5.00000000e-01                                 
 3.20304719e-06  9.17240858e-01  3.20304719e-06  8.48016237e-01  3.20304719e-06  4.85559014e-01  3.20304719e-06  1.80000000e+00  3.20304719e-06  3.56077167e-10  3.20304719e-06  5.00000000e-01                                 
 3.22136978e-06  9.16003248e-01  3.22136978e-06  8.47247122e-01  3.22136978e-06  4.87008161e-01  3.22136978e-06  1.80000000e+00  3.22136978e-06 -9.32543176e-09  3.22136978e-06  5.00000000e-01                                 
 3.25801495e-06  9.13297098e-01  3.25801495e-06  8.45547906e-01  3.25801495e-06  4.88715787e-01  3.25801495e-06  1.80000000e+00  3.25801495e-06 -3.22555042e-08  3.25801495e-06  5.00000000e-01                                 
 3.33130531e-06  9.05818503e-01  3.33130531e-06  8.40728143e-01  3.33130531e-06  4.87817792e-01  3.33130531e-06  1.80000000e+00  3.33130531e-06 -4.54642393e-08  3.33130531e-06  5.00000000e-01                                 
 3.34962789e-06  9.03209515e-01  3.34962789e-06  8.39002032e-01  3.34962789e-06  4.86797976e-01  3.34962789e-06  1.80000000e+00  3.34962789e-06 -5.75091233e-08  3.34962789e-06  5.00000000e-01                                 
 3.38627307e-06  8.97091489e-01  3.38627307e-06  8.34859545e-01  3.38627307e-06  4.84151757e-01  3.38627307e-06  1.80000000e+00  3.38627307e-06 -8.53247146e-08  3.38627307e-06  5.00000000e-01                                 
 3.45956342e-06  8.76165188e-01  3.45956342e-06  8.19625577e-01  3.45956342e-06  4.73801855e-01  3.45956342e-06  1.80000000e+00  3.45956342e-06 -1.93758696e-07  3.45956342e-06  5.00000000e-01                                 
 3.53226511e-06  8.50457034e-01  3.53226511e-06  7.98463756e-01  3.53226511e-06  4.65105582e-01  3.53226511e-06  1.80000000e+00  3.53226511e-06 -1.78156562e-07  3.53226511e-06  5.00000000e-01                                 
 3.61463575e-06  8.38647929e-01  3.61463575e-06  7.87945368e-01  3.61463575e-06  4.73895955e-01  3.61463575e-06  1.80000000e+00  3.61463575e-06  4.09689290e-08  3.61463575e-06  5.00000000e-01                                 
 3.71132163e-06  8.42612741e-01  3.71132163e-06  7.91501184e-01  3.71132163e-06  4.92571582e-01  3.71132163e-06  1.80000000e+00  3.71132163e-06  4.76605930e-08  3.71132163e-06  5.00000000e-01                                 
