 time            v(vbep)         time            v(vben)         time            v(vout)         time            v(vphi1)        time            v(vphi2)        time            v(vref)         yes             currtemp       
 0.00000000e+00  7.02468333e-01  0.00000000e+00  6.49589231e-01  0.00000000e+00  2.92649038e-01  0.00000000e+00  0.00000000e+00  0.00000000e+00  1.79995708e+00  0.00000000e+00  6.49589231e-01  1.00000000e+00  1.60000000e+01 
 5.00000000e-12  7.02445925e-01  5.00000000e-12  6.49570603e-01  5.00000000e-12  2.93148096e-01  5.00000000e-12  1.80000000e-02  5.00000000e-12  1.80006038e+00  5.00000000e-12  6.49570603e-01                                 
 1.00000000e-11  7.02423984e-01  1.00000000e-11  6.49552414e-01  1.00000000e-11  2.93555089e-01  1.00000000e-11  3.60000000e-02  1.00000000e-11  1.80011860e+00  1.00000000e-11  6.49552414e-01                                 
 2.00000000e-11  7.02380368e-01  2.00000000e-11  6.49516157e-01  2.00000000e-11  2.94231858e-01  2.00000000e-11  7.20000000e-02  2.00000000e-11  1.80017920e+00  2.00000000e-11  6.49516157e-01                                 
 4.00000000e-11  7.02293593e-01  4.00000000e-11  6.49443882e-01  4.00000000e-11  2.95045083e-01  4.00000000e-11  1.44000000e-01  4.00000000e-11  1.80016005e+00  4.00000000e-11  6.49443882e-01                                 
 8.00000000e-11  7.02120756e-01  8.00000000e-11  6.49299861e-01  8.00000000e-11  2.95798933e-01  8.00000000e-11  2.88000000e-01  8.00000000e-11  1.80009257e+00  8.00000000e-11  6.49299861e-01                                 
 1.60000000e-10  7.01778130e-01  1.60000000e-10  6.49013943e-01  1.60000000e-10  2.96580603e-01  1.60000000e-10  5.76000000e-01  1.60000000e-10  1.80005133e+00  1.60000000e-10  6.49013943e-01                                 
 3.20000000e-10  7.01104489e-01  3.20000000e-10  6.48450355e-01  3.20000000e-10  2.95396970e-01  3.20000000e-10  1.15200000e+00  3.20000000e-10  1.80014765e+00  3.20000000e-10  6.48450355e-01                                 
 5.00000000e-10  7.00364625e-01  5.00000000e-10  6.47829094e-01  5.00000000e-10  5.16972891e-01  5.00000000e-10  1.80000000e+00  5.00000000e-10  1.45717761e-01  5.00000000e-10  6.47829094e-01                                 
 5.21213948e-10  7.00278787e-01  5.21213948e-10  6.47756851e-01  5.21213948e-10  5.67981084e-01  5.21213948e-10  1.80000000e+00  5.21213948e-10  3.21740053e-02  5.21213948e-10  6.47756851e-01                                 
 5.63641845e-10  7.00107608e-01  5.63641845e-10  6.47612714e-01  5.63641845e-10  6.62115983e-01  5.63641845e-10  1.80000000e+00  5.63641845e-10 -1.30831580e-02  5.63641845e-10  6.47612714e-01                                 
 6.48497639e-10  6.99768241e-01  6.48497639e-10  6.47326594e-01  6.48497639e-10  8.12997461e-01  6.48497639e-10  1.80000000e+00  6.48497639e-10  1.17014712e-02  6.48497639e-10  6.47326594e-01                                 
 7.65604361e-10  6.99306296e-01  7.65604361e-10  6.46936348e-01  7.65604361e-10  9.75360672e-01  7.65604361e-10  1.80000000e+00  7.65604361e-10 -8.90934157e-03  7.65604361e-10  6.46936348e-01                                 
 9.49360961e-10  6.98595863e-01  9.49360961e-10  6.46334453e-01  9.49360961e-10  1.18152937e+00  9.49360961e-10  1.80000000e+00  9.49360961e-10  9.20302166e-03  9.49360961e-10  6.46334453e-01                                 
 1.26111026e-09  6.97428781e-01  1.26111026e-09  6.45341201e-01  1.26111026e-09  1.44826452e+00  1.26111026e-09  1.80000000e+00  1.26111026e-09 -7.76090492e-03  1.26111026e-09  6.45341201e-01                                 
 1.84002399e-09  6.95377814e-01  1.84002399e-09  6.43582677e-01  1.84002399e-09  1.71544588e+00  1.84002399e-09  1.80000000e+00  1.84002399e-09  8.07519479e-03  1.84002399e-09  6.43582677e-01                                 
 2.20791669e-09  6.94147191e-01  2.20791669e-09  6.42519419e-01  2.20791669e-09  1.77320255e+00  2.20791669e-09  1.80000000e+00  2.20791669e-09 -7.46036986e-03  2.20791669e-09  6.42519419e-01                                 
 2.55919434e-09  6.93019414e-01  2.55919434e-09  6.41539931e-01  2.55919434e-09  1.79628640e+00  2.55919434e-09  1.80000000e+00  2.55919434e-09  7.20658947e-03  2.55919434e-09  6.41539931e-01                                 
 2.95010606e-09  6.91814291e-01  2.95010606e-09  6.40488049e-01  2.95010606e-09  1.80591276e+00  2.95010606e-09  1.80000000e+00  2.95010606e-09 -6.81039906e-03  2.95010606e-09  6.40488049e-01                                 
 3.55260179e-09  6.90049949e-01  3.55260179e-09  6.38938735e-01  3.55260179e-09  1.80989543e+00  3.55260179e-09  1.80000000e+00  3.55260179e-09  6.65479346e-03  3.55260179e-09  6.38938735e-01                                 
 4.33061741e-09  6.87920331e-01  4.33061741e-09  6.37054414e-01  4.33061741e-09  1.80842320e+00  4.33061741e-09  1.80000000e+00  4.33061741e-09 -6.46922389e-03  4.33061741e-09  6.37054414e-01                                 
 5.61574354e-09  6.84710544e-01  5.61574354e-09  6.34187118e-01  5.61574354e-09  1.80518595e+00  5.61574354e-09  1.80000000e+00  5.61574354e-09  6.40769379e-03  5.61574354e-09  6.34187118e-01                                 
 7.64660597e-09  6.80257148e-01  7.64660597e-09  6.30159736e-01  7.64660597e-09  1.79971924e+00  7.64660597e-09  1.80000000e+00  7.64660597e-09 -6.32416604e-03  7.64660597e-09  6.30159736e-01                                 
 1.17083308e-08  6.72902406e-01  1.17083308e-08  6.23408492e-01  1.17083308e-08  1.79028383e+00  1.17083308e-08  1.80000000e+00  1.17083308e-08  6.32597915e-03  1.17083308e-08  6.23408492e-01                                 
 1.45621139e-08  6.68630468e-01  1.45621139e-08  6.19436945e-01  1.45621139e-08  1.78362725e+00  1.45621139e-08  1.80000000e+00  1.45621139e-08 -6.25852880e-03  1.45621139e-08  6.19436945e-01                                 
 1.62497045e-08  6.66342040e-01  1.62497045e-08  6.17299824e-01  1.62497045e-08  1.78067686e+00  1.62497045e-08  1.80000000e+00  1.62497045e-08  6.21668533e-03  1.62497045e-08  6.17299824e-01                                 
 1.78236390e-08  6.64333320e-01  1.78236390e-08  6.15420244e-01  1.78236390e-08  1.77734209e+00  1.78236390e-08  1.80000000e+00  1.78236390e-08 -6.12152473e-03  1.78236390e-08  6.15420244e-01                                 
 1.96149523e-08  6.62172756e-01  1.96149523e-08  6.13395880e-01  1.96149523e-08  1.77422312e+00  1.96149523e-08  1.80000000e+00  1.96149523e-08  6.08321245e-03  1.96149523e-08  6.13395880e-01                                 
 2.24516913e-08  6.58979381e-01  2.24516913e-08  6.10400948e-01  2.24516913e-08  1.76838426e+00  2.24516913e-08  1.80000000e+00  2.24516913e-08 -6.02186189e-03  2.24516913e-08  6.10400948e-01                                 
 2.52444377e-08  6.56065949e-01  2.52444377e-08  6.07667557e-01  2.52444377e-08  1.76287217e+00  2.52444377e-08  1.80000000e+00  2.52444377e-08  6.00541221e-03  2.52444377e-08  6.07667557e-01                                 
 3.00655578e-08  6.51458371e-01  3.00655578e-08  6.03347336e-01  3.00655578e-08  1.75216493e+00  3.00655578e-08  1.80000000e+00  3.00655578e-08 -5.96082548e-03  3.00655578e-08  6.03347336e-01                                 
 3.51153142e-08  6.47105951e-01  3.51153142e-08  5.99271697e-01  3.51153142e-08  1.74130238e+00  3.51153142e-08  1.80000000e+00  3.51153142e-08  5.96184349e-03  3.51153142e-08  5.99271697e-01                                 
 4.52148270e-08  6.39560155e-01  4.52148270e-08  5.92210716e-01  4.52148270e-08  1.71922177e+00  4.52148270e-08  1.80000000e+00  4.52148270e-08 -5.92873960e-03  4.52148270e-08  5.92210716e-01                                 
 6.07623213e-08  6.30257699e-01  6.07623213e-08  5.83497657e-01  6.07623213e-08  1.68786840e+00  6.07623213e-08  1.80000000e+00  6.07623213e-08  5.94489325e-03  6.07623213e-08  5.83497657e-01                                 
 7.91467273e-08  6.25171185e-01  7.91467273e-08  5.78199395e-01  7.91467273e-08  1.66399915e+00  7.91467273e-08  1.80000000e+00  7.91467273e-08 -5.91492769e-03  7.91467273e-08  5.78199395e-01                                 
 1.07770713e-07  6.26005495e-01  1.07770713e-07  5.77294082e-01  1.07770713e-07  1.66051832e+00  1.07770713e-07  1.80000000e+00  1.07770713e-07  5.93725406e-03  1.07770713e-07  5.77294082e-01                                 
 1.27180111e-07  6.23503048e-01  1.27180111e-07  5.74467239e-01  1.27180111e-07  1.63925481e+00  1.27180111e-07  1.80000000e+00  1.27180111e-07 -5.90721518e-03  1.27180111e-07  5.74467239e-01                                 
 1.45242314e-07  6.18685762e-01  1.45242314e-07  5.69968329e-01  1.45242314e-07  1.61663482e+00  1.45242314e-07  1.80000000e+00  1.45242314e-07  5.92556344e-03  1.45242314e-07  5.69968329e-01                                 
 1.63084021e-07  6.14154359e-01  1.63084021e-07  5.65771047e-01  1.63084021e-07  1.59220821e+00  1.63084021e-07  1.80000000e+00  1.63084021e-07 -5.89563349e-03  1.63084021e-07  5.65771047e-01                                 
 1.82614521e-07  6.08070658e-01  1.82614521e-07  5.60351583e-01  1.82614521e-07  1.56911235e+00  1.82614521e-07  1.80000000e+00  1.82614521e-07  5.91435162e-03  1.82614521e-07  5.60351583e-01                                 
 2.17387072e-07  5.97665344e-01  2.17387072e-07  5.51179230e-01  2.17387072e-07  1.52284727e+00  2.17387072e-07  1.80000000e+00  2.17387072e-07 -5.88723944e-03  2.17387072e-07  5.51179230e-01                                 
 2.63645150e-07  5.84669612e-01  2.63645150e-07  5.39881649e-01  2.63645150e-07  1.46608636e+00  2.63645150e-07  1.80000000e+00  2.63645150e-07  5.90922135e-03  2.63645150e-07  5.39881649e-01                                 
 3.56161305e-07  5.57870722e-01  3.56161305e-07  5.17243117e-01  3.56161305e-07  1.34504295e+00  3.56161305e-07  1.80000000e+00  3.56161305e-07 -5.88388728e-03  3.56161305e-07  5.17243117e-01                                 
 5.41193616e-07  4.92674916e-01  5.41193616e-07  4.64210593e-01  5.41193616e-07  1.09532602e+00  5.41193616e-07  1.80000000e+00  5.41193616e-07  5.90740702e-03  5.41193616e-07  4.64210593e-01                                 
 5.78009069e-07  5.08378317e-01  5.78009069e-07  4.76741307e-01  5.78009069e-07  1.07035094e+00  5.78009069e-07  1.80000000e+00  5.78009069e-07  9.78232512e-07  5.78009069e-07  4.76741307e-01                                 
 5.87212932e-07  5.17547877e-01  5.87212932e-07  4.84064446e-01  5.87212932e-07  1.06954436e+00  5.87212932e-07  1.80000000e+00  5.87212932e-07  1.57781906e-06  5.87212932e-07  4.84064446e-01                                 
 6.05620659e-07  5.58196486e-01  6.05620659e-07  5.16502667e-01  6.05620659e-07  1.08966558e+00  6.05620659e-07  1.80000000e+00  6.05620659e-07  4.53162515e-06  6.05620659e-07  5.16502667e-01                                 
 6.42436112e-07  7.40163439e-01  6.42436112e-07  6.84239142e-01  6.42436112e-07  1.22778095e+00  6.42436112e-07  1.80000000e+00  6.42436112e-07  1.12401873e-05  6.42436112e-07  6.84239142e-01                                 
 6.85117156e-07  7.97522171e-01  6.85117156e-07  7.40992678e-01  6.85117156e-07  1.24229160e+00  6.85117156e-07  1.80000000e+00  6.85117156e-07 -6.50558538e-06  6.85117156e-07  7.40992678e-01                                 
 7.32311588e-07  8.16024400e-01  7.32311588e-07  7.56946050e-01  7.32311588e-07  1.20800739e+00  7.32311588e-07  1.80000000e+00  7.32311588e-07  7.25187224e-06  7.32311588e-07  7.56946050e-01                                 
 7.87416599e-07  8.17767125e-01  7.87416599e-07  7.58545618e-01  7.87416599e-07  1.15668139e+00  7.87416599e-07  1.80000000e+00  7.87416599e-07 -7.64224409e-06  7.87416599e-07  7.58545618e-01                                 
 8.37984266e-07  8.18260060e-01  8.37984266e-07  7.58832957e-01  8.37984266e-07  1.10062447e+00  8.37984266e-07  1.80000000e+00  8.37984266e-07  6.94656714e-06  8.37984266e-07  7.58832957e-01                                 
 8.94047919e-07  8.00876876e-01  8.94047919e-07  7.44041633e-01  8.94047919e-07  1.02981854e+00  8.94047919e-07  1.80000000e+00  8.94047919e-07 -8.58517467e-06  8.94047919e-07  7.44041633e-01                                 
 9.01552391e-07  7.95921659e-01  9.01552391e-07  7.39507167e-01  9.01552391e-07  1.01568283e+00  9.01552391e-07  1.80000000e+00  9.01552391e-07 -1.69023334e-06  9.01552391e-07  7.39507167e-01                                 
 9.16561334e-07  7.90114620e-01  9.16561334e-07  7.34161979e-01  9.16561334e-07  9.94150621e-01  9.16561334e-07  1.80000000e+00  9.16561334e-07 -3.67801467e-07  9.16561334e-07  7.34161979e-01                                 
 9.46579221e-07  7.92783619e-01  9.46579221e-07  7.36601055e-01  9.46579221e-07  9.68442532e-01  9.46579221e-07  1.80000000e+00  9.46579221e-07  2.43997413e-07  9.46579221e-07  7.36601055e-01                                 
 9.89969870e-07  8.03334145e-01  9.89969870e-07  7.46058569e-01  9.89969870e-07  9.40573527e-01  9.89969870e-07  1.80000000e+00  9.89969870e-07  2.80268343e-07  9.89969870e-07  7.46058569e-01                                 
 1.04500179e-06  8.06115159e-01  1.04500179e-06  7.48531837e-01  1.04500179e-06  9.01331863e-01  1.04500179e-06  1.80000000e+00  1.04500179e-06 -3.47574151e-07  1.04500179e-06  7.48531837e-01                                 
 1.12536413e-06  7.97376482e-01  1.12536413e-06  7.40767856e-01  1.12536413e-06  8.40535116e-01  1.12536413e-06  1.80000000e+00  1.12536413e-06 -1.78059174e-07  1.12536413e-06  7.40767856e-01                                 
 1.22550809e-06  8.00342837e-01  1.22550809e-06  7.43421892e-01  1.22550809e-06  7.93202455e-01  1.22550809e-06  1.80000000e+00  1.22550809e-06  3.09875397e-07  1.22550809e-06  7.43421892e-01                                 
 1.33451246e-06  8.04454798e-01  1.33451246e-06  7.47063185e-01  1.33451246e-06  7.64869595e-01  1.33451246e-06  1.80000000e+00  1.33451246e-06  1.81322131e-08  1.33451246e-06  7.47063185e-01                                 
 1.49222754e-06  7.97281157e-01  1.49222754e-06  7.40689844e-01  1.49222754e-06  7.37278561e-01  1.49222754e-06  1.80000000e+00  1.49222754e-06  1.34133628e-07  1.49222754e-06  7.40689844e-01                                 
 1.66102884e-06  8.03813359e-01  1.66102884e-06  7.46489758e-01  1.66102884e-06  7.42591763e-01  1.66102884e-06  1.80000000e+00  1.66102884e-06  3.98502539e-07  1.66102884e-06  7.46489758e-01                                 
 1.84868950e-06  7.99468686e-01  1.84868950e-06  7.42658359e-01  1.84868950e-06  7.45712978e-01  1.84868950e-06  1.80000000e+00  1.84868950e-06 -5.50351188e-08  1.84868950e-06  7.42658359e-01                                 
 2.06477592e-06  8.01346263e-01  2.06477592e-06  7.44303358e-01  2.06477592e-06  7.43257249e-01  2.06477592e-06  1.80000000e+00  2.06477592e-06  4.69758053e-07  2.06477592e-06  7.44303358e-01                                 
 2.27664186e-06  8.01941351e-01  2.27664186e-06  7.44859280e-01  2.27664186e-06  7.44961091e-01  2.27664186e-06  1.80000000e+00  2.27664186e-06 -5.53248231e-08  2.27664186e-06  7.44859280e-01                                 
 2.55221596e-06  7.99467213e-01  2.55221596e-06  7.42630125e-01  2.55221596e-06  7.43282207e-01  2.55221596e-06  1.80000000e+00  2.55221596e-06  4.22722552e-07  2.55221596e-06  7.42630125e-01                                 
 2.59908199e-06  8.01426264e-01  2.59908199e-06  7.44386176e-01  2.59908199e-06  7.44293660e-01  2.59908199e-06  1.80000000e+00  2.59908199e-06  2.68168724e-07  2.59908199e-06  7.44386176e-01                                 
 2.69281404e-06  8.01624819e-01  2.69281404e-06  7.44567048e-01  2.69281404e-06  7.44329178e-01  2.69281404e-06  1.80000000e+00  2.69281404e-06  1.38331867e-07  2.69281404e-06  7.44567048e-01                                 
 2.88027815e-06  8.00276841e-01  2.88027815e-06  7.43364540e-01  2.88027815e-06  7.43661981e-01  2.88027815e-06  1.80000000e+00  2.88027815e-06  2.37054823e-07  2.88027815e-06  7.43364540e-01                                 
 3.14707645e-06  8.01891927e-01  3.14707645e-06  7.44802487e-01  3.14707645e-06  7.44755536e-01  3.14707645e-06  1.80000000e+00  3.14707645e-06  1.82107826e-07  3.14707645e-06  7.44802487e-01                                 
 3.61406291e-06  8.00267537e-01  3.61406291e-06  7.43357579e-01  3.61406291e-06  7.43530891e-01  3.61406291e-06  1.80000000e+00  3.61406291e-06  2.04956814e-07  3.61406291e-06  7.43357579e-01                                 
 4.31692736e-06  8.01832939e-01  4.31692736e-06  7.44749721e-01  4.31692736e-06  7.44765908e-01  4.31692736e-06  1.80000000e+00  4.31692736e-06  2.01501210e-07  4.31692736e-06  7.44749721e-01                                 
 5.31692736e-06  8.00333124e-01  5.31692736e-06  7.43416357e-01  5.31692736e-06  7.43553951e-01  5.31692736e-06  1.80000000e+00  5.31692736e-06  1.92233688e-07  5.31692736e-06  7.43416357e-01                                 
 6.31692736e-06  8.01764402e-01  6.31692736e-06  7.44688468e-01  6.31692736e-06  7.44729706e-01  6.31692736e-06  1.80000000e+00  6.31692736e-06  2.11532852e-07  6.31692736e-06  7.44688468e-01                                 
 7.31692736e-06  8.00413028e-01  7.31692736e-06  7.43487804e-01  7.31692736e-06  7.43603914e-01  7.31692736e-06  1.80000000e+00  7.31692736e-06  1.82694759e-07  7.31692736e-06  7.43487804e-01                                 
 8.31692736e-06  8.01677013e-01  8.31692736e-06  7.44610622e-01  8.31692736e-06  7.44669960e-01  8.31692736e-06  1.80000000e+00  8.31692736e-06  2.20510439e-07  8.31692736e-06  7.44610622e-01                                 
 9.31692736e-06  8.00511234e-01  9.31692736e-06  7.43575558e-01  9.31692736e-06  7.43676754e-01  9.31692736e-06  1.80000000e+00  9.31692736e-06  1.74345941e-07  9.31692736e-06  7.43575558e-01                                 
 1.00005000e-05  8.01548492e-01  1.00005000e-05  7.44496229e-01  1.00005000e-05  7.44569531e-01  1.00005000e-05  1.80000000e+00  1.00005000e-05  2.29736623e-07  1.00005000e-05  7.44496229e-01                                 
 1.00005500e-05  8.01549328e-01  1.00005500e-05  7.44496975e-01  1.00005500e-05  7.37592511e-01  1.00005500e-05  1.62000000e+00  1.00005500e-05 -1.10816025e-04  1.00005500e-05  7.44496975e-01                                 
 1.00006500e-05  8.01551055e-01  1.00006500e-05  7.44498495e-01  1.00006500e-05  7.27706521e-01  1.00006500e-05  1.26000000e+00  1.00006500e-05 -5.63876752e-05  1.00006500e-05  7.44498495e-01                                 
 1.00008500e-05  8.01554565e-01  1.00008500e-05  7.44501587e-01  1.00008500e-05  7.26323254e-01  1.00008500e-05  5.40000000e-01  1.00008500e-05 -1.42857063e-03  1.00008500e-05  7.44501587e-01                                 
 1.00010000e-05  8.01557049e-01  1.00010000e-05  7.44503823e-01  1.00010000e-05  6.60437010e-01  1.00010000e-05  0.00000000e+00  1.00010000e-05  1.49516230e+00  1.00010000e-05  7.44503823e-01                                 
 1.00010264e-05  8.01557446e-01  1.00010264e-05  7.44504188e-01  1.00010264e-05  6.19791143e-01  1.00010264e-05  0.00000000e+00  1.00010264e-05  1.68387198e+00  1.00010264e-05  7.44504188e-01                                 
 1.00010793e-05  8.01558389e-01  1.00010793e-05  7.44504988e-01  1.00010793e-05  5.60621403e-01  1.00010793e-05  0.00000000e+00  1.00010793e-05  1.82246973e+00  1.00010793e-05  7.44504988e-01                                 
 1.00011850e-05  8.01560400e-01  1.00011850e-05  7.44506713e-01  1.00011850e-05  5.31498558e-01  1.00011850e-05  0.00000000e+00  1.00011850e-05  1.78772593e+00  1.00011850e-05  7.44506713e-01                                 
 1.00013330e-05  8.01563020e-01  1.00013330e-05  7.44509076e-01  1.00013330e-05  5.45271612e-01  1.00013330e-05  0.00000000e+00  1.00013330e-05  1.80835133e+00  1.00013330e-05  7.44509076e-01                                 
