 time            v(vbep)         time            v(vben)         time            v(vout)         time            v(vphi1)        time            v(vphi2)        time            v(vref)         time            v(voutc)        time            v(voutcc)       yes             currtemp       
 0.00000000e+00  7.55565518e-01  0.00000000e+00  6.94703351e-01  0.00000000e+00  1.56841359e+00  0.00000000e+00  0.00000000e+00  0.00000000e+00  1.80000000e+00  0.00000000e+00  6.96698115e-01  0.00000000e+00  1.56841358e+00  0.00000000e+00  1.57512728e+00  1.00000000e+00  3.90000000e+01 
 1.00000000e-11  7.55590593e-01  1.00000000e-11  6.94774689e-01  1.00000000e-11  1.56919422e+00  1.00000000e-11  1.80000000e-02  1.00000000e-11  1.80025167e+00  1.00000000e-11  6.97229972e-01  1.00000000e-11  1.56888413e+00  1.00000000e-11  1.57514147e+00                                 
 2.00000000e-11  7.55597457e-01  2.00000000e-11  6.94819379e-01  2.00000000e-11  1.56967433e+00  2.00000000e-11  3.60000000e-02  2.00000000e-11  1.80035155e+00  2.00000000e-11  6.97624912e-01  2.00000000e-11  1.56924041e+00  2.00000000e-11  1.57514685e+00                                 
 4.00000000e-11  7.55597417e-01  4.00000000e-11  6.94878272e-01  4.00000000e-11  1.57025326e+00  4.00000000e-11  7.20000000e-02  4.00000000e-11  1.80038999e+00  4.00000000e-11  6.98202569e-01  4.00000000e-11  1.56977196e+00  4.00000000e-11  1.57514880e+00                                 
 8.00000000e-11  7.55585592e-01  8.00000000e-11  6.94916196e-01  8.00000000e-11  1.57037487e+00  8.00000000e-11  1.44000000e-01  8.00000000e-11  1.80018625e+00  8.00000000e-11  6.98649889e-01  8.00000000e-11  1.57020671e+00  8.00000000e-11  1.57513821e+00                                 
 1.60000000e-10  7.55582722e-01  1.60000000e-10  6.94926917e-01  1.60000000e-10  1.57004213e+00  1.60000000e-10  2.88000000e-01  1.60000000e-10  1.80000419e+00  1.60000000e-10  6.98722094e-01  1.60000000e-10  1.57026009e+00  1.60000000e-10  1.57512857e+00                                 
 3.20000000e-10  7.55578834e-01  3.20000000e-10  6.94925117e-01  3.20000000e-10  1.56967420e+00  3.20000000e-10  5.76000000e-01  3.20000000e-10  1.79999017e+00  3.20000000e-10  6.98582901e-01  3.20000000e-10  1.56996435e+00  3.20000000e-10  1.57512441e+00                                 
 6.40000000e-10  7.55496050e-01  6.40000000e-10  6.94551666e-01  6.40000000e-10  1.56740782e+00  6.40000000e-10  1.15200000e+00  6.40000000e-10  1.81156226e+00  6.40000000e-10  6.96423410e-01  6.40000000e-10  1.57467664e+00  6.40000000e-10  1.57515283e+00                                 
 1.00000000e-09  7.56128949e-01  1.00000000e-09  6.94806325e-01  1.00000000e-09  1.54260375e+00  1.00000000e-09  1.80000000e+00  1.00000000e-09  9.30327630e-02  1.00000000e-09  7.07477216e-01  1.00000000e-09  1.57470507e+00  1.00000000e-09  1.57511425e+00                                 
 1.03648788e-09  7.56167115e-01  1.03648788e-09  6.94842200e-01  1.03648788e-09  1.54163839e+00  1.03648788e-09  1.80000000e+00  1.03648788e-09  2.08253834e-02  1.03648788e-09  7.10417824e-01  1.03648788e-09  1.57631114e+00  1.03648788e-09  1.57515230e+00                                 
 1.10946364e-09  7.56272813e-01  1.10946364e-09  6.94910464e-01  1.10946364e-09  1.54085850e+00  1.10946364e-09  1.80000000e+00  1.10946364e-09 -9.97069185e-03  1.10946364e-09  7.14224617e-01  1.10946364e-09  1.57927400e+00  1.10946364e-09  1.57517895e+00                                 
 1.25541516e-09  7.56384072e-01  1.25541516e-09  6.94781958e-01  1.25541516e-09  1.53885731e+00  1.25541516e-09  1.80000000e+00  1.25541516e-09  8.34394020e-03  1.25541516e-09  7.14454016e-01  1.25541516e-09  1.57972397e+00  1.25541516e-09  1.57513214e+00                                 
 1.46551257e-09  7.56371884e-01  1.46551257e-09  6.94757231e-01  1.46551257e-09  1.53803586e+00  1.46551257e-09  1.80000000e+00  1.46551257e-09 -6.48106669e-03  1.46551257e-09  7.13886909e-01  1.46551257e-09  1.57903409e+00  1.46551257e-09  1.57516454e+00                                 
 1.69292121e-09  7.56281036e-01  1.69292121e-09  6.94752103e-01  1.69292121e-09  1.53789376e+00  1.69292121e-09  1.80000000e+00  1.69292121e-09  5.57974109e-03  1.69292121e-09  7.12560821e-01  1.69292121e-09  1.57808360e+00  1.69292121e-09  1.57517189e+00                                 
 2.07516092e-09  7.56026776e-01  2.07516092e-09  6.94705787e-01  2.07516092e-09  1.53807065e+00  2.07516092e-09  1.80000000e+00  2.07516092e-09 -5.06559053e-03  2.07516092e-09  7.10349429e-01  2.07516092e-09  1.57603862e+00  2.07516092e-09  1.57525678e+00                                 
 2.47322657e-09  7.55823900e-01  2.47322657e-09  6.94710996e-01  2.47322657e-09  1.53850361e+00  2.47322657e-09  1.80000000e+00  2.47322657e-09  4.51236904e-03  2.47322657e-09  7.08424118e-01  2.47322657e-09  1.57453884e+00  2.47322657e-09  1.57533231e+00                                 
 3.12789048e-09  7.55600516e-01  3.12789048e-09  6.94667819e-01  3.12789048e-09  1.53811339e+00  3.12789048e-09  1.80000000e+00  3.12789048e-09 -4.34728196e-03  3.12789048e-09  7.05241087e-01  3.12789048e-09  1.57168727e+00  3.12789048e-09  1.57547681e+00                                 
 4.08144158e-09  7.55478357e-01  4.08144158e-09  6.94685892e-01  4.08144158e-09  1.53741779e+00  4.08144158e-09  1.80000000e+00  4.08144158e-09  4.09235195e-03  4.08144158e-09  7.01985715e-01  4.08144158e-09  1.56903813e+00  4.08144158e-09  1.57562202e+00                                 
 5.98854377e-09  7.55379026e-01  5.98854377e-09  6.94666336e-01  5.98854377e-09  1.53507373e+00  5.98854377e-09  1.80000000e+00  5.98854377e-09 -4.06533314e-03  5.98854377e-09  6.97526470e-01  5.98854377e-09  1.56511509e+00  5.98854377e-09  1.57572283e+00                                 
 7.59720117e-09  7.55390294e-01  7.59720117e-09  6.94702970e-01  7.59720117e-09  1.53277532e+00  7.59720117e-09  1.80000000e+00  7.59720117e-09  3.94682820e-03  7.59720117e-09  6.96066207e-01  7.59720117e-09  1.56399553e+00  7.59720117e-09  1.57561459e+00                                 
 9.07457483e-09  7.55411059e-01  9.07457483e-09  6.94681301e-01  9.07457483e-09  1.52893575e+00  9.07457483e-09  1.80000000e+00  9.07457483e-09 -3.85994653e-03  9.07457483e-09  6.95129597e-01  9.07457483e-09  1.56307735e+00  9.07457483e-09  1.57543558e+00                                 
 1.06807155e-08  7.55459131e-01  1.06807155e-08  6.94711977e-01  1.06807155e-08  1.52402030e+00  1.06807155e-08  1.80000000e+00  1.06807155e-08  3.76488633e-03  1.06807155e-08  6.95019519e-01  1.06807155e-08  1.56309609e+00  1.06807155e-08  1.57518870e+00                                 
 1.28918167e-08  7.55499345e-01  1.28918167e-08  6.94687413e-01  1.28918167e-08  1.51503118e+00  1.28918167e-08  1.80000000e+00  1.28918167e-08 -3.70379729e-03  1.28918167e-08  6.94717098e-01  1.28918167e-08  1.56271312e+00  1.28918167e-08  1.57483792e+00                                 
 1.56053930e-08  7.55547306e-01  1.56053930e-08  6.94716121e-01  1.56053930e-08  1.50295768e+00  1.56053930e-08  1.80000000e+00  1.56053930e-08  3.65366247e-03  1.56053930e-08  6.95083462e-01  1.56053930e-08  1.56312235e+00  1.56053930e-08  1.57441587e+00                                 
 1.92981607e-08  7.55564655e-01  1.92981607e-08  6.94689931e-01  1.92981607e-08  1.48454574e+00  1.92981607e-08  1.80000000e+00  1.92981607e-08 -3.61521119e-03  1.92981607e-08  6.95145047e-01  1.92981607e-08  1.56304131e+00  1.92981607e-08  1.57391052e+00                                 
 2.42794637e-08  7.55580823e-01  2.42794637e-08  6.94717437e-01  2.42794637e-08  1.45934129e+00  2.42794637e-08  1.80000000e+00  2.42794637e-08  3.59041804e-03  2.42794637e-08  6.95728477e-01  2.42794637e-08  1.56362552e+00  2.42794637e-08  1.57334241e+00                                 
 3.24484732e-08  7.55570662e-01  3.24484732e-08  6.94690239e-01  3.24484732e-08  1.41678364e+00  3.24484732e-08  1.80000000e+00  3.24484732e-08 -3.57193766e-03  3.24484732e-08  6.95916435e-01  3.24484732e-08  1.56364876e+00  3.24484732e-08  1.57265569e+00                                 
 4.60547805e-08  7.55573457e-01  4.60547805e-08  6.94717098e-01  4.60547805e-08  1.34638189e+00  4.60547805e-08  1.80000000e+00  4.60547805e-08  3.56414423e-03  4.60547805e-08  6.96524167e-01  4.60547805e-08  1.56425406e+00  4.60547805e-08  1.57194446e+00                                 
 7.32673951e-08  7.55562276e-01  7.32673951e-08  6.94689792e-01  7.32673951e-08  1.20537017e+00  7.32673951e-08  1.80000000e+00  7.32673951e-08 -3.55729806e-03  7.32673951e-08  6.96550449e-01  7.32673951e-08  1.56415169e+00  7.32673951e-08  1.57132602e+00                                 
 1.10794036e-07  7.55569414e-01  1.10794036e-07  6.94716902e-01  1.10794036e-07  1.01368820e+00  1.10794036e-07  1.80000000e+00  1.10794036e-07  3.55620638e-03  1.10794036e-07  6.96813641e-01  1.10794036e-07  1.56448169e+00  1.10794036e-07  1.57110821e+00                                 
 1.66573259e-07  7.55561533e-01  1.66573259e-07  6.94689759e-01  1.66573259e-07  7.74451487e-01  1.66573259e-07  1.80000000e+00  1.66573259e-07 -3.54863879e-03  1.66573259e-07  6.96580583e-01  1.66573259e-07  1.56416976e+00  1.66573259e-07  1.57105062e+00                                 
 2.14260067e-07  7.55571073e-01  2.14260067e-07  6.94717047e-01  2.14260067e-07  6.94043670e-01  2.14260067e-07  1.80000000e+00  2.14260067e-07  3.55655337e-03  2.14260067e-07  6.96817569e-01  2.14260067e-07  1.56447946e+00  2.14260067e-07  1.57104386e+00                                 
 2.61338655e-07  7.55558124e-01  2.61338655e-07  6.94689571e-01  2.61338655e-07  6.99506858e-01  2.61338655e-07  1.80000000e+00  2.61338655e-07 -3.54099631e-03  2.61338655e-07  6.96582160e-01  2.61338655e-07  1.56416762e+00  2.61338655e-07  1.57104452e+00                                 
 2.82886358e-07  7.55573119e-01  2.82886358e-07  6.94717090e-01  2.82886358e-07  6.99063773e-01  2.82886358e-07  1.80000000e+00  2.82886358e-07  3.54782984e-03  2.82886358e-07  6.96813069e-01  2.82886358e-07  1.56447305e+00  2.82886358e-07  1.57104079e+00                                 
 3.14725016e-07  7.55558358e-01  3.14725016e-07  6.94689631e-01  3.14725016e-07  6.98576823e-01  3.14725016e-07  1.80000000e+00  3.14725016e-07 -3.53116178e-03  3.14725016e-07  6.96582716e-01  3.14725016e-07  1.56416628e+00  3.14725016e-07  1.57104104e+00                                 
 3.66483236e-07  7.55572457e-01  3.66483236e-07  6.94717052e-01  3.66483236e-07  6.98893818e-01  3.66483236e-07  1.80000000e+00  3.66483236e-07  3.54140209e-03  3.66483236e-07  6.96813576e-01  3.66483236e-07  1.56447039e+00  3.66483236e-07  1.57103728e+00                                 
 4.34927669e-07  7.55558744e-01  4.34927669e-07  6.94689643e-01  4.34927669e-07  6.98572404e-01  4.34927669e-07  1.80000000e+00  4.34927669e-07 -3.52689282e-03  4.34927669e-07  6.96582546e-01  4.34927669e-07  1.56416192e+00  4.34927669e-07  1.57103664e+00                                 
 5.71816534e-07  7.55572210e-01  5.71816534e-07  6.94717046e-01  5.71816534e-07  6.98894850e-01  5.71816534e-07  1.80000000e+00  5.71816534e-07  3.53862300e-03  5.71816534e-07  6.96813668e-01  5.71816534e-07  1.56446313e+00  5.71816534e-07  1.57102997e+00                                 
 8.08331194e-07  7.55558872e-01  8.08331194e-07  6.94689645e-01  8.08331194e-07  6.98572143e-01  8.08331194e-07  1.80000000e+00  8.08331194e-07 -3.52543226e-03  8.08331194e-07  6.96582502e-01  8.08331194e-07  1.56414863e+00  8.08331194e-07  1.57102338e+00                                 
 1.23055219e-06  7.55572138e-01  1.23055219e-06  6.94717045e-01  1.23055219e-06  6.98894837e-01  1.23055219e-06  1.80000000e+00  1.23055219e-06  3.53778740e-03  1.23055219e-06  6.96813692e-01  1.23055219e-06  1.56443970e+00  1.23055219e-06  1.57100658e+00                                 
 2.04310550e-06  7.55558911e-01  2.04310550e-06  6.94689646e-01  2.04310550e-06  6.98572147e-01  2.04310550e-06  1.80000000e+00  2.04310550e-06 -3.52497322e-03  2.04310550e-06  6.96582489e-01  2.04310550e-06  1.56410471e+00  2.04310550e-06  1.57097952e+00                                 
 3.24310550e-06  7.55572116e-01  3.24310550e-06  6.94717045e-01  3.24310550e-06  6.98894809e-01  3.24310550e-06  1.80000000e+00  3.24310550e-06  3.53752630e-03  3.24310550e-06  6.96813700e-01  3.24310550e-06  1.56436817e+00  3.24310550e-06  1.57093514e+00                                 
 4.44310550e-06  7.55558929e-01  4.44310550e-06  6.94689647e-01  4.44310550e-06  6.98572167e-01  4.44310550e-06  1.80000000e+00  4.44310550e-06 -3.52478273e-03  4.44310550e-06  6.96582483e-01  4.44310550e-06  1.56401944e+00  4.44310550e-06  1.57089438e+00                                 
 5.64310550e-06  7.55572098e-01  5.64310550e-06  6.94717045e-01  5.64310550e-06  6.98894779e-01  5.64310550e-06  1.80000000e+00  5.64310550e-06  3.53731547e-03  5.64310550e-06  6.96813705e-01  5.64310550e-06  1.56428285e+00  5.64310550e-06  1.57084994e+00                                 
 6.00100000e-06  7.55558968e-01  6.00100000e-06  6.94689647e-01  6.00100000e-06  6.98572226e-01  6.00100000e-06  1.80000000e+00  6.00100000e-06 -3.52433034e-03  6.00100000e-06  6.96582471e-01  6.00100000e-06  1.56396402e+00  6.00100000e-06  1.57083904e+00                                 
 6.00110000e-06  7.55518655e-01  6.00110000e-06  6.94462790e-01  6.00110000e-06  6.96839598e-01  6.00110000e-06  1.62000000e+00  6.00110000e-06 -3.85977047e-04  6.00110000e-06  6.95086319e-01  6.00110000e-06  1.56273732e+00  6.00110000e-06  1.57082810e+00                                 
 6.00130000e-06  7.55552387e-01  6.00130000e-06  6.94469468e-01  6.00130000e-06  6.97113225e-01  6.00130000e-06  1.26000000e+00  6.00130000e-06  2.57020745e-04  6.00130000e-06  6.94980486e-01  6.00130000e-06  1.56265709e+00  6.00130000e-06  1.57084283e+00                                 
 6.00170000e-06  7.55611368e-01  6.00170000e-06  6.93937754e-01  6.00170000e-06  7.16547160e-01  6.00170000e-06  5.40000000e-01  6.00170000e-06  1.53803264e+00  6.00170000e-06  6.87277348e-01  6.00170000e-06  1.46205499e+00  6.00170000e-06  1.57048660e+00                                 
 6.00200000e-06  7.55547845e-01  6.00200000e-06  6.91640644e-01  6.00200000e-06  7.44651448e-01  6.00200000e-06  0.00000000e+00  6.00200000e-06  1.87835652e+00  6.00200000e-06  6.63088911e-01  6.00200000e-06  1.11880306e+00  6.00200000e-06  1.57050089e+00                                 
 6.00203605e-06  7.55560747e-01  6.00203605e-06  6.91716953e-01  6.00203605e-06  7.38971211e-01  6.00203605e-06  0.00000000e+00  6.00203605e-06  1.83094970e+00  6.00203605e-06  6.64185367e-01  6.00203605e-06  1.07581424e+00  6.00203605e-06  1.57081471e+00                                 
 6.00210814e-06  7.55567776e-01  6.00210814e-06  6.91973417e-01  6.00210814e-06  7.30956241e-01  6.00210814e-06  0.00000000e+00  6.00210814e-06  1.79213090e+00  6.00210814e-06  6.67586840e-01  6.00210814e-06  1.00313079e+00  6.00210814e-06  1.57106595e+00                                 
 6.00225232e-06  7.55563478e-01  6.00225232e-06  6.92338354e-01  6.00225232e-06  7.26938960e-01  6.00225232e-06  0.00000000e+00  6.00225232e-06  1.80229002e+00  6.00225232e-06  6.71909142e-01  6.00225232e-06  8.91149122e-01  6.00225232e-06  1.57099811e+00                                 
 6.00246432e-06  7.55564870e-01  6.00246432e-06  6.93064347e-01  6.00246432e-06  7.16943521e-01  6.00246432e-06  0.00000000e+00  6.00246432e-06  1.79743193e+00  6.00246432e-06  6.79062795e-01  6.00246432e-06  7.80106198e-01  6.00246432e-06  1.57113234e+00                                 
 6.00268675e-06  7.55563429e-01  6.00268675e-06  6.94057154e-01  6.00268675e-06  7.06713493e-01  6.00268675e-06  0.00000000e+00  6.00268675e-06  1.80112254e+00  6.00268675e-06  6.88555542e-01  6.00268675e-06  7.28734288e-01  6.00268675e-06  1.57106071e+00                                 
 6.00290270e-06  7.55564531e-01  6.00290270e-06  6.94608085e-01  6.00290270e-06  7.02584514e-01  6.00290270e-06  0.00000000e+00  6.00290270e-06  1.79934128e+00  6.00290270e-06  6.92829930e-01  6.00290270e-06  7.09741146e-01  6.00290270e-06  1.57085509e+00                                 
 6.00320595e-06  7.55564112e-01  6.00320595e-06  6.95063353e-01  6.00320595e-06  6.99683820e-01  6.00320595e-06  0.00000000e+00  6.00320595e-06  1.80048125e+00  6.00320595e-06  6.96279161e-01  6.00320595e-06  7.01917744e-01  6.00320595e-06  1.57012725e+00                                 
 6.00349703e-06  7.55564972e-01  6.00349703e-06  6.95178626e-01  6.00349703e-06  6.99916979e-01  6.00349703e-06  0.00000000e+00  6.00349703e-06  1.79973939e+00  6.00349703e-06  6.96927075e-01  6.00349703e-06  6.99933639e-01  6.00349703e-06  1.56923264e+00                                 
 6.00401076e-06  7.55564787e-01  6.00401076e-06  6.95240764e-01  6.00401076e-06  7.00108528e-01  6.00401076e-06  0.00000000e+00  6.00401076e-06  1.80021716e+00  6.00401076e-06  6.97752970e-01  6.00401076e-06  7.00266884e-01  6.00401076e-06  1.56729417e+00                                 
 6.00470784e-06  7.55565503e-01  6.00470784e-06  6.95171165e-01  6.00470784e-06  7.02087931e-01  6.00470784e-06  0.00000000e+00  6.00470784e-06  1.79985255e+00  6.00470784e-06  6.97734239e-01  6.00470784e-06  7.01483150e-01  6.00470784e-06  1.56441249e+00                                 
 6.00610198e-06  7.55565211e-01  6.00610198e-06  6.95075301e-01  6.00610198e-06  7.05039924e-01  6.00610198e-06  0.00000000e+00  6.00610198e-06  1.80014986e+00  6.00610198e-06  6.98072114e-01  6.00610198e-06  7.05039159e-01  6.00610198e-06  1.55816409e+00                                 
 6.00889027e-06  7.55565727e-01  6.00889027e-06  6.94876467e-01  6.00889027e-06  7.12638717e-01  6.00889027e-06  0.00000000e+00  6.00889027e-06  1.79988159e+00  6.00889027e-06  6.97825927e-01  6.00889027e-06  7.11949237e-01  6.00889027e-06  1.54512657e+00                                 
 6.01446685e-06  7.55565299e-01  6.01446685e-06  6.94709692e-01  6.01446685e-06  7.26475915e-01  6.01446685e-06  0.00000000e+00  6.01446685e-06  1.80013490e+00  6.01446685e-06  6.97710747e-01  6.01446685e-06  7.26447290e-01  6.01446685e-06  1.51887126e+00                                 
 6.02562001e-06  7.55565738e-01  6.02562001e-06  6.94671298e-01  6.02562001e-06  7.54292388e-01  6.02562001e-06  0.00000000e+00  6.02562001e-06  1.79988770e+00  6.02562001e-06  6.97080698e-01  6.02562001e-06  7.53497524e-01  6.02562001e-06  1.46888587e+00                                 
 6.04792633e-06  7.55565297e-01  6.04792633e-06  6.94712845e-01  6.04792633e-06  8.04239340e-01  6.04792633e-06  0.00000000e+00  6.04792633e-06  1.80012999e+00  6.04792633e-06  6.96876167e-01  6.04792633e-06  8.04274283e-01  6.04792633e-06  1.37839820e+00                                 
 6.09253897e-06  7.55565739e-01  6.09253897e-06  6.94692175e-01  6.09253897e-06  8.89723319e-01  6.09253897e-06  0.00000000e+00  6.09253897e-06  1.79988595e+00  6.09253897e-06  6.96583204e-01  6.09253897e-06  8.87979403e-01  6.09253897e-06  1.22326041e+00                                 
 6.18168659e-06  7.55565296e-01  6.18168659e-06  6.94714420e-01  6.18168659e-06  1.00987702e+00  6.18168659e-06  0.00000000e+00  6.18168659e-06  1.80012380e+00  6.18168659e-06  6.96788401e-01  6.18168659e-06  1.01082821e+00  6.18168659e-06  1.04422478e+00                                 
 6.32571197e-06  7.55565739e-01  6.32571197e-06  6.94692432e-01  6.32571197e-06  1.11509147e+00  6.32571197e-06  0.00000000e+00  6.32571197e-06  1.79988070e+00  6.32571197e-06  6.96598924e-01  6.32571197e-06  1.11342223e+00  6.32571197e-06  1.07748002e+00                                 
 6.41552972e-06  7.55565297e-01  6.41552972e-06  6.94714063e-01  6.41552972e-06  1.14557990e+00  6.41552972e-06  0.00000000e+00  6.41552972e-06  1.80012079e+00  6.41552972e-06  6.96791833e-01  6.41552972e-06  1.14663518e+00  6.41552972e-06  1.14667744e+00                                 
