 time            v(vbep)         time            v(vben)         time            v(vout)         time            v(vphi1)        time            v(vphi2)        time            v(vref)         yes             currtemp       
 0.00000000e+00  7.18200495e-01  0.00000000e+00  6.66412025e-01  0.00000000e+00  9.60538568e-01  0.00000000e+00  0.00000000e+00  0.00000000e+00  1.79995572e+00  0.00000000e+00  6.66412025e-01  1.00000000e+00  1.00000000e+01 
 5.00000000e-12  7.18174538e-01  5.00000000e-12  6.66390487e-01  5.00000000e-12  9.61260201e-01  5.00000000e-12  1.80000000e-02  5.00000000e-12  1.80008000e+00  5.00000000e-12  6.66390487e-01                                 
 1.00000000e-11  7.18149236e-01  1.00000000e-11  6.66369491e-01  1.00000000e-11  9.61919468e-01  1.00000000e-11  3.60000000e-02  1.00000000e-11  1.80015464e+00  1.00000000e-11  6.66369491e-01                                 
 2.00000000e-11  7.18099031e-01  2.00000000e-11  6.66327658e-01  2.00000000e-11  9.63136696e-01  2.00000000e-11  7.20000000e-02  2.00000000e-11  1.80023987e+00  2.00000000e-11  6.66327658e-01                                 
 4.00000000e-11  7.17999308e-01  4.00000000e-11  6.66244311e-01  4.00000000e-11  9.65110878e-01  4.00000000e-11  1.44000000e-01  4.00000000e-11  1.80023731e+00  4.00000000e-11  6.66244311e-01                                 
 8.00000000e-11  7.17800822e-01  8.00000000e-11  6.66078349e-01  8.00000000e-11  9.67756747e-01  8.00000000e-11  2.88000000e-01  8.00000000e-11  1.80014330e+00  8.00000000e-11  6.66078349e-01                                 
 1.60000000e-10  7.17408009e-01  1.60000000e-10  6.65749349e-01  1.60000000e-10  9.70215073e-01  1.60000000e-10  5.76000000e-01  1.60000000e-10  1.80003728e+00  1.60000000e-10  6.65749349e-01                                 
 3.20000000e-10  7.16638077e-01  3.20000000e-10  6.65102649e-01  3.20000000e-10  9.61051815e-01  3.20000000e-10  1.15200000e+00  3.20000000e-10  1.80024772e+00  3.20000000e-10  6.65102649e-01                                 
 5.00000000e-10  7.15796063e-01  5.00000000e-10  6.64392498e-01  5.00000000e-10  1.05350731e+00  5.00000000e-10  1.80000000e+00  5.00000000e-10  1.35095760e-01  5.00000000e-10  6.64392498e-01                                 
 5.20858100e-10  7.15700268e-01  5.20858100e-10  6.64311497e-01  5.20858100e-10  1.07779790e+00  5.20858100e-10  1.80000000e+00  5.20858100e-10  3.17232107e-02  5.20858100e-10  6.64311497e-01                                 
 5.62574300e-10  7.15509308e-01  5.62574300e-10  6.64149946e-01  5.62574300e-10  1.12618667e+00  5.62574300e-10  1.80000000e+00  5.62574300e-10 -1.24710705e-02  5.62574300e-10  6.64149946e-01                                 
 6.46006699e-10  7.15131201e-01  6.46006699e-10  6.63829623e-01  6.46006699e-10  1.21474490e+00  6.46006699e-10  1.80000000e+00  6.46006699e-10  1.08093124e-02  6.46006699e-10  6.63829623e-01                                 
 7.65836234e-10  7.14596831e-01  7.65836234e-10  6.63375906e-01  7.65836234e-10  1.32981243e+00  7.65836234e-10  1.80000000e+00  7.65836234e-10 -8.37447639e-03  7.65836234e-10  6.63375906e-01                                 
 9.47109385e-10  7.13807133e-01  9.47109385e-10  6.62703255e-01  9.47109385e-10  1.47662520e+00  9.47109385e-10  1.80000000e+00  9.47109385e-10  8.39174892e-03  9.47109385e-10  6.62703255e-01                                 
 1.30965569e-09  7.12290616e-01  1.30965569e-09  6.61404528e-01  1.30965569e-09  1.67294608e+00  1.30965569e-09  1.80000000e+00  1.30965569e-09 -7.35981882e-03  1.30965569e-09  6.61404528e-01                                 
 1.73657477e-09  7.10603854e-01  1.73657477e-09  6.59949263e-01  1.73657477e-09  1.78311383e+00  1.73657477e-09  1.80000000e+00  1.73657477e-09  7.37671023e-03  1.73657477e-09  6.59949263e-01                                 
 2.09477297e-09  7.09263689e-01  2.09477297e-09  6.58785041e-01  2.09477297e-09  1.81763825e+00  2.09477297e-09  1.80000000e+00  2.09477297e-09 -6.85335670e-03  2.09477297e-09  6.58785041e-01                                 
 2.48998779e-09  7.07856449e-01  2.48998779e-09  6.57555212e-01  2.48998779e-09  1.83222192e+00  2.48998779e-09  1.80000000e+00  2.48998779e-09  6.61975977e-03  2.48998779e-09  6.57555212e-01                                 
 2.95251542e-09  7.06295609e-01  2.95251542e-09  6.56182591e-01  2.95251542e-09  1.83649698e+00  2.95251542e-09  1.80000000e+00  2.95251542e-09 -6.31347539e-03  2.95251542e-09  6.56182591e-01                                 
 3.66239936e-09  7.04058988e-01  3.66239936e-09  6.54200691e-01  3.66239936e-09  1.83674533e+00  3.66239936e-09  1.80000000e+00  3.66239936e-09  6.18318026e-03  3.66239936e-09  6.54200691e-01                                 
 4.65295886e-09  7.01213769e-01  4.65295886e-09  6.51654989e-01  4.65295886e-09  1.83384322e+00  4.65295886e-09  1.80000000e+00  4.65295886e-09 -6.04266458e-03  4.65295886e-09  6.51654989e-01                                 
 6.45067873e-09  6.96695371e-01  6.45067873e-09  6.47560774e-01  6.45067873e-09  1.82965785e+00  6.45067873e-09  1.80000000e+00  6.45067873e-09  6.00450149e-03  6.45067873e-09  6.47560774e-01                                 
 9.89198042e-09  6.89676110e-01  9.89198042e-09  6.41089676e-01  9.89198042e-09  1.82249406e+00  9.89198042e-09  1.80000000e+00  9.89198042e-09 -5.94791475e-03  9.89198042e-09  6.41089676e-01                                 
 1.62897076e-08  6.80000930e-01  1.62897076e-08  6.31989547e-01  1.62897076e-08  1.81185200e+00  1.62897076e-08  1.80000000e+00  1.62897076e-08  5.95662436e-03  1.62897076e-08  6.31989547e-01                                 
 1.73363724e-08  6.78723034e-01  1.73363724e-08  6.30772081e-01  1.73363724e-08  1.81006636e+00  1.73363724e-08  1.80000000e+00  1.73363724e-08 -5.83037485e-03  1.73363724e-08  6.30772081e-01                                 
 1.85776268e-08  6.77275213e-01  1.85776268e-08  6.29390619e-01  1.85776268e-08  1.80853683e+00  1.85776268e-08  1.80000000e+00  1.85776268e-08  5.76461805e-03  1.85776268e-08  6.29390619e-01                                 
 2.01248982e-08  6.75560497e-01  2.01248982e-08  6.27752275e-01  2.01248982e-08  1.80614047e+00  2.01248982e-08  1.80000000e+00  2.01248982e-08 -5.67583281e-03  2.01248982e-08  6.27752275e-01                                 
 2.32194409e-08  6.72377277e-01  2.32194409e-08  6.24707209e-01  2.32194409e-08  1.80235650e+00  2.32194409e-08  1.80000000e+00  2.32194409e-08  5.66217988e-03  2.32194409e-08  6.24707209e-01                                 
 2.89094460e-08  6.67250234e-01  2.89094460e-08  6.19789290e-01  2.89094460e-08  1.79568324e+00  2.89094460e-08  1.80000000e+00  2.89094460e-08 -5.62348241e-03  2.89094460e-08  6.19789290e-01                                 
 3.62324741e-08  6.61818466e-01  3.62324741e-08  6.14542891e-01  3.62324741e-08  1.78757783e+00  3.62324741e-08  1.80000000e+00  3.62324741e-08  5.63009369e-03  3.62324741e-08  6.14542891e-01                                 
 4.71159630e-08  6.54094915e-01  4.71159630e-08  6.07260673e-01  4.71159630e-08  1.76864935e+00  4.71159630e-08  1.80000000e+00  4.71159630e-08 -5.60046394e-03  4.71159630e-08  6.07260673e-01                                 
 6.51476094e-08  6.42228486e-01  6.51476094e-08  5.96346709e-01  6.51476094e-08  1.73438210e+00  6.51476094e-08  1.80000000e+00  6.51476094e-08  5.61492982e-03  6.51476094e-08  5.96346709e-01                                 
 8.14090269e-08  6.33937708e-01  8.14090269e-08  5.88715436e-01  8.14090269e-08  1.70426046e+00  8.14090269e-08  1.80000000e+00  8.14090269e-08 -5.58805859e-03  8.14090269e-08  5.88715436e-01                                 
 1.13456274e-07  6.22175326e-01  1.13456274e-07  5.77775585e-01  1.13456274e-07  1.65197037e+00  1.13456274e-07  1.80000000e+00  1.13456274e-07  5.60603727e-03  1.13456274e-07  5.77775585e-01                                 
 1.42301902e-07  6.25687563e-01  1.42301902e-07  5.79396610e-01  1.42301902e-07  1.64934842e+00  1.42301902e-07  1.80000000e+00  1.42301902e-07 -5.57864753e-03  1.42301902e-07  5.79396610e-01                                 
 1.64901210e-07  6.26661432e-01  1.64901210e-07  5.79380078e-01  1.64901210e-07  1.63143074e+00  1.64901210e-07  1.80000000e+00  1.64901210e-07  5.59703291e-03  1.64901210e-07  5.79380078e-01                                 
 1.87049359e-07  6.19070582e-01  1.87049359e-07  5.72696097e-01  1.87049359e-07  1.60079612e+00  1.87049359e-07  1.80000000e+00  1.87049359e-07 -5.57102305e-03  1.87049359e-07  5.72696097e-01                                 
 2.06422137e-07  6.13992133e-01  2.06422137e-07  5.68147823e-01  2.06422137e-07  1.57452677e+00  2.06422137e-07  1.80000000e+00  2.06422137e-07  5.58740696e-03  2.06422137e-07  5.68147823e-01                                 
 2.26909731e-07  6.09041280e-01  2.26909731e-07  5.63724800e-01  2.26909731e-07  1.55065461e+00  2.26909731e-07  1.80000000e+00  2.26909731e-07 -5.56066636e-03  2.26909731e-07  5.63724800e-01                                 
 2.58907000e-07  6.00297868e-01  2.58907000e-07  5.56113927e-01  2.58907000e-07  1.50913604e+00  2.58907000e-07  1.80000000e+00  2.58907000e-07  5.57911476e-03  2.58907000e-07  5.56113927e-01                                 
 3.00561904e-07  5.89789184e-01  3.00561904e-07  5.47050090e-01  3.00561904e-07  1.45884333e+00  3.00561904e-07  1.80000000e+00  3.00561904e-07 -5.55491619e-03  3.00561904e-07  5.47050090e-01                                 
 3.70710425e-07  5.70479217e-01  3.70710425e-07  5.30814853e-01  3.70710425e-07  1.36841457e+00  3.70710425e-07  1.80000000e+00  3.70710425e-07  5.57514010e-03  3.70710425e-07  5.30814853e-01                                 
 4.85306682e-07  5.34141909e-01  4.85306682e-07  5.01086812e-01  4.85306682e-07  1.21899362e+00  4.85306682e-07  1.80000000e+00  4.85306682e-07 -5.55265114e-03  4.85306682e-07  5.01086812e-01                                 
 5.09487683e-07  5.24383037e-01  5.09487683e-07  4.93236976e-01  5.09487683e-07  1.18385607e+00  5.09487683e-07  1.80000000e+00  5.09487683e-07 -1.96577955e-06  5.09487683e-07  4.93236976e-01                                 
 5.57849686e-07  5.02353363e-01  5.57849686e-07  4.75562801e-01  5.57849686e-07  1.11223024e+00  5.57849686e-07  1.80000000e+00  5.57849686e-07 -1.11513688e-07  5.57849686e-07  4.75562801e-01                                 
 5.69940187e-07  4.96658597e-01  5.69940187e-07  4.71006356e-01  5.69940187e-07  1.09398005e+00  5.69940187e-07  1.80000000e+00  5.69940187e-07 -1.05301416e-06  5.69940187e-07  4.71006356e-01                                 
 5.94121189e-07  4.86566366e-01  5.94121189e-07  4.62936312e-01  5.94121189e-07  1.05844337e+00  5.94121189e-07  1.80000000e+00  5.94121189e-07 -8.89559014e-07  5.94121189e-07  4.62936312e-01                                 
 6.42483192e-07  5.41506435e-01  6.42483192e-07  5.06864919e-01  6.42483192e-07  1.06121024e+00  6.42483192e-07  1.80000000e+00  6.42483192e-07  3.50021274e-06  6.42483192e-07  5.06864919e-01                                 
 6.54511465e-07  6.03158703e-01  6.54511465e-07  5.56061541e-01  6.54511465e-07  1.10920430e+00  6.54511465e-07  1.80000000e+00  6.54511465e-07  7.46520080e-06  6.54511465e-07  5.56061541e-01                                 
 6.78568010e-07  7.37545020e-01  6.78568010e-07  6.80843809e-01  6.78568010e-07  1.21516572e+00  6.78568010e-07  1.80000000e+00  6.78568010e-07  1.21777797e-05  6.78568010e-07  6.80843809e-01                                 
 7.26681100e-07  8.04765560e-01  7.26681100e-07  7.49696513e-01  7.26681100e-07  1.23346621e+00  7.26681100e-07  1.80000000e+00  7.26681100e-07 -6.77478957e-06  7.26681100e-07  7.49696513e-01                                 
 7.70242891e-07  8.24921168e-01  7.70242891e-07  7.67135903e-01  7.70242891e-07  1.20474143e+00  7.70242891e-07  1.80000000e+00  7.70242891e-07  7.82393284e-06  7.70242891e-07  7.67135903e-01                                 
 7.78030870e-07  8.26047819e-01  7.78030870e-07  7.68160999e-01  7.78030870e-07  1.19939970e+00  7.78030870e-07  1.80000000e+00  7.78030870e-07  9.53957491e-08  7.78030870e-07  7.68160999e-01                                 
 7.93606828e-07  8.27630195e-01  7.93606828e-07  7.69500346e-01  7.93606828e-07  1.18525933e+00  7.93606828e-07  1.80000000e+00  7.93606828e-07 -3.86222771e-07  7.93606828e-07  7.69500346e-01                                 
 8.24758743e-07  8.31737549e-01  8.24758743e-07  7.72874763e-01  8.24758743e-07  1.15667988e+00  8.24758743e-07  1.80000000e+00  8.24758743e-07  1.69145730e-07  8.24758743e-07  7.72874763e-01                                 
 8.61998082e-07  8.39362443e-01  8.61998082e-07  7.79014822e-01  8.61998082e-07  1.12553952e+00  8.61998082e-07  1.80000000e+00  8.61998082e-07 -7.72927273e-08  8.61998082e-07  7.79014822e-01                                 
 8.99584828e-07  8.19284776e-01  8.99584828e-07  7.62520698e-01  8.99584828e-07  1.06753586e+00  8.99584828e-07  1.80000000e+00  8.99584828e-07 -2.76105214e-06  8.99584828e-07  7.62520698e-01                                 
 9.37932245e-07  7.87533837e-01  9.37932245e-07  7.33592146e-01  9.37932245e-07  9.96402245e-01  9.37932245e-07  1.80000000e+00  9.37932245e-07 -1.36813819e-06  9.37932245e-07  7.33592146e-01                                 
 9.77186312e-07  7.98724009e-01  9.77186312e-07  7.44036925e-01  9.77186312e-07  9.67805823e-01  9.77186312e-07  1.80000000e+00  9.77186312e-07  1.90681990e-06  9.77186312e-07  7.44036925e-01                                 
 1.02408703e-06  8.17671999e-01  1.02408703e-06  7.60991254e-01  1.02408703e-06  9.44701411e-01  1.02408703e-06  1.80000000e+00  1.02408703e-06 -7.66481086e-07  1.02408703e-06  7.60991254e-01                                 
 1.07941698e-06  8.17063261e-01  1.07941698e-06  7.60540236e-01  1.07941698e-06  9.01001100e-01  1.07941698e-06  1.80000000e+00  1.07941698e-06  3.30656986e-07  1.07941698e-06  7.60540236e-01                                 
 1.14438450e-06  8.01416546e-01  1.14438450e-06  7.46519266e-01  1.14438450e-06  8.43968638e-01  1.14438450e-06  1.80000000e+00  1.14438450e-06 -1.53791888e-06  1.14438450e-06  7.46519266e-01                                 
 1.22693505e-06  8.09707417e-01  1.22693505e-06  7.54022646e-01  1.22693505e-06  8.07446339e-01  1.22693505e-06  1.80000000e+00  1.22693505e-06  1.79810468e-06  1.22693505e-06  7.54022646e-01                                 
 1.23667163e-06  8.12291982e-01  1.23667163e-06  7.56301836e-01  1.23667163e-06  8.06049278e-01  1.23667163e-06  1.80000000e+00  1.23667163e-06  5.13692127e-07  1.23667163e-06  7.56301836e-01                                 
 1.25614477e-06  8.16693633e-01  1.25614477e-06  7.60167982e-01  1.25614477e-06  8.02631358e-01  1.25614477e-06  1.80000000e+00  1.25614477e-06  3.53889340e-07  1.25614477e-06  7.60167982e-01                                 
 1.29509106e-06  8.13218939e-01  1.29509106e-06  7.57157348e-01  1.29509106e-06  7.87069289e-01  1.29509106e-06  1.80000000e+00  1.29509106e-06 -6.52160600e-07  1.29509106e-06  7.57157348e-01                                 
 1.34927123e-06  8.03768139e-01  1.34927123e-06  7.48668480e-01  1.34927123e-06  7.65452537e-01  1.34927123e-06  1.80000000e+00  1.34927123e-06  7.47235678e-08  1.34927123e-06  7.48668480e-01                                 
 1.41256687e-06  8.10454311e-01  1.41256687e-06  7.54678283e-01  1.41256687e-06  7.61459987e-01  1.41256687e-06  1.80000000e+00  1.41256687e-06  4.86226032e-07  1.41256687e-06  7.54678283e-01                                 
 1.50477172e-06  8.12567231e-01  1.50477172e-06  7.56565173e-01  1.50477172e-06  7.53740068e-01  1.50477172e-06  1.80000000e+00  1.50477172e-06 -2.06842998e-07  1.50477172e-06  7.56565173e-01                                 
 1.59806436e-06  8.06423033e-01  1.59806436e-06  7.51077052e-01  1.59806436e-06  7.42093770e-01  1.59806436e-06  1.80000000e+00  1.59806436e-06  1.70353806e-07  1.59806436e-06  7.51077052e-01                                 
 1.76022198e-06  8.12222684e-01  1.76022198e-06  7.56249460e-01  1.76022198e-06  7.49442655e-01  1.76022198e-06  1.80000000e+00  1.76022198e-06  2.33653192e-07  1.76022198e-06  7.56249460e-01                                 
 1.91930513e-06  8.08702002e-01  1.91930513e-06  7.53131194e-01  1.91930513e-06  7.55178050e-01  1.91930513e-06  1.80000000e+00  1.91930513e-06 -2.48314175e-08  1.91930513e-06  7.53131194e-01                                 
 2.10385714e-06  8.09642075e-01  2.10385714e-06  7.53953390e-01  2.10385714e-06  7.53892645e-01  2.10385714e-06  1.80000000e+00  2.10385714e-06  2.91693710e-07  2.10385714e-06  7.53953390e-01                                 
 2.29308560e-06  8.11060951e-01  2.29308560e-06  7.55233960e-01  2.29308560e-06  7.54822193e-01  2.29308560e-06  1.80000000e+00  2.29308560e-06 -4.82676102e-09  2.29308560e-06  7.55233960e-01                                 
 2.55670302e-06  8.08073592e-01  2.55670302e-06  7.52552292e-01  2.55670302e-06  7.53197822e-01  2.55670302e-06  1.80000000e+00  2.55670302e-06  2.19799892e-07  2.55670302e-06  7.52552292e-01                                 
 2.92340813e-06  8.11778875e-01  2.92340813e-06  7.55868326e-01  2.92340813e-06  7.55448559e-01  2.92340813e-06  1.80000000e+00  2.92340813e-06  7.48009795e-08  2.92340813e-06  7.55868326e-01                                 
 3.37128389e-06  8.07744771e-01  3.37128389e-06  7.52259493e-01  3.37128389e-06  7.52770885e-01  3.37128389e-06  1.80000000e+00  3.37128389e-06  1.48683849e-07  3.37128389e-06  7.52259493e-01                                 
 3.97146730e-06  8.11871494e-01  3.97146730e-06  7.55948608e-01  3.97146730e-06  7.55654711e-01  3.97146730e-06  1.80000000e+00  3.97146730e-06  1.34126071e-07  3.97146730e-06  7.55948608e-01                                 
 4.76729762e-06  8.07750617e-01  4.76729762e-06  7.52266182e-01  4.76729762e-06  7.52680737e-01  4.76729762e-06  1.80000000e+00  4.76729762e-06  1.03541899e-07  4.76729762e-06  7.52266182e-01                                 
 5.76729762e-06  8.11815722e-01  5.76729762e-06  7.55898170e-01  5.76729762e-06  7.55675539e-01  5.76729762e-06  1.80000000e+00  5.76729762e-06  1.68805565e-07  5.76729762e-06  7.55898170e-01                                 
 6.76729762e-06  8.07833816e-01  6.76729762e-06  7.52341830e-01  6.76729762e-06  7.52692915e-01  6.76729762e-06  1.80000000e+00  6.76729762e-06  7.33098681e-08  6.76729762e-06  7.52341830e-01                                 
 7.76729762e-06  8.11707700e-01  7.76729762e-06  7.55801582e-01  7.76729762e-06  7.55636486e-01  7.76729762e-06  1.80000000e+00  7.76729762e-06  1.98350634e-07  7.76729762e-06  7.55801582e-01                                 
 8.76729762e-06  8.07969940e-01  8.76729762e-06  7.52466197e-01  8.76729762e-06  7.52760783e-01  8.76729762e-06  1.80000000e+00  8.76729762e-06  4.46610417e-08  8.76729762e-06  7.52466197e-01                                 
 9.76729762e-06  8.11554038e-01  9.76729762e-06  7.55666166e-01  9.76729762e-06  7.55548511e-01  9.76729762e-06  1.80000000e+00  9.76729762e-06  2.25927990e-07  9.76729762e-06  7.55666166e-01                                 
 1.00005000e-05  8.08535250e-01  1.00005000e-05  7.52973641e-01  1.00005000e-05  7.53176142e-01  1.00005000e-05  1.80000000e+00  1.00005000e-05 -1.76128902e-08  1.00005000e-05  7.52973641e-01                                 
 1.00005500e-05  8.08536197e-01  1.00005500e-05  7.52974830e-01  1.00005500e-05  7.46224544e-01  1.00005500e-05  1.62000000e+00  1.00005500e-05 -1.07298945e-04  1.00005500e-05  7.52974830e-01                                 
 1.00006500e-05  8.08538538e-01  1.00006500e-05  7.52976969e-01  1.00006500e-05  7.36534843e-01  1.00006500e-05  1.26000000e+00  1.00006500e-05 -5.25986953e-05  1.00006500e-05  7.52976969e-01                                 
