 time            v(vbep)         time            v(vben)         time            v(vout)         time            v(vphi1)        time            v(vphi2)        time            v(vref)         yes             currtemp       
 0.00000000e+00  6.90415497e-01  0.00000000e+00  6.35890797e-01  0.00000000e+00  9.57838645e-01  0.00000000e+00  0.00000000e+00  0.00000000e+00  1.79995497e+00  0.00000000e+00  6.35890797e-01  1.00000000e+00  2.50000000e+01 
 5.00000000e-12  6.90388748e-01  5.00000000e-12  6.35868613e-01  5.00000000e-12  9.58561597e-01  5.00000000e-12  1.80000000e-02  5.00000000e-12  1.80008062e+00  5.00000000e-12  6.35868613e-01                                 
 1.00000000e-11  6.90362667e-01  1.00000000e-11  6.35846990e-01  1.00000000e-11  9.59219612e-01  1.00000000e-11  3.60000000e-02  1.00000000e-11  1.80015584e+00  1.00000000e-11  6.35846990e-01                                 
 2.00000000e-11  6.90310906e-01  2.00000000e-11  6.35803906e-01  2.00000000e-11  9.60430617e-01  2.00000000e-11  7.20000000e-02  2.00000000e-11  1.80024105e+00  2.00000000e-11  6.35803906e-01                                 
 4.00000000e-11  6.90208077e-01  4.00000000e-11  6.35718063e-01  4.00000000e-11  9.62373400e-01  4.00000000e-11  1.44000000e-01  4.00000000e-11  1.80023507e+00  4.00000000e-11  6.35718063e-01                                 
 8.00000000e-11  6.90003395e-01  8.00000000e-11  6.35547117e-01  8.00000000e-11  9.64923973e-01  8.00000000e-11  2.88000000e-01  8.00000000e-11  1.80013661e+00  8.00000000e-11  6.35547117e-01                                 
 1.60000000e-10  6.89598239e-01  1.60000000e-10  6.35208180e-01  1.60000000e-10  9.67123462e-01  1.60000000e-10  5.76000000e-01  1.60000000e-10  1.80002805e+00  1.60000000e-10  6.35208180e-01                                 
 3.20000000e-10  6.88803798e-01  3.20000000e-10  6.34541707e-01  3.20000000e-10  9.58636725e-01  3.20000000e-10  1.15200000e+00  3.20000000e-10  1.80026185e+00  3.20000000e-10  6.34541707e-01                                 
 5.00000000e-10  6.87934493e-01  5.00000000e-10  6.33809474e-01  5.00000000e-10  1.05869935e+00  5.00000000e-10  1.80000000e+00  5.00000000e-10  1.44485295e-01  5.00000000e-10  6.33809474e-01                                 
 5.21150994e-10  6.87834171e-01  5.21150994e-10  6.33724757e-01  5.21150994e-10  1.08450170e+00  5.21150994e-10  1.80000000e+00  5.21150994e-10  3.50606380e-02  5.21150994e-10  6.33724757e-01                                 
 5.63452981e-10  6.87634187e-01  5.63452981e-10  6.33555792e-01  5.63452981e-10  1.13588461e+00  5.63452981e-10  1.80000000e+00  5.63452981e-10 -1.34298671e-02  5.63452981e-10  6.33555792e-01                                 
 6.48056955e-10  6.87238190e-01  6.48056955e-10  6.33220749e-01  6.48056955e-10  1.22957801e+00  6.48056955e-10  1.80000000e+00  6.48056955e-10  1.15500387e-02  6.48056955e-10  6.33220749e-01                                 
 7.67986655e-10  6.86685709e-01  7.67986655e-10  6.32752272e-01  7.67986655e-10  1.34847696e+00  7.67986655e-10  1.80000000e+00  7.67986655e-10 -8.81642254e-03  7.67986655e-10  6.32752272e-01                                 
 9.49984395e-10  6.85866358e-01  9.49984395e-10  6.32055303e-01  9.49984395e-10  1.49887494e+00  9.49984395e-10  1.80000000e+00  9.49984395e-10  8.81853851e-03  9.49984395e-10  6.32055303e-01                                 
 1.31397988e-09  6.84291975e-01  1.31397988e-09  6.30708889e-01  1.31397988e-09  1.69599110e+00  1.31397988e-09  1.80000000e+00  1.31397988e-09 -7.69802057e-03  1.31397988e-09  6.30708889e-01                                 
 1.71677569e-09  6.82642280e-01  1.71677569e-09  6.29287938e-01  1.71677569e-09  1.79857186e+00  1.71677569e-09  1.80000000e+00  1.71677569e-09  7.67837209e-03  1.71677569e-09  6.29287938e-01                                 
 2.06647794e-09  6.81281791e-01  2.06647794e-09  6.28108399e-01  2.06647794e-09  1.83256985e+00  2.06647794e-09  1.80000000e+00  2.06647794e-09 -7.09593626e-03  2.06647794e-09  6.28108399e-01                                 
 2.44918646e-09  6.79862003e-01  2.44918646e-09  6.26870274e-01  2.44918646e-09  1.84698852e+00  2.44918646e-09  1.80000000e+00  2.44918646e-09  6.82727278e-03  2.44918646e-09  6.26870274e-01                                 
 2.91169696e-09  6.78233533e-01  2.91169696e-09  6.25441394e-01  2.91169696e-09  1.85136595e+00  2.91169696e-09  1.80000000e+00  2.91169696e-09 -6.49328750e-03  2.91169696e-09  6.25441394e-01                                 
 3.59818177e-09  6.75972484e-01  3.59818177e-09  6.23442551e-01  3.59818177e-09  1.85158227e+00  3.59818177e-09  1.80000000e+00  3.59818177e-09  6.34448139e-03  3.59818177e-09  6.23442551e-01                                 
 4.57458072e-09  6.73032468e-01  4.57458072e-09  6.20818612e-01  4.57458072e-09  1.84860588e+00  4.57458072e-09  1.80000000e+00  4.57458072e-09 -6.19077084e-03  4.57458072e-09  6.20818612e-01                                 
 6.29667860e-09  6.68474608e-01  6.29667860e-09  6.16699712e-01  6.29667860e-09  1.84444546e+00  6.29667860e-09  1.80000000e+00  6.29667860e-09  6.14547412e-03  6.29667860e-09  6.16699712e-01                                 
 9.66680076e-09  6.61191940e-01  9.66680076e-09  6.10004950e-01  9.66680076e-09  1.83703309e+00  9.66680076e-09  1.80000000e+00  9.66680076e-09 -6.08256772e-03  9.66680076e-09  6.10004950e-01                                 
 1.33657878e-08  6.54907254e-01  1.33657878e-08  6.04123182e-01  1.33657878e-08  1.83043213e+00  1.33657878e-08  1.80000000e+00  1.33657878e-08  6.07798519e-03  1.33657878e-08  6.04123182e-01                                 
 1.53486744e-08  6.52044915e-01  1.53486744e-08  6.01417392e-01  1.53486744e-08  1.82702078e+00  1.53486744e-08  1.80000000e+00  1.53486744e-08 -5.99448434e-03  1.53486744e-08  6.01417392e-01                                 
 1.66158528e-08  6.50351468e-01  1.66158528e-08  5.99810625e-01  1.66158528e-08  1.82531196e+00  1.66158528e-08  1.80000000e+00  1.66158528e-08  5.92493393e-03  1.66158528e-08  5.99810625e-01                                 
 1.82959093e-08  6.48240580e-01  1.82959093e-08  5.97802884e-01  1.82959093e-08  1.82256396e+00  1.82959093e-08  1.80000000e+00  1.82959093e-08 -5.83471622e-03  1.82959093e-08  5.97802884e-01                                 
 2.05852089e-08  6.45573359e-01  2.05852089e-08  5.95259660e-01  2.05852089e-08  1.81960168e+00  2.05852089e-08  1.80000000e+00  2.05852089e-08  5.80619625e-03  2.05852089e-08  5.95259660e-01                                 
 2.34686356e-08  6.42504302e-01  2.34686356e-08  5.92325543e-01  2.34686356e-08  1.81559091e+00  2.34686356e-08  1.80000000e+00  2.34686356e-08 -5.74606231e-03  2.34686356e-08  5.92325543e-01                                 
 2.72104266e-08  6.38940594e-01  2.72104266e-08  5.88905516e-01  2.72104266e-08  1.81139357e+00  2.72104266e-08  1.80000000e+00  2.72104266e-08  5.73722030e-03  2.72104266e-08  5.88905516e-01                                 
 3.21472342e-08  6.34807719e-01  3.21472342e-08  5.84923815e-01  3.21472342e-08  1.80470271e+00  3.21472342e-08  1.80000000e+00  3.21472342e-08 -5.69369441e-03  3.21472342e-08  5.84923815e-01                                 
 4.02349153e-08  6.28495763e-01  4.02349153e-08  5.78918304e-01  4.02349153e-08  1.79140297e+00  4.02349153e-08  1.80000000e+00  4.02349153e-08  5.70060884e-03  4.02349153e-08  5.78918304e-01                                 
 5.47051002e-08  6.17034227e-01  5.47051002e-08  5.68382485e-01  5.47051002e-08  1.76316666e+00  5.47051002e-08  1.80000000e+00  5.47051002e-08 -5.67267314e-03  5.47051002e-08  5.68382485e-01                                 
 7.44815337e-08  6.05532269e-01  7.44815337e-08  5.57739605e-01  7.44815337e-08  1.72427350e+00  7.44815337e-08  1.80000000e+00  7.44815337e-08  5.68796845e-03  7.44815337e-08  5.57739605e-01                                 
 9.47935929e-08  5.96130433e-01  9.47935929e-08  5.49078558e-01  9.47935929e-08  1.68805022e+00  9.47935929e-08  1.80000000e+00  9.47935929e-08 -5.66120096e-03  9.47935929e-08  5.49078558e-01                                 
 1.18892173e-07  5.91469285e-01  1.18892173e-07  5.44213176e-01  1.18892173e-07  1.65907786e+00  1.18892173e-07  1.80000000e+00  1.18892173e-07  5.67933526e-03  1.18892173e-07  5.44213176e-01                                 
 1.56238271e-07  5.93894640e-01  1.56238271e-07  5.44630303e-01  1.56238271e-07  1.64392083e+00  1.56238271e-07  1.80000000e+00  1.56238271e-07 -5.65227850e-03  1.56238271e-07  5.44630303e-01                                 
 1.78483611e-07  5.91535344e-01  1.78483611e-07  5.42013327e-01  1.78483611e-07  1.62046154e+00  1.78483611e-07  1.80000000e+00  1.78483611e-07  5.67035976e-03  1.78483611e-07  5.42013327e-01                                 
 2.02011985e-07  5.84231187e-01  2.02011985e-07  5.35534887e-01  2.02011985e-07  1.58956694e+00  2.02011985e-07  1.80000000e+00  2.02011985e-07 -5.64353007e-03  2.02011985e-07  5.35534887e-01                                 
 2.26569582e-07  5.77291848e-01  2.26569582e-07  5.29398716e-01  2.26569582e-07  1.55682545e+00  2.26569582e-07  1.80000000e+00  2.26569582e-07  5.66134628e-03  2.26569582e-07  5.29398716e-01                                 
 2.53165219e-07  5.70276088e-01  2.53165219e-07  5.23232150e-01  2.53165219e-07  1.52447518e+00  2.53165219e-07  1.80000000e+00  2.53165219e-07 -5.63490368e-03  2.53165219e-07  5.23232150e-01                                 
 2.99487662e-07  5.57494528e-01  2.99487662e-07  5.12220384e-01  2.99487662e-07  1.46453120e+00  2.99487662e-07  1.80000000e+00  2.99487662e-07  5.65484135e-03  2.99487662e-07  5.12220384e-01                                 
 3.63885065e-07  5.41842840e-01  3.63885065e-07  4.98876958e-01  3.63885065e-07  1.38517697e+00  3.63885065e-07  1.80000000e+00  3.63885065e-07 -5.63076349e-03  3.63885065e-07  4.98876958e-01                                 
 4.49493297e-07  5.09868134e-01  4.49493297e-07  4.72699083e-01  4.49493297e-07  1.26580235e+00  4.49493297e-07  1.80000000e+00  4.49493297e-07  5.65149742e-03  4.49493297e-07  4.72699083e-01                                 
 5.35493138e-07  4.76130833e-01  5.35493138e-07  4.45465885e-01  5.35493138e-07  1.14588536e+00  5.35493138e-07  1.80000000e+00  5.35493138e-07 -5.62829262e-03  5.35493138e-07  4.45465885e-01                                 
 6.30089708e-07  7.04013445e-01  6.30089708e-07  6.47096783e-01  6.30089708e-07  1.26472177e+00  6.30089708e-07  1.80000000e+00  6.30089708e-07  5.65907010e-03  6.30089708e-07  6.47096783e-01                                 
 7.27483633e-07  7.99494018e-01  7.27483633e-07  7.38972590e-01  7.27483633e-07  1.25926421e+00  7.27483633e-07  1.80000000e+00  7.27483633e-07 -5.63033412e-03  7.27483633e-07  7.38972590e-01                                 
 7.40887090e-07  8.00849326e-01  7.40887090e-07  7.40135722e-01  7.40887090e-07  1.24476468e+00  7.40887090e-07  1.80000000e+00  7.40887090e-07 -2.17481118e-06  7.40887090e-07  7.40135722e-01                                 
 7.67694003e-07  8.02480907e-01  7.67694003e-07  7.41514264e-01  7.67694003e-07  1.21846035e+00  7.67694003e-07  1.80000000e+00  7.67694003e-07  2.11275004e-06  7.67694003e-07  7.41514264e-01                                 
 7.74395731e-07  8.02584333e-01  7.74395731e-07  7.41601639e-01  7.74395731e-07  1.21172668e+00  7.74395731e-07  1.80000000e+00  7.74395731e-07 -1.15163315e-07  7.74395731e-07  7.41601639e-01                                 
 7.87799187e-07  8.02748384e-01  7.87799187e-07  7.41739699e-01  7.87799187e-07  1.19804087e+00  7.87799187e-07  1.80000000e+00  7.87799187e-07 -1.47029695e-07  7.87799187e-07  7.41739699e-01                                 
 8.14606100e-07  8.02816007e-01  8.14606100e-07  7.41797161e-01  8.14606100e-07  1.17030189e+00  8.14606100e-07  1.80000000e+00  8.14606100e-07 -1.57762469e-07  8.14606100e-07  7.41797161e-01                                 
 8.49557432e-07  8.02805014e-01  8.49557432e-07  7.41787559e-01  8.49557432e-07  1.13396621e+00  8.49557432e-07  1.80000000e+00  8.49557432e-07 -1.54394345e-07  8.49557432e-07  7.41787559e-01                                 
 9.00158043e-07  7.97848277e-01  9.00158043e-07  7.37607156e-01  9.00158043e-07  1.07654358e+00  9.00158043e-07  1.80000000e+00  9.00158043e-07 -5.65882480e-07  9.00158043e-07  7.37607156e-01                                 
 9.07612066e-07  7.94907118e-01  9.07612066e-07  7.35087754e-01  9.07612066e-07  1.06606088e+00  9.07612066e-07  1.80000000e+00  9.07612066e-07 -9.87230335e-07  9.07612066e-07  7.35087754e-01                                 
 9.22520114e-07  7.87186490e-01  9.22520114e-07  7.28340780e-01  9.22520114e-07  1.04331084e+00  9.22520114e-07  1.80000000e+00  9.22520114e-07 -1.52944179e-06  9.22520114e-07  7.28340780e-01                                 
 9.52336208e-07  7.76419952e-01  9.52336208e-07  7.18604826e-01  9.52336208e-07  1.00269287e+00  9.52336208e-07  1.80000000e+00  9.52336208e-07 -2.97682814e-07  9.52336208e-07  7.18604826e-01                                 
 9.97472420e-07  7.83618390e-01  9.97472420e-07  7.25102796e-01  9.97472420e-07  9.67290003e-01  9.97472420e-07  1.80000000e+00  9.97472420e-07  8.45333719e-07  9.97472420e-07  7.25102796e-01                                 
 1.05830429e-06  7.93934585e-01  1.05830429e-06  7.34221572e-01  1.05830429e-06  9.27164678e-01  1.05830429e-06  1.80000000e+00  1.05830429e-06 -1.26546227e-07  1.05830429e-06  7.34221572e-01                                 
 1.12458367e-06  7.87853043e-01  1.12458367e-06  7.28907784e-01  1.12458367e-06  8.75413501e-01  1.12458367e-06  1.80000000e+00  1.12458367e-06 -1.29149197e-07  1.12458367e-06  7.28907784e-01                                 
 1.22765389e-06  7.84015480e-01  1.22765389e-06  7.25471095e-01  1.22765389e-06  8.10163368e-01  1.22765389e-06  1.80000000e+00  1.22765389e-06  2.24443291e-07  1.22765389e-06  7.25471095e-01                                 
 1.32439349e-06  7.91515028e-01  1.32439349e-06  7.32116383e-01  1.32439349e-06  7.74125978e-01  1.32439349e-06  1.80000000e+00  1.32439349e-06  5.05030225e-07  1.32439349e-06  7.32116383e-01                                 
 1.48026409e-06  7.85685743e-01  1.48026409e-06  7.26976671e-01  1.48026409e-06  7.32251107e-01  1.48026409e-06  1.80000000e+00  1.48026409e-06 -7.70347608e-08  1.48026409e-06  7.26976671e-01                                 
 1.63353628e-06  7.87662071e-01  1.63353628e-06  7.28720359e-01  1.63353628e-06  7.20654143e-01  1.63353628e-06  1.80000000e+00  1.63353628e-06  8.15463459e-07  1.63353628e-06  7.28720359e-01                                 
 1.65370967e-06  7.89218092e-01  1.65370967e-06  7.30096748e-01  1.65370967e-06  7.21118278e-01  1.65370967e-06  1.80000000e+00  1.65370967e-06  5.14097592e-07  1.65370967e-06  7.30096748e-01                                 
 1.69405645e-06  7.89970335e-01  1.69405645e-06  7.30765135e-01  1.69405645e-06  7.19982044e-01  1.69405645e-06  1.80000000e+00  1.69405645e-06  2.78093975e-07  1.69405645e-06  7.30765135e-01                                 
 1.77475002e-06  7.86407267e-01  1.77475002e-06  7.27616263e-01  1.77475002e-06  7.18990503e-01  1.77475002e-06  1.80000000e+00  1.77475002e-06  3.11329565e-07  1.77475002e-06  7.27616263e-01                                 
 1.87520433e-06  7.87652252e-01  1.87520433e-06  7.28713978e-01  1.87520433e-06  7.30319561e-01  1.87520433e-06  1.80000000e+00  1.87520433e-06  5.54584323e-07  1.87520433e-06  7.28713978e-01                                 
 1.98188678e-06  7.89069947e-01  1.98188678e-06  7.29973078e-01  1.98188678e-06  7.30962767e-01  1.98188678e-06  1.80000000e+00  1.98188678e-06  2.36389382e-07  1.98188678e-06  7.29973078e-01                                 
 2.10424187e-06  7.86538252e-01  2.10424187e-06  7.27729640e-01  2.10424187e-06  7.26537265e-01  2.10424187e-06  1.80000000e+00  2.10424187e-06  4.16285779e-07  2.10424187e-06  7.27729640e-01                                 
 2.28774432e-06  7.88766016e-01  2.28774432e-06  7.29701429e-01  2.28774432e-06  7.30692933e-01  2.28774432e-06  1.80000000e+00  2.28774432e-06  3.85624506e-07  2.28774432e-06  7.29701429e-01                                 
 2.47558897e-06  7.87415235e-01  2.47558897e-06  7.28510082e-01  2.47558897e-06  7.28040209e-01  2.47558897e-06  1.80000000e+00  2.47558897e-06  3.26274394e-07  2.47558897e-06  7.28510082e-01                                 
 2.75012568e-06  7.87910609e-01  2.75012568e-06  7.28944640e-01  2.75012568e-06  7.29419731e-01  2.75012568e-06  1.80000000e+00  2.75012568e-06  4.28855985e-07  2.75012568e-06  7.28944640e-01                                 
 3.12578351e-06  7.88027441e-01  3.12578351e-06  7.29052204e-01  3.12578351e-06  7.28872817e-01  3.12578351e-06  1.80000000e+00  3.12578351e-06  3.17039914e-07  3.12578351e-06  7.29052204e-01                                 
 3.69421741e-06  7.87524664e-01  3.69421741e-06  7.28603093e-01  3.69421741e-06  7.28921693e-01  3.69421741e-06  1.80000000e+00  3.69421741e-06  4.25638637e-07  3.69421741e-06  7.28603093e-01                                 
 4.64914587e-06  7.88245716e-01  4.64914587e-06  7.29245005e-01  4.64914587e-06  7.29147496e-01  4.64914587e-06  1.80000000e+00  4.64914587e-06  3.22857325e-07  4.64914587e-06  7.29245005e-01                                 
 5.64914587e-06  7.87377858e-01  5.64914587e-06  7.28473197e-01  5.64914587e-06  7.28741324e-01  5.64914587e-06  1.80000000e+00  5.64914587e-06  4.19575014e-07  5.64914587e-06  7.28473197e-01                                 
 6.64914587e-06  7.88370657e-01  6.64914587e-06  7.29355188e-01  6.64914587e-06  7.29301324e-01  6.64914587e-06  1.80000000e+00  6.64914587e-06  3.29950220e-07  6.64914587e-06  7.29355188e-01                                 
 7.64914587e-06  7.87265326e-01  7.64914587e-06  7.28373689e-01  7.64914587e-06  7.28603006e-01  7.64914587e-06  1.80000000e+00  7.64914587e-06  4.11473719e-07  7.64914587e-06  7.28373689e-01                                 
 8.64914587e-06  7.88465634e-01  8.64914587e-06  7.29438831e-01  8.64914587e-06  7.29418983e-01  8.64914587e-06  1.80000000e+00  8.64914587e-06  3.38932418e-07  8.64914587e-06  7.29438831e-01                                 
 9.64914587e-06  7.87183211e-01  9.64914587e-06  7.28301169e-01  9.64914587e-06  7.28500704e-01  9.64914587e-06  1.80000000e+00  9.64914587e-06  4.01739655e-07  9.64914587e-06  7.28301169e-01                                 
 1.00005000e-05  7.88562378e-01  1.00005000e-05  7.29523653e-01  1.00005000e-05  7.29547380e-01  1.00005000e-05  1.80000000e+00  1.00005000e-05  3.59498566e-07  1.00005000e-05  7.29523653e-01                                 
 1.00005500e-05  7.88561664e-01  1.00005500e-05  7.29523032e-01  1.00005500e-05  7.22538756e-01  1.00005500e-05  1.62000000e+00  1.00005500e-05 -1.14366941e-04  1.00005500e-05  7.29523032e-01                                 
 1.00006500e-05  7.88560267e-01  1.00006500e-05  7.29521797e-01  1.00006500e-05  7.12328646e-01  1.00006500e-05  1.26000000e+00  1.00006500e-05 -6.39419391e-05  1.00006500e-05  7.29521797e-01                                 
 1.00008500e-05  7.88557427e-01  1.00008500e-05  7.29519286e-01  1.00008500e-05  7.09440433e-01  1.00008500e-05  5.40000000e-01  1.00008500e-05 -2.19607930e-03  1.00008500e-05  7.29519286e-01                                 
 1.00010000e-05  7.88555218e-01  1.00010000e-05  7.29517346e-01  1.00010000e-05  7.25638571e-01  1.00010000e-05  0.00000000e+00  1.00010000e-05  1.50406456e+00  1.00010000e-05  7.29517346e-01                                 
 1.00010261e-05  7.88554838e-01  1.00010261e-05  7.29517008e-01  1.00010261e-05  7.36963161e-01  1.00010261e-05  0.00000000e+00  1.00010261e-05  1.68975779e+00  1.00010261e-05  7.29517008e-01                                 
