 time            v(vbep)         time            v(vben)         time            v(vout)         time            v(vphi1)        time            v(vphi2)        time            v(vref)         yes             currtemp       
 0.00000000e+00  5.78332850e-01  0.00000000e+00  5.15381078e-01  0.00000000e+00  2.59118091e-01  0.00000000e+00  0.00000000e+00  0.00000000e+00  1.79997423e+00  0.00000000e+00  5.15381078e-01  1.00000000e+00  7.20000000e+01 
 5.00000000e-12  5.78318151e-01  5.00000000e-12  5.15368853e-01  5.00000000e-12  2.59636475e-01  5.00000000e-12  1.80000000e-02  5.00000000e-12  1.80008085e+00  5.00000000e-12  5.15368853e-01                                 
 1.00000000e-11  5.78303611e-01  1.00000000e-11  5.15356865e-01  1.00000000e-11  2.60059216e-01  1.00000000e-11  3.60000000e-02  1.00000000e-11  1.80013895e+00  1.00000000e-11  5.15356865e-01                                 
 2.00000000e-11  5.78274607e-01  2.00000000e-11  5.15332947e-01  2.00000000e-11  2.60760628e-01  2.00000000e-11  7.20000000e-02  2.00000000e-11  1.80019613e+00  2.00000000e-11  5.15332947e-01                                 
 4.00000000e-11  5.78216741e-01  4.00000000e-11  5.15285218e-01  4.00000000e-11  2.61588830e-01  4.00000000e-11  1.44000000e-01  4.00000000e-11  1.80016375e+00  4.00000000e-11  5.15285218e-01                                 
 8.00000000e-11  5.78101297e-01  8.00000000e-11  5.15189963e-01  8.00000000e-11  2.62303913e-01  8.00000000e-11  2.88000000e-01  8.00000000e-11  1.80008419e+00  8.00000000e-11  5.15189963e-01                                 
 1.60000000e-10  5.77871599e-01  1.60000000e-10  5.15000264e-01  1.60000000e-10  2.62972845e-01  1.60000000e-10  5.76000000e-01  1.60000000e-10  1.80004332e+00  1.60000000e-10  5.15000264e-01                                 
 3.20000000e-10  5.77416827e-01  3.20000000e-10  5.14624050e-01  3.20000000e-10  2.67056131e-01  3.20000000e-10  1.15200000e+00  3.20000000e-10  1.80032038e+00  3.20000000e-10  5.14624050e-01                                 
 5.00000000e-10  5.76912429e-01  5.00000000e-10  5.14205787e-01  5.00000000e-10  5.08209186e-01  5.00000000e-10  1.80000000e+00  5.00000000e-10  1.84335065e-01  5.00000000e-10  5.14205787e-01                                 
 5.22437284e-10  5.76850149e-01  5.22437284e-10  5.14154062e-01  5.22437284e-10  5.65353980e-01  5.22437284e-10  1.80000000e+00  5.22437284e-10  4.52101928e-02  5.22437284e-10  5.14154062e-01                                 
 5.67311853e-10  5.76725824e-01  5.67311853e-10  5.14050775e-01  5.67311853e-10  6.70866927e-01  5.67311853e-10  1.80000000e+00  5.67311853e-10 -1.67127361e-02  5.67311853e-10  5.14050775e-01                                 
 6.57060991e-10  5.76478585e-01  6.57060991e-10  5.13845184e-01  6.57060991e-10  8.38797779e-01  6.57060991e-10  1.80000000e+00  6.57060991e-10  1.47396109e-02  6.57060991e-10  5.13845184e-01                                 
 7.74397312e-10  5.76158116e-01  7.74397312e-10  5.13578330e-01  7.74397312e-10  1.00778774e+00  7.74397312e-10  1.80000000e+00  7.74397312e-10 -1.06090019e-02  7.74397312e-10  5.13578330e-01                                 
 9.62003669e-10  5.75652025e-01  9.62003669e-10  5.13156068e-01  9.62003669e-10  1.22353752e+00  9.62003669e-10  1.80000000e+00  9.62003669e-10  1.08970943e-02  9.62003669e-10  5.13156068e-01                                 
 1.29210298e-09  5.74779654e-01  1.29210298e-09  5.12425817e-01  1.29210298e-09  1.49828961e+00  1.29210298e-09  1.80000000e+00  1.29210298e-09 -9.04862271e-03  1.29210298e-09  5.12425817e-01                                 
 1.87083538e-09  5.73302743e-01  1.87083538e-09  5.11182786e-01  1.87083538e-09  1.73263965e+00  1.87083538e-09  1.80000000e+00  1.87083538e-09  9.33647774e-03  1.87083538e-09  5.11182786e-01                                 
 2.17036833e-09  5.72563432e-01  2.17036833e-09  5.10557347e-01  2.17036833e-09  1.77199097e+00  2.17036833e-09  1.80000000e+00  2.17036833e-09 -8.41307778e-03  2.17036833e-09  5.10557347e-01                                 
 2.51015814e-09  5.71744103e-01  2.51015814e-09  5.09861801e-01  2.51015814e-09  1.79179250e+00  2.51015814e-09  1.80000000e+00  2.51015814e-09  8.03472978e-03  2.51015814e-09  5.09861801e-01                                 
 2.89017730e-09  5.70850977e-01  2.89017730e-09  5.09100765e-01  2.89017730e-09  1.80000568e+00  2.89017730e-09  1.80000000e+00  2.89017730e-09 -7.48720921e-03  2.89017730e-09  5.09100765e-01                                 
 3.54584891e-09  5.69363799e-01  3.54584891e-09  5.07827149e-01  3.54584891e-09  1.80377594e+00  3.54584891e-09  1.80000000e+00  3.54584891e-09  7.30673366e-03  3.54584891e-09  5.07827149e-01                                 
 4.28536505e-09  5.67762408e-01  4.28536505e-09  5.06446937e-01  4.28536505e-09  1.80276457e+00  4.28536505e-09  1.80000000e+00  4.28536505e-09 -7.04066319e-03  4.28536505e-09  5.06446937e-01                                 
 5.66758732e-09  5.64958529e-01  5.66758732e-09  5.04009723e-01  5.66758732e-09  1.80039580e+00  5.66758732e-09  1.80000000e+00  5.66758732e-09  6.98050946e-03  5.66758732e-09  5.04009723e-01                                 
 7.75822832e-09  5.61112946e-01  7.75822832e-09  5.00626887e-01  7.75822832e-09  1.79522611e+00  7.75822832e-09  1.80000000e+00  7.75822832e-09 -6.85409199e-03  7.75822832e-09  5.00626887e-01                                 
 9.31398895e-09  5.58514117e-01  9.31398895e-09  4.98315199e-01  9.31398895e-09  1.79214087e+00  9.31398895e-09  1.80000000e+00  9.31398895e-09  6.80603811e-03  9.31398895e-09  4.98315199e-01                                 
 1.10509772e-08  5.55831884e-01  1.10509772e-08  4.95909658e-01  1.10509772e-08  1.78831888e+00  1.10509772e-08  1.80000000e+00  1.10509772e-08 -6.67807470e-03  1.10509772e-08  4.95909658e-01                                 
 1.26092375e-08  5.53597897e-01  1.26092375e-08  4.93891435e-01  1.26092375e-08  1.78550795e+00  1.26092375e-08  1.80000000e+00  1.26092375e-08  6.62330395e-03  1.26092375e-08  4.93891435e-01                                 
 1.41393336e-08  5.51543706e-01  1.41393336e-08  4.92024337e-01  1.41393336e-08  1.78228372e+00  1.41393336e-08  1.80000000e+00  1.41393336e-08 -6.49241952e-03  1.41393336e-08  4.92024337e-01                                 
 1.57669619e-08  5.49493930e-01  1.57669619e-08  4.90150733e-01  1.57669619e-08  1.77945816e+00  1.57669619e-08  1.80000000e+00  1.57669619e-08  6.44038253e-03  1.57669619e-08  4.90150733e-01                                 
 1.75960510e-08  5.47339501e-01  1.75960510e-08  4.88170310e-01  1.75960510e-08  1.77578123e+00  1.75960510e-08  1.80000000e+00  1.75960510e-08 -6.32943306e-03  1.75960510e-08  4.88170310e-01                                 
 2.01768035e-08  5.44535408e-01  2.01768035e-08  4.85575814e-01  2.01768035e-08  1.77133532e+00  2.01768035e-08  1.80000000e+00  2.01768035e-08  6.30941710e-03  2.01768035e-08  4.85575814e-01                                 
 2.32073612e-08  5.41547903e-01  2.32073612e-08  4.82790489e-01  2.32073612e-08  1.76574731e+00  2.32073612e-08  1.80000000e+00  2.32073612e-08 -6.23049243e-03  2.32073612e-08  4.82790489e-01                                 
 2.81282703e-08  5.37263010e-01  2.81282703e-08  4.78758999e-01  2.81282703e-08  1.75774666e+00  2.81282703e-08  1.80000000e+00  2.81282703e-08  6.23634863e-03  2.81282703e-08  4.78758999e-01                                 
 3.44126553e-08  5.32575380e-01  3.44126553e-08  4.74302002e-01  3.44126553e-08  1.74747838e+00  3.44126553e-08  1.80000000e+00  3.44126553e-08 -6.18085688e-03  3.44126553e-08  4.74302002e-01                                 
 4.69814253e-08  5.24912639e-01  4.69814253e-08  4.66935720e-01  4.69814253e-08  1.72864710e+00  4.69814253e-08  1.80000000e+00  4.69814253e-08  6.20430555e-03  4.69814253e-08  4.66935720e-01                                 
 7.21189652e-08  5.13409825e-01  7.21189652e-08  4.55767404e-01  7.21189652e-08  1.69317364e+00  7.21189652e-08  1.80000000e+00  7.21189652e-08 -6.16422867e-03  7.21189652e-08  4.55767404e-01                                 
 1.17713809e-07  4.95636810e-01  1.17713809e-07  4.39029998e-01  1.17713809e-07  1.63178098e+00  1.17713809e-07  1.80000000e+00  1.17713809e-07  6.19630034e-03  1.17713809e-07  4.39029998e-01                                 
 1.59168036e-07  4.81580930e-01  1.59168036e-07  4.26179564e-01  1.59168036e-07  1.57652172e+00  1.59168036e-07  1.80000000e+00  1.59168036e-07 -6.15786918e-03  1.59168036e-07  4.26179564e-01                                 
 2.42076490e-07  4.58292512e-01  2.42076490e-07  4.05287432e-01  2.42076490e-07  1.46951362e+00  2.42076490e-07  1.80000000e+00  2.42076490e-07  6.19168475e-03  2.42076490e-07  4.05287432e-01                                 
 3.25873567e-07  4.35431852e-01  3.25873567e-07  3.85561281e-01  3.25873567e-07  1.35955376e+00  3.25873567e-07  1.80000000e+00  3.25873567e-07 -6.15465091e-03  3.25873567e-07  3.85561281e-01                                 
 4.49302934e-07  3.97927143e-01  4.49302934e-07  3.54353298e-01  4.49302934e-07  1.19427452e+00  4.49302934e-07  1.80000000e+00  4.49302934e-07  6.18896693e-03  4.49302934e-07  3.54353298e-01                                 
 6.96161667e-07  6.79291996e-01  6.96161667e-07  6.13328528e-01  6.96161667e-07  1.20273131e+00  6.96161667e-07  1.80000000e+00  6.96161667e-07 -6.14717396e-03  6.96161667e-07  6.13328528e-01                                 
 7.26198185e-07  7.00970664e-01  7.26198185e-07  6.33445652e-01  7.26198185e-07  1.19259704e+00  7.26198185e-07  1.80000000e+00  7.26198185e-07  5.49287619e-06  7.26198185e-07  6.33445652e-01                                 
 7.86271222e-07  7.27481013e-01  7.86271222e-07  6.56491692e-01  7.86271222e-07  1.15512648e+00  7.86271222e-07  1.80000000e+00  7.86271222e-07  6.39489436e-06  7.86271222e-07  6.56491692e-01                                 
 8.01289482e-07  7.29432624e-01  8.01289482e-07  6.58118768e-01  8.01289482e-07  1.14143347e+00  8.01289482e-07  1.80000000e+00  8.01289482e-07  5.22354810e-06  8.01289482e-07  6.58118768e-01                                 
 8.31326000e-07  7.31973527e-01  8.31326000e-07  6.60217418e-01  8.31326000e-07  1.11307819e+00  8.31326000e-07  1.80000000e+00  8.31326000e-07  5.03107492e-06  8.31326000e-07  6.60217418e-01                                 
 8.91399037e-07  7.29784498e-01  8.91399037e-07  6.58423099e-01  8.91399037e-07  1.05251102e+00  8.91399037e-07  1.80000000e+00  8.91399037e-07  4.74405104e-06  8.91399037e-07  6.58423099e-01                                 
 9.00972039e-07  7.26869249e-01  9.00972039e-07  6.56010813e-01  9.00972039e-07  1.04111289e+00  9.00972039e-07  1.80000000e+00  9.00972039e-07  4.32682835e-06  9.00972039e-07  6.56010813e-01                                 
 9.20118044e-07  7.18353156e-01  9.20118044e-07  6.48816645e-01  9.20118044e-07  1.01639263e+00  9.20118044e-07  1.80000000e+00  9.20118044e-07  3.72233572e-06  9.20118044e-07  6.48816645e-01                                 
 9.58410054e-07  7.07268004e-01  9.58410054e-07  6.39115888e-01  9.58410054e-07  9.75478238e-01  9.58410054e-07  1.80000000e+00  9.58410054e-07  5.12527422e-06  9.58410054e-07  6.39115888e-01                                 
 1.00657099e-06  7.15810479e-01  1.00657099e-06  6.46580610e-01  1.00657099e-06  9.48569079e-01  1.00657099e-06  1.80000000e+00  1.00657099e-06  5.96278036e-06  1.00657099e-06  6.46580610e-01                                 
 1.07159097e-06  7.23037079e-01  1.07159097e-06  6.52778103e-01  1.07159097e-06  9.11789098e-01  1.07159097e-06  1.80000000e+00  1.07159097e-06  4.89681367e-06  1.07159097e-06  6.52778103e-01                                 
 1.14121755e-06  7.15369484e-01  1.14121755e-06  6.46223365e-01  1.14121755e-06  8.61256529e-01  1.14121755e-06  1.80000000e+00  1.14121755e-06  5.03406567e-06  1.14121755e-06  6.46223365e-01                                 
 1.23750458e-06  7.15632381e-01  1.23750458e-06  6.46433652e-01  1.23750458e-06  8.04036117e-01  1.23750458e-06  1.80000000e+00  1.23750458e-06  5.46147743e-06  1.23750458e-06  6.46433652e-01                                 
 1.34096734e-06  7.20818520e-01  1.34096734e-06  6.50896716e-01  1.34096734e-06  7.49967173e-01  1.34096734e-06  1.80000000e+00  1.34096734e-06  5.30791568e-06  1.34096734e-06  6.50896716e-01                                 
 1.52203530e-06  7.14351316e-01  1.52203530e-06  6.45332536e-01  1.52203530e-06  6.70206953e-01  1.52203530e-06  1.80000000e+00  1.52203530e-06  5.28237702e-06  1.52203530e-06  6.45332536e-01                                 
 1.72359000e-06  7.19565720e-01  1.72359000e-06  6.49821827e-01  1.72359000e-06  6.41977398e-01  1.72359000e-06  1.80000000e+00  1.72359000e-06  5.80176636e-06  1.72359000e-06  6.49821827e-01                                 
 1.91857287e-06  7.16512330e-01  1.91857287e-06  6.47207228e-01  1.91857287e-06  6.45669938e-01  1.91857287e-06  1.80000000e+00  1.91857287e-06  5.26879631e-06  1.91857287e-06  6.47207228e-01                                 
 2.11884872e-06  7.17338757e-01  2.11884872e-06  6.47909718e-01  2.11884872e-06  6.51231268e-01  2.11884872e-06  1.80000000e+00  2.11884872e-06  5.87369679e-06  2.11884872e-06  6.47909718e-01                                 
 2.30540517e-06  7.18581604e-01  2.30540517e-06  6.48986286e-01  2.30540517e-06  6.46849736e-01  2.30540517e-06  1.80000000e+00  2.30540517e-06  5.23925354e-06  2.30540517e-06  6.48986286e-01                                 
 2.54392806e-06  7.15934439e-01  2.54392806e-06  6.46700378e-01  2.54392806e-06  6.48002424e-01  2.54392806e-06  1.80000000e+00  2.54392806e-06  5.83344600e-06  2.54392806e-06  6.46700378e-01                                 
 2.78745525e-06  7.19160199e-01  2.78745525e-06  6.49479280e-01  2.78745525e-06  6.49329463e-01  2.78745525e-06  1.80000000e+00  2.78745525e-06  5.32467753e-06  2.78745525e-06  6.49479280e-01                                 
 3.10478502e-06  7.15819426e-01  3.10478502e-06  6.46603519e-01  3.10478502e-06  6.46744571e-01  3.10478502e-06  1.80000000e+00  3.10478502e-06  5.73991943e-06  3.10478502e-06  6.46603519e-01                                 
 3.59119597e-06  7.19005292e-01  3.59119597e-06  6.49344934e-01  3.59119597e-06  6.49719489e-01  3.59119597e-06  1.80000000e+00  3.59119597e-06  5.39538070e-06  3.59119597e-06  6.49344934e-01                                 
 4.19557457e-06  7.16051192e-01  4.19557457e-06  6.46805071e-01  4.19557457e-06  6.46699675e-01  4.19557457e-06  1.80000000e+00  4.19557457e-06  5.69134837e-06  4.19557457e-06  6.46805071e-01                                 
 5.08652181e-06  7.18797919e-01  5.08652181e-06  6.49166516e-01  5.08652181e-06  6.49669568e-01  5.08652181e-06  1.80000000e+00  5.08652181e-06  5.42968079e-06  5.08652181e-06  6.49166516e-01                                 
 6.08652181e-06  7.16245759e-01  6.08652181e-06  6.46973732e-01  6.08652181e-06  6.46798387e-01  6.08652181e-06  1.80000000e+00  6.08652181e-06  5.66685779e-06  6.08652181e-06  6.46973732e-01                                 
 7.08652181e-06  7.18610920e-01  7.08652181e-06  6.49006122e-01  7.08652181e-06  6.49553388e-01  7.08652181e-06  1.80000000e+00  7.08652181e-06  5.45121198e-06  7.08652181e-06  6.49006122e-01                                 
 8.08652181e-06  7.16457339e-01  8.08652181e-06  6.47156856e-01  8.08652181e-06  6.46954036e-01  8.08652181e-06  1.80000000e+00  8.08652181e-06  5.64693375e-06  8.08652181e-06  6.47156856e-01                                 
 9.08652181e-06  7.18399238e-01  9.08652181e-06  6.48824003e-01  9.08652181e-06  6.49385504e-01  9.08652181e-06  1.80000000e+00  9.08652181e-06  5.46939956e-06  9.08652181e-06  6.48824003e-01                                 
 1.00005000e-05  7.16697672e-01  1.00005000e-05  6.47364659e-01  1.00005000e-05  6.47156613e-01  1.00005000e-05  1.80000000e+00  1.00005000e-05  5.62990014e-06  1.00005000e-05  6.47364659e-01                                 
 1.00005500e-05  7.16694290e-01  1.00005500e-05  6.47361312e-01  1.00005500e-05  6.40312896e-01  1.00005500e-05  1.62000000e+00  1.00005500e-05 -1.24594990e-04  1.00005500e-05  6.47361312e-01                                 
 1.00006500e-05  7.16686612e-01  1.00006500e-05  6.47354657e-01  1.00006500e-05  6.28900830e-01  1.00006500e-05  1.26000000e+00  1.00006500e-05 -9.54174601e-05  1.00006500e-05  6.47354657e-01                                 
 1.00008500e-05  7.16672288e-01  1.00008500e-05  6.47342672e-01  1.00008500e-05  6.20425940e-01  1.00008500e-05  5.40000000e-01  1.00008500e-05  8.18578959e-03  1.00008500e-05  6.47342672e-01                                 
 1.00010000e-05  7.16663022e-01  1.00010000e-05  6.47334670e-01  1.00010000e-05  5.68814433e-01  1.00010000e-05  0.00000000e+00  1.00010000e-05  1.53701291e+00  1.00010000e-05  6.47334670e-01                                 
 1.00010250e-05  7.16661501e-01  1.00010250e-05  6.47333404e-01  1.00010250e-05  5.45393461e-01  1.00010250e-05  0.00000000e+00  1.00010250e-05  1.69748871e+00  1.00010250e-05  6.47333404e-01                                 
 1.00010750e-05  7.16658601e-01  1.00010750e-05  6.47330931e-01  1.00010750e-05  5.10616667e-01  1.00010750e-05  0.00000000e+00  1.00010750e-05  1.81941270e+00  1.00010750e-05  6.47330931e-01                                 
 1.00011750e-05  7.16653159e-01  1.00011750e-05  6.47326229e-01  1.00011750e-05  4.92616461e-01  1.00011750e-05  0.00000000e+00  1.00011750e-05  1.78941901e+00  1.00011750e-05  6.47326229e-01                                 
 1.00013186e-05  7.16645756e-01  1.00013186e-05  6.47319868e-01  1.00013186e-05  4.98776363e-01  1.00013186e-05  0.00000000e+00  1.00013186e-05  1.80714416e+00  1.00013186e-05  6.47319868e-01                                 
 1.00014732e-05  7.16638333e-01  1.00014732e-05  6.47313448e-01  1.00014732e-05  4.98832769e-01  1.00014732e-05  0.00000000e+00  1.00014732e-05  1.79532394e+00  1.00014732e-05  6.47313448e-01                                 
 1.00017447e-05  7.16626343e-01  1.00017447e-05  6.47303054e-01  1.00017447e-05  5.00308628e-01  1.00017447e-05  0.00000000e+00  1.00017447e-05  1.80375930e+00  1.00017447e-05  6.47303054e-01                                 
 1.00022690e-05  7.16605970e-01  1.00022690e-05  6.47285314e-01  1.00022690e-05  5.00223801e-01  1.00022690e-05  0.00000000e+00  1.00022690e-05  1.79665503e+00  1.00022690e-05  6.47285314e-01                                 
 1.00028889e-05  7.16584984e-01  1.00028889e-05  6.47267017e-01  1.00028889e-05  5.00643323e-01  1.00028889e-05  0.00000000e+00  1.00028889e-05  1.80301099e+00  1.00028889e-05  6.47267017e-01                                 
 1.00041288e-05  7.16548368e-01  1.00041288e-05  6.47235136e-01  1.00041288e-05  5.00682844e-01  1.00041288e-05  0.00000000e+00  1.00041288e-05  1.79712596e+00  1.00041288e-05  6.47235136e-01                                 
 1.00066085e-05  7.16487666e-01  1.00066085e-05  6.47182426e-01  1.00066085e-05  5.01848059e-01  1.00066085e-05  0.00000000e+00  1.00066085e-05  1.80279278e+00  1.00066085e-05  6.47182426e-01                                 
 1.00115679e-05  7.16405986e-01  1.00115679e-05  6.47111405e-01  1.00115679e-05  5.03806803e-01  1.00115679e-05  0.00000000e+00  1.00115679e-05  1.79723312e+00  1.00115679e-05  6.47111405e-01                                 
 1.00214867e-05  7.16394738e-01  1.00214867e-05  6.47100645e-01  1.00214867e-05  5.12105589e-01  1.00214867e-05  0.00000000e+00  1.00214867e-05  1.80274233e+00  1.00214867e-05  6.47100645e-01                                 
 1.00413243e-05  7.16807399e-01  1.00413243e-05  6.47455331e-01  1.00413243e-05  5.51575606e-01  1.00413243e-05  0.00000000e+00  1.00413243e-05  1.79726469e+00  1.00413243e-05  6.47455331e-01                                 
