 time            v(vbep)         time            v(vben)         time            v(vout)         time            v(vphi1)        time            v(vphi2)        time            v(vref)         yes             currtemp       
 0.00000000e+00  6.88992766e-01  0.00000000e+00  6.33915363e-01  0.00000000e+00  1.08969209e+00  0.00000000e+00  0.00000000e+00  0.00000000e+00  1.79994840e+00  0.00000000e+00  6.33915363e-01  1.00000000e+00  2.80000000e+01 
 5.00000000e-12  6.88961742e-01  5.00000000e-12  6.33889704e-01  5.00000000e-12  1.09042842e+00  5.00000000e-12  1.80000000e-02  5.00000000e-12  1.80007293e+00  5.00000000e-12  6.33889704e-01                                 
 1.00000000e-11  6.88931640e-01  1.00000000e-11  6.33864752e-01  1.00000000e-11  1.09110122e+00  1.00000000e-11  3.60000000e-02  1.00000000e-11  1.80014716e+00  1.00000000e-11  6.33864752e-01                                 
 2.00000000e-11  6.88872013e-01  2.00000000e-11  6.33815054e-01  2.00000000e-11  1.09234753e+00  2.00000000e-11  7.20000000e-02  2.00000000e-11  1.80023065e+00  2.00000000e-11  6.33815054e-01                                 
 4.00000000e-11  6.88753747e-01  4.00000000e-11  6.33716076e-01  4.00000000e-11  1.09437995e+00  4.00000000e-11  1.44000000e-01  4.00000000e-11  1.80022422e+00  4.00000000e-11  6.33716076e-01                                 
 8.00000000e-11  6.88518457e-01  8.00000000e-11  6.33519079e-01  8.00000000e-11  1.09716251e+00  8.00000000e-11  2.88000000e-01  8.00000000e-11  1.80013264e+00  8.00000000e-11  6.33519079e-01                                 
 1.60000000e-10  6.88053293e-01  1.60000000e-10  6.33128910e-01  1.60000000e-10  1.09957003e+00  1.60000000e-10  5.76000000e-01  1.60000000e-10  1.80002361e+00  1.60000000e-10  6.33128910e-01                                 
 3.20000000e-10  6.87143266e-01  3.20000000e-10  6.32363291e-01  3.20000000e-10  1.09150715e+00  3.20000000e-10  1.15200000e+00  3.20000000e-10  1.80029367e+00  3.20000000e-10  6.32363291e-01                                 
 5.00000000e-10  6.86150668e-01  5.00000000e-10  6.31524553e-01  5.00000000e-10  1.18645260e+00  5.00000000e-10  1.80000000e+00  5.00000000e-10  1.47144485e-01  5.00000000e-10  6.31524553e-01                                 
 5.21184087e-10  6.86036179e-01  5.21184087e-10  6.31427548e-01  5.21184087e-10  1.21080050e+00  5.21184087e-10  1.80000000e+00  5.21184087e-10  3.63397659e-02  5.21184087e-10  6.31427548e-01                                 
 5.63552260e-10  6.85808032e-01  5.63552260e-10  6.31234133e-01  5.63552260e-10  1.25928237e+00  5.63552260e-10  1.80000000e+00  5.63552260e-10 -1.38021959e-02  5.63552260e-10  6.31234133e-01                                 
 6.48288606e-10  6.85356773e-01  6.48288606e-10  6.30850998e-01  6.48288606e-10  1.34645528e+00  6.48288606e-10  1.80000000e+00  6.48288606e-10  1.17464720e-02  6.48288606e-10  6.30850998e-01                                 
 7.68363477e-10  6.84728526e-01  7.68363477e-10  6.30316326e-01  7.68363477e-10  1.45406820e+00  7.68363477e-10  1.80000000e+00  7.68363477e-10 -9.01211105e-03  7.68363477e-10  6.30316326e-01                                 
 9.49031569e-10  6.83806944e-01  9.49031569e-10  6.29529373e-01  9.49031569e-10  1.58499227e+00  9.49031569e-10  1.80000000e+00  9.49031569e-10  8.88423304e-03  9.49031569e-10  6.29529373e-01                                 
 1.31036775e-09  6.82042988e-01  1.31036775e-09  6.28014589e-01  1.31036775e-09  1.74946420e+00  1.31036775e-09  1.80000000e+00  1.31036775e-09 -7.82832324e-03  1.31036775e-09  6.28014589e-01                                 
 1.65773981e-09  6.80439508e-01  1.65773981e-09  6.26627828e-01  1.65773981e-09  1.82304254e+00  1.65773981e-09  1.80000000e+00  1.65773981e-09  7.69210129e-03  1.65773981e-09  6.26627828e-01                                 
 2.04118656e-09  6.78763791e-01  2.04118656e-09  6.25168917e-01  2.04118656e-09  1.85509502e+00  2.04118656e-09  1.80000000e+00  2.04118656e-09 -7.15122561e-03  2.04118656e-09  6.25168917e-01                                 
 2.40454033e-09  6.77258673e-01  2.40454033e-09  6.23850246e-01  2.40454033e-09  1.86583864e+00  2.40454033e-09  1.80000000e+00  2.40454033e-09  6.84514135e-03  2.40454033e-09  6.23850246e-01                                 
 2.93346287e-09  6.75195332e-01  2.93346287e-09  6.22030311e-01  2.93346287e-09  1.86917940e+00  2.93346287e-09  1.80000000e+00  2.93346287e-09 -6.54432531e-03  2.93346287e-09  6.22030311e-01                                 
 3.60926078e-09  6.72752995e-01  3.60926078e-09  6.19858362e-01  3.60926078e-09  1.86843915e+00  3.60926078e-09  1.80000000e+00  3.60926078e-09  6.38591305e-03  3.60926078e-09  6.19858362e-01                                 
 4.75406725e-09  6.69026555e-01  4.75406725e-09  6.16509850e-01  4.75406725e-09  1.86472939e+00  4.75406725e-09  1.80000000e+00  4.75406725e-09 -6.24819573e-03  4.75406725e-09  6.16509850e-01                                 
 6.57132237e-09  6.63940250e-01  6.57132237e-09  6.11876175e-01  6.57132237e-09  1.86020706e+00  6.57132237e-09  1.80000000e+00  6.57132237e-09  6.20469793e-03  6.57132237e-09  6.11876175e-01                                 
 1.02058326e-08  6.55823970e-01  1.02058326e-08  6.04350824e-01  1.02058326e-08  1.85244842e+00  1.02058326e-08  1.80000000e+00  1.02058326e-08 -6.14226914e-03  1.02058326e-08  6.04350824e-01                                 
 1.31020670e-08  6.50749374e-01  1.31020670e-08  5.99562862e-01  1.31020670e-08  1.84805959e+00  1.31020670e-08  1.80000000e+00  1.31020670e-08  6.12816934e-03  1.31020670e-08  5.99562862e-01                                 
 1.50040185e-08  6.47870973e-01  1.50040185e-08  5.96823245e-01  1.50040185e-08  1.84516407e+00  1.50040185e-08  1.80000000e+00  1.50040185e-08 -6.03964023e-03  1.50040185e-08  5.96823245e-01                                 
 1.64460508e-08  6.45874754e-01  1.64460508e-08  5.94914334e-01  1.64460508e-08  1.84361451e+00  1.64460508e-08  1.80000000e+00  1.64460508e-08  5.98022167e-03  1.64460508e-08  5.94914334e-01                                 
 1.82394263e-08  6.43578251e-01  1.82394263e-08  5.92709982e-01  1.82394263e-08  1.84120618e+00  1.82394263e-08  1.80000000e+00  1.82394263e-08 -5.89166732e-03  1.82394263e-08  5.92709982e-01                                 
 2.03968581e-08  6.41047967e-01  2.03968581e-08  5.90271562e-01  2.03968581e-08  1.83902903e+00  2.03968581e-08  1.80000000e+00  2.03968581e-08  5.85957822e-03  2.03968581e-08  5.90271562e-01                                 
 2.30855797e-08  6.38189319e-01  2.30855797e-08  5.87505411e-01  2.30855797e-08  1.83577192e+00  2.30855797e-08  1.80000000e+00  2.30855797e-08 -5.79471408e-03  2.30855797e-08  5.87505411e-01                                 
 2.68987688e-08  6.34582100e-01  2.68987688e-08  5.83999811e-01  2.68987688e-08  1.83171971e+00  2.68987688e-08  1.80000000e+00  2.68987688e-08  5.78613472e-03  2.68987688e-08  5.83999811e-01                                 
 3.09419945e-08  6.31208247e-01  3.09419945e-08  5.80708105e-01  3.09419945e-08  1.82636549e+00  3.09419945e-08  1.80000000e+00  3.09419945e-08 -5.73625807e-03  3.09419945e-08  5.80708105e-01                                 
 3.90284459e-08  6.25379550e-01  3.90284459e-08  5.75012367e-01  3.90284459e-08  1.81548330e+00  3.90284459e-08  1.80000000e+00  3.90284459e-08  5.74381320e-03  3.90284459e-08  5.75012367e-01                                 
 5.24252027e-08  6.16989674e-01  5.24252027e-08  5.66915921e-01  5.24252027e-08  1.80013003e+00  5.24252027e-08  1.80000000e+00  5.24252027e-08 -5.71319266e-03  5.24252027e-08  5.66915921e-01                                 
 6.83536653e-08  6.08580377e-01  6.83536653e-08  5.58894075e-01  6.83536653e-08  1.78617596e+00  6.83536653e-08  1.80000000e+00  6.83536653e-08  5.72878186e-03  6.83536653e-08  5.58894075e-01                                 
 8.32741428e-08  5.99492010e-01  8.32741428e-08  5.50668729e-01  8.32741428e-08  1.76221912e+00  8.32741428e-08  1.80000000e+00  8.32741428e-08 -5.69960283e-03  8.32741428e-08  5.50668729e-01                                 
 1.01606068e-07  5.90531262e-01  1.01606068e-07  5.42526256e-01  1.01606068e-07  1.72763172e+00  1.01606068e-07  1.80000000e+00  1.01606068e-07  5.71512349e-03  1.01606068e-07  5.42526256e-01                                 
 1.22675867e-07  5.81736139e-01  1.22675867e-07  5.34574917e-01  1.22675867e-07  1.69099230e+00  1.22675867e-07  1.80000000e+00  1.22675867e-07 -5.68781139e-03  1.22675867e-07  5.34574917e-01                                 
 1.49009404e-07  5.76785810e-01  1.49009404e-07  5.29624250e-01  1.49009404e-07  1.65862746e+00  1.49009404e-07  1.80000000e+00  1.49009404e-07  5.70669391e-03  1.49009404e-07  5.29624250e-01                                 
 1.85206996e-07  5.80623377e-01  1.85206996e-07  5.31441886e-01  1.85206996e-07  1.64520464e+00  1.85206996e-07  1.80000000e+00  1.85206996e-07 -5.67882606e-03  1.85206996e-07  5.31441886e-01                                 
 2.08145369e-07  5.78439124e-01  2.08145369e-07  5.29035513e-01  2.08145369e-07  1.62197456e+00  2.08145369e-07  1.80000000e+00  2.08145369e-07  5.69749195e-03  2.08145369e-07  5.29035513e-01                                 
 2.31747492e-07  5.70860435e-01  2.31747492e-07  5.22417657e-01  2.31747492e-07  1.59025550e+00  2.31747492e-07  1.80000000e+00  2.31747492e-07 -5.67017820e-03  2.31747492e-07  5.22417657e-01                                 
 2.56308692e-07  5.64667620e-01  2.56308692e-07  5.16943640e-01  2.56308692e-07  1.55814007e+00  2.56308692e-07  1.80000000e+00  2.56308692e-07  5.68843940e-03  2.56308692e-07  5.16943640e-01                                 
 2.82884436e-07  5.58076439e-01  2.82884436e-07  5.11177663e-01  2.82884436e-07  1.52589196e+00  2.82884436e-07  1.80000000e+00  2.82884436e-07 -5.66140395e-03  2.82884436e-07  5.11177663e-01                                 
 3.28601061e-07  5.45966774e-01  3.28601061e-07  5.00794298e-01  3.28601061e-07  1.46721276e+00  3.28601061e-07  1.80000000e+00  3.28601061e-07  5.68173024e-03  3.28601061e-07  5.00794298e-01                                 
 3.91500876e-07  5.32972461e-01  3.91500876e-07  4.89646554e-01  3.91500876e-07  1.39160917e+00  3.91500876e-07  1.80000000e+00  3.91500876e-07 -5.65700586e-03  3.91500876e-07  4.89646554e-01                                 
 4.58366593e-07  5.07656410e-01  4.58366593e-07  4.68928012e-01  4.58366593e-07  1.29795517e+00  4.58366593e-07  1.80000000e+00  4.58366593e-07  5.67773921e-03  4.58366593e-07  4.68928012e-01                                 
 5.26345381e-07  4.83085561e-01  5.26345381e-07  4.49016634e-01  5.26345381e-07  1.20534818e+00  5.26345381e-07  1.80000000e+00  5.26345381e-07 -5.65366334e-03  5.26345381e-07  4.49016634e-01                                 
 6.00900345e-07  4.51579753e-01  6.00900345e-07  4.23719272e-01  6.00900345e-07  1.09596769e+00  6.00900345e-07  1.80000000e+00  6.00900345e-07  5.67447435e-03  6.00900345e-07  4.23719272e-01                                 
 6.16299477e-07  4.48167300e-01  6.16299477e-07  4.20990874e-01  6.16299477e-07  1.07725118e+00  6.16299477e-07  1.80000000e+00  6.16299477e-07  1.37686932e-06  6.16299477e-07  4.20990874e-01                                 
 6.47097742e-07  4.60736336e-01  6.47097742e-07  4.31061603e-01  6.47097742e-07  1.05732832e+00  6.47097742e-07  1.80000000e+00  6.47097742e-07 -1.85362867e-07  6.47097742e-07  4.31061603e-01                                 
 7.08694272e-07  7.33556109e-01  7.08694272e-07  6.76173043e-01  7.08694272e-07  1.25628751e+00  7.08694272e-07  1.80000000e+00  7.08694272e-07  1.70443914e-05  7.08694272e-07  6.76173043e-01                                 
 7.65029297e-07  7.95162670e-01  7.65029297e-07  7.33980607e-01  7.65029297e-07  1.26116856e+00  7.65029297e-07  1.80000000e+00  7.65029297e-07 -1.21032083e-05  7.65029297e-07  7.33980607e-01                                 
 8.24861490e-07  8.05949326e-01  8.24861490e-07  7.42903123e-01  8.24861490e-07  1.20499957e+00  8.24861490e-07  1.80000000e+00  8.24861490e-07  1.26035835e-05  8.24861490e-07  7.42903123e-01                                 
 8.72694800e-07  8.06380951e-01  8.72694800e-07  7.43306784e-01  8.72694800e-07  1.16057420e+00  8.72694800e-07  1.80000000e+00  8.72694800e-07 -1.25695931e-05  8.72694800e-07  7.43306784e-01                                 
 9.22660408e-07  7.93954674e-01  9.22660408e-07  7.32943362e-01  9.22660408e-07  1.09197573e+00  9.22660408e-07  1.80000000e+00  9.22660408e-07  1.11849475e-05  9.22660408e-07  7.32943362e-01                                 
 9.31972123e-07  7.88331265e-01  9.31972123e-07  7.28142638e-01  9.31972123e-07  1.07910855e+00  9.31972123e-07  1.80000000e+00  9.31972123e-07 -1.21918397e-06  9.31972123e-07  7.28142638e-01                                 
 9.50595553e-07  7.77127517e-01  9.50595553e-07  7.18230183e-01  9.50595553e-07  1.04950589e+00  9.50595553e-07  1.80000000e+00  9.50595553e-07 -1.56167716e-06  9.50595553e-07  7.18230183e-01                                 
 9.87842412e-07  7.67922174e-01  9.87842412e-07  7.09783727e-01  9.87842412e-07  1.00256004e+00  9.87842412e-07  1.80000000e+00  9.87842412e-07  3.48648186e-07  9.87842412e-07  7.09783727e-01                                 
 9.94624821e-07  7.69376555e-01  9.94624821e-07  7.11121955e-01  9.94624821e-07  9.97543415e-01  9.94624821e-07  1.80000000e+00  9.94624821e-07  4.75697816e-07  9.94624821e-07  7.11121955e-01                                 
 1.00818964e-06  7.73297364e-01  1.00818964e-06  7.14702698e-01  1.00818964e-06  9.88427049e-01  1.00818964e-06  1.80000000e+00  1.00818964e-06  8.03807344e-07  1.00818964e-06  7.14702698e-01                                 
 1.03531927e-06  7.81833342e-01  1.03531927e-06  7.22386145e-01  1.03531927e-06  9.71704370e-01  1.03531927e-06  1.80000000e+00  1.03531927e-06  6.22664284e-07  1.03531927e-06  7.22386145e-01                                 
 1.08957854e-06  7.89848881e-01  1.08957854e-06  7.29424882e-01  1.08957854e-06  9.34288282e-01  1.08957854e-06  1.80000000e+00  1.08957854e-06  1.55233117e-07  1.08957854e-06  7.29424882e-01                                 
 1.16537991e-06  7.82998419e-01  1.16537991e-06  7.23447179e-01  1.16537991e-06  8.75183301e-01  1.16537991e-06  1.80000000e+00  1.16537991e-06 -2.59520995e-07  1.16537991e-06  7.23447179e-01                                 
 1.26805252e-06  7.79202587e-01  1.26805252e-06  7.20047348e-01  1.26805252e-06  8.10264739e-01  1.26805252e-06  1.80000000e+00  1.26805252e-06  5.08819209e-07  1.26805252e-06  7.20047348e-01                                 
 1.36985437e-06  7.87948171e-01  1.36985437e-06  7.27777093e-01  1.36985437e-06  7.72097330e-01  1.36985437e-06  1.80000000e+00  1.36985437e-06  4.13192512e-07  1.36985437e-06  7.27777093e-01                                 
 1.51385618e-06  7.80497553e-01  1.51385618e-06  7.21220723e-01  1.51385618e-06  7.29124022e-01  1.51385618e-06  1.80000000e+00  1.51385618e-06  1.02242270e-07  1.51385618e-06  7.21220723e-01                                 
 1.66269094e-06  7.83464502e-01  1.66269094e-06  7.23837464e-01  1.66269094e-06  7.16964120e-01  1.66269094e-06  1.80000000e+00  1.66269094e-06  8.21993393e-07  1.66269094e-06  7.23837464e-01                                 
 1.82877403e-06  7.85336363e-01  1.82877403e-06  7.25502731e-01  1.82877403e-06  7.16168993e-01  1.82877403e-06  1.80000000e+00  1.82877403e-06  1.26867448e-07  1.82877403e-06  7.25502731e-01                                 
 1.85976686e-06  7.83013298e-01  1.85976686e-06  7.23452080e-01  1.85976686e-06  7.16764901e-01  1.85976686e-06  1.80000000e+00  1.85976686e-06  3.32267694e-07  1.85976686e-06  7.23452080e-01                                 
 1.92175253e-06  7.81993395e-01  1.92175253e-06  7.22541546e-01  1.92175253e-06  7.20846300e-01  1.92175253e-06  1.80000000e+00  1.92175253e-06  5.65465482e-07  1.92175253e-06  7.22541546e-01                                 
 2.04572387e-06  7.84722827e-01  2.04572387e-06  7.24955889e-01  2.04572387e-06  7.26088759e-01  2.04572387e-06  1.80000000e+00  2.04572387e-06  4.50020272e-07  2.04572387e-06  7.24955889e-01                                 
 2.22712232e-06  7.82526847e-01  2.22712232e-06  7.23018520e-01  2.22712232e-06  7.22582047e-01  2.22712232e-06  1.80000000e+00  2.22712232e-06  4.05279710e-07  2.22712232e-06  7.23018520e-01                                 
 2.45163895e-06  7.83819083e-01  2.45163895e-06  7.24157847e-01  2.45163895e-06  7.24504710e-01  2.45163895e-06  1.80000000e+00  2.45163895e-06  5.31338063e-07  2.45163895e-06  7.24157847e-01                                 
 2.74537876e-06  7.83380853e-01  2.74537876e-06  7.23775002e-01  2.74537876e-06  7.23770823e-01  2.74537876e-06  1.80000000e+00  2.74537876e-06  3.72514338e-07  2.74537876e-06  7.23775002e-01                                 
 3.31056663e-06  7.83281990e-01  3.31056663e-06  7.23683182e-01  3.31056663e-06  7.23840290e-01  3.31056663e-06  1.80000000e+00  3.31056663e-06  5.37591875e-07  3.31056663e-06  7.23683182e-01                                 
 4.17121668e-06  7.83659290e-01  4.17121668e-06  7.24020799e-01  4.17121668e-06  7.24092611e-01  4.17121668e-06  1.80000000e+00  4.17121668e-06  3.74882837e-07  4.17121668e-06  7.24020799e-01                                 
 5.17121668e-06  7.83088090e-01  5.17121668e-06  7.23511839e-01  5.17121668e-06  7.23624078e-01  5.17121668e-06  1.80000000e+00  5.17121668e-06  5.33451122e-07  5.17121668e-06  7.23511839e-01                                 
 6.17121668e-06  7.83823313e-01  6.17121668e-06  7.24165410e-01  6.17121668e-06  7.24271900e-01  6.17121668e-06  1.80000000e+00  6.17121668e-06  3.80304304e-07  6.17121668e-06  7.24165410e-01                                 
 7.17121668e-06  7.82936506e-01  7.17121668e-06  7.23377924e-01  7.17121668e-06  7.23461138e-01  7.17121668e-06  1.80000000e+00  7.17121668e-06  5.26686543e-07  7.17121668e-06  7.23377924e-01                                 
 8.17121668e-06  7.83957588e-01  8.17121668e-06  7.24283652e-01  8.17121668e-06  7.24414168e-01  8.17121668e-06  1.80000000e+00  8.17121668e-06  3.88281738e-07  8.17121668e-06  7.24283652e-01                                 
 9.17121668e-06  7.82814950e-01  9.17121668e-06  7.23270593e-01  9.17121668e-06  7.23334238e-01  9.17121668e-06  1.80000000e+00  9.17121668e-06  5.17626820e-07  9.17121668e-06  7.23270593e-01                                 
 1.00005000e-05  7.84068547e-01  1.00005000e-05  7.24381203e-01  1.00005000e-05  7.24528570e-01  1.00005000e-05  1.80000000e+00  1.00005000e-05  3.99403697e-07  1.00005000e-05  7.24381203e-01                                 
 1.00005500e-05  7.84067235e-01  1.00005500e-05  7.24380059e-01  1.00005500e-05  7.17513627e-01  1.00005500e-05  1.62000000e+00  1.00005500e-05 -1.15553234e-04  1.00005500e-05  7.24380059e-01                                 
 1.00006500e-05  7.84064661e-01  1.00006500e-05  7.24377786e-01  1.00006500e-05  7.07198989e-01  1.00006500e-05  1.26000000e+00  1.00006500e-05 -6.63348507e-05  1.00006500e-05  7.24377786e-01                                 
 1.00008500e-05  7.84059522e-01  1.00008500e-05  7.24373242e-01  1.00008500e-05  7.03821742e-01  1.00008500e-05  5.40000000e-01  1.00008500e-05 -2.48720872e-03  1.00008500e-05  7.24373242e-01                                 
 1.00010000e-05  7.84055641e-01  1.00010000e-05  7.24369821e-01  1.00010000e-05  7.34198712e-01  1.00010000e-05  0.00000000e+00  1.00010000e-05  1.50470510e+00  1.00010000e-05  7.24369821e-01                                 
 1.00010260e-05  7.84054974e-01  1.00010260e-05  7.24369230e-01  1.00010260e-05  7.50751208e-01  1.00010260e-05  0.00000000e+00  1.00010260e-05  1.69016049e+00  1.00010260e-05  7.24369230e-01                                 
