 time            v(vbep)         time            v(vben)         time            v(vout)         time            v(vphi1)        time            v(vphi2)        time            v(vref)         yes             currtemp       
 0.00000000e+00  6.50147076e-01  0.00000000e+00  5.90133985e-01  0.00000000e+00  1.04962344e+00  0.00000000e+00  0.00000000e+00  0.00000000e+00  1.79992602e+00  0.00000000e+00  5.00000000e-01  1.00000000e+00  5.50000000e+01 
 5.00000000e-12  6.50099878e-01  5.00000000e-12  5.90095428e-01  5.00000000e-12  1.05038906e+00  5.00000000e-12  1.80000000e-02  5.00000000e-12  1.80003730e+00  5.00000000e-12  5.00000000e-01                                 
 1.00000000e-11  6.50054821e-01  1.00000000e-11  5.90058248e-01  1.00000000e-11  1.05108517e+00  1.00000000e-11  3.60000000e-02  1.00000000e-11  1.80009878e+00  1.00000000e-11  5.00000000e-01                                 
 2.00000000e-11  6.49966177e-01  2.00000000e-11  5.89984293e-01  2.00000000e-11  1.05236991e+00  2.00000000e-11  7.20000000e-02  2.00000000e-11  1.80016088e+00  2.00000000e-11  5.00000000e-01                                 
 4.00000000e-11  6.49791431e-01  4.00000000e-11  5.89837194e-01  4.00000000e-11  1.05444084e+00  4.00000000e-11  1.44000000e-01  4.00000000e-11  1.80014254e+00  4.00000000e-11  5.00000000e-01                                 
 8.00000000e-11  6.49444250e-01  8.00000000e-11  5.89544842e-01  8.00000000e-11  1.05726821e+00  8.00000000e-11  2.88000000e-01  8.00000000e-11  1.80007995e+00  8.00000000e-11  5.00000000e-01                                 
 1.60000000e-10  6.48760104e-01  1.60000000e-10  5.88967468e-01  1.60000000e-10  1.05998692e+00  1.60000000e-10  5.76000000e-01  1.60000000e-10  1.80001669e+00  1.60000000e-10  5.00000000e-01                                 
 3.20000000e-10  6.47429551e-01  3.20000000e-10  5.87840754e-01  3.20000000e-10  1.05426145e+00  3.20000000e-10  1.15200000e+00  3.20000000e-10  1.80041596e+00  3.20000000e-10  5.00000000e-01                                 
 5.00000000e-10  6.45990332e-01  5.00000000e-10  5.86615885e-01  5.00000000e-10  1.20870783e+00  5.00000000e-10  1.80000000e+00  5.00000000e-10  1.24736952e-01  5.00000000e-10  5.00000000e-01                                 
 5.21849350e-10  6.45820073e-01  5.21849350e-10  5.86470538e-01  5.21849350e-10  1.24569301e+00  5.21849350e-10  1.80000000e+00  5.21849350e-10  2.54383091e-02  5.21849350e-10  5.00000000e-01                                 
 5.65548049e-10  6.45481137e-01  5.65548049e-10  5.86180987e-01  5.65548049e-10  1.31422784e+00  5.65548049e-10  1.80000000e+00  5.65548049e-10 -1.17197666e-02  5.65548049e-10  5.00000000e-01                                 
 6.52945447e-10  6.44812912e-01  6.52945447e-10  5.85609138e-01  6.52945447e-10  1.42926091e+00  6.52945447e-10  1.80000000e+00  6.52945447e-10  9.65068419e-03  6.52945447e-10  5.00000000e-01                                 
 7.75082159e-10  6.43899995e-01  7.75082159e-10  5.84825745e-01  7.75082159e-10  1.56027922e+00  7.75082159e-10  1.80000000e+00  7.75082159e-10 -8.31649016e-03  7.75082159e-10  5.00000000e-01                                 
 9.68491197e-10  6.42501515e-01  9.68491197e-10  5.83620954e-01  9.68491197e-10  1.71493265e+00  9.68491197e-10  1.80000000e+00  9.68491197e-10  7.77284004e-03  9.68491197e-10  5.00000000e-01                                 
 1.35530927e-09  6.39862138e-01  1.35530927e-09  5.81331988e-01  1.35530927e-09  1.88777413e+00  1.35530927e-09  1.80000000e+00  1.35530927e-09 -7.32757447e-03  1.35530927e-09  5.00000000e-01                                 
 1.62915591e-09  6.38111098e-01  1.62915591e-09  5.79802102e-01  1.62915591e-09  1.93746186e+00  1.62915591e-09  1.80000000e+00  1.62915591e-09  7.01521592e-03  1.62915591e-09  5.00000000e-01                                 
 1.98024281e-09  6.35990867e-01  1.98024281e-09  5.77938151e-01  1.98024281e-09  1.96387678e+00  1.98024281e-09  1.80000000e+00  1.98024281e-09 -6.62277828e-03  1.98024281e-09  5.00000000e-01                                 
 2.29844393e-09  6.34179105e-01  2.29844393e-09  5.76335462e-01  2.29844393e-09  1.97164657e+00  2.29844393e-09  1.80000000e+00  2.29844393e-09  6.36730328e-03  2.29844393e-09  5.00000000e-01                                 
 2.85295178e-09  6.31237899e-01  2.85295178e-09  5.73715281e-01  2.85295178e-09  1.97396047e+00  2.85295178e-09  1.80000000e+00  2.85295178e-09 -6.13147470e-03  2.85295178e-09  5.00000000e-01                                 
 3.47440164e-09  6.28226917e-01  3.47440164e-09  5.71009553e-01  3.47440164e-09  1.97181483e+00  3.47440164e-09  1.80000000e+00  3.47440164e-09  6.02733533e-03  3.47440164e-09  5.00000000e-01                                 
 4.68920817e-09  6.23027749e-01  4.68920817e-09  5.66286894e-01  4.68920817e-09  1.96679277e+00  4.68920817e-09  1.80000000e+00  4.68920817e-09 -5.90614346e-03  4.68920817e-09  5.00000000e-01                                 
 6.41012871e-09  6.16854358e-01  6.41012871e-09  5.60599284e-01  6.41012871e-09  1.96089768e+00  6.41012871e-09  1.80000000e+00  6.41012871e-09  5.89846351e-03  6.41012871e-09  5.00000000e-01                                 
 9.41511271e-09  6.08291056e-01  9.41511271e-09  5.52584232e-01  9.41511271e-09  1.95277285e+00  9.41511271e-09  1.80000000e+00  9.41511271e-09 -5.82078051e-03  9.41511271e-09  5.00000000e-01                                 
 1.08173921e-08  6.05022619e-01  1.08173921e-08  5.49484771e-01  1.08173921e-08  1.94976158e+00  1.08173921e-08  1.80000000e+00  1.08173921e-08  5.79310960e-03  1.08173921e-08  5.00000000e-01                                 
 1.19509812e-08  6.02617204e-01  1.19509812e-08  5.47192162e-01  1.19509812e-08  1.94748954e+00  1.19509812e-08  1.80000000e+00  1.19509812e-08 -5.67905333e-03  1.19509812e-08  5.00000000e-01                                 
 1.33089878e-08  5.99966143e-01  1.33089878e-08  5.44654982e-01  1.33089878e-08  1.94509660e+00  1.33089878e-08  1.80000000e+00  1.33089878e-08  5.64507674e-03  1.33089878e-08  5.00000000e-01                                 
 1.54968881e-08  5.96128191e-01  1.54968881e-08  5.40963802e-01  1.54968881e-08  1.94154514e+00  1.54968881e-08  1.80000000e+00  1.54968881e-08 -5.57444082e-03  1.54968881e-08  5.00000000e-01                                 
 1.81334989e-08  5.92076471e-01  1.81334989e-08  5.37044773e-01  1.81334989e-08  1.93793496e+00  1.81334989e-08  1.80000000e+00  1.81334989e-08  5.57038005e-03  1.81334989e-08  5.00000000e-01                                 
 2.16520867e-08  5.87411811e-01  2.16520867e-08  5.32506385e-01  2.16520867e-08  1.93373359e+00  2.16520867e-08  1.80000000e+00  2.16520867e-08 -5.51673779e-03  2.16520867e-08  5.00000000e-01                                 
 2.63260035e-08  5.82197119e-01  2.63260035e-08  5.27398890e-01  2.63260035e-08  1.92921562e+00  2.63260035e-08  1.80000000e+00  2.63260035e-08  5.52697221e-03  2.63260035e-08  5.00000000e-01                                 
 3.41471806e-08  5.75118808e-01  3.41471806e-08  5.20422047e-01  3.41471806e-08  1.92316782e+00  3.41471806e-08  1.80000000e+00  3.41471806e-08 -5.48708423e-03  3.41471806e-08  5.00000000e-01                                 
 4.73416961e-08  5.65982331e-01  4.73416961e-08  5.11368868e-01  4.73416961e-08  1.91564326e+00  4.73416961e-08  1.80000000e+00  4.73416961e-08  5.50958369e-03  4.73416961e-08  5.00000000e-01                                 
 6.47159297e-08  5.57107865e-01  6.47159297e-08  5.02533002e-01  6.47159297e-08  1.90852964e+00  6.47159297e-08  1.80000000e+00  6.47159297e-08 -5.47543750e-03  6.47159297e-08  5.00000000e-01                                 
 8.84870290e-08  5.48177214e-01  8.84870290e-08  4.93598141e-01  8.84870290e-08  1.89650828e+00  8.84870290e-08  1.80000000e+00  8.84870290e-08  5.50115419e-03  8.84870290e-08  5.00000000e-01                                 
 1.10692708e-07  5.40641986e-01  1.10692708e-07  4.86284484e-01  1.10692708e-07  1.87706186e+00  1.10692708e-07  1.80000000e+00  1.10692708e-07 -5.46797915e-03  1.10692708e-07  5.00000000e-01                                 
 1.36793784e-07  5.28324017e-01  1.36793784e-07  4.75258158e-01  1.36793784e-07  1.84321533e+00  1.36793784e-07  1.80000000e+00  1.36793784e-07  5.49388859e-03  1.36793784e-07  5.00000000e-01                                 
 1.61365257e-07  5.17568319e-01  1.61365257e-07  4.65759752e-01  1.61365257e-07  1.79725690e+00  1.61365257e-07  1.80000000e+00  1.61365257e-07 -5.46127214e-03  1.61365257e-07  5.00000000e-01                                 
 1.86787378e-07  5.08689099e-01  1.86787378e-07  4.57877764e-01  1.86787378e-07  1.75432416e+00  1.86787378e-07  1.80000000e+00  1.86787378e-07  5.48719838e-03  1.86787378e-07  5.00000000e-01                                 
 2.13938541e-07  5.11108526e-01  2.13938541e-07  4.58979288e-01  2.13938541e-07  1.74350299e+00  2.13938541e-07  1.80000000e+00  2.13938541e-07 -5.45439746e-03  2.13938541e-07  5.00000000e-01                                 
 2.37218389e-07  5.13683729e-01  2.37218389e-07  4.60368634e-01  2.37218389e-07  1.72707659e+00  2.37218389e-07  1.80000000e+00  2.37218389e-07  5.48039521e-03  2.37218389e-07  5.00000000e-01                                 
 2.62441255e-07  5.09702589e-01  2.62441255e-07  4.56575720e-01  2.62441255e-07  1.69586569e+00  2.62441255e-07  1.80000000e+00  2.62441255e-07 -5.44769852e-03  2.62441255e-07  5.00000000e-01                                 
 2.86654882e-07  5.06802805e-01  2.86654882e-07  4.53719777e-01  2.86654882e-07  1.66980522e+00  2.86654882e-07  1.80000000e+00  2.86654882e-07  5.47354524e-03  2.86654882e-07  5.00000000e-01                                 
 3.09288467e-07  5.01919330e-01  3.09288467e-07  4.49373351e-01  3.09288467e-07  1.64189754e+00  3.09288467e-07  1.80000000e+00  3.09288467e-07 -5.44061478e-03  3.09288467e-07  5.00000000e-01                                 
 3.53438537e-07  4.91013434e-01  3.53438537e-07  4.39912892e-01  3.53438537e-07  1.58663006e+00  3.53438537e-07  1.80000000e+00  3.53438537e-07  5.46784386e-03  3.53438537e-07  5.00000000e-01                                 
 4.06211002e-07  4.78412880e-01  4.06211002e-07  4.29118342e-01  4.06211002e-07  1.51950413e+00  4.06211002e-07  1.80000000e+00  4.06211002e-07 -5.43708587e-03  4.06211002e-07  5.00000000e-01                                 
 5.10863221e-07  4.54195449e-01  5.10863221e-07  4.08728863e-01  5.10863221e-07  1.38634594e+00  5.10863221e-07  1.80000000e+00  5.10863221e-07  5.46544787e-03  5.10863221e-07  5.00000000e-01                                 
 5.31723762e-07  4.46864293e-01  5.31723762e-07  4.02743854e-01  5.31723762e-07  1.35698822e+00  5.31723762e-07  1.80000000e+00  5.31723762e-07  3.17214976e-06  5.31723762e-07  5.00000000e-01                                 
 5.73444844e-07  4.31356116e-01  5.73444844e-07  3.90131152e-01  5.73444844e-07  1.29767407e+00  5.73444844e-07  1.80000000e+00  5.73444844e-07  1.07362356e-06  5.73444844e-07  5.00000000e-01                                 
 6.56887007e-07  3.96469134e-01  6.56887007e-07  3.61980107e-01  6.56887007e-07  1.17508866e+00  6.56887007e-07  1.80000000e+00  6.56887007e-07  3.13438469e-06  6.56887007e-07  5.00000000e-01                                 
 6.77747548e-07  3.87637078e-01  6.77747548e-07  3.54890132e-01  6.77747548e-07  1.14436780e+00  6.77747548e-07  1.80000000e+00  6.77747548e-07  2.10494798e-06  6.77747548e-07  5.00000000e-01                                 
 7.19468630e-07  3.81170251e-01  7.19468630e-07  3.49705141e-01  7.19468630e-07  1.09399515e+00  7.19468630e-07  1.80000000e+00  7.19468630e-07  2.35250925e-06  7.19468630e-07  5.00000000e-01                                 
 7.29898900e-07  3.87550246e-01  7.29898900e-07  3.54827874e-01  7.29898900e-07  1.08920880e+00  7.29898900e-07  1.80000000e+00  7.29898900e-07  2.57990438e-06  7.29898900e-07  5.00000000e-01                                 
 7.50759441e-07  4.18393052e-01  7.50759441e-07  3.79556046e-01  7.50759441e-07  1.09693195e+00  7.50759441e-07  1.80000000e+00  7.50759441e-07  3.38820757e-06  7.50759441e-07  5.00000000e-01                                 
 7.81620663e-07  5.99689849e-01  7.81620663e-07  5.30610733e-01  7.81620663e-07  1.23791185e+00  7.81620663e-07  1.80000000e+00  7.81620663e-07  7.27443724e-06  7.81620663e-07  5.00000000e-01                                 
 8.10472183e-07  7.01136772e-01  8.10472183e-07  6.38011091e-01  8.10472183e-07  1.30684593e+00  8.10472183e-07  1.80000000e+00  8.10472183e-07  2.51152743e-06  8.10472183e-07  5.00000000e-01                                 
 8.36751908e-07  7.42345104e-01  8.36751908e-07  6.76965792e-01  8.36751908e-07  1.31626631e+00  8.36751908e-07  1.80000000e+00  8.36751908e-07  4.40457349e-06  8.36751908e-07  5.00000000e-01                                 
 8.69175557e-07  7.67155163e-01  8.69175557e-07  6.97498052e-01  8.69175557e-07  1.30734246e+00  8.69175557e-07  1.80000000e+00  8.69175557e-07  1.46674898e-06  8.69175557e-07  5.00000000e-01                                 
 9.00695195e-07  7.67210954e-01  9.00695195e-07  6.97757786e-01  9.00695195e-07  1.27195709e+00  9.00695195e-07  1.80000000e+00  9.00695195e-07  3.10167411e-06  9.00695195e-07  5.00000000e-01                                 
 9.43275311e-07  7.67414334e-01  9.43275311e-07  6.97718613e-01  9.43275311e-07  1.22827403e+00  9.43275311e-07  1.80000000e+00  9.43275311e-07  1.53971697e-06  9.43275311e-07  5.00000000e-01                                 
 9.81737938e-07  7.66214006e-01  9.81737938e-07  6.96954317e-01  9.81737938e-07  1.18430744e+00  9.81737938e-07  1.80000000e+00  9.81737938e-07  2.99196081e-06  9.81737938e-07  5.00000000e-01                                 
 1.02838572e-06  7.43973731e-01  1.02838572e-06  6.78178726e-01  1.02838572e-06  1.11538469e+00  1.02838572e-06  1.80000000e+00  1.02838572e-06  9.37116176e-07  1.02838572e-06  5.00000000e-01                                 
 1.07758197e-06  7.13631287e-01  1.07758197e-06  6.51144691e-01  1.07758197e-06  1.03459235e+00  1.07758197e-06  1.80000000e+00  1.07758197e-06  2.71837368e-06  1.07758197e-06  5.00000000e-01                                 
 1.08383148e-06  7.14809796e-01  1.08383148e-06  6.51951806e-01  1.08383148e-06  1.03018946e+00  1.08383148e-06  1.80000000e+00  1.08383148e-06  2.41753057e-06  1.08383148e-06  5.00000000e-01                                 
 1.09633052e-06  7.19124613e-01  1.09633052e-06  6.55876209e-01  1.09633052e-06  1.02238997e+00  1.09633052e-06  1.80000000e+00  1.09633052e-06  2.65406764e-06  1.09633052e-06  5.00000000e-01                                 
 1.12132859e-06  7.33315301e-01  1.12132859e-06  6.68853233e-01  1.12132859e-06  1.01226525e+00  1.12132859e-06  1.80000000e+00  1.12132859e-06  2.80173751e-06  1.12132859e-06  5.00000000e-01                                 
 1.16429986e-06  7.48519573e-01  1.16429986e-06  6.82169844e-01  1.16429986e-06  9.88432122e-01  1.16429986e-06  1.80000000e+00  1.16429986e-06  2.35709322e-06  1.16429986e-06  5.00000000e-01                                 
 1.21170245e-06  7.52436873e-01  1.21170245e-06  6.85518453e-01  1.21170245e-06  9.53734715e-01  1.21170245e-06  1.80000000e+00  1.21170245e-06  2.38005694e-06  1.21170245e-06  5.00000000e-01                                 
 1.28719662e-06  7.39011402e-01  1.28719662e-06  6.73945471e-01  1.28719662e-06  8.89685953e-01  1.28719662e-06  1.80000000e+00  1.28719662e-06  1.96739202e-06  1.28719662e-06  5.00000000e-01                                 
 1.36652197e-06  7.37444272e-01  1.36652197e-06  6.72539149e-01  1.36652197e-06  8.38658099e-01  1.36652197e-06  1.80000000e+00  1.36652197e-06  2.59859740e-06  1.36652197e-06  5.00000000e-01                                 
 1.45275829e-06  7.50390942e-01  1.45275829e-06  6.83775942e-01  1.45275829e-06  7.98587369e-01  1.45275829e-06  1.80000000e+00  1.45275829e-06  2.23962915e-06  1.45275829e-06  5.00000000e-01                                 
 1.55811236e-06  7.39287536e-01  1.55811236e-06  6.74194859e-01  1.55811236e-06  7.28317295e-01  1.55811236e-06  1.80000000e+00  1.55811236e-06  2.21068651e-06  1.55811236e-06  5.00000000e-01                                 
 1.66504508e-06  7.41415758e-01  1.66504508e-06  6.76023530e-01  1.66504508e-06  6.72196913e-01  1.66504508e-06  1.80000000e+00  1.66504508e-06  2.41969858e-06  1.66504508e-06  5.00000000e-01                                 
 1.78797703e-06  7.47365718e-01  1.78797703e-06  6.81210089e-01  1.78797703e-06  6.13350007e-01  1.78797703e-06  1.80000000e+00  1.78797703e-06  2.26446721e-06  1.78797703e-06  5.00000000e-01                                 
 1.97516336e-06  7.38435701e-01  1.97516336e-06  6.73416162e-01  1.97516336e-06  5.31411869e-01  1.97516336e-06  1.80000000e+00  1.97516336e-06  2.27023843e-06  1.97516336e-06  5.00000000e-01                                 
 2.17230707e-06  7.46505396e-01  2.17230707e-06  6.80461831e-01  2.17230707e-06  5.00568752e-01  2.17230707e-06  1.80000000e+00  2.17230707e-06  2.39967765e-06  2.17230707e-06  5.00000000e-01                                 
 2.36849958e-06  7.41005962e-01  2.36849958e-06  6.75683723e-01  2.36849958e-06  4.84977306e-01  2.36849958e-06  1.80000000e+00  2.36849958e-06  2.16583341e-06  2.36849958e-06  5.00000000e-01                                 
 2.39374460e-06  7.40987154e-01  2.39374460e-06  6.75668078e-01  2.39374460e-06  4.86772394e-01  2.39374460e-06  1.80000000e+00  2.39374460e-06  2.30231492e-06  2.39374460e-06  5.00000000e-01                                 
 2.44423464e-06  7.42756928e-01  2.44423464e-06  6.77209968e-01  2.44423464e-06  4.94965365e-01  2.44423464e-06  1.80000000e+00  2.44423464e-06  2.35958614e-06  2.44423464e-06  5.00000000e-01                                 
 2.54521473e-06  7.44422764e-01  2.54521473e-06  6.78662170e-01  2.54521473e-06  5.03266696e-01  2.54521473e-06  1.80000000e+00  2.54521473e-06  2.26877368e-06  2.54521473e-06  5.00000000e-01                                 
 2.66630245e-06  7.41960499e-01  2.66630245e-06  6.76519578e-01  2.66630245e-06  4.98339402e-01  2.66630245e-06  1.80000000e+00  2.66630245e-06  2.30620404e-06  2.66630245e-06  5.00000000e-01                                 
 2.81928368e-06  7.43808143e-01  2.81928368e-06  6.78125808e-01  2.81928368e-06  5.01040352e-01  2.81928368e-06  1.80000000e+00  2.81928368e-06  2.31833059e-06  2.81928368e-06  5.00000000e-01                                 
 3.09817695e-06  7.42820123e-01  3.09817695e-06  6.77270885e-01  3.09817695e-06  4.99866485e-01  3.09817695e-06  1.80000000e+00  3.09817695e-06  2.28223085e-06  3.09817695e-06  5.00000000e-01                                 
 3.46960674e-06  7.43223121e-01  3.46960674e-06  6.77617089e-01  3.46960674e-06  5.00241293e-01  3.46960674e-06  1.80000000e+00  3.46960674e-06  2.32538347e-06  3.46960674e-06  5.00000000e-01                                 
 4.20315820e-06  7.43195140e-01  4.20315820e-06  6.77597085e-01  4.20315820e-06  5.00321015e-01  4.20315820e-06  1.80000000e+00  4.20315820e-06  2.28055226e-06  4.20315820e-06  5.00000000e-01                                 
 5.20315820e-06  7.43014770e-01  5.20315820e-06  6.77435857e-01  5.20315820e-06  4.99999471e-01  5.20315820e-06  1.80000000e+00  5.20315820e-06  2.32513873e-06  5.20315820e-06  5.00000000e-01                                 
 6.20315820e-06  7.43358998e-01  6.20315820e-06  6.77739473e-01  6.20315820e-06  5.00513858e-01  6.20315820e-06  1.80000000e+00  6.20315820e-06  2.28137755e-06  6.20315820e-06  5.00000000e-01                                 
 7.20315820e-06  7.42861281e-01  7.20315820e-06  6.77302362e-01  7.20315820e-06  4.99820223e-01  7.20315820e-06  1.80000000e+00  7.20315820e-06  2.32382958e-06  7.20315820e-06  5.00000000e-01                                 
