 time            v(vbep)         time            v(vben)         time            v(vout)         time            v(vphi1)        time            v(vphi2)        time            v(vref)         yes             currtemp       
 0.00000000e+00  8.80842951e-01  0.00000000e+00  8.35746704e-01  0.00000000e+00  7.44657847e-01  0.00000000e+00  0.00000000e+00  0.00000000e+00  1.80000000e+00  0.00000000e+00  5.00000000e-01  1.00000000e+00 -4.00000000e+01 
 5.00000000e-12  8.80842978e-01  5.00000000e-12  8.35746716e-01  5.00000000e-12  7.45212266e-01  5.00000000e-12  1.80000000e-02  5.00000000e-12  1.80007377e+00  5.00000000e-12  5.00000000e-01                                 
 1.00000000e-11  8.80842991e-01  1.00000000e-11  8.35746721e-01  1.00000000e-11  7.45686307e-01  1.00000000e-11  3.60000000e-02  1.00000000e-11  1.80010414e+00  1.00000000e-11  5.00000000e-01                                 
 2.00000000e-11  8.80843004e-01  2.00000000e-11  8.35746728e-01  2.00000000e-11  7.46494563e-01  2.00000000e-11  7.20000000e-02  2.00000000e-11  1.80012155e+00  2.00000000e-11  5.00000000e-01                                 
 4.00000000e-11  8.80842998e-01  4.00000000e-11  8.35746733e-01  4.00000000e-11  7.47551248e-01  4.00000000e-11  1.44000000e-01  4.00000000e-11  1.80007707e+00  4.00000000e-11  5.00000000e-01                                 
 8.00000000e-11  8.80842975e-01  8.00000000e-11  8.35746729e-01  8.00000000e-11  7.48564558e-01  8.00000000e-11  2.88000000e-01  8.00000000e-11  1.80001877e+00  8.00000000e-11  5.00000000e-01                                 
 1.60000000e-10  8.80842951e-01  1.60000000e-10  8.35746712e-01  1.60000000e-10  7.49585437e-01  1.60000000e-10  5.76000000e-01  1.60000000e-10  1.80000169e+00  1.60000000e-10  5.00000000e-01                                 
 3.20000000e-10  8.80842817e-01  3.20000000e-10  8.35746613e-01  3.20000000e-10  7.38723963e-01  3.20000000e-10  1.15200000e+00  3.20000000e-10  1.80025407e+00  3.20000000e-10  5.00000000e-01                                 
 5.00000000e-10  8.80843607e-01  5.00000000e-10  8.35747118e-01  5.00000000e-10  8.64675770e-01  5.00000000e-10  1.80000000e+00  5.00000000e-10  8.34592021e-02  5.00000000e-10  5.00000000e-01                                 
 5.20199921e-10  8.80843409e-01  5.20199921e-10  8.35747061e-01  5.20199921e-10  8.88135903e-01  5.20199921e-10  1.80000000e+00  5.20199921e-10  1.38305935e-02  5.20199921e-10  5.00000000e-01                                 
 5.60599762e-10  8.80843044e-01  5.60599762e-10  8.35746910e-01  5.60599762e-10  9.25648823e-01  5.60599762e-10  1.80000000e+00  5.60599762e-10 -6.38396140e-03  5.60599762e-10  5.00000000e-01                                 
 6.41399444e-10  8.80842620e-01  6.41399444e-10  8.35746554e-01  6.41399444e-10  9.68592371e-01  6.41399444e-10  1.80000000e+00  6.41399444e-10  5.84176160e-03  6.41399444e-10  5.00000000e-01                                 
 7.66425086e-10  8.80842305e-01  7.66425086e-10  8.35746199e-01  7.66425086e-10  1.00594093e+00  7.66425086e-10  1.80000000e+00  7.66425086e-10 -5.15861254e-03  7.66425086e-10  5.00000000e-01                                 
 9.51651644e-10  8.80842392e-01  9.51651644e-10  8.35746188e-01  9.51651644e-10  1.03958510e+00  9.51651644e-10  1.80000000e+00  9.51651644e-10  4.96540840e-03  9.51651644e-10  5.00000000e-01                                 
 1.32210476e-09  8.80843256e-01  1.32210476e-09  8.35746886e-01  1.32210476e-09  1.08544716e+00  1.32210476e-09  1.80000000e+00  1.32210476e-09 -4.76176089e-03  1.32210476e-09  5.00000000e-01                                 
 1.83555687e-09  8.80844039e-01  1.83555687e-09  8.35747639e-01  1.83555687e-09  1.13086490e+00  1.83555687e-09  1.80000000e+00  1.83555687e-09  4.70576516e-03  1.83555687e-09  5.00000000e-01                                 
 2.68937033e-09  8.80842447e-01  2.68937033e-09  8.35746372e-01  2.68937033e-09  1.18369042e+00  2.68937033e-09  1.80000000e+00  2.68937033e-09 -4.60291996e-03  2.68937033e-09  5.00000000e-01                                 
 3.99967114e-09  8.80841146e-01  3.99967114e-09  8.35745077e-01  3.99967114e-09  1.22643942e+00  3.99967114e-09  1.80000000e+00  3.99967114e-09  4.60941188e-03  3.99967114e-09  5.00000000e-01                                 
 5.26760315e-09  8.80852539e-01  5.26760315e-09  8.35754787e-01  5.26760315e-09  1.24263040e+00  5.26760315e-09  1.80000000e+00  5.26760315e-09 -4.53060321e-03  5.26760315e-09  5.00000000e-01                                 
 6.78619400e-09  8.80886360e-01  6.78619400e-09  8.35784770e-01  6.78619400e-09  1.24971324e+00  6.78619400e-09  1.80000000e+00  6.78619400e-09  4.53221881e-03  6.78619400e-09  5.00000000e-01                                 
 8.79283519e-09  8.80941370e-01  8.79283519e-09  8.35834704e-01  8.79283519e-09  1.25081621e+00  8.79283519e-09  1.80000000e+00  8.79283519e-09 -4.47813378e-03  8.79283519e-09  5.00000000e-01                                 
 1.17751216e-08  8.81001200e-01  1.17751216e-08  8.35889897e-01  1.17751216e-08  1.24682415e+00  1.17751216e-08  1.80000000e+00  1.17751216e-08  4.48736655e-03  1.17751216e-08  5.00000000e-01                                 
 1.55850799e-08  8.81022006e-01  1.55850799e-08  8.35909859e-01  1.55850799e-08  1.24060501e+00  1.55850799e-08  1.80000000e+00  1.55850799e-08 -4.45089262e-03  1.55850799e-08  5.00000000e-01                                 
 2.24021038e-08  8.80987412e-01  2.24021038e-08  8.35878794e-01  2.24021038e-08  1.23158658e+00  2.24021038e-08  1.80000000e+00  2.24021038e-08  4.46591283e-03  2.24021038e-08  5.00000000e-01                                 
 3.20337116e-08  8.80922809e-01  3.20337116e-08  8.35819797e-01  3.20337116e-08  1.22122118e+00  3.20337116e-08  1.80000000e+00  3.20337116e-08 -4.43925685e-03  3.20337116e-08  5.00000000e-01                                 
 4.89487238e-08  8.80845550e-01  4.89487238e-08  8.35749292e-01  4.89487238e-08  1.20383649e+00  4.89487238e-08  1.80000000e+00  4.89487238e-08  4.45764372e-03  4.89487238e-08  5.00000000e-01                                 
 7.54770058e-08  8.80793943e-01  7.54770058e-08  8.35702065e-01  7.54770058e-08  1.17809349e+00  7.54770058e-08  1.80000000e+00  7.54770058e-08 -4.43451985e-03  7.54770058e-08  5.00000000e-01                                 
 1.10455513e-07  8.80781549e-01  1.10455513e-07  8.35690767e-01  1.10455513e-07  1.14309995e+00  1.10455513e-07  1.80000000e+00  1.10455513e-07  4.45434898e-03  1.10455513e-07  5.00000000e-01                                 
 1.47314284e-07  8.80833244e-01  1.47314284e-07  8.35737676e-01  1.47314284e-07  1.10427856e+00  1.47314284e-07  1.80000000e+00  1.47314284e-07 -4.43178192e-03  1.47314284e-07  5.00000000e-01                                 
 2.21031827e-07  8.80858001e-01  2.21031827e-07  8.35760555e-01  2.21031827e-07  1.01693604e+00  2.21031827e-07  1.80000000e+00  2.21031827e-07  4.45232118e-03  2.21031827e-07  5.00000000e-01                                 
 2.95324270e-07  8.80824458e-01  2.95324270e-07  8.35729772e-01  2.95324270e-07  9.35559033e-01  2.95324270e-07  1.80000000e+00  2.95324270e-07 -4.43041241e-03  2.95324270e-07  5.00000000e-01                                 
 4.43909157e-07  8.80861050e-01  4.43909157e-07  8.35763246e-01  4.43909157e-07  8.36618049e-01  4.43909157e-07  1.80000000e+00  4.43909157e-07  4.45131928e-03  4.43909157e-07  5.00000000e-01                                 
 6.96480130e-07  8.80831014e-01  6.96480130e-07  8.35735791e-01  6.96480130e-07  6.87282040e-01  6.96480130e-07  1.80000000e+00  6.96480130e-07 -4.42992253e-03  6.96480130e-07  5.00000000e-01                                 
 9.39679937e-07  8.80854112e-01  9.39679937e-07  8.35756898e-01  9.39679937e-07  6.13325901e-01  9.39679937e-07  1.80000000e+00  9.39679937e-07  4.45090895e-03  9.39679937e-07  5.00000000e-01                                 
 1.29356443e-06  8.80828781e-01  1.29356443e-06  8.35733777e-01  1.29356443e-06  5.35532353e-01  1.29356443e-06  1.80000000e+00  1.29356443e-06 -4.42958462e-03  1.29356443e-06  5.00000000e-01                                 
 1.66475046e-06  8.80856993e-01  1.66475046e-06  8.35759505e-01  1.66475046e-06  4.99541763e-01  1.66475046e-06  1.80000000e+00  1.66475046e-06  4.45063654e-03  1.66475046e-06  5.00000000e-01                                 
 1.70540771e-06  8.80842935e-01  1.70540771e-06  8.35746710e-01  1.70540771e-06  4.99610652e-01  1.70540771e-06  1.80000000e+00  1.70540771e-06  3.19090970e-07  1.70540771e-06  5.00000000e-01                                 
 1.78672221e-06  8.80841354e-01  1.78672221e-06  8.35745231e-01  1.78672221e-06  4.99709421e-01  1.78672221e-06  1.80000000e+00  1.78672221e-06 -3.10394081e-07  1.78672221e-06  5.00000000e-01                                 
 1.94935120e-06  8.80844611e-01  1.94935120e-06  8.35748232e-01  1.94935120e-06  4.99830207e-01  1.94935120e-06  1.80000000e+00  1.94935120e-06  3.18182328e-07  1.94935120e-06  5.00000000e-01                                 
 2.27460919e-06  8.80841231e-01  2.27460919e-06  8.35745123e-01  2.27460919e-06  5.00171141e-01  2.27460919e-06  1.80000000e+00  2.27460919e-06 -3.09874000e-07  2.27460919e-06  5.00000000e-01                                 
 2.62865034e-06  8.80844678e-01  2.62865034e-06  8.35748291e-01  2.62865034e-06  5.00437890e-01  2.62865034e-06  1.80000000e+00  2.62865034e-06  3.18043039e-07  2.62865034e-06  5.00000000e-01                                 
 3.33673263e-06  8.80841228e-01  3.33673263e-06  8.35745122e-01  3.33673263e-06  5.00942813e-01  3.33673263e-06  1.80000000e+00  3.33673263e-06 -3.09780916e-07  3.33673263e-06  5.00000000e-01                                 
 4.33673263e-06  8.80844656e-01  4.33673263e-06  8.35748270e-01  4.33673263e-06  5.01427637e-01  4.33673263e-06  1.80000000e+00  4.33673263e-06  3.17987452e-07  4.33673263e-06  5.00000000e-01                                 
 5.33673263e-06  8.80841245e-01  5.33673263e-06  8.35745138e-01  5.33673263e-06  5.01850017e-01  5.33673263e-06  1.80000000e+00  5.33673263e-06 -3.09731176e-07  5.33673263e-06  5.00000000e-01                                 
 6.33673263e-06  8.80844635e-01  6.33673263e-06  8.35748249e-01  6.33673263e-06  5.02141794e-01  6.33673263e-06  1.80000000e+00  6.33673263e-06  3.17942329e-07  6.33673263e-06  5.00000000e-01                                 
 7.33673263e-06  8.80841289e-01  7.33673263e-06  8.35745179e-01  7.33673263e-06  5.02434054e-01  7.33673263e-06  1.80000000e+00  7.33673263e-06 -3.09685650e-07  7.33673263e-06  5.00000000e-01                                 
 8.33673263e-06  8.80844614e-01  8.33673263e-06  8.35748229e-01  8.33673263e-06  5.02630230e-01  8.33673263e-06  1.80000000e+00  8.33673263e-06  3.17897126e-07  8.33673263e-06  5.00000000e-01                                 
 9.33673263e-06  8.80841309e-01  9.33673263e-06  8.35745198e-01  9.33673263e-06  5.02847255e-01  9.33673263e-06  1.80000000e+00  9.33673263e-06 -3.09640512e-07  9.33673263e-06  5.00000000e-01                                 
 1.00005000e-05  8.80844540e-01  1.00005000e-05  8.35748161e-01  1.00005000e-05  5.02930925e-01  1.00005000e-05  1.80000000e+00  1.00005000e-05  3.17841108e-07  1.00005000e-05  5.00000000e-01                                 
 1.00005500e-05  8.80844515e-01  1.00005500e-05  8.35748143e-01  1.00005500e-05  4.95039107e-01  1.00005500e-05  1.62000000e+00  1.00005500e-05 -5.61329528e-05  1.00005500e-05  5.00000000e-01                                 
 1.00006500e-05  8.80844494e-01  1.00006500e-05  8.35748121e-01  1.00006500e-05  4.81772965e-01  1.00006500e-05  1.26000000e+00  1.00006500e-05 -3.70772968e-05  1.00006500e-05  5.00000000e-01                                 
 1.00008500e-05  8.80844508e-01  1.00008500e-05  8.35748122e-01  1.00008500e-05  4.81592709e-01  1.00008500e-05  5.40000000e-01  1.00008500e-05  1.39504251e-04  1.00008500e-05  5.00000000e-01                                 
 1.00010000e-05  8.80844399e-01  1.00010000e-05  8.35748055e-01  1.00010000e-05  4.48701080e-01  1.00010000e-05  0.00000000e+00  1.00010000e-05  1.53967691e+00  1.00010000e-05  5.00000000e-01                                 
 1.00010118e-05  8.80844336e-01  1.00010118e-05  8.35748021e-01  1.00010118e-05  4.34384846e-01  1.00010118e-05  0.00000000e+00  1.00010118e-05  1.65816784e+00  1.00010118e-05  5.00000000e-01                                 
 1.00010353e-05  8.80844192e-01  1.00010353e-05  8.35747941e-01  1.00010353e-05  3.94697717e-01  1.00010353e-05  0.00000000e+00  1.00010353e-05  1.78685599e+00  1.00010353e-05  5.00000000e-01                                 
 1.00010824e-05  8.80844058e-01  1.00010824e-05  8.35747817e-01  1.00010824e-05  3.03762619e-01  1.00010824e-05  0.00000000e+00  1.00010824e-05  1.80175916e+00  1.00010824e-05  5.00000000e-01                                 
 1.00011489e-05  8.80844180e-01  1.00011489e-05  8.35747815e-01  1.00011489e-05  2.28984290e-01  1.00011489e-05  0.00000000e+00  1.00011489e-05  1.79472016e+00  1.00011489e-05  5.00000000e-01                                 
 1.00012270e-05  8.80844409e-01  1.00012270e-05  8.35747968e-01  1.00012270e-05  2.03860601e-01  1.00012270e-05  0.00000000e+00  1.00012270e-05  1.80134286e+00  1.00012270e-05  5.00000000e-01                                 
 1.00013578e-05  8.80844745e-01  1.00013578e-05  8.35748262e-01  1.00013578e-05  2.01654486e-01  1.00013578e-05  0.00000000e+00  1.00013578e-05  1.79795245e+00  1.00013578e-05  5.00000000e-01                                 
 1.00014971e-05  8.80844899e-01  1.00014971e-05  8.35748438e-01  1.00014971e-05  2.04633351e-01  1.00014971e-05  0.00000000e+00  1.00014971e-05  1.80147433e+00  1.00014971e-05  5.00000000e-01                                 
 1.00017523e-05  8.80844747e-01  1.00017523e-05  8.35748362e-01  1.00017523e-05  2.05270211e-01  1.00017523e-05  0.00000000e+00  1.00017523e-05  1.79860030e+00  1.00017523e-05  5.00000000e-01                                 
 1.00020295e-05  8.80844206e-01  1.00020295e-05  8.35747920e-01  1.00020295e-05  2.05560545e-01  1.00020295e-05  0.00000000e+00  1.00020295e-05  1.80130462e+00  1.00020295e-05  5.00000000e-01                                 
 1.00025840e-05  8.80843168e-01  1.00025840e-05  8.35746989e-01  1.00025840e-05  2.05599022e-01  1.00025840e-05  0.00000000e+00  1.00025840e-05  1.79875093e+00  1.00025840e-05  5.00000000e-01                                 
 1.00035565e-05  8.80843629e-01  1.00035565e-05  8.35747271e-01  1.00035565e-05  2.05822935e-01  1.00035565e-05  0.00000000e+00  1.00035565e-05  1.80122620e+00  1.00035565e-05  5.00000000e-01                                 
 1.00055017e-05  8.80852874e-01  1.00055017e-05  8.35755382e-01  1.00055017e-05  2.05869698e-01  1.00055017e-05  0.00000000e+00  1.00055017e-05  1.79879092e+00  1.00055017e-05  5.00000000e-01                                 
 1.00093920e-05  8.80876511e-01  1.00093920e-05  8.35776926e-01  1.00093920e-05  2.06175388e-01  1.00093920e-05  0.00000000e+00  1.00093920e-05  1.80120615e+00  1.00093920e-05  5.00000000e-01                                 
 1.00171726e-05  8.80885795e-01  1.00171726e-05  8.35785889e-01  1.00171726e-05  2.06239979e-01  1.00171726e-05  0.00000000e+00  1.00171726e-05  1.79880079e+00  1.00171726e-05  5.00000000e-01                                 
 1.00327338e-05  8.80855992e-01  1.00327338e-05  8.35758673e-01  1.00327338e-05  2.07125735e-01  1.00327338e-05  0.00000000e+00  1.00327338e-05  1.80120122e+00  1.00327338e-05  5.00000000e-01                                 
 1.00555401e-05  8.80837509e-01  1.00555401e-05  8.35741761e-01  1.00555401e-05  2.08919932e-01  1.00555401e-05  0.00000000e+00  1.00555401e-05  1.79880354e+00  1.00555401e-05  5.00000000e-01                                 
 1.00889647e-05  8.80834695e-01  1.00889647e-05  8.35739176e-01  1.00889647e-05  2.11215921e-01  1.00889647e-05  0.00000000e+00  1.00889647e-05  1.80119931e+00  1.00889647e-05  5.00000000e-01                                 
 1.01212975e-05  8.80843133e-01  1.01212975e-05  8.35746844e-01  1.01212975e-05  2.31528267e-01  1.01212975e-05  0.00000000e+00  1.01212975e-05  1.79880512e+00  1.01212975e-05  5.00000000e-01                                 
 1.01859632e-05  8.80838857e-01  1.01859632e-05  8.35743007e-01  1.01859632e-05  2.80883572e-01  1.01859632e-05  0.00000000e+00  1.01859632e-05  1.80119810e+00  1.01859632e-05  5.00000000e-01                                 
 1.02680020e-05  8.80843154e-01  1.02680020e-05  8.35746851e-01  1.02680020e-05  3.08101495e-01  1.02680020e-05  0.00000000e+00  1.02680020e-05  1.79880583e+00  1.02680020e-05  5.00000000e-01                                 
 1.03613268e-05  8.80841255e-01  1.03613268e-05  8.35745199e-01  1.03613268e-05  3.42165125e-01  1.03613268e-05  0.00000000e+00  1.03613268e-05  1.80119751e+00  1.03613268e-05  5.00000000e-01                                 
 1.05215893e-05  8.80843387e-01  1.05215893e-05  8.35747061e-01  1.05215893e-05  4.03217727e-01  1.05215893e-05  0.00000000e+00  1.05215893e-05  1.79880626e+00  1.05215893e-05  5.00000000e-01                                 
 1.08421144e-05  8.80842349e-01  1.08421144e-05  8.35746197e-01  1.08421144e-05  5.16801194e-01  1.08421144e-05  0.00000000e+00  1.08421144e-05  1.80119728e+00  1.08421144e-05  5.00000000e-01                                 
 1.14720159e-05  8.80843492e-01  1.14720159e-05  8.35747156e-01  1.14720159e-05  6.68924113e-01  1.14720159e-05  0.00000000e+00  1.14720159e-05  1.79880639e+00  1.14720159e-05  5.00000000e-01                                 
 1.24720159e-05  8.80842474e-01  1.24720159e-05  8.35746311e-01  1.24720159e-05  7.44945980e-01  1.24720159e-05  0.00000000e+00  1.24720159e-05  1.80119720e+00  1.24720159e-05  5.00000000e-01                                 
 1.34720159e-05  8.80843412e-01  1.34720159e-05  8.35747083e-01  1.34720159e-05  7.59870185e-01  1.34720159e-05  0.00000000e+00  1.34720159e-05  1.79880644e+00  1.34720159e-05  5.00000000e-01                                 
 1.44720159e-05  8.80842517e-01  1.44720159e-05  8.35746349e-01  1.44720159e-05  7.65158694e-01  1.44720159e-05  0.00000000e+00  1.44720159e-05  1.80119715e+00  1.44720159e-05  5.00000000e-01                                 
 1.54720159e-05  8.80843368e-01  1.54720159e-05  8.35747043e-01  1.54720159e-05  7.69283983e-01  1.54720159e-05  0.00000000e+00  1.54720159e-05  1.79880649e+00  1.54720159e-05  5.00000000e-01                                 
 1.64720159e-05  8.80842564e-01  1.64720159e-05  8.35746392e-01  1.64720159e-05  7.72358197e-01  1.64720159e-05  0.00000000e+00  1.64720159e-05  1.80119710e+00  1.64720159e-05  5.00000000e-01                                 
 1.74720159e-05  8.80843305e-01  1.74720159e-05  8.35746986e-01  1.74720159e-05  7.74925723e-01  1.74720159e-05  0.00000000e+00  1.74720159e-05  1.79880654e+00  1.74720159e-05  5.00000000e-01                                 
 1.84720159e-05  8.80842619e-01  1.84720159e-05  8.35746443e-01  1.84720159e-05  7.76996138e-01  1.84720159e-05  0.00000000e+00  1.84720159e-05  1.80119705e+00  1.84720159e-05  5.00000000e-01                                 
 1.94720159e-05  8.80843262e-01  1.94720159e-05  8.35746946e-01  1.94720159e-05  7.78836289e-01  1.94720159e-05  0.00000000e+00  1.94720159e-05  1.79880659e+00  1.94720159e-05  5.00000000e-01                                 
 2.00000000e-05  8.80842687e-01  2.00000000e-05  8.35746505e-01  2.00000000e-05  7.79678731e-01  2.00000000e-05  0.00000000e+00  2.00000000e-05  1.80119698e+00  2.00000000e-05  5.00000000e-01                                 
 2.00000500e-05  8.80842663e-01  2.00000500e-05  8.35746481e-01  2.00000500e-05  7.82033878e-01  2.00000500e-05  1.80000000e-01  2.00000500e-05  1.80016496e+00  2.00000500e-05  5.00000000e-01                                 
