 time            v(vbep)         time            v(vben)         time            v(vout)         time            v(vphi1)        time            v(vphi2)        time            v(vref)         yes             currtemp       
 0.00000000e+00  7.81437162e-01  0.00000000e+00  7.37508896e-01  0.00000000e+00  6.68201449e-02  0.00000000e+00  0.00000000e+00  0.00000000e+00  1.79997888e+00  0.00000000e+00  5.00000000e-01  1.00000000e+00 -3.30000000e+01 
 5.00000000e-12  7.81424264e-01  5.00000000e-12  7.37498132e-01  5.00000000e-12  6.72568789e-02  5.00000000e-12  1.80000000e-02  5.00000000e-12  1.80005332e+00  5.00000000e-12  5.00000000e-01                                 
 1.00000000e-11  7.81411529e-01  1.00000000e-11  7.37487573e-01  1.00000000e-11  6.76456474e-02  1.00000000e-11  3.60000000e-02  1.00000000e-11  1.80008868e+00  1.00000000e-11  5.00000000e-01                                 
 2.00000000e-11  7.81386142e-01  2.00000000e-11  7.37466508e-01  2.00000000e-11  6.83547873e-02  2.00000000e-11  7.20000000e-02  2.00000000e-11  1.80011983e+00  2.00000000e-11  5.00000000e-01                                 
 4.00000000e-11  7.81335521e-01  4.00000000e-11  7.37424480e-01  4.00000000e-11  6.94545877e-02  4.00000000e-11  1.44000000e-01  4.00000000e-11  1.80009918e+00  4.00000000e-11  5.00000000e-01                                 
 8.00000000e-11  7.81234567e-01  8.00000000e-11  7.37340628e-01  8.00000000e-11  7.09182898e-02  8.00000000e-11  2.88000000e-01  8.00000000e-11  1.80005679e+00  8.00000000e-11  5.00000000e-01                                 
 1.60000000e-10  7.81033894e-01  1.60000000e-10  7.37173769e-01  1.60000000e-10  7.27287201e-02  1.60000000e-10  5.76000000e-01  1.60000000e-10  1.80001995e+00  1.60000000e-10  5.00000000e-01                                 
 3.20000000e-10  7.80637362e-01  3.20000000e-10  7.36843387e-01  3.20000000e-10  1.10963299e-01  3.20000000e-10  1.15200000e+00  3.20000000e-10  1.79980279e+00  3.20000000e-10  5.00000000e-01                                 
 5.00000000e-10  7.80198918e-01  5.00000000e-10  7.36477039e-01  5.00000000e-10  4.96706761e-01  5.00000000e-10  1.80000000e+00  5.00000000e-10  8.72893977e-02  5.00000000e-10  5.00000000e-01                                 
 5.20664608e-10  7.80149151e-01  5.20664608e-10  7.36435379e-01  5.20664608e-10  5.65225335e-01  5.20664608e-10  1.80000000e+00  5.20664608e-10  1.43627751e-02  5.20664608e-10  5.00000000e-01                                 
 5.61993824e-10  7.80049816e-01  5.61993824e-10  7.36352199e-01  5.61993824e-10  6.86576387e-01  5.61993824e-10  1.80000000e+00  5.61993824e-10 -6.91361044e-03  5.61993824e-10  5.00000000e-01                                 
 6.44652256e-10  7.79852372e-01  6.44652256e-10  7.36186700e-01  6.44652256e-10  8.66791974e-01  6.44652256e-10  1.80000000e+00  6.44652256e-10  6.12850960e-03  6.44652256e-10  5.00000000e-01                                 
 7.69881788e-10  7.79556320e-01  7.69881788e-10  7.35938139e-01  7.69881788e-10  1.07058273e+00  7.69881788e-10  1.80000000e+00  7.69881788e-10 -5.47117481e-03  7.69881788e-10  5.00000000e-01                                 
 9.56763585e-10  7.79121268e-01  9.56763585e-10  7.35571995e-01  9.56763585e-10  1.31800549e+00  9.56763585e-10  1.80000000e+00  9.56763585e-10  5.24451973e-03  9.56763585e-10  5.00000000e-01                                 
 1.32576888e-09  7.78284984e-01  1.32576888e-09  7.34865282e-01  1.32576888e-09  1.66303363e+00  1.32576888e-09  1.80000000e+00  1.32576888e-09 -5.01169152e-03  1.32576888e-09  5.00000000e-01                                 
 2.01585928e-09  7.76795907e-01  2.01585928e-09  7.33597780e-01  2.01585928e-09  1.89992649e+00  2.01585928e-09  1.80000000e+00  2.01585928e-09  4.99707557e-03  2.01585928e-09  5.00000000e-01                                 
 2.25048424e-09  7.76310743e-01  2.25048424e-09  7.33182215e-01  2.25048424e-09  1.91433129e+00  2.25048424e-09  1.80000000e+00  2.25048424e-09 -4.71020803e-03  2.25048424e-09  5.00000000e-01                                 
 2.54550279e-09  7.75714570e-01  2.54550279e-09  7.32669919e-01  2.54550279e-09  1.92165474e+00  2.54550279e-09  1.80000000e+00  2.54550279e-09  4.58366272e-03  2.54550279e-09  5.00000000e-01                                 
 2.89114563e-09  7.75034813e-01  2.89114563e-09  7.32083615e-01  2.89114563e-09  1.92755107e+00  2.89114563e-09  1.80000000e+00  2.89114563e-09 -4.40372628e-03  2.89114563e-09  5.00000000e-01                                 
 3.58243131e-09  7.73731115e-01  3.58243131e-09  7.30952901e-01  3.58243131e-09  1.93371108e+00  3.58243131e-09  1.80000000e+00  3.58243131e-09  4.36788325e-03  3.58243131e-09  5.00000000e-01                                 
 4.96500268e-09  7.71319537e-01  4.96500268e-09  7.28840825e-01  4.96500268e-09  1.92920130e+00  4.96500268e-09  1.80000000e+00  4.96500268e-09 -4.30851883e-03  4.96500268e-09  5.00000000e-01                                 
 7.02960344e-09  7.68120189e-01  7.02960344e-09  7.26000073e-01  7.02960344e-09  1.91530630e+00  7.02960344e-09  1.80000000e+00  7.02960344e-09  4.31655469e-03  7.02960344e-09  5.00000000e-01                                 
 9.00637412e-09  7.65418245e-01  9.00637412e-09  7.23568534e-01  9.00637412e-09  1.90476013e+00  9.00637412e-09  1.80000000e+00  9.00637412e-09 -4.26203096e-03  9.00637412e-09  5.00000000e-01                                 
 1.04163659e-08  7.63664729e-01  1.04163659e-08  7.21975991e-01  1.04163659e-08  1.89842181e+00  1.04163659e-08  1.80000000e+00  1.04163659e-08  4.25380604e-03  1.04163659e-08  5.00000000e-01                                 
 1.22701280e-08  7.61541625e-01  1.22701280e-08  7.20033899e-01  1.22701280e-08  1.89161035e+00  1.22701280e-08  1.80000000e+00  1.22701280e-08 -4.20759259e-03  1.22701280e-08  5.00000000e-01                                 
 1.50063533e-08  7.58727903e-01  1.50063533e-08  7.17437489e-01  1.50063533e-08  1.88292559e+00  1.50063533e-08  1.80000000e+00  1.50063533e-08  4.20938136e-03  1.50063533e-08  5.00000000e-01                                 
 1.84222356e-08  7.55657247e-01  1.84222356e-08  7.14574623e-01  1.84222356e-08  1.87421756e+00  1.84222356e-08  1.80000000e+00  1.84222356e-08 -4.17892086e-03  1.84222356e-08  5.00000000e-01                                 
 2.41109032e-08  7.51337104e-01  2.41109032e-08  7.10500494e-01  2.41109032e-08  1.86226114e+00  2.41109032e-08  1.80000000e+00  2.41109032e-08  4.18733300e-03  2.41109032e-08  5.00000000e-01                                 
 3.19517452e-08  7.46370680e-01  3.19517452e-08  7.05780557e-01  3.19517452e-08  1.84890888e+00  3.19517452e-08  1.80000000e+00  3.19517452e-08 -4.16522797e-03  3.19517452e-08  5.00000000e-01                                 
 4.75338827e-08  7.38141359e-01  4.75338827e-08  6.97979094e-01  4.75338827e-08  1.82542049e+00  4.75338827e-08  1.80000000e+00  4.75338827e-08  4.17862973e-03  4.75338827e-08  5.00000000e-01                                 
 7.49481601e-08  7.27174983e-01  7.49481601e-08  6.87607121e-01  7.49481601e-08  1.78982255e+00  7.49481601e-08  1.80000000e+00  7.49481601e-08 -4.16064103e-03  7.49481601e-08  5.00000000e-01                                 
 1.12372626e-07  7.16668280e-01  1.12372626e-07  6.77654885e-01  1.12372626e-07  1.74687721e+00  1.12372626e-07  1.80000000e+00  1.12372626e-07  4.17585946e-03  1.12372626e-07  5.00000000e-01                                 
 1.51243850e-07  7.08451588e-01  1.51243850e-07  6.69907592e-01  1.51243850e-07  1.70407087e+00  1.51243850e-07  1.80000000e+00  1.51243850e-07 -4.15823128e-03  1.51243850e-07  5.00000000e-01                                 
 2.28986297e-07  6.95979755e-01  2.28986297e-07  6.58235326e-01  2.28986297e-07  1.61976651e+00  2.28986297e-07  1.80000000e+00  2.28986297e-07  4.17414108e-03  2.28986297e-07  5.00000000e-01                                 
 3.02359676e-07  6.87117941e-01  3.02359676e-07  6.50024097e-01  3.02359676e-07  1.54131999e+00  3.02359676e-07  1.80000000e+00  3.02359676e-07 -4.15699311e-03  3.02359676e-07  5.00000000e-01                                 
 4.49106435e-07  6.73389114e-01  4.49106435e-07  6.37448204e-01  4.49106435e-07  1.38408252e+00  4.49106435e-07  1.80000000e+00  4.49106435e-07  4.17326044e-03  4.49106435e-07  5.00000000e-01                                 
 7.42599953e-07  6.53773669e-01  7.42599953e-07  6.19805740e-01  7.42599953e-07  1.06348921e+00  7.42599953e-07  1.80000000e+00  7.42599953e-07 -4.15639089e-03  7.42599953e-07  5.00000000e-01                                 
 1.26082365e-06  6.31468985e-01  1.26082365e-06  6.00097824e-01  1.26082365e-06  7.06156651e-01  1.26082365e-06  1.80000000e+00  1.26082365e-06  4.17304027e-03  1.26082365e-06  5.00000000e-01                                 
 1.75777349e-06  6.18219270e-01  1.75777349e-06  5.88464210e-01  1.75777349e-06  5.38814948e-01  1.75777349e-06  1.80000000e+00  1.75777349e-06 -4.15635553e-03  1.75777349e-06  5.00000000e-01                                 
 1.78858133e-06  6.17587655e-01  1.78858133e-06  5.87907605e-01  1.78858133e-06  5.32955133e-01  1.78858133e-06  1.80000000e+00  1.78858133e-06 -3.42866402e-07  1.78858133e-06  5.00000000e-01                                 
 1.85019702e-06  6.16343579e-01  1.85019702e-06  5.86811448e-01  1.85019702e-06  5.23570586e-01  1.85019702e-06  1.80000000e+00  1.85019702e-06  3.42312939e-07  1.85019702e-06  5.00000000e-01                                 
 1.97342838e-06  6.13989801e-01  1.97342838e-06  5.84736524e-01  1.97342838e-06  5.13550404e-01  1.97342838e-06  1.80000000e+00  1.97342838e-06 -3.42316888e-07  1.97342838e-06  5.00000000e-01                                 
 2.21989111e-06  6.09822016e-01  2.21989111e-06  5.81051452e-01  2.21989111e-06  5.05453902e-01  2.21989111e-06  1.80000000e+00  2.21989111e-06  3.41696286e-07  2.21989111e-06  5.00000000e-01                                 
 2.46372971e-06  6.06342708e-01  2.46372971e-06  5.77956152e-01  2.46372971e-06  5.01797263e-01  2.46372971e-06  1.80000000e+00  2.46372971e-06 -3.40516474e-07  2.46372971e-06  5.00000000e-01                                 
 2.94280644e-06  6.01162977e-01  2.94280644e-06  5.73270534e-01  2.94280644e-06  4.97185402e-01  2.94280644e-06  1.80000000e+00  2.94280644e-06  3.44007248e-07  2.94280644e-06  5.00000000e-01                                 
 3.40581836e-06  5.98433127e-01  3.40581836e-06  5.70626266e-01  3.40581836e-06  4.94952685e-01  3.40581836e-06  1.80000000e+00  3.40581836e-06 -3.37241896e-07  3.40581836e-06  5.00000000e-01                                 
 3.52157134e-06  5.98251842e-01  3.52157134e-06  5.70373999e-01  3.52157134e-06  4.94855008e-01  3.52157134e-06  1.80000000e+00  3.52157134e-06  4.78950254e-09  3.52157134e-06  5.00000000e-01                                 
 3.75307730e-06  5.98375640e-01  3.75307730e-06  5.70261595e-01  3.75307730e-06  4.95115440e-01  3.75307730e-06  1.80000000e+00  3.75307730e-06  6.16844187e-09  3.75307730e-06  5.00000000e-01                                 
 4.21608922e-06  6.05043160e-01  4.21608922e-06  5.75178655e-01  4.21608922e-06  5.01681890e-01  4.21608922e-06  1.80000000e+00  4.21608922e-06  1.37923401e-08  4.21608922e-06  5.00000000e-01                                 
 4.33184220e-06  6.10309345e-01  4.33184220e-06  5.79286036e-01  4.33184220e-06  5.06572183e-01  4.33184220e-06  1.80000000e+00  4.33184220e-06  2.01235670e-08  4.33184220e-06  5.00000000e-01                                 
 4.36078045e-06  6.11810723e-01  4.36078045e-06  5.80460790e-01  4.36078045e-06  5.07907052e-01  4.36078045e-06  1.80000000e+00  4.36078045e-06  2.22308770e-08  4.36078045e-06  5.00000000e-01                                 
 4.41865694e-06  6.15337167e-01  4.41865694e-06  5.83229461e-01  4.41865694e-06  5.10617976e-01  4.41865694e-06  1.80000000e+00  4.41865694e-06  2.81220970e-08  4.41865694e-06  5.00000000e-01                                 
 4.53440992e-06  6.28402577e-01  4.53440992e-06  5.93581472e-01  4.53440992e-06  5.17254562e-01  4.53440992e-06  1.80000000e+00  4.53440992e-06  5.65317152e-08  4.53440992e-06  5.00000000e-01                                 
 4.56334816e-06  6.34278687e-01  4.56334816e-06  5.98260267e-01  4.56334816e-06  5.19914022e-01  4.56334816e-06  1.80000000e+00  4.56334816e-06  7.24589272e-08  4.56334816e-06  5.00000000e-01                                 
 4.62122465e-06  6.51133590e-01  4.62122465e-06  6.11713773e-01  4.62122465e-06  5.27992339e-01  4.62122465e-06  1.80000000e+00  4.62122465e-06  1.32491037e-07  4.62122465e-06  5.00000000e-01                                 
 4.63569377e-06  6.57880115e-01  4.63569377e-06  6.17112218e-01  4.63569377e-06  5.31432048e-01  4.63569377e-06  1.80000000e+00  4.63569377e-06  1.62401212e-07  4.63569377e-06  5.00000000e-01                                 
 4.66463202e-06  6.75122428e-01  4.66463202e-06  6.30939249e-01  4.66463202e-06  5.40599001e-01  4.66463202e-06  1.80000000e+00  4.66463202e-06  2.54342609e-07  4.66463202e-06  5.00000000e-01                                 
 4.72250851e-06  7.81812742e-01  4.72250851e-06  7.31597938e-01  4.72250851e-06  6.10807340e-01  4.72250851e-06  1.80000000e+00  4.72250851e-06  1.20868944e-06  4.72250851e-06  5.00000000e-01                                 
 4.72931329e-06  7.97559863e-01  4.72931329e-06  7.49267924e-01  4.72931329e-06  6.20984778e-01  4.72931329e-06  1.80000000e+00  4.72931329e-06  1.12720620e-06  4.72931329e-06  5.00000000e-01                                 
 4.74292284e-06  8.20709444e-01  4.74292284e-06  7.75393141e-01  4.74292284e-06  6.34878061e-01  4.74292284e-06  1.80000000e+00  4.74292284e-06  6.88317316e-07  4.74292284e-06  5.00000000e-01                                 
 4.77014194e-06  8.56464578e-01  4.77014194e-06  8.10887890e-01  4.77014194e-06  6.55524300e-01  4.77014194e-06  1.80000000e+00  4.77014194e-06  6.74328457e-07  4.77014194e-06  5.00000000e-01                                 
 4.80224827e-06  8.96967950e-01  4.80224827e-06  8.46689226e-01  4.80224827e-06  6.78275960e-01  4.80224827e-06  1.80000000e+00  4.80224827e-06  5.87853024e-07  4.80224827e-06  5.00000000e-01                                 
 4.83904947e-06  9.45255057e-01  4.83904947e-06  8.80279541e-01  4.83904947e-06  6.99604581e-01  4.83904947e-06  1.80000000e+00  4.83904947e-06  6.04159373e-07  4.83904947e-06  5.00000000e-01                                 
 4.86610638e-06  9.53465980e-01  4.86610638e-06  8.85344102e-01  4.86610638e-06  6.98790658e-01  4.86610638e-06  1.80000000e+00  4.86610638e-06 -7.12233280e-08  4.86610638e-06  5.00000000e-01                                 
 4.89630578e-06  9.47476638e-01  4.89630578e-06  8.81776399e-01  4.89630578e-06  6.82646165e-01  4.89630578e-06  1.80000000e+00  4.89630578e-06 -3.77256129e-08  4.89630578e-06  5.00000000e-01                                 
 4.92247531e-06  9.50682736e-01  4.92247531e-06  8.83648647e-01  4.92247531e-06  6.76437953e-01  4.92247531e-06  1.80000000e+00  4.92247531e-06  1.16342756e-07  4.92247531e-06  5.00000000e-01                                 
 4.95237930e-06  9.48317931e-01  4.95237930e-06  8.82332429e-01  4.95237930e-06  6.64559472e-01  4.95237930e-06  1.80000000e+00  4.95237930e-06 -1.36901720e-07  4.95237930e-06  5.00000000e-01                                 
 4.98836930e-06  9.48913210e-01  4.98836930e-06  8.82592183e-01  4.98836930e-06  6.53349144e-01  4.98836930e-06  1.80000000e+00  4.98836930e-06  1.52482306e-07  4.98836930e-06  5.00000000e-01                                 
 5.03422934e-06  9.47880620e-01  5.03422934e-06  8.82083349e-01  5.03422934e-06  6.38514669e-01  5.03422934e-06  1.80000000e+00  5.03422934e-06 -1.46639687e-07  5.03422934e-06  5.00000000e-01                                 
 5.10856346e-06  9.47198415e-01  5.10856346e-06  8.81580924e-01  5.10856346e-06  6.15796975e-01  5.10856346e-06  1.80000000e+00  5.10856346e-06  1.49332412e-07  5.10856346e-06  5.00000000e-01                                 
 5.23889378e-06  9.45466059e-01  5.23889378e-06  8.80651757e-01  5.23889378e-06  5.79284966e-01  5.23889378e-06  1.80000000e+00  5.23889378e-06 -1.44311214e-07  5.23889378e-06  5.00000000e-01                                 
 5.49955440e-06  9.41818235e-01  5.49955440e-06  8.78342228e-01  5.49955440e-06  5.27234810e-01  5.49955440e-06  1.80000000e+00  5.49955440e-06  1.49737071e-07  5.49955440e-06  5.00000000e-01                                 
 5.93908661e-06  9.33431274e-01  5.93908661e-06  8.73195869e-01  5.93908661e-06  4.95126188e-01  5.93908661e-06  1.80000000e+00  5.93908661e-06 -1.51472381e-07  5.93908661e-06  5.00000000e-01                                 
 6.02911711e-06  9.31030864e-01  6.02911711e-06  8.71577907e-01  6.02911711e-06  4.92696676e-01  6.02911711e-06  1.80000000e+00  6.02911711e-06 -9.51579887e-09  6.02911711e-06  5.00000000e-01                                 
 6.20917812e-06  9.25550201e-01  6.20917812e-06  8.67934114e-01  6.20917812e-06  4.87786500e-01  6.20917812e-06  1.80000000e+00  6.20917812e-06 -1.11438410e-08  6.20917812e-06  5.00000000e-01                                 
 6.25419337e-06  9.23825937e-01  6.25419337e-06  8.66762712e-01  6.25419337e-06  4.86243622e-01  6.25419337e-06  1.80000000e+00  6.25419337e-06 -1.43340657e-08  6.25419337e-06  5.00000000e-01                                 
 6.34422387e-06  9.20043501e-01  6.34422387e-06  8.64146889e-01  6.34422387e-06  4.83249694e-01  6.34422387e-06  1.80000000e+00  6.34422387e-06 -1.74959161e-08  6.34422387e-06  5.00000000e-01                                 
 6.52428487e-06  9.09575038e-01  6.52428487e-06  8.56578327e-01  6.52428487e-06  4.83821952e-01  6.52428487e-06  1.80000000e+00  6.52428487e-06 -2.72491899e-08  6.52428487e-06  5.00000000e-01                                 
 6.77464514e-06  8.89092192e-01  6.77464514e-06  8.40315530e-01  6.77464514e-06  4.82422648e-01  6.77464514e-06  1.80000000e+00  6.77464514e-06 -5.13172436e-08  6.77464514e-06  5.00000000e-01                                 
 7.09966529e-06  8.71996610e-01  7.09966529e-06  8.25358331e-01  7.09966529e-06  4.85428452e-01  7.09966529e-06  1.80000000e+00  7.09966529e-06  4.48760772e-09  7.09966529e-06  5.00000000e-01                                 
 7.43634922e-06  8.70904091e-01  7.43634922e-06  8.24366996e-01  7.43634922e-06  4.98487694e-01  7.43634922e-06  1.80000000e+00  7.43634922e-06  2.17657485e-09  7.43634922e-06  5.00000000e-01                                 
 7.93786768e-06  8.71218259e-01  7.93786768e-06  8.24651680e-01  7.93786768e-06  5.03972580e-01  7.93786768e-06  1.80000000e+00  7.93786768e-06  9.19842611e-09  7.93786768e-06  5.00000000e-01                                 
 8.42564720e-06  8.71082359e-01  8.42564720e-06  8.24529208e-01  8.42564720e-06  5.03335058e-01  8.42564720e-06  1.80000000e+00  8.42564720e-06  1.42968191e-09  8.42564720e-06  5.00000000e-01                                 
 9.10669713e-06  8.71144341e-01  9.10669713e-06  8.24584467e-01  9.10669713e-06  5.03417595e-01  9.10669713e-06  1.80000000e+00  9.10669713e-06  9.63554047e-09  9.10669713e-06  5.00000000e-01                                 
 9.84221102e-06  8.71110705e-01  9.84221102e-06  8.24554991e-01  9.84221102e-06  5.03291102e-01  9.84221102e-06  1.80000000e+00  9.84221102e-06  1.23221490e-09  9.84221102e-06  5.00000000e-01                                 
 1.00005000e-05  8.71119078e-01  1.00005000e-05  8.24561493e-01  1.00005000e-05  5.03264758e-01  1.00005000e-05  1.80000000e+00  1.00005000e-05  9.87070023e-09  1.00005000e-05  5.00000000e-01                                 
 1.00005500e-05  8.71119984e-01  1.00005500e-05  8.24562425e-01  1.00005500e-05  4.95337468e-01  1.00005500e-05  1.62000000e+00  1.00005500e-05 -5.85513720e-05  1.00005500e-05  5.00000000e-01                                 
