 time            v(vbep)         time            v(vben)         time            v(vout)         time            v(vphi1)        time            v(vphi2)        time            v(vref)         yes             currtemp       
 0.00000000e+00  5.94925029e-01  0.00000000e+00  5.32502537e-01  0.00000000e+00  2.37151076e-01  0.00000000e+00  0.00000000e+00  0.00000000e+00  1.79996340e+00  0.00000000e+00  5.32502537e-01  1.00000000e+00  6.90000000e+01 
 5.00000000e-12  5.94904740e-01  5.00000000e-12  5.32485682e-01  5.00000000e-12  2.37662566e-01  5.00000000e-12  1.80000000e-02  5.00000000e-12  1.80007001e+00  5.00000000e-12  5.32485682e-01                                 
 1.00000000e-11  5.94884769e-01  1.00000000e-11  5.32469193e-01  1.00000000e-11  2.38078905e-01  1.00000000e-11  3.60000000e-02  1.00000000e-11  1.80012900e+00  1.00000000e-11  5.32469193e-01                                 
 2.00000000e-11  5.94844996e-01  2.00000000e-11  5.32436312e-01  2.00000000e-11  2.38768529e-01  2.00000000e-11  7.20000000e-02  2.00000000e-11  1.80018804e+00  2.00000000e-11  5.32436312e-01                                 
 4.00000000e-11  5.94765747e-01  4.00000000e-11  5.32370732e-01  4.00000000e-11  2.39578288e-01  4.00000000e-11  1.44000000e-01  4.00000000e-11  1.80015861e+00  4.00000000e-11  5.32370732e-01                                 
 8.00000000e-11  5.94607775e-01  8.00000000e-11  5.32239954e-01  8.00000000e-11  2.40269268e-01  8.00000000e-11  2.88000000e-01  8.00000000e-11  1.80008100e+00  8.00000000e-11  5.32239954e-01                                 
 1.60000000e-10  5.94294045e-01  1.60000000e-10  5.31979919e-01  1.60000000e-10  2.40911139e-01  1.60000000e-10  5.76000000e-01  1.60000000e-10  1.80004040e+00  1.60000000e-10  5.31979919e-01                                 
 3.20000000e-10  5.93675090e-01  3.20000000e-10  5.31465790e-01  3.20000000e-10  2.46942294e-01  3.20000000e-10  1.15200000e+00  3.20000000e-10  1.80031891e+00  3.20000000e-10  5.31465790e-01                                 
 5.00000000e-10  5.92991994e-01  5.00000000e-10  5.30896638e-01  5.00000000e-10  4.95940406e-01  5.00000000e-10  1.80000000e+00  5.00000000e-10  1.82262462e-01  5.00000000e-10  5.30896638e-01                                 
 5.22362886e-10  5.92908199e-01  5.22362886e-10  5.30826683e-01  5.22362886e-10  5.54272431e-01  5.22362886e-10  1.80000000e+00  5.22362886e-10  4.45087168e-02  5.22362886e-10  5.30826683e-01                                 
 5.67088657e-10  5.92741020e-01  5.67088657e-10  5.30687059e-01  5.67088657e-10  6.61936923e-01  5.67088657e-10  1.80000000e+00  5.67088657e-10 -1.65213237e-02  5.67088657e-10  5.30687059e-01                                 
 6.56540199e-10  5.92409148e-01  6.56540199e-10  5.30409568e-01  6.56540199e-10  8.33034863e-01  6.56540199e-10  1.80000000e+00  6.56540199e-10  1.46041718e-02  6.56540199e-10  5.30409568e-01                                 
 7.73803267e-10  5.91979003e-01  7.73803267e-10  5.30049279e-01  7.73803267e-10  1.00507202e+00  7.73803267e-10  1.80000000e+00  7.73803267e-10 -1.05122986e-02  7.73803267e-10  5.30049279e-01                                 
 9.61115949e-10  5.91303064e-01  9.61115949e-10  5.29481700e-01  9.61115949e-10  1.22395513e+00  9.61115949e-10  1.80000000e+00  9.61115949e-10  1.08219050e-02  9.61115949e-10  5.29481700e-01                                 
 1.28492402e-09  5.90165475e-01  1.28492402e-09  5.28522635e-01  1.28492402e-09  1.49896232e+00  1.28492402e-09  1.80000000e+00  1.28492402e-09 -8.96559275e-03  1.28492402e-09  5.28522635e-01                                 
 1.86454674e-09  5.88219723e-01  1.86454674e-09  5.26871362e-01  1.86454674e-09  1.74059767e+00  1.86454674e-09  1.80000000e+00  1.86454674e-09  9.26618631e-03  1.86454674e-09  5.26871362e-01                                 
 2.16609999e-09  5.87250746e-01  2.16609999e-09  5.26043839e-01  2.16609999e-09  1.78084603e+00  2.16609999e-09  1.80000000e+00  2.16609999e-09 -8.35977427e-03  2.16609999e-09  5.26043839e-01                                 
 2.50136699e-09  5.86205256e-01  2.50136699e-09  5.25147272e-01  2.50136699e-09  1.80103515e+00  2.50136699e-09  1.80000000e+00  2.50136699e-09  7.98056200e-03  2.50136699e-09  5.25147272e-01                                 
 2.87741880e-09  5.85070045e-01  2.87741880e-09  5.24169499e-01  2.87741880e-09  1.80941796e+00  2.87741880e-09  1.80000000e+00  2.87741880e-09 -7.43807968e-03  2.87741880e-09  5.24169499e-01                                 
 3.52902611e-09  5.83188942e-01  3.52902611e-09  5.22539873e-01  3.52902611e-09  1.81275539e+00  3.52902611e-09  1.80000000e+00  3.52902611e-09  7.25510240e-03  3.52902611e-09  5.22539873e-01                                 
 4.26845835e-09  5.81174639e-01  4.26845835e-09  5.20782096e-01  4.26845835e-09  1.81087357e+00  4.26845835e-09  1.80000000e+00  4.26845835e-09 -6.99731357e-03  4.26845835e-09  5.20782096e-01                                 
 5.60155643e-09  5.77819089e-01  5.60155643e-09  5.17826709e-01  5.60155643e-09  1.80773876e+00  5.60155643e-09  1.80000000e+00  5.60155643e-09  6.92913378e-03  5.60155643e-09  5.17826709e-01                                 
 7.59720332e-09  5.73339912e-01  7.59720332e-09  5.13832421e-01  7.59720332e-09  1.80214599e+00  7.59720332e-09  1.80000000e+00  7.59720332e-09 -6.80482833e-03  7.59720332e-09  5.13832421e-01                                 
 9.33632591e-09  5.69868425e-01  9.33632591e-09  5.10700125e-01  9.33632591e-09  1.79824126e+00  9.33632591e-09  1.80000000e+00  9.33632591e-09  6.76584728e-03  9.33632591e-09  5.10700125e-01                                 
 1.12477116e-08  5.66417354e-01  1.12477116e-08  5.07558531e-01  1.12477116e-08  1.79381770e+00  1.12477116e-08  1.80000000e+00  1.12477116e-08 -6.64933731e-03  1.12477116e-08  5.07558531e-01                                 
 1.27825187e-08  5.63877334e-01  1.27825187e-08  5.05229928e-01  1.27825187e-08  1.79078014e+00  1.27825187e-08  1.80000000e+00  1.27825187e-08  6.59181956e-03  1.27825187e-08  5.05229928e-01                                 
 1.43107929e-08  5.61521074e-01  1.43107929e-08  5.03058486e-01  1.43107929e-08  1.78738081e+00  1.43107929e-08  1.80000000e+00  1.43107929e-08 -6.46457794e-03  1.43107929e-08  5.03058486e-01                                 
 1.59502293e-08  5.59161176e-01  1.59502293e-08  5.00873379e-01  1.59502293e-08  1.78435344e+00  1.59502293e-08  1.80000000e+00  1.59502293e-08  6.41198557e-03  1.59502293e-08  5.00873379e-01                                 
 1.77845805e-08  5.56702428e-01  1.77845805e-08  4.98586096e-01  1.77845805e-08  1.78049673e+00  1.77845805e-08  1.80000000e+00  1.77845805e-08 -6.30458051e-03  1.77845805e-08  4.98586096e-01                                 
 2.03815263e-08  5.53508692e-01  2.03815263e-08  4.95598872e-01  2.03815263e-08  1.77573861e+00  2.03815263e-08  1.80000000e+00  2.03815263e-08  6.28336405e-03  2.03815263e-08  4.95598872e-01                                 
 2.33659062e-08  5.50204591e-01  2.33659062e-08  4.92487602e-01  2.33659062e-08  1.76989967e+00  2.33659062e-08  1.80000000e+00  2.33659062e-08 -6.20654767e-03  2.33659062e-08  4.92487602e-01                                 
 2.82919127e-08  5.45471713e-01  2.82919127e-08  4.87988374e-01  2.82919127e-08  1.76148195e+00  2.82919127e-08  1.80000000e+00  2.82919127e-08  6.21074933e-03  2.82919127e-08  4.87988374e-01                                 
 3.43776794e-08  5.40622035e-01  3.43776794e-08  4.83316263e-01  3.43776794e-08  1.75155687e+00  3.43776794e-08  1.80000000e+00  3.43776794e-08 -6.15668737e-03  3.43776794e-08  4.83316263e-01                                 
 4.65492127e-08  5.32909718e-01  4.65492127e-08  4.75788944e-01  4.65492127e-08  1.73367714e+00  4.65492127e-08  1.80000000e+00  4.65492127e-08  6.17823393e-03  4.65492127e-08  4.75788944e-01                                 
 7.08922793e-08  5.21430416e-01  7.08922793e-08  4.64503143e-01  7.08922793e-08  1.69923914e+00  7.08922793e-08  1.80000000e+00  7.08922793e-08 -6.13977071e-03  7.08922793e-08  4.64503143e-01                                 
 1.00130291e-07  5.11534158e-01  1.00130291e-07  4.54729855e-01  1.00130291e-07  1.66141973e+00  1.00130291e-07  1.80000000e+00  1.00130291e-07  6.16873677e-03  1.00130291e-07  4.54729855e-01                                 
 1.42811513e-07  4.98826174e-01  1.42811513e-07  4.42571802e-01  1.42811513e-07  1.60670154e+00  1.42811513e-07  1.80000000e+00  1.42811513e-07 -6.13199284e-03  1.42811513e-07  4.42571802e-01                                 
 1.88432938e-07  4.82410362e-01  1.88432938e-07  4.27916820e-01  1.88432938e-07  1.54540727e+00  1.88432938e-07  1.80000000e+00  1.88432938e-07  6.16254112e-03  1.88432938e-07  4.27916820e-01                                 
 2.45781888e-07  4.62145615e-01  2.45781888e-07  4.10326200e-01  2.45781888e-07  1.46664819e+00  2.45781888e-07  1.80000000e+00  2.45781888e-07 -6.12681736e-03  2.45781888e-07  4.10326200e-01                                 
 3.10175723e-07  4.39183944e-01  3.10175723e-07  3.90919808e-01  3.10175723e-07  1.37787074e+00  3.10175723e-07  1.80000000e+00  3.10175723e-07  6.15823394e-03  3.10175723e-07  3.90919808e-01                                 
 4.38963393e-07  3.79638240e-01  4.38963393e-07  3.42318078e-01  4.38963393e-07  1.18555396e+00  4.38963393e-07  1.80000000e+00  4.38963393e-07 -6.12412111e-03  4.38963393e-07  3.42318078e-01                                 
 4.65192140e-07  3.74216987e-01  4.65192140e-07  3.37944327e-01  4.65192140e-07  1.15316775e+00  4.65192140e-07  1.80000000e+00  4.65192140e-07  2.62278935e-06  4.65192140e-07  3.37944327e-01                                 
 5.17649634e-07  5.84754170e-01  5.17649634e-07  5.16084881e-01  5.17649634e-07  1.29789771e+00  5.17649634e-07  1.80000000e+00  5.17649634e-07  2.04790015e-05  5.17649634e-07  5.16084881e-01                                 
 5.28866960e-07  6.39789055e-01  5.28866960e-07  5.73349616e-01  5.28866960e-07  1.33912864e+00  5.28866960e-07  1.80000000e+00  5.28866960e-07  1.53913843e-05  5.28866960e-07  5.73349616e-01                                 
 5.51301612e-07  6.86221621e-01  5.51301612e-07  6.20929999e-01  5.51301612e-07  1.36089107e+00  5.51301612e-07  1.80000000e+00  5.51301612e-07  2.88207941e-06  5.51301612e-07  6.20929999e-01                                 
 5.96170916e-07  7.23074742e-01  5.96170916e-07  6.54098619e-01  5.96170916e-07  1.34764030e+00  5.96170916e-07  1.80000000e+00  5.96170916e-07  9.16532655e-06  5.96170916e-07  6.54098619e-01                                 
 6.38506701e-07  7.30050813e-01  6.38506701e-07  6.60137605e-01  6.38506701e-07  1.31062711e+00  6.38506701e-07  1.80000000e+00  6.38506701e-07 -8.16157348e-08  6.38506701e-07  6.60137605e-01                                 
 6.47341019e-07  7.30458988e-01  6.47341019e-07  6.60440190e-01  6.47341019e-07  1.30118649e+00  6.47341019e-07  1.80000000e+00  6.47341019e-07  4.18164465e-06  6.47341019e-07  6.60440190e-01                                 
 6.65009654e-07  7.31775782e-01  6.65009654e-07  6.61534033e-01  6.65009654e-07  1.28368035e+00  6.65009654e-07  1.80000000e+00  6.65009654e-07  4.42485842e-06  6.65009654e-07  6.61534033e-01                                 
 7.00346924e-07  7.33830989e-01  7.00346924e-07  6.63254045e-01  7.00346924e-07  1.24835101e+00  7.00346924e-07  1.80000000e+00  7.00346924e-07  4.12228182e-06  7.00346924e-07  6.63254045e-01                                 
 7.55524295e-07  7.35764908e-01  7.55524295e-07  6.64847270e-01  7.55524295e-07  1.19191981e+00  7.55524295e-07  1.80000000e+00  7.55524295e-07  4.32294477e-06  7.55524295e-07  6.64847270e-01                                 
 7.66287515e-07  7.36108992e-01  7.66287515e-07  6.65133554e-01  7.66287515e-07  1.18097197e+00  7.66287515e-07  1.80000000e+00  7.66287515e-07  4.22502654e-06  7.66287515e-07  6.65133554e-01                                 
 7.87813957e-07  7.35692411e-01  7.87813957e-07  6.64796099e-01  7.87813957e-07  1.15806235e+00  7.87813957e-07  1.80000000e+00  7.87813957e-07  3.99778208e-06  7.87813957e-07  6.64796099e-01                                 
 7.93195568e-07  7.34372128e-01  7.93195568e-07  6.63714218e-01  7.93195568e-07  1.15125065e+00  7.93195568e-07  1.80000000e+00  7.93195568e-07  3.61294882e-06  7.93195568e-07  6.63714218e-01                                 
 8.03958788e-07  7.29406876e-01  8.03958788e-07  6.59590618e-01  8.03958788e-07  1.13548466e+00  8.03958788e-07  1.80000000e+00  8.03958788e-07  2.64104668e-06  8.03958788e-07  6.59590618e-01                                 
 8.25485230e-07  7.15743105e-01  8.25485230e-07  6.47830640e-01  8.25485230e-07  1.10041165e+00  8.25485230e-07  1.80000000e+00  8.25485230e-07  2.79966192e-06  8.25485230e-07  6.47830640e-01                                 
 8.63479129e-07  7.10903725e-01  8.63479129e-07  6.43502028e-01  8.63479129e-07  1.05816818e+00  8.63479129e-07  1.80000000e+00  8.63479129e-07  5.00841493e-06  8.63479129e-07  6.43502028e-01                                 
 9.04856956e-07  7.22496670e-01  9.04856956e-07  6.53659560e-01  9.04856956e-07  1.03104782e+00  9.04856956e-07  1.80000000e+00  9.04856956e-07  4.76729121e-06  9.04856956e-07  6.53659560e-01                                 
 9.65580028e-07  7.27253521e-01  9.65580028e-07  6.57739524e-01  9.65580028e-07  9.84823726e-01  9.65580028e-07  1.80000000e+00  9.65580028e-07  4.19767402e-06  9.65580028e-07  6.57739524e-01                                 
 1.02967261e-06  7.20009333e-01  1.02967261e-06  6.51531273e-01  1.02967261e-06  9.32087610e-01  1.02967261e-06  1.80000000e+00  1.02967261e-06  4.05964762e-06  1.02967261e-06  6.51531273e-01                                 
 1.12710732e-06  7.20127009e-01  1.12710732e-06  6.51616813e-01  1.12710732e-06  8.69660999e-01  1.12710732e-06  1.80000000e+00  1.12710732e-06  4.81869302e-06  1.12710732e-06  6.51616813e-01                                 
 1.22948965e-06  7.25469042e-01  1.22948965e-06  6.56220998e-01  1.22948965e-06  8.13028184e-01  1.22948965e-06  1.80000000e+00  1.22948965e-06  4.36076448e-06  1.22948965e-06  6.56220998e-01                                 
 1.40250589e-06  7.18800726e-01  1.40250589e-06  6.50474451e-01  1.40250589e-06  7.13980743e-01  1.40250589e-06  1.80000000e+00  1.40250589e-06  4.53669202e-06  1.40250589e-06  6.50474451e-01                                 
 1.59993810e-06  7.24131835e-01  1.59993810e-06  6.55071757e-01  1.59993810e-06  6.57922447e-01  1.59993810e-06  1.80000000e+00  1.59993810e-06  4.89182640e-06  1.59993810e-06  6.55071757e-01                                 
 1.62194684e-06  7.23927393e-01  1.62194684e-06  6.54901135e-01  1.62194684e-06  6.55087091e-01  1.62194684e-06  1.80000000e+00  1.62194684e-06  4.72010420e-06  1.62194684e-06  6.54901135e-01                                 
 1.66596432e-06  7.22234186e-01  1.66596432e-06  6.53449618e-01  1.66596432e-06  6.48669232e-01  1.66596432e-06  1.80000000e+00  1.66596432e-06  4.60528805e-06  1.66596432e-06  6.53449618e-01                                 
 1.75399928e-06  7.20885293e-01  1.75399928e-06  6.52279678e-01  1.75399928e-06  6.41745595e-01  1.75399928e-06  1.80000000e+00  1.75399928e-06  4.85404532e-06  1.75399928e-06  6.52279678e-01                                 
 1.85916399e-06  7.23048901e-01  1.85916399e-06  6.54146755e-01  1.85916399e-06  6.52207580e-01  1.85916399e-06  1.80000000e+00  1.85916399e-06  4.87445498e-06  1.85916399e-06  6.54146755e-01                                 
 1.96208884e-06  7.21674527e-01  1.96208884e-06  6.52965103e-01  1.96208884e-06  6.55348452e-01  1.96208884e-06  1.80000000e+00  1.96208884e-06  4.67323761e-06  1.96208884e-06  6.52965103e-01                                 
 2.10978388e-06  7.21876347e-01  2.10978388e-06  6.53135910e-01  2.10978388e-06  6.51759157e-01  2.10978388e-06  1.80000000e+00  2.10978388e-06  4.88675919e-06  2.10978388e-06  6.53135910e-01                                 
 2.26529047e-06  7.22522402e-01  2.26529047e-06  6.53695433e-01  2.26529047e-06  6.54551202e-01  2.26529047e-06  1.80000000e+00  2.26529047e-06  4.71595167e-06  2.26529047e-06  6.53695433e-01                                 
 2.44774669e-06  7.21436546e-01  2.44774669e-06  6.52757462e-01  2.44774669e-06  6.52549387e-01  2.44774669e-06  1.80000000e+00  2.44774669e-06  4.82808785e-06  2.44774669e-06  6.52757462e-01                                 
 2.73116847e-06  7.22606822e-01  2.73116847e-06  6.53767025e-01  2.73116847e-06  6.54202586e-01  2.73116847e-06  1.80000000e+00  2.73116847e-06  4.76503506e-06  2.73116847e-06  6.53767025e-01                                 
 3.17217683e-06  7.21497841e-01  3.17217683e-06  6.52811119e-01  3.17217683e-06  6.52776907e-01  3.17217683e-06  1.80000000e+00  3.17217683e-06  4.79730773e-06  3.17217683e-06  6.52811119e-01                                 
 4.02010167e-06  7.22534920e-01  4.02010167e-06  6.53704766e-01  4.02010167e-06  6.54059414e-01  4.02010167e-06  1.80000000e+00  4.02010167e-06  4.78208763e-06  4.02010167e-06  6.53704766e-01                                 
 5.02010167e-06  7.21557866e-01  5.02010167e-06  6.52863147e-01  5.02010167e-06  6.52874043e-01  5.02010167e-06  1.80000000e+00  5.02010167e-06  4.78733379e-06  5.02010167e-06  6.52863147e-01                                 
 6.02010167e-06  7.22474164e-01  6.02010167e-06  6.53652286e-01  6.02010167e-06  6.53968624e-01  6.02010167e-06  1.80000000e+00  6.02010167e-06  4.79064744e-06  6.02010167e-06  6.53652286e-01                                 
 7.02010167e-06  7.21625369e-01  7.02010167e-06  6.52921586e-01  7.02010167e-06  6.52966744e-01  7.02010167e-06  1.80000000e+00  7.02010167e-06  4.77936642e-06  7.02010167e-06  6.52921586e-01                                 
 8.02010167e-06  7.22403279e-01  8.02010167e-06  6.53591093e-01  8.02010167e-06  6.53875527e-01  8.02010167e-06  1.80000000e+00  8.02010167e-06  4.79798523e-06  8.02010167e-06  6.53591093e-01                                 
 9.02010167e-06  7.21701354e-01  9.02010167e-06  6.52987305e-01  9.02010167e-06  6.53061683e-01  9.02010167e-06  1.80000000e+00  9.02010167e-06  4.77268955e-06  9.02010167e-06  6.52987305e-01                                 
 1.00005000e-05  7.22324681e-01  1.00005000e-05  6.53523276e-01  1.00005000e-05  6.53779857e-01  1.00005000e-05  1.80000000e+00  1.00005000e-05  4.80402867e-06  1.00005000e-05  6.53523276e-01                                 
 1.00005500e-05  7.22325324e-01  1.00005500e-05  6.53523839e-01  1.00005500e-05  6.46906672e-01  1.00005500e-05  1.62000000e+00  1.00005500e-05 -1.24912448e-04  1.00005500e-05  6.53523839e-01                                 
 1.00006500e-05  7.22326636e-01  1.00006500e-05  6.53524973e-01  1.00006500e-05  6.35546444e-01  1.00006500e-05  1.26000000e+00  1.00006500e-05 -9.38448711e-05  1.00006500e-05  6.53524973e-01                                 
 1.00008500e-05  7.22329264e-01  1.00008500e-05  6.53527234e-01  1.00008500e-05  6.27323311e-01  1.00008500e-05  5.40000000e-01  1.00008500e-05  4.90071719e-03  1.00008500e-05  6.53527234e-01                                 
 1.00010000e-05  7.22331150e-01  1.00010000e-05  6.53528878e-01  1.00010000e-05  5.62887444e-01  1.00010000e-05  0.00000000e+00  1.00010000e-05  1.53374094e+00  1.00010000e-05  6.53528878e-01                                 
 1.00010250e-05  7.22331454e-01  1.00010250e-05  6.53529143e-01  1.00010250e-05  5.36101179e-01  1.00010250e-05  0.00000000e+00  1.00010250e-05  1.69621276e+00  1.00010250e-05  6.53529143e-01                                 
 1.00010751e-05  7.22332104e-01  1.00010751e-05  6.53529693e-01  1.00010751e-05  4.97700947e-01  1.00010751e-05  0.00000000e+00  1.00010751e-05  1.81960768e+00  1.00010751e-05  6.53529693e-01                                 
