 time            v(vbep)         time            v(vben)         time            v(vout)         time            v(vphi1)        time            v(vphi2)        time            v(vref)         time            v(voutc)        time            v(voutcc)       yes             currtemp       
 0.00000000e+00  7.98900480e-01  0.00000000e+00  7.44167842e-01  0.00000000e+00  1.65104396e+00  0.00000000e+00  0.00000000e+00  0.00000000e+00  1.80000000e+00  0.00000000e+00  7.47215089e-01  0.00000000e+00  1.65104396e+00  0.00000000e+00  1.65687037e+00  1.00000000e+00  1.00000000e+01 
 1.00000000e-11  7.98924496e-01  1.00000000e-11  7.44238479e-01  1.00000000e-11  1.65184259e+00  1.00000000e-11  1.80000000e-02  1.00000000e-11  1.80024757e+00  1.00000000e-11  7.47739798e-01  1.00000000e-11  1.65150906e+00  1.00000000e-11  1.65688227e+00                                 
 2.00000000e-11  7.98931088e-01  2.00000000e-11  7.44282907e-01  2.00000000e-11  1.65235468e+00  2.00000000e-11  3.60000000e-02  2.00000000e-11  1.80034810e+00  2.00000000e-11  7.48132175e-01  2.00000000e-11  1.65186632e+00  2.00000000e-11  1.65688678e+00                                 
 4.00000000e-11  7.98930899e-01  4.00000000e-11  7.44341248e-01  4.00000000e-11  1.65300012e+00  4.00000000e-11  7.20000000e-02  4.00000000e-11  1.80039001e+00  4.00000000e-11  7.48707879e-01  4.00000000e-11  1.65240636e+00  4.00000000e-11  1.65688802e+00                                 
 8.00000000e-11  7.98918996e-01  8.00000000e-11  7.44377226e-01  8.00000000e-11  1.65321035e+00  8.00000000e-11  1.44000000e-01  8.00000000e-11  1.80019085e+00  8.00000000e-11  7.49155116e-01  8.00000000e-11  1.65287272e+00  8.00000000e-11  1.65687707e+00                                 
 1.60000000e-10  7.98915745e-01  1.60000000e-10  7.44383018e-01  1.60000000e-10  1.65290836e+00  1.60000000e-10  2.88000000e-01  1.60000000e-10  1.80000595e+00  1.60000000e-10  7.49209919e-01  1.60000000e-10  1.65297228e+00  1.60000000e-10  1.65686642e+00                                 
 3.20000000e-10  7.98912660e-01  3.20000000e-10  7.44385204e-01  3.20000000e-10  1.65257651e+00  3.20000000e-10  5.76000000e-01  3.20000000e-10  1.80000563e+00  3.20000000e-10  7.49126994e-01  3.20000000e-10  1.65279496e+00  3.20000000e-10  1.65686363e+00                                 
 6.40000000e-10  7.98835830e-01  6.40000000e-10  7.44097711e-01  6.40000000e-10  1.64865694e+00  6.40000000e-10  1.15200000e+00  6.40000000e-10  1.81301704e+00  6.40000000e-10  7.47864001e-01  6.40000000e-10  1.65788245e+00  6.40000000e-10  1.65689323e+00                                 
 9.98891444e-10  7.99387913e-01  9.98891444e-10  7.44212718e-01  9.98891444e-10  1.62041012e+00  9.98891444e-10  1.79800460e+00  9.98891444e-10  8.24443740e-02  9.98891444e-10  7.53138126e-01  9.98891444e-10  1.65167909e+00  9.98891444e-10  1.65681018e+00                                 
 1.00000000e-09  7.99391271e-01  1.00000000e-09  7.44215175e-01  1.00000000e-09  1.62031370e+00  1.00000000e-09  1.80000000e+00  1.00000000e-09  7.36054888e-02  1.00000000e-09  7.53209887e-01  1.00000000e-09  1.65161612e+00  1.00000000e-09  1.65681006e+00                                 
 1.00221711e-09  7.99382515e-01  1.00221711e-09  7.44200297e-01  1.00221711e-09  1.62007575e+00  1.00221711e-09  1.80000000e+00  1.00221711e-09  5.98460595e-02  1.00221711e-09  7.53291660e-01  1.00221711e-09  1.65149576e+00  1.00221711e-09  1.65680985e+00                                 
 1.00665134e-09  7.99368265e-01  1.00665134e-09  7.44189777e-01  1.00665134e-09  1.61980346e+00  1.00665134e-09  1.80000000e+00  1.00665134e-09  3.75930396e-02  1.00665134e-09  7.53586974e-01  1.00665134e-09  1.65144695e+00  1.00665134e-09  1.65681791e+00                                 
 1.01551979e-09  7.99350670e-01  1.01551979e-09  7.44222031e-01  1.01551979e-09  1.61995487e+00  1.01551979e-09  1.80000000e+00  1.01551979e-09  1.44078257e-02  1.01551979e-09  7.54593915e-01  1.01551979e-09  1.65201813e+00  1.01551979e-09  1.65685359e+00                                 
 1.03325669e-09  7.99351515e-01  1.03325669e-09  7.44308042e-01  1.03325669e-09  1.62073894e+00  1.03325669e-09  1.80000000e+00  1.03325669e-09  1.84619333e-03  1.03325669e-09  7.56479861e-01  1.03325669e-09  1.65352356e+00  1.03325669e-09  1.65690094e+00                                 
 1.06873048e-09  7.99401335e-01  1.06873048e-09  7.44355555e-01  1.06873048e-09  1.62115219e+00  1.06873048e-09  1.80000000e+00  1.06873048e-09  8.70288653e-04  1.06873048e-09  7.58114795e-01  1.06873048e-09  1.65497544e+00  1.06873048e-09  1.65689421e+00                                 
 1.13967808e-09  7.99496614e-01  1.13967808e-09  7.44278972e-01  1.13967808e-09  1.62004063e+00  1.13967808e-09  1.80000000e+00  1.13967808e-09  5.63317175e-04  1.13967808e-09  7.58708014e-01  1.13967808e-09  1.65549411e+00  1.13967808e-09  1.65686753e+00                                 
 1.28157327e-09  7.99629395e-01  1.28157327e-09  7.44208466e-01  1.28157327e-09  1.61741671e+00  1.28157327e-09  1.80000000e+00  1.28157327e-09  3.45375565e-04  1.28157327e-09  7.59271568e-01  1.28157327e-09  1.65596267e+00  1.28157327e-09  1.65688028e+00                                 
 1.55253704e-09  7.99655057e-01  1.55253704e-09  7.44187106e-01  1.55253704e-09  1.61494988e+00  1.55253704e-09  1.80000000e+00  1.55253704e-09  7.95848177e-06  1.55253704e-09  7.58901764e-01  1.55253704e-09  1.65564578e+00  1.55253704e-09  1.65687405e+00                                 
 1.85989774e-09  7.99471979e-01  1.85989774e-09  7.44168363e-01  1.85989774e-09  1.61587820e+00  1.85989774e-09  1.80000000e+00  1.85989774e-09 -2.04280555e-05  1.85989774e-09  7.57822688e-01  1.85989774e-09  1.65472908e+00  1.85989774e-09  1.65689325e+00                                 
 2.15565735e-09  7.99281464e-01  2.15565735e-09  7.44161340e-01  2.15565735e-09  1.61726612e+00  2.15565735e-09  1.80000000e+00  2.15565735e-09 -5.96458798e-05  2.15565735e-09  7.56909462e-01  2.15565735e-09  1.65395366e+00  2.15565735e-09  1.65690534e+00                                 
 2.54344928e-09  7.99082758e-01  2.54344928e-09  7.44148279e-01  2.54344928e-09  1.61890390e+00  2.54344928e-09  1.80000000e+00  2.54344928e-09 -3.07169600e-05  2.54344928e-09  7.55707312e-01  2.54344928e-09  1.65293193e+00  2.54344928e-09  1.65693481e+00                                 
 3.27412549e-09  7.98880395e-01  3.27412549e-09  7.44142318e-01  3.27412549e-09  1.62111000e+00  3.27412549e-09  1.80000000e+00  3.27412549e-09 -5.54347323e-05  3.27412549e-09  7.53720125e-01  3.27412549e-09  1.65124254e+00  3.27412549e-09  1.65697587e+00                                 
 4.73547791e-09  7.98779915e-01  4.73547791e-09  7.44141440e-01  4.73547791e-09  1.62309543e+00  4.73547791e-09  1.80000000e+00  4.73547791e-09 -2.68769164e-05  4.73547791e-09  7.50637904e-01  4.73547791e-09  1.64862253e+00  4.73547791e-09  1.65702822e+00                                 
 6.83262887e-09  7.98813809e-01  6.83262887e-09  7.44156291e-01  6.83262887e-09  1.62240898e+00  6.83262887e-09  1.80000000e+00  6.83262887e-09 -4.53379562e-05  6.83262887e-09  7.48065745e-01  6.83262887e-09  1.64643709e+00  6.83262887e-09  1.65698213e+00                                 
 8.59959309e-09  7.98813947e-01  8.59959309e-09  7.44161285e-01  8.59959309e-09  1.62114756e+00  8.59959309e-09  1.80000000e+00  8.59959309e-09 -9.65644670e-06  8.59959309e-09  7.46991545e-01  8.59959309e-09  1.64552448e+00  8.59959309e-09  1.65686101e+00                                 
 1.06314117e-08  7.98806854e-01  1.06314117e-08  7.44166831e-01  1.06314117e-08  1.62018844e+00  1.06314117e-08  1.80000000e+00  1.06314117e-08 -2.27702505e-05  1.06314117e-08  7.46415407e-01  1.06314117e-08  1.64503270e+00  1.06314117e-08  1.65665693e+00                                 
 1.26569987e-08  7.98821716e-01  1.26569987e-08  7.44166035e-01  1.26569987e-08  1.61844281e+00  1.26569987e-08  1.80000000e+00  1.26569987e-08  3.93212515e-06  1.26569987e-08  7.46178625e-01  1.26569987e-08  1.64482659e+00  1.26569987e-08  1.65642999e+00                                 
 1.57018963e-08  7.98857205e-01  1.57018963e-08  7.44168343e-01  1.57018963e-08  1.61364777e+00  1.57018963e-08  1.80000000e+00  1.57018963e-08 -1.49816606e-05  1.57018963e-08  7.46123576e-01  1.57018963e-08  1.64476853e+00  1.57018963e-08  1.65607181e+00                                 
 1.92124586e-08  7.98883976e-01  1.92124586e-08  7.44166855e-01  1.92124586e-08  1.60588174e+00  1.92124586e-08  1.80000000e+00  1.92124586e-08  7.75110648e-06  1.92124586e-08  7.46199213e-01  1.92124586e-08  1.64481755e+00  1.92124586e-08  1.65568072e+00                                 
 2.46313728e-08  7.98903484e-01  2.46313728e-08  7.44168901e-01  2.46313728e-08  1.59188090e+00  2.46313728e-08  1.80000000e+00  2.46313728e-08 -1.32627927e-05  2.46313728e-08  7.46387864e-01  2.46313728e-08  1.64495481e+00  2.46313728e-08  1.65513022e+00                                 
 3.18355465e-08  7.98905310e-01  3.18355465e-08  7.44167247e-01  3.18355465e-08  1.57208021e+00  3.18355465e-08  1.80000000e+00  3.18355465e-08  8.18297050e-06  3.18355465e-08  7.46590142e-01  3.18355465e-08  1.64510163e+00  3.18355465e-08  1.65451479e+00                                 
 4.40735772e-08  7.98905119e-01  4.40735772e-08  7.44168796e-01  4.40735772e-08  1.53754312e+00  4.40735772e-08  1.80000000e+00  4.40735772e-08 -1.32125211e-05  4.40735772e-08  7.46843035e-01  4.40735772e-08  1.64528657e+00  4.40735772e-08  1.65369392e+00                                 
 6.59443577e-08  7.98901317e-01  6.59443577e-08  7.44167032e-01  6.59443577e-08  1.47503213e+00  6.59443577e-08  1.80000000e+00  6.59443577e-08  8.01187681e-06  6.59443577e-08  7.47065067e-01  6.59443577e-08  1.64544576e+00  6.59443577e-08  1.65273587e+00                                 
 1.09685919e-07  7.98901587e-01  1.09685919e-07  7.44168673e-01  1.09685919e-07  1.34965833e+00  1.09685919e-07  1.80000000e+00  1.09685919e-07 -1.32096290e-05  1.09685919e-07  7.47209092e-01  1.09685919e-07  1.64554538e+00  1.09685919e-07  1.65182503e+00                                 
 1.82356848e-07  7.98899633e-01  1.82356848e-07  7.44167017e-01  1.82356848e-07  1.14373646e+00  1.82356848e-07  1.80000000e+00  1.82356848e-07  8.16207013e-06  1.82356848e-07  7.47212883e-01  1.82356848e-07  1.64553891e+00  1.82356848e-07  1.65142976e+00                                 
 2.87201966e-07  7.98901294e-01  2.87201966e-07  7.44168666e-01  2.87201966e-07  8.67477743e-01  2.87201966e-07  1.80000000e+00  2.87201966e-07 -1.23016705e-05  2.87201966e-07  7.47217195e-01  2.87201966e-07  1.64553675e+00  2.87201966e-07  1.65136832e+00                                 
 3.90287116e-07  7.98899952e-01  3.90287116e-07  7.44167035e-01  3.90287116e-07  7.45381073e-01  3.90287116e-07  1.80000000e+00  3.90287116e-07  1.10843499e-05  3.90287116e-07  7.47212783e-01  3.90287116e-07  1.64552896e+00  3.90287116e-07  1.65137091e+00                                 
 4.89164061e-07  7.98900672e-01  4.89164061e-07  7.44168646e-01  4.89164061e-07  7.51873460e-01  4.89164061e-07  1.80000000e+00  4.89164061e-07 -1.07512066e-05  4.89164061e-07  7.47219238e-01  4.89164061e-07  1.64553044e+00  4.89164061e-07  1.65136511e+00                                 
 5.26932669e-07  7.98900236e-01  5.26932669e-07  7.44166997e-01  5.26932669e-07  7.50713790e-01  5.26932669e-07  1.80000000e+00  5.26932669e-07  1.09508820e-05  5.26932669e-07  7.47210011e-01  5.26932669e-07  1.64552119e+00  5.26932669e-07  1.65136556e+00                                 
 5.87971149e-07  7.98900899e-01  5.87971149e-07  7.44168717e-01  5.87971149e-07  7.50141272e-01  5.87971149e-07  1.80000000e+00  5.87971149e-07 -1.06914534e-05  5.87971149e-07  7.47219823e-01  5.87971149e-07  1.64552700e+00  5.87971149e-07  1.65136025e+00                                 
 7.10048111e-07  7.98900002e-01  7.10048111e-07  7.44166959e-01  7.10048111e-07  7.50470265e-01  7.10048111e-07  1.80000000e+00  7.10048111e-07  1.09459282e-05  7.10048111e-07  7.47210478e-01  7.10048111e-07  1.64551436e+00  7.10048111e-07  1.65135826e+00                                 
 9.43501090e-07  7.98900983e-01  9.43501090e-07  7.44168731e-01  9.43501090e-07  7.50169119e-01  9.43501090e-07  1.80000000e+00  9.43501090e-07 -1.06868575e-05  9.43501090e-07  7.47219646e-01  9.43501090e-07  1.64551281e+00  9.43501090e-07  1.65134627e+00                                 
 1.16549992e-06  7.98899951e-01  1.16549992e-06  7.44166951e-01  1.16549992e-06  7.50446362e-01  1.16549992e-06  1.80000000e+00  1.16549992e-06  1.09398389e-05  1.16549992e-06  7.47210588e-01  1.16549992e-06  1.64549646e+00  1.16549992e-06  1.65134028e+00                                 
 1.60949759e-06  7.98901020e-01  1.60949759e-06  7.44168736e-01  1.60949759e-06  7.50177060e-01  1.60949759e-06  1.80000000e+00  1.60949759e-06 -1.06844387e-05  1.60949759e-06  7.47219567e-01  1.60949759e-06  1.64548644e+00  1.60949759e-06  1.65132003e+00                                 
 2.47530860e-06  7.98899934e-01  2.47530860e-06  7.44166950e-01  2.47530860e-06  7.50434735e-01  2.47530860e-06  1.80000000e+00  2.47530860e-06  1.09350335e-05  2.47530860e-06  7.47210626e-01  2.47530860e-06  1.64544480e+00  2.47530860e-06  1.65128868e+00                                 
 3.67530860e-06  7.98901030e-01  3.67530860e-06  7.44168738e-01  3.67530860e-06  7.50169909e-01  3.67530860e-06  1.80000000e+00  3.67530860e-06 -1.06909924e-05  3.67530860e-06  7.47219548e-01  3.67530860e-06  1.64540494e+00  3.67530860e-06  1.65123869e+00                                 
 4.87530860e-06  7.98899925e-01  4.87530860e-06  7.44166947e-01  4.87530860e-06  7.50442473e-01  4.87530860e-06  1.80000000e+00  4.87530860e-06  1.09379218e-05  4.87530860e-06  7.47210643e-01  4.87530860e-06  1.64535005e+00  4.87530860e-06  1.65119409e+00                                 
 6.00100000e-06  7.98901038e-01  6.00100000e-06  7.44168739e-01  6.00100000e-06  7.50175433e-01  6.00100000e-06  1.80000000e+00  6.00100000e-06 -1.06879145e-05  6.00100000e-06  7.47219529e-01  6.00100000e-06  1.64531298e+00  6.00100000e-06  1.65114693e+00                                 
 6.00110000e-06  7.98862788e-01  6.00110000e-06  7.43930037e-01  6.00110000e-06  7.48243177e-01  6.00110000e-06  1.62000000e+00  6.00110000e-06 -1.01261541e-04  6.00110000e-06  7.45483178e-01  6.00110000e-06  1.64383696e+00  6.00110000e-06  1.65113538e+00                                 
 6.00130000e-06  7.98893986e-01  6.00130000e-06  7.43962354e-01  6.00130000e-06  7.48785550e-01  6.00130000e-06  1.26000000e+00  6.00130000e-06  3.68186550e-05  6.00130000e-06  7.45612177e-01  6.00130000e-06  1.64394913e+00  6.00130000e-06  1.65115538e+00                                 
 6.00170000e-06  7.98935922e-01  6.00170000e-06  7.43935853e-01  6.00170000e-06  7.58389135e-01  6.00170000e-06  5.40000000e-01  6.00170000e-06  1.13022396e+00  6.00170000e-06  7.43737885e-01  6.00170000e-06  1.61197865e+00  6.00170000e-06  1.65099789e+00                                 
 6.00200000e-06  7.98889258e-01  6.00200000e-06  7.41605915e-01  6.00200000e-06  7.92656574e-01  6.00200000e-06  0.00000000e+00  6.00200000e-06  1.80541520e+00  6.00200000e-06  7.17901160e-01  6.00200000e-06  1.34399094e+00  6.00200000e-06  1.65040609e+00                                 
 6.00204220e-06  7.98899695e-01  6.00204220e-06  7.41512922e-01  6.00204220e-06  7.90551751e-01  6.00204220e-06  0.00000000e+00  6.00204220e-06  1.80094990e+00  6.00204220e-06  7.17003635e-01  6.00204220e-06  1.29188530e+00  6.00204220e-06  1.65078672e+00                                 
 6.00212660e-06  7.98901332e-01  6.00212660e-06  7.41539595e-01  6.00212660e-06  7.84671111e-01  6.00212660e-06  0.00000000e+00  6.00212660e-06  1.79759268e+00  6.00212660e-06  7.17860276e-01  6.00212660e-06  1.20138952e+00  6.00212660e-06  1.65123525e+00                                 
 6.00229540e-06  7.98898534e-01  6.00229540e-06  7.41893019e-01  6.00229540e-06  7.77246223e-01  6.00229540e-06  0.00000000e+00  6.00229540e-06  1.79974721e+00  6.00229540e-06  7.22530033e-01  6.00229540e-06  1.06910715e+00  6.00229540e-06  1.65126278e+00                                 
 6.00249992e-06  7.98900116e-01  6.00249992e-06  7.42278860e-01  6.00249992e-06  7.72531427e-01  6.00249992e-06  0.00000000e+00  6.00249992e-06  1.79934685e+00  6.00249992e-06  7.26449243e-01  6.00249992e-06  9.51368447e-01  6.00249992e-06  1.65140846e+00                                 
 6.00274767e-06  7.98898385e-01  6.00274767e-06  7.42909298e-01  6.00274767e-06  7.66032227e-01  6.00274767e-06  0.00000000e+00  6.00274767e-06  1.79963433e+00  6.00274767e-06  7.32389869e-01  6.00274767e-06  8.49604288e-01  6.00274767e-06  1.65143052e+00                                 
 6.00311170e-06  7.98900236e-01  6.00311170e-06  7.43866800e-01  6.00311170e-06  7.56593883e-01  6.00311170e-06  0.00000000e+00  6.00311170e-06  1.79981543e+00  6.00311170e-06  7.41019568e-01  6.00311170e-06  7.74657337e-01  6.00311170e-06  1.65143881e+00                                 
 6.00341551e-06  7.98898930e-01  6.00341551e-06  7.44397101e-01  6.00341551e-06  7.52213330e-01  6.00341551e-06  0.00000000e+00  6.00341551e-06  1.80008898e+00  6.00341551e-06  7.45375895e-01  6.00341551e-06  7.57924555e-01  6.00341551e-06  1.65121853e+00                                 
 6.00374659e-06  7.98900572e-01  6.00374659e-06  7.44620916e-01  6.00374659e-06  7.51466199e-01  6.00374659e-06  0.00000000e+00  6.00374659e-06  1.79997835e+00  6.00374659e-06  7.46851728e-01  6.00374659e-06  7.52527941e-01  6.00374659e-06  1.65083461e+00                                 
 6.00414067e-06  7.98899458e-01  6.00414067e-06  7.44717395e-01  6.00414067e-06  7.50929318e-01  6.00414067e-06  0.00000000e+00  6.00414067e-06  1.80002485e+00  6.00414067e-06  7.47743815e-01  6.00414067e-06  7.51433042e-01  6.00414067e-06  1.65014848e+00                                 
 6.00477236e-06  7.98900910e-01  6.00477236e-06  7.44679293e-01  6.00477236e-06  7.52000648e-01  6.00477236e-06  0.00000000e+00  6.00477236e-06  1.80000461e+00  6.00477236e-06  7.47919198e-01  6.00477236e-06  7.51533805e-01  6.00477236e-06  1.64887979e+00                                 
 6.00580648e-06  7.98899821e-01  6.00580648e-06  7.44581081e-01  6.00580648e-06  7.53158882e-01  6.00580648e-06  0.00000000e+00  6.00580648e-06  1.80000488e+00  6.00580648e-06  7.48231800e-01  6.00580648e-06  7.53190002e-01  6.00580648e-06  1.64650216e+00                                 
 6.00786479e-06  7.98901058e-01  6.00786479e-06  7.44411226e-01  6.00786479e-06  7.56945432e-01  6.00786479e-06  0.00000000e+00  6.00786479e-06  1.80001325e+00  6.00786479e-06  7.48200429e-01  6.00786479e-06  7.56393364e-01  6.00786479e-06  1.64153737e+00                                 
 6.01198141e-06  7.98899878e-01  6.01198141e-06  7.44252729e-01  6.01198141e-06  7.63861858e-01  6.01198141e-06  0.00000000e+00  6.01198141e-06  1.80000036e+00  6.01198141e-06  7.48260848e-01  6.01198141e-06  7.63813714e-01  6.01198141e-06  1.63146222e+00                                 
 6.02021465e-06  7.98901068e-01  6.02021465e-06  7.44141209e-01  6.02021465e-06  7.78816123e-01  6.02021465e-06  0.00000000e+00  6.02021465e-06  1.80001497e+00  6.02021465e-06  7.47859683e-01  6.02021465e-06  7.78180387e-01  6.02021465e-06  1.61170450e+00                                 
 6.03668113e-06  7.98899887e-01  6.03668113e-06  7.44167525e-01  6.03668113e-06  8.06163839e-01  6.03668113e-06  0.00000000e+00  6.03668113e-06  1.79999870e+00  6.03668113e-06  7.47635994e-01  6.03668113e-06  8.06132375e-01  6.03668113e-06  1.57291778e+00                                 
 6.06961408e-06  7.98901068e-01  6.06961408e-06  7.44160191e-01  6.06961408e-06  8.56342872e-01  6.06961408e-06  0.00000000e+00  6.06961408e-06  1.80001389e+00  6.06961408e-06  7.47209864e-01  6.06961408e-06  8.55275693e-01  6.06961408e-06  1.49861565e+00                                 
