 time            v(vbep)         time            v(vben)         time            v(vout)         time            v(vphi1)        time            v(vphi2)        time            v(vref)         time            v(voutc)        time            v(voutcc)       yes             currtemp       
 0.00000000e+00  8.17980928e-01  0.00000000e+00  7.65962011e-01  0.00000000e+00  1.69161094e+00  0.00000000e+00  0.00000000e+00  0.00000000e+00  1.80000000e+00  0.00000000e+00  7.69416460e-01  0.00000000e+00  1.69161093e+00  0.00000000e+00  1.69700464e+00  1.00000000e+00 -3.00000000e+00 
 1.00000000e-11  8.18003948e-01  1.00000000e-11  7.66031186e-01  1.00000000e-11  1.69242264e+00  1.00000000e-11  1.80000000e-02  1.00000000e-11  1.80024577e+00  1.00000000e-11  7.69937380e-01  1.00000000e-11  1.69207315e+00  1.00000000e-11  1.69701900e+00                                 
 2.00000000e-11  8.18010323e-01  2.00000000e-11  7.66074731e-01  2.00000000e-11  1.69295717e+00  2.00000000e-11  3.60000000e-02  2.00000000e-11  1.80034712e+00  2.00000000e-11  7.70329019e-01  2.00000000e-11  1.69243183e+00  2.00000000e-11  1.69702540e+00                                 
 4.00000000e-11  8.18010180e-01  4.00000000e-11  7.66131743e-01  4.00000000e-11  1.69365074e+00  4.00000000e-11  7.20000000e-02  4.00000000e-11  1.80039193e+00  4.00000000e-11  7.70906075e-01  4.00000000e-11  1.69297988e+00  4.00000000e-11  1.69702931e+00                                 
 8.00000000e-11  8.17998606e-01  8.00000000e-11  7.66165746e-01  8.00000000e-11  1.69393158e+00  8.00000000e-11  1.44000000e-01  8.00000000e-11  1.80019626e+00  8.00000000e-11  7.71360894e-01  8.00000000e-11  1.69347567e+00  8.00000000e-11  1.69701943e+00                                 
 1.60000000e-10  8.17995248e-01  1.60000000e-10  7.66167616e-01  1.60000000e-10  1.69366604e+00  1.60000000e-10  2.88000000e-01  1.60000000e-10  1.80000943e+00  1.60000000e-10  7.71418084e-01  1.60000000e-10  1.69362460e+00  1.60000000e-10  1.69700772e+00                                 
 3.20000000e-10  8.17992521e-01  3.20000000e-10  7.66167734e-01  3.20000000e-10  1.69335209e+00  3.20000000e-10  5.76000000e-01  3.20000000e-10  1.80001360e+00  3.20000000e-10  7.71359837e-01  3.20000000e-10  1.69352483e+00  3.20000000e-10  1.69700541e+00                                 
 6.40000000e-10  8.17919241e-01  6.40000000e-10  7.65928033e-01  6.40000000e-10  1.68810326e+00  6.40000000e-10  1.15200000e+00  6.40000000e-10  1.81337758e+00  6.40000000e-10  7.70578890e-01  6.40000000e-10  1.69841423e+00  6.40000000e-10  1.69703428e+00                                 
 9.96911470e-10  8.18386326e-01  9.96911470e-10  7.65987106e-01  9.96911470e-10  1.65883837e+00  9.96911470e-10  1.79444065e+00  9.96911470e-10  7.85360529e-02  9.96911470e-10  7.73271836e-01  9.96911470e-10  1.68930518e+00  9.96911470e-10  1.69693075e+00                                 
 1.00000000e-09  8.18397118e-01  1.00000000e-09  7.66001013e-01  1.00000000e-09  1.65861693e+00  1.00000000e-09  1.80000000e+00  1.00000000e-09  5.62437012e-02  1.00000000e-09  7.73503005e-01  1.00000000e-09  1.68919211e+00  1.00000000e-09  1.69693488e+00                                 
 1.00617706e-09  8.18380859e-01  1.00617706e-09  7.65997880e-01  1.00617706e-09  1.65842762e+00  1.00617706e-09  1.80000000e+00  1.00617706e-09  3.36906208e-02  1.00617706e-09  7.74010693e-01  1.00617706e-09  1.68933078e+00  1.00617706e-09  1.69695245e+00                                 
 1.01853118e-09  8.18361307e-01  1.01853118e-09  7.66031702e-01  1.01853118e-09  1.65859036e+00  1.01853118e-09  1.80000000e+00  1.01853118e-09  7.42140829e-03  1.01853118e-09  7.75237390e-01  1.01853118e-09  1.69006064e+00  1.01853118e-09  1.69699513e+00                                 
 1.04323942e-09  8.18379290e-01  1.04323942e-09  7.66119387e-01  1.04323942e-09  1.65940502e+00  1.04323942e-09  1.80000000e+00  1.04323942e-09  4.85927133e-04  1.04323942e-09  7.77218715e-01  1.04323942e-09  1.69173781e+00  1.04323942e-09  1.69703839e+00                                 
 1.09265591e-09  8.18478762e-01  1.09265591e-09  7.66107829e-01  1.09265591e-09  1.65883678e+00  1.09265591e-09  1.80000000e+00  1.09265591e-09  1.14390183e-03  1.09265591e-09  7.78194975e-01  1.09265591e-09  1.69263033e+00  1.09265591e-09  1.69701068e+00                                 
 1.19148888e-09  8.18631082e-01  1.19148888e-09  7.66013582e-01  1.19148888e-09  1.65570897e+00  1.19148888e-09  1.80000000e+00  1.19148888e-09  1.67367947e-04  1.19148888e-09  7.78595053e-01  1.19148888e-09  1.69295172e+00  1.19148888e-09  1.69700602e+00                                 
 1.38915482e-09  8.18766779e-01  1.38915482e-09  7.65979310e-01  1.38915482e-09  1.65111166e+00  1.38915482e-09  1.80000000e+00  1.38915482e-09  3.96079262e-04  1.38915482e-09  7.79185092e-01  1.38915482e-09  1.69345010e+00  1.38915482e-09  1.69701639e+00                                 
 1.62917788e-09  8.18694638e-01  1.62917788e-09  7.65964340e-01  1.62917788e-09  1.65025214e+00  1.62917788e-09  1.80000000e+00  1.62917788e-09 -2.37284454e-04  1.62917788e-09  7.78709632e-01  1.62917788e-09  1.69303744e+00  1.62917788e-09  1.69701112e+00                                 
 1.90893325e-09  8.18511646e-01  1.90893325e-09  7.65958715e-01  1.90893325e-09  1.65194117e+00  1.90893325e-09  1.80000000e+00  1.90893325e-09  1.70721507e-04  1.90893325e-09  7.78119593e-01  1.90893325e-09  1.69254401e+00  1.90893325e-09  1.69702254e+00                                 
 2.19839491e-09  8.18327741e-01  2.19839491e-09  7.65951624e-01  2.19839491e-09  1.65383168e+00  2.19839491e-09  1.80000000e+00  2.19839491e-09 -2.25959369e-04  2.19839491e-09  7.77417777e-01  2.19839491e-09  1.69194334e+00  2.19839491e-09  1.69702349e+00                                 
 2.67624977e-09  8.18103584e-01  2.67624977e-09  7.65944788e-01  2.67624977e-09  1.65674728e+00  2.67624977e-09  1.80000000e+00  2.67624977e-09  1.37168392e-04  2.67624977e-09  7.76410765e-01  2.67624977e-09  1.69109555e+00  2.67624977e-09  1.69703889e+00                                 
 3.57219970e-09  8.17903055e-01  3.57219970e-09  7.65938551e-01  3.57219970e-09  1.66076471e+00  3.57219970e-09  1.80000000e+00  3.57219970e-09 -2.05290992e-04  3.57219970e-09  7.74633600e-01  3.57219970e-09  1.68958366e+00  3.57219970e-09  1.69704849e+00                                 
 5.36409955e-09  8.17853178e-01  5.36409955e-09  7.65942253e-01  5.36409955e-09  1.66515720e+00  5.36409955e-09  1.80000000e+00  5.36409955e-09  1.34662905e-04  5.36409955e-09  7.72065792e-01  5.36409955e-09  1.68741208e+00  5.36409955e-09  1.69703888e+00                                 
 7.66893181e-09  8.17912156e-01  7.66893181e-09  7.65952187e-01  7.66893181e-09  1.66601328e+00  7.66893181e-09  1.80000000e+00  7.66893181e-09 -1.91011089e-04  7.66893181e-09  7.70124628e-01  7.66893181e-09  1.68576112e+00  7.66893181e-09  1.69693169e+00                                 
 9.62274453e-09  8.17927443e-01  9.62274453e-09  7.65957680e-01  9.62274453e-09  1.66500529e+00  9.62274453e-09  1.80000000e+00  9.62274453e-09  1.39847040e-04  9.62274453e-09  7.69352057e-01  9.62274453e-09  1.68511010e+00  9.62274453e-09  1.69678869e+00                                 
 1.18781858e-08  8.17925932e-01  1.18781858e-08  7.65960320e-01  1.18781858e-08  1.66399001e+00  1.18781858e-08  1.80000000e+00  1.18781858e-08 -1.72275356e-04  1.18781858e-08  7.68866561e-01  1.18781858e-08  1.68469015e+00  1.18781858e-08  1.69657683e+00                                 
 1.43869156e-08  8.17924028e-01  1.43869156e-08  7.65961667e-01  1.43869156e-08  1.66323708e+00  1.43869156e-08  1.80000000e+00  1.43869156e-08  1.50954001e-04  1.43869156e-08  7.68696096e-01  1.43869156e-08  1.68454427e+00  1.43869156e-08  1.69632796e+00                                 
 1.79606424e-08  8.17948354e-01  1.79606424e-08  7.65961798e-01  1.79606424e-08  1.66029465e+00  1.79606424e-08  1.80000000e+00  1.79606424e-08 -1.59634018e-04  1.79606424e-08  7.68610665e-01  1.79606424e-08  1.68445454e+00  1.79606424e-08  1.69595977e+00                                 
 2.23189471e-08  8.17969758e-01  2.23189471e-08  7.65962155e-01  2.23189471e-08  1.65412446e+00  2.23189471e-08  1.80000000e+00  2.23189471e-08  1.53095104e-04  2.23189471e-08  7.68697223e-01  2.23189471e-08  1.68451579e+00  2.23189471e-08  1.69553774e+00                                 
 2.88531060e-08  8.17983020e-01  2.88531060e-08  7.65962095e-01  2.88531060e-08  1.64243302e+00  2.88531060e-08  1.80000000e+00  2.88531060e-08 -1.56166042e-04  2.88531060e-08  7.68792461e-01  2.88531060e-08  1.68456730e+00  2.88531060e-08  1.69495278e+00                                 
 3.82834454e-08  8.17984390e-01  3.82834454e-08  7.65962292e-01  3.82834454e-08  1.62414884e+00  3.82834454e-08  1.80000000e+00  3.82834454e-08  1.52357096e-04  3.82834454e-08  7.68975083e-01  3.82834454e-08  1.68469817e+00  3.82834454e-08  1.69423219e+00                                 
 5.29803307e-08  8.17983457e-01  5.29803307e-08  7.65962006e-01  5.29803307e-08  1.59444068e+00  5.29803307e-08  1.80000000e+00  5.29803307e-08 -1.56041605e-04  5.29803307e-08  7.69113757e-01  5.29803307e-08  1.68477871e+00  5.29803307e-08  1.69332337e+00                                 
 8.00674222e-08  8.17981688e-01  8.00674222e-08  7.65962139e-01  8.00674222e-08  1.53812966e+00  8.00674222e-08  1.80000000e+00  8.00674222e-08  1.51779912e-04  8.00674222e-08  7.69311105e-01  8.00674222e-08  1.68491593e+00  8.00674222e-08  1.69217500e+00                                 
 1.34241605e-07  8.17981451e-01  1.34241605e-07  7.65961918e-01  1.34241605e-07  1.42414106e+00  1.34241605e-07  1.80000000e+00  1.34241605e-07 -1.56065853e-04  1.34241605e-07  7.69390830e-01  1.34241605e-07  1.68494918e+00  1.34241605e-07  1.69100955e+00                                 
 2.34439880e-07  8.17980567e-01  2.34439880e-07  7.65962113e-01  2.34439880e-07  1.21569519e+00  2.34439880e-07  1.80000000e+00  2.34439880e-07  1.51742352e-04  2.34439880e-07  7.69432822e-01  2.34439880e-07  1.68497452e+00  2.34439880e-07  1.69041909e+00                                 
 3.58452854e-07  8.17981298e-01  3.58452854e-07  7.65961914e-01  3.58452854e-07  9.65707500e-01  3.58452854e-07  1.80000000e+00  3.58452854e-07 -1.54779362e-04  3.58452854e-07  7.69401200e-01  3.58452854e-07  1.68493639e+00  3.58452854e-07  1.69035851e+00                                 
 5.14328872e-07  8.17980605e-01  5.14328872e-07  7.65962109e-01  5.14328872e-07  7.83893463e-01  5.14328872e-07  1.80000000e+00  5.14328872e-07  1.53341917e-04  5.14328872e-07  7.69430759e-01  5.14328872e-07  1.68495969e+00  5.14328872e-07  1.69035935e+00                                 
 6.07288168e-07  8.17981308e-01  6.07288168e-07  7.65961929e-01  6.07288168e-07  7.71040112e-01  6.07288168e-07  1.80000000e+00  6.07288168e-07 -1.53305487e-04  6.07288168e-07  7.69404100e-01  6.07288168e-07  1.68492835e+00  6.07288168e-07  1.69035250e+00                                 
 6.78686988e-07  8.17980246e-01  6.78686988e-07  7.65962058e-01  6.78686988e-07  7.73240153e-01  6.78686988e-07  1.80000000e+00  6.78686988e-07  1.53363851e-04  6.78686988e-07  7.69428984e-01  6.78686988e-07  1.68495134e+00  6.78686988e-07  1.69035268e+00                                 
 7.57938611e-07  8.17981778e-01  7.57938611e-07  7.65961989e-01  7.57938611e-07  7.72698977e-01  7.57938611e-07  1.80000000e+00  7.57938611e-07 -1.53584735e-04  7.57938611e-07  7.69403702e-01  7.57938611e-07  1.68492175e+00  7.57938611e-07  1.69034546e+00                                 
 8.37154203e-07  8.17979969e-01  8.37154203e-07  7.65962020e-01  8.37154203e-07  7.73014316e-01  8.37154203e-07  1.80000000e+00  8.37154203e-07  1.53297250e-04  8.37154203e-07  7.69429389e-01  8.37154203e-07  1.68494511e+00  8.37154203e-07  1.69034590e+00                                 
 9.52962782e-07  8.17981943e-01  9.52962782e-07  7.65962015e-01  9.52962782e-07  7.72790639e-01  9.52962782e-07  1.80000000e+00  9.52962782e-07 -1.53631849e-04  9.52962782e-07  7.69403465e-01  9.52962782e-07  1.68491347e+00  9.52962782e-07  1.69033741e+00                                 
 1.09780834e-06  8.17979882e-01  1.09780834e-06  7.65962005e-01  1.09780834e-06  7.73030006e-01  1.09780834e-06  1.80000000e+00  1.09780834e-06  1.53243458e-04  1.09780834e-06  7.69429529e-01  1.09780834e-06  1.68493442e+00  1.09780834e-06  1.69033509e+00                                 
 1.30015699e-06  8.17981994e-01  1.30015699e-06  7.65962024e-01  1.30015699e-06  7.72816284e-01  1.30015699e-06  1.80000000e+00  1.30015699e-06 -1.53543356e-04  1.30015699e-06  7.69403373e-01  1.30015699e-06  1.68489901e+00  1.30015699e-06  1.69032306e+00                                 
 1.58947590e-06  8.17979853e-01  1.58947590e-06  7.65961999e-01  1.58947590e-06  7.73023570e-01  1.58947590e-06  1.80000000e+00  1.58947590e-06  1.53221254e-04  1.58947590e-06  7.69429588e-01  1.58947590e-06  1.68491412e+00  1.58947590e-06  1.69031477e+00                                 
 1.99124859e-06  8.17982012e-01  1.99124859e-06  7.65962028e-01  1.99124859e-06  7.72826323e-01  1.99124859e-06  1.80000000e+00  1.99124859e-06 -1.53510617e-04  1.99124859e-06  7.69403335e-01  1.99124859e-06  1.68487035e+00  1.99124859e-06  1.69029451e+00                                 
 2.58450121e-06  8.17979842e-01  2.58450121e-06  7.65961998e-01  2.58450121e-06  7.73020577e-01  2.58450121e-06  1.80000000e+00  2.58450121e-06  1.53206162e-04  2.58450121e-06  7.69429614e-01  2.58450121e-06  1.68487291e+00  2.58450121e-06  1.69027363e+00                                 
 3.60896904e-06  8.17982018e-01  3.60896904e-06  7.65962030e-01  3.60896904e-06  7.72827856e-01  3.60896904e-06  1.80000000e+00  3.60896904e-06 -1.53664302e-04  3.60896904e-06  7.69403322e-01  3.60896904e-06  1.68480338e+00  3.60896904e-06  1.69022769e+00                                 
 4.80896904e-06  8.17979838e-01  4.80896904e-06  7.65961996e-01  4.80896904e-06  7.73021033e-01  4.80896904e-06  1.80000000e+00  4.80896904e-06  1.53165188e-04  4.80896904e-06  7.69429622e-01  4.80896904e-06  1.68478091e+00  4.80896904e-06  1.69018183e+00                                 
 6.00100000e-06  8.17982021e-01  6.00100000e-06  7.65962030e-01  6.00100000e-06  7.72835926e-01  6.00100000e-06  1.80000000e+00  6.00100000e-06 -1.53323181e-04  6.00100000e-06  7.69403307e-01  6.00100000e-06  1.68470434e+00  6.00100000e-06  1.69012891e+00                                 
 6.00110000e-06  8.17946567e-01  6.00110000e-06  7.65731315e-01  6.00110000e-06  7.70864724e-01  6.00110000e-06  1.62000000e+00  6.00110000e-06 -1.08813485e-04  6.00110000e-06  7.67616728e-01  6.00110000e-06  1.68319186e+00  6.00110000e-06  1.69011675e+00                                 
 6.00130000e-06  8.17976891e-01  6.00130000e-06  7.65780623e-01  6.00130000e-06  7.71524811e-01  6.00130000e-06  1.26000000e+00  6.00130000e-06  5.15012196e-05  6.00130000e-06  7.67861100e-01  6.00130000e-06  1.68340202e+00  6.00130000e-06  1.69013872e+00                                 
 6.00170000e-06  8.18011475e-01  6.00170000e-06  7.65865987e-01  6.00170000e-06  7.76099292e-01  6.00170000e-06  5.40000000e-01  6.00170000e-06  5.65932863e-01  6.00170000e-06  7.67402276e-01  6.00170000e-06  1.67082596e+00  6.00170000e-06  1.69006099e+00                                 
 6.00200000e-06  8.17972971e-01  6.00200000e-06  7.63642041e-01  6.00200000e-06  8.15794331e-01  6.00200000e-06  0.00000000e+00  6.00200000e-06  1.70937973e+00  6.00200000e-06  7.41338672e-01  6.00200000e-06  1.44989419e+00  6.00200000e-06  1.68928950e+00                                 
 6.00204592e-06  8.17981741e-01  6.00204592e-06  7.63537340e-01  6.00204592e-06  8.15390819e-01  6.00204592e-06  0.00000000e+00  6.00204592e-06  1.76736923e+00  6.00204592e-06  7.40077644e-01  6.00204592e-06  1.39314091e+00  6.00204592e-06  1.68957826e+00                                 
 6.00213777e-06  8.17980706e-01  6.00213777e-06  7.63474732e-01  6.00213777e-06  8.09952015e-01  6.00213777e-06  0.00000000e+00  6.00213777e-06  1.80705573e+00  6.00213777e-06  7.39558425e-01  6.00213777e-06  1.28845221e+00  6.00213777e-06  1.69007556e+00                                 
 6.00232146e-06  8.17979340e-01  6.00232146e-06  7.63956568e-01  6.00232146e-06  7.98706373e-01  6.00232146e-06  0.00000000e+00  6.00232146e-06  1.79394304e+00  6.00232146e-06  7.45468709e-01  6.00232146e-06  1.13963159e+00  6.00232146e-06  1.69023208e+00                                 
 6.00255564e-06  8.17980479e-01  6.00255564e-06  7.64418612e-01  6.00255564e-06  7.93701692e-01  6.00255564e-06  0.00000000e+00  6.00255564e-06  1.80319973e+00  6.00255564e-06  7.50336208e-01  6.00255564e-06  1.01600480e+00  6.00255564e-06  1.69034032e+00                                 
 6.00283118e-06  8.17979029e-01  6.00283118e-06  7.64875662e-01  6.00283118e-06  7.88418130e-01  6.00283118e-06  0.00000000e+00  6.00283118e-06  1.79710492e+00  6.00283118e-06  7.54497240e-01  6.00283118e-06  9.07934704e-01  6.00283118e-06  1.69042083e+00                                 
 6.00312825e-06  8.17980867e-01  6.00312825e-06  7.65467340e-01  6.00312825e-06  7.83099645e-01  6.00312825e-06  0.00000000e+00  6.00312825e-06  1.80152255e+00  6.00312825e-06  7.60164086e-01  6.00312825e-06  8.31730482e-01  6.00312825e-06  1.69046248e+00                                 
 6.00372238e-06  8.17979560e-01  6.00372238e-06  7.66291275e-01  6.00372238e-06  7.74075033e-01  6.00372238e-06  0.00000000e+00  6.00372238e-06  1.79848277e+00  6.00372238e-06  7.67909400e-01  6.00372238e-06  7.75610153e-01  6.00372238e-06  1.69027216e+00                                 
 6.00413813e-06  8.17981426e-01  6.00413813e-06  7.66488449e-01  6.00413813e-06  7.73518713e-01  6.00413813e-06  0.00000000e+00  6.00413813e-06  1.80127854e+00  6.00413813e-06  7.69713752e-01  6.00413813e-06  7.74555635e-01  6.00413813e-06  1.68992252e+00                                 
 6.00468285e-06  8.17979949e-01  6.00468285e-06  7.66459897e-01  6.00468285e-06  7.73561959e-01  6.00468285e-06  0.00000000e+00  6.00468285e-06  1.79892612e+00  6.00468285e-06  7.69691211e-01  6.00468285e-06  7.73355202e-01  6.00468285e-06  1.68924542e+00                                 
 6.00518592e-06  8.17981671e-01  6.00518592e-06  7.66439573e-01  6.00518592e-06  7.74082746e-01  6.00518592e-06  0.00000000e+00  6.00518592e-06  1.80091498e+00  6.00518592e-06  7.70228290e-01  6.00518592e-06  7.74120379e-01  6.00518592e-06  1.68852577e+00                                 
 6.00619207e-06  8.17980122e-01  6.00619207e-06  7.66302285e-01  6.00619207e-06  7.75075934e-01  6.00619207e-06  0.00000000e+00  6.00619207e-06  1.79917992e+00  6.00619207e-06  7.69999264e-01  6.00619207e-06  7.74747052e-01  6.00619207e-06  1.68693683e+00                                 
 6.00820436e-06  8.17981738e-01  6.00820436e-06  7.66182926e-01  6.00820436e-06  7.77547810e-01  6.00820436e-06  0.00000000e+00  6.00820436e-06  1.80079500e+00  6.00820436e-06  7.70451910e-01  6.00820436e-06  7.77447433e-01  6.00820436e-06  1.68359429e+00                                 
 6.01222895e-06  8.17980122e-01  6.01222895e-06  7.66021949e-01  6.01222895e-06  7.82745370e-01  6.01222895e-06  0.00000000e+00  6.01222895e-06  1.79923300e+00  6.01222895e-06  7.70106733e-01  6.01222895e-06  7.82334652e-01  6.01222895e-06  1.67681364e+00                                 
 6.02027812e-06  8.17981724e-01  6.02027812e-06  7.65967204e-01  6.02027812e-06  7.93639707e-01  6.02027812e-06  0.00000000e+00  6.02027812e-06  1.80076919e+00  6.02027812e-06  7.70260028e-01  6.02027812e-06  7.93491826e-01  6.02027812e-06  1.66341236e+00                                 
 6.03637646e-06  8.17980127e-01  6.03637646e-06  7.65940960e-01  6.03637646e-06  8.14513849e-01  6.03637646e-06  0.00000000e+00  6.03637646e-06  1.79924894e+00  6.03637646e-06  7.69661724e-01  6.03637646e-06  8.14032388e-01  6.03637646e-06  1.63627597e+00                                 
