 time            v(vbep)         time            v(vben)         time            v(vout)         time            v(vphi1)        time            v(vphi2)        time            v(vref)         time            v(voutc)        time            v(voutcc)       yes             currtemp       
 0.00000000e+00  7.43441856e-01  0.00000000e+00  6.80868780e-01  0.00000000e+00  1.54478146e+00  0.00000000e+00  0.00000000e+00  0.00000000e+00  1.80000000e+00  0.00000000e+00  6.82490140e-01  0.00000000e+00  1.54478145e+00  0.00000000e+00  1.55173646e+00  1.00000000e+00  4.70000000e+01 
 1.00000000e-11  7.43466971e-01  1.00000000e-11  6.80940411e-01  1.00000000e-11  1.54555733e+00  1.00000000e-11  1.80000000e-02  1.00000000e-11  1.80025257e+00  1.00000000e-11  6.83023349e-01  1.00000000e-11  1.54525288e+00  1.00000000e-11  1.55175054e+00                                 
 2.00000000e-11  7.43473846e-01  2.00000000e-11  6.80985128e-01  2.00000000e-11  1.54603031e+00  2.00000000e-11  3.60000000e-02  2.00000000e-11  1.80035232e+00  2.00000000e-11  6.83418700e-01  2.00000000e-11  1.54560870e+00  2.00000000e-11  1.55175576e+00                                 
 4.00000000e-11  7.43473850e-01  4.00000000e-11  6.81043932e-01  4.00000000e-11  1.54659531e+00  4.00000000e-11  7.20000000e-02  4.00000000e-11  1.80039006e+00  4.00000000e-11  6.83996755e-01  4.00000000e-11  1.54613827e+00  4.00000000e-11  1.55175746e+00                                 
 8.00000000e-11  7.43462140e-01  8.00000000e-11  6.81081580e-01  8.00000000e-11  1.54670053e+00  8.00000000e-11  1.44000000e-01  8.00000000e-11  1.80018554e+00  8.00000000e-11  6.84445239e-01  8.00000000e-11  1.54656758e+00  8.00000000e-11  1.55174689e+00                                 
 1.60000000e-10  7.43459350e-01  1.60000000e-10  6.81092157e-01  1.60000000e-10  1.54636510e+00  1.60000000e-10  2.88000000e-01  1.60000000e-10  1.80000460e+00  1.60000000e-10  6.84525037e-01  1.60000000e-10  1.54661613e+00  1.60000000e-10  1.55173742e+00                                 
 3.20000000e-10  7.43455223e-01  3.20000000e-10  6.81087598e-01  3.20000000e-10  1.54598902e+00  3.20000000e-10  5.76000000e-01  3.20000000e-10  1.79998672e+00  3.20000000e-10  6.84373936e-01  3.20000000e-10  1.54629743e+00  3.20000000e-10  1.55173289e+00                                 
 6.40000000e-10  7.43371840e-01  6.40000000e-10  6.80694957e-01  6.40000000e-10  1.54398323e+00  6.40000000e-10  1.15200000e+00  6.40000000e-10  1.81102776e+00  6.40000000e-10  6.81991493e-01  6.40000000e-10  1.55075325e+00  6.40000000e-10  1.55176047e+00                                 
 1.00000000e-09  7.43992272e-01  1.00000000e-09  6.80993768e-01  1.00000000e-09  1.52055151e+00  1.00000000e-09  1.80000000e+00  1.00000000e-09  9.63477401e-02  1.00000000e-09  6.94634395e-01  1.00000000e-09  1.55252002e+00  1.00000000e-09  1.55173471e+00                                 
 1.03669759e-09  7.44045194e-01  1.03669759e-09  6.81023029e-01  1.03669759e-09  1.51939561e+00  1.03669759e-09  1.80000000e+00  1.03669759e-09  2.19154113e-02  1.03669759e-09  6.97689555e-01  1.03669759e-09  1.55420319e+00  1.03669759e-09  1.55176863e+00                                 
 1.11009278e-09  7.44177322e-01  1.11009278e-09  6.81083429e-01  1.11009278e-09  1.51815855e+00  1.11009278e-09  1.80000000e+00  1.11009278e-09 -1.04340766e-02  1.11009278e-09  7.01626721e-01  1.11009278e-09  1.55726670e+00  1.11009278e-09  1.55179160e+00                                 
 1.25688314e-09  7.44293885e-01  1.25688314e-09  6.80950142e-01  1.25688314e-09  1.51574362e+00  1.25688314e-09  1.80000000e+00  1.25688314e-09  8.55944194e-03  1.25688314e-09  7.01811307e-01  1.25688314e-09  1.55769009e+00  1.25688314e-09  1.55174408e+00                                 
 1.45672480e-09  7.44270229e-01  1.45672480e-09  6.80927567e-01  1.45672480e-09  1.51506759e+00  1.45672480e-09  1.80000000e+00  1.45672480e-09 -6.59926329e-03  1.45672480e-09  7.01094420e-01  1.45672480e-09  1.55686899e+00  1.45672480e-09  1.55177738e+00                                 
 1.67647823e-09  7.44175943e-01  1.67647823e-09  6.80922905e-01  1.67647823e-09  1.51490531e+00  1.67647823e-09  1.80000000e+00  1.67647823e-09  5.61155868e-03  1.67647823e-09  6.99658817e-01  1.67647823e-09  1.55582671e+00  1.67647823e-09  1.55179235e+00                                 
 2.04397884e-09  7.43926648e-01  2.04397884e-09  6.80875956e-01  2.04397884e-09  1.51482835e+00  2.04397884e-09  1.80000000e+00  2.04397884e-09 -5.05773671e-03  2.04397884e-09  6.97252020e-01  2.04397884e-09  1.55361262e+00  2.04397884e-09  1.55189038e+00                                 
 2.48707787e-09  7.43697895e-01  2.48707787e-09  6.80879452e-01  2.48707787e-09  1.51496670e+00  2.48707787e-09  1.80000000e+00  2.48707787e-09  4.53857042e-03  2.48707787e-09  6.94824547e-01  2.48707787e-09  1.55168257e+00  2.48707787e-09  1.55199975e+00                                 
 3.15330485e-09  7.43466264e-01  3.15330485e-09  6.80834702e-01  3.15330485e-09  1.51423809e+00  3.15330485e-09  1.80000000e+00  3.15330485e-09 -4.36868166e-03  3.15330485e-09  6.91270150e-01  3.15330485e-09  1.54851098e+00  3.15330485e-09  1.55217751e+00                                 
 4.13931753e-09  7.43325550e-01  4.13931753e-09  6.80852286e-01  4.13931753e-09  1.51336750e+00  4.13931753e-09  1.80000000e+00  4.13931753e-09  4.12441987e-03  4.13931753e-09  6.87628582e-01  4.13931753e-09  1.54553181e+00  4.13931753e-09  1.55235801e+00                                 
 6.11134288e-09  7.43227599e-01  6.11134288e-09  6.80830690e-01  6.11134288e-09  1.51018847e+00  6.11134288e-09  1.80000000e+00  6.11134288e-09 -4.08491549e-03  6.11134288e-09  6.82882498e-01  6.11134288e-09  1.54136276e+00  6.11134288e-09  1.55246634e+00                                 
 7.62684085e-09  7.43261137e-01  7.62684085e-09  6.80866952e-01  7.62684085e-09  1.50672364e+00  7.62684085e-09  1.80000000e+00  7.62684085e-09  3.96304707e-03  7.62684085e-09  6.81565232e-01  7.62684085e-09  1.54036536e+00  7.62684085e-09  1.55234162e+00                                 
 9.07776710e-09  7.43288886e-01  9.07776710e-09  6.80844638e-01  9.07776710e-09  1.50163483e+00  9.07776710e-09  1.80000000e+00  9.07776710e-09 -3.86890533e-03  9.07776710e-09  6.80665809e-01  9.07776710e-09  1.53947760e+00  9.07776710e-09  1.55214138e+00                                 
 1.06155116e-08  7.43342048e-01  1.06155116e-08  6.80876539e-01  1.06155116e-08  1.49553899e+00  1.06155116e-08  1.80000000e+00  1.06155116e-08  3.76786785e-03  1.06155116e-08  6.80606810e-01  1.06155116e-08  1.53953928e+00  1.06155116e-08  1.55188073e+00                                 
 1.28448273e-08  7.43382716e-01  1.28448273e-08  6.80851942e-01  1.28448273e-08  1.48459626e+00  1.28448273e-08  1.80000000e+00  1.28448273e-08 -3.70549994e-03  1.28448273e-08  6.80339532e-01  1.28448273e-08  1.53918428e+00  1.28448273e-08  1.55149609e+00                                 
 1.54832710e-08  7.43430086e-01  1.54832710e-08  6.80881850e-01  1.54832710e-08  1.47070279e+00  1.54832710e-08  1.80000000e+00  1.54832710e-08  3.65187502e-03  1.54832710e-08  6.80750111e-01  1.54832710e-08  1.53963023e+00  1.54832710e-08  1.55105778e+00                                 
 1.92085530e-08  7.43443542e-01  1.92085530e-08  6.80855086e-01  1.92085530e-08  1.44921992e+00  1.92085530e-08  1.80000000e+00  1.92085530e-08 -3.61351209e-03  1.92085530e-08  6.80851814e-01  1.92085530e-08  1.53958185e+00  1.92085530e-08  1.55052144e+00                                 
 2.41202089e-08  7.43459338e-01  2.41202089e-08  6.80883413e-01  2.41202089e-08  1.42055281e+00  2.41202089e-08  1.80000000e+00  2.41202089e-08  3.58662197e-03  2.41202089e-08  6.81473073e-01  2.41202089e-08  1.54019834e+00  2.41202089e-08  1.54994607e+00                                 
 3.25674858e-08  7.43446334e-01  3.25674858e-08  6.80855424e-01  3.25674858e-08  1.37010460e+00  3.25674858e-08  1.80000000e+00  3.25674858e-08 -3.56920765e-03  3.25674858e-08  6.81703392e-01  3.25674858e-08  1.54025770e+00  3.25674858e-08  1.54924321e+00                                 
 4.64478365e-08  7.43450332e-01  4.64478365e-08  6.80882988e-01  4.64478365e-08  1.28781622e+00  4.64478365e-08  1.80000000e+00  4.64478365e-08  3.56038889e-03  4.64478365e-08  6.82335734e-01  4.64478365e-08  1.54088657e+00  4.64478365e-08  1.54857657e+00                                 
 7.42085379e-08  7.43437521e-01  7.42085379e-08  6.80854829e-01  7.42085379e-08  1.12355505e+00  7.42085379e-08  1.80000000e+00  7.42085379e-08 -3.55433440e-03  7.42085379e-08  6.82350753e-01  7.42085379e-08  1.54077841e+00  7.42085379e-08  1.54806712e+00                                 
 1.09270752e-07  7.43446228e-01  1.09270752e-07  6.80882704e-01  1.09270752e-07  9.20652793e-01  1.09270752e-07  1.80000000e+00  1.09270752e-07  3.55251353e-03  1.09270752e-07  6.82606408e-01  1.09270752e-07  1.54110394e+00  1.09270752e-07  1.54794110e+00                                 
 1.60596531e-07  7.43438359e-01  1.60596531e-07  6.80854844e-01  1.60596531e-07  7.18026504e-01  1.60596531e-07  1.80000000e+00  1.60596531e-07 -3.54269230e-03  1.60596531e-07  6.82371420e-01  1.60596531e-07  1.54079110e+00  1.60596531e-07  1.54791098e+00                                 
 1.99321623e-07  7.43445796e-01  1.99321623e-07  6.80882863e-01  1.99321623e-07  6.81008484e-01  1.99321623e-07  1.80000000e+00  1.99321623e-07  3.55185702e-03  1.99321623e-07  6.82613776e-01  1.99321623e-07  1.54110595e+00  1.99321623e-07  1.54790812e+00                                 
 2.31250495e-07  7.43435905e-01  2.31250495e-07  6.80854494e-01  2.31250495e-07  6.84267787e-01  2.31250495e-07  1.80000000e+00  2.31250495e-07 -3.53395467e-03  2.31250495e-07  6.82369352e-01  2.31250495e-07  1.54078698e+00  2.31250495e-07  1.54790843e+00                                 
 2.58053166e-07  7.43448171e-01  2.58053166e-07  6.80883119e-01  2.58053166e-07  6.84130267e-01  2.58053166e-07  1.80000000e+00  2.58053166e-07  3.54278995e-03  2.58053166e-07  6.82610126e-01  2.58053166e-07  1.54110063e+00  2.58053166e-07  1.54790458e+00                                 
 2.87076877e-07  7.43435551e-01  2.87076877e-07  6.80854415e-01  2.87076877e-07  6.84132203e-01  2.87076877e-07  1.80000000e+00  2.87076877e-07 -3.52463152e-03  2.87076877e-07  6.82370376e-01  2.87076877e-07  1.54078602e+00  2.87076877e-07  1.54790503e+00                                 
 3.42275235e-07  7.43448110e-01  3.42275235e-07  6.80883134e-01  3.42275235e-07  6.84180119e-01  3.42275235e-07  1.80000000e+00  3.42275235e-07  3.53591621e-03  3.42275235e-07  6.82609757e-01  3.42275235e-07  1.54109731e+00  3.42275235e-07  1.54790129e+00                                 
 4.18927030e-07  7.43435652e-01  4.18927030e-07  6.80854417e-01  4.18927030e-07  6.84107307e-01  4.18927030e-07  1.80000000e+00  4.18927030e-07 -3.52058286e-03  4.18927030e-07  6.82370537e-01  4.18927030e-07  1.54078167e+00  4.18927030e-07  1.54790028e+00                                 
 5.58274615e-07  7.43448029e-01  5.58274615e-07  6.80883131e-01  5.58274615e-07  6.84193788e-01  5.58274615e-07  1.80000000e+00  5.58274615e-07  3.53327422e-03  5.58274615e-07  6.82609672e-01  5.58274615e-07  1.54108977e+00  5.58274615e-07  1.54789390e+00                                 
 8.06660199e-07  7.43435700e-01  8.06660199e-07  6.80854419e-01  8.06660199e-07  6.84100279e-01  8.06660199e-07  1.80000000e+00  8.06660199e-07 -3.51912130e-03  8.06660199e-07  6.82370578e-01  8.06660199e-07  1.54076841e+00  8.06660199e-07  1.54788696e+00                                 
 1.23578579e-06  7.43448000e-01  1.23578579e-06  6.80883129e-01  1.23578579e-06  6.84197480e-01  1.23578579e-06  1.80000000e+00  1.23578579e-06  3.53244415e-03  1.23578579e-06  6.82609650e-01  1.23578579e-06  1.54106643e+00  1.23578579e-06  1.54787063e+00                                 
 2.04932314e-06  7.43435717e-01  2.04932314e-06  6.80854420e-01  2.04932314e-06  6.84098228e-01  2.04932314e-06  1.80000000e+00  2.04932314e-06 -3.51865644e-03  2.04932314e-06  6.82370589e-01  2.04932314e-06  1.54072565e+00  2.04932314e-06  1.54784423e+00                                 
 3.24932314e-06  7.43447991e-01  3.24932314e-06  6.80883128e-01  3.24932314e-06  6.84198622e-01  3.24932314e-06  1.80000000e+00  3.24932314e-06  3.53217511e-03  3.24932314e-06  6.82609643e-01  3.24932314e-06  1.54099711e+00  3.24932314e-06  1.54780142e+00                                 
 4.44932314e-06  7.43435724e-01  4.44932314e-06  6.80854421e-01  4.44932314e-06  6.84097298e-01  4.44932314e-06  1.80000000e+00  4.44932314e-06 -3.51845660e-03  4.44932314e-06  6.82370594e-01  4.44932314e-06  1.54064308e+00  4.44932314e-06  1.54776176e+00                                 
 5.64932314e-06  7.43447983e-01  5.64932314e-06  6.80883127e-01  5.64932314e-06  6.84199526e-01  5.64932314e-06  1.80000000e+00  5.64932314e-06  3.53195776e-03  5.64932314e-06  6.82609638e-01  5.64932314e-06  1.54091457e+00  5.64932314e-06  1.54771899e+00                                 
 6.00100000e-06  7.43435742e-01  6.00100000e-06  6.80854422e-01  6.00100000e-06  6.84095304e-01  6.00100000e-06  1.80000000e+00  6.00100000e-06 -3.51798343e-03  6.00100000e-06  6.82370605e-01  6.00100000e-06  1.54058973e+00  6.00100000e-06  1.54770847e+00                                 
 6.00110000e-06  7.43394497e-01  6.00110000e-06  6.80629103e-01  6.00110000e-06  6.82381592e-01  6.00110000e-06  1.62000000e+00  6.00110000e-06 -3.93087494e-04  6.00110000e-06  6.80902412e-01  6.00110000e-06  1.53938579e+00  6.00110000e-06  1.54769801e+00                                 
 6.00130000e-06  7.43428182e-01  6.00130000e-06  6.80632422e-01  6.00130000e-06  6.82572399e-01  6.00130000e-06  1.26000000e+00  6.00130000e-06  2.57567312e-04  6.00130000e-06  6.80742233e-01  6.00130000e-06  1.53925927e+00  6.00130000e-06  1.54771211e+00                                 
 6.00165596e-06  7.43486077e-01  6.00165596e-06  6.80858368e-01  6.00165596e-06  6.84691589e-01  6.00165596e-06  6.19279293e-01  6.00165596e-06 -1.96644220e-03  6.00165596e-06  6.81501917e-01  6.00165596e-06  1.53725816e+00  6.00165596e-06  1.54769498e+00                                 
 6.00200000e-06  7.43431218e-01  6.00200000e-06  6.79253912e-01  6.00200000e-06  7.16489332e-01  6.00200000e-06  0.00000000e+00  6.00200000e-06  1.59655394e+00  6.00200000e-06  6.64366276e-01  6.00200000e-06  1.34815753e+00  6.00200000e-06  1.54710252e+00                                 
 6.00204082e-06  7.43445312e-01  6.00204082e-06  6.78878893e-01  6.00204082e-06  7.22913427e-01  6.00204082e-06  0.00000000e+00  6.00204082e-06  1.72030766e+00  6.00204082e-06  6.60157239e-01  6.00204082e-06  1.28944667e+00  6.00204082e-06  1.54711491e+00                                 
 6.00212245e-06  7.43444211e-01  6.00212245e-06  6.78165126e-01  6.00212245e-06  7.27550281e-01  6.00212245e-06  0.00000000e+00  6.00212245e-06  1.81347028e+00  6.00212245e-06  6.52430214e-01  6.00212245e-06  1.16709744e+00  6.00212245e-06  1.54747060e+00                                 
 6.00228572e-06  7.43439869e-01  6.00228572e-06  6.78040233e-01  6.00228572e-06  7.18063365e-01  6.00228572e-06  0.00000000e+00  6.00228572e-06  1.78955441e+00  6.00228572e-06  6.52030559e-01  6.00228572e-06  9.71756320e-01  6.00228572e-06  1.54796448e+00                                 
 6.00243342e-06  7.43442528e-01  6.00243342e-06  6.78485598e-01  6.00243342e-06  7.12761014e-01  6.00243342e-06  0.00000000e+00  6.00243342e-06  1.80362418e+00  6.00243342e-06  6.57242608e-01  6.00243342e-06  8.55447292e-01  6.00243342e-06  1.54791105e+00                                 
 6.00262468e-06  7.43438794e-01  6.00262468e-06  6.79252224e-01  6.00262468e-06  7.02033819e-01  6.00262468e-06  0.00000000e+00  6.00262468e-06  1.79667908e+00  6.00262468e-06  6.64888218e-01  6.00262468e-06  7.57613094e-01  6.00262468e-06  1.54811472e+00                                 
 6.00284788e-06  7.43442250e-01  6.00284788e-06  6.80304446e-01  6.00284788e-06  6.91414026e-01  6.00284788e-06  0.00000000e+00  6.00284788e-06  1.80174356e+00  6.00284788e-06  6.75018199e-01  6.00284788e-06  7.10132482e-01  6.00284788e-06  1.54801627e+00                                 
 6.00304900e-06  7.43439189e-01  6.00304900e-06  6.80788944e-01  6.00304900e-06  6.87837193e-01  6.00304900e-06  0.00000000e+00  6.00304900e-06  1.79898307e+00  6.00304900e-06  6.78704219e-01  6.00304900e-06  6.94031829e-01  6.00304900e-06  1.54777232e+00                                 
 6.00332751e-06  7.43442409e-01  6.00332751e-06  6.81220388e-01  6.00332751e-06  6.85135102e-01  6.00332751e-06  0.00000000e+00  6.00332751e-06  1.80075512e+00  6.00332751e-06  6.82121472e-01  6.00332751e-06  6.87466845e-01  6.00332751e-06  1.54696481e+00                                 
 6.00362103e-06  7.43439932e-01  6.00362103e-06  6.81323191e-01  6.00362103e-06  6.85383077e-01  6.00362103e-06  0.00000000e+00  6.00362103e-06  1.79951769e+00  6.00362103e-06  6.82671806e-01  6.00362103e-06  6.85265308e-01  6.00362103e-06  1.54592607e+00                                 
 6.00413389e-06  7.43442735e-01  6.00413389e-06  6.81395861e-01  6.00413389e-06  6.85639742e-01  6.00413389e-06  0.00000000e+00  6.00413389e-06  1.80041672e+00  6.00413389e-06  6.83651686e-01  6.00413389e-06  6.85867700e-01  6.00413389e-06  1.54370009e+00                                 
 6.00484084e-06  7.43440522e-01  6.00484084e-06  6.81315608e-01  6.00484084e-06  6.87774536e-01  6.00484084e-06  0.00000000e+00  6.00484084e-06  1.79966893e+00  6.00484084e-06  6.83488946e-01  6.00484084e-06  6.87082126e-01  6.00484084e-06  1.54036825e+00                                 
 6.00625475e-06  7.43442969e-01  6.00625475e-06  6.81235701e-01  6.00625475e-06  6.91001294e-01  6.00625475e-06  0.00000000e+00  6.00625475e-06  1.80032785e+00  6.00625475e-06  6.83951350e-01  6.00625475e-06  6.91072548e-01  6.00625475e-06  1.53312938e+00                                 
 6.00908258e-06  7.43440710e-01  6.00908258e-06  6.81025218e-01  6.00908258e-06  6.99131990e-01  6.00908258e-06  0.00000000e+00  6.00908258e-06  1.79970798e+00  6.00908258e-06  6.83546163e-01  6.00908258e-06  6.98361457e-01  6.00908258e-06  1.51796020e+00                                 
 6.01473823e-06  7.43442991e-01  6.01473823e-06  6.80875817e-01  6.01473823e-06  7.13887570e-01  6.01473823e-06  0.00000000e+00  6.01473823e-06  1.80030789e+00  6.01473823e-06  6.83546502e-01  6.01473823e-06  7.13941183e-01  6.01473823e-06  1.48704862e+00                                 
 6.02604953e-06  7.43440725e-01  6.02604953e-06  6.80833115e-01  6.02604953e-06  7.43456341e-01  6.02604953e-06  0.00000000e+00  6.02604953e-06  1.79971646e+00  6.02604953e-06  6.82773765e-01  6.02604953e-06  7.42569694e-01  6.02604953e-06  1.42827816e+00                                 
 6.04429096e-06  7.43442984e-01  6.04429096e-06  6.80881563e-01  6.04429096e-06  7.86621633e-01  6.04429096e-06  0.00000000e+00  6.04429096e-06  1.80030155e+00  6.04429096e-06  6.82760487e-01  6.04429096e-06  7.86760400e-01  6.04429096e-06  1.34254972e+00                                 
 6.08077381e-06  7.43440728e-01  6.08077381e-06  6.80852868e-01  6.08077381e-06  8.62907431e-01  6.08077381e-06  0.00000000e+00  6.08077381e-06  1.79971625e+00  6.08077381e-06  6.82314527e-01  6.08077381e-06  8.61261050e-01  6.08077381e-06  1.19485838e+00                                 
 6.14508594e-06  7.43442982e-01  6.14508594e-06  6.80884582e-01  6.14508594e-06  9.65105521e-01  6.14508594e-06  0.00000000e+00  6.14508594e-06  1.80029547e+00  6.14508594e-06  6.82642120e-01  6.14508594e-06  9.66121027e-01  6.14508594e-06  1.02423547e+00                                 
 6.27371021e-06  7.43440729e-01  6.27371021e-06  6.80853097e-01  6.27371021e-06  1.08881010e+00  6.27371021e-06  0.00000000e+00  6.27371021e-06  1.79971085e+00  6.27371021e-06  6.82325150e-01  6.27371021e-06  1.08648912e+00  6.27371021e-06  1.03655567e+00                                 
