 time            v(vbep)         time            v(vben)         time            v(vout)         time            v(vphi1)        time            v(vphi2)        time            v(vref)         yes             currtemp       
 0.00000000e+00  6.84227719e-01  0.00000000e+00  6.28973516e-01  0.00000000e+00  9.68966792e-01  0.00000000e+00  0.00000000e+00  0.00000000e+00  1.79995270e+00  0.00000000e+00  6.28973516e-01  1.00000000e+00  2.90000000e+01 
 5.00000000e-12  6.84199572e-01  5.00000000e-12  6.28950192e-01  5.00000000e-12  9.69689899e-01  5.00000000e-12  1.80000000e-02  5.00000000e-12  1.80007858e+00  5.00000000e-12  6.28950192e-01                                 
 1.00000000e-11  6.84172163e-01  1.00000000e-11  6.28927473e-01  1.00000000e-11  9.70348217e-01  1.00000000e-11  3.60000000e-02  1.00000000e-11  1.80015404e+00  1.00000000e-11  6.28927473e-01                                 
 2.00000000e-11  6.84117795e-01  2.00000000e-11  6.28882211e-01  2.00000000e-11  9.71560683e-01  2.00000000e-11  7.20000000e-02  2.00000000e-11  1.80023956e+00  2.00000000e-11  6.28882211e-01                                 
 4.00000000e-11  6.84009833e-01  4.00000000e-11  6.28792038e-01  4.00000000e-11  9.73508968e-01  4.00000000e-11  1.44000000e-01  4.00000000e-11  1.80023360e+00  4.00000000e-11  6.28792038e-01                                 
 8.00000000e-11  6.83794963e-01  8.00000000e-11  6.28612496e-01  8.00000000e-11  9.76076701e-01  8.00000000e-11  2.88000000e-01  8.00000000e-11  1.80013535e+00  8.00000000e-11  6.28612496e-01                                 
 1.60000000e-10  6.83369780e-01  1.60000000e-10  6.28256615e-01  1.60000000e-10  9.78269715e-01  1.60000000e-10  5.76000000e-01  1.60000000e-10  1.80002565e+00  1.60000000e-10  6.28256615e-01                                 
 3.20000000e-10  6.82536575e-01  3.20000000e-10  6.27557209e-01  3.20000000e-10  9.70283697e-01  3.20000000e-10  1.15200000e+00  3.20000000e-10  1.80026131e+00  3.20000000e-10  6.27557209e-01                                 
 5.00000000e-10  6.81625630e-01  5.00000000e-10  6.26789378e-01  5.00000000e-10  1.07312659e+00  5.00000000e-10  1.80000000e+00  5.00000000e-10  1.47169014e-01  5.00000000e-10  6.26789378e-01                                 
 5.21236299e-10  6.81520139e-01  5.21236299e-10  6.26700231e-01  5.21236299e-10  1.09942292e+00  5.21236299e-10  1.80000000e+00  5.21236299e-10  3.60577332e-02  5.21236299e-10  6.26700231e-01                                 
 5.63708897e-10  6.81309872e-01  5.63708897e-10  6.26522445e-01  5.63708897e-10  1.15181629e+00  5.63708897e-10  1.80000000e+00  5.63708897e-10 -1.37014290e-02  5.63708897e-10  6.26522445e-01                                 
 6.48654093e-10  6.80893655e-01  6.48654093e-10  6.26170018e-01  6.48654093e-10  1.24728175e+00  6.48654093e-10  1.80000000e+00  6.48654093e-10  1.17638485e-02  6.48654093e-10  6.26170018e-01                                 
 7.68651659e-10  6.80315258e-01  7.68651659e-10  6.25679158e-01  7.68651659e-10  1.36739607e+00  7.68651659e-10  1.80000000e+00  7.68651659e-10 -8.94023625e-03  7.68651659e-10  6.25679158e-01                                 
 9.50742803e-10  6.79458102e-01  9.50742803e-10  6.24949380e-01  9.50742803e-10  1.51829744e+00  9.50742803e-10  1.80000000e+00  9.50742803e-10  8.93504099e-03  9.50742803e-10  6.24949380e-01                                 
 1.31492509e-09  6.77812971e-01  1.31492509e-09  6.23541070e-01  1.31492509e-09  1.71383062e+00  1.31492509e-09  1.80000000e+00  1.31492509e-09 -7.79338950e-03  1.31492509e-09  6.23541070e-01                                 
 1.70266878e-09  6.76155271e-01  1.70266878e-09  6.22111807e-01  1.70266878e-09  1.81116462e+00  1.70266878e-09  1.80000000e+00  1.70266878e-09  7.75080047e-03  1.70266878e-09  6.22111807e-01                                 
 2.04881122e-09  6.74749725e-01  2.04881122e-09  6.20892064e-01  2.04881122e-09  1.84483875e+00  2.04881122e-09  1.80000000e+00  2.04881122e-09 -7.15034695e-03  2.04881122e-09  6.20892064e-01                                 
 2.42454563e-09  6.73295793e-01  2.42454563e-09  6.19622947e-01  2.42454563e-09  1.85903205e+00  2.42454563e-09  1.80000000e+00  2.42454563e-09  6.86818508e-03  2.42454563e-09  6.19622947e-01                                 
 2.88955567e-09  6.71589978e-01  2.88955567e-09  6.18124664e-01  2.88955567e-09  1.86340728e+00  2.88955567e-09  1.80000000e+00  2.88955567e-09 -6.52870073e-03  2.88955567e-09  6.18124664e-01                                 
 3.56481959e-09  6.69275905e-01  3.56481959e-09  6.16076687e-01  3.56481959e-09  1.86351287e+00  3.56481959e-09  1.80000000e+00  3.56481959e-09  6.37311006e-03  3.56481959e-09  6.16076687e-01                                 
 4.54115535e-09  6.66222343e-01  4.54115535e-09  6.13348210e-01  4.54115535e-09  1.86042139e+00  4.54115535e-09  1.80000000e+00  4.54115535e-09 -6.21662498e-03  4.54115535e-09  6.13348210e-01                                 
 6.23509562e-09  6.61575606e-01  6.23509562e-09  6.09143699e-01  6.23509562e-09  1.85618609e+00  6.23509562e-09  1.80000000e+00  6.23509562e-09  6.16884579e-03  6.23509562e-09  6.09143699e-01                                 
 9.61992345e-09  6.54028191e-01  9.61992345e-09  6.02195495e-01  9.61992345e-09  1.84846390e+00  9.61992345e-09  1.80000000e+00  9.61992345e-09 -6.10487318e-03  9.61992345e-09  6.02195495e-01                                 
 1.28531174e-08  6.48340811e-01  1.28531174e-08  5.96864877e-01  1.28531174e-08  1.84231071e+00  1.28531174e-08  1.80000000e+00  1.28531174e-08  6.09520101e-03  1.28531174e-08  5.96864877e-01                                 
 1.48832962e-08  6.45289019e-01  1.48832962e-08  5.93976148e-01  1.48832962e-08  1.83858965e+00  1.48832962e-08  1.80000000e+00  1.48832962e-08 -6.01169545e-03  1.48832962e-08  5.93976148e-01                                 
 1.62342725e-08  6.43425763e-01  1.62342725e-08  5.92204440e-01  1.62342725e-08  1.83659125e+00  1.62342725e-08  1.80000000e+00  1.62342725e-08  5.94639992e-03  1.62342725e-08  5.92204440e-01                                 
 1.79744150e-08  6.41186796e-01  1.79744150e-08  5.90068823e-01  1.79744150e-08  1.83352908e+00  1.79744150e-08  1.80000000e+00  1.79744150e-08 -5.85717720e-03  1.79744150e-08  5.90068823e-01                                 
 2.00542159e-08  6.38710968e-01  2.00542159e-08  5.87700281e-01  2.00542159e-08  1.83053094e+00  2.00542159e-08  1.80000000e+00  2.00542159e-08  5.82259762e-03  2.00542159e-08  5.87700281e-01                                 
 2.28131124e-08  6.35696494e-01  2.28131124e-08  5.84809722e-01  2.28131124e-08  1.82612770e+00  2.28131124e-08  1.80000000e+00  2.28131124e-08 -5.76002670e-03  2.28131124e-08  5.84809722e-01                                 
 2.63163068e-08  6.32207445e-01  2.63163068e-08  5.81461076e-01  2.63163068e-08  1.82147688e+00  2.63163068e-08  1.80000000e+00  2.63163068e-08  5.74838983e-03  2.63163068e-08  5.81461076e-01                                 
 3.10051880e-08  6.27959848e-01  3.10051880e-08  5.77391425e-01  3.10051880e-08  1.81537711e+00  3.10051880e-08  1.80000000e+00  3.10051880e-08 -5.70316146e-03  3.10051880e-08  5.77391425e-01                                 
 3.85967054e-08  6.21967237e-01  3.85967054e-08  5.71649892e-01  3.85967054e-08  1.80799998e+00  3.85967054e-08  1.80000000e+00  3.85967054e-08  5.70981851e-03  3.85967054e-08  5.71649892e-01                                 
 4.83980001e-08  6.15358753e-01  4.83980001e-08  5.65333572e-01  4.83980001e-08  1.79726561e+00  4.83980001e-08  1.80000000e+00  4.83980001e-08 -5.67668745e-03  4.83980001e-08  5.65333572e-01                                 
 5.90489632e-08  6.07329655e-01  5.90489632e-08  5.57994737e-01  5.90489632e-08  1.77694842e+00  5.90489632e-08  1.80000000e+00  5.90489632e-08  5.68664195e-03  5.90489632e-08  5.57994737e-01                                 
 7.46035221e-08  5.98210602e-01  7.46035221e-08  5.49585194e-01  7.46035221e-08  1.74560276e+00  7.46035221e-08  1.80000000e+00  7.46035221e-08 -5.65864089e-03  7.46035221e-08  5.49585194e-01                                 
 9.07139480e-08  5.90222934e-01  9.07139480e-08  5.42255055e-01  9.07139480e-08  1.71730821e+00  9.07139480e-08  1.80000000e+00  9.07139480e-08  5.67310205e-03  9.07139480e-08  5.42255055e-01                                 
 1.18986951e-07  5.80257370e-01  1.18986951e-07  5.32947085e-01  1.18986951e-07  1.67049186e+00  1.18986951e-07  1.80000000e+00  1.18986951e-07 -5.64737816e-03  1.18986951e-07  5.32947085e-01                                 
 1.48520014e-07  5.83496814e-01  1.48520014e-07  5.34291849e-01  1.48520014e-07  1.66683893e+00  1.48520014e-07  1.80000000e+00  1.48520014e-07  5.66829717e-03  1.48520014e-07  5.34291849e-01                                 
 1.70942962e-07  5.84250396e-01  1.70942962e-07  5.34082920e-01  1.70942962e-07  1.64847153e+00  1.70942962e-07  1.80000000e+00  1.70942962e-07 -5.63978694e-03  1.70942962e-07  5.34082920e-01                                 
 1.92902099e-07  5.77735488e-01  1.92902099e-07  5.28235065e-01  1.92902099e-07  1.61804433e+00  1.92902099e-07  1.80000000e+00  1.92902099e-07  5.65697917e-03  1.92902099e-07  5.28235065e-01                                 
 2.12345702e-07  5.72638724e-01  2.12345702e-07  5.23651580e-01  2.12345702e-07  1.59122381e+00  2.12345702e-07  1.80000000e+00  2.12345702e-07 -5.62908877e-03  2.12345702e-07  5.23651580e-01                                 
 2.33173400e-07  5.67307765e-01  2.33173400e-07  5.18899890e-01  2.33173400e-07  1.56724674e+00  2.33173400e-07  1.80000000e+00  2.33173400e-07  5.64632864e-03  2.33173400e-07  5.18899890e-01                                 
 2.67051451e-07  5.57792920e-01  2.67051451e-07  5.10611576e-01  2.67051451e-07  1.52245801e+00  2.67051451e-07  1.80000000e+00  2.67051451e-07 -5.62080206e-03  2.67051451e-07  5.10611576e-01                                 
 3.10334661e-07  5.46868614e-01  3.10334661e-07  5.01162057e-01  3.10334661e-07  1.47004563e+00  3.10334661e-07  1.80000000e+00  3.10334661e-07  5.64078415e-03  3.10334661e-07  5.01162057e-01                                 
 3.85663221e-07  5.23844308e-01  3.85663221e-07  4.81891634e-01  3.85663221e-07  1.36940781e+00  3.85663221e-07  1.80000000e+00  3.85663221e-07 -5.61720582e-03  3.85663221e-07  4.81891634e-01                                 
 4.62968300e-07  5.08522330e-01  4.62968300e-07  4.69034581e-01  4.62968300e-07  1.27730708e+00  4.62968300e-07  1.80000000e+00  4.62968300e-07  5.63839319e-03  4.62968300e-07  4.69034581e-01                                 
 5.41429727e-07  4.76137483e-01  5.41429727e-07  4.42845540e-01  5.41429727e-07  1.16282663e+00  5.41429727e-07  1.80000000e+00  5.41429727e-07 -5.61517797e-03  5.41429727e-07  4.42845540e-01                                 
 6.15826530e-07  4.51035149e-01  6.15826530e-07  4.22694840e-01  6.15826530e-07  1.06370526e+00  6.15826530e-07  1.80000000e+00  6.15826530e-07  5.63595608e-03  6.15826530e-07  4.22694840e-01                                 
 7.20803465e-07  7.44362429e-01  7.20803465e-07  6.86991932e-01  7.20803465e-07  1.23495337e+00  7.20803465e-07  1.80000000e+00  7.20803465e-07 -5.60094675e-03  7.20803465e-07  6.86991932e-01                                 
 8.20890980e-07  8.08830752e-01  8.20890980e-07  7.44734575e-01  8.20890980e-07  1.19947402e+00  8.20890980e-07  1.80000000e+00  8.20890980e-07  5.62608380e-03  8.20890980e-07  7.44734575e-01                                 
 8.30072451e-07  8.08901037e-01  8.30072451e-07  7.44791897e-01  8.30072451e-07  1.18658472e+00  8.30072451e-07  1.80000000e+00  8.30072451e-07  3.00747132e-06  8.30072451e-07  7.44791897e-01                                 
 8.48435393e-07  8.08968291e-01  8.48435393e-07  7.44843571e-01  8.48435393e-07  1.16705597e+00  8.48435393e-07  1.80000000e+00  8.48435393e-07 -3.12769457e-06  8.48435393e-07  7.44843571e-01                                 
 8.80851039e-07  8.08945090e-01  8.80851039e-07  7.44827354e-01  8.80851039e-07  1.13376079e+00  8.80851039e-07  1.80000000e+00  8.80851039e-07  3.03783930e-06  8.80851039e-07  7.44827354e-01                                 
 9.15202466e-07  8.05137457e-01  9.15202466e-07  7.41780331e-01  9.15202466e-07  1.09396416e+00  9.15202466e-07  1.80000000e+00  9.15202466e-07 -3.61749840e-06  9.15202466e-07  7.41780331e-01                                 
 9.19411550e-07  8.02553106e-01  9.19411550e-07  7.39701059e-01  9.19411550e-07  1.08743676e+00  9.19411550e-07  1.80000000e+00  9.19411550e-07 -1.31075422e-06  9.19411550e-07  7.39701059e-01                                 
 9.27829717e-07  7.94484856e-01  9.27829717e-07  7.33029636e-01  9.27829717e-07  1.07136884e+00  9.27829717e-07  1.80000000e+00  9.27829717e-07 -2.86026421e-06  9.27829717e-07  7.33029636e-01                                 
 9.44666051e-07  7.77281717e-01  9.44666051e-07  7.18000674e-01  9.44666051e-07  1.03718525e+00  9.44666051e-07  1.80000000e+00  9.44666051e-07 -1.74719324e-06  9.44666051e-07  7.18000674e-01                                 
 9.64718048e-07  7.67448211e-01  9.64718048e-07  7.09051742e-01  9.64718048e-07  1.00733530e+00  9.64718048e-07  1.80000000e+00  9.64718048e-07 -4.79379924e-07  9.64718048e-07  7.09051742e-01                                 
 9.95155920e-07  7.62054411e-01  9.95155920e-07  7.04038085e-01  9.95155920e-07  9.73999870e-01  9.95155920e-07  1.80000000e+00  9.95155920e-07 -2.38689042e-07  9.95155920e-07  7.04038085e-01                                 
 1.03287777e-06  7.73898412e-01  1.03287777e-06  7.14883916e-01  1.03287777e-06  9.52114478e-01  1.03287777e-06  1.80000000e+00  1.03287777e-06  1.75807680e-06  1.03287777e-06  7.14883916e-01                                 
 1.09276185e-06  7.90771979e-01  1.09276185e-06  7.29787741e-01  1.09276185e-06  9.20786577e-01  1.09276185e-06  1.80000000e+00  1.09276185e-06 -2.90333102e-07  1.09276185e-06  7.29787741e-01                                 
 1.15437193e-06  7.84521492e-01  1.15437193e-06  7.24394593e-01  1.15437193e-06  8.73134327e-01  1.15437193e-06  1.80000000e+00  1.15437193e-06  2.18938629e-07  1.15437193e-06  7.24394593e-01                                 
 1.23628144e-06  7.75041089e-01  1.23628144e-06  7.15947692e-01  1.23628144e-06  8.15589710e-01  1.23628144e-06  1.80000000e+00  1.23628144e-06 -2.44823336e-07  1.23628144e-06  7.15947692e-01                                 
 1.32463157e-06  7.83951926e-01  1.32463157e-06  7.23872940e-01  1.32463157e-06  7.79885307e-01  1.32463157e-06  1.80000000e+00  1.32463157e-06  1.24942198e-06  1.32463157e-06  7.23872940e-01                                 
 1.33660166e-06  7.85423317e-01  1.33660166e-06  7.25159887e-01  1.33660166e-06  7.76463343e-01  1.33660166e-06  1.80000000e+00  1.33660166e-06  5.94070647e-07  1.33660166e-06  7.25159887e-01                                 
 1.36054184e-06  7.86743920e-01  1.36054184e-06  7.26317510e-01  1.36054184e-06  7.68676316e-01  1.36054184e-06  1.80000000e+00  1.36054184e-06  3.28393790e-07  1.36054184e-06  7.26317510e-01                                 
 1.40842220e-06  7.81661059e-01  1.40842220e-06  7.21873654e-01  1.40842220e-06  7.49426228e-01  1.40842220e-06  1.80000000e+00  1.40842220e-06 -1.92778606e-08  1.40842220e-06  7.21873654e-01                                 
 1.48686823e-06  7.78532353e-01  1.48686823e-06  7.19075670e-01  1.48686823e-06  7.30092862e-01  1.48686823e-06  1.80000000e+00  1.48686823e-06  6.75725757e-07  1.48686823e-06  7.19075670e-01                                 
 1.56889858e-06  7.84744031e-01  1.56889858e-06  7.24571884e-01  1.56889858e-06  7.25128925e-01  1.56889858e-06  1.80000000e+00  1.56889858e-06  5.20283048e-07  1.56889858e-06  7.24571884e-01                                 
 1.71786824e-06  7.80600287e-01  1.71786824e-06  7.20927587e-01  1.71786824e-06  7.09981432e-01  1.71786824e-06  1.80000000e+00  1.71786824e-06  2.85763578e-07  1.71786824e-06  7.20927587e-01                                 
 1.85597104e-06  7.81402956e-01  1.85597104e-06  7.21628662e-01  1.85597104e-06  7.16104493e-01  1.85597104e-06  1.80000000e+00  1.85597104e-06  7.39911755e-07  1.85597104e-06  7.21628662e-01                                 
 2.03389312e-06  7.83444472e-01  2.03389312e-06  7.23437455e-01  2.03389312e-06  7.27360243e-01  2.03389312e-06  1.80000000e+00  2.03389312e-06  3.15769843e-07  2.03389312e-06  7.23437455e-01                                 
 2.20987444e-06  7.80004540e-01  2.20987444e-06  7.20392412e-01  2.20987444e-06  7.18232782e-01  2.20987444e-06  1.80000000e+00  2.20987444e-06  5.51115715e-07  2.20987444e-06  7.20392412e-01                                 
 2.23245838e-06  7.81042427e-01  2.23245838e-06  7.21312207e-01  2.23245838e-06  7.19426333e-01  2.23245838e-06  1.80000000e+00  2.23245838e-06  5.87865583e-07  2.23245838e-06  7.21312207e-01                                 
 2.27762626e-06  7.82685832e-01  2.27762626e-06  7.22764753e-01  2.27762626e-06  7.22125097e-01  2.27762626e-06  1.80000000e+00  2.27762626e-06  5.56075359e-07  2.27762626e-06  7.22764753e-01                                 
 2.36796202e-06  7.82191557e-01  2.36796202e-06  7.22332683e-01  2.36796202e-06  7.22720509e-01  2.36796202e-06  1.80000000e+00  2.36796202e-06  4.00753920e-07  2.36796202e-06  7.22332683e-01                                 
 2.52273524e-06  7.81277644e-01  2.52273524e-06  7.21521485e-01  2.52273524e-06  7.21482885e-01  2.52273524e-06  1.80000000e+00  2.52273524e-06  5.45709020e-07  2.52273524e-06  7.21521485e-01                                 
 2.75939138e-06  7.82693876e-01  2.75939138e-06  7.22774267e-01  2.75939138e-06  7.22984438e-01  2.75939138e-06  1.80000000e+00  2.75939138e-06  4.52094112e-07  2.75939138e-06  7.22774267e-01                                 
 3.11496441e-06  7.81181777e-01  3.11496441e-06  7.21437907e-01  3.11496441e-06  7.21445577e-01  3.11496441e-06  1.80000000e+00  3.11496441e-06  5.02592358e-07  3.11496441e-06  7.21437907e-01                                 
 3.79878181e-06  7.82657830e-01  3.79878181e-06  7.22741993e-01  3.79878181e-06  7.22935375e-01  3.79878181e-06  1.80000000e+00  3.79878181e-06  4.78971319e-07  3.79878181e-06  7.22741993e-01                                 
 4.71724104e-06  7.81239122e-01  4.71724104e-06  7.21489061e-01  4.71724104e-06  7.21505082e-01  4.71724104e-06  1.80000000e+00  4.71724104e-06  4.87087120e-07  4.71724104e-06  7.21489061e-01                                 
 5.71724104e-06  7.82595168e-01  5.71724104e-06  7.22686239e-01  5.71724104e-06  7.22872971e-01  5.71724104e-06  1.80000000e+00  5.71724104e-06  4.91111876e-07  5.71724104e-06  7.22686239e-01                                 
 6.71724104e-06  7.81310878e-01  6.71724104e-06  7.21552805e-01  6.71724104e-06  7.21575269e-01  6.71724104e-06  1.80000000e+00  6.71724104e-06  4.76038419e-07  6.71724104e-06  7.21552805e-01                                 
 7.71724104e-06  7.82515702e-01  7.71724104e-06  7.22615908e-01  7.71724104e-06  7.22795969e-01  7.71724104e-06  1.80000000e+00  7.71724104e-06  5.01528146e-07  7.71724104e-06  7.22615908e-01                                 
 8.71724104e-06  7.81401243e-01  8.71724104e-06  7.21632998e-01  8.71724104e-06  7.21662421e-01  8.71724104e-06  1.80000000e+00  8.71724104e-06  4.66331507e-07  8.71724104e-06  7.21632998e-01                                 
 9.71724104e-06  7.82420440e-01  9.71724104e-06  7.22531685e-01  9.71724104e-06  7.22704440e-01  9.71724104e-06  1.80000000e+00  9.71724104e-06  5.10460655e-07  9.71724104e-06  7.22531685e-01                                 
 1.00005000e-05  7.81645385e-01  1.00005000e-05  7.21849271e-01  1.00005000e-05  7.21896907e-01  1.00005000e-05  1.80000000e+00  1.00005000e-05  4.50589878e-07  1.00005000e-05  7.21849271e-01                                 
