 time            v(vbep)         time            v(vben)         time            v(vout)         time            v(vphi1)        time            v(vphi2)        time            v(vref)         yes             currtemp       
 0.00000000e+00  5.83990275e-01  0.00000000e+00  5.21038803e-01  0.00000000e+00  1.38631852e-01  0.00000000e+00  0.00000000e+00  0.00000000e+00  1.79997598e+00  0.00000000e+00  5.00000000e-01  1.00000000e+00  7.20000000e+01 
 5.00000000e-12  5.83972783e-01  5.00000000e-12  5.21024263e-01  5.00000000e-12  1.39188982e-01  5.00000000e-12  1.80000000e-02  5.00000000e-12  1.80006688e+00  5.00000000e-12  5.00000000e-01                                 
 1.00000000e-11  5.83955522e-01  1.00000000e-11  5.21010023e-01  1.00000000e-11  1.39689772e-01  1.00000000e-11  3.60000000e-02  1.00000000e-11  1.80011197e+00  1.00000000e-11  5.00000000e-01                                 
 2.00000000e-11  5.83921116e-01  2.00000000e-11  5.20981618e-01  2.00000000e-11  1.40606631e-01  2.00000000e-11  7.20000000e-02  2.00000000e-11  1.80015190e+00  2.00000000e-11  5.00000000e-01                                 
 4.00000000e-11  5.83852514e-01  4.00000000e-11  5.20924951e-01  4.00000000e-11  1.42053978e-01  4.00000000e-11  1.44000000e-01  4.00000000e-11  1.80012426e+00  4.00000000e-11  5.00000000e-01                                 
 8.00000000e-11  5.83715708e-01  8.00000000e-11  5.20811902e-01  8.00000000e-11  1.44029054e-01  8.00000000e-11  2.88000000e-01  8.00000000e-11  1.80007451e+00  8.00000000e-11  5.00000000e-01                                 
 1.60000000e-10  5.83443756e-01  1.60000000e-10  5.20586940e-01  1.60000000e-10  1.46477945e-01  1.60000000e-10  5.76000000e-01  1.60000000e-10  1.80003209e+00  1.60000000e-10  5.00000000e-01                                 
 3.20000000e-10  5.82906271e-01  3.20000000e-10  5.20141466e-01  3.20000000e-10  1.73083535e-01  3.20000000e-10  1.15200000e+00  3.20000000e-10  1.80021012e+00  3.20000000e-10  5.00000000e-01                                 
 5.00000000e-10  5.82311618e-01  5.00000000e-10  5.19647261e-01  5.00000000e-10  4.76309023e-01  5.00000000e-10  1.80000000e+00  5.00000000e-10  1.33241137e-01  5.00000000e-10  5.00000000e-01                                 
 5.22473887e-10  5.82238191e-01  5.22473887e-10  5.19586129e-01  5.22473887e-10  5.39648408e-01  5.22473887e-10  1.80000000e+00  5.22473887e-10  2.77534493e-02  5.22473887e-10  5.00000000e-01                                 
 5.67421660e-10  5.82091656e-01  5.67421660e-10  5.19464087e-01  5.67421660e-10  6.56280824e-01  5.67421660e-10  1.80000000e+00  5.67421660e-10 -1.27434700e-02  5.67421660e-10  5.00000000e-01                                 
 6.57317208e-10  5.81800510e-01  6.57317208e-10  5.19221352e-01  6.57317208e-10  8.40286769e-01  6.57317208e-10  1.80000000e+00  6.57317208e-10  1.04335648e-02  6.57317208e-10  5.00000000e-01                                 
 7.80159510e-10  5.81406707e-01  7.80159510e-10  5.18892502e-01  7.80159510e-10  1.02900855e+00  7.80159510e-10  1.80000000e+00  7.80159510e-10 -8.86629308e-03  7.80159510e-10  5.00000000e-01                                 
 9.76668221e-10  5.80786155e-01  9.76668221e-10  5.18373078e-01  9.76668221e-10  1.26382293e+00  9.76668221e-10  1.80000000e+00  9.76668221e-10  8.25673556e-03  9.76668221e-10  5.00000000e-01                                 
 1.29865950e-09  5.79793335e-01  1.29865950e-09  5.17538987e-01  1.29865950e-09  1.53777902e+00  1.29865950e-09  1.80000000e+00  1.29865950e-09 -7.69584882e-03  1.29865950e-09  5.00000000e-01                                 
 1.91107928e-09  5.77981526e-01  1.91107928e-09  5.16007383e-01  1.91107928e-09  1.77250301e+00  1.91107928e-09  1.80000000e+00  1.91107928e-09  7.60096119e-03  1.91107928e-09  5.00000000e-01                                 
 2.18504980e-09  5.77201896e-01  2.18504980e-09  5.15344499e-01  2.18504980e-09  1.80147952e+00  2.18504980e-09  1.80000000e+00  2.18504980e-09 -7.04528462e-03  2.18504980e-09  5.00000000e-01                                 
 2.51000783e-09  5.76299993e-01  2.51000783e-09  5.14574905e-01  2.51000783e-09  1.81619084e+00  2.51000783e-09  1.80000000e+00  2.51000783e-09  6.76525747e-03  2.51000783e-09  5.00000000e-01                                 
 2.87673165e-09  5.75310404e-01  2.87673165e-09  5.13727151e-01  2.87673165e-09  1.82242650e+00  2.87673165e-09  1.80000000e+00  2.87673165e-09 -6.39313736e-03  2.87673165e-09  5.00000000e-01                                 
 3.61017929e-09  5.73413849e-01  3.61017929e-09  5.12093053e-01  3.61017929e-09  1.82442974e+00  3.61017929e-09  1.80000000e+00  3.61017929e-09  6.30895161e-03  3.61017929e-09  5.00000000e-01                                 
 4.37590159e-09  5.71541982e-01  4.37590159e-09  5.10468276e-01  4.37590159e-09  1.82282840e+00  4.37590159e-09  1.80000000e+00  4.37590159e-09 -6.11770800e-03  4.37590159e-09  5.00000000e-01                                 
 5.90734618e-09  5.68079563e-01  5.90734618e-09  5.07434149e-01  5.90734618e-09  1.81927830e+00  5.90734618e-09  1.80000000e+00  5.90734618e-09  6.10673620e-03  5.90734618e-09  5.00000000e-01                                 
 8.28844837e-09  5.63304428e-01  8.28844837e-09  5.03192670e-01  8.28844837e-09  1.81294161e+00  8.28844837e-09  1.80000000e+00  8.28844837e-09 -6.00674547e-03  8.28844837e-09  5.00000000e-01                                 
 9.83644899e-09  5.60530134e-01  9.83644899e-09  5.00698812e-01  9.83644899e-09  1.80910810e+00  9.83644899e-09  1.80000000e+00  9.83644899e-09  5.99147777e-03  9.83644899e-09  5.00000000e-01                                 
 1.13023091e-08  5.58096715e-01  1.13023091e-08  4.98495490e-01  1.13023091e-08  1.80573278e+00  1.13023091e-08  1.80000000e+00  1.13023091e-08 -5.87895059e-03  1.13023091e-08  5.00000000e-01                                 
 1.28657806e-08  5.55680564e-01  1.28657806e-08  4.96294011e-01  1.28657806e-08  1.80235751e+00  1.28657806e-08  1.80000000e+00  1.28657806e-08  5.85732452e-03  1.28657806e-08  5.00000000e-01                                 
 1.45287366e-08  5.53288785e-01  1.45287366e-08  4.94101763e-01  1.45287366e-08  1.79888948e+00  1.45287366e-08  1.80000000e+00  1.45287366e-08 -5.75959947e-03  1.45287366e-08  5.00000000e-01                                 
 1.61872090e-08  5.51065342e-01  1.61872090e-08  4.92052513e-01  1.61872090e-08  1.79564022e+00  1.61872090e-08  1.80000000e+00  1.61872090e-08  5.73923641e-03  1.61872090e-08  5.00000000e-01                                 
 1.81649452e-08  5.48600632e-01  1.81649452e-08  4.89768386e-01  1.81649452e-08  1.79173838e+00  1.81649452e-08  1.80000000e+00  1.81649452e-08 -5.65418320e-03  1.81649452e-08  5.00000000e-01                                 
 2.08194022e-08  5.45572647e-01  2.08194022e-08  4.86944098e-01  2.08194022e-08  1.78672775e+00  2.08194022e-08  1.80000000e+00  2.08194022e-08  5.65475832e-03  2.08194022e-08  5.00000000e-01                                 
 2.42247514e-08  5.42091950e-01  2.42247514e-08  4.83671913e-01  2.42247514e-08  1.78050729e+00  2.42247514e-08  1.80000000e+00  2.42247514e-08 -5.59121550e-03  2.42247514e-08  5.00000000e-01                                 
 2.97549784e-08  5.37210160e-01  2.97549784e-08  4.79035683e-01  2.97549784e-08  1.77116462e+00  2.97549784e-08  1.80000000e+00  2.97549784e-08  5.61013187e-03  2.97549784e-08  5.00000000e-01                                 
 3.89640430e-08  5.30566738e-01  3.89640430e-08  4.72646774e-01  3.89640430e-08  1.75664380e+00  3.89640430e-08  1.80000000e+00  3.89640430e-08 -5.56408192e-03  3.89640430e-08  5.00000000e-01                                 
 5.73821721e-08  5.20405461e-01  5.73821721e-08  4.62762767e-01  5.73821721e-08  1.72953906e+00  5.73821721e-08  1.80000000e+00  5.73821721e-08  5.59510721e-03  5.73821721e-08  5.00000000e-01                                 
 8.80527806e-08  5.08415080e-01  8.80527806e-08  4.50986495e-01  8.80527806e-08  1.68814333e+00  8.80527806e-08  1.80000000e+00  8.80527806e-08 -5.55590710e-03  8.80527806e-08  5.00000000e-01                                 
 1.38702466e-07  4.91943630e-01  1.38702466e-07  4.35310145e-01  1.38702466e-07  1.62226571e+00  1.38702466e-07  1.80000000e+00  1.38702466e-07  5.59033192e-03  1.38702466e-07  5.00000000e-01                                 
 1.91953326e-07  4.75259013e-01  1.91953326e-07  4.20163613e-01  1.91953326e-07  1.55233875e+00  1.91953326e-07  1.80000000e+00  1.91953326e-07 -5.55234156e-03  1.91953326e-07  5.00000000e-01                                 
 2.68805097e-07  4.54028158e-01  2.68805097e-07  4.01359743e-01  2.68805097e-07  1.45227714e+00  2.68805097e-07  1.80000000e+00  2.68805097e-07  5.58744237e-03  2.68805097e-07  5.00000000e-01                                 
 3.50174538e-07  4.31533897e-01  3.50174538e-07  3.82101576e-01  3.50174538e-07  1.34495408e+00  3.50174538e-07  1.80000000e+00  3.50174538e-07 -5.54999948e-03  3.50174538e-07  5.00000000e-01                                 
 5.12913422e-07  3.78766088e-01  5.12913422e-07  3.38578006e-01  5.12913422e-07  1.12435813e+00  5.12913422e-07  1.80000000e+00  5.12913422e-07  5.58570618e-03  5.12913422e-07  5.00000000e-01                                 
 5.41397085e-07  3.69303054e-01  5.41397085e-07  3.30922204e-01  5.41397085e-07  1.08693202e+00  5.41397085e-07  1.80000000e+00  5.41397085e-07  6.21411689e-06  5.41397085e-07  5.00000000e-01                                 
 5.98364411e-07  3.69604027e-01  5.98364411e-07  3.31048931e-01  5.98364411e-07  1.03331909e+00  5.98364411e-07  1.80000000e+00  5.98364411e-07  4.89434890e-06  5.98364411e-07  5.00000000e-01                                 
 6.12606242e-07  3.83322221e-01  6.12606242e-07  3.42014730e-01  6.12606242e-07  1.03341551e+00  6.12606242e-07  1.80000000e+00  6.12606242e-07  6.02993407e-06  6.12606242e-07  5.00000000e-01                                 
 6.41089906e-07  4.49514603e-01  6.41089906e-07  3.94856429e-01  6.41089906e-07  1.06927730e+00  6.41089906e-07  1.80000000e+00  6.41089906e-07  7.44295308e-06  6.41089906e-07  5.00000000e-01                                 
 6.44896636e-07  4.66123354e-01  6.44896636e-07  4.08098320e-01  6.44896636e-07  1.08127656e+00  6.44896636e-07  1.80000000e+00  6.44896636e-07  7.84914877e-06  6.44896636e-07  5.00000000e-01                                 
 6.52510096e-07  5.05364308e-01  6.52510096e-07  4.39490248e-01  6.52510096e-07  1.11099360e+00  6.52510096e-07  1.80000000e+00  6.52510096e-07  8.83586758e-06  6.52510096e-07  5.00000000e-01                                 
 6.67737018e-07  6.01533079e-01  6.67737018e-07  5.27616065e-01  6.67737018e-07  1.18764112e+00  6.67737018e-07  1.80000000e+00  6.67737018e-07  1.01704351e-05  6.67737018e-07  5.00000000e-01                                 
 6.82679046e-07  6.50515219e-01  6.82679046e-07  5.84418241e-01  6.82679046e-07  1.22052031e+00  6.82679046e-07  1.80000000e+00  6.82679046e-07  6.38813388e-06  6.82679046e-07  5.00000000e-01                                 
 6.96687763e-07  6.72481938e-01  6.96687763e-07  6.07144144e-01  6.96687763e-07  1.22609674e+00  6.96687763e-07  1.80000000e+00  6.96687763e-07  7.27686351e-06  6.96687763e-07  5.00000000e-01                                 
 7.15670631e-07  6.94855934e-01  7.15670631e-07  6.27755114e-01  7.15670631e-07  1.22808116e+00  7.15670631e-07  1.80000000e+00  7.15670631e-07  5.71339306e-06  7.15670631e-07  5.00000000e-01                                 
 7.35429810e-07  7.08117541e-01  7.35429810e-07  6.39920119e-01  7.35429810e-07  1.21935183e+00  7.35429810e-07  1.80000000e+00  7.35429810e-07  6.48951534e-06  7.35429810e-07  5.00000000e-01                                 
 7.74948168e-07  7.24084232e-01  7.74948168e-07  6.53601476e-01  7.74948168e-07  1.19328948e+00  7.74948168e-07  1.80000000e+00  7.74948168e-07  5.27594753e-06  7.74948168e-07  5.00000000e-01                                 
 7.83652570e-07  7.25599071e-01  7.83652570e-07  6.54920068e-01  7.83652570e-07  1.18533593e+00  7.83652570e-07  1.80000000e+00  7.83652570e-07  5.69284073e-06  7.83652570e-07  5.00000000e-01                                 
 8.01061372e-07  7.28135068e-01  8.01061372e-07  6.57045140e-01  8.01061372e-07  1.16939908e+00  8.01061372e-07  1.80000000e+00  8.01061372e-07  5.65653694e-06  8.01061372e-07  5.00000000e-01                                 
 8.35878978e-07  7.30859969e-01  8.35878978e-07  6.59300124e-01  8.35878978e-07  1.13567378e+00  8.35878978e-07  1.80000000e+00  8.35878978e-07  5.57926028e-06  8.35878978e-07  5.00000000e-01                                 
 8.85869027e-07  7.32551954e-01  8.85869027e-07  6.60694332e-01  8.85869027e-07  1.08655649e+00  8.85869027e-07  1.80000000e+00  8.85869027e-07  5.58518963e-06  8.85869027e-07  5.00000000e-01                                 
 9.52107843e-07  7.16359628e-01  9.52107843e-07  6.47097887e-01  9.52107843e-07  1.01089000e+00  9.52107843e-07  1.80000000e+00  9.52107843e-07  5.14485288e-06  9.52107843e-07  5.00000000e-01                                 
 9.60414234e-07  7.12423281e-01  9.60414234e-07  6.43678249e-01  9.60414234e-07  1.00049337e+00  9.60414234e-07  1.80000000e+00  9.60414234e-07  5.17747710e-06  9.60414234e-07  5.00000000e-01                                 
 9.77027016e-07  7.07369136e-01  9.77027016e-07  6.39214455e-01  9.77027016e-07  9.82727948e-01  9.77027016e-07  1.80000000e+00  9.77027016e-07  5.42784014e-06  9.77027016e-07  5.00000000e-01                                 
 1.01025258e-06  7.10771394e-01  1.01025258e-06  6.42189606e-01  1.01025258e-06  9.61107683e-01  1.01025258e-06  1.80000000e+00  1.01025258e-06  5.82413049e-06  1.01025258e-06  5.00000000e-01                                 
 1.06678577e-06  7.22085673e-01  1.06678577e-06  6.51964596e-01  1.06678577e-06  9.31944966e-01  1.06678577e-06  1.80000000e+00  1.06678577e-06  5.61146535e-06  1.06678577e-06  5.00000000e-01                                 
 1.12694116e-06  7.19570028e-01  1.12694116e-06  6.49837930e-01  1.12694116e-06  8.90745291e-01  1.12694116e-06  1.80000000e+00  1.12694116e-06  5.43634327e-06  1.12694116e-06  5.00000000e-01                                 
 1.21709706e-06  7.13616534e-01  1.21709706e-06  6.44690202e-01  1.21709706e-06  8.30258186e-01  1.21709706e-06  1.80000000e+00  1.21709706e-06  5.56401631e-06  1.21709706e-06  5.00000000e-01                                 
 1.33041655e-06  7.19877343e-01  1.33041655e-06  6.50088336e-01  1.33041655e-06  7.69268801e-01  1.33041655e-06  1.80000000e+00  1.33041655e-06  5.63137042e-06  1.33041655e-06  5.00000000e-01                                 
 1.50227914e-06  7.16517060e-01  1.50227914e-06  6.47211418e-01  1.50227914e-06  6.70550025e-01  1.50227914e-06  1.80000000e+00  1.50227914e-06  5.44740259e-06  1.50227914e-06  5.00000000e-01                                 
 1.66887857e-06  7.16933894e-01  1.66887857e-06  6.47561114e-01  1.66887857e-06  5.85168444e-01  1.66887857e-06  1.80000000e+00  1.66887857e-06  5.66252957e-06  1.66887857e-06  5.00000000e-01                                 
 1.92442893e-06  7.18818372e-01  1.92442893e-06  6.49189071e-01  1.92442893e-06  5.05657974e-01  1.92442893e-06  1.80000000e+00  1.92442893e-06  5.46096802e-06  1.92442893e-06  5.00000000e-01                                 
 1.95695221e-06  7.17198119e-01  1.95695221e-06  6.47796259e-01  1.95695221e-06  5.00480646e-01  1.95695221e-06  1.80000000e+00  1.95695221e-06  5.51351090e-06  1.95695221e-06  5.00000000e-01                                 
 2.02199876e-06  7.16631472e-01  2.02199876e-06  6.47303614e-01  2.02199876e-06  4.93716054e-01  2.02199876e-06  1.80000000e+00  2.02199876e-06  5.57946195e-06  2.02199876e-06  5.00000000e-01                                 
 2.15209186e-06  7.18379294e-01  2.15209186e-06  6.48809008e-01  2.15209186e-06  4.93701723e-01  2.15209186e-06  1.80000000e+00  2.15209186e-06  5.55207728e-06  2.15209186e-06  5.00000000e-01                                 
 2.16959713e-06  7.18057527e-01  2.16959713e-06  6.48533503e-01  2.16959713e-06  4.95089232e-01  2.16959713e-06  1.80000000e+00  2.16959713e-06  5.54191061e-06  2.16959713e-06  5.00000000e-01                                 
 2.20460767e-06  7.17389491e-01  2.20460767e-06  6.47959364e-01  2.20460767e-06  4.97532554e-01  2.20460767e-06  1.80000000e+00  2.20460767e-06  5.53510737e-06  2.20460767e-06  5.00000000e-01                                 
 2.27462875e-06  7.17158621e-01  2.27462875e-06  6.47758924e-01  2.27462875e-06  5.00021924e-01  2.27462875e-06  1.80000000e+00  2.27462875e-06  5.56411550e-06  2.27462875e-06  5.00000000e-01                                 
 2.41467091e-06  7.17850612e-01  2.41467091e-06  6.48354985e-01  2.41467091e-06  5.00680595e-01  2.41467091e-06  1.80000000e+00  2.41467091e-06  5.55167026e-06  2.41467091e-06  5.00000000e-01                                 
 2.65720712e-06  7.17190757e-01  2.65720712e-06  6.47787401e-01  2.65720712e-06  4.99842546e-01  2.65720712e-06  1.80000000e+00  2.65720712e-06  5.55158544e-06  2.65720712e-06  5.00000000e-01                                 
 3.06399760e-06  7.17748207e-01  3.06399760e-06  6.48266563e-01  3.06399760e-06  5.00557009e-01  3.06399760e-06  1.80000000e+00  3.06399760e-06  5.55827945e-06  3.06399760e-06  5.00000000e-01                                 
 3.87757856e-06  7.17267921e-01  3.87757856e-06  6.47854032e-01  3.87757856e-06  4.99945152e-01  3.87757856e-06  1.80000000e+00  3.87757856e-06  5.54843330e-06  3.87757856e-06  5.00000000e-01                                 
 4.87757856e-06  7.17697015e-01  4.87757856e-06  6.48222451e-01  4.87757856e-06  5.00487409e-01  4.87757856e-06  1.80000000e+00  4.87757856e-06  5.55991237e-06  4.87757856e-06  5.00000000e-01                                 
 5.87757856e-06  7.17316295e-01  5.87757856e-06  6.47895749e-01  5.87757856e-06  5.00010045e-01  5.87757856e-06  1.80000000e+00  5.87757856e-06  5.54713981e-06  5.87757856e-06  5.00000000e-01                                 
 6.87757856e-06  7.17647801e-01  6.87757856e-06  6.48180068e-01  6.87757856e-06  5.00421066e-01  6.87757856e-06  1.80000000e+00  6.87757856e-06  5.56104650e-06  6.87757856e-06  5.00000000e-01                                 
 7.87757856e-06  7.17366665e-01  7.87757856e-06  6.47939158e-01  7.87757856e-06  5.00076994e-01  7.87757856e-06  1.80000000e+00  7.87757856e-06  5.54616802e-06  7.87757856e-06  5.00000000e-01                                 
 8.87757856e-06  7.17597446e-01  8.87757856e-06  6.48136718e-01  8.87757856e-06  5.00354042e-01  8.87757856e-06  1.80000000e+00  8.87757856e-06  5.56185436e-06  8.87757856e-06  5.00000000e-01                                 
 9.87757856e-06  7.17417166e-01  9.87757856e-06  6.47982653e-01  9.87757856e-06  5.00143376e-01  9.87757856e-06  1.80000000e+00  9.87757856e-06  5.54552403e-06  9.87757856e-06  5.00000000e-01                                 
 1.00005000e-05  7.17401550e-01  1.00005000e-05  6.47968212e-01  1.00005000e-05  5.00100412e-01  1.00005000e-05  1.80000000e+00  1.00005000e-05  5.56185039e-06  1.00005000e-05  5.00000000e-01                                 
 1.00005500e-05  7.17402016e-01  1.00005500e-05  6.47968617e-01  1.00005500e-05  4.92564843e-01  1.00005500e-05  1.62000000e+00  1.00005500e-05 -7.92367361e-05  1.00005500e-05  5.00000000e-01                                 
 1.00006500e-05  7.17402966e-01  1.00006500e-05  6.47969433e-01  1.00006500e-05  4.78870222e-01  1.00006500e-05  1.26000000e+00  1.00006500e-05 -6.59491956e-05  1.00006500e-05  5.00000000e-01                                 
 1.00008500e-05  7.17404903e-01  1.00008500e-05  6.47971092e-01  1.00008500e-05  4.76873964e-01  1.00008500e-05  5.40000000e-01  1.00008500e-05  2.89500499e-02  1.00008500e-05  5.00000000e-01                                 
