 time            v(vbep)         time            v(vben)         time            v(vout)         time            v(vphi1)        time            v(vphi2)        time            v(vref)         yes             currtemp       
 0.00000000e+00  6.83677212e-01  0.00000000e+00  6.27304308e-01  0.00000000e+00  1.07124023e+00  0.00000000e+00  0.00000000e+00  0.00000000e+00  1.79993480e+00  0.00000000e+00  5.00000000e-01  1.00000000e+00  3.50000000e+01 
 5.00000000e-12  6.83636523e-01  5.00000000e-12  6.27270907e-01  5.00000000e-12  1.07199316e+00  5.00000000e-12  1.80000000e-02  5.00000000e-12  1.80004189e+00  5.00000000e-12  5.00000000e-01                                 
 1.00000000e-11  6.83597483e-01  1.00000000e-11  6.27238606e-01  1.00000000e-11  1.07267652e+00  1.00000000e-11  3.60000000e-02  1.00000000e-11  1.80010000e+00  1.00000000e-11  5.00000000e-01                                 
 2.00000000e-11  6.83520506e-01  2.00000000e-11  6.27174328e-01  2.00000000e-11  1.07393627e+00  2.00000000e-11  7.20000000e-02  2.00000000e-11  1.80015786e+00  2.00000000e-11  5.00000000e-01                                 
 4.00000000e-11  6.83368451e-01  4.00000000e-11  6.27046426e-01  4.00000000e-11  1.07595834e+00  4.00000000e-11  1.44000000e-01  4.00000000e-11  1.80013831e+00  4.00000000e-11  5.00000000e-01                                 
 8.00000000e-11  6.83066238e-01  8.00000000e-11  6.26792131e-01  8.00000000e-11  1.07869366e+00  8.00000000e-11  2.88000000e-01  8.00000000e-11  1.80007610e+00  8.00000000e-11  5.00000000e-01                                 
 1.60000000e-10  6.82470198e-01  1.60000000e-10  6.26289536e-01  1.60000000e-10  1.08125593e+00  1.60000000e-10  5.76000000e-01  1.60000000e-10  1.80001402e+00  1.60000000e-10  5.00000000e-01                                 
 3.20000000e-10  6.81309237e-01  3.20000000e-10  6.25307340e-01  3.20000000e-10  1.07464707e+00  3.20000000e-10  1.15200000e+00  3.20000000e-10  1.80038624e+00  3.20000000e-10  5.00000000e-01                                 
 5.00000000e-10  6.80050779e-01  5.00000000e-10  6.24237459e-01  5.00000000e-10  1.23615614e+00  5.00000000e-10  1.80000000e+00  5.00000000e-10  1.15674359e-01  5.00000000e-10  5.00000000e-01                                 
 5.21452525e-10  6.79904387e-01  5.21452525e-10  6.24112632e-01  5.21452525e-10  1.27388654e+00  5.21452525e-10  1.80000000e+00  5.21452525e-10  2.26360345e-02  5.21452525e-10  5.00000000e-01                                 
 5.64357576e-10  6.79612874e-01  5.64357576e-10  6.23863894e-01  5.64357576e-10  1.34311591e+00  5.64357576e-10  1.80000000e+00  5.64357576e-10 -1.05722813e-02  5.64357576e-10  5.00000000e-01                                 
 6.50167678e-10  6.79037578e-01  6.50167678e-10  6.23372199e-01  6.50167678e-10  1.45746479e+00  6.50167678e-10  1.80000000e+00  6.50167678e-10  8.84410664e-03  6.50167678e-10  5.00000000e-01                                 
 7.72313952e-10  6.78235948e-01  7.72313952e-10  6.22685245e-01  7.72313952e-10  1.58819037e+00  7.72313952e-10  1.80000000e+00  7.72313952e-10 -7.69530362e-03  7.72313952e-10  5.00000000e-01                                 
 9.63797183e-10  6.77018018e-01  9.63797183e-10  6.21637554e-01  9.63797183e-10  1.73931525e+00  9.63797183e-10  1.80000000e+00  9.63797183e-10  7.23360159e-03  9.63797183e-10  5.00000000e-01                                 
 1.34676364e-09  6.74711734e-01  1.34676364e-09  6.19640826e-01  1.34676364e-09  1.90779385e+00  1.34676364e-09  1.80000000e+00  1.34676364e-09 -6.84033277e-03  1.34676364e-09  5.00000000e-01                                 
 1.61945137e-09  6.73167285e-01  1.61945137e-09  6.18294013e-01  1.61945137e-09  1.95660911e+00  1.61945137e-09  1.80000000e+00  1.61945137e-09  6.57513716e-03  1.61945137e-09  5.00000000e-01                                 
 1.97091700e-09  6.71282266e-01  1.97091700e-09  6.16640198e-01  1.97091700e-09  1.98275722e+00  1.97091700e-09  1.80000000e+00  1.97091700e-09 -6.23147126e-03  1.97091700e-09  5.00000000e-01                                 
 2.28931926e-09  6.69668155e-01  2.28931926e-09  6.15215373e-01  2.28931926e-09  1.99042243e+00  2.28931926e-09  1.80000000e+00  2.28931926e-09  6.01127088e-03  2.28931926e-09  5.00000000e-01                                 
 2.84832508e-09  6.67021466e-01  2.84832508e-09  6.12862670e-01  2.84832508e-09  1.99285993e+00  2.84832508e-09  1.80000000e+00  2.84832508e-09 -5.80562269e-03  2.84832508e-09  5.00000000e-01                                 
 3.47798876e-09  6.64290895e-01  3.47798876e-09  6.10414251e-01  3.47798876e-09  1.99091383e+00  3.47798876e-09  1.80000000e+00  3.47798876e-09  5.71633350e-03  3.47798876e-09  5.00000000e-01                                 
 4.71937309e-09  6.59523981e-01  4.71937309e-09  6.06093119e-01  4.71937309e-09  1.98633356e+00  4.71937309e-09  1.80000000e+00  4.71937309e-09 -5.61210168e-03  4.71937309e-09  5.00000000e-01                                 
 6.49822505e-09  6.53788572e-01  6.49822505e-09  6.00818340e-01  6.49822505e-09  1.98087747e+00  6.49822505e-09  1.80000000e+00  6.49822505e-09  5.60668612e-03  6.49822505e-09  5.00000000e-01                                 
 9.33627877e-09  6.46446861e-01  9.33627877e-09  5.93958930e-01  9.33627877e-09  1.97398573e+00  9.33627877e-09  1.80000000e+00  9.33627877e-09 -5.53618903e-03  9.33627877e-09  5.00000000e-01                                 
 1.06242557e-08  6.43672985e-01  1.06242557e-08  5.91335004e-01  1.06242557e-08  1.97144344e+00  1.06242557e-08  1.80000000e+00  1.06242557e-08  5.50689094e-03  1.06242557e-08  5.00000000e-01                                 
 1.21859155e-08  6.40635394e-01  1.21859155e-08  5.88445282e-01  1.21859155e-08  1.96862843e+00  1.21859155e-08  1.80000000e+00  1.21859155e-08 -5.42626885e-03  1.21859155e-08  5.00000000e-01                                 
 1.39751747e-08  6.37514219e-01  1.39751747e-08  5.85459300e-01  1.39751747e-08  1.96582421e+00  1.39751747e-08  1.80000000e+00  1.39751747e-08  5.40915139e-03  1.39751747e-08  5.00000000e-01                                 
 1.69596546e-08  6.32965247e-01  1.69596546e-08  5.81080005e-01  1.69596546e-08  1.96169703e+00  1.69596546e-08  1.80000000e+00  1.69596546e-08 -5.35725481e-03  1.69596546e-08  5.00000000e-01                                 
 2.03507439e-08  6.28564454e-01  2.03507439e-08  5.76814238e-01  2.03507439e-08  1.95781935e+00  2.03507439e-08  1.80000000e+00  2.03507439e-08  5.35917807e-03  2.03507439e-08  5.00000000e-01                                 
 2.56907670e-08  6.22780773e-01  2.56907670e-08  5.71171432e-01  2.56907670e-08  1.95272948e+00  2.56907670e-08  1.80000000e+00  2.56907670e-08 -5.31986136e-03  2.56907670e-08  5.00000000e-01                                 
 3.33195460e-08  6.16149841e-01  3.33195460e-08  5.64660402e-01  3.33195460e-08  1.94716344e+00  3.33195460e-08  1.80000000e+00  3.33195460e-08  5.33455236e-03  3.33195460e-08  5.00000000e-01                                 
 4.85771041e-08  6.06224416e-01  4.85771041e-08  5.54846540e-01  4.85771041e-08  1.93901390e+00  4.85771041e-08  1.80000000e+00  4.85771041e-08 -5.30445147e-03  4.85771041e-08  5.00000000e-01                                 
 6.45125730e-08  5.98781984e-01  6.45125730e-08  5.47426943e-01  6.45125730e-08  1.93263817e+00  6.45125730e-08  1.80000000e+00  6.45125730e-08  5.32482675e-03  6.45125730e-08  5.00000000e-01                                 
 8.80196416e-08  5.90110323e-01  8.80196416e-08  5.38834022e-01  8.80196416e-08  1.91269978e+00  8.80196416e-08  1.80000000e+00  8.80196416e-08 -5.29630276e-03  8.80196416e-08  5.00000000e-01                                 
 1.17275675e-07  5.78173696e-01  1.17275675e-07  5.27763026e-01  1.17275675e-07  1.88165162e+00  1.17275675e-07  1.80000000e+00  1.17275675e-07  5.31891908e-03  1.17275675e-07  5.00000000e-01                                 
 1.38373395e-07  5.68155049e-01  1.38373395e-07  5.18905999e-01  1.38373395e-07  1.85219502e+00  1.38373395e-07  1.80000000e+00  1.38373395e-07 -5.29017688e-03  1.38373395e-07  5.00000000e-01                                 
 1.62004358e-07  5.59113564e-01  1.62004358e-07  5.10878744e-01  1.62004358e-07  1.81440445e+00  1.62004358e-07  1.80000000e+00  1.62004358e-07  5.31213959e-03  1.62004358e-07  5.00000000e-01                                 
 1.83981273e-07  5.52895112e-01  1.83981273e-07  5.05266457e-01  1.83981273e-07  1.77857101e+00  1.83981273e-07  1.80000000e+00  1.83981273e-07 -5.28342049e-03  1.83981273e-07  5.00000000e-01                                 
 2.07065793e-07  5.57594635e-01  2.07065793e-07  5.08319347e-01  2.07065793e-07  1.78061272e+00  2.07065793e-07  1.80000000e+00  2.07065793e-07  5.30585535e-03  2.07065793e-07  5.00000000e-01                                 
 2.26474371e-07  5.60460756e-01  2.26474371e-07  5.10055730e-01  2.26474371e-07  1.76646475e+00  2.26474371e-07  1.80000000e+00  2.26474371e-07 -5.27640324e-03  2.26474371e-07  5.00000000e-01                                 
 2.47718282e-07  5.56257209e-01  2.47718282e-07  5.06191908e-01  2.47718282e-07  1.74057201e+00  2.47718282e-07  1.80000000e+00  2.47718282e-07  5.29807668e-03  2.47718282e-07  5.00000000e-01                                 
 2.65718674e-07  5.52870897e-01  2.65718674e-07  5.03093149e-01  2.65718674e-07  1.71977928e+00  2.65718674e-07  1.80000000e+00  2.65718674e-07 -5.26869794e-03  2.65718674e-07  5.00000000e-01                                 
 2.84529217e-07  5.48513708e-01  2.84529217e-07  4.99239060e-01  2.84529217e-07  1.69765985e+00  2.84529217e-07  1.80000000e+00  2.84529217e-07  5.28978412e-03  2.84529217e-07  5.00000000e-01                                 
 3.20212534e-07  5.39726451e-01  3.20212534e-07  4.91596793e-01  3.20212534e-07  1.65392580e+00  3.20212534e-07  1.80000000e+00  3.20212534e-07 -5.26250169e-03  3.20212534e-07  5.00000000e-01                                 
 3.66489300e-07  5.28523741e-01  3.66489300e-07  4.81979761e-01  3.66489300e-07  1.59607123e+00  3.66489300e-07  1.80000000e+00  3.66489300e-07  5.28603183e-03  3.66489300e-07  5.00000000e-01                                 
 4.47466104e-07  5.07938588e-01  4.47466104e-07  4.64680644e-01  4.47466104e-07  1.49605009e+00  4.47466104e-07  1.80000000e+00  4.47466104e-07 -5.26008759e-03  4.47466104e-07  5.00000000e-01                                 
 5.39449771e-07  4.78464206e-01  5.39449771e-07  4.40575999e-01  5.39449771e-07  1.37067211e+00  5.39449771e-07  1.80000000e+00  5.39449771e-07  5.28422594e-03  5.39449771e-07  5.00000000e-01                                 
 6.63434761e-07  4.36311750e-01  6.63434761e-07  4.06596733e-01  6.63434761e-07  1.20027851e+00  6.63434761e-07  1.80000000e+00  6.63434761e-07 -5.25863714e-03  6.63434761e-07  5.00000000e-01                                 
 6.85102578e-07  4.36720707e-01  6.85102578e-07  4.06928571e-01  6.85102578e-07  1.17708016e+00  6.85102578e-07  1.80000000e+00  6.85102578e-07 -9.87037365e-08  6.85102578e-07  5.00000000e-01                                 
 7.28438212e-07  5.26930177e-01  7.28438212e-07  4.79035349e-01  7.28438212e-07  1.21744120e+00  7.28438212e-07  1.80000000e+00  7.28438212e-07  3.35653201e-06  7.28438212e-07  5.00000000e-01                                 
 7.75759070e-07  7.30907840e-01  7.75759070e-07  6.71861514e-01  7.75759070e-07  1.36275128e+00  7.75759070e-07  1.80000000e+00  7.75759070e-07  2.99420883e-06  7.75759070e-07  5.00000000e-01                                 
 8.09470699e-07  7.77040141e-01  8.09470699e-07  7.15462066e-01  8.09470699e-07  1.37250847e+00  8.09470699e-07  1.80000000e+00  8.09470699e-07  5.97048346e-07  8.09470699e-07  5.00000000e-01                                 
 8.45281019e-07  7.93933767e-01  8.45281019e-07  7.29547352e-01  8.45281019e-07  1.34956623e+00  8.45281019e-07  1.80000000e+00  8.45281019e-07  1.35399442e-06  8.45281019e-07  5.00000000e-01                                 
 8.89232868e-07  7.94560601e-01  8.89232868e-07  7.30204197e-01  8.89232868e-07  1.30532876e+00  8.89232868e-07  1.80000000e+00  8.89232868e-07  2.12596752e-07  8.89232868e-07  5.00000000e-01                                 
 9.33847050e-07  7.94104223e-01  9.33847050e-07  7.29698705e-01  9.33847050e-07  1.25636003e+00  9.33847050e-07  1.80000000e+00  9.33847050e-07  1.11096684e-06  9.33847050e-07  5.00000000e-01                                 
 9.82741066e-07  7.85487119e-01  9.82741066e-07  7.22719363e-01  9.82741066e-07  1.19798375e+00  9.82741066e-07  1.80000000e+00  9.82741066e-07  1.44015888e-07  9.82741066e-07  5.00000000e-01                                 
 1.04384734e-06  7.54719252e-01  1.04384734e-06  6.95172144e-01  1.04384734e-06  1.10234001e+00  1.04384734e-06  1.80000000e+00  1.04384734e-06  5.43028960e-07  1.04384734e-06  5.00000000e-01                                 
 1.10712792e-06  7.58478885e-01  1.10712792e-06  6.98915562e-01  1.10712792e-06  1.04063775e+00  1.10712792e-06  1.80000000e+00  1.10712792e-06  9.73180604e-07  1.10712792e-06  5.00000000e-01                                 
 1.16782396e-06  7.85316211e-01  1.16782396e-06  7.22392674e-01  1.16782396e-06  1.00433168e+00  1.16782396e-06  1.80000000e+00  1.16782396e-06  1.05732577e-06  1.16782396e-06  5.00000000e-01                                 
 1.22945393e-06  7.79058986e-01  1.22945393e-06  7.17240784e-01  1.22945393e-06  9.46147217e-01  1.22945393e-06  1.80000000e+00  1.22945393e-06  2.74292910e-07  1.22945393e-06  5.00000000e-01                                 
 1.23745941e-06  7.75249849e-01  1.23745941e-06  7.13864015e-01  1.23745941e-06  9.36114322e-01  1.23745941e-06  1.80000000e+00  1.23745941e-06  3.46101829e-07  1.23745941e-06  5.00000000e-01                                 
 1.25347039e-06  7.68028285e-01  1.25347039e-06  7.07460994e-01  1.25347039e-06  9.17826940e-01  1.25347039e-06  1.80000000e+00  1.25347039e-06  4.39494412e-07  1.25347039e-06  5.00000000e-01                                 
 1.28549233e-06  7.63380189e-01  1.28549233e-06  7.03264000e-01  1.28549233e-06  8.91499202e-01  1.28549233e-06  1.80000000e+00  1.28549233e-06  7.69014671e-07  1.28549233e-06  5.00000000e-01                                 
 1.34713096e-06  7.74884189e-01  1.34713096e-06  7.13490997e-01  1.34713096e-06  8.61279687e-01  1.34713096e-06  1.80000000e+00  1.34713096e-06  9.18463388e-07  1.34713096e-06  5.00000000e-01                                 
 1.41294577e-06  7.77240348e-01  1.41294577e-06  7.15576543e-01  1.41294577e-06  8.23325886e-01  1.41294577e-06  1.80000000e+00  1.41294577e-06  5.73894327e-07  1.41294577e-06  5.00000000e-01                                 
 1.49237187e-06  7.69617747e-01  1.49237187e-06  7.08858751e-01  1.49237187e-06  7.71101738e-01  1.49237187e-06  1.80000000e+00  1.49237187e-06  7.16480279e-07  1.49237187e-06  5.00000000e-01                                 
 1.61003021e-06  7.73223415e-01  1.61003021e-06  7.12053003e-01  1.61003021e-06  7.10622735e-01  1.61003021e-06  1.80000000e+00  1.61003021e-06  7.54655218e-07  1.61003021e-06  5.00000000e-01                                 
 1.72965697e-06  7.75266571e-01  1.72965697e-06  7.13842143e-01  1.72965697e-06  6.50908720e-01  1.72965697e-06  1.80000000e+00  1.72965697e-06  6.99803592e-07  1.72965697e-06  5.00000000e-01                                 
 1.92493856e-06  7.70144873e-01  1.92493856e-06  7.09336947e-01  1.92493856e-06  5.56619173e-01  1.92493856e-06  1.80000000e+00  1.92493856e-06  6.92199183e-07  1.92493856e-06  5.00000000e-01                                 
 2.13825580e-06  7.75674631e-01  2.13825580e-06  7.14193102e-01  2.13825580e-06  5.05991320e-01  2.13825580e-06  1.80000000e+00  2.13825580e-06  7.75540508e-07  2.13825580e-06  5.00000000e-01                                 
 2.34762356e-06  7.70890141e-01  2.34762356e-06  7.10003361e-01  2.34762356e-06  4.88245194e-01  2.34762356e-06  1.80000000e+00  2.34762356e-06  6.22569514e-07  2.34762356e-06  5.00000000e-01                                 
 2.37736441e-06  7.71566714e-01  2.37736441e-06  7.10590593e-01  2.37736441e-06  4.88376871e-01  2.37736441e-06  1.80000000e+00  2.37736441e-06  7.27411594e-07  2.37736441e-06  5.00000000e-01                                 
 2.43684609e-06  7.73466471e-01  2.43684609e-06  7.12263995e-01  2.43684609e-06  4.92066179e-01  2.43684609e-06  1.80000000e+00  2.43684609e-06  7.48749970e-07  2.43684609e-06  5.00000000e-01                                 
 2.53874479e-06  7.73543965e-01  2.53874479e-06  7.12336891e-01  2.53874479e-06  5.01409231e-01  2.53874479e-06  1.80000000e+00  2.53874479e-06  6.82892496e-07  2.53874479e-06  5.00000000e-01                                 
 2.64238410e-06  7.72208614e-01  2.64238410e-06  7.11157734e-01  2.64238410e-06  5.00855598e-01  2.64238410e-06  1.80000000e+00  2.64238410e-06  7.22218103e-07  2.64238410e-06  5.00000000e-01                                 
 2.78665317e-06  7.73690474e-01  2.78665317e-06  7.12463032e-01  2.78665317e-06  4.99675149e-01  2.78665317e-06  1.80000000e+00  2.78665317e-06  7.22704833e-07  2.78665317e-06  5.00000000e-01                                 
 2.97338484e-06  7.72680445e-01  2.97338484e-06  7.11575554e-01  2.97338484e-06  5.00332097e-01  2.97338484e-06  1.80000000e+00  2.97338484e-06  6.97434266e-07  2.97338484e-06  5.00000000e-01                                 
 3.19759329e-06  7.73133321e-01  3.19759329e-06  7.11972435e-01  3.19759329e-06  5.00044602e-01  3.19759329e-06  1.80000000e+00  3.19759329e-06  7.33876863e-07  3.19759329e-06  5.00000000e-01                                 
 3.60192814e-06  7.73098804e-01  3.60192814e-06  7.11944163e-01  3.60192814e-06  5.00382940e-01  3.60192814e-06  1.80000000e+00  3.60192814e-06  6.94387468e-07  3.60192814e-06  5.00000000e-01                                 
 4.27770363e-06  7.72912236e-01  4.27770363e-06  7.11777863e-01  4.27770363e-06  4.99923139e-01  4.27770363e-06  1.80000000e+00  4.27770363e-06  7.33558357e-07  4.27770363e-06  5.00000000e-01                                 
 5.27770363e-06  7.73225689e-01  5.27770363e-06  7.12055726e-01  5.27770363e-06  5.00477227e-01  5.27770363e-06  1.80000000e+00  5.27770363e-06  6.95266872e-07  5.27770363e-06  5.00000000e-01                                 
 6.27770363e-06  7.72817560e-01  6.27770363e-06  7.11694569e-01  6.27770363e-06  4.99843429e-01  6.27770363e-06  1.80000000e+00  6.27770363e-06  7.32496663e-07  6.27770363e-06  5.00000000e-01                                 
 7.27770363e-06  7.73311633e-01  7.27770363e-06  7.12131210e-01  7.27770363e-06  5.00557659e-01  7.27770363e-06  1.80000000e+00  7.27770363e-06  6.96585657e-07  7.27770363e-06  5.00000000e-01                                 
 8.27770363e-06  7.72738984e-01  8.27770363e-06  7.11625474e-01  8.27770363e-06  4.99765036e-01  8.27770363e-06  1.80000000e+00  8.27770363e-06  7.30944787e-07  8.27770363e-06  5.00000000e-01                                 
 9.27770363e-06  7.73380591e-01  9.27770363e-06  7.12191707e-01  9.27770363e-06  5.00631666e-01  9.27770363e-06  1.80000000e+00  9.27770363e-06  6.98345574e-07  9.27770363e-06  5.00000000e-01                                 
 1.00005000e-05  7.72668376e-01  1.00005000e-05  7.11563445e-01  1.00005000e-05  4.99685921e-01  1.00005000e-05  1.80000000e+00  1.00005000e-05  7.28595274e-07  1.00005000e-05  5.00000000e-01                                 
 1.00005500e-05  7.72669078e-01  1.00005500e-05  7.11564056e-01  1.00005500e-05  4.91784098e-01  1.00005500e-05  1.62000000e+00  1.00005500e-05 -7.76841023e-05  1.00005500e-05  5.00000000e-01                                 
 1.00006500e-05  7.72670517e-01  1.00006500e-05  7.11565300e-01  1.00006500e-05  4.77980268e-01  1.00006500e-05  1.26000000e+00  1.00006500e-05 -5.96663363e-05  1.00006500e-05  5.00000000e-01                                 
