 time            v(vbep)         time            v(vben)         time            v(vout)         time            v(vphi1)        time            v(vphi2)        time            v(vref)         yes             currtemp       
 0.00000000e+00  5.63321317e-01  0.00000000e+00  4.98782592e-01  0.00000000e+00  1.66670334e-01  0.00000000e+00  0.00000000e+00  0.00000000e+00  1.79997805e+00  0.00000000e+00  5.00000000e-01  1.00000000e+00  8.10000000e+01 
 5.00000000e-12  5.63304993e-01  5.00000000e-12  4.98769025e-01  5.00000000e-12  1.67258908e-01  5.00000000e-12  1.80000000e-02  5.00000000e-12  1.80007154e+00  5.00000000e-12  5.00000000e-01                                 
 1.00000000e-11  5.63288863e-01  1.00000000e-11  4.98755728e-01  1.00000000e-11  1.67787357e-01  1.00000000e-11  3.60000000e-02  1.00000000e-11  1.80011774e+00  1.00000000e-11  5.00000000e-01                                 
 2.00000000e-11  5.63256698e-01  2.00000000e-11  4.98729204e-01  2.00000000e-11  1.68752735e-01  2.00000000e-11  7.20000000e-02  2.00000000e-11  1.80015823e+00  2.00000000e-11  5.00000000e-01                                 
 4.00000000e-11  5.63192546e-01  4.00000000e-11  4.98676280e-01  4.00000000e-11  1.70268872e-01  4.00000000e-11  1.44000000e-01  4.00000000e-11  1.80012816e+00  4.00000000e-11  5.00000000e-01                                 
 8.00000000e-11  5.63064587e-01  8.00000000e-11  4.98570681e-01  8.00000000e-11  1.72316586e-01  8.00000000e-11  2.88000000e-01  8.00000000e-11  1.80007555e+00  8.00000000e-11  5.00000000e-01                                 
 1.60000000e-10  5.62810108e-01  1.60000000e-10  4.98360463e-01  1.60000000e-10  1.74789023e-01  1.60000000e-10  5.76000000e-01  1.60000000e-10  1.80003166e+00  1.60000000e-10  5.00000000e-01                                 
 3.20000000e-10  5.62306691e-01  3.20000000e-10  4.97943856e-01  3.20000000e-10  1.96299741e-01  3.20000000e-10  1.15200000e+00  3.20000000e-10  1.80026176e+00  3.20000000e-10  5.00000000e-01                                 
 5.00000000e-10  5.61748973e-01  5.00000000e-10  4.97481135e-01  5.00000000e-10  4.78784126e-01  5.00000000e-10  1.80000000e+00  5.00000000e-10  1.37411616e-01  5.00000000e-10  5.00000000e-01                                 
 5.22661452e-10  5.61679471e-01  5.22661452e-10  4.97423376e-01  5.22661452e-10  5.39726906e-01  5.22661452e-10  1.80000000e+00  5.22661452e-10  2.90978978e-02  5.22661452e-10  5.00000000e-01                                 
 5.67984357e-10  5.61540750e-01  5.67984357e-10  4.97308053e-01  5.67984357e-10  6.52716247e-01  5.67984357e-10  1.80000000e+00  5.67984357e-10 -1.32706111e-02  5.67984357e-10  5.00000000e-01                                 
 6.58630167e-10  5.61265010e-01  6.58630167e-10  4.97078599e-01  6.58630167e-10  8.33017114e-01  6.58630167e-10  1.80000000e+00  6.58630167e-10  1.07864975e-02  6.58630167e-10  5.00000000e-01                                 
 7.81605621e-10  5.60894460e-01  7.81605621e-10  4.96769780e-01  7.81605621e-10  1.01692713e+00  7.81605621e-10  1.80000000e+00  7.81605621e-10 -9.12243574e-03  7.81605621e-10  5.00000000e-01                                 
 9.79090395e-10  5.60307627e-01  9.79090395e-10  4.96279625e-01  9.79090395e-10  1.24515376e+00  9.79090395e-10  1.80000000e+00  9.79090395e-10  8.47811844e-03  9.79090395e-10  5.00000000e-01                                 
 1.29644036e-09  5.59385031e-01  1.29644036e-09  4.95506366e-01  1.29644036e-09  1.50750340e+00  1.29644036e-09  1.80000000e+00  1.29644036e-09 -7.87721590e-03  1.29644036e-09  5.00000000e-01                                 
 1.89968018e-09  5.57696255e-01  1.89968018e-09  4.94082755e-01  1.89968018e-09  1.73980928e+00  1.89968018e-09  1.80000000e+00  1.89968018e-09  7.77488005e-03  1.89968018e-09  5.00000000e-01                                 
 2.17977343e-09  5.56939764e-01  2.17977343e-09  4.93441557e-01  2.17977343e-09  1.77162161e+00  2.17977343e-09  1.80000000e+00  2.17977343e-09 -7.19663573e-03  2.17977343e-09  5.00000000e-01                                 
 2.51081015e-09  5.56066642e-01  2.51081015e-09  4.92698928e-01  2.51081015e-09  1.78784582e+00  2.51081015e-09  1.80000000e+00  2.51081015e-09  6.91114794e-03  2.51081015e-09  5.00000000e-01                                 
 2.88536885e-09  5.55104791e-01  2.88536885e-09  4.91877684e-01  2.88536885e-09  1.79495298e+00  2.88536885e-09  1.80000000e+00  2.88536885e-09 -6.52157205e-03  2.88536885e-09  5.00000000e-01                                 
 3.58456770e-09  5.53377926e-01  3.58456770e-09  4.90395264e-01  3.58456770e-09  1.79754406e+00  3.58456770e-09  1.80000000e+00  3.58456770e-09  6.42927988e-03  3.58456770e-09  5.00000000e-01                                 
 4.34736313e-09  5.51588262e-01  4.34736313e-09  4.88848239e-01  4.34736313e-09  1.79623049e+00  4.34736313e-09  1.80000000e+00  4.34736313e-09 -6.22300450e-03  4.34736313e-09  5.00000000e-01                                 
 5.81733794e-09  5.48378322e-01  5.81733794e-09  4.86048185e-01  5.81733794e-09  1.79286238e+00  5.81733794e-09  1.80000000e+00  5.81733794e-09  6.21351820e-03  5.81733794e-09  5.00000000e-01                                 
 8.08987832e-09  5.43929594e-01  8.08987832e-09  4.82117227e-01  8.08987832e-09  1.78766172e+00  8.08987832e-09  1.80000000e+00  8.08987832e-09 -6.10221932e-03  8.08987832e-09  5.00000000e-01                                 
 9.58753364e-09  5.41286057e-01  9.58753364e-09  4.79754238e-01  9.58753364e-09  1.78437466e+00  9.58753364e-09  1.80000000e+00  9.58753364e-09  6.08817279e-03  9.58753364e-09  5.00000000e-01                                 
 1.13088739e-08  5.38477499e-01  1.13088739e-08  4.77224010e-01  1.13088739e-08  1.78077991e+00  1.13088739e-08  1.80000000e+00  1.13088739e-08 -5.97611101e-03  1.13088739e-08  5.00000000e-01                                 
 1.32516276e-08  5.35561412e-01  1.32516276e-08  4.74576504e-01  1.32516276e-08  1.77689756e+00  1.32516276e-08  1.80000000e+00  1.32516276e-08  5.97042784e-03  1.32516276e-08  5.00000000e-01                                 
 1.52244094e-08  5.32838124e-01  1.52244094e-08  4.72085962e-01  1.52244094e-08  1.77300618e+00  1.52244094e-08  1.80000000e+00  1.52244094e-08 -5.87280725e-03  1.52244094e-08  5.00000000e-01                                 
 1.75243202e-08  5.29923662e-01  1.75243202e-08  4.69401871e-01  1.75243202e-08  1.76861348e+00  1.75243202e-08  1.80000000e+00  1.75243202e-08  5.87297683e-03  1.75243202e-08  5.00000000e-01                                 
 2.04158066e-08  5.26600614e-01  2.04158066e-08  4.66318125e-01  2.04158066e-08  1.76315345e+00  2.04158066e-08  1.80000000e+00  2.04158066e-08 -5.79423235e-03  2.04158066e-08  5.00000000e-01                                 
 2.48940468e-08  5.22069962e-01  2.48940468e-08  4.62073840e-01  2.48940468e-08  1.75513771e+00  2.48940468e-08  1.80000000e+00  2.48940468e-08  5.81536121e-03  2.48940468e-08  5.00000000e-01                                 
 3.17306437e-08  5.16254882e-01  3.17306437e-08  4.56560008e-01  3.17306437e-08  1.74357829e+00  3.17306437e-08  1.80000000e+00  3.17306437e-08 -5.75718324e-03  3.17306437e-08  5.00000000e-01                                 
 4.54038375e-08  5.07127190e-01  4.54038375e-08  4.47783493e-01  4.54038375e-08  1.72203332e+00  4.54038375e-08  1.80000000e+00  4.54038375e-08  5.79357289e-03  4.54038375e-08  5.00000000e-01                                 
 7.27502250e-08  4.94142259e-01  7.27502250e-08  4.35123407e-01  7.27502250e-08  1.68252496e+00  7.27502250e-08  1.80000000e+00  7.27502250e-08 -5.74611193e-03  7.27502250e-08  5.00000000e-01                                 
 1.14756981e-07  4.78502704e-01  1.14756981e-07  4.20167337e-01  1.14756981e-07  1.62523034e+00  1.14756981e-07  1.80000000e+00  1.14756981e-07  5.78770119e-03  1.14756981e-07  5.00000000e-01                                 
 1.61456367e-07  4.62352854e-01  1.61456367e-07  4.05352853e-01  1.61456367e-07  1.56171617e+00  1.61456367e-07  1.80000000e+00  1.61456367e-07 -5.74161401e-03  1.61456367e-07  5.00000000e-01                                 
 2.31553500e-07  4.41489594e-01  2.31553500e-07  3.86653633e-01  2.31553500e-07  1.46791491e+00  2.31553500e-07  1.80000000e+00  2.31553500e-07  5.78422974e-03  2.31553500e-07  5.00000000e-01                                 
 3.05470324e-07  4.20661738e-01  3.05470324e-07  3.68566687e-01  3.05470324e-07  1.36868247e+00  3.05470324e-07  1.80000000e+00  3.05470324e-07 -5.73884253e-03  3.05470324e-07  5.00000000e-01                                 
 4.29596288e-07  3.81492308e-01  4.29596288e-07  3.35821375e-01  4.29596288e-07  1.19789641e+00  4.29596288e-07  1.80000000e+00  4.29596288e-07  5.78207519e-03  4.29596288e-07  5.00000000e-01                                 
 4.52102173e-07  3.73213856e-01  4.52102173e-07  3.29062926e-01  4.52102173e-07  1.16607953e+00  4.52102173e-07  1.80000000e+00  4.52102173e-07  9.46759610e-06  4.52102173e-07  5.00000000e-01                                 
 4.97113942e-07  3.55813990e-01  4.97113942e-07  3.14909638e-01  4.97113942e-07  1.10285288e+00  4.97113942e-07  1.80000000e+00  4.97113942e-07  7.20461454e-06  4.97113942e-07  5.00000000e-01                                 
 5.67104890e-07  3.50046685e-01  5.67104890e-07  3.10087207e-01  5.67104890e-07  1.03162074e+00  5.67104890e-07  1.80000000e+00  5.67104890e-07  9.78248459e-06  5.67104890e-07  5.00000000e-01                                 
 5.81996692e-07  3.60995166e-01  5.81996692e-07  3.18831427e-01  5.81996692e-07  1.02895585e+00  5.81996692e-07  1.80000000e+00  5.81996692e-07  8.91387325e-06  5.81996692e-07  5.00000000e-01                                 
 6.11780295e-07  4.18507616e-01  6.11780295e-07  3.64747195e-01  6.11780295e-07  1.05601295e+00  6.11780295e-07  1.80000000e+00  6.11780295e-07  1.01796726e-05  6.11780295e-07  5.00000000e-01                                 
 6.71347500e-07  6.40013407e-01  6.71347500e-07  5.72383602e-01  6.71347500e-07  1.20785816e+00  6.71347500e-07  1.80000000e+00  6.71347500e-07  1.18124500e-05  6.71347500e-07  5.00000000e-01                                 
 6.75659405e-07  6.47953156e-01  6.75659405e-07  5.80678327e-01  6.75659405e-07  1.21140334e+00  6.75659405e-07  1.80000000e+00  6.75659405e-07  1.02611920e-05  6.75659405e-07  5.00000000e-01                                 
 6.84283215e-07  6.60109040e-01  6.84283215e-07  5.92690843e-01  6.84283215e-07  1.21409270e+00  6.84283215e-07  1.80000000e+00  6.84283215e-07  9.34276567e-06  6.84283215e-07  5.00000000e-01                                 
 7.01530836e-07  6.78319640e-01  7.01530836e-07  6.09625121e-01  7.01530836e-07  1.21282004e+00  7.01530836e-07  1.80000000e+00  7.01530836e-07  9.44655468e-06  7.01530836e-07  5.00000000e-01                                 
 7.23128571e-07  6.94574751e-01  7.23128571e-07  6.24278548e-01  7.23128571e-07  1.20533407e+00  7.23128571e-07  1.80000000e+00  7.23128571e-07  8.89413246e-06  7.23128571e-07  5.00000000e-01                                 
 7.50838281e-07  7.07533566e-01  7.50838281e-07  6.35436625e-01  7.50838281e-07  1.18788114e+00  7.50838281e-07  1.80000000e+00  7.50838281e-07  8.95759102e-06  7.50838281e-07  5.00000000e-01                                 
 8.06257703e-07  7.18366011e-01  8.06257703e-07  6.44465920e-01  8.06257703e-07  1.13977785e+00  8.06257703e-07  1.80000000e+00  8.06257703e-07  8.45179636e-06  8.06257703e-07  5.00000000e-01                                 
 8.71616236e-07  7.18799741e-01  8.71616236e-07  6.44811405e-01  8.71616236e-07  1.07442409e+00  8.71616236e-07  1.80000000e+00  8.71616236e-07  8.63850765e-06  8.71616236e-07  5.00000000e-01                                 
 9.41692795e-07  6.96955206e-01  9.41692795e-07  6.26422030e-01  9.41692795e-07  9.93804343e-01  9.41692795e-07  1.80000000e+00  9.41692795e-07  7.94174487e-06  9.41692795e-07  5.00000000e-01                                 
 1.01593732e-06  6.92574928e-01  1.01593732e-06  6.22492555e-01  1.01593732e-06  9.36097862e-01  1.01593732e-06  1.80000000e+00  1.01593732e-06  9.02377545e-06  1.01593732e-06  5.00000000e-01                                 
 1.09729129e-06  7.15665426e-01  1.09729129e-06  6.42250133e-01  1.09729129e-06  9.02939824e-01  1.09729129e-06  1.80000000e+00  1.09729129e-06  8.52478204e-06  1.09729129e-06  5.00000000e-01                                 
 1.17788859e-06  7.00809642e-01  1.17788859e-06  6.29737778e-01  1.17788859e-06  8.39052815e-01  1.17788859e-06  1.80000000e+00  1.17788859e-06  8.26157369e-06  1.17788859e-06  5.00000000e-01                                 
 1.25582322e-06  6.96524731e-01  1.25582322e-06  6.25990651e-01  1.25582322e-06  7.88774837e-01  1.25582322e-06  1.80000000e+00  1.25582322e-06  8.71194931e-06  1.25582322e-06  5.00000000e-01                                 
 1.34681824e-06  7.10806572e-01  1.34681824e-06  6.38211101e-01  1.34681824e-06  7.47977539e-01  1.34681824e-06  1.80000000e+00  1.34681824e-06  8.62834433e-06  1.34681824e-06  5.00000000e-01                                 
 1.45113774e-06  7.00703639e-01  1.45113774e-06  6.29645595e-01  1.45113774e-06  6.79985646e-01  1.45113774e-06  1.80000000e+00  1.45113774e-06  8.29324319e-06  1.45113774e-06  5.00000000e-01                                 
 1.55673829e-06  7.01772311e-01  1.55673829e-06  6.30534215e-01  1.55673829e-06  6.24156417e-01  1.55673829e-06  1.80000000e+00  1.55673829e-06  8.79573689e-06  1.55673829e-06  5.00000000e-01                                 
 1.68596949e-06  7.08040354e-01  1.68596949e-06  6.35900509e-01  1.68596949e-06  5.64771826e-01  1.68596949e-06  1.80000000e+00  1.68596949e-06  8.36565029e-06  1.68596949e-06  5.00000000e-01                                 
 1.86547691e-06  6.99303832e-01  1.86547691e-06  6.28413276e-01  1.86547691e-06  5.02637460e-01  1.86547691e-06  1.80000000e+00  1.86547691e-06  8.63426362e-06  1.86547691e-06  5.00000000e-01                                 
 2.03229294e-06  7.06908827e-01  2.03229294e-06  6.34934868e-01  2.03229294e-06  4.95502479e-01  2.03229294e-06  1.80000000e+00  2.03229294e-06  8.51886320e-06  2.03229294e-06  5.00000000e-01                                 
 2.21265342e-06  7.02208301e-01  2.21265342e-06  6.30927224e-01  2.21265342e-06  4.98095292e-01  2.21265342e-06  1.80000000e+00  2.21265342e-06  8.51864498e-06  2.21265342e-06  5.00000000e-01                                 
 2.43834130e-06  7.04090385e-01  2.43834130e-06  6.32534456e-01  2.43834130e-06  5.03143300e-01  2.43834130e-06  1.80000000e+00  2.43834130e-06  8.56931272e-06  2.43834130e-06  5.00000000e-01                                 
 2.64177705e-06  7.04889137e-01  2.64177705e-06  6.33221561e-01  2.64177705e-06  4.98611932e-01  2.64177705e-06  1.80000000e+00  2.64177705e-06  8.51728711e-06  2.64177705e-06  5.00000000e-01                                 
 2.94889727e-06  7.02152785e-01  2.94889727e-06  6.30875915e-01  2.94889727e-06  5.00398042e-01  2.94889727e-06  1.80000000e+00  2.94889727e-06  8.54424257e-06  2.94889727e-06  5.00000000e-01                                 
 3.26941317e-06  7.05886641e-01  3.26941317e-06  6.34068301e-01  3.26941317e-06  5.01201124e-01  3.26941317e-06  1.80000000e+00  3.26941317e-06  8.55301233e-06  3.26941317e-06  5.00000000e-01                                 
 3.76175674e-06  7.01577314e-01  3.76175674e-06  6.30383183e-01  3.76175674e-06  4.98778836e-01  3.76175674e-06  1.80000000e+00  3.76175674e-06  8.50971123e-06  3.76175674e-06  5.00000000e-01                                 
 4.41287835e-06  7.06073439e-01  4.41287835e-06  6.34225442e-01  4.41287835e-06  5.02045097e-01  4.41287835e-06  1.80000000e+00  4.41287835e-06  8.57913955e-06  4.41287835e-06  5.00000000e-01                                 
 5.20368541e-06  7.01513920e-01  5.20368541e-06  6.30329918e-01  5.20368541e-06  4.98293515e-01  5.20368541e-06  1.80000000e+00  5.20368541e-06  8.48872387e-06  5.20368541e-06  5.00000000e-01                                 
 6.20368541e-06  7.06061847e-01  6.20368541e-06  6.34214602e-01  6.20368541e-06  5.02331061e-01  6.20368541e-06  1.80000000e+00  6.20368541e-06  8.59614017e-06  6.20368541e-06  5.00000000e-01                                 
 7.20368541e-06  7.01567519e-01  7.20368541e-06  6.30376968e-01  7.20368541e-06  4.98115220e-01  7.20368541e-06  1.80000000e+00  7.20368541e-06  8.47387748e-06  7.20368541e-06  5.00000000e-01                                 
 8.20368541e-06  7.05977388e-01  8.20368541e-06  6.34142013e-01  8.20368541e-06  5.02435948e-01  8.20368541e-06  1.80000000e+00  8.20368541e-06  8.61071199e-06  8.20368541e-06  5.00000000e-01                                 
 9.20368541e-06  7.01693308e-01  9.20368541e-06  6.30486077e-01  9.20368541e-06  4.98071426e-01  9.20368541e-06  1.80000000e+00  9.20368541e-06  8.45969543e-06  9.20368541e-06  5.00000000e-01                                 
 1.00005000e-05  7.05809366e-01  1.00005000e-05  6.33998355e-01  1.00005000e-05  5.02409876e-01  1.00005000e-05  1.80000000e+00  1.00005000e-05  8.62607129e-06  1.00005000e-05  5.00000000e-01                                 
 1.00005500e-05  7.05809375e-01  1.00005500e-05  6.33998041e-01  1.00005500e-05  4.94952683e-01  1.00005500e-05  1.62000000e+00  1.00005500e-05 -7.79462991e-05  1.00005500e-05  5.00000000e-01                                 
 1.00006500e-05  7.05807986e-01  1.00006500e-05  6.33997158e-01  1.00006500e-05  4.81291860e-01  1.00006500e-05  1.26000000e+00  1.00006500e-05 -6.53482354e-05  1.00006500e-05  5.00000000e-01                                 
 1.00008500e-05  7.05805046e-01  1.00008500e-05  6.33995732e-01  1.00008500e-05  4.79693333e-01  1.00008500e-05  5.40000000e-01  1.00008500e-05  6.34335916e-02  1.00008500e-05  5.00000000e-01                                 
 1.00010000e-05  7.05803587e-01  1.00010000e-05  6.33994894e-01  1.00010000e-05  4.44079397e-01  1.00010000e-05  0.00000000e+00  1.00010000e-05  1.61427736e+00  1.00010000e-05  5.00000000e-01                                 
 1.00010248e-05  7.05803277e-01  1.00010248e-05  6.33994752e-01  1.00010248e-05  4.23234764e-01  1.00010248e-05  0.00000000e+00  1.00010248e-05  1.73766664e+00  1.00010248e-05  5.00000000e-01                                 
 1.00010745e-05  7.05802788e-01  1.00010745e-05  6.33994501e-01  1.00010745e-05  3.86176051e-01  1.00010745e-05  0.00000000e+00  1.00010745e-05  1.81780669e+00  1.00010745e-05  5.00000000e-01                                 
 1.00011739e-05  7.05802079e-01  1.00011739e-05  6.33994113e-01  1.00011739e-05  3.48143518e-01  1.00011739e-05  0.00000000e+00  1.00011739e-05  1.78724441e+00  1.00011739e-05  5.00000000e-01                                 
 1.00013170e-05  7.05801178e-01  1.00013170e-05  6.33993668e-01  1.00013170e-05  3.39808252e-01  1.00013170e-05  0.00000000e+00  1.00013170e-05  1.80854944e+00  1.00013170e-05  5.00000000e-01                                 
 1.00015403e-05  7.05799925e-01  1.00015403e-05  6.33992999e-01  1.00015403e-05  3.39926907e-01  1.00015403e-05  0.00000000e+00  1.00015403e-05  1.79289113e+00  1.00015403e-05  5.00000000e-01                                 
 1.00017729e-05  7.05798681e-01  1.00017729e-05  6.33992258e-01  1.00017729e-05  3.40192137e-01  1.00017729e-05  0.00000000e+00  1.00017729e-05  1.80574998e+00  1.00017729e-05  5.00000000e-01                                 
 1.00021788e-05  7.05796555e-01  1.00021788e-05  6.33990816e-01  1.00021788e-05  3.39962501e-01  1.00021788e-05  0.00000000e+00  1.00021788e-05  1.79484648e+00  1.00021788e-05  5.00000000e-01                                 
 1.00026797e-05  7.05793806e-01  1.00026797e-05  6.33988745e-01  1.00026797e-05  3.40125631e-01  1.00026797e-05  0.00000000e+00  1.00026797e-05  1.80467470e+00  1.00026797e-05  5.00000000e-01                                 
