 time            v(vbep)         time            v(vben)         time            v(vout)         time            v(vphi1)        time            v(vphi2)        time            v(vref)         yes             currtemp       
 0.00000000e+00  6.91714163e-01  0.00000000e+00  6.25997640e-01  0.00000000e+00  9.77907099e-01  0.00000000e+00  0.00000000e+00  0.00000000e+00  1.79913352e+00  0.00000000e+00  6.25997640e-01  1.00000000e+00  7.30000000e+01 
 5.00000000e-12  6.91299898e-01  5.00000000e-12  6.25762727e-01  5.00000000e-12  9.78637388e-01  5.00000000e-12  1.80000000e-02  5.00000000e-12  1.79938580e+00  5.00000000e-12  6.25762727e-01                                 
 1.00000000e-11  6.90974058e-01  1.00000000e-11  6.25581092e-01  1.00000000e-11  9.79298552e-01  1.00000000e-11  3.60000000e-02  1.00000000e-11  1.79958100e+00  1.00000000e-11  6.25581092e-01                                 
 2.00000000e-11  6.90426006e-01  2.00000000e-11  6.25237861e-01  2.00000000e-11  9.80506528e-01  2.00000000e-11  7.20000000e-02  2.00000000e-11  1.79986829e+00  2.00000000e-11  6.25237861e-01                                 
 4.00000000e-11  6.89606314e-01  4.00000000e-11  6.24575533e-01  4.00000000e-11  9.82380331e-01  4.00000000e-11  1.44000000e-01  4.00000000e-11  1.80006382e+00  4.00000000e-11  6.24575533e-01                                 
 8.00000000e-11  6.88130597e-01  8.00000000e-11  6.23263950e-01  8.00000000e-11  9.84596189e-01  8.00000000e-11  2.88000000e-01  8.00000000e-11  1.80001801e+00  8.00000000e-11  6.23263950e-01                                 
 1.60000000e-10  6.85258893e-01  1.60000000e-10  6.20706434e-01  1.60000000e-10  9.85457341e-01  1.60000000e-10  5.76000000e-01  1.60000000e-10  1.79987289e+00  1.60000000e-10  6.20706434e-01                                 
 3.20000000e-10  6.79792327e-01  3.20000000e-10  6.15826724e-01  3.20000000e-10  9.75865799e-01  3.20000000e-10  1.15200000e+00  3.20000000e-10  1.80017234e+00  3.20000000e-10  6.15826724e-01                                 
 5.00000000e-10  6.74087786e-01  5.00000000e-10  6.10718383e-01  5.00000000e-10  1.08629131e+00  5.00000000e-10  1.80000000e+00  5.00000000e-10  1.74238509e-01  5.00000000e-10  6.10718383e-01                                 
 5.22117308e-10  6.73425431e-01  5.22117308e-10  6.10124208e-01  5.22117308e-10  1.11486525e+00  5.22117308e-10  1.80000000e+00  5.22117308e-10  4.67520931e-02  5.22117308e-10  6.10124208e-01                                 
 5.66351923e-10  6.72110400e-01  5.66351923e-10  6.08942467e-01  5.66351923e-10  1.17236987e+00  5.66351923e-10  1.80000000e+00  5.66351923e-10 -1.62979241e-02  5.66351923e-10  6.08942467e-01                                 
 6.54821155e-10  6.69552972e-01  6.54821155e-10  6.06643079e-01  6.54821155e-10  1.27734521e+00  6.54821155e-10  1.80000000e+00  6.54821155e-10  1.35070046e-02  6.54821155e-10  6.06643079e-01                                 
 7.76408838e-10  6.66196647e-01  7.76408838e-10  6.03619350e-01  7.76408838e-10  1.40317885e+00  7.76408838e-10  1.80000000e+00  7.76408838e-10 -9.90962877e-03  7.76408838e-10  6.03619350e-01                                 
 9.61227260e-10  6.61418974e-01  9.61227260e-10  5.99303983e-01  9.61227260e-10  1.55766239e+00  9.61227260e-10  1.80000000e+00  9.61227260e-10  9.75160831e-03  9.61227260e-10  5.99303983e-01                                 
 1.33086410e-09  6.52880051e-01  1.33086410e-09  5.91556517e-01  1.33086410e-09  1.74858663e+00  1.33086410e-09  1.80000000e+00  1.33086410e-09 -8.43181627e-03  1.33086410e-09  5.91556517e-01                                 
 1.68023724e-09  6.45943370e-01  1.68023724e-09  5.85218934e-01  1.68023724e-09  1.82896159e+00  1.68023724e-09  1.80000000e+00  1.68023724e-09  8.21825754e-03  1.68023724e-09  5.85218934e-01                                 
 2.01658076e-09  6.40108776e-01  2.01658076e-09  5.79851899e-01  2.01658076e-09  1.85820795e+00  2.01658076e-09  1.80000000e+00  2.01658076e-09 -7.51549383e-03  2.01658076e-09  5.79851899e-01                                 
 2.37394033e-09  6.34639719e-01  2.37394033e-09  5.74791695e-01  2.37394033e-09  1.86845473e+00  2.37394033e-09  1.80000000e+00  2.37394033e-09  7.09311918e-03  2.37394033e-09  5.74791695e-01                                 
 2.84962140e-09  6.28291173e-01  2.84962140e-09  5.68878624e-01  2.84962140e-09  1.86873906e+00  2.84962140e-09  1.80000000e+00  2.84962140e-09 -6.72980808e-03  2.84962140e-09  5.68878624e-01                                 
 3.49540347e-09  6.20988097e-01  3.49540347e-09  5.62025364e-01  3.49540347e-09  1.86383540e+00  3.49540347e-09  1.80000000e+00  3.49540347e-09  6.49707668e-03  3.49540347e-09  5.62025364e-01                                 
 4.46932638e-09  6.12029526e-01  4.46932638e-09  5.53542232e-01  4.46932638e-09  1.85482082e+00  4.46932638e-09  1.80000000e+00  4.46932638e-09 -6.33426670e-03  4.46932638e-09  5.53542232e-01                                 
 6.05675899e-09  6.00852786e-01  6.05675899e-09  5.42847571e-01  6.05675899e-09  1.84407448e+00  6.05675899e-09  1.80000000e+00  6.05675899e-09  6.25772633e-03  6.05675899e-09  5.42847571e-01                                 
 9.23162422e-09  5.85343246e-01  9.23162422e-09  5.27827119e-01  9.23162422e-09  1.82869979e+00  9.23162422e-09  1.80000000e+00  9.23162422e-09 -6.18244201e-03  9.23162422e-09  5.27827119e-01                                 
 1.11692902e-08  5.78685039e-01  1.11692902e-08  5.21310146e-01  1.11692902e-08  1.82257142e+00  1.11692902e-08  1.80000000e+00  1.11692902e-08  6.13907896e-03  1.11692902e-08  5.21310146e-01                                 
 1.27287520e-08  5.74170671e-01  1.27287520e-08  5.16874844e-01  1.27287520e-08  1.81794325e+00  1.27287520e-08  1.80000000e+00  1.27287520e-08 -6.02080640e-03  1.27287520e-08  5.16874844e-01                                 
 1.42801192e-08  5.70223687e-01  1.42801192e-08  5.12987724e-01  1.42801192e-08  1.81446344e+00  1.42801192e-08  1.80000000e+00  1.42801192e-08  5.95848594e-03  1.42801192e-08  5.12987724e-01                                 
 1.60211119e-08  5.66297564e-01  1.60211119e-08  5.09112930e-01  1.60211119e-08  1.81041551e+00  1.60211119e-08  1.80000000e+00  1.60211119e-08 -5.85348485e-03  1.60211119e-08  5.09112930e-01                                 
 1.77729603e-08  5.62775599e-01  1.77729603e-08  5.05630903e-01  1.77729603e-08  1.80735241e+00  1.77729603e-08  1.80000000e+00  1.77729603e-08  5.80303427e-03  1.77729603e-08  5.05630903e-01                                 
 2.00236070e-08  5.58747738e-01  2.00236070e-08  5.01641906e-01  2.00236070e-08  1.80322274e+00  2.00236070e-08  1.80000000e+00  2.00236070e-08 -5.71728670e-03  2.00236070e-08  5.01641906e-01                                 
 2.30728237e-08  5.53982764e-01  2.30728237e-08  4.96914745e-01  2.30728237e-08  1.79898336e+00  2.30728237e-08  1.80000000e+00  2.30728237e-08  5.70128054e-03  2.30728237e-08  4.96914745e-01                                 
 2.67988450e-08  5.48981738e-01  2.67988450e-08  4.91944431e-01  2.67988450e-08  1.79394919e+00  2.67988450e-08  1.80000000e+00  2.67988450e-08 -5.63834962e-03  2.67988450e-08  4.91944431e-01                                 
 3.32449720e-08  5.41807533e-01  3.32449720e-08  4.84800763e-01  3.32449720e-08  1.78742599e+00  3.32449720e-08  1.80000000e+00  3.32449720e-08  5.64702025e-03  3.32449720e-08  4.84800763e-01                                 
 4.16814354e-08  5.34346014e-01  4.16814354e-08  4.77355769e-01  4.16814354e-08  1.78007534e+00  4.16814354e-08  1.80000000e+00  4.16814354e-08 -5.60194723e-03  4.16814354e-08  4.77355769e-01                                 
 5.85543622e-08  5.23134941e-01  5.85543622e-08  4.66146271e-01  5.85543622e-08  1.76973067e+00  5.85543622e-08  1.80000000e+00  5.85543622e-08  5.62512217e-03  5.85543622e-08  4.66146271e-01                                 
 9.23002158e-08  5.08202626e-01  9.23002158e-08  4.51169320e-01  9.23002158e-08  1.75547271e+00  9.23002158e-08  1.80000000e+00  9.23002158e-08 -5.58953850e-03  9.23002158e-08  4.51169320e-01                                 
 1.39039414e-07  4.96054022e-01  1.39039414e-07  4.38748284e-01  1.39039414e-07  1.74690418e+00  1.39039414e-07  1.80000000e+00  1.39039414e-07  5.61955081e-03  1.39039414e-07  4.38748284e-01                                 
 1.82943527e-07  4.88578730e-01  1.82943527e-07  4.30984608e-01  1.82943527e-07  1.74234792e+00  1.82943527e-07  1.80000000e+00  1.82943527e-07 -5.58352923e-03  1.82943527e-07  4.30984608e-01                                 
 2.17625861e-07  4.82299547e-01  2.17625861e-07  4.24854038e-01  2.17625861e-07  1.72407084e+00  2.17625861e-07  1.80000000e+00  2.17625861e-07  5.61242675e-03  2.17625861e-07  4.24854038e-01                                 
 2.59707348e-07  4.66494495e-01  2.59707348e-07  4.11172374e-01  2.59707348e-07  1.67259288e+00  2.59707348e-07  1.80000000e+00  2.59707348e-07 -5.57833446e-03  2.59707348e-07  4.11172374e-01                                 
 2.93620867e-07  4.54505566e-01  2.93620867e-07  4.00892632e-01  2.93620867e-07  1.61820655e+00  2.93620867e-07  1.80000000e+00  2.93620867e-07  5.60530641e-03  2.93620867e-07  4.00892632e-01                                 
 3.22996645e-07  4.57150645e-01  3.22996645e-07  4.02382233e-01  3.22996645e-07  1.60614605e+00  3.22996645e-07  1.80000000e+00  3.22996645e-07 -5.56758582e-03  3.22996645e-07  4.02382233e-01                                 
 3.48874926e-07  4.59581618e-01  3.48874926e-07  4.03798366e-01  3.48874926e-07  1.58646789e+00  3.48874926e-07  1.80000000e+00  3.48874926e-07  5.59566762e-03  3.48874926e-07  4.03798366e-01                                 
 3.74647209e-07  4.56279481e-01  3.74647209e-07  4.00703792e-01  3.74647209e-07  1.55575597e+00  3.74647209e-07  1.80000000e+00  3.74647209e-07 -5.55905211e-03  3.74647209e-07  4.00703792e-01                                 
 3.99619293e-07  4.55152010e-01  3.99619293e-07  3.99377536e-01  3.99619293e-07  1.52659847e+00  3.99619293e-07  1.80000000e+00  3.99619293e-07  5.58601463e-03  3.99619293e-07  3.99377536e-01                                 
 4.25871945e-07  4.52582217e-01  4.25871945e-07  3.96912818e-01  4.25871945e-07  1.49753239e+00  4.25871945e-07  1.80000000e+00  4.25871945e-07 -5.54937937e-03  4.25871945e-07  3.96912818e-01                                 
 4.66140100e-07  4.44285775e-01  4.66140100e-07  3.89734331e-01  4.66140100e-07  1.44560450e+00  4.66140100e-07  1.80000000e+00  4.66140100e-07  5.57760481e-03  4.66140100e-07  3.89734331e-01                                 
 5.17191068e-07  4.33412615e-01  5.17191068e-07  3.80446436e-01  5.17191068e-07  1.38257639e+00  5.17191068e-07  1.80000000e+00  5.17191068e-07 -5.54379989e-03  5.17191068e-07  3.80446436e-01                                 
 5.85377372e-07  4.18258658e-01  5.85377372e-07  3.67687491e-01  5.85377372e-07  1.29413593e+00  5.85377372e-07  1.80000000e+00  5.85377372e-07  5.57325324e-03  5.85377372e-07  3.67687491e-01                                 
 7.08731534e-07  3.92430795e-01  7.08731534e-07  3.46198559e-01  7.08731534e-07  1.14163920e+00  7.08731534e-07  1.80000000e+00  7.08731534e-07 -5.54084715e-03  7.08731534e-07  3.46198559e-01                                 
 8.22648272e-07  3.47182320e-01  8.22648272e-07  3.09599942e-01  8.22648272e-07  9.91462805e-01  8.22648272e-07  1.80000000e+00  8.22648272e-07  5.57066919e-03  8.22648272e-07  3.09599942e-01                                 
 8.37270975e-07  3.41150718e-01  8.37270975e-07  3.04746397e-01  8.37270975e-07  9.76038842e-01  8.37270975e-07  1.80000000e+00  8.37270975e-07  6.81905525e-06  8.37270975e-07  3.04746397e-01                                 
 8.66516382e-07  3.30909691e-01  8.66516382e-07  2.96510251e-01  8.66516382e-07  9.45847969e-01  8.66516382e-07  1.80000000e+00  8.66516382e-07  2.77634507e-06  8.66516382e-07  2.96510251e-01                                 
 9.25007196e-07  3.93798337e-01  9.25007196e-07  3.47038663e-01  9.25007196e-07  9.61306289e-01  9.25007196e-07  1.80000000e+00  9.25007196e-07  1.19457838e-05  9.25007196e-07  3.47038663e-01                                 
 9.39629900e-07  4.66580416e-01  9.39629900e-07  4.05357183e-01  9.39629900e-07  1.01577972e+00  9.39629900e-07  1.80000000e+00  9.39629900e-07  1.47151693e-05  9.39629900e-07  4.05357183e-01                                 
 9.68875307e-07  6.29179061e-01  9.68875307e-07  5.60411791e-01  9.68875307e-07  1.14265582e+00  9.68875307e-07  1.80000000e+00  9.68875307e-07  2.16479638e-05  9.68875307e-07  5.60411791e-01                                 
 1.01322479e-06  7.13179890e-01  1.01322479e-06  6.44001813e-01  1.01322479e-06  1.17965653e+00  1.01322479e-06  1.80000000e+00  1.01322479e-06 -9.33427066e-07  1.01322479e-06  6.44001813e-01                                 
 1.01909320e-06  7.19405365e-01  1.01909320e-06  6.49198908e-01  1.01909320e-06  1.17842391e+00  1.01909320e-06  1.80000000e+00  1.01909320e-06  7.72372732e-06  1.01909320e-06  6.49198908e-01                                 
 1.03083002e-06  7.28619360e-01  1.03083002e-06  6.56911728e-01  1.03083002e-06  1.17480945e+00  1.03083002e-06  1.80000000e+00  1.03083002e-06  6.66150502e-06  1.03083002e-06  6.56911728e-01                                 
 1.05430367e-06  7.34108222e-01  1.05430367e-06  6.61456320e-01  1.05430367e-06  1.15583384e+00  1.05430367e-06  1.80000000e+00  1.05430367e-06  4.93832674e-06  1.05430367e-06  6.61456320e-01                                 
 1.08448755e-06  7.34533515e-01  1.08448755e-06  6.61773929e-01  1.08448755e-06  1.12473810e+00  1.08448755e-06  1.80000000e+00  1.08448755e-06  5.51910039e-06  1.08448755e-06  6.61773929e-01                                 
 1.12802118e-06  7.34798160e-01  1.12802118e-06  6.62013808e-01  1.12802118e-06  1.08150164e+00  1.12802118e-06  1.80000000e+00  1.12802118e-06  4.97146441e-06  1.12802118e-06  6.62013808e-01                                 
 1.19356355e-06  7.28888552e-01  1.19356355e-06  6.57174082e-01  1.19356355e-06  1.01587484e+00  1.19356355e-06  1.80000000e+00  1.19356355e-06  5.14881775e-06  1.19356355e-06  6.57174082e-01                                 
 1.20221202e-06  7.25851641e-01  1.20221202e-06  6.54678088e-01  1.20221202e-06  1.00607858e+00  1.20221202e-06  1.80000000e+00  1.20221202e-06  4.48510489e-06  1.20221202e-06  6.54678088e-01                                 
 1.21950895e-06  7.17168640e-01  1.21950895e-06  6.47359554e-01  1.21950895e-06  9.84466176e-01  1.21950895e-06  1.80000000e+00  1.21950895e-06  3.73972122e-06  1.21950895e-06  6.47359554e-01                                 
 1.25410282e-06  7.02523901e-01  1.25410282e-06  6.34516275e-01  1.25410282e-06  9.45939076e-01  1.25410282e-06  1.80000000e+00  1.25410282e-06  4.93777548e-06  1.25410282e-06  6.34516275e-01                                 
 1.30140724e-06  7.10535148e-01  1.30140724e-06  6.41562278e-01  1.30140724e-06  9.21255170e-01  1.30140724e-06  1.80000000e+00  1.30140724e-06  6.81392592e-06  1.30140724e-06  6.41562278e-01                                 
 1.36068330e-06  7.24058327e-01  1.36068330e-06  6.53159185e-01  1.36068330e-06  8.95300748e-01  1.36068330e-06  1.80000000e+00  1.36068330e-06  5.27357249e-06  1.36068330e-06  6.53159185e-01                                 
 1.43063534e-06  7.14483556e-01  1.43063534e-06  6.45033406e-01  1.43063534e-06  8.43482563e-01  1.43063534e-06  1.80000000e+00  1.43063534e-06  5.04573599e-06  1.43063534e-06  6.45033406e-01                                 
 1.51423088e-06  7.11646705e-01  1.51423088e-06  6.42541618e-01  1.51423088e-06  7.91488174e-01  1.51423088e-06  1.80000000e+00  1.51423088e-06  5.83780777e-06  1.51423088e-06  6.42541618e-01                                 
 1.60026556e-06  7.20342400e-01  1.60026556e-06  6.50033075e-01  1.60026556e-06  7.50599828e-01  1.60026556e-06  1.80000000e+00  1.60026556e-06  5.76489631e-06  1.60026556e-06  6.50033075e-01                                 
 1.72775015e-06  7.13652027e-01  1.72775015e-06  6.44299560e-01  1.72775015e-06  6.85878608e-01  1.72775015e-06  1.80000000e+00  1.72775015e-06  5.22933387e-06  1.72775015e-06  6.44299560e-01                                 
 1.85644959e-06  7.15478597e-01  1.85644959e-06  6.45870081e-01  1.85644959e-06  6.53483648e-01  1.85644959e-06  1.80000000e+00  1.85644959e-06  6.28058862e-06  1.85644959e-06  6.45870081e-01                                 
 2.00504655e-06  7.18131018e-01  2.00504655e-06  6.48149677e-01  2.00504655e-06  6.37748455e-01  2.00504655e-06  1.80000000e+00  2.00504655e-06  5.37052569e-06  2.00504655e-06  6.48149677e-01                                 
 2.16079079e-06  7.13198431e-01  2.16079079e-06  6.43905320e-01  2.16079079e-06  6.37021073e-01  2.16079079e-06  1.80000000e+00  2.16079079e-06  6.16600309e-06  2.16079079e-06  6.43905320e-01                                 
 2.18858122e-06  7.14966627e-01  2.18858122e-06  6.45429490e-01  2.18858122e-06  6.41764789e-01  2.18858122e-06  1.80000000e+00  2.18858122e-06  6.02846690e-06  2.18858122e-06  6.45429490e-01                                 
 2.24416209e-06  7.17204811e-01  2.24416209e-06  6.47355075e-01  2.24416209e-06  6.47328153e-01  2.24416209e-06  1.80000000e+00  2.24416209e-06  5.87616540e-06  2.24416209e-06  6.47355075e-01                                 
 2.35532381e-06  7.15601846e-01  2.35532381e-06  6.45982419e-01  2.35532381e-06  6.46167662e-01  2.35532381e-06  1.80000000e+00  2.35532381e-06  5.72189018e-06  2.35532381e-06  6.45982419e-01                                 
 2.52772289e-06  7.15773274e-01  2.52772289e-06  6.46124863e-01  2.52772289e-06  6.46261707e-01  2.52772289e-06  1.80000000e+00  2.52772289e-06  5.94739365e-06  2.52772289e-06  6.46124863e-01                                 
 2.71152129e-06  7.16581872e-01  2.71152129e-06  6.46824153e-01  2.71152129e-06  6.47084685e-01  2.71152129e-06  1.80000000e+00  2.71152129e-06  5.73847832e-06  2.71152129e-06  6.46824153e-01                                 
 3.07911810e-06  7.15252472e-01  3.07911810e-06  6.45677430e-01  3.07911810e-06  6.45754737e-01  3.07911810e-06  1.80000000e+00  3.07911810e-06  5.90888056e-06  3.07911810e-06  6.45677430e-01                                 
 3.72986787e-06  7.16739453e-01  3.72986787e-06  6.46958822e-01  3.72986787e-06  6.47242323e-01  3.72986787e-06  1.80000000e+00  3.72986787e-06  5.76681852e-06  3.72986787e-06  6.46958822e-01                                 
 4.71783555e-06  7.15191852e-01  4.71783555e-06  6.45625650e-01  4.71783555e-06  6.45693310e-01  4.71783555e-06  1.80000000e+00  4.71783555e-06  5.89038319e-06  4.71783555e-06  6.45625650e-01                                 
 5.71783555e-06  7.16766700e-01  5.71783555e-06  6.46981789e-01  5.71783555e-06  6.47270604e-01  5.71783555e-06  1.80000000e+00  5.71783555e-06  5.78190579e-06  5.71783555e-06  6.46981789e-01                                 
 6.71783555e-06  7.15178509e-01  6.71783555e-06  6.45614441e-01  6.71783555e-06  6.45678561e-01  6.71783555e-06  1.80000000e+00  6.71783555e-06  5.87519107e-06  6.71783555e-06  6.45614441e-01                                 
 7.71783555e-06  7.16765552e-01  7.71783555e-06  6.46980479e-01  7.71783555e-06  6.47271080e-01  7.71783555e-06  1.80000000e+00  7.71783555e-06  5.79715750e-06  7.71783555e-06  6.46980479e-01                                 
 8.71783555e-06  7.15193274e-01  8.71783555e-06  6.45627497e-01  8.71783555e-06  6.45691493e-01  8.71783555e-06  1.80000000e+00  8.71783555e-06  5.86001504e-06  8.71783555e-06  6.45627497e-01                                 
 9.71783555e-06  7.16738429e-01  9.71783555e-06  6.46956894e-01  9.71783555e-06  6.47246015e-01  9.71783555e-06  1.80000000e+00  9.71783555e-06  5.81213315e-06  9.71783555e-06  6.46956894e-01                                 
