 time            v(vbep)         time            v(vben)         time            v(vout)         time            v(vphi1)        time            v(vphi2)        time            v(vref)         time            v(voutc)        time            v(voutcc)       yes             currtemp       
 0.00000000e+00  8.36880489e-01  0.00000000e+00  7.87551665e-01  0.00000000e+00  1.72888037e+00  0.00000000e+00  0.00000000e+00  0.00000000e+00  1.80000000e+00  0.00000000e+00  7.91388611e-01  0.00000000e+00  1.72888036e+00  0.00000000e+00  1.73381294e+00  1.00000000e+00 -1.60000000e+01 
 1.00000000e-11  8.36902255e-01  1.00000000e-11  7.87618016e-01  1.00000000e-11  1.72970582e+00  1.00000000e-11  1.80000000e-02  1.00000000e-11  1.80024335e+00  1.00000000e-11  7.91904588e-01  1.00000000e-11  1.72933853e+00  1.00000000e-11  1.73382607e+00                                 
 2.00000000e-11  8.36908374e-01  2.00000000e-11  7.87659918e-01  2.00000000e-11  1.73026711e+00  2.00000000e-11  3.60000000e-02  2.00000000e-11  1.80034569e+00  2.00000000e-11  7.92295256e-01  2.00000000e-11  1.72969861e+00  2.00000000e-11  1.73383216e+00                                 
 4.00000000e-11  8.36908364e-01  4.00000000e-11  7.87714822e-01  4.00000000e-11  1.73102132e+00  4.00000000e-11  7.20000000e-02  4.00000000e-11  1.80039447e+00  4.00000000e-11  7.92874710e-01  4.00000000e-11  1.73025674e+00  4.00000000e-11  1.73383611e+00                                 
 8.00000000e-11  8.36897356e-01  8.00000000e-11  7.87747177e-01  8.00000000e-11  1.73140129e+00  8.00000000e-11  1.44000000e-01  8.00000000e-11  1.80020455e+00  8.00000000e-11  7.93343742e-01  8.00000000e-11  1.73079385e+00  8.00000000e-11  1.73382659e+00                                 
 1.60000000e-10  8.36893977e-01  1.60000000e-10  7.87746522e-01  1.60000000e-10  1.73120060e+00  1.60000000e-10  2.88000000e-01  1.60000000e-10  1.80001579e+00  1.60000000e-10  7.93414184e-01  1.60000000e-10  1.73101936e+00  1.60000000e-10  1.73381356e+00                                 
 3.20000000e-10  8.36891625e-01  3.20000000e-10  7.87744495e-01  3.20000000e-10  1.73090847e+00  3.20000000e-10  5.76000000e-01  3.20000000e-10  1.80002231e+00  3.20000000e-10  7.93377619e-01  3.20000000e-10  1.73102040e+00  3.20000000e-10  1.73381122e+00                                 
 6.40000000e-10  8.36821881e-01  6.40000000e-10  7.87544270e-01  6.40000000e-10  1.72399542e+00  6.40000000e-10  1.15200000e+00  6.40000000e-10  1.81354377e+00  6.40000000e-10  7.93008627e-01  6.40000000e-10  1.73546449e+00  6.40000000e-10  1.73383853e+00                                 
 9.95210054e-10  8.37216849e-01  9.95210054e-10  7.87555147e-01  9.95210054e-10  1.69292277e+00  9.95210054e-10  1.79137810e+00  9.95210054e-10  7.47313328e-02  9.95210054e-10  7.93371943e-01  9.95210054e-10  1.72361161e+00  9.95210054e-10  1.73371424e+00                                 
 1.00000000e-09  8.37232772e-01  1.00000000e-09  7.87583501e-01  1.00000000e-09  1.69262019e+00  1.00000000e-09  1.80000000e+00  1.00000000e-09  4.30883924e-02  1.00000000e-09  7.93758411e-01  1.00000000e-09  1.72350612e+00  1.00000000e-09  1.73372499e+00                                 
 1.00957989e-09  8.37215678e-01  1.00957989e-09  7.87595928e-01  1.00957989e-09  1.69256686e+00  1.00957989e-09  1.80000000e+00  1.00957989e-09  2.08584018e-02  1.00957989e-09  7.94615496e-01  1.00957989e-09  1.72396689e+00  1.00957989e-09  1.73375795e+00                                 
 1.02873968e-09  8.37212470e-01  1.02873968e-09  7.87650332e-01  1.02873968e-09  1.69288259e+00  1.02873968e-09  1.80000000e+00  1.02873968e-09  3.85843469e-04  1.02873968e-09  7.96259713e-01  1.02873968e-09  1.72516030e+00  1.02873968e-09  1.73381322e+00                                 
 1.06705925e-09  8.37298966e-01  1.06705925e-09  7.87699960e-01  1.06705925e-09  1.69274821e+00  1.06705925e-09  1.80000000e+00  1.06705925e-09  1.52304184e-03  1.06705925e-09  7.97767550e-01  1.06705925e-09  1.72654110e+00  1.06705925e-09  1.73382690e+00                                 
 1.14369839e-09  8.37472527e-01  1.14369839e-09  7.87619202e-01  1.14369839e-09  1.68919214e+00  1.14369839e-09  1.80000000e+00  1.14369839e-09  1.11568096e-04  1.14369839e-09  7.97919568e-01  1.14369839e-09  1.72666180e+00  1.14369839e-09  1.73379437e+00                                 
 1.29697667e-09  8.37649213e-01  1.29697667e-09  7.87566746e-01  1.29697667e-09  1.68271714e+00  1.29697667e-09  1.80000000e+00  1.29697667e-09  5.85969972e-04  1.29697667e-09  7.98644202e-01  1.29697667e-09  1.72727105e+00  1.29697667e-09  1.73381890e+00                                 
 1.52129746e-09  8.37661463e-01  1.52129746e-09  7.87550541e-01  1.52129746e-09  1.67934151e+00  1.52129746e-09  1.80000000e+00  1.52129746e-09 -2.98034418e-04  1.52129746e-09  7.98787246e-01  1.52129746e-09  1.72737631e+00  1.52129746e-09  1.73380933e+00                                 
 1.78315040e-09  8.37501171e-01  1.78315040e-09  7.87543912e-01  1.78315040e-09  1.68071828e+00  1.78315040e-09  1.80000000e+00  1.78315040e-09  2.55494749e-04  1.78315040e-09  7.98495296e-01  1.78315040e-09  1.72713612e+00  1.78315040e-09  1.73382083e+00                                 
 2.03917745e-09  8.37336430e-01  2.03917745e-09  7.87541591e-01  2.03917745e-09  1.68283538e+00  2.03917745e-09  1.80000000e+00  2.03917745e-09 -2.84317009e-04  2.03917745e-09  7.98112903e-01  2.03917745e-09  1.72680487e+00  2.03917745e-09  1.73381557e+00                                 
 2.41872324e-09  8.37121752e-01  2.41872324e-09  7.87539375e-01  2.41872324e-09  1.68604857e+00  2.41872324e-09  1.80000000e+00  2.41872324e-09  2.00631083e-04  2.41872324e-09  7.97596130e-01  2.41872324e-09  1.72637517e+00  2.41872324e-09  1.73382194e+00                                 
 3.10531113e-09  8.36889208e-01  3.10531113e-09  7.87534544e-01  3.10531113e-09  1.69087557e+00  3.10531113e-09  1.80000000e+00  3.10531113e-09 -2.53451713e-04  3.10531113e-09  7.96646003e-01  3.10531113e-09  1.72556531e+00  3.10531113e-09  1.73381497e+00                                 
 4.47848691e-09  8.36737481e-01  4.47848691e-09  7.87534348e-01  4.47848691e-09  1.69802654e+00  4.47848691e-09  1.80000000e+00  4.47848691e-09  1.90578472e-04  4.47848691e-09  7.95067730e-01  4.47848691e-09  1.72423841e+00  4.47848691e-09  1.73379913e+00                                 
 7.22483848e-09  8.36792118e-01  7.22483848e-09  7.87539676e-01  7.22483848e-09  1.70483483e+00  7.22483848e-09  1.80000000e+00  7.22483848e-09 -2.37864483e-04  7.22483848e-09  7.92861089e-01  7.22483848e-09  1.72236716e+00  7.22483848e-09  1.73369374e+00                                 
 1.01010793e-08  8.36836856e-01  1.01010793e-08  7.87547953e-01  1.01010793e-08  1.70608198e+00  1.01010793e-08  1.80000000e+00  1.01010793e-08  1.95754837e-04  1.01010793e-08  7.91721660e-01  1.01010793e-08  1.72140941e+00  1.01010793e-08  1.73352136e+00                                 
 1.27249597e-08  8.36851278e-01  1.27249597e-08  7.87549135e-01  1.27249597e-08  1.70511439e+00  1.27249597e-08  1.80000000e+00  1.27249597e-08 -2.25967189e-04  1.27249597e-08  7.91195752e-01  1.27249597e-08  1.72095508e+00  1.27249597e-08  1.73331673e+00                                 
 1.55327804e-08  8.36850526e-01  1.55327804e-08  7.87551960e-01  1.55327804e-08  1.70402755e+00  1.55327804e-08  1.80000000e+00  1.55327804e-08  1.99015620e-04  1.55327804e-08  7.90973417e-01  1.55327804e-08  1.72076770e+00  1.55327804e-08  1.73308725e+00                                 
 1.92634749e-08  8.36851463e-01  1.92634749e-08  7.87550872e-01  1.92634749e-08  1.70308707e+00  1.92634749e-08  1.80000000e+00  1.92634749e-08 -2.11655273e-04  1.92634749e-08  7.90835169e-01  1.92634749e-08  1.72063390e+00  1.92634749e-08  1.73276582e+00                                 
 2.41589246e-08  8.36862892e-01  2.41589246e-08  7.87552543e-01  2.41589246e-08  1.70047753e+00  2.41589246e-08  1.80000000e+00  2.41589246e-08  2.03737880e-04  2.41589246e-08  7.90853606e-01  2.41589246e-08  1.72063960e+00  2.41589246e-08  1.73236190e+00                                 
 3.08846284e-08  8.36880217e-01  3.08846284e-08  7.87550961e-01  3.08846284e-08  1.69373449e+00  3.08846284e-08  1.80000000e+00  3.08846284e-08 -2.06161114e-04  3.08846284e-08  7.90888689e-01  3.08846284e-08  1.72064057e+00  3.08846284e-08  1.73183077e+00                                 
 4.05938464e-08  8.36880913e-01  4.05938464e-08  7.87552608e-01  4.05938464e-08  1.68168006e+00  4.05938464e-08  1.80000000e+00  4.05938464e-08  2.03274122e-04  4.05938464e-08  7.91006530e-01  4.05938464e-08  1.72071809e+00  4.05938464e-08  1.73114484e+00                                 
 5.63173376e-08  8.36884450e-01  5.63173376e-08  7.87550931e-01  5.63173376e-08  1.66041939e+00  5.63173376e-08  1.80000000e+00  5.63173376e-08 -2.05131994e-04  5.63173376e-08  7.91099114e-01  5.63173376e-08  1.72075444e+00  5.63173376e-08  1.73018441e+00                                 
 7.89778875e-08  8.36879503e-01  7.89778875e-08  7.87552530e-01  7.89778875e-08  1.62799047e+00  7.89778875e-08  1.80000000e+00  7.89778875e-08  2.02626128e-04  7.89778875e-08  7.91234601e-01  7.89778875e-08  1.72083987e+00  7.89778875e-08  1.72910007e+00                                 
 1.24298987e-07  8.36882920e-01  1.24298987e-07  7.87550858e-01  1.24298987e-07  1.55982977e+00  1.24298987e-07  1.80000000e+00  1.24298987e-07 -2.04864916e-04  1.24298987e-07  7.91320994e-01  1.24298987e-07  1.72086631e+00  1.24298987e-07  1.72764713e+00                                 
 2.14941187e-07  8.36878494e-01  2.14941187e-07  7.87552491e-01  2.14941187e-07  1.42198189e+00  2.14941187e-07  1.80000000e+00  2.14941187e-07  2.02511370e-04  2.14941187e-07  7.91400759e-01  2.14941187e-07  1.72090783e+00  2.14941187e-07  1.72634406e+00                                 
 3.92862079e-07  8.36882502e-01  3.92862079e-07  7.87550846e-01  3.92862079e-07  1.15707641e+00  3.92862079e-07  1.80000000e+00  3.92862079e-07 -2.04650229e-04  3.92862079e-07  7.91376316e-01  3.92862079e-07  1.72086326e+00  3.92862079e-07  1.72580724e+00                                 
 6.19044660e-07  8.36878485e-01  6.19044660e-07  7.87552484e-01  6.19044660e-07  8.68897760e-01  6.19044660e-07  1.80000000e+00  6.19044660e-07  2.02855721e-04  6.19044660e-07  7.91400416e-01  6.19044660e-07  1.72088025e+00  6.19044660e-07  1.72583691e+00                                 
 6.27769661e-07  8.36880503e-01  6.27769661e-07  7.87551666e-01  6.27769661e-07  8.59982874e-01  6.27769661e-07  1.80000000e+00  6.27769661e-07 -4.59907384e-07  6.27769661e-07  7.91388280e-01  6.27769661e-07  1.72086646e+00  6.27769661e-07  1.72583417e+00                                 
 6.45219664e-07  8.36880622e-01  6.45219664e-07  7.87551675e-01  6.45219664e-07  8.43650358e-01  6.45219664e-07  1.80000000e+00  6.45219664e-07 -5.67854658e-07  6.45219664e-07  7.91388608e-01  6.45219664e-07  1.72086597e+00  6.45219664e-07  1.72583247e+00                                 
 6.80119670e-07  8.36880510e-01  6.80119670e-07  7.87551667e-01  6.80119670e-07  8.20128268e-01  6.80119670e-07  1.80000000e+00  6.80119670e-07 -7.13977164e-08  6.80119670e-07  7.91389159e-01  6.80119670e-07  1.72086489e+00  6.80119670e-07  1.72582969e+00                                 
 7.26803194e-07  8.36880460e-01  7.26803194e-07  7.87551664e-01  7.26803194e-07  8.04071646e-01  7.26803194e-07  1.80000000e+00  7.26803194e-07 -2.37804550e-07  7.26803194e-07  7.91389201e-01  7.26803194e-07  1.72086288e+00  7.26803194e-07  1.72582678e+00                                 
 7.71584513e-07  8.36880442e-01  7.71584513e-07  7.87551663e-01  7.71584513e-07  7.98313750e-01  7.71584513e-07  1.80000000e+00  7.71584513e-07  1.46124656e-07  7.71584513e-07  7.91388970e-01  7.71584513e-07  1.72086074e+00  7.71584513e-07  1.72582433e+00                                 
 8.23386273e-07  8.36880472e-01  8.23386273e-07  7.87551665e-01  8.23386273e-07  7.96117295e-01  8.23386273e-07  1.80000000e+00  8.23386273e-07 -1.54245325e-07  8.23386273e-07  7.91388770e-01  8.23386273e-07  1.72085832e+00  8.23386273e-07  1.72582169e+00                                 
 8.81716107e-07  8.36880475e-01  8.81716107e-07  7.87551664e-01  8.81716107e-07  7.95464469e-01  8.81716107e-07  1.80000000e+00  8.81716107e-07  1.76375949e-07  8.81716107e-07  7.91388660e-01  8.81716107e-07  1.72085572e+00  8.81716107e-07  1.72581887e+00                                 
 9.71858029e-07  8.36880493e-01  9.71858029e-07  7.87551665e-01  9.71858029e-07  7.95291855e-01  9.71858029e-07  1.80000000e+00  9.71858029e-07 -1.45002138e-07  9.71858029e-07  7.91388616e-01  9.71858029e-07  1.72085178e+00  9.71858029e-07  1.72581475e+00                                 
 1.10908575e-06  8.36880485e-01  1.10908575e-06  7.87551665e-01  1.10908575e-06  7.95295946e-01  1.10908575e-06  1.80000000e+00  1.10908575e-06  1.78388486e-07  1.10908575e-06  7.91388608e-01  1.10908575e-06  1.72084586e+00  1.10908575e-06  1.72580874e+00                                 
 1.37854505e-06  8.36880494e-01  1.37854505e-06  7.87551665e-01  1.37854505e-06  7.95299238e-01  1.37854505e-06  1.80000000e+00  1.37854505e-06 -1.44952611e-07  1.37854505e-06  7.91388612e-01  1.37854505e-06  1.72083423e+00  1.37854505e-06  1.72579714e+00                                 
 1.91746365e-06  8.36880485e-01  1.91746365e-06  7.87551664e-01  1.91746365e-06  7.95296213e-01  1.91746365e-06  1.80000000e+00  1.91746365e-06  1.78349779e-07  1.91746365e-06  7.91388609e-01  1.91746365e-06  1.72081101e+00  1.91746365e-06  1.72577399e+00                                 
 2.99530085e-06  8.36880495e-01  2.99530085e-06  7.87551666e-01  2.99530085e-06  7.95299319e-01  2.99530085e-06  1.80000000e+00  2.99530085e-06 -1.44934006e-07  2.99530085e-06  7.91388612e-01  2.99530085e-06  1.72076457e+00  2.99530085e-06  1.72572769e+00                                 
 4.19530085e-06  8.36880484e-01  4.19530085e-06  7.87551664e-01  4.19530085e-06  7.95296152e-01  4.19530085e-06  1.80000000e+00  4.19530085e-06  1.78337636e-07  4.19530085e-06  7.91388610e-01  4.19530085e-06  1.72071283e+00  4.19530085e-06  1.72567611e+00                                 
 5.39530085e-06  8.36880494e-01  5.39530085e-06  7.87551665e-01  5.39530085e-06  7.95299298e-01  5.39530085e-06  1.80000000e+00  5.39530085e-06 -1.44921714e-07  5.39530085e-06  7.91388612e-01  5.39530085e-06  1.72066110e+00  5.39530085e-06  1.72562454e+00                                 
 6.00100000e-06  8.36880485e-01  6.00100000e-06  7.87551665e-01  6.00100000e-06  7.95296121e-01  6.00100000e-06  1.80000000e+00  6.00100000e-06  1.78320585e-07  6.00100000e-06  7.91388610e-01  6.00100000e-06  1.72063503e+00  6.00100000e-06  1.72559854e+00                                 
 6.00110000e-06  8.36849366e-01  6.00110000e-06  7.87330993e-01  6.00110000e-06  7.93230000e-01  6.00110000e-06  1.62000000e+00  6.00110000e-06 -9.58914754e-05  6.00110000e-06  7.89519948e-01  6.00110000e-06  1.71905571e+00  6.00110000e-06  1.72558334e+00                                 
 6.00130000e-06  8.36878394e-01  6.00130000e-06  7.87393857e-01  6.00130000e-06  7.93982152e-01  6.00130000e-06  1.26000000e+00  6.00130000e-06  4.81444406e-05  6.00130000e-06  7.89863594e-01  6.00130000e-06  1.71934902e+00  6.00130000e-06  1.72560726e+00                                 
 6.00170000e-06  8.36906672e-01  6.00170000e-06  7.87425390e-01  6.00170000e-06  7.95315999e-01  6.00170000e-06  5.40000000e-01  6.00170000e-06  4.15035131e-02  6.00170000e-06  7.88875615e-01  6.00170000e-06  1.71193019e+00  6.00170000e-06  1.72555044e+00                                 
 6.00200000e-06  8.36875936e-01  6.00200000e-06  7.85159306e-01  6.00200000e-06  8.44175627e-01  6.00200000e-06  0.00000000e+00  6.00200000e-06  1.59530498e+00  6.00200000e-06  7.60246979e-01  6.00200000e-06  1.50780568e+00  6.00200000e-06  1.72468762e+00                                 
 6.00205077e-06  8.36882899e-01  6.00205077e-06  7.85145893e-01  6.00205077e-06  8.41958055e-01  6.00205077e-06  0.00000000e+00  6.00205077e-06  1.73352735e+00  6.00205077e-06  7.59820642e-01  6.00205077e-06  1.44909167e+00  6.00205077e-06  1.72496993e+00                                 
 6.00215232e-06  8.36879390e-01  6.00215232e-06  7.85282245e-01  6.00215232e-06  8.32796240e-01  6.00215232e-06  0.00000000e+00  6.00215232e-06  1.81914923e+00  6.00215232e-06  7.61373950e-01  6.00215232e-06  1.33693180e+00  6.00215232e-06  1.72548530e+00                                 
 6.00230664e-06  8.36879203e-01  6.00230664e-06  7.85919407e-01  6.00230664e-06  8.20225685e-01  6.00230664e-06  0.00000000e+00  6.00230664e-06  1.78778458e+00  6.00230664e-06  7.69087013e-01  6.00230664e-06  1.21291010e+00  6.00230664e-06  1.72563775e+00                                 
 6.00247513e-06  8.36880164e-01  6.00247513e-06  7.86242632e-01  6.00247513e-06  8.16668277e-01  6.00247513e-06  0.00000000e+00  6.00247513e-06  1.80575031e+00  6.00247513e-06  7.72671485e-01  6.00247513e-06  1.12290864e+00  6.00247513e-06  1.72570982e+00                                 
 6.00270940e-06  8.36878576e-01  6.00270940e-06  7.86561690e-01  6.00270940e-06  8.11154103e-01  6.00270940e-06  0.00000000e+00  6.00270940e-06  1.79553533e+00  6.00270940e-06  7.75838356e-01  6.00270940e-06  1.02893220e+00  6.00270940e-06  1.72578599e+00                                 
 6.00296401e-06  8.36880509e-01  6.00296401e-06  7.86904478e-01  6.00296401e-06  8.08834868e-01  6.00296401e-06  0.00000000e+00  6.00296401e-06  1.80262256e+00  6.00296401e-06  7.79285739e-01  6.00296401e-06  9.51858017e-01  6.00296401e-06  1.72587194e+00                                 
 6.00347324e-06  8.36878903e-01  6.00347324e-06  7.87385481e-01  6.00347324e-06  8.02810125e-01  6.00347324e-06  0.00000000e+00  6.00347324e-06  1.79732341e+00  6.00347324e-06  7.83932707e-01  6.00347324e-06  8.44283905e-01  6.00347324e-06  1.72590592e+00                                 
 6.00408551e-06  8.36881088e-01  6.00408551e-06  7.87961189e-01  6.00408551e-06  7.96551823e-01  6.00408551e-06  0.00000000e+00  6.00408551e-06  1.80211239e+00  6.00408551e-06  7.90471629e-01  6.00408551e-06  8.00814897e-01  6.00408551e-06  1.72577845e+00                                 
 6.00452653e-06  8.36879301e-01  6.00452653e-06  7.87994884e-01  6.00452653e-06  7.95815108e-01  6.00452653e-06  0.00000000e+00  6.00452653e-06  1.79831021e+00  6.00452653e-06  7.90940849e-01  6.00452653e-06  7.96495696e-01  6.00452653e-06  1.72552216e+00                                 
 6.00511279e-06  8.36881331e-01  6.00511279e-06  7.88027403e-01  6.00511279e-06  7.95638212e-01  6.00511279e-06  0.00000000e+00  6.00511279e-06  1.80144522e+00  6.00511279e-06  7.92026987e-01  6.00511279e-06  7.96078706e-01  6.00511279e-06  1.72507445e+00                                 
 6.00574293e-06  8.36879513e-01  6.00574293e-06  7.87917104e-01  6.00574293e-06  7.96079425e-01  6.00574293e-06  0.00000000e+00  6.00574293e-06  1.79875964e+00  6.00574293e-06  7.91597336e-01  6.00574293e-06  7.95660394e-01  6.00574293e-06  1.72447614e+00                                 
 6.00700321e-06  8.36881418e-01  6.00700321e-06  7.87834893e-01  6.00700321e-06  7.96837189e-01  6.00700321e-06  0.00000000e+00  6.00700321e-06  1.80115671e+00  6.00700321e-06  7.92234133e-01  6.00700321e-06  7.96988686e-01  6.00700321e-06  1.72318651e+00                                 
 6.00952376e-06  8.36879574e-01  6.00952376e-06  7.87655738e-01  6.00952376e-06  7.98984545e-01  6.00952376e-06  0.00000000e+00  6.00952376e-06  1.79889128e+00  6.00952376e-06  7.91829236e-01  6.00952376e-06  7.98485713e-01  6.00952376e-06  1.72041952e+00                                 
 6.01456488e-06  8.36881406e-01  6.01456488e-06  7.87604168e-01  6.01456488e-06  8.03423355e-01  6.01456488e-06  0.00000000e+00  6.01456488e-06  1.80109432e+00  6.01456488e-06  7.92310728e-01  6.01456488e-06  8.03505099e-01  6.01456488e-06  1.71487172e+00                                 
