 time            v(vbep)         time            v(vben)         time            v(vout)         time            v(vphi1)        time            v(vphi2)        time            v(vref)         yes             currtemp       
 0.00000000e+00  6.51163261e-01  0.00000000e+00  5.91336459e-01  0.00000000e+00  1.01406035e+00  0.00000000e+00  0.00000000e+00  0.00000000e+00  1.79992212e+00  0.00000000e+00  5.91336459e-01  1.00000000e+00  5.40000000e+01 
 5.00000000e-12  6.51117365e-01  5.00000000e-12  5.91298923e-01  5.00000000e-12  1.01479495e+00  5.00000000e-12  1.80000000e-02  5.00000000e-12  1.80005311e+00  5.00000000e-12  5.91298923e-01                                 
 1.00000000e-11  6.51073491e-01  1.00000000e-11  5.91262702e-01  1.00000000e-11  1.01546220e+00  1.00000000e-11  3.60000000e-02  1.00000000e-11  1.80013357e+00  1.00000000e-11  5.91262702e-01                                 
 2.00000000e-11  6.50987120e-01  2.00000000e-11  5.91190646e-01  2.00000000e-11  1.01668969e+00  2.00000000e-11  7.20000000e-02  2.00000000e-11  1.80022576e+00  2.00000000e-11  5.91190646e-01                                 
 4.00000000e-11  6.50816753e-01  4.00000000e-11  5.91047308e-01  4.00000000e-11  1.01865035e+00  4.00000000e-11  1.44000000e-01  4.00000000e-11  1.80022141e+00  4.00000000e-11  5.91047308e-01                                 
 8.00000000e-11  6.50478234e-01  8.00000000e-11  5.90762399e-01  8.00000000e-11  1.02122048e+00  8.00000000e-11  2.88000000e-01  8.00000000e-11  1.80012086e+00  8.00000000e-11  5.90762399e-01                                 
 1.60000000e-10  6.49810984e-01  1.60000000e-10  5.90199593e-01  1.60000000e-10  1.02324802e+00  1.60000000e-10  5.76000000e-01  1.60000000e-10  1.80000633e+00  1.60000000e-10  5.90199593e-01                                 
 3.20000000e-10  6.48512685e-01  3.20000000e-10  5.89100818e-01  3.20000000e-10  1.01608306e+00  3.20000000e-10  1.15200000e+00  3.20000000e-10  1.80028417e+00  3.20000000e-10  5.89100818e-01                                 
 5.00000000e-10  6.47107414e-01  5.00000000e-10  5.87905575e-01  5.00000000e-10  1.12487578e+00  5.00000000e-10  1.80000000e+00  5.00000000e-10  1.63615334e-01  5.00000000e-10  5.87905575e-01                                 
 5.21748305e-10  6.46941863e-01  5.21748305e-10  5.87764338e-01  5.21748305e-10  1.15240351e+00  5.21748305e-10  1.80000000e+00  5.21748305e-10  4.22765364e-02  5.21748305e-10  5.87764338e-01                                 
 5.65244914e-10  6.46612272e-01  5.65244914e-10  5.87482952e-01  5.65244914e-10  1.20734518e+00  5.65244914e-10  1.80000000e+00  5.65244914e-10 -1.53317175e-02  5.65244914e-10  5.87482952e-01                                 
 6.52238133e-10  6.45962287e-01  6.52238133e-10  5.86927084e-01  6.52238133e-10  1.30661159e+00  6.52238133e-10  1.80000000e+00  6.52238133e-10  1.29398548e-02  6.52238133e-10  5.86927084e-01                                 
 7.72786811e-10  6.45081268e-01  7.72786811e-10  5.86171602e-01  7.72786811e-10  1.42637100e+00  7.72786811e-10  1.80000000e+00  7.72786811e-10 -9.64305647e-03  7.72786811e-10  5.86171602e-01                                 
 9.55846875e-10  6.43784846e-01  9.55846875e-10  5.85055712e-01  9.55846875e-10  1.57332288e+00  9.55846875e-10  1.80000000e+00  9.55846875e-10  9.54055105e-03  9.55846875e-10  5.85055712e-01                                 
 1.32196700e-09  6.41328921e-01  1.32196700e-09  5.82928462e-01  1.32196700e-09  1.75643243e+00  1.32196700e-09  1.80000000e+00  1.32196700e-09 -8.29275721e-03  1.32196700e-09  5.82928462e-01                                 
 1.66987238e-09  6.39149853e-01  1.66987238e-09  5.81026147e-01  1.66987238e-09  1.83590609e+00  1.66987238e-09  1.80000000e+00  1.66987238e-09  8.13754056e-03  1.66987238e-09  5.81026147e-01                                 
 2.01418513e-09  6.37124470e-01  2.01418513e-09  5.79245754e-01  2.01418513e-09  1.86730193e+00  2.01418513e-09  1.80000000e+00  2.01418513e-09 -7.46093379e-03  2.01418513e-09  5.79245754e-01                                 
 2.37570082e-09  6.35122830e-01  2.37570082e-09  5.77474952e-01  2.37570082e-09  1.87978036e+00  2.37570082e-09  1.80000000e+00  2.37570082e-09  7.11113870e-03  2.37570082e-09  5.77474952e-01                                 
 2.86237566e-09  6.32605839e-01  2.86237566e-09  5.75232894e-01  2.86237566e-09  1.88333395e+00  2.86237566e-09  1.80000000e+00  2.86237566e-09 -6.74597755e-03  2.86237566e-09  5.75232894e-01                                 
 3.52003705e-09  6.29484300e-01  3.52003705e-09  5.72429389e-01  3.52003705e-09  1.88240383e+00  3.52003705e-09  1.80000000e+00  3.52003705e-09  6.55859144e-03  3.52003705e-09  5.72429389e-01                                 
 4.53296642e-09  6.25192691e-01  4.53296642e-09  5.68535858e-01  4.53296642e-09  1.87812609e+00  4.53296642e-09  1.80000000e+00  4.53296642e-09 -6.39077045e-03  4.53296642e-09  5.68535858e-01                                 
 6.20087802e-09  6.19168138e-01  6.20087802e-09  5.62999224e-01  6.20087802e-09  1.87260105e+00  6.20087802e-09  1.80000000e+00  6.20087802e-09  6.33395794e-03  6.20087802e-09  5.62999224e-01                                 
 9.53670124e-09  6.09694837e-01  9.53670124e-09  5.54146794e-01  9.53670124e-09  1.86332942e+00  9.53670124e-09  1.80000000e+00  9.53670124e-09 -6.26000479e-03  9.53670124e-09  5.54146794e-01                                 
 1.16341392e-08  6.05012784e-01  1.16341392e-08  5.49702150e-01  1.16341392e-08  1.85923821e+00  1.16341392e-08  1.80000000e+00  1.16341392e-08  6.22527650e-03  1.16341392e-08  5.49702150e-01                                 
 1.31932378e-08  6.01956507e-01  1.31932378e-08  5.46780686e-01  1.31932378e-08  1.85612087e+00  1.31932378e-08  1.80000000e+00  1.31932378e-08 -6.11246572e-03  1.31932378e-08  5.46780686e-01                                 
 1.47279378e-08  5.99225996e-01  1.47279378e-08  5.44158430e-01  1.47279378e-08  1.85390859e+00  1.47279378e-08  1.80000000e+00  1.47279378e-08  6.05142033e-03  1.47279378e-08  5.44158430e-01                                 
 1.64698992e-08  5.96403551e-01  1.64698992e-08  5.41436413e-01  1.64698992e-08  1.85104800e+00  1.64698992e-08  1.80000000e+00  1.64698992e-08 -5.95223719e-03  1.64698992e-08  5.41436413e-01                                 
 1.83633241e-08  5.93616148e-01  1.83633241e-08  5.38737020e-01  1.83633241e-08  1.84882148e+00  1.83633241e-08  1.80000000e+00  1.83633241e-08  5.90775904e-03  1.83633241e-08  5.38737020e-01                                 
 2.06555000e-08  5.90566507e-01  2.06555000e-08  5.35771106e-01  2.06555000e-08  1.84580723e+00  2.06555000e-08  1.80000000e+00  2.06555000e-08 -5.82859395e-03  2.06555000e-08  5.35771106e-01                                 
 2.39699181e-08  5.86654782e-01  2.39699181e-08  5.31949645e-01  2.39699181e-08  1.84262841e+00  2.39699181e-08  1.80000000e+00  2.39699181e-08  5.81404257e-03  2.39699181e-08  5.31949645e-01                                 
 2.78120873e-08  5.82690572e-01  2.78120873e-08  5.28060525e-01  2.78120873e-08  1.83889413e+00  2.78120873e-08  1.80000000e+00  2.78120873e-08 -5.75742711e-03  2.78120873e-08  5.28060525e-01                                 
 3.45828164e-08  5.76766478e-01  3.45828164e-08  5.22224097e-01  3.45828164e-08  1.83413729e+00  3.45828164e-08  1.80000000e+00  3.45828164e-08  5.76337253e-03  3.45828164e-08  5.22224097e-01                                 
 4.15575173e-08  5.71707645e-01  4.15575173e-08  5.17219252e-01  4.15575173e-08  1.82964095e+00  4.15575173e-08  1.80000000e+00  4.15575173e-08 -5.72057014e-03  4.15575173e-08  5.17219252e-01                                 
 5.55069189e-08  5.63558229e-01  5.55069189e-08  5.09128410e-01  5.55069189e-08  1.82324907e+00  5.55069189e-08  1.80000000e+00  5.55069189e-08  5.73719756e-03  5.55069189e-08  5.09128410e-01                                 
 7.41194601e-08  5.55385078e-01  7.41194601e-08  5.00967524e-01  7.41194601e-08  1.81592107e+00  7.41194601e-08  1.80000000e+00  7.41194601e-08 -5.70452483e-03  7.41194601e-08  5.00967524e-01                                 
 9.73394572e-08  5.47283413e-01  9.73394572e-08  4.92925868e-01  9.73394572e-08  1.79701401e+00  9.73394572e-08  1.80000000e+00  9.73394572e-08  5.72497535e-03  9.73394572e-08  4.92925868e-01                                 
 1.29349592e-07  5.33392574e-01  1.29349592e-07  4.80214734e-01  1.29349592e-07  1.76253817e+00  1.29349592e-07  1.80000000e+00  1.29349592e-07 -5.69588485e-03  1.29349592e-07  4.80214734e-01                                 
 1.51775430e-07  5.22858338e-01  1.51775430e-07  4.70925447e-01  1.51775430e-07  1.73580354e+00  1.51775430e-07  1.80000000e+00  1.51775430e-07  5.71545000e-03  1.51775430e-07  4.70925447e-01                                 
 1.76406446e-07  5.13691976e-01  1.76406446e-07  4.62791143e-01  1.76406446e-07  1.69668080e+00  1.76406446e-07  1.80000000e+00  1.76406446e-07 -5.68571965e-03  1.76406446e-07  4.62791143e-01                                 
 1.99232809e-07  5.10808842e-01  1.99232809e-07  4.59797615e-01  1.99232809e-07  1.67154027e+00  1.99232809e-07  1.80000000e+00  1.99232809e-07  5.70644328e-03  1.99232809e-07  4.59797615e-01                                 
 2.23217339e-07  5.15126460e-01  2.23217339e-07  4.62520278e-01  2.23217339e-07  1.66768068e+00  2.23217339e-07  1.80000000e+00  2.23217339e-07 -5.67341449e-03  2.23217339e-07  4.62520278e-01                                 
 2.40578862e-07  5.15576630e-01  2.40578862e-07  4.62403339e-01  2.40578862e-07  1.65113413e+00  2.40578862e-07  1.80000000e+00  2.40578862e-07  5.69292576e-03  2.40578862e-07  4.62403339e-01                                 
 2.60341133e-07  5.12830596e-01  2.60341133e-07  4.59729047e-01  2.60341133e-07  1.62709201e+00  2.60341133e-07  1.80000000e+00  2.60341133e-07 -5.66105953e-03  2.60341133e-07  4.59729047e-01                                 
 2.79635708e-07  5.10087306e-01  2.79635708e-07  4.57104161e-01  2.79635708e-07  1.60461799e+00  2.79635708e-07  1.80000000e+00  2.79635708e-07  5.68053013e-03  2.79635708e-07  4.57104161e-01                                 
 3.00701553e-07  5.05348165e-01  3.00701553e-07  4.52894330e-01  3.00701553e-07  1.57942959e+00  3.00701553e-07  1.80000000e+00  3.00701553e-07 -5.64936485e-03  3.00701553e-07  4.52894330e-01                                 
 3.42833244e-07  4.95018131e-01  3.42833244e-07  4.43904585e-01  3.42833244e-07  1.52613329e+00  3.42833244e-07  1.80000000e+00  3.42833244e-07  5.67178481e-03  3.42833244e-07  4.43904585e-01                                 
 3.90062832e-07  4.83730586e-01  3.90062832e-07  4.34204661e-01  3.90062832e-07  1.46721131e+00  3.90062832e-07  1.80000000e+00  3.90062832e-07 -5.64390389e-03  3.90062832e-07  4.34204661e-01                                 
 4.84522006e-07  4.59146197e-01  4.84522006e-07  4.13578896e-01  4.84522006e-07  1.34498430e+00  4.84522006e-07  1.80000000e+00  4.84522006e-07  5.66786275e-03  4.84522006e-07  4.13578896e-01                                 
 6.73440356e-07  4.00871266e-01  6.73440356e-07  3.66057813e-01  6.73440356e-07  1.09415513e+00  6.73440356e-07  1.80000000e+00  6.73440356e-07 -5.64202470e-03  6.73440356e-07  3.66057813e-01                                 
 7.00599339e-07  3.90411696e-01  7.00599339e-07  3.57664012e-01  7.00599339e-07  1.05658350e+00  7.00599339e-07  1.80000000e+00  7.00599339e-07 -1.07496534e-07  7.00599339e-07  3.57664012e-01                                 
 7.54917305e-07  4.18108686e-01  7.54917305e-07  3.79862239e-01  7.54917305e-07  1.03000870e+00  7.54917305e-07  1.80000000e+00  7.54917305e-07  5.18667841e-06  7.54917305e-07  3.79862239e-01                                 
 8.63553238e-07  7.24549288e-01  8.63553238e-07  6.61037844e-01  8.63553238e-07  1.21515690e+00  8.63553238e-07  1.80000000e+00  8.63553238e-07  1.02700746e-05  8.63553238e-07  6.61037844e-01                                 
 8.76812391e-07  7.35476914e-01  8.76812391e-07  6.71131682e-01  8.76812391e-07  1.21266461e+00  8.76812391e-07  1.80000000e+00  8.76812391e-07  3.69902296e-06  8.76812391e-07  6.71131682e-01                                 
 9.03330698e-07  7.48737465e-01  9.03330698e-07  6.82805233e-01  9.03330698e-07  1.19772318e+00  9.03330698e-07  1.80000000e+00  9.03330698e-07  1.92392575e-06  9.03330698e-07  6.82805233e-01                                 
 9.56367312e-07  7.55652875e-01  9.56367312e-07  6.88682213e-01  9.56367312e-07  1.14863902e+00  9.56367312e-07  1.80000000e+00  9.56367312e-07  1.86655334e-06  9.56367312e-07  6.88682213e-01                                 
 1.02053319e-06  7.57467129e-01  1.02053319e-06  6.90204864e-01  1.02053319e-06  1.08424110e+00  1.02053319e-06  1.80000000e+00  1.02053319e-06  1.46483688e-06  1.02053319e-06  6.90204864e-01                                 
 1.02890608e-06  7.57656225e-01  1.02890608e-06  6.90360359e-01  1.02890608e-06  1.07589697e+00  1.02890608e-06  1.80000000e+00  1.02890608e-06  1.66286571e-06  1.02890608e-06  6.90360359e-01                                 
 1.04565188e-06  7.57944770e-01  1.04565188e-06  6.90600560e-01  1.04565188e-06  1.05938973e+00  1.04565188e-06  1.80000000e+00  1.04565188e-06  1.66218839e-06  1.04565188e-06  6.90600560e-01                                 
 1.07914347e-06  7.58562041e-01  1.07914347e-06  6.91113636e-01  1.07914347e-06  1.02761080e+00  1.07914347e-06  1.80000000e+00  1.07914347e-06  1.71761044e-06  1.07914347e-06  6.91113636e-01                                 
 1.12051542e-06  7.46357739e-01  1.12051542e-06  6.80797805e-01  1.12051542e-06  9.80067029e-01  1.12051542e-06  1.80000000e+00  1.12051542e-06  2.92136375e-07  1.12051542e-06  6.80797805e-01                                 
 1.16431649e-06  7.32711581e-01  1.16431649e-06  6.68699771e-01  1.16431649e-06  9.34361185e-01  1.16431649e-06  1.80000000e+00  1.16431649e-06  1.76747723e-06  1.16431649e-06  6.68699771e-01                                 
 1.22073531e-06  7.45229022e-01  1.22073531e-06  6.79766037e-01  1.22073531e-06  9.07129038e-01  1.22073531e-06  1.80000000e+00  1.22073531e-06  2.93939344e-06  1.22073531e-06  6.79766037e-01                                 
 1.27980454e-06  7.50338683e-01  1.27980454e-06  6.84193049e-01  1.27980454e-06  8.74179116e-01  1.27980454e-06  1.80000000e+00  1.27980454e-06  1.18671298e-06  1.27980454e-06  6.84193049e-01                                 
 1.35170486e-06  7.41500230e-01  1.35170486e-06  6.76531320e-01  1.35170486e-06  8.22916438e-01  1.35170486e-06  1.80000000e+00  1.35170486e-06  2.01293876e-06  1.35170486e-06  6.76531320e-01                                 
 1.44625014e-06  7.43210383e-01  1.44625014e-06  6.78017019e-01  1.44625014e-06  7.70983412e-01  1.44625014e-06  1.80000000e+00  1.44625014e-06  1.91197136e-06  1.44625014e-06  6.78017019e-01                                 
 1.54646324e-06  7.48098995e-01  1.54646324e-06  6.82268216e-01  1.54646324e-06  7.28742237e-01  1.54646324e-06  1.80000000e+00  1.54646324e-06  2.27432488e-06  1.54646324e-06  6.82268216e-01                                 
 1.71480188e-06  7.41359387e-01  1.71480188e-06  6.76404191e-01  1.71480188e-06  6.79271587e-01  1.71480188e-06  1.80000000e+00  1.71480188e-06  1.70187942e-06  1.71480188e-06  6.76404191e-01                                 
 1.86506042e-06  7.46373585e-01  1.86506042e-06  6.80771287e-01  1.86506042e-06  6.69629348e-01  1.86506042e-06  1.80000000e+00  1.86506042e-06  2.73687728e-06  1.86506042e-06  6.80771287e-01                                 
 1.88503598e-06  7.46635490e-01  1.88503598e-06  6.81002046e-01  1.88503598e-06  6.68746448e-01  1.88503598e-06  1.80000000e+00  1.88503598e-06  2.18975146e-06  1.88503598e-06  6.81002046e-01                                 
 1.92498709e-06  7.45436433e-01  1.92498709e-06  6.79967977e-01  1.92498709e-06  6.66618730e-01  1.92498709e-06  1.80000000e+00  1.92498709e-06  2.01996598e-06  1.92498709e-06  6.79967977e-01                                 
 1.99082413e-06  7.43212475e-01  1.99082413e-06  6.78026009e-01  1.99082413e-06  6.73556953e-01  1.99082413e-06  1.80000000e+00  1.99082413e-06  2.29856674e-06  1.99082413e-06  6.78026009e-01                                 
 2.05935455e-06  7.44916030e-01  2.05935455e-06  6.79509587e-01  2.05935455e-06  6.80411069e-01  2.05935455e-06  1.80000000e+00  2.05935455e-06  2.22361051e-06  2.05935455e-06  6.79509587e-01                                 
 2.15453400e-06  7.45249485e-01  2.15453400e-06  6.79803369e-01  2.15453400e-06  6.79478842e-01  2.15453400e-06  1.80000000e+00  2.15453400e-06  2.14433708e-06  2.15453400e-06  6.79803369e-01                                 
 2.27062505e-06  7.43847417e-01  2.27062505e-06  6.78580483e-01  2.27062505e-06  6.78974888e-01  2.27062505e-06  1.80000000e+00  2.27062505e-06  2.16587954e-06  2.27062505e-06  6.78580483e-01                                 
 2.39987973e-06  7.45217129e-01  2.39987973e-06  6.79772842e-01  2.39987973e-06  6.79730618e-01  2.39987973e-06  1.80000000e+00  2.39987973e-06  2.23919425e-06  2.39987973e-06  6.79772842e-01                                 
 2.65838909e-06  7.44282203e-01  2.65838909e-06  6.78961102e-01  2.65838909e-06  6.79276496e-01  2.65838909e-06  1.80000000e+00  2.65838909e-06  2.10596424e-06  2.65838909e-06  6.78961102e-01                                 
 3.04415049e-06  7.44867680e-01  3.04415049e-06  6.79468557e-01  3.04415049e-06  6.79445301e-01  3.04415049e-06  1.80000000e+00  3.04415049e-06  2.26022514e-06  3.04415049e-06  6.79468557e-01                                 
 3.73864760e-06  7.44515139e-01  3.73864760e-06  6.79164200e-01  3.73864760e-06  6.79474239e-01  3.73864760e-06  1.80000000e+00  3.73864760e-06  2.09811494e-06  3.73864760e-06  6.79164200e-01                                 
 4.73864760e-06  7.44729629e-01  4.73864760e-06  6.79348380e-01  4.73864760e-06  6.79327786e-01  4.73864760e-06  1.80000000e+00  4.73864760e-06  2.26271586e-06  4.73864760e-06  6.79348380e-01                                 
 5.73864760e-06  7.44633709e-01  5.73864760e-06  6.79267550e-01  5.73864760e-06  6.79574059e-01  5.73864760e-06  1.80000000e+00  5.73864760e-06  2.09733468e-06  5.73864760e-06  6.79267550e-01                                 
 6.73864760e-06  7.44610359e-01  6.73864760e-06  6.79244578e-01  6.73864760e-06  6.79231966e-01  6.73864760e-06  1.80000000e+00  6.73864760e-06  2.26243533e-06  6.73864760e-06  6.79244578e-01                                 
 7.73864760e-06  7.44740052e-01  7.73864760e-06  6.79359958e-01  7.73864760e-06  6.79662282e-01  7.73864760e-06  1.80000000e+00  7.73864760e-06  2.09861892e-06  7.73864760e-06  6.79359958e-01                                 
 8.73864760e-06  7.44514447e-01  8.73864760e-06  6.79161121e-01  8.73864760e-06  6.79146363e-01  8.73864760e-06  1.80000000e+00  8.73864760e-06  2.26024506e-06  8.73864760e-06  6.79161121e-01                                 
 9.73864760e-06  7.44829573e-01  9.73864760e-06  6.79437773e-01  9.73864760e-06  6.79741593e-01  9.73864760e-06  1.80000000e+00  9.73864760e-06  2.10164455e-06  9.73864760e-06  6.79437773e-01                                 
 1.00005000e-05  7.44338725e-01  1.00005000e-05  6.79008323e-01  1.00005000e-05  6.78993899e-01  1.00005000e-05  1.80000000e+00  1.00005000e-05  2.24897376e-06  1.00005000e-05  6.79008323e-01                                 
 1.00005500e-05  7.44339590e-01  1.00005500e-05  6.79009094e-01  1.00005500e-05  6.72034670e-01  1.00005500e-05  1.62000000e+00  1.00005500e-05 -1.22671876e-04  1.00005500e-05  6.79009094e-01                                 
 1.00006500e-05  7.44341369e-01  1.00006500e-05  6.79010649e-01  1.00006500e-05  6.60960301e-01  1.00006500e-05  1.26000000e+00  1.00006500e-05 -8.57698719e-05  1.00006500e-05  6.79010649e-01                                 
