 time            v(vbep)         time            v(vben)         time            v(vout)         time            v(vphi1)        time            v(vphi2)        time            v(vref)         yes             currtemp       
 0.00000000e+00  5.82823585e-01  0.00000000e+00  5.18979863e-01  0.00000000e+00  2.97777725e-01  0.00000000e+00  0.00000000e+00  0.00000000e+00  1.79995913e+00  0.00000000e+00  5.18979863e-01  1.00000000e+00  7.70000000e+01 
 5.00000000e-12  5.82800657e-01  5.00000000e-12  5.18960837e-01  5.00000000e-12  2.98302763e-01  5.00000000e-12  1.80000000e-02  5.00000000e-12  1.80006781e+00  5.00000000e-12  5.18960837e-01                                 
 1.00000000e-11  5.82778136e-01  1.00000000e-11  5.18942245e-01  1.00000000e-11  2.98732403e-01  1.00000000e-11  3.60000000e-02  1.00000000e-11  1.80012841e+00  1.00000000e-11  5.18942245e-01                                 
 2.00000000e-11  5.82733316e-01  2.00000000e-11  5.18905177e-01  2.00000000e-11  2.99446611e-01  2.00000000e-11  7.20000000e-02  2.00000000e-11  1.80018938e+00  2.00000000e-11  5.18905177e-01                                 
 4.00000000e-11  5.82644062e-01  4.00000000e-11  5.18831266e-01  4.00000000e-11  3.00291385e-01  4.00000000e-11  1.44000000e-01  4.00000000e-11  1.80015934e+00  4.00000000e-11  5.18831266e-01                                 
 8.00000000e-11  5.82466210e-01  8.00000000e-11  5.18683925e-01  8.00000000e-11  3.00995278e-01  8.00000000e-11  2.88000000e-01  8.00000000e-11  1.80007770e+00  8.00000000e-11  5.18683925e-01                                 
 1.60000000e-10  5.82113252e-01  1.60000000e-10  5.18391135e-01  1.60000000e-10  3.01552798e-01  1.60000000e-10  5.76000000e-01  1.60000000e-10  1.80003423e+00  1.60000000e-10  5.18391135e-01                                 
 3.20000000e-10  5.81417790e-01  3.20000000e-10  5.17812891e-01  3.20000000e-10  3.02785735e-01  3.20000000e-10  1.15200000e+00  3.20000000e-10  1.80029693e+00  3.20000000e-10  5.17812891e-01                                 
 5.00000000e-10  5.80651585e-01  5.00000000e-10  5.17173724e-01  5.00000000e-10  5.33431557e-01  5.00000000e-10  1.80000000e+00  5.00000000e-10  1.86803209e-01  5.00000000e-10  5.17173724e-01                                 
 5.22543851e-10  5.80556942e-01  5.22543851e-10  5.17094606e-01  5.22543851e-10  5.88971999e-01  5.22543851e-10  1.80000000e+00  5.22543851e-10  4.63323710e-02  5.22543851e-10  5.17094606e-01                                 
 5.67631554e-10  5.80368163e-01  5.67631554e-10  5.16936725e-01  5.67631554e-10  6.91899250e-01  5.67631554e-10  1.80000000e+00  5.67631554e-10 -1.69175192e-02  5.67631554e-10  5.16936725e-01                                 
 6.57806960e-10  5.79993674e-01  6.57806960e-10  5.16623141e-01  6.57806960e-10  8.57422255e-01  6.57806960e-10  1.80000000e+00  6.57806960e-10  1.48719057e-02  6.57806960e-10  5.16623141e-01                                 
 7.75555291e-10  5.79510698e-01  7.75555291e-10  5.16217957e-01  7.75555291e-10  1.02646382e+00  7.75555291e-10  1.80000000e+00  7.75555291e-10 -1.06369661e-02  7.75555291e-10  5.16217957e-01                                 
 9.63689092e-10  5.78752669e-01  9.63689092e-10  5.15580321e-01  9.63689092e-10  1.24434715e+00  9.63689092e-10  1.80000000e+00  9.63689092e-10  1.09397972e-02  9.63689092e-10  5.15580321e-01                                 
 1.30860143e-09  5.77404319e-01  1.30860143e-09  5.14441086e-01  1.30860143e-09  1.52875237e+00  1.30860143e-09  1.80000000e+00  1.30860143e-09 -9.08915732e-03  1.30860143e-09  5.14441086e-01                                 
 1.87772501e-09  5.75287383e-01  1.87772501e-09  5.12639775e-01  1.87772501e-09  1.74726257e+00  1.87772501e-09  1.80000000e+00  1.87772501e-09  9.34570633e-03  1.87772501e-09  5.12639775e-01                                 
 2.15525190e-09  5.74300838e-01  2.15525190e-09  5.11794940e-01  2.15525190e-09  1.78231025e+00  2.15525190e-09  1.80000000e+00  2.15525190e-09 -8.35870679e-03  2.15525190e-09  5.11794940e-01                                 
 2.49047396e-09  5.73145556e-01  2.49047396e-09  5.10801473e-01  2.49047396e-09  1.80165278e+00  2.49047396e-09  1.80000000e+00  2.49047396e-09  7.96737096e-03  2.49047396e-09  5.10801473e-01                                 
 2.86629016e-09  5.71894741e-01  2.86629016e-09  5.09720919e-01  2.86629016e-09  1.80929114e+00  2.86629016e-09  1.80000000e+00  2.86629016e-09 -7.41097058e-03  2.86629016e-09  5.09720919e-01                                 
 3.55565563e-09  5.69711023e-01  3.55565563e-09  5.07822684e-01  3.55565563e-09  1.81182115e+00  3.55565563e-09  1.80000000e+00  3.55565563e-09  7.23754457e-03  3.55565563e-09  5.07822684e-01                                 
 4.27788225e-09  5.67562713e-01  4.27788225e-09  5.05940838e-01  4.27788225e-09  1.80985319e+00  4.27788225e-09  1.80000000e+00  4.27788225e-09 -6.96574478e-03  4.27788225e-09  5.05940838e-01                                 
 5.65356947e-09  5.63801890e-01  5.65356947e-09  5.02615049e-01  5.65356947e-09  1.80748426e+00  5.65356947e-09  1.80000000e+00  5.65356947e-09  6.90474040e-03  5.65356947e-09  5.02615049e-01                                 
 7.72314523e-09  5.58805907e-01  7.72314523e-09  4.98139597e-01  7.72314523e-09  1.80221528e+00  7.72314523e-09  1.80000000e+00  7.72314523e-09 -6.77621144e-03  7.72314523e-09  4.98139597e-01                                 
 9.28285005e-09  5.55466156e-01  9.28285005e-09  4.95113126e-01  9.28285005e-09  1.79861383e+00  9.28285005e-09  1.80000000e+00  9.28285005e-09  6.72835633e-03  9.28285005e-09  4.95113126e-01                                 
 1.10614327e-08  5.52002676e-01  1.10614327e-08  4.91949649e-01  1.10614327e-08  1.79412305e+00  1.10614327e-08  1.80000000e+00  1.10614327e-08 -6.60109636e-03  1.10614327e-08  4.91949649e-01                                 
 1.26288141e-08  5.49204347e-01  1.26288141e-08  4.89376887e-01  1.26288141e-08  1.79085538e+00  1.26288141e-08  1.80000000e+00  1.26288141e-08  6.54694502e-03  1.26288141e-08  4.89376887e-01                                 
 1.41555995e-08  5.46670201e-01  1.41555995e-08  4.87035474e-01  1.41555995e-08  1.78725431e+00  1.41555995e-08  1.80000000e+00  1.41555995e-08 -6.41438987e-03  1.41555995e-08  4.87035474e-01                                 
 1.57899788e-08  5.44137737e-01  1.57899788e-08  4.84685675e-01  1.57899788e-08  1.78407399e+00  1.57899788e-08  1.80000000e+00  1.57899788e-08  6.36312843e-03  1.57899788e-08  4.84685675e-01                                 
 1.76071499e-08  5.41512506e-01  1.76071499e-08  4.82240085e-01  1.76071499e-08  1.78007170e+00  1.76071499e-08  1.80000000e+00  1.76071499e-08 -6.25017018e-03  1.76071499e-08  4.82240085e-01                                 
 2.01789479e-08  5.38092884e-01  2.01789479e-08  4.79040408e-01  2.01789479e-08  1.77511569e+00  2.01789479e-08  1.80000000e+00  2.01789479e-08  6.23078329e-03  2.01789479e-08  4.79040408e-01                                 
 2.31846742e-08  5.34480471e-01  2.31846742e-08  4.75642246e-01  2.31846742e-08  1.76887984e+00  2.31846742e-08  1.80000000e+00  2.31846742e-08 -6.15008414e-03  2.31846742e-08  4.75642246e-01                                 
 2.80559309e-08  5.29387703e-01  2.80559309e-08  4.70811892e-01  2.80559309e-08  1.75990195e+00  2.80559309e-08  1.80000000e+00  2.80559309e-08  6.15685458e-03  2.80559309e-08  4.70811892e-01                                 
 3.42608736e-08  5.24115355e-01  3.42608736e-08  4.65731824e-01  3.42608736e-08  1.74963056e+00  3.42608736e-08  1.80000000e+00  3.42608736e-08 -6.09916433e-03  3.42608736e-08  4.65731824e-01                                 
 4.66707591e-08  5.16295365e-01  4.66707591e-08  4.58007276e-01  4.66707591e-08  1.73347467e+00  4.66707591e-08  1.80000000e+00  4.66707591e-08  6.12481153e-03  4.66707591e-08  4.58007276e-01                                 
 6.44847074e-08  5.07696057e-01  6.44847074e-08  4.49458843e-01  6.44847074e-08  1.70852758e+00  6.44847074e-08  1.80000000e+00  6.44847074e-08 -6.08037871e-03  6.44847074e-08  4.49458843e-01                                 
 8.30141663e-08  5.00157403e-01  8.30141663e-08  4.42058543e-01  8.30141663e-08  1.68324637e+00  8.30141663e-08  1.80000000e+00  8.30141663e-08  6.11015731e-03  8.30141663e-08  4.42058543e-01                                 
 1.20073084e-07  4.89001748e-01  1.20073084e-07  4.31008559e-01  1.20073084e-07  1.63566682e+00  1.20073084e-07  1.80000000e+00  1.20073084e-07 -6.06906250e-03  1.20073084e-07  4.31008559e-01                                 
 1.64218012e-07  4.78668275e-01  1.64218012e-07  4.20881325e-01  1.64218012e-07  1.58174319e+00  1.64218012e-07  1.80000000e+00  1.64218012e-07  6.10375143e-03  1.64218012e-07  4.20881325e-01                                 
 2.19626642e-07  4.61348006e-01  2.19626642e-07  4.05339467e-01  2.19626642e-07  1.50810710e+00  2.19626642e-07  1.80000000e+00  2.19626642e-07 -6.06392504e-03  2.19626642e-07  4.05339467e-01                                 
 2.75408559e-07  4.42646170e-01  2.75408559e-07  3.89147787e-01  2.75408559e-07  1.43243336e+00  2.75408559e-07  1.80000000e+00  2.75408559e-07  6.09887614e-03  2.75408559e-07  3.89147787e-01                                 
 3.45369385e-07  4.20266590e-01  3.45369385e-07  3.70154849e-01  3.45369385e-07  1.33711884e+00  3.45369385e-07  1.80000000e+00  3.45369385e-07 -6.05958934e-03  3.45369385e-07  3.70154849e-01                                 
 4.63248099e-07  3.68840035e-01  4.63248099e-07  3.28059689e-01  4.63248099e-07  1.16456470e+00  4.63248099e-07  1.80000000e+00  4.63248099e-07  6.09550548e-03  4.63248099e-07  3.28059689e-01                                 
 4.84935111e-07  3.57540690e-01  4.84935111e-07  3.18954816e-01  4.84935111e-07  1.13132960e+00  4.84935111e-07  1.80000000e+00  4.84935111e-07  7.06591813e-06  4.84935111e-07  3.18954816e-01                                 
 5.28309135e-07  3.46480994e-01  5.28309135e-07  3.10031039e-01  5.28309135e-07  1.07750169e+00  5.28309135e-07  1.80000000e+00  5.28309135e-07  4.96110641e-06  5.28309135e-07  3.10031039e-01                                 
 5.39152641e-07  3.53751229e-01  5.39152641e-07  3.15860035e-01  5.39152641e-07  1.07394813e+00  5.39152641e-07  1.80000000e+00  5.39152641e-07  7.64701013e-06  5.39152641e-07  3.15860035e-01                                 
 5.60839653e-07  3.96082999e-01  5.60839653e-07  3.49754694e-01  5.60839653e-07  1.09287516e+00  5.60839653e-07  1.80000000e+00  5.60839653e-07  1.21305406e-05  5.60839653e-07  3.49754694e-01                                 
 6.04213676e-07  6.41919313e-01  6.04213676e-07  5.74571759e-01  6.04213676e-07  1.28271326e+00  6.04213676e-07  1.80000000e+00  6.04213676e-07  2.41113140e-05  6.04213676e-07  5.74571759e-01                                 
 6.46643002e-07  7.11696587e-01  6.46643002e-07  6.40918066e-01  6.46643002e-07  1.30729503e+00  6.46643002e-07  1.80000000e+00  6.46643002e-07 -3.17033503e-06  6.46643002e-07  6.40918066e-01                                 
 6.94646789e-07  7.35367484e-01  6.94646789e-07  6.60198327e-01  6.94646789e-07  1.27592352e+00  6.94646789e-07  1.80000000e+00  6.94646789e-07  1.81673393e-05  6.94646789e-07  6.60198327e-01                                 
 7.42155873e-07  7.36361623e-01  7.42155873e-07  6.61115306e-01  7.42155873e-07  1.22961273e+00  7.42155873e-07  1.80000000e+00  7.42155873e-07 -5.12652355e-06  7.42155873e-07  6.61115306e-01                                 
 7.90375562e-07  7.31231723e-01  7.90375562e-07  6.56930889e-01  7.90375562e-07  1.17084400e+00  7.90375562e-07  1.80000000e+00  7.90375562e-07  1.73324731e-05  7.90375562e-07  6.56930889e-01                                 
 8.43544789e-07  7.02837674e-01  8.43544789e-07  6.33370949e-01  8.43544789e-07  1.09307312e+00  8.43544789e-07  1.80000000e+00  8.43544789e-07 -6.82590780e-06  8.43544789e-07  6.33370949e-01                                 
 8.98910430e-07  6.82428590e-01  8.98910430e-07  6.14609634e-01  8.98910430e-07  1.01965340e+00  8.98910430e-07  1.80000000e+00  8.98910430e-07  1.79862261e-05  8.98910430e-07  6.14609634e-01                                 
 9.60771885e-07  7.13499326e-01  9.60771885e-07  6.42432797e-01  9.60771885e-07  1.00110233e+00  9.60771885e-07  1.80000000e+00  9.60771885e-07 -2.36007897e-06  9.60771885e-07  6.42432797e-01                                 
 1.01742156e-06  7.21766048e-01  1.01742156e-06  6.49239623e-01  1.01742156e-06  9.63860967e-01  1.01742156e-06  1.80000000e+00  1.01742156e-06  1.62119875e-05  1.01742156e-06  6.49239623e-01                                 
 1.07818749e-06  7.06319522e-01  1.07818749e-06  6.36329073e-01  1.07818749e-06  9.11331190e-01  1.07818749e-06  1.80000000e+00  1.07818749e-06 -3.92847580e-06  1.07818749e-06  6.36329073e-01                                 
 1.14390507e-06  7.00812470e-01  1.14390507e-06  6.31304837e-01  1.14390507e-06  8.63372021e-01  1.14390507e-06  1.80000000e+00  1.14390507e-06  1.69249295e-05  1.14390507e-06  6.31304837e-01                                 
 1.21810531e-06  7.17546770e-01  1.21810531e-06  6.45835119e-01  1.21810531e-06  8.35150378e-01  1.21810531e-06  1.80000000e+00  1.21810531e-06 -2.36437937e-06  1.21810531e-06  6.45835119e-01                                 
 1.29907515e-06  7.08193470e-01  1.29907515e-06  6.37794126e-01  1.29907515e-06  7.77715769e-01  1.29907515e-06  1.80000000e+00  1.29907515e-06  1.53414759e-05  1.29907515e-06  6.37794126e-01                                 
 1.38105030e-06  7.06158695e-01  1.38105030e-06  6.36135129e-01  1.38105030e-06  7.31415696e-01  1.38105030e-06  1.80000000e+00  1.38105030e-06 -1.81876745e-06  1.38105030e-06  6.36135129e-01                                 
 1.48449055e-06  7.13801340e-01  1.48449055e-06  6.42587108e-01  1.48449055e-06  6.88831047e-01  1.48449055e-06  1.80000000e+00  1.48449055e-06  1.58332300e-05  1.48449055e-06  6.42587108e-01                                 
 1.63259779e-06  7.07531879e-01  1.63259779e-06  6.37329620e-01  1.63259779e-06  6.43531309e-01  1.63259779e-06  1.80000000e+00  1.63259779e-06 -2.08814227e-06  1.63259779e-06  6.37329620e-01                                 
 1.78903319e-06  7.10039643e-01  1.78903319e-06  6.39373401e-01  1.78903319e-06  6.30310769e-01  1.78903319e-06  1.80000000e+00  1.78903319e-06  1.62114787e-05  1.78903319e-06  6.39373401e-01                                 
 1.94105175e-06  7.11690285e-01  1.94105175e-06  6.40889629e-01  1.94105175e-06  6.41200490e-01  1.94105175e-06  1.80000000e+00  1.94105175e-06 -1.95491638e-06  1.94105175e-06  6.40889629e-01                                 
 2.10643765e-06  7.06988863e-01  2.10643765e-06  6.36748788e-01  2.10643765e-06  6.38422596e-01  2.10643765e-06  1.80000000e+00  2.10643765e-06  1.59724713e-05  2.10643765e-06  6.36748788e-01                                 
 2.28444053e-06  7.12847794e-01  2.28444053e-06  6.41865353e-01  2.28444053e-06  6.40798136e-01  2.28444053e-06  1.80000000e+00  2.28444053e-06 -1.68821460e-06  2.28444053e-06  6.41865353e-01                                 
 2.51687275e-06  7.07047185e-01  2.51687275e-06  6.36807165e-01  2.51687275e-06  6.37459226e-01  2.51687275e-06  1.80000000e+00  2.51687275e-06  1.57258035e-05  2.51687275e-06  6.36807165e-01                                 
 2.75648270e-06  7.12048754e-01  2.75648270e-06  6.41180961e-01  2.75648270e-06  6.41309429e-01  2.75648270e-06  1.80000000e+00  2.75648270e-06 -1.48619301e-06  2.75648270e-06  6.41180961e-01                                 
 3.07095059e-06  7.08210625e-01  3.07095059e-06  6.37825785e-01  3.07095059e-06  6.37832367e-01  3.07095059e-06  1.80000000e+00  3.07095059e-06  1.55744859e-05  3.07095059e-06  6.37825785e-01                                 
 3.48764092e-06  7.11185610e-01  3.48764092e-06  6.40450702e-01  3.48764092e-06  6.40911239e-01  3.48764092e-06  1.80000000e+00  3.48764092e-06 -1.39401869e-06  3.48764092e-06  6.40450702e-01                                 
 4.04401442e-06  7.08934058e-01  4.04401442e-06  6.38442924e-01  4.04401442e-06  6.38314216e-01  4.04401442e-06  1.80000000e+00  4.04401442e-06  1.55186629e-05  4.04401442e-06  6.38442924e-01                                 
 5.02132582e-06  7.10706886e-01  5.02132582e-06  6.40038317e-01  5.02132582e-06  6.40554130e-01  5.02132582e-06  1.80000000e+00  5.02132582e-06 -1.36333928e-06  5.02132582e-06  6.40038317e-01                                 
 6.02132582e-06  7.09280808e-01  6.02132582e-06  6.38742468e-01  6.02132582e-06  6.38579810e-01  6.02132582e-06  1.80000000e+00  6.02132582e-06  1.55007293e-05  6.02132582e-06  6.38742468e-01                                 
 7.02132582e-06  7.10360188e-01  7.02132582e-06  6.39737364e-01  7.02132582e-06  6.40282565e-01  7.02132582e-06  1.80000000e+00  7.02132582e-06 -1.34856478e-06  7.02132582e-06  6.39737364e-01                                 
 8.02132582e-06  7.09602141e-01  8.02132582e-06  6.39018901e-01  8.02132582e-06  6.38831398e-01  8.02132582e-06  1.80000000e+00  8.02132582e-06  1.54887927e-05  8.02132582e-06  6.39018901e-01                                 
 9.02132582e-06  7.10058372e-01  9.02132582e-06  6.39478558e-01  9.02132582e-06  6.40043246e-01  9.02132582e-06  1.80000000e+00  9.02132582e-06 -1.33926051e-06  9.02132582e-06  6.39478558e-01                                 
 1.00005000e-05  7.09892627e-01  1.00005000e-05  6.39268599e-01  1.00005000e-05  6.39065096e-01  1.00005000e-05  1.80000000e+00  1.00005000e-05  1.54819370e-05  1.00005000e-05  6.39268599e-01                                 
 1.00005500e-05  7.09949964e-01  1.00005500e-05  6.39300484e-01  1.00005500e-05  6.32305938e-01  1.00005500e-05  1.62000000e+00  1.00005500e-05 -1.21694289e-04  1.00005500e-05  6.39300484e-01                                 
 1.00006500e-05  7.10014105e-01  1.00006500e-05  6.39352939e-01  1.00006500e-05  6.20873979e-01  1.00006500e-05  1.26000000e+00  1.00006500e-05 -9.70812661e-05  1.00006500e-05  6.39352939e-01                                 
 1.00008500e-05  7.10093146e-01  1.00008500e-05  6.39435340e-01  1.00008500e-05  6.12071559e-01  1.00008500e-05  5.40000000e-01  1.00008500e-05  1.51591242e-02  1.00008500e-05  6.39435340e-01                                 
 1.00010000e-05  7.10144888e-01  1.00010000e-05  6.39481657e-01  1.00010000e-05  5.70926426e-01  1.00010000e-05  0.00000000e+00  1.00010000e-05  1.54227125e+00  1.00010000e-05  6.39481657e-01                                 
 1.00010249e-05  7.10149665e-01  1.00010249e-05  6.39487924e-01  1.00010249e-05  5.50658045e-01  1.00010249e-05  0.00000000e+00  1.00010249e-05  1.69955631e+00  1.00010249e-05  6.39487924e-01                                 
 1.00010747e-05  7.10160869e-01  1.00010747e-05  6.39500114e-01  1.00010747e-05  5.19564234e-01  1.00010747e-05  0.00000000e+00  1.00010747e-05  1.81911418e+00  1.00010747e-05  6.39500114e-01                                 
 1.00011744e-05  7.10182253e-01  1.00011744e-05  6.39521537e-01  1.00011744e-05  5.01981284e-01  1.00011744e-05  0.00000000e+00  1.00011744e-05  1.78947112e+00  1.00011744e-05  6.39521537e-01                                 
 1.00013173e-05  7.10205235e-01  1.00013173e-05  6.39545943e-01  1.00013173e-05  5.07009099e-01  1.00013173e-05  0.00000000e+00  1.00013173e-05  1.80704093e+00  1.00013173e-05  6.39545943e-01                                 
 1.00014719e-05  7.10223146e-01  1.00014719e-05  6.39565349e-01  1.00014719e-05  5.06848544e-01  1.00014719e-05  0.00000000e+00  1.00014719e-05  1.79534456e+00  1.00014719e-05  6.39565349e-01                                 
 1.00017455e-05  7.10240233e-01  1.00017455e-05  6.39586266e-01  1.00017455e-05  5.08036502e-01  1.00017455e-05  0.00000000e+00  1.00017455e-05  1.80374702e+00  1.00017455e-05  6.39586266e-01                                 
