 time            v(vbep)         time            v(vben)         time            v(vout)         time            v(vphi1)        time            v(vphi2)        time            v(vref)         yes             currtemp       
 0.00000000e+00  8.80842951e-01  0.00000000e+00  8.35746704e-01  0.00000000e+00  7.44657847e-01  0.00000000e+00  0.00000000e+00  0.00000000e+00  1.80000000e+00  0.00000000e+00  5.00000000e-01  1.00000000e+00 -4.00000000e+01 
 5.00000000e-12  8.80842978e-01  5.00000000e-12  8.35746716e-01  5.00000000e-12  7.45212269e-01  5.00000000e-12  1.80000000e-02  5.00000000e-12  1.80007376e+00  5.00000000e-12  5.00000000e-01                                 
 1.00000000e-11  8.80842991e-01  1.00000000e-11  8.35746721e-01  1.00000000e-11  7.45686308e-01  1.00000000e-11  3.60000000e-02  1.00000000e-11  1.80010413e+00  1.00000000e-11  5.00000000e-01                                 
 2.00000000e-11  8.80843004e-01  2.00000000e-11  8.35746728e-01  2.00000000e-11  7.46494545e-01  2.00000000e-11  7.20000000e-02  2.00000000e-11  1.80012154e+00  2.00000000e-11  5.00000000e-01                                 
 4.00000000e-11  8.80842998e-01  4.00000000e-11  8.35746733e-01  4.00000000e-11  7.47551089e-01  4.00000000e-11  1.44000000e-01  4.00000000e-11  1.80007709e+00  4.00000000e-11  5.00000000e-01                                 
 8.00000000e-11  8.80842975e-01  8.00000000e-11  8.35746729e-01  8.00000000e-11  7.48563733e-01  8.00000000e-11  2.88000000e-01  8.00000000e-11  1.80001879e+00  8.00000000e-11  5.00000000e-01                                 
 1.60000000e-10  8.80842951e-01  1.60000000e-10  8.35746712e-01  1.60000000e-10  7.49582453e-01  1.60000000e-10  5.76000000e-01  1.60000000e-10  1.80000170e+00  1.60000000e-10  5.00000000e-01                                 
 3.20000000e-10  8.80842817e-01  3.20000000e-10  8.35746613e-01  3.20000000e-10  7.38719256e-01  3.20000000e-10  1.15200000e+00  3.20000000e-10  1.80025406e+00  3.20000000e-10  5.00000000e-01                                 
 5.00000000e-10  8.80843608e-01  5.00000000e-10  8.35747119e-01  5.00000000e-10  8.64719957e-01  5.00000000e-10  1.80000000e+00  5.00000000e-10  8.34589249e-02  5.00000000e-10  5.00000000e-01                                 
 5.20199926e-10  8.80843410e-01  5.20199926e-10  8.35747061e-01  5.20199926e-10  8.88191070e-01  5.20199926e-10  1.80000000e+00  5.20199926e-10  1.38302456e-02  5.20199926e-10  5.00000000e-01                                 
 5.60599778e-10  8.80843045e-01  5.60599778e-10  8.35746910e-01  5.60599778e-10  9.25724308e-01  5.60599778e-10  1.80000000e+00  5.60599778e-10 -6.38418372e-03  5.60599778e-10  5.00000000e-01                                 
 6.41399482e-10  8.80842621e-01  6.41399482e-10  8.35746555e-01  6.41399482e-10  9.68699636e-01  6.41399482e-10  1.80000000e+00  6.41399482e-10  5.84166233e-03  6.41399482e-10  5.00000000e-01                                 
 7.66425176e-10  8.80842306e-01  7.66425176e-10  8.35746200e-01  7.66425176e-10  1.00608253e+00  7.66425176e-10  1.80000000e+00  7.66425176e-10 -5.15872283e-03  7.66425176e-10  5.00000000e-01                                 
 9.51651849e-10  8.80842392e-01  9.51651849e-10  8.35746188e-01  9.51651849e-10  1.03976290e+00  9.51651849e-10  1.80000000e+00  9.51651849e-10  4.96538854e-03  9.51651849e-10  5.00000000e-01                                 
 1.32210519e-09  8.80843252e-01  1.32210519e-09  8.35746883e-01  1.32210519e-09  1.08567977e+00  1.32210519e-09  1.80000000e+00  1.32210519e-09 -4.76185999e-03  1.32210519e-09  5.00000000e-01                                 
 1.83526919e-09  8.80844037e-01  1.83526919e-09  8.35747636e-01  1.83526919e-09  1.13112804e+00  1.83526919e-09  1.80000000e+00  1.83526919e-09  4.70561806e-03  1.83526919e-09  5.00000000e-01                                 
 2.68871300e-09  8.80842462e-01  2.68871300e-09  8.35746385e-01  2.68871300e-09  1.18400629e+00  2.68871300e-09  1.80000000e+00  2.68871300e-09 -4.60304914e-03  2.68871300e-09  5.00000000e-01                                 
 3.99861562e-09  8.80841120e-01  3.99861562e-09  8.35745056e-01  3.99861562e-09  1.22681573e+00  3.99861562e-09  1.80000000e+00  3.99861562e-09  4.60935092e-03  3.99861562e-09  5.00000000e-01                                 
 5.25614465e-09  8.80852130e-01  5.25614465e-09  8.35754432e-01  5.25614465e-09  1.24290224e+00  5.25614465e-09  1.80000000e+00  5.25614465e-09 -4.53024000e-03  5.25614465e-09  5.00000000e-01                                 
 6.79757705e-09  8.80886116e-01  6.79757705e-09  8.35784555e-01  6.79757705e-09  1.25009136e+00  6.79757705e-09  1.80000000e+00  6.79757705e-09  4.53238320e-03  6.79757705e-09  5.00000000e-01                                 
 8.79058592e-09  8.80940705e-01  8.79058592e-09  8.35834098e-01  8.79058592e-09  1.25116988e+00  8.79058592e-09  1.80000000e+00  8.79058592e-09 -4.47808805e-03  8.79058592e-09  5.00000000e-01                                 
 1.17981670e-08  8.81001109e-01  1.17981670e-08  8.35889814e-01  1.17981670e-08  1.24716797e+00  1.17981670e-08  1.80000000e+00  1.17981670e-08  4.48751097e-03  1.17981670e-08  5.00000000e-01                                 
 1.55545881e-08  8.81021922e-01  1.55545881e-08  8.35909773e-01  1.55545881e-08  1.24105777e+00  1.55545881e-08  1.80000000e+00  1.55545881e-08 -4.45081811e-03  1.55545881e-08  5.00000000e-01                                 
 2.23937729e-08  8.80987683e-01  2.23937729e-08  8.35879041e-01  2.23937729e-08  1.23207322e+00  2.23937729e-08  1.80000000e+00  2.23937729e-08  4.46588507e-03  2.23937729e-08  5.00000000e-01                                 
 3.19050959e-08  8.80923711e-01  3.19050959e-08  8.35820620e-01  3.19050959e-08  1.22195480e+00  3.19050959e-08  1.80000000e+00  3.19050959e-08 -4.43906033e-03  3.19050959e-08  5.00000000e-01                                 
 4.88089951e-08  8.80846098e-01  4.88089951e-08  8.35749792e-01  4.88089951e-08  1.20480860e+00  4.88089951e-08  1.80000000e+00  4.88089951e-08  4.45753987e-03  4.88089951e-08  5.00000000e-01                                 
 7.48547229e-08  8.80794898e-01  7.48547229e-08  8.35702937e-01  7.48547229e-08  1.17989163e+00  7.48547229e-08  1.80000000e+00  7.48547229e-08 -4.43438476e-03  7.48547229e-08  5.00000000e-01                                 
 1.09668823e-07  8.80781057e-01  1.09668823e-07  8.35690322e-01  1.09668823e-07  1.14560031e+00  1.09668823e-07  1.80000000e+00  1.09668823e-07  4.45420397e-03  1.09668823e-07  5.00000000e-01                                 
 1.46379908e-07  8.80831552e-01  1.46379908e-07  8.35736134e-01  1.46379908e-07  1.10759833e+00  1.46379908e-07  1.80000000e+00  1.46379908e-07 -4.43163477e-03  1.46379908e-07  5.00000000e-01                                 
 2.19802077e-07  8.80859047e-01  2.19802077e-07  8.35761505e-01  2.19802077e-07  1.02258982e+00  2.19802077e-07  1.80000000e+00  2.19802077e-07  4.45216796e-03  2.19802077e-07  5.00000000e-01                                 
 2.93076731e-07  8.80823965e-01  2.93076731e-07  8.35729330e-01  2.93076731e-07  9.40122044e-01  2.93076731e-07  1.80000000e+00  2.93076731e-07 -4.43025403e-03  2.93076731e-07  5.00000000e-01                                 
 4.39626040e-07  8.80861062e-01  4.39626040e-07  8.35763249e-01  4.39626040e-07  8.44233120e-01  4.39626040e-07  1.80000000e+00  4.39626040e-07  4.45115113e-03  4.39626040e-07  5.00000000e-01                                 
 6.76516971e-07  8.80831041e-01  6.76516971e-07  8.35735825e-01  6.76516971e-07  7.01606004e-01  6.76516971e-07  1.80000000e+00  6.76516971e-07 -4.42974474e-03  6.76516971e-07  5.00000000e-01                                 
 9.15327216e-07  8.80854872e-01  9.15327216e-07  8.35757581e-01  9.15327216e-07  6.24905697e-01  9.15327216e-07  1.80000000e+00  9.15327216e-07  4.45072433e-03  9.15327216e-07  5.00000000e-01                                 
 1.25768318e-06  8.80828052e-01  1.25768318e-06  8.35733122e-01  1.25768318e-06  5.45859769e-01  1.25768318e-06  1.80000000e+00  1.25768318e-06 -4.42939918e-03  1.25768318e-06  5.00000000e-01                                 
 1.61963192e-06  8.80857297e-01  1.61963192e-06  8.35759771e-01  1.61963192e-06  5.07416074e-01  1.61963192e-06  1.80000000e+00  1.61963192e-06  4.45044412e-03  1.61963192e-06  5.00000000e-01                                 
 1.67741073e-06  8.80843043e-01  1.67741073e-06  8.35746803e-01  1.67741073e-06  5.07597858e-01  1.67741073e-06  1.80000000e+00  1.67741073e-06  2.26417637e-07  1.67741073e-06  5.00000000e-01                                 
 1.79296836e-06  8.80841875e-01  1.79296836e-06  8.35745710e-01  1.79296836e-06  5.07733161e-01  1.79296836e-06  1.80000000e+00  1.79296836e-06 -2.17731041e-07  1.79296836e-06  5.00000000e-01                                 
 2.02408360e-06  8.80844044e-01  2.02408360e-06  8.35747712e-01  2.02408360e-06  5.07584451e-01  2.02408360e-06  1.80000000e+00  2.02408360e-06  2.25501213e-07  2.02408360e-06  5.00000000e-01                                 
 2.48631410e-06  8.80841805e-01  2.48631410e-06  8.35745649e-01  2.48631410e-06  5.07117710e-01  2.48631410e-06  1.80000000e+00  2.48631410e-06 -2.17205939e-07  2.48631410e-06  5.00000000e-01                                 
 2.93273419e-06  8.80844141e-01  2.93273419e-06  8.35747799e-01  2.93273419e-06  5.06800182e-01  2.93273419e-06  1.80000000e+00  2.93273419e-06  2.25397784e-07  2.93273419e-06  5.00000000e-01                                 
 3.82557438e-06  8.80841712e-01  3.82557438e-06  8.35745565e-01  3.82557438e-06  5.06395456e-01  3.82557438e-06  1.80000000e+00  3.82557438e-06 -2.17138439e-07  3.82557438e-06  5.00000000e-01                                 
 4.82557438e-06  8.80844145e-01  4.82557438e-06  8.35747803e-01  4.82557438e-06  5.06041600e-01  4.82557438e-06  1.80000000e+00  4.82557438e-06  2.25352823e-07  4.82557438e-06  5.00000000e-01                                 
 5.82557438e-06  8.80841742e-01  5.82557438e-06  8.35745593e-01  5.82557438e-06  5.05821255e-01  5.82557438e-06  1.80000000e+00  5.82557438e-06 -2.17095602e-07  5.82557438e-06  5.00000000e-01                                 
 6.82557438e-06  8.80844167e-01  6.82557438e-06  8.35747821e-01  6.82557438e-06  5.05595893e-01  6.82557438e-06  1.80000000e+00  6.82557438e-06  2.25311257e-07  6.82557438e-06  5.00000000e-01                                 
 7.82557438e-06  8.80841731e-01  7.82557438e-06  8.35745584e-01  7.82557438e-06  5.05457282e-01  7.82557438e-06  1.80000000e+00  7.82557438e-06 -2.17054762e-07  7.82557438e-06  5.00000000e-01                                 
 8.82557438e-06  8.80844169e-01  8.82557438e-06  8.35747823e-01  8.82557438e-06  5.05287863e-01  8.82557438e-06  1.80000000e+00  8.82557438e-06  2.25270499e-07  8.82557438e-06  5.00000000e-01                                 
 9.82557438e-06  8.80841745e-01  9.82557438e-06  8.35745597e-01  9.82557438e-06  5.05190422e-01  9.82557438e-06  1.80000000e+00  9.82557438e-06 -2.17014251e-07  9.82557438e-06  5.00000000e-01                                 
 1.00005000e-05  8.80844116e-01  1.00005000e-05  8.35747773e-01  1.00005000e-05  5.05143719e-01  1.00005000e-05  1.80000000e+00  1.00005000e-05  2.25136696e-07  1.00005000e-05  5.00000000e-01                                 
 1.00005500e-05  8.80844093e-01  1.00005500e-05  8.35747757e-01  1.00005500e-05  4.97263159e-01  1.00005500e-05  1.62000000e+00  1.00005500e-05 -5.60729321e-05  1.00005500e-05  5.00000000e-01                                 
 1.00006500e-05  8.80844077e-01  1.00006500e-05  8.35747739e-01  1.00006500e-05  4.84030199e-01  1.00006500e-05  1.26000000e+00  1.00006500e-05 -3.69515400e-05  1.00006500e-05  5.00000000e-01                                 
 1.00008500e-05  8.80844099e-01  1.00008500e-05  8.35747748e-01  1.00008500e-05  4.83860322e-01  1.00008500e-05  5.40000000e-01  1.00008500e-05  1.39437216e-04  1.00008500e-05  5.00000000e-01                                 
 1.00010000e-05  8.80843996e-01  1.00010000e-05  8.35747686e-01  1.00010000e-05  4.50942535e-01  1.00010000e-05  0.00000000e+00  1.00010000e-05  1.53967848e+00  1.00010000e-05  5.00000000e-01                                 
 1.00010118e-05  8.80843934e-01  1.00010118e-05  8.35747653e-01  1.00010118e-05  4.36644167e-01  1.00010118e-05  0.00000000e+00  1.00010118e-05  1.65817721e+00  1.00010118e-05  5.00000000e-01                                 
 1.00010353e-05  8.80843790e-01  1.00010353e-05  8.35747573e-01  1.00010353e-05  3.97005607e-01  1.00010353e-05  0.00000000e+00  1.00010353e-05  1.78686814e+00  1.00010353e-05  5.00000000e-01                                 
 1.00010824e-05  8.80843659e-01  1.00010824e-05  8.35747451e-01  1.00010824e-05  3.05993776e-01  1.00010824e-05  0.00000000e+00  1.00010824e-05  1.80175964e+00  1.00010824e-05  5.00000000e-01                                 
 1.00011490e-05  8.80843789e-01  1.00011490e-05  8.35747455e-01  1.00011490e-05  2.30641305e-01  1.00011490e-05  0.00000000e+00  1.00011490e-05  1.79471393e+00  1.00011490e-05  5.00000000e-01                                 
 1.00012271e-05  8.80844019e-01  1.00012271e-05  8.35747611e-01  1.00012271e-05  2.05280843e-01  1.00012271e-05  0.00000000e+00  1.00012271e-05  1.80134797e+00  1.00012271e-05  5.00000000e-01                                 
 1.00013575e-05  8.80844357e-01  1.00013575e-05  8.35747907e-01  1.00013575e-05  2.03265164e-01  1.00013575e-05  0.00000000e+00  1.00013575e-05  1.79795147e+00  1.00013575e-05  5.00000000e-01                                 
 1.00014966e-05  8.80844517e-01  1.00014966e-05  8.35748088e-01  1.00014966e-05  2.06227664e-01  1.00014966e-05  0.00000000e+00  1.00014966e-05  1.80147158e+00  1.00014966e-05  5.00000000e-01                                 
 1.00017539e-05  8.80844376e-01  1.00017539e-05  8.35748021e-01  1.00017539e-05  2.06882373e-01  1.00017539e-05  0.00000000e+00  1.00017539e-05  1.79860098e+00  1.00017539e-05  5.00000000e-01                                 
 1.00020305e-05  8.80843851e-01  1.00020305e-05  8.35747594e-01  1.00020305e-05  2.07165839e-01  1.00020305e-05  0.00000000e+00  1.00020305e-05  1.80130397e+00  1.00020305e-05  5.00000000e-01                                 
 1.00025835e-05  8.80842848e-01  1.00025835e-05  8.35746693e-01  1.00025835e-05  2.07199428e-01  1.00025835e-05  0.00000000e+00  1.00025835e-05  1.79875165e+00  1.00025835e-05  5.00000000e-01                                 
 1.00035502e-05  8.80843339e-01  1.00035502e-05  8.35747005e-01  1.00035502e-05  2.07414548e-01  1.00035502e-05  0.00000000e+00  1.00035502e-05  1.80122536e+00  1.00035502e-05  5.00000000e-01                                 
 1.00054836e-05  8.80852537e-01  1.00054836e-05  8.35755076e-01  1.00054836e-05  2.07448044e-01  1.00054836e-05  0.00000000e+00  1.00054836e-05  1.79879182e+00  1.00054836e-05  5.00000000e-01                                 
 1.00093505e-05  8.80876147e-01  1.00093505e-05  8.35776592e-01  1.00093505e-05  2.07749963e-01  1.00093505e-05  0.00000000e+00  1.00093505e-05  1.80120521e+00  1.00093505e-05  5.00000000e-01                                 
 1.00170842e-05  8.80885798e-01  1.00170842e-05  8.35785888e-01  1.00170842e-05  2.07858637e-01  1.00170842e-05  0.00000000e+00  1.00170842e-05  1.79880173e+00  1.00170842e-05  5.00000000e-01                                 
 1.00325517e-05  8.80856438e-01  1.00325517e-05  8.35759080e-01  1.00325517e-05  2.08480318e-01  1.00325517e-05  0.00000000e+00  1.00325517e-05  1.80120025e+00  1.00325517e-05  5.00000000e-01                                 
 1.00597802e-05  8.80836118e-01  1.00597802e-05  8.35740484e-01  1.00597802e-05  2.10455910e-01  1.00597802e-05  0.00000000e+00  1.00597802e-05  1.79880432e+00  1.00597802e-05  5.00000000e-01                                 
 1.00953219e-05  8.80835391e-01  1.00953219e-05  8.35739812e-01  1.00953219e-05  2.12407448e-01  1.00953219e-05  0.00000000e+00  1.00953219e-05  1.80119859e+00  1.00953219e-05  5.00000000e-01                                 
 1.01294273e-05  8.80843517e-01  1.01294273e-05  8.35747195e-01  1.01294273e-05  2.31657167e-01  1.01294273e-05  0.00000000e+00  1.01294273e-05  1.79880580e+00  1.01294273e-05  5.00000000e-01                                 
 1.01976380e-05  8.80838645e-01  1.01976380e-05  8.35742812e-01  1.01976380e-05  2.80715897e-01  1.01976380e-05  0.00000000e+00  1.01976380e-05  1.80119744e+00  1.01976380e-05  5.00000000e-01                                 
 1.02750460e-05  8.80843469e-01  1.02750460e-05  8.35747138e-01  1.02750460e-05  3.05684737e-01  1.02750460e-05  0.00000000e+00  1.02750460e-05  1.79880651e+00  1.02750460e-05  5.00000000e-01                                 
 1.03737691e-05  8.80841063e-01  1.03737691e-05  8.35745025e-01  1.03737691e-05  3.41283958e-01  1.03737691e-05  0.00000000e+00  1.03737691e-05  1.80119685e+00  1.03737691e-05  5.00000000e-01                                 
 1.05275504e-05  8.80843595e-01  1.05275504e-05  8.35747249e-01  1.05275504e-05  3.99665510e-01  1.05275504e-05  0.00000000e+00  1.05275504e-05  1.79880693e+00  1.05275504e-05  5.00000000e-01                                 
 1.08351132e-05  8.80842160e-01  1.08351132e-05  8.35746025e-01  1.08351132e-05  5.07219640e-01  1.08351132e-05  0.00000000e+00  1.08351132e-05  1.80119660e+00  1.08351132e-05  5.00000000e-01                                 
 1.14471188e-05  8.80843659e-01  1.14471188e-05  8.35747307e-01  1.14471188e-05  6.52451414e-01  1.14471188e-05  0.00000000e+00  1.14471188e-05  1.79880706e+00  1.14471188e-05  5.00000000e-01                                 
 1.24471188e-05  8.80842307e-01  1.24471188e-05  8.35746160e-01  1.24471188e-05  7.25270122e-01  1.24471188e-05  0.00000000e+00  1.24471188e-05  1.80119653e+00  1.24471188e-05  5.00000000e-01                                 
 1.34471188e-05  8.80843559e-01  1.34471188e-05  8.35747215e-01  1.34471188e-05  7.38341266e-01  1.34471188e-05  0.00000000e+00  1.34471188e-05  1.79880711e+00  1.34471188e-05  5.00000000e-01                                 
 1.44471188e-05  8.80842359e-01  1.44471188e-05  8.35746207e-01  1.44471188e-05  7.43415420e-01  1.44471188e-05  0.00000000e+00  1.44471188e-05  1.80119648e+00  1.44471188e-05  5.00000000e-01                                 
 1.54471188e-05  8.80843514e-01  1.54471188e-05  8.35747174e-01  1.54471188e-05  7.47362405e-01  1.54471188e-05  0.00000000e+00  1.54471188e-05  1.79880716e+00  1.54471188e-05  5.00000000e-01                                 
 1.64471188e-05  8.80842439e-01  1.64471188e-05  8.35746281e-01  1.64471188e-05  7.50354973e-01  1.64471188e-05  0.00000000e+00  1.64471188e-05  1.80119643e+00  1.64471188e-05  5.00000000e-01                                 
 1.74471188e-05  8.80843441e-01  1.74471188e-05  8.35747108e-01  1.74471188e-05  7.52841598e-01  1.74471188e-05  0.00000000e+00  1.74471188e-05  1.79880721e+00  1.74471188e-05  5.00000000e-01                                 
 1.84471188e-05  8.80842494e-01  1.84471188e-05  8.35746330e-01  1.84471188e-05  7.54886685e-01  1.84471188e-05  0.00000000e+00  1.84471188e-05  1.80119638e+00  1.84471188e-05  5.00000000e-01                                 
 1.94471188e-05  8.80843382e-01  1.94471188e-05  8.35747054e-01  1.94471188e-05  7.56680246e-01  1.94471188e-05  0.00000000e+00  1.94471188e-05  1.79880726e+00  1.94471188e-05  5.00000000e-01                                 
 2.00000000e-05  8.80842578e-01  2.00000000e-05  8.35746407e-01  2.00000000e-05  7.57564372e-01  2.00000000e-05  0.00000000e+00  2.00000000e-05  1.80119631e+00  2.00000000e-05  5.00000000e-01                                 
 2.00000500e-05  8.80842553e-01  2.00000500e-05  8.35746382e-01  2.00000500e-05  7.59872532e-01  2.00000500e-05  1.80000000e-01  2.00000500e-05  1.80016433e+00  2.00000500e-05  5.00000000e-01                                 
