 time            v(vbep)         time            v(vben)         time            v(vout)         time            v(vphi1)        time            v(vphi2)        time            v(vref)         yes             currtemp       
 0.00000000e+00  6.68558497e-01  0.00000000e+00  6.11484090e-01  0.00000000e+00  1.15175856e+00  0.00000000e+00  0.00000000e+00  0.00000000e+00  1.79995079e+00  0.00000000e+00  5.00000000e-01  1.00000000e+00  3.90000000e+01 
 5.00000000e-12  6.68526745e-01  5.00000000e-12  6.11457839e-01  5.00000000e-12  1.15251754e+00  5.00000000e-12  1.80000000e-02  5.00000000e-12  1.80005536e+00  5.00000000e-12  5.00000000e-01                                 
 1.00000000e-11  6.68495929e-01  1.00000000e-11  6.11432314e-01  1.00000000e-11  1.15320844e+00  1.00000000e-11  3.60000000e-02  1.00000000e-11  1.80011049e+00  1.00000000e-11  5.00000000e-01                                 
 2.00000000e-11  6.68434882e-01  2.00000000e-11  6.11381474e-01  2.00000000e-11  1.15448705e+00  2.00000000e-11  7.20000000e-02  2.00000000e-11  1.80016388e+00  2.00000000e-11  5.00000000e-01                                 
 4.00000000e-11  6.68313788e-01  4.00000000e-11  6.11280219e-01  4.00000000e-11  1.15656282e+00  4.00000000e-11  1.44000000e-01  4.00000000e-11  1.80014127e+00  4.00000000e-11  5.00000000e-01                                 
 8.00000000e-11  6.68072863e-01  8.00000000e-11  6.11078683e-01  8.00000000e-11  1.15946414e+00  8.00000000e-11  2.88000000e-01  8.00000000e-11  1.80007996e+00  8.00000000e-11  5.00000000e-01                                 
 1.60000000e-10  6.67596495e-01  1.60000000e-10  6.10679476e-01  1.60000000e-10  1.16242748e+00  1.60000000e-10  5.76000000e-01  1.60000000e-10  1.80001707e+00  1.60000000e-10  5.00000000e-01                                 
 3.20000000e-10  6.66664316e-01  3.20000000e-10  6.09895942e-01  3.20000000e-10  1.15613627e+00  3.20000000e-10  1.15200000e+00  3.20000000e-10  1.80039420e+00  3.20000000e-10  5.00000000e-01                                 
 5.00000000e-10  6.65647230e-01  5.00000000e-10  6.09037324e-01  5.00000000e-10  1.30732745e+00  5.00000000e-10  1.80000000e+00  5.00000000e-10  1.17440333e-01  5.00000000e-10  5.00000000e-01                                 
 5.21519899e-10  6.65528037e-01  5.21519899e-10  6.08936431e-01  5.21519899e-10  1.34289127e+00  5.21519899e-10  1.80000000e+00  5.21519899e-10  2.31775070e-02  5.21519899e-10  5.00000000e-01                                 
 5.64559698e-10  6.65290518e-01  5.64559698e-10  6.08735261e-01  5.64559698e-10  1.40790234e+00  5.64559698e-10  1.80000000e+00  5.64559698e-10 -1.08036617e-02  5.64559698e-10  5.00000000e-01                                 
 6.50639295e-10  6.64820737e-01  6.50639295e-10  6.08336774e-01  6.50639295e-10  1.51420232e+00  6.50639295e-10  1.80000000e+00  6.50639295e-10  9.00554622e-03  6.50639295e-10  5.00000000e-01                                 
 7.72739363e-10  6.64166104e-01  7.72739363e-10  6.07780156e-01  7.72739363e-10  1.63377295e+00  7.72739363e-10  1.80000000e+00  7.72739363e-10 -7.82214593e-03  7.72739363e-10  5.00000000e-01                                 
 9.64548435e-10  6.63164296e-01  9.64548435e-10  6.06925378e-01  9.64548435e-10  1.77009485e+00  9.64548435e-10  1.80000000e+00  9.64548435e-10  7.34328441e-03  9.64548435e-10  5.00000000e-01                                 
 1.34816658e-09  6.61250787e-01  1.34816658e-09  6.05283002e-01  1.34816658e-09  1.91892742e+00  1.34816658e-09  1.80000000e+00  1.34816658e-09 -6.94288820e-03  1.34816658e-09  5.00000000e-01                                 
 1.64413198e-09  6.59851167e-01  1.64413198e-09  6.04073492e-01  1.64413198e-09  1.96332367e+00  1.64413198e-09  1.80000000e+00  1.64413198e-09  6.69359521e-03  1.64413198e-09  5.00000000e-01                                 
 1.98766061e-09  6.58301916e-01  1.98766061e-09  6.02726884e-01  1.98766061e-09  1.98351678e+00  1.98766061e-09  1.80000000e+00  1.98766061e-09 -6.33496342e-03  1.98766061e-09  5.00000000e-01                                 
 2.33277371e-09  6.56820154e-01  2.33277371e-09  6.01431399e-01  2.33277371e-09  1.98992715e+00  2.33277371e-09  1.80000000e+00  2.33277371e-09  6.12844346e-03  2.33277371e-09  5.00000000e-01                                 
 2.91037166e-09  6.54488507e-01  2.91037166e-09  5.99378633e-01  2.91037166e-09  1.99137959e+00  2.91037166e-09  1.80000000e+00  2.91037166e-09 -5.92098283e-03  2.91037166e-09  5.00000000e-01                                 
 3.62160781e-09  6.51842087e-01  3.62160781e-09  5.97028058e-01  3.62160781e-09  1.98931802e+00  3.62160781e-09  1.80000000e+00  3.62160781e-09  5.84413878e-03  3.62160781e-09  5.00000000e-01                                 
 4.96415415e-09  6.47392229e-01  4.96415415e-09  5.93030067e-01  4.96415415e-09  1.98506386e+00  4.96415415e-09  1.80000000e+00  4.96415415e-09 -5.74079339e-03  4.96415415e-09  5.00000000e-01                                 
 7.09390660e-09  6.41449021e-01  7.09390660e-09  5.87606605e-01  7.09390660e-09  1.97957600e+00  7.09390660e-09  1.80000000e+00  7.09390660e-09  5.74446282e-03  7.09390660e-09  5.00000000e-01                                 
 9.67070389e-09  6.35568636e-01  9.67070389e-09  5.82152385e-01  9.67070389e-09  1.97406591e+00  9.67070389e-09  1.80000000e+00  9.67070389e-09 -5.66899348e-03  9.67070389e-09  5.00000000e-01                                 
 1.13521634e-08  6.32302091e-01  1.13521634e-08  5.79086928e-01  1.13521634e-08  1.97110103e+00  1.13521634e-08  1.80000000e+00  1.13521634e-08  5.65281515e-03  1.13521634e-08  5.00000000e-01                                 
 1.31228988e-08  6.29220639e-01  1.31228988e-08  5.76175262e-01  1.31228988e-08  1.96824270e+00  1.31228988e-08  1.80000000e+00  1.31228988e-08 -5.57482320e-03  1.31228988e-08  5.00000000e-01                                 
 1.49621444e-08  6.26336116e-01  1.49621444e-08  5.73433404e-01  1.49621444e-08  1.96561713e+00  1.49621444e-08  1.80000000e+00  1.49621444e-08  5.55814319e-03  1.49621444e-08  5.00000000e-01                                 
 1.80820167e-08  6.22015216e-01  1.80820167e-08  5.69300062e-01  1.80820167e-08  1.96147794e+00  1.80820167e-08  1.80000000e+00  1.80820167e-08 -5.50440871e-03  1.80820167e-08  5.00000000e-01                                 
 2.16544887e-08  6.17759509e-01  2.16544887e-08  5.65200308e-01  2.16544887e-08  1.95721563e+00  2.16544887e-08  1.80000000e+00  2.16544887e-08  5.50824128e-03  2.16544887e-08  5.00000000e-01                                 
 2.76320225e-08  6.11788448e-01  2.76320225e-08  5.59408667e-01  2.76320225e-08  1.94987832e+00  2.76320225e-08  1.80000000e+00  2.76320225e-08 -5.46781276e-03  2.76320225e-08  5.00000000e-01                                 
 3.56213528e-08  6.05305708e-01  3.56213528e-08  5.53085632e-01  3.56213528e-08  1.93905057e+00  3.56213528e-08  1.80000000e+00  3.56213528e-08  5.48452309e-03  3.56213528e-08  5.00000000e-01                                 
 5.16000136e-08  5.94556208e-01  5.16000136e-08  5.42701560e-01  5.16000136e-08  1.92044880e+00  5.16000136e-08  1.80000000e+00  5.16000136e-08 -5.45254131e-03  5.16000136e-08  5.00000000e-01                                 
 6.71458223e-08  5.85834718e-01  6.71458223e-08  5.34405632e-01  6.71458223e-08  1.90531928e+00  6.71458223e-08  1.80000000e+00  6.71458223e-08  5.47435898e-03  6.71458223e-08  5.00000000e-01                                 
 8.38663815e-08  5.75281249e-01  8.38663815e-08  5.24856173e-01  8.38663815e-08  1.87164611e+00  8.38663815e-08  1.80000000e+00  8.38663815e-08 -5.44272215e-03  8.38663815e-08  5.00000000e-01                                 
 1.02055919e-07  5.66273577e-01  1.02055919e-07  5.16660960e-01  1.02055919e-07  1.83837584e+00  1.02055919e-07  1.80000000e+00  1.02055919e-07  5.46531796e-03  1.02055919e-07  5.00000000e-01                                 
 1.23901079e-07  5.57102493e-01  1.23901079e-07  5.08352766e-01  1.23901079e-07  1.79755365e+00  1.23901079e-07  1.80000000e+00  1.23901079e-07 -5.43464813e-03  1.23901079e-07  5.00000000e-01                                 
 1.49960035e-07  5.55019655e-01  1.49960035e-07  5.05644130e-01  1.49960035e-07  1.77566282e+00  1.49960035e-07  1.80000000e+00  1.49960035e-07  5.45893244e-03  1.49960035e-07  5.00000000e-01                                 
 1.81578468e-07  5.57644272e-01  1.81578468e-07  5.06601402e-01  1.81578468e-07  1.75938835e+00  1.81578468e-07  1.80000000e+00  1.81578468e-07 -5.42896258e-03  1.81578468e-07  5.00000000e-01                                 
 2.03149811e-07  5.54922678e-01  2.03149811e-07  5.03776851e-01  2.03149811e-07  1.73648032e+00  2.03149811e-07  1.80000000e+00  2.03149811e-07  5.45248249e-03  2.03149811e-07  5.00000000e-01                                 
 2.27923911e-07  5.48692147e-01  2.27923911e-07  4.98159852e-01  2.27923911e-07  1.70576382e+00  2.27923911e-07  1.80000000e+00  2.27923911e-07 -5.42221747e-03  2.27923911e-07  5.00000000e-01                                 
 2.61099249e-07  5.39736696e-01  2.61099249e-07  4.90271523e-01  2.61099249e-07  1.66484119e+00  2.61099249e-07  1.80000000e+00  2.61099249e-07  5.44682910e-03  2.61099249e-07  5.00000000e-01                                 
 2.95250459e-07  5.31120701e-01  2.95250459e-07  4.82747804e-01  2.95250459e-07  1.62377098e+00  2.95250459e-07  1.80000000e+00  2.95250459e-07 -5.41750989e-03  2.95250459e-07  5.00000000e-01                                 
 3.63151225e-07  5.12831827e-01  3.63151225e-07  4.67157808e-01  3.63151225e-07  1.53594407e+00  3.63151225e-07  1.80000000e+00  3.63151225e-07  5.44331180e-03  3.63151225e-07  5.00000000e-01                                 
 4.42239754e-07  4.97963838e-01  4.42239754e-07  4.54445441e-01  4.42239754e-07  1.44328704e+00  4.42239754e-07  1.80000000e+00  4.42239754e-07 -5.41527591e-03  4.42239754e-07  5.00000000e-01                                 
 5.15984137e-07  4.68897420e-01  5.15984137e-07  4.30786383e-01  5.15984137e-07  1.33770687e+00  5.15984137e-07  1.80000000e+00  5.15984137e-07  5.44105354e-03  5.15984137e-07  5.00000000e-01                                 
 5.93030920e-07  4.35030391e-01  5.93030920e-07  4.03513798e-01  5.93030920e-07  1.22622762e+00  5.93030920e-07  1.80000000e+00  5.93030920e-07 -5.41320751e-03  5.93030920e-07  5.00000000e-01                                 
 6.55820872e-07  4.43437681e-01  6.55820872e-07  4.10225314e-01  6.55820872e-07  1.16665869e+00  6.55820872e-07  1.80000000e+00  6.55820872e-07  5.43928083e-03  6.55820872e-07  5.00000000e-01                                 
 7.43225539e-07  7.34790576e-01  7.43225539e-07  6.75052455e-01  7.43225539e-07  1.35562098e+00  7.43225539e-07  1.80000000e+00  7.43225539e-07 -5.40748221e-03  7.43225539e-07  5.00000000e-01                                 
 7.53989241e-07  7.47779051e-01  7.53989241e-07  6.87520301e-01  7.53989241e-07  1.35732522e+00  7.53989241e-07  1.80000000e+00  7.53989241e-07  1.29139136e-07  7.53989241e-07  5.00000000e-01                                 
 7.75516644e-07  7.63337724e-01  7.75516644e-07  7.01732780e-01  7.75516644e-07  1.34995681e+00  7.75516644e-07  1.80000000e+00  7.75516644e-07  2.86302647e-06  7.75516644e-07  5.00000000e-01                                 
 8.18571452e-07  7.73139963e-01  8.18571452e-07  7.10308356e-01  8.18571452e-07  1.31436170e+00  8.18571452e-07  1.80000000e+00  8.18571452e-07 -7.26312400e-07  8.18571452e-07  5.00000000e-01                                 
 8.57424718e-07  7.75961523e-01  8.57424718e-07  7.12737378e-01  8.57424718e-07  1.27660873e+00  8.57424718e-07  1.80000000e+00  8.57424718e-07  2.68414068e-06  8.57424718e-07  5.00000000e-01                                 
 9.21731529e-07  7.78785245e-01  9.21731529e-07  7.15124262e-01  9.21731529e-07  1.21196617e+00  9.21731529e-07  1.80000000e+00  9.21731529e-07 -8.02796699e-07  9.21731529e-07  5.00000000e-01                                 
 1.00012019e-06  7.77891199e-01  1.00012019e-06  7.14381557e-01  1.00012019e-06  1.12912763e+00  1.00012019e-06  1.80000000e+00  1.00012019e-06  2.62514442e-06  1.00012019e-06  5.00000000e-01                                 
 1.01156923e-06  7.75425019e-01  1.01156923e-06  7.12290655e-01  1.01156923e-06  1.11479263e+00  1.01156923e-06  1.80000000e+00  1.01156923e-06  7.60064152e-07  1.01156923e-06  5.00000000e-01                                 
 1.03446730e-06  7.67295206e-01  1.03446730e-06  7.05266195e-01  1.03446730e-06  1.08318816e+00  1.03446730e-06  1.80000000e+00  1.03446730e-06  5.75747194e-07  1.03446730e-06  5.00000000e-01                                 
 1.08026345e-06  7.58453498e-01  1.08026345e-06  6.97366813e-01  1.08026345e-06  1.02792451e+00  1.08026345e-06  1.80000000e+00  1.08026345e-06  9.65533258e-07  1.08026345e-06  5.00000000e-01                                 
 1.13248686e-06  7.67383609e-01  1.13248686e-06  7.05305628e-01  1.13248686e-06  9.86962944e-01  1.13248686e-06  1.80000000e+00  1.13248686e-06  1.10140939e-06  1.13248686e-06  5.00000000e-01                                 
 1.20645946e-06  7.71072614e-01  1.20645946e-06  7.08538675e-01  1.20645946e-06  9.30560827e-01  1.20645946e-06  1.80000000e+00  1.20645946e-06  8.12295509e-07  1.20645946e-06  5.00000000e-01                                 
 1.28373922e-06  7.64476954e-01  1.28373922e-06  7.02759168e-01  1.28373922e-06  8.72412328e-01  1.28373922e-06  1.80000000e+00  1.28373922e-06  8.95177306e-07  1.28373922e-06  5.00000000e-01                                 
 1.40843702e-06  7.66941709e-01  1.40843702e-06  7.04922408e-01  1.40843702e-06  7.99818057e-01  1.40843702e-06  1.80000000e+00  1.40843702e-06  9.63086511e-07  1.40843702e-06  5.00000000e-01                                 
 1.53610469e-06  7.69195262e-01  1.53610469e-06  7.06905791e-01  1.53610469e-06  7.31262498e-01  1.53610469e-06  1.80000000e+00  1.53610469e-06  8.92660212e-07  1.53610469e-06  5.00000000e-01                                 
 1.76466452e-06  7.64441403e-01  1.76466452e-06  7.02721425e-01  1.76466452e-06  6.11106093e-01  1.76466452e-06  1.80000000e+00  1.76466452e-06  9.07334188e-07  1.76466452e-06  5.00000000e-01                                 
 2.00211279e-06  7.69572955e-01  2.00211279e-06  7.07230535e-01  2.00211279e-06  5.28975863e-01  2.00211279e-06  1.80000000e+00  2.00211279e-06  9.54230304e-07  2.00211279e-06  5.00000000e-01                                 
 2.04765938e-06  7.67744523e-01  2.04765938e-06  7.05635380e-01  2.04765938e-06  5.18605248e-01  2.04765938e-06  1.80000000e+00  2.04765938e-06  8.88962035e-07  2.04765938e-06  5.00000000e-01                                 
 2.13875256e-06  7.66185425e-01  2.13875256e-06  7.04263209e-01  2.13875256e-06  5.03735397e-01  2.13875256e-06  1.80000000e+00  2.13875256e-06  9.17150501e-07  2.13875256e-06  5.00000000e-01                                 
 2.32093893e-06  7.67774462e-01  2.32093893e-06  7.05658772e-01  2.32093893e-06  4.92004674e-01  2.32093893e-06  1.80000000e+00  2.32093893e-06  9.25166333e-07  2.32093893e-06  5.00000000e-01                                 
 2.34188643e-06  7.67648841e-01  2.34188643e-06  7.05549625e-01  2.34188643e-06  4.91095582e-01  2.34188643e-06  1.80000000e+00  2.34188643e-06  9.11199726e-07  2.34188643e-06  5.00000000e-01                                 
 2.38378142e-06  7.67135760e-01  2.38378142e-06  7.05100217e-01  2.38378142e-06  4.89173253e-01  2.38378142e-06  1.80000000e+00  2.38378142e-06  9.01168423e-07  2.38378142e-06  5.00000000e-01                                 
 2.46757139e-06  7.66750769e-01  2.46757139e-06  7.04760450e-01  2.46757139e-06  4.93561787e-01  2.46757139e-06  1.80000000e+00  2.46757139e-06  9.25091383e-07  2.46757139e-06  5.00000000e-01                                 
 2.59109059e-06  7.67404300e-01  2.59109059e-06  7.05334795e-01  2.59109059e-06  5.03408228e-01  2.59109059e-06  1.80000000e+00  2.59109059e-06  9.09884152e-07  2.59109059e-06  5.00000000e-01                                 
 2.71846018e-06  7.66948838e-01  2.71846018e-06  7.04935493e-01  2.71846018e-06  4.99811081e-01  2.71846018e-06  1.80000000e+00  2.71846018e-06  9.12559480e-07  2.71846018e-06  5.00000000e-01                                 
 2.88312311e-06  7.67086603e-01  2.88312311e-06  7.05055475e-01  2.88312311e-06  4.99411382e-01  2.88312311e-06  1.80000000e+00  2.88312311e-06  9.19303434e-07  2.88312311e-06  5.00000000e-01                                 
 3.17682806e-06  7.67176350e-01  3.17682806e-06  7.05135347e-01  3.17682806e-06  5.01048297e-01  3.17682806e-06  1.80000000e+00  3.17682806e-06  9.09599102e-07  3.17682806e-06  5.00000000e-01                                 
 3.47471973e-06  7.66956928e-01  3.47471973e-06  7.04941696e-01  3.47471973e-06  4.99380515e-01  3.47471973e-06  1.80000000e+00  3.47471973e-06  9.18946569e-07  3.47471973e-06  5.00000000e-01                                 
 4.01632586e-06  7.67253342e-01  4.01632586e-06  7.05202785e-01  4.01632586e-06  5.00914639e-01  4.01632586e-06  1.80000000e+00  4.01632586e-06  9.10766389e-07  4.01632586e-06  5.00000000e-01                                 
 4.82315197e-06  7.66924048e-01  4.82315197e-06  7.04912916e-01  4.82315197e-06  4.99512752e-01  4.82315197e-06  1.80000000e+00  4.82315197e-06  9.17887194e-07  4.82315197e-06  5.00000000e-01                                 
 5.82315197e-06  7.67270806e-01  5.82315197e-06  7.05218028e-01  5.82315197e-06  5.00815274e-01  5.82315197e-06  1.80000000e+00  5.82315197e-06  9.11655227e-07  5.82315197e-06  5.00000000e-01                                 
 6.82315197e-06  7.66912696e-01  6.82315197e-06  7.04903021e-01  6.82315197e-06  4.99601816e-01  6.82315197e-06  1.80000000e+00  6.82315197e-06  9.17030908e-07  6.82315197e-06  5.00000000e-01                                 
 7.82315197e-06  7.67278213e-01  7.82315197e-06  7.05224448e-01  7.82315197e-06  5.00729904e-01  7.82315197e-06  1.80000000e+00  7.82315197e-06  9.12552425e-07  7.82315197e-06  5.00000000e-01                                 
 8.82315197e-06  7.66908992e-01  8.82315197e-06  7.04899847e-01  8.82315197e-06  4.99684171e-01  8.82315197e-06  1.80000000e+00  8.82315197e-06  9.16105789e-07  8.82315197e-06  5.00000000e-01                                 
 9.82315197e-06  7.67278238e-01  9.82315197e-06  7.05224389e-01  9.82315197e-06  5.00650738e-01  9.82315197e-06  1.80000000e+00  9.82315197e-06  9.13493052e-07  9.82315197e-06  5.00000000e-01                                 
 1.00005000e-05  7.66942057e-01  1.00005000e-05  7.04929148e-01  1.00005000e-05  4.99908019e-01  1.00005000e-05  1.80000000e+00  1.00005000e-05  9.13184599e-07  1.00005000e-05  5.00000000e-01                                 
 1.00005500e-05  7.66941975e-01  1.00005500e-05  7.04929079e-01  1.00005500e-05  4.92034438e-01  1.00005500e-05  1.62000000e+00  1.00005500e-05 -7.83355337e-05  1.00005500e-05  5.00000000e-01                                 
 1.00006500e-05  7.66941834e-01  1.00006500e-05  7.04928952e-01  1.00006500e-05  4.78226917e-01  1.00006500e-05  1.26000000e+00  1.00006500e-05 -6.07815702e-05  1.00006500e-05  5.00000000e-01                                 
 1.00008500e-05  7.66941602e-01  1.00008500e-05  7.04928737e-01  1.00008500e-05  4.76124083e-01  1.00008500e-05  5.40000000e-01  1.00008500e-05 -4.09274185e-03  1.00008500e-05  5.00000000e-01                                 
 1.00010000e-05  7.66941345e-01  1.00010000e-05  7.04928531e-01  1.00010000e-05  4.37224135e-01  1.00010000e-05  0.00000000e+00  1.00010000e-05  1.57559570e+00  1.00010000e-05  5.00000000e-01                                 
 1.00010215e-05  7.66941263e-01  1.00010215e-05  7.04928476e-01  1.00010215e-05  4.12493089e-01  1.00010215e-05  0.00000000e+00  1.00010215e-05  1.71500315e+00  1.00010215e-05  5.00000000e-01                                 
