 time            v(vbep)         time            v(vben)         time            v(vout)         time            v(vphi1)        time            v(vphi2)        time            v(vref)         yes             currtemp       
 0.00000000e+00  6.57145764e-01  0.00000000e+00  5.98986604e-01  0.00000000e+00  1.08818513e+00  0.00000000e+00  0.00000000e+00  0.00000000e+00  1.79994767e+00  0.00000000e+00  5.98986604e-01  1.00000000e+00  4.50000000e+01 
 5.00000000e-12  6.57113817e-01  5.00000000e-12  5.98960195e-01  5.00000000e-12  1.08892138e+00  5.00000000e-12  1.80000000e-02  5.00000000e-12  1.80007397e+00  5.00000000e-12  5.98960195e-01                                 
 1.00000000e-11  6.57082801e-01  1.00000000e-11  5.98934513e-01  1.00000000e-11  1.08959157e+00  1.00000000e-11  3.60000000e-02  1.00000000e-11  1.80014905e+00  1.00000000e-11  5.98934513e-01                                 
 2.00000000e-11  6.57021348e-01  2.00000000e-11  5.98883362e-01  2.00000000e-11  1.09082863e+00  2.00000000e-11  7.20000000e-02  2.00000000e-11  1.80023287e+00  2.00000000e-11  5.98883362e-01                                 
 4.00000000e-11  6.56899433e-01  4.00000000e-11  5.98781483e-01  4.00000000e-11  1.09282382e+00  4.00000000e-11  1.44000000e-01  4.00000000e-11  1.80022310e+00  4.00000000e-11  5.98781483e-01                                 
 8.00000000e-11  6.56656861e-01  8.00000000e-11  5.98578694e-01  8.00000000e-11  1.09551126e+00  8.00000000e-11  2.88000000e-01  8.00000000e-11  1.80012739e+00  8.00000000e-11  5.98578694e-01                                 
 1.60000000e-10  6.56177179e-01  1.60000000e-10  5.98176962e-01  1.60000000e-10  1.09778239e+00  1.60000000e-10  5.76000000e-01  1.60000000e-10  1.80001874e+00  1.60000000e-10  5.98176962e-01                                 
 3.20000000e-10  6.55238294e-01  3.20000000e-10  5.97388302e-01  3.20000000e-10  1.09060536e+00  3.20000000e-10  1.15200000e+00  3.20000000e-10  1.80030086e+00  3.20000000e-10  5.97388302e-01                                 
 5.00000000e-10  6.54213529e-01  5.00000000e-10  5.96523785e-01  5.00000000e-10  1.19304369e+00  5.00000000e-10  1.80000000e+00  5.00000000e-10  1.58460192e-01  5.00000000e-10  5.96523785e-01                                 
 5.21547081e-10  6.54093258e-01  5.21547081e-10  5.96422050e-01  5.21547081e-10  1.21891291e+00  5.21547081e-10  1.80000000e+00  5.21547081e-10  4.04192858e-02  5.21547081e-10  5.96422050e-01                                 
 5.64641244e-10  6.53853589e-01  5.64641244e-10  5.96219199e-01  5.64641244e-10  1.27040858e+00  5.64641244e-10  1.80000000e+00  5.64641244e-10 -1.48970975e-02  5.64641244e-10  5.96219199e-01                                 
 6.50829569e-10  6.53379517e-01  6.50829569e-10  5.95817354e-01  6.50829569e-10  1.36262597e+00  6.50829569e-10  1.80000000e+00  6.50829569e-10  1.25788617e-02  6.50829569e-10  5.95817354e-01                                 
 7.71111406e-10  6.52729366e-01  7.71111406e-10  5.95264948e-01  7.71111406e-10  1.47354136e+00  7.71111406e-10  1.80000000e+00  7.71111406e-10 -9.49889584e-03  7.71111406e-10  5.95264948e-01                                 
 9.52793832e-10  6.51771540e-01  9.52793832e-10  5.94448409e-01  9.52793832e-10  1.60747436e+00  9.52793832e-10  1.80000000e+00  9.52793832e-10  9.33889308e-03  9.52793832e-10  5.94448409e-01                                 
 1.31615869e-09  6.49937043e-01  1.31615869e-09  5.92875708e-01  1.31615869e-09  1.77238138e+00  1.31615869e-09  1.80000000e+00  1.31615869e-09 -8.18750571e-03  1.31615869e-09  5.92875708e-01                                 
 1.64845410e-09  6.48347524e-01  1.64845410e-09  5.91503581e-01  1.64845410e-09  1.84134749e+00  1.64845410e-09  1.80000000e+00  1.64845410e-09  7.99758062e-03  1.64845410e-09  5.91503581e-01                                 
 2.01971558e-09  6.46661232e-01  2.01971558e-09  5.90038611e-01  2.01971558e-09  1.87217215e+00  2.01971558e-09  1.80000000e+00  2.01971558e-09 -7.39078214e-03  2.01971558e-09  5.90038611e-01                                 
 2.37654116e-09  6.45121707e-01  2.37654116e-09  5.88692918e-01  2.37654116e-09  1.88282138e+00  2.37654116e-09  1.80000000e+00  2.37654116e-09  7.04648029e-03  2.37654116e-09  5.88692918e-01                                 
 2.90283438e-09  6.42980235e-01  2.90283438e-09  5.86808554e-01  2.90283438e-09  1.88610120e+00  2.90283438e-09  1.80000000e+00  2.90283438e-09 -6.71615118e-03  2.90283438e-09  5.86808554e-01                                 
 3.56771909e-09  6.40469584e-01  3.56771909e-09  5.84581263e-01  3.56771909e-09  1.88527988e+00  3.56771909e-09  1.80000000e+00  3.56771909e-09  6.53987723e-03  3.56771909e-09  5.84581263e-01                                 
 4.69458664e-09  6.36626968e-01  4.69458664e-09  5.81136977e-01  4.69458664e-09  1.88143767e+00  4.69458664e-09  1.80000000e+00  4.69458664e-09 -6.38822979e-03  4.69458664e-09  5.81136977e-01                                 
 6.47098910e-09  6.31398286e-01  6.47098910e-09  5.76385808e-01  6.47098910e-09  1.87681844e+00  6.47098910e-09  1.80000000e+00  6.47098910e-09  6.34006067e-03  6.47098910e-09  5.76385808e-01                                 
 1.00237940e-08  6.23008815e-01  1.00237940e-08  5.68627250e-01  1.00237940e-08  1.86869551e+00  1.00237940e-08  1.80000000e+00  1.00237940e-08 -6.26972695e-03  1.00237940e-08  5.68627250e-01                                 
 1.21904732e-08  6.18898976e-01  1.21904732e-08  5.64763239e-01  1.21904732e-08  1.86511120e+00  1.21904732e-08  1.80000000e+00  1.21904732e-08  6.23825896e-03  1.21904732e-08  5.64763239e-01                                 
 1.36952848e-08  6.16354163e-01  1.36952848e-08  5.62353546e-01  1.36952848e-08  1.86242839e+00  1.36952848e-08  1.80000000e+00  1.36952848e-08 -6.12517903e-03  1.36952848e-08  5.62353546e-01                                 
 1.52424438e-08  6.13950092e-01  1.52424438e-08  5.60066353e-01  1.52424438e-08  1.86042147e+00  1.52424438e-08  1.80000000e+00  1.52424438e-08  6.06671600e-03  1.52424438e-08  5.60066353e-01                                 
 1.69847877e-08  6.11460401e-01  1.69847877e-08  5.57687366e-01  1.69847877e-08  1.85768835e+00  1.69847877e-08  1.80000000e+00  1.69847877e-08 -5.96995683e-03  1.69847877e-08  5.57687366e-01                                 
 1.90827322e-08  6.08719639e-01  1.90827322e-08  5.55057145e-01  1.90827322e-08  1.85514599e+00  1.90827322e-08  1.80000000e+00  1.90827322e-08  5.93310130e-03  1.90827322e-08  5.55057145e-01                                 
 2.14366356e-08  6.05923618e-01  2.14366356e-08  5.52362499e-01  2.14366356e-08  1.85178521e+00  2.14366356e-08  1.80000000e+00  2.14366356e-08 -5.85745470e-03  2.14366356e-08  5.52362499e-01                                 
 2.50943860e-08  6.02043697e-01  2.50943860e-08  5.48606633e-01  2.50943860e-08  1.84730074e+00  2.50943860e-08  1.80000000e+00  2.50943860e-08  5.84624848e-03  2.50943860e-08  5.48606633e-01                                 
 2.87502854e-08  5.98617390e-01  2.87502854e-08  5.45275965e-01  2.87502854e-08  1.84203732e+00  2.87502854e-08  1.80000000e+00  2.87502854e-08 -5.79003231e-03  2.87502854e-08  5.45275965e-01                                 
 3.60620843e-08  5.92673319e-01  3.60620843e-08  5.39485314e-01  3.60620843e-08  1.83188276e+00  3.60620843e-08  1.80000000e+00  3.60620843e-08  5.79607777e-03  3.60620843e-08  5.39485314e-01                                 
 4.67235765e-08  5.85196293e-01  4.67235765e-08  5.32254793e-01  4.67235765e-08  1.81831979e+00  4.67235765e-08  1.80000000e+00  4.67235765e-08 -5.76142853e-03  4.67235765e-08  5.32254793e-01                                 
 6.46747634e-08  5.74260089e-01  6.46747634e-08  5.21858685e-01  6.46747634e-08  1.80019396e+00  6.46747634e-08  1.80000000e+00  6.46747634e-08  5.77849904e-03  6.46747634e-08  5.21858685e-01                                 
 8.18782174e-08  5.62982017e-01  8.18782174e-08  5.11645229e-01  8.18782174e-08  1.77439297e+00  8.18782174e-08  1.80000000e+00  8.18782174e-08 -5.74836440e-03  8.18782174e-08  5.11645229e-01                                 
 9.87314380e-08  5.54500749e-01  9.87314380e-08  5.03901048e-01  9.87314380e-08  1.74201327e+00  9.87314380e-08  1.80000000e+00  9.87314380e-08  5.76425572e-03  9.87314380e-08  5.03901048e-01                                 
 1.20827102e-07  5.44920397e-01  1.20827102e-07  4.95206534e-01  1.20827102e-07  1.70250899e+00  1.20827102e-07  1.80000000e+00  1.20827102e-07 -5.73542181e-03  1.20827102e-07  4.95206534e-01                                 
 1.44132556e-07  5.41408580e-01  1.44132556e-07  4.91439260e-01  1.44132556e-07  1.67708647e+00  1.44132556e-07  1.80000000e+00  1.44132556e-07  5.75524952e-03  1.44132556e-07  4.91439260e-01                                 
 1.78880760e-07  5.44388021e-01  1.78880760e-07  4.92517849e-01  1.78880760e-07  1.66131284e+00  1.78880760e-07  1.80000000e+00  1.78880760e-07 -5.72549460e-03  1.78880760e-07  4.92517849e-01                                 
 1.99081433e-07  5.43043608e-01  1.99081433e-07  4.90802015e-01  1.99081433e-07  1.64023454e+00  1.99081433e-07  1.80000000e+00  1.99081433e-07  5.74474414e-03  1.99081433e-07  4.90802015e-01                                 
 2.23317067e-07  5.37143130e-01  2.23317067e-07  4.85433470e-01  2.23317067e-07  1.60924104e+00  2.23317067e-07  1.80000000e+00  2.23317067e-07 -5.71541254e-03  2.23317067e-07  4.85433470e-01                                 
 2.47936819e-07  5.30492349e-01  2.47936819e-07  4.79538299e-01  2.47936819e-07  1.57823355e+00  2.47936819e-07  1.80000000e+00  2.47936819e-07  5.73491230e-03  2.47936819e-07  4.79538299e-01                                 
 2.74843649e-07  5.23578308e-01  2.74843649e-07  4.73453364e-01  2.74843649e-07  1.54473994e+00  2.74843649e-07  1.80000000e+00  2.74843649e-07 -5.70614463e-03  2.74843649e-07  4.73453364e-01                                 
 3.23115109e-07  5.10742795e-01  3.23115109e-07  4.62364859e-01  3.23115109e-07  1.48306203e+00  3.23115109e-07  1.80000000e+00  3.23115109e-07  5.72796351e-03  3.23115109e-07  4.62364859e-01                                 
 3.98038272e-07  4.92963132e-01  3.98038272e-07  4.47186560e-01  3.98038272e-07  1.38904547e+00  3.98038272e-07  1.80000000e+00  3.98038272e-07 -5.70200992e-03  3.98038272e-07  4.47186560e-01                                 
 4.88579901e-07  4.58504552e-01  4.88579901e-07  4.18994685e-01  4.88579901e-07  1.26189484e+00  4.88579901e-07  1.80000000e+00  4.88579901e-07  5.72461247e-03  4.88579901e-07  4.18994685e-01                                 
 5.79212259e-07  4.28553504e-01  5.79212259e-07  3.94729442e-01  5.79212259e-07  1.13878134e+00  5.79212259e-07  1.80000000e+00  5.79212259e-07 -5.69921420e-03  5.79212259e-07  3.94729442e-01                                 
 6.66423050e-07  5.11340775e-01  6.66423050e-07  4.60656670e-01  6.66423050e-07  1.12705778e+00  6.66423050e-07  1.80000000e+00  6.66423050e-07  5.72656398e-03  6.66423050e-07  4.60656670e-01                                 
 6.79358219e-07  5.74057282e-01  6.79358219e-07  5.11339599e-01  6.79358219e-07  1.17356864e+00  6.79358219e-07  1.80000000e+00  6.79358219e-07  1.21417932e-05  6.79358219e-07  5.11339599e-01                                 
 7.05228557e-07  6.84648607e-01  7.05228557e-07  6.21872421e-01  7.05228557e-07  1.25297009e+00  7.05228557e-07  1.80000000e+00  7.05228557e-07  8.85708743e-06  7.05228557e-07  6.21872421e-01                                 
 7.50191409e-07  7.55122302e-01  7.50191409e-07  6.92266091e-01  7.50191409e-07  1.27438073e+00  7.50191409e-07  1.80000000e+00  7.50191409e-07  4.44958350e-07  7.50191409e-07  6.92266091e-01                                 
 7.96237362e-07  7.83692724e-01  7.96237362e-07  7.16069909e-01  7.96237362e-07  1.25252720e+00  7.96237362e-07  1.80000000e+00  7.96237362e-07  3.86771497e-06  7.96237362e-07  7.16069909e-01                                 
 8.46934462e-07  7.84589879e-01  8.46934462e-07  7.16988559e-01  8.46934462e-07  1.20162579e+00  8.46934462e-07  1.80000000e+00  8.46934462e-07 -2.28053279e-06  8.46934462e-07  7.16988559e-01                                 
 8.98110019e-07  7.83784398e-01  8.98110019e-07  7.16157717e-01  8.98110019e-07  1.14608938e+00  8.98110019e-07  1.80000000e+00  8.98110019e-07  3.61481522e-06  8.98110019e-07  7.16157717e-01                                 
 9.51785880e-07  7.56857627e-01  9.51785880e-07  6.93893681e-01  9.51785880e-07  1.06655839e+00  9.51785880e-07  1.80000000e+00  9.51785880e-07 -4.39781202e-06  9.51785880e-07  6.93893681e-01                                 
 1.00645173e-06  7.22796012e-01  1.00645173e-06  6.61929928e-01  1.00645173e-06  9.81159630e-01  1.00645173e-06  1.80000000e+00  1.00645173e-06  2.96647205e-06  1.00645173e-06  6.61929928e-01                                 
 1.06598289e-06  7.51387352e-01  1.06598289e-06  6.88944072e-01  1.06598289e-06  9.58760013e-01  1.06598289e-06  1.80000000e+00  1.06598289e-06  1.11180413e-06  1.06598289e-06  6.88944072e-01                                 
 1.12658287e-06  7.74655982e-01  1.12658287e-06  7.08725225e-01  1.12658287e-06  9.33239503e-01  1.12658287e-06  1.80000000e+00  1.12658287e-06  2.47231192e-06  1.12658287e-06  7.08725225e-01                                 
 1.20108187e-06  7.57638957e-01  1.20108187e-06  6.94518794e-01  1.20108187e-06  8.69172014e-01  1.20108187e-06  1.80000000e+00  1.20108187e-06 -1.51222304e-06  1.20108187e-06  6.94518794e-01                                 
 1.27020173e-06  7.43196724e-01  1.27020173e-06  6.81198596e-01  1.27020173e-06  8.14588387e-01  1.27020173e-06  1.80000000e+00  1.27020173e-06  2.59432863e-06  1.27020173e-06  6.81198596e-01                                 
 1.34554078e-06  7.61870374e-01  1.34554078e-06  6.98135199e-01  1.34554078e-06  7.89579798e-01  1.34554078e-06  1.80000000e+00  1.34554078e-06  6.73750855e-07  1.34554078e-06  6.98135199e-01                                 
 1.42389509e-06  7.63808114e-01  1.42389509e-06  6.99586650e-01  1.42389509e-06  7.52936020e-01  1.42389509e-06  1.80000000e+00  1.42389509e-06  1.63170396e-06  1.42389509e-06  6.99586650e-01                                 
 1.50687667e-06  7.53194122e-01  1.50687667e-06  6.90561758e-01  1.50687667e-06  7.15478099e-01  1.50687667e-06  1.80000000e+00  1.50687667e-06  1.70123566e-07  1.50687667e-06  6.90561758e-01                                 
 1.61178354e-06  7.57209552e-01  1.61178354e-06  6.93829475e-01  1.61178354e-06  6.98837994e-01  1.61178354e-06  1.80000000e+00  1.61178354e-06  2.45951253e-06  1.61178354e-06  6.93829475e-01                                 
 1.62857126e-06  7.60868119e-01  1.62857126e-06  6.97140818e-01  1.62857126e-06  7.00218114e-01  1.62857126e-06  1.80000000e+00  1.62857126e-06  1.75986547e-06  1.62857126e-06  6.97140818e-01                                 
 1.66214671e-06  7.62759018e-01  1.66214671e-06  6.98798960e-01  1.66214671e-06  6.98031124e-01  1.66214671e-06  1.80000000e+00  1.66214671e-06  1.02163169e-06  1.66214671e-06  6.98798960e-01                                 
 1.72929759e-06  7.55982983e-01  1.72929759e-06  6.92887556e-01  1.72929759e-06  6.85247272e-01  1.72929759e-06  1.80000000e+00  1.72929759e-06  1.08103997e-06  1.72929759e-06  6.92887556e-01                                 
 1.82214192e-06  7.56592152e-01  1.82214192e-06  6.93418032e-01  1.82214192e-06  6.80248562e-01  1.82214192e-06  1.80000000e+00  1.82214192e-06  1.52156406e-06  1.82214192e-06  6.93418032e-01                                 
 1.91887528e-06  7.61132949e-01  1.91887528e-06  6.97383797e-01  1.91887528e-06  6.91462721e-01  1.91887528e-06  1.80000000e+00  1.91887528e-06  1.35960902e-06  1.91887528e-06  6.97383797e-01                                 
 2.05106609e-06  7.55632763e-01  2.05106609e-06  6.92583098e-01  2.05106609e-06  6.95704446e-01  2.05106609e-06  1.80000000e+00  2.05106609e-06  1.12404493e-06  2.05106609e-06  6.92583098e-01                                 
 2.21342172e-06  7.59313780e-01  2.21342172e-06  6.95795729e-01  2.21342172e-06  6.94522152e-01  2.21342172e-06  1.80000000e+00  2.21342172e-06  1.57096802e-06  2.21342172e-06  6.95795729e-01                                 
 2.37148892e-06  7.58263799e-01  2.37148892e-06  6.94896623e-01  2.37148892e-06  6.95181096e-01  2.37148892e-06  1.80000000e+00  2.37148892e-06  1.02655208e-06  2.37148892e-06  6.94896623e-01                                 
 2.55122554e-06  7.57110444e-01  2.55122554e-06  6.93867934e-01  2.55122554e-06  6.94223952e-01  2.55122554e-06  1.80000000e+00  2.55122554e-06  1.56081207e-06  2.55122554e-06  6.93867934e-01                                 
 2.89901478e-06  7.59440653e-01  2.89901478e-06  6.95922356e-01  2.89901478e-06  6.95784084e-01  2.89901478e-06  1.80000000e+00  2.89901478e-06  1.08532376e-06  2.89901478e-06  6.95922356e-01                                 
 3.30770772e-06  7.56640950e-01  3.30770772e-06  6.93456978e-01  3.30770772e-06  6.93848949e-01  3.30770772e-06  1.80000000e+00  3.30770772e-06  1.50210479e-06  3.30770772e-06  6.93456978e-01                                 
 3.98717882e-06  7.59628602e-01  3.98717882e-06  6.96084808e-01  3.98717882e-06  6.95961210e-01  3.98717882e-06  1.80000000e+00  3.98717882e-06  1.13394465e-06  3.98717882e-06  6.96084808e-01                                 
 4.87048953e-06  7.56580515e-01  4.87048953e-06  6.93404744e-01  4.87048953e-06  6.93776022e-01  4.87048953e-06  1.80000000e+00  4.87048953e-06  1.46819567e-06  4.87048953e-06  6.93404744e-01                                 
 5.87048953e-06  7.59635024e-01  5.87048953e-06  6.96089679e-01  5.87048953e-06  6.95988006e-01  5.87048953e-06  1.80000000e+00  5.87048953e-06  1.16205581e-06  5.87048953e-06  6.96089679e-01                                 
 6.87048953e-06  7.56605432e-01  6.87048953e-06  6.93427365e-01  6.87048953e-06  6.93775972e-01  6.87048953e-06  1.80000000e+00  6.87048953e-06  1.44190006e-06  6.87048953e-06  6.93427365e-01                                 
 7.87048953e-06  7.59584949e-01  7.87048953e-06  6.96045407e-01  7.87048953e-06  6.95967286e-01  7.87048953e-06  1.80000000e+00  7.87048953e-06  1.18803251e-06  7.87048953e-06  6.96045407e-01                                 
 8.87048953e-06  7.56687070e-01  8.87048953e-06  6.93500516e-01  8.87048953e-06  6.93823906e-01  8.87048953e-06  1.80000000e+00  8.87048953e-06  1.41648997e-06  8.87048953e-06  6.93500516e-01                                 
 9.87048953e-06  7.59491639e-01  9.87048953e-06  6.95964362e-01  9.87048953e-06  6.95909636e-01  9.87048953e-06  1.80000000e+00  9.87048953e-06  1.21269040e-06  9.87048953e-06  6.95964362e-01                                 
 1.00005000e-05  7.57410459e-01  1.00005000e-05  6.94137299e-01  1.00005000e-05  6.94401960e-01  1.00005000e-05  1.80000000e+00  1.00005000e-05  1.33534404e-06  1.00005000e-05  6.94137299e-01                                 
 1.00005500e-05  7.57410445e-01  1.00005500e-05  6.94137456e-01  1.00005500e-05  6.87398412e-01  1.00005500e-05  1.62000000e+00  1.00005500e-05 -1.20787476e-04  1.00005500e-05  6.94137456e-01                                 
 1.00006500e-05  7.57410127e-01  1.00006500e-05  6.94137559e-01  1.00006500e-05  6.76529179e-01  1.00006500e-05  1.26000000e+00  1.00006500e-05 -7.96068361e-05  1.00006500e-05  6.94137559e-01                                 
 1.00008500e-05  7.57408349e-01  1.00008500e-05  6.94136710e-01  1.00008500e-05  6.70608129e-01  1.00008500e-05  5.40000000e-01  1.00008500e-05 -3.88053581e-03  1.00008500e-05  6.94136710e-01                                 
 1.00010000e-05  7.57406249e-01  1.00010000e-05  6.94135303e-01  1.00010000e-05  7.11871390e-01  1.00010000e-05  0.00000000e+00  1.00010000e-05  1.51648461e+00  1.00010000e-05  6.94135303e-01                                 
