 time            v(vbep)         time            v(vben)         time            v(vout)         time            v(vphi1)        time            v(vphi2)        time            v(vref)         time            v(voutc)        time            v(voutcc)       yes             currtemp       
 0.00000000e+00  7.31264881e-01  0.00000000e+00  6.66970101e-01  0.00000000e+00  1.51913947e+00  0.00000000e+00  0.00000000e+00  0.00000000e+00  1.80000000e+00  0.00000000e+00  6.68179823e-01  0.00000000e+00  1.51913946e+00  0.00000000e+00  1.52633915e+00  1.00000000e+00  5.50000000e+01 
 1.00000000e-11  7.31289994e-01  1.00000000e-11  6.67042150e-01  1.00000000e-11  1.51991059e+00  1.00000000e-11  1.80000000e-02  1.00000000e-11  1.80025329e+00  1.00000000e-11  6.68713910e-01  1.00000000e-11  1.51961130e+00  1.00000000e-11  1.52635328e+00                                 
 2.00000000e-11  7.31296853e-01  2.00000000e-11  6.67086942e-01  2.00000000e-11  1.52037689e+00  2.00000000e-11  3.60000000e-02  2.00000000e-11  1.80035284e+00  2.00000000e-11  6.69109316e-01  2.00000000e-11  1.51996637e+00  2.00000000e-11  1.52635844e+00                                 
 4.00000000e-11  7.31296868e-01  4.00000000e-11  6.67145678e-01  4.00000000e-11  1.52092907e+00  4.00000000e-11  7.20000000e-02  4.00000000e-11  1.80038983e+00  4.00000000e-11  6.69687203e-01  4.00000000e-11  1.52049358e+00  4.00000000e-11  1.52636004e+00                                 
 8.00000000e-11  7.31285239e-01  8.00000000e-11  6.67182937e-01  8.00000000e-11  1.52101969e+00  8.00000000e-11  1.44000000e-01  8.00000000e-11  1.80018468e+00  8.00000000e-11  6.70136380e-01  8.00000000e-11  1.52091777e+00  8.00000000e-11  1.52634951e+00                                 
 1.60000000e-10  7.31282494e-01  1.60000000e-10  6.67193194e-01  1.60000000e-10  1.52068254e+00  1.60000000e-10  2.88000000e-01  1.60000000e-10  1.80000529e+00  1.60000000e-10  6.70223968e-01  1.60000000e-10  1.52096357e+00  1.60000000e-10  1.52634019e+00                                 
 3.20000000e-10  7.31278117e-01  3.20000000e-10  6.67186096e-01  3.20000000e-10  1.52029933e+00  3.20000000e-10  5.76000000e-01  3.20000000e-10  1.79998390e+00  3.20000000e-10  6.70064335e-01  3.20000000e-10  1.52062699e+00  3.20000000e-10  1.52633534e+00                                 
 6.40000000e-10  7.31194708e-01  6.40000000e-10  6.66774980e-01  6.40000000e-10  1.51849233e+00  6.40000000e-10  1.15200000e+00  6.40000000e-10  1.81043388e+00  6.40000000e-10  6.67465694e-01  6.40000000e-10  1.52477202e+00  6.40000000e-10  1.52636185e+00                                 
 1.00000000e-09  7.31791163e-01  1.00000000e-09  6.67118451e-01  1.00000000e-09  1.49654937e+00  1.00000000e-09  1.80000000e+00  1.00000000e-09  9.98062950e-02  1.00000000e-09  6.81674593e-01  1.00000000e-09  1.52829336e+00  1.00000000e-09  1.52634922e+00                                 
 1.03692910e-09  7.31855310e-01  1.03692910e-09  6.67139804e-01  1.03692910e-09  1.49524634e+00  1.03692910e-09  1.80000000e+00  1.03692910e-09  2.30674269e-02  1.03692910e-09  6.84833159e-01  1.03692910e-09  1.53004606e+00  1.03692910e-09  1.52637871e+00                                 
 1.11078730e-09  7.32008791e-01  1.11078730e-09  6.67189964e-01  1.11078730e-09  1.49364992e+00  1.11078730e-09  1.80000000e+00  1.11078730e-09 -1.08945261e-02  1.11078730e-09  6.88879576e-01  1.11078730e-09  1.53319388e+00  1.11078730e-09  1.52639781e+00                                 
 1.25850371e-09  7.32136048e-01  1.25850371e-09  6.67049892e-01  1.25850371e-09  1.49077787e+00  1.25850371e-09  1.80000000e+00  1.25850371e-09  8.77675457e-03  1.25850371e-09  6.89014718e-01  1.25850371e-09  1.53358595e+00  1.25850371e-09  1.52634992e+00                                 
 1.45000805e-09  7.32108977e-01  1.45000805e-09  6.67030186e-01  1.45000805e-09  1.49000993e+00  1.45000805e-09  1.80000000e+00  1.45000805e-09 -6.72574601e-03  1.45000805e-09  6.88191553e-01  1.45000805e-09  1.53267055e+00  1.45000805e-09  1.52638481e+00                                 
 1.66335374e-09  7.32011525e-01  1.66335374e-09  6.67026719e-01  1.66335374e-09  1.48977327e+00  1.66335374e-09  1.80000000e+00  1.66335374e-09  5.64112049e-03  1.66335374e-09  6.86680701e-01  1.66335374e-09  1.53156561e+00  1.66335374e-09  1.52640802e+00                                 
 2.01897869e-09  7.31764660e-01  2.01897869e-09  6.66980797e-01  2.01897869e-09  1.48948161e+00  2.01897869e-09  1.80000000e+00  2.01897869e-09 -5.05003684e-03  2.01897869e-09  6.84138012e-01  2.01897869e-09  1.52923347e+00  2.01897869e-09  1.52652038e+00                                 
 2.50550368e-09  7.31508613e-01  2.50550368e-09  6.66983812e-01  2.50550368e-09  1.48936156e+00  2.50550368e-09  1.80000000e+00  2.50550368e-09  4.56574013e-03  2.50550368e-09  6.81224727e-01  2.50550368e-09  1.52688668e+00  2.50550368e-09  1.52667012e+00                                 
 3.20554068e-09  7.31263384e-01  3.20554068e-09  6.66937887e-01  3.20554068e-09  1.48838322e+00  3.20554068e-09  1.80000000e+00  3.20554068e-09 -4.38762482e-03  3.20554068e-09  6.77246976e-01  3.20554068e-09  1.52335090e+00  3.20554068e-09  1.52689136e+00                                 
 4.27252429e-09  7.31117256e-01  4.27252429e-09  6.66954916e-01  4.27252429e-09  1.48698058e+00  4.27252429e-09  1.80000000e+00  4.27252429e-09  4.16704901e-03  4.27252429e-09  6.73112284e-01  4.27252429e-09  1.51995089e+00  4.27252429e-09  1.52711740e+00                                 
 5.96744560e-09  7.31047010e-01  5.96744560e-09  6.66930110e-01  5.96744560e-09  1.48301883e+00  5.96744560e-09  1.80000000e+00  5.96744560e-09 -4.10314545e-03  5.96744560e-09  6.68778501e-01  5.96744560e-09  1.51613213e+00  5.96744560e-09  1.52722982e+00                                 
 7.47198441e-09  7.31081776e-01  7.47198441e-09  6.66965940e-01  7.47198441e-09  1.47845331e+00  7.47198441e-09  1.80000000e+00  7.47198441e-09  3.97863043e-03  7.47198441e-09  6.67244617e-01  7.47198441e-09  1.51495067e+00  7.47198441e-09  1.52711047e+00                                 
 8.88848672e-09  7.31111174e-01  8.88848672e-09  6.66943404e-01  8.88848672e-09  1.47244201e+00  8.88848672e-09  1.80000000e+00  8.88848672e-09 -3.87787658e-03  8.88848672e-09  6.66243431e-01  8.88848672e-09  1.51397556e+00  8.88848672e-09  1.52690389e+00                                 
 1.04091025e-08  7.31165783e-01  1.04091025e-08  6.66976606e-01  1.04091025e-08  1.46535392e+00  1.04091025e-08  1.80000000e+00  1.04091025e-08  3.77273445e-03  1.04091025e-08  6.66134060e-01  1.04091025e-08  1.51399400e+00  1.04091025e-08  1.52662782e+00                                 
 1.24653519e-08  7.31203558e-01  1.24653519e-08  6.66952003e-01  1.24653519e-08  1.45390203e+00  1.24653519e-08  1.80000000e+00  1.24653519e-08 -3.70317520e-03  1.24653519e-08  6.65836220e-01  1.24653519e-08  1.51361269e+00  1.24653519e-08  1.52624350e+00                                 
 1.49743047e-08  7.31251547e-01  1.49743047e-08  6.66983109e-01  1.49743047e-08  1.43911918e+00  1.49743047e-08  1.80000000e+00  1.49743047e-08  3.64472365e-03  1.49743047e-08  6.66243583e-01  1.49743047e-08  1.51405529e+00  1.49743047e-08  1.52579104e+00                                 
 1.83714995e-08  7.31265024e-01  1.83714995e-08  6.66955958e-01  1.83714995e-08  1.41733621e+00  1.83714995e-08  1.80000000e+00  1.83714995e-08 -3.60214625e-03  1.83714995e-08  6.66343424e-01  1.83714995e-08  1.51400570e+00  1.83714995e-08  1.52525691e+00                                 
 2.29069621e-08  7.31283238e-01  2.29069621e-08  6.66985131e-01  2.29069621e-08  1.38783742e+00  2.29069621e-08  1.80000000e+00  2.29069621e-08  3.57168168e-03  2.29069621e-08  6.66995044e-01  2.29069621e-08  1.51464752e+00  2.29069621e-08  1.52467659e+00                                 
 3.02027972e-08  7.31270681e-01  3.02027972e-08  6.66956604e-01  3.02027972e-08  1.33910384e+00  3.02027972e-08  1.80000000e+00  3.02027972e-08 -3.55171180e-03  3.02027972e-08  6.67240939e-01  3.02027972e-08  1.51472164e+00  3.02027972e-08  1.52400891e+00                                 
 4.29618582e-08  7.31274617e-01  4.29618582e-08  6.66984819e-01  4.29618582e-08  1.25424097e+00  4.29618582e-08  1.80000000e+00  4.29618582e-08  3.54129641e-03  4.29618582e-08  6.67948314e-01  4.29618582e-08  1.51541351e+00  4.29618582e-08  1.52333651e+00                                 
 6.61876563e-08  7.31260531e-01  6.61876563e-08  6.66955859e-01  6.61876563e-08  1.09993172e+00  6.61876563e-08  1.80000000e+00  6.61876563e-08 -3.53461415e-03  6.61876563e-08  6.68005794e-01  6.61876563e-08  1.51534354e+00  6.61876563e-08  1.52287830e+00                                 
 9.90604890e-08  7.31269249e-01  9.90604890e-08  6.66984347e-01  9.90604890e-08  8.86635689e-01  9.90604890e-08  1.80000000e+00  9.90604890e-08  3.53218505e-03  9.90604890e-08  6.68297886e-01  9.90604890e-08  1.51570050e+00  9.90604890e-08  1.52276121e+00                                 
 1.34773734e-07  7.31262294e-01  1.34773734e-07  6.66955844e-01  1.34773734e-07  7.16717453e-01  1.34773734e-07  1.80000000e+00  1.34773734e-07 -3.52120011e-03  1.34773734e-07  6.68058288e-01  1.34773734e-07  1.51538551e+00  1.34773734e-07  1.52275103e+00                                 
 1.64349463e-07  7.31268263e-01  1.64349463e-07  6.66984587e-01  1.64349463e-07  6.70694369e-01  1.64349463e-07  1.80000000e+00  1.64349463e-07  3.52975132e-03  1.64349463e-07  6.68306872e-01  1.64349463e-07  1.51570543e+00  1.64349463e-07  1.52274928e+00                                 
 1.92557849e-07  7.31259140e-01  1.92557849e-07  6.66955414e-01  1.92557849e-07  6.69426855e-01  1.92557849e-07  1.80000000e+00  1.92557849e-07 -3.50994217e-03  1.92557849e-07  6.68057563e-01  1.92557849e-07  1.51538307e+00  1.92557849e-07  1.52274984e+00                                 
 2.15703763e-07  7.31270386e-01  2.15703763e-07  6.66984798e-01  2.15703763e-07  6.69476239e-01  2.15703763e-07  1.80000000e+00  2.15703763e-07  3.51927955e-03  2.15703763e-07  6.68302098e-01  2.15703763e-07  1.51569946e+00  2.15703763e-07  1.52274659e+00                                 
 2.40403597e-07  7.31259415e-01  2.40403597e-07  6.66955390e-01  2.40403597e-07  6.69363492e-01  2.40403597e-07  1.80000000e+00  2.40403597e-07 -3.49879567e-03  2.40403597e-07  6.68057771e-01  2.40403597e-07  1.51538175e+00  2.40403597e-07  1.52274639e+00                                 
 2.89803263e-07  7.31270309e-01  2.89803263e-07  6.66984799e-01  2.89803263e-07  6.69481560e-01  2.89803263e-07  1.80000000e+00  2.89803263e-07  3.51115129e-03  2.89803263e-07  6.68301765e-01  2.89803263e-07  1.51569656e+00  2.89803263e-07  1.52274323e+00                                 
 3.88602596e-07  7.31259473e-01  3.88602596e-07  6.66955397e-01  3.88602596e-07  6.69355228e-01  3.88602596e-07  1.80000000e+00  3.88602596e-07 -3.49474620e-03  3.88602596e-07  6.68057864e-01  3.88602596e-07  1.51537696e+00  3.88602596e-07  1.52274102e+00                                 
 5.86201263e-07  7.31270281e-01  5.86201263e-07  6.66984795e-01  5.86201263e-07  6.69484622e-01  5.86201263e-07  1.80000000e+00  5.86201263e-07  3.50912228e-03  5.86201263e-07  6.68301725e-01  5.86201263e-07  1.51568664e+00  5.86201263e-07  1.52273338e+00                                 
 9.81398595e-07  7.31259487e-01  9.81398595e-07  6.66955399e-01  9.81398595e-07  6.69353675e-01  9.81398595e-07  1.80000000e+00  9.81398595e-07 -3.49373881e-03  9.81398595e-07  6.68057882e-01  9.81398595e-07  1.51535727e+00  9.81398595e-07  1.52272133e+00                                 
 1.77179326e-06  7.31270274e-01  1.77179326e-06  6.66984794e-01  1.77179326e-06  6.69485315e-01  1.77179326e-06  1.80000000e+00  1.77179326e-06  3.50861523e-03  1.77179326e-06  6.68301715e-01  1.77179326e-06  1.51564717e+00  1.77179326e-06  1.52269398e+00                                 
 2.97179326e-06  7.31259491e-01  2.97179326e-06  6.66955400e-01  2.97179326e-06  6.69353268e-01  2.97179326e-06  1.80000000e+00  2.97179326e-06 -3.49347124e-03  2.97179326e-06  6.68057887e-01  2.97179326e-06  1.51529108e+00  2.97179326e-06  1.52265521e+00                                 
 4.17179326e-06  7.31270271e-01  4.17179326e-06  6.66984793e-01  4.17179326e-06  6.69485611e-01  4.17179326e-06  1.80000000e+00  4.17179326e-06  3.50839350e-03  4.17179326e-06  6.68301712e-01  4.17179326e-06  1.51556742e+00  4.17179326e-06  1.52261434e+00                                 
 5.37179326e-06  7.31259494e-01  5.37179326e-06  6.66955400e-01  5.37179326e-06  6.69352950e-01  5.37179326e-06  1.80000000e+00  5.37179326e-06 -3.49325638e-03  5.37179326e-06  6.68057891e-01  5.37179326e-06  1.51521136e+00  5.37179326e-06  1.52257559e+00                                 
 6.00100000e-06  7.31270266e-01  6.00100000e-06  6.66984792e-01  6.00100000e-06  6.69486035e-01  6.00100000e-06  1.80000000e+00  6.00100000e-06  3.50806996e-03  6.00100000e-06  6.68301707e-01  6.00100000e-06  1.51550660e+00  6.00100000e-06  1.52255360e+00                                 
 6.00110000e-06  7.31218288e-01  6.00110000e-06  6.66732325e-01  6.00110000e-06  6.67611286e-01  6.00110000e-06  1.62000000e+00  6.00110000e-06  2.06145046e-04  6.00110000e-06  6.66611010e-01  6.00110000e-06  1.51401249e+00  6.00110000e-06  1.52254277e+00                                 
 6.00130000e-06  7.31250394e-01  6.00130000e-06  6.66730633e-01  6.00130000e-06  6.67741432e-01  6.00130000e-06  1.26000000e+00  6.00130000e-06 -2.40636399e-04  6.00130000e-06  6.66399715e-01  6.00130000e-06  1.51382598e+00  6.00130000e-06  1.52255941e+00                                 
 6.00165730e-06  7.31312976e-01  6.00165730e-06  6.66926913e-01  6.00165730e-06  6.69722632e-01  6.00165730e-06  6.16854911e-01  6.00165730e-06  3.42360255e-03  6.00165730e-06  6.66748300e-01  6.00165730e-06  1.51085920e+00  6.00165730e-06  1.52253577e+00                                 
 6.00200000e-06  7.31252204e-01  6.00200000e-06  6.65465115e-01  6.00200000e-06  7.02178778e-01  6.00200000e-06  0.00000000e+00  6.00200000e-06  1.60062163e+00  6.00200000e-06  6.51279856e-01  6.00200000e-06  1.31902444e+00  6.00200000e-06  1.52195625e+00                                 
 6.00204103e-06  7.31267249e-01  6.00204103e-06  6.65028062e-01  6.00204103e-06  7.08622815e-01  6.00204103e-06  0.00000000e+00  6.00204103e-06  1.72234992e+00  6.00204103e-06  6.46329556e-01  6.00204103e-06  1.25814182e+00  6.00204103e-06  1.52196212e+00                                 
 6.00212308e-06  7.31267833e-01  6.00212308e-06  6.64236777e-01  6.00212308e-06  7.13269994e-01  6.00212308e-06  0.00000000e+00  6.00212308e-06  1.81334759e+00  6.00212308e-06  6.37618282e-01  6.00212308e-06  1.13215984e+00  6.00212308e-06  1.52232802e+00                                 
 6.00228718e-06  7.31263365e-01  6.00228718e-06  6.64109716e-01  6.00228718e-06  7.04200132e-01  6.00228718e-06  0.00000000e+00  6.00228718e-06  1.78950363e+00  6.00228718e-06  6.37072047e-01  6.00228718e-06  9.31891527e-01  6.00228718e-06  1.52281474e+00                                 
 6.00244134e-06  7.31265820e-01  6.00244134e-06  6.64683149e-01  6.00244134e-06  6.97009596e-01  6.00244134e-06  0.00000000e+00  6.00244134e-06  1.80373846e+00  6.00244134e-06  6.43655036e-01  6.00244134e-06  8.13229337e-01  6.00244134e-06  1.52277825e+00                                 
 6.00262898e-06  7.31262429e-01  6.00262898e-06  6.65544431e-01  6.00262898e-06  6.85104954e-01  6.00262898e-06  0.00000000e+00  6.00262898e-06  1.79674407e+00  6.00262898e-06  6.52251767e-01  6.00262898e-06  7.27776663e-01  6.00262898e-06  1.52299190e+00                                 
 6.00285439e-06  7.31265485e-01  6.00285439e-06  6.66571444e-01  6.00285439e-06  6.75347592e-01  6.00285439e-06  0.00000000e+00  6.00285439e-06  1.80189304e+00  6.00285439e-06  6.62058520e-01  6.00285439e-06  6.89152347e-01  6.00285439e-06  1.52279184e+00                                 
 6.00307089e-06  7.31262753e-01  6.00307089e-06  6.67017820e-01  6.00307089e-06  6.72192532e-01  6.00307089e-06  0.00000000e+00  6.00307089e-06  1.79886811e+00  6.00307089e-06  6.65377761e-01  6.00307089e-06  6.76178724e-01  6.00307089e-06  1.52235631e+00                                 
 6.00332527e-06  7.31265601e-01  6.00332527e-06  6.67348710e-01  6.00332527e-06  6.70380783e-01  6.00332527e-06  0.00000000e+00  6.00332527e-06  1.80082784e+00  6.00332527e-06  6.68082279e-01  6.00332527e-06  6.72223005e-01  6.00332527e-06  1.52141085e+00                                 
 6.00365486e-06  7.31263353e-01  6.00365486e-06  6.67428284e-01  6.00365486e-06  6.70736997e-01  6.00365486e-06  0.00000000e+00  6.00365486e-06  1.79942904e+00  6.00365486e-06  6.68539719e-01  6.00365486e-06  6.70428484e-01  6.00365486e-06  1.52000773e+00                                 
 6.00419059e-06  7.31265854e-01  6.00419059e-06  6.67476035e-01  6.00419059e-06  6.71373449e-01  6.00419059e-06  0.00000000e+00  6.00419059e-06  1.80050060e+00  6.00419059e-06  6.69420966e-01  6.00419059e-06  6.71535633e-01  6.00419059e-06  1.51730389e+00                                 
 6.00503278e-06  7.31263764e-01  6.00503278e-06  6.67382681e-01  6.00503278e-06  6.73927835e-01  6.00503278e-06  0.00000000e+00  6.00503278e-06  1.79958154e+00  6.00503278e-06  6.69212389e-01  6.00503278e-06  6.73245121e-01  6.00503278e-06  1.51275068e+00                                 
 6.00658852e-06  7.31265946e-01  6.00658852e-06  6.67299714e-01  6.00658852e-06  6.77902471e-01  6.00658852e-06  0.00000000e+00  6.00658852e-06  1.80041565e+00  6.00658852e-06  6.69657064e-01  6.00658852e-06  6.77937326e-01  6.00658852e-06  1.50370233e+00                                 
 6.00970000e-06  7.31263811e-01  6.00970000e-06  6.67083735e-01  6.00970000e-06  6.87130877e-01  6.00970000e-06  0.00000000e+00  6.00970000e-06  1.79962145e+00  6.00970000e-06  6.69162301e-01  6.00970000e-06  6.86384727e-01  6.00970000e-06  1.48483385e+00                                 
 6.01592298e-06  7.31265930e-01  6.01592298e-06  6.66964736e-01  6.01592298e-06  7.04150222e-01  6.01592298e-06  0.00000000e+00  6.01592298e-06  1.80039519e+00  6.01592298e-06  6.69170401e-01  6.01592298e-06  7.04174890e-01  6.01592298e-06  1.44605050e+00                                 
 6.02836892e-06  7.31263826e-01  6.02836892e-06  6.66940802e-01  6.02836892e-06  7.37733267e-01  6.02836892e-06  0.00000000e+00  6.02836892e-06  1.79963016e+00  6.02836892e-06  6.68359959e-01  6.02836892e-06  7.36865875e-01  6.02836892e-06  1.37260672e+00                                 
 6.04357232e-06  7.31265930e-01  6.04357232e-06  6.66981032e-01  6.04357232e-06  7.75302000e-01  6.04357232e-06  0.00000000e+00  6.04357232e-06  1.80038814e+00  6.04357232e-06  6.68470381e-01  6.04357232e-06  7.75389751e-01  6.04357232e-06  1.29180915e+00                                 
 6.07397914e-06  7.31263833e-01  6.07397914e-06  6.66954892e-01  6.07397914e-06  8.43434433e-01  6.07397914e-06  0.00000000e+00  6.07397914e-06  1.79963139e+00  6.07397914e-06  6.67995763e-01  6.07397914e-06  8.42010566e-01  6.07397914e-06  1.15092055e+00                                 
 6.12211160e-06  7.31265929e-01  6.12211160e-06  6.66985259e-01  6.12211160e-06  9.30855798e-01  6.12211160e-06  0.00000000e+00  6.12211160e-06  1.80038217e+00  6.12211160e-06  6.68346225e-01  6.12211160e-06  9.31404837e-01  6.12211160e-06  9.99064265e-01                                 
 6.21837653e-06  7.31263834e-01  6.21837653e-06  6.66954981e-01  6.21837653e-06  1.05194242e+00  6.21837653e-06  0.00000000e+00  6.21837653e-06  1.79962677e+00  6.21837653e-06  6.67996648e-01  6.21837653e-06  1.04935344e+00  6.21837653e-06  9.97289872e-01                                 
 6.28011410e-06  7.31265928e-01  6.28011410e-06  6.66985267e-01  6.28011410e-06  1.09959501e+00  6.28011410e-06  0.00000000e+00  6.28011410e-06  1.80037729e+00  6.28011410e-06  6.68355353e-01  6.28011410e-06  1.10082712e+00  6.28011410e-06  1.08651695e+00                                 
