 time            v(vbep)         time            v(vben)         time            v(vout)         time            v(vphi1)        time            v(vphi2)        time            v(vref)         time            v(voutc)        time            v(voutcc)       yes             currtemp       
 0.00000000e+00  6.97597017e-01  0.00000000e+00  6.28498042e-01  0.00000000e+00  1.45228984e+00  0.00000000e+00  0.00000000e+00  0.00000000e+00  1.79999999e+00  0.00000000e+00  6.28421548e-01  0.00000000e+00  1.45228983e+00  0.00000000e+00  1.46016961e+00  1.00000000e+00  7.70000000e+01 
 1.00000000e-11  6.97622172e-01  1.00000000e-11  6.28571230e-01  1.00000000e-11  1.45304369e+00  1.00000000e-11  1.80000000e-02  1.00000000e-11  1.80025320e+00  1.00000000e-11  6.28952610e-01  1.00000000e-11  1.45275778e+00  1.00000000e-11  1.46018358e+00                                 
 2.00000000e-11  6.97628926e-01  2.00000000e-11  6.28616136e-01  2.00000000e-11  1.45349131e+00  2.00000000e-11  3.60000000e-02  2.00000000e-11  1.80035132e+00  2.00000000e-11  6.29344107e-01  2.00000000e-11  1.45310732e+00  2.00000000e-11  1.46018851e+00                                 
 4.00000000e-11  6.97628794e-01  4.00000000e-11  6.28674406e-01  4.00000000e-11  1.45401046e+00  4.00000000e-11  7.20000000e-02  4.00000000e-11  1.80038549e+00  4.00000000e-11  6.29914897e-01  4.00000000e-11  1.45362307e+00  4.00000000e-11  1.46018982e+00                                 
 8.00000000e-11  6.97617151e-01  8.00000000e-11  6.28709945e-01  8.00000000e-11  1.45406828e+00  8.00000000e-11  1.44000000e-01  8.00000000e-11  1.80017916e+00  8.00000000e-11  6.30358041e-01  8.00000000e-11  1.45403016e+00  8.00000000e-11  1.46017950e+00                                 
 1.60000000e-10  6.97614419e-01  1.60000000e-10  6.28718398e-01  1.60000000e-10  1.45373233e+00  1.60000000e-10  2.88000000e-01  1.60000000e-10  1.80000589e+00  1.60000000e-10  6.30457807e-01  1.60000000e-10  1.45407031e+00  1.60000000e-10  1.46017047e+00                                 
 3.20000000e-10  6.97609382e-01  3.20000000e-10  6.28705895e-01  3.20000000e-10  1.45335089e+00  3.20000000e-10  5.76000000e-01  3.20000000e-10  1.79997983e+00  3.20000000e-10  6.30290812e-01  3.20000000e-10  1.45371508e+00  3.20000000e-10  1.46016509e+00                                 
 6.40000000e-10  6.97527547e-01  6.40000000e-10  6.28245421e-01  6.40000000e-10  1.45174091e+00  6.40000000e-10  1.15200000e+00  6.40000000e-10  1.80828061e+00  6.40000000e-10  6.27119260e-01  6.40000000e-10  1.45657421e+00  6.40000000e-10  1.46018649e+00                                 
 1.00000000e-09  6.98059810e-01  1.00000000e-09  6.28718289e-01  1.00000000e-09  1.43305770e+00  1.00000000e-09  1.80000000e+00  1.00000000e-09  1.10481286e-01  1.00000000e-09  6.44378982e-01  1.00000000e-09  1.46397116e+00  1.00000000e-09  1.46020750e+00                                 
 1.03772122e-09  6.98141813e-01  1.03772122e-09  6.28710883e-01  1.03772122e-09  1.43139198e+00  1.03772122e-09  1.80000000e+00  1.03772122e-09  2.66761925e-02  1.03772122e-09  6.47534436e-01  1.03772122e-09  1.46567926e+00  1.03772122e-09  1.46022246e+00                                 
 1.11316367e-09  6.98327065e-01  1.11316367e-09  6.28721569e-01  1.11316367e-09  1.42921126e+00  1.11316367e-09  1.80000000e+00  1.11316367e-09 -1.21683296e-02  1.11316367e-09  6.51410607e-01  1.11316367e-09  1.46866581e+00  1.11316367e-09  1.46023027e+00                                 
 1.26404857e-09  6.98460368e-01  1.26404857e-09  6.28557504e-01  1.26404857e-09  1.42575633e+00  1.26404857e-09  1.80000000e+00  1.26404857e-09  9.46742577e-03  1.26404857e-09  6.51030212e-01  1.26404857e-09  1.46864115e+00  1.26404857e-09  1.46018525e+00                                 
 1.44450231e-09  6.98426068e-01  1.44450231e-09  6.28547678e-01  1.44450231e-09  1.42469269e+00  1.44450231e-09  1.80000000e+00  1.44450231e-09 -7.14052415e-03  1.44450231e-09  6.49850188e-01  1.44450231e-09  1.46740838e+00  1.44450231e-09  1.46022756e+00                                 
 1.64810395e-09  6.98317451e-01  1.64810395e-09  6.28547749e-01  1.64810395e-09  1.42425608e+00  1.64810395e-09  1.80000000e+00  1.64810395e-09  5.79354902e-03  1.64810395e-09  6.48089418e-01  1.64810395e-09  1.46609447e+00  1.64810395e-09  1.46027272e+00                                 
 1.99705629e-09  6.98061359e-01  1.99705629e-09  6.28509084e-01  1.99705629e-09  1.42362324e+00  1.99705629e-09  1.80000000e+00  1.99705629e-09 -5.12891029e-03  1.99705629e-09  6.45129654e-01  1.99705629e-09  1.46340103e+00  1.99705629e-09  1.46042240e+00                                 
 2.56369313e-09  6.97766039e-01  2.56369313e-09  6.28516587e-01  2.56369313e-09  1.42276668e+00  2.56369313e-09  1.80000000e+00  2.56369313e-09  4.69820167e-03  2.56369313e-09  6.41196395e-01  2.56369313e-09  1.46018233e+00  2.56369313e-09  1.46066502e+00                                 
 3.43344089e-09  6.97509921e-01  3.43344089e-09  6.28470033e-01  3.43344089e-09  1.42012922e+00  3.43344089e-09  1.80000000e+00  3.43344089e-09 -4.51269776e-03  3.43344089e-09  6.36034022e-01  3.43344089e-09  1.45563150e+00  3.43344089e-09  1.46099606e+00                                 
 4.97854026e-09  6.97393394e-01  4.97854026e-09  6.28486086e-01  4.97854026e-09  1.41445932e+00  4.97854026e-09  1.80000000e+00  4.97854026e-09  4.36065306e-03  4.97854026e-09  6.30658470e-01  4.97854026e-09  1.45118135e+00  4.97854026e-09  1.46127754e+00                                 
 6.41540075e-09  6.97390245e-01  6.41540075e-09  6.28458801e-01  6.41540075e-09  1.40737104e+00  6.41540075e-09  1.80000000e+00  6.41540075e-09 -4.24464123e-03  6.41540075e-09  6.27877055e-01  6.41540075e-09  1.44868472e+00  6.41540075e-09  1.46124874e+00                                 
 7.63848627e-09  6.97435949e-01  7.63848627e-09  6.28492384e-01  7.63848627e-09  1.40072700e+00  7.63848627e-09  1.80000000e+00  7.63848627e-09  4.09243067e-03  7.63848627e-09  6.27017675e-01  7.63848627e-09  1.44807930e+00  7.63848627e-09  1.46107505e+00                                 
 8.96298935e-09  6.97465620e-01  8.96298935e-09  6.28468545e-01  8.96298935e-09  1.39212821e+00  8.96298935e-09  1.80000000e+00  8.96298935e-09 -3.96379673e-03  8.96298935e-09  6.26232210e-01  8.96298935e-09  1.44728297e+00  8.96298935e-09  1.46082341e+00                                 
 1.06315102e-08  6.97524175e-01  1.06315102e-08  6.28503983e-01  1.06315102e-08  1.38068862e+00  1.06315102e-08  1.80000000e+00  1.06315102e-08  3.86444234e-03  1.06315102e-08  6.26230420e-01  1.06315102e-08  1.44739052e+00  1.06315102e-08  1.46046453e+00                                 
 1.27423594e-08  6.97554727e-01  1.27423594e-08  6.28478916e-01  1.27423594e-08  1.36453422e+00  1.27423594e-08  1.80000000e+00  1.27423594e-08 -3.78391789e-03  1.27423594e-08  6.26045995e-01  1.27423594e-08  1.44709935e+00  1.27423594e-08  1.46001688e+00                                 
 1.54310139e-08  6.97597362e-01  1.54310139e-08  6.28511740e-01  1.54310139e-08  1.34335712e+00  1.54310139e-08  1.80000000e+00  1.54310139e-08  3.72888242e-03  1.54310139e-08  6.26534114e-01  1.54310139e-08  1.44760851e+00  1.54310139e-08  1.45949526e+00                                 
 1.90144869e-08  6.97601546e-01  1.90144869e-08  6.28483380e-01  1.90144869e-08  1.31370787e+00  1.90144869e-08  1.80000000e+00  1.90144869e-08 -3.67954417e-03  1.90144869e-08  6.26672274e-01  1.90144869e-08  1.44758782e+00  1.90144869e-08  1.45891588e+00                                 
 2.42701289e-08  6.97616735e-01  2.42701289e-08  6.28513943e-01  2.42701289e-08  1.27011370e+00  2.42701289e-08  1.80000000e+00  2.42701289e-08  3.65537200e-03  2.42701289e-08  6.27370208e-01  2.42701289e-08  1.44826975e+00  2.42701289e-08  1.45827336e+00                                 
 3.31357004e-08  6.97599711e-01  3.31357004e-08  6.28483977e-01  3.31357004e-08  1.19580578e+00  3.31357004e-08  1.80000000e+00  3.31357004e-08 -3.63230968e-03  3.31357004e-08  6.27643643e-01  3.31357004e-08  1.44836771e+00  3.31357004e-08  1.45759475e+00                                 
 4.66788426e-08  6.97605896e-01  4.66788426e-08  6.28513475e-01  4.66788426e-08  1.08353687e+00  4.66788426e-08  1.80000000e+00  4.66788426e-08  3.62666684e-03  4.66788426e-08  6.28279262e-01  4.66788426e-08  1.44900933e+00  4.66788426e-08  1.45711884e+00                                 
 7.37651268e-08  6.97590003e-01  7.37651268e-08  6.28483026e-01  7.37651268e-08  8.62994881e-01  7.37651268e-08  1.80000000e+00  7.37651268e-08 -3.61407689e-03  7.37651268e-08  6.28278401e-01  7.37651268e-08  1.44889500e+00  7.37651268e-08  1.45690248e+00                                 
 1.03063247e-07  6.97606880e-01  1.03063247e-07  6.28513080e-01  1.03063247e-07  6.81920266e-01  1.03063247e-07  1.80000000e+00  1.03063247e-07  3.62278851e-03  1.03063247e-07  6.28537628e-01  1.03063247e-07  1.44922821e+00  1.03063247e-07  1.45693434e+00                                 
 1.30934512e-07  6.97588215e-01  1.30934512e-07  6.28483388e-01  1.30934512e-07  6.28419438e-01  1.30934512e-07  1.80000000e+00  1.30934512e-07 -3.59502896e-03  1.30934512e-07  6.28313355e-01  1.30934512e-07  1.44892549e+00  1.30934512e-07  1.45695397e+00                                 
 1.53565196e-07  6.97602158e-01  1.53565196e-07  6.28512324e-01  1.53565196e-07  6.29047264e-01  1.53565196e-07  1.80000000e+00  1.53565196e-07  3.61358241e-03  1.53565196e-07  6.28537089e-01  1.53565196e-07  1.44922651e+00  1.53565196e-07  1.45695792e+00                                 
 1.73155529e-07  6.97591539e-01  1.73155529e-07  6.28483788e-01  1.73155529e-07  6.27918719e-01  1.73155529e-07  1.80000000e+00  1.73155529e-07 -3.58102521e-03  1.73155529e-07  6.28305850e-01  1.73155529e-07  1.44891804e+00  1.73155529e-07  1.45695701e+00                                 
 1.94150348e-07  6.97602646e-01  1.94150348e-07  6.28512282e-01  1.94150348e-07  6.28790938e-01  1.94150348e-07  1.80000000e+00  1.94150348e-07  3.59910187e-03  1.94150348e-07  6.28538190e-01  1.94150348e-07  1.44922590e+00  1.94150348e-07  1.45695610e+00                                 
 2.36139985e-07  6.97591244e-01  2.36139985e-07  6.28483781e-01  2.36139985e-07  6.28006263e-01  2.36139985e-07  1.80000000e+00  2.36139985e-07 -3.57062645e-03  2.36139985e-07  6.28304647e-01  2.36139985e-07  1.44891516e+00  2.36139985e-07  1.45695461e+00                                 
 3.09229049e-07  6.97602873e-01  3.09229049e-07  6.28512303e-01  3.09229049e-07  6.28737217e-01  3.09229049e-07  1.80000000e+00  3.09229049e-07  3.59361155e-03  3.09229049e-07  6.28538530e-01  3.09229049e-07  1.44922247e+00  3.09229049e-07  1.45695212e+00                                 
 4.35841485e-07  6.97591115e-01  4.35841485e-07  6.28483767e-01  4.35841485e-07  6.28026434e-01  4.35841485e-07  1.80000000e+00  4.35841485e-07 -3.56749012e-03  4.35841485e-07  6.28304465e-01  4.35841485e-07  1.44890875e+00  4.35841485e-07  1.45694830e+00                                 
 6.79087915e-07  6.97602943e-01  6.79087915e-07  6.28512311e-01  6.79087915e-07  6.28723632e-01  6.79087915e-07  1.80000000e+00  6.79087915e-07  3.59185440e-03  6.79087915e-07  6.28538625e-01  6.79087915e-07  1.44921084e+00  6.79087915e-07  1.45694045e+00                                 
 1.16558077e-06  6.97591079e-01  1.16558077e-06  6.28483763e-01  1.16558077e-06  6.28031680e-01  1.16558077e-06  1.80000000e+00  1.16558077e-06 -3.56659427e-03  1.16558077e-06  6.28304418e-01  1.16558077e-06  1.44888567e+00  1.16558077e-06  1.45692528e+00                                 
 2.13856649e-06  6.97602961e-01  2.13856649e-06  6.28512313e-01  2.13856649e-06  6.28720295e-01  2.13856649e-06  1.80000000e+00  2.13856649e-06  3.59140333e-03  2.13856649e-06  6.28538647e-01  2.13856649e-06  1.44916472e+00  2.13856649e-06  1.45689438e+00                                 
 3.33856649e-06  6.97591069e-01  3.33856649e-06  6.28483762e-01  3.33856649e-06  6.28032121e-01  3.33856649e-06  1.80000000e+00  3.33856649e-06 -3.56631883e-03  3.33856649e-06  6.28304405e-01  3.33856649e-06  1.44881704e+00  3.33856649e-06  1.45685674e+00                                 
 4.53856649e-06  6.97602970e-01  4.53856649e-06  6.28512314e-01  4.53856649e-06  6.28719502e-01  4.53856649e-06  1.80000000e+00  4.53856649e-06  3.59116000e-03  4.53856649e-06  6.28538660e-01  4.53856649e-06  1.44908900e+00  4.53856649e-06  1.45681875e+00                                 
 5.73856649e-06  6.97591060e-01  5.73856649e-06  6.28483761e-01  5.73856649e-06  6.28033809e-01  5.73856649e-06  1.80000000e+00  5.73856649e-06 -3.56607867e-03  5.73856649e-06  6.28304393e-01  5.73856649e-06  1.44874129e+00  5.73856649e-06  1.45678110e+00                                 
 6.00100000e-06  6.97602997e-01  6.00100000e-06  6.28512317e-01  6.00100000e-06  6.28715119e-01  6.00100000e-06  1.80000000e+00  6.00100000e-06  3.59048082e-03  6.00100000e-06  6.28538692e-01  6.00100000e-06  1.44904286e+00  6.00100000e-06  1.45677264e+00                                 
 6.00110000e-06  6.97547062e-01  6.00110000e-06  6.28260214e-01  6.00110000e-06  6.26869833e-01  6.00110000e-06  1.62000000e+00  6.00110000e-06  2.37987616e-04  6.00110000e-06  6.26895779e-01  6.00110000e-06  1.44758839e+00  6.00110000e-06  1.45676215e+00                                 
 6.00130000e-06  6.97579985e-01  6.00130000e-06  6.28253389e-01  6.00130000e-06  6.26788498e-01  6.00130000e-06  1.26000000e+00  6.00130000e-06 -2.66834199e-04  6.00130000e-06  6.26578041e-01  6.00130000e-06  1.44731038e+00  6.00130000e-06  1.45677746e+00                                 
 6.00165094e-06  6.97648567e-01  6.00165094e-06  6.28447918e-01  6.00165094e-06  6.28708800e-01  6.00165094e-06  6.28304306e-01  6.00165094e-06  1.53985452e-02  6.00165094e-06  6.26775546e-01  6.00165094e-06  1.44401553e+00  6.00165094e-06  1.45675294e+00                                 
 6.00200000e-06  6.97579658e-01  6.00200000e-06  6.27118171e-01  6.00200000e-06  6.61457353e-01  6.00200000e-06  0.00000000e+00  6.00200000e-06  1.60907074e+00  6.00200000e-06  6.12874167e-01  6.00200000e-06  1.23879167e+00  6.00200000e-06  1.45617441e+00                                 
 6.00204185e-06  6.97596239e-01  6.00204185e-06  6.26545634e-01  6.00204185e-06  6.68936240e-01  6.00204185e-06  0.00000000e+00  6.00204185e-06  1.72638188e+00  6.00204185e-06  6.06379622e-01  6.00204185e-06  1.17163954e+00  6.00204185e-06  1.45617750e+00                                 
 6.00212556e-06  6.97599329e-01  6.00212556e-06  6.25622858e-01  6.00212556e-06  6.74465233e-01  6.00212556e-06  0.00000000e+00  6.00212556e-06  1.81311036e+00  6.00212556e-06  5.96056015e-01  6.00212556e-06  1.03540049e+00  6.00212556e-06  1.45657240e+00                                 
 6.00229297e-06  6.97594794e-01  6.00229297e-06  6.25626289e-01  6.00229297e-06  6.64028075e-01  6.00229297e-06  0.00000000e+00  6.00229297e-06  1.78926276e+00  6.00229297e-06  5.96618218e-01  6.00229297e-06  8.26796810e-01  6.00229297e-06  1.45705517e+00                                 
 6.00246194e-06  6.97597451e-01  6.00246194e-06  6.26616944e-01  6.00246194e-06  6.50949307e-01  6.00246194e-06  0.00000000e+00  6.00246194e-06  1.80419384e+00  6.00246194e-06  6.07511277e-01  6.00246194e-06  7.15672326e-01  6.00246194e-06  1.45710626e+00                                 
 6.00264079e-06  6.97594448e-01  6.00264079e-06  6.27555437e-01  6.00264079e-06  6.39053696e-01  6.00264079e-06  0.00000000e+00  6.00264079e-06  1.79708518e+00  6.00264079e-06  6.16722283e-01  6.00264079e-06  6.61521756e-01  6.00264079e-06  1.45721342e+00                                 
 6.00285659e-06  6.97597260e-01  6.00285659e-06  6.28380664e-01  6.00285659e-06  6.32519029e-01  6.00285659e-06  0.00000000e+00  6.00285659e-06  1.80189313e+00  6.00285659e-06  6.24439089e-01  6.00285659e-06  6.39882225e-01  6.00285659e-06  1.45659741e+00                                 
 6.00306510e-06  6.97594985e-01  6.00306510e-06  6.28692494e-01  6.00306510e-06  6.30253312e-01  6.00306510e-06  0.00000000e+00  6.00306510e-06  1.79890473e+00  6.00306510e-06  6.26794705e-01  6.00306510e-06  6.32511820e-01  6.00306510e-06  1.45574361e+00                                 
 6.00333153e-06  6.97597459e-01  6.00333153e-06  6.28916683e-01  6.00333153e-06  6.29552878e-01  6.00333153e-06  0.00000000e+00  6.00333153e-06  1.80082256e+00  6.00333153e-06  6.28765870e-01  6.00333153e-06  6.30359836e-01  6.00333153e-06  1.45423129e+00                                 
 6.00371904e-06  6.97595600e-01  6.00371904e-06  6.28948018e-01  6.00371904e-06  6.30071535e-01  6.00371904e-06  0.00000000e+00  6.00371904e-06  1.79939423e+00  6.00371904e-06  6.29089963e-01  6.00371904e-06  6.29754573e-01  6.00371904e-06  1.45186260e+00                                 
 6.00435912e-06  6.97597794e-01  6.00435912e-06  6.28947926e-01  6.00435912e-06  6.31658852e-01  6.00435912e-06  0.00000000e+00  6.00435912e-06  1.80054886e+00  6.00435912e-06  6.29688781e-01  6.00435912e-06  6.31574343e-01  6.00435912e-06  1.44749786e+00                                 
 6.00539558e-06  6.97595995e-01  6.00539558e-06  6.28848406e-01  6.00539558e-06  6.34752685e-01  6.00539558e-06  0.00000000e+00  6.00539558e-06  1.79952595e+00  6.00539558e-06  6.29501367e-01  6.00539558e-06  6.34272886e-01  6.00539558e-06  1.44010074e+00                                 
 6.00746848e-06  6.97597932e-01  6.00746848e-06  6.28731566e-01  6.00746848e-06  6.40951285e-01  6.00746848e-06  0.00000000e+00  6.00746848e-06  1.80047797e+00  6.00746848e-06  6.29758829e-01  6.00746848e-06  6.40797447e-01  6.00746848e-06  1.42442960e+00                                 
 6.01161429e-06  6.97596080e-01  6.01161429e-06  6.28526476e-01  6.01161429e-06  6.53422480e-01  6.01161429e-06  0.00000000e+00  6.01161429e-06  1.79955772e+00  6.01161429e-06  6.29251634e-01  6.01161429e-06  6.52899882e-01  6.01161429e-06  1.39189058e+00                                 
 6.01978126e-06  6.97597941e-01  6.01978126e-06  6.28482075e-01  6.01978126e-06  6.77053149e-01  6.01978126e-06  0.00000000e+00  6.01978126e-06  1.80046124e+00  6.01978126e-06  6.29145285e-01  6.01978126e-06  6.76869041e-01  6.01978126e-06  1.32595839e+00                                 
 6.03210187e-06  6.97596089e-01  6.03210187e-06  6.28481499e-01  6.03210187e-06  7.11231356e-01  6.03210187e-06  0.00000000e+00  6.03210187e-06  1.79956555e+00  6.03210187e-06  6.28530894e-01  6.03210187e-06  7.10627204e-01  6.03210187e-06  1.22695260e+00                                 
 6.04689710e-06  6.97597941e-01  6.04689710e-06  6.28504411e-01  6.04689710e-06  7.49577106e-01  6.04689710e-06  0.00000000e+00  6.04689710e-06  1.80045349e+00  6.04689710e-06  6.28640458e-01  6.04689710e-06  7.49386887e-01  6.04689710e-06  1.11959117e+00                                 
 6.06681317e-06  6.97596094e-01  6.06681317e-06  6.28487232e-01  6.06681317e-06  7.97255569e-01  6.06681317e-06  0.00000000e+00  6.06681317e-06  1.79956855e+00  6.06681317e-06  6.28293579e-01  6.06681317e-06  7.96424912e-01  6.06681317e-06  9.94090418e-01                                 
 6.10114778e-06  6.97597940e-01  6.10114778e-06  6.28508535e-01  6.10114778e-06  8.69101668e-01  6.10114778e-06  0.00000000e+00  6.10114778e-06  1.80044728e+00  6.10114778e-06  6.28548336e-01  6.10114778e-06  8.68907749e-01  6.10114778e-06  8.82513316e-01                                 
 6.13552973e-06  6.97596095e-01  6.13552973e-06  6.28487384e-01  6.13552973e-06  9.29545863e-01  6.13552973e-06  0.00000000e+00  6.13552973e-06  1.79956747e+00  6.13552973e-06  6.28274540e-01  6.13552973e-06  9.28222089e-01  6.13552973e-06  9.01363986e-01                                 
 6.15802149e-06  6.97597938e-01  6.15802149e-06  6.28509058e-01  6.15802149e-06  9.63333989e-01  6.15802149e-06  0.00000000e+00  6.15802149e-06  1.80044196e+00  6.15802149e-06  6.28553781e-01  6.15802149e-06  9.63254782e-01  6.15802149e-06  9.37404595e-01                                 
