 time            v(vbep)         time            v(vben)         time            v(vout)         time            v(vphi1)        time            v(vphi2)        time            v(vref)         time            v(voutc)        time            v(voutcc)       yes             currtemp       
 0.00000000e+00  6.90938217e-01  0.00000000e+00  6.17591213e-01  0.00000000e+00  1.42948816e+00  0.00000000e+00  0.00000000e+00  0.00000000e+00  1.79999998e+00  0.00000000e+00  6.17018417e-01  0.00000000e+00  1.42948814e+00  0.00000000e+00  1.43773326e+00  1.00000000e+00  8.90000000e+01 
 5.00000000e-12  6.90959800e-01  5.00000000e-12  6.17646366e-01  5.00000000e-12  1.43009148e+00  5.00000000e-12  1.80000000e-02  5.00000000e-12  1.80018667e+00  5.00000000e-12  6.17404904e-01  5.00000000e-12  1.42983122e+00  5.00000000e-12  1.43774615e+00                                 
 1.00000000e-11  6.90969174e-01  1.00000000e-11  6.17682156e-01  1.00000000e-11  1.43051695e+00  1.00000000e-11  3.60000000e-02  1.00000000e-11  1.80027029e+00  1.00000000e-11  6.17707087e-01  1.00000000e-11  1.43010040e+00  1.00000000e-11  1.43775267e+00                                 
 2.00000000e-11  6.90975307e-01  2.00000000e-11  6.17731307e-01  2.00000000e-11  1.43111587e+00  2.00000000e-11  7.20000000e-02  2.00000000e-11  1.80032148e+00  2.00000000e-11  6.18178720e-01  2.00000000e-11  1.43052294e+00  2.00000000e-11  1.43775837e+00                                 
 4.00000000e-11  6.90963289e-01  4.00000000e-11  6.17765371e-01  4.00000000e-11  1.43147115e+00  4.00000000e-11  1.44000000e-01  4.00000000e-11  1.80018611e+00  4.00000000e-11  6.18629198e-01  4.00000000e-11  1.43093667e+00  4.00000000e-11  1.43775184e+00                                 
 8.00000000e-11  6.90950428e-01  8.00000000e-11  6.17769703e-01  8.00000000e-11  1.43130461e+00  8.00000000e-11  2.88000000e-01  8.00000000e-11  1.80002964e+00  8.00000000e-11  6.18777792e-01  8.00000000e-11  1.43109388e+00  8.00000000e-11  1.43773847e+00                                 
 1.60000000e-10  6.90950161e-01  1.60000000e-10  6.17754093e-01  1.60000000e-10  1.43081343e+00  1.60000000e-10  5.76000000e-01  1.60000000e-10  1.80000824e+00  1.60000000e-10  6.18601450e-01  1.60000000e-10  1.43094710e+00  1.60000000e-10  1.43773253e+00                                 
 3.20000000e-10  6.90883358e-01  3.20000000e-10  6.17309205e-01  3.20000000e-10  1.42747045e+00  3.20000000e-10  1.15200000e+00  3.20000000e-10  1.80069802e+00  3.20000000e-10  6.14782837e-01  3.20000000e-10  1.42783783e+00  3.20000000e-10  1.43770370e+00                                 
 5.00000000e-10  6.90901802e-01  5.00000000e-10  6.17860986e-01  5.00000000e-10  1.42634552e+00  5.00000000e-10  1.80000000e+00  5.00000000e-10  1.88950291e-01  5.00000000e-10  6.23297006e-01  5.00000000e-10  1.43543032e+00  5.00000000e-10  1.43781032e+00                                 
 5.22099216e-10  6.90910193e-01  5.22099216e-10  6.17870316e-01  5.22099216e-10  1.42552548e+00  5.22099216e-10  1.80000000e+00  5.22099216e-10  5.36352116e-02  5.22099216e-10  6.25067551e-01  5.22099216e-10  1.43637437e+00  5.22099216e-10  1.43779179e+00                                 
 5.66297648e-10  6.91017073e-01  5.66297648e-10  6.17912517e-01  5.66297648e-10  1.42474190e+00  5.66297648e-10  1.80000000e+00  5.66297648e-10 -1.78472160e-02  5.66297648e-10  6.27620456e-01  5.66297648e-10  1.43850187e+00  5.66297648e-10  1.43778419e+00                                 
 6.54694512e-10  6.91144861e-01  6.54694512e-10  6.17733829e-01  6.54694512e-10  1.42170517e+00  6.54694512e-10  1.80000000e+00  6.54694512e-10  1.35290956e-02  6.54694512e-10  6.27946836e-01  6.54694512e-10  1.43903388e+00  6.54694512e-10  1.43773401e+00                                 
 7.75862366e-10  6.91200735e-01  7.75862366e-10  6.17676265e-01  7.75862366e-10  1.41969680e+00  7.75862366e-10  1.80000000e+00  7.75862366e-10 -1.04790671e-02  7.75862366e-10  6.29335527e-01  7.75862366e-10  1.44007010e+00  7.75862366e-10  1.43774480e+00                                 
 9.57030463e-10  6.91270285e-01  9.57030463e-10  6.17645238e-01  9.57030463e-10  1.41811551e+00  9.57030463e-10  1.80000000e+00  9.57030463e-10  9.31096665e-03  9.57030463e-10  6.29960605e-01  9.57030463e-10  1.44078291e+00  9.57030463e-10  1.43772807e+00                                 
 1.30159782e-09  6.91216593e-01  1.30159782e-09  6.17578435e-01  1.30159782e-09  1.41552037e+00  1.30159782e-09  1.80000000e+00  1.30159782e-09 -8.46478008e-03  1.30159782e-09  6.29056276e-01  1.30159782e-09  1.43985466e+00  1.30159782e-09  1.43779141e+00                                 
 1.65924503e-09  6.91156627e-01  1.65924503e-09  6.17605786e-01  1.65924503e-09  1.41371491e+00  1.65924503e-09  1.80000000e+00  1.65924503e-09  7.94942786e-03  1.65924503e-09  6.28360121e-01  1.65924503e-09  1.43937540e+00  1.65924503e-09  1.43789382e+00                                 
 2.29928887e-09  6.91012614e-01  2.29928887e-09  6.17564290e-01  2.29928887e-09  1.40939378e+00  2.29928887e-09  1.80000000e+00  2.29928887e-09 -7.58248910e-03  2.29928887e-09  6.26152351e-01  2.29928887e-09  1.43731372e+00  2.29928887e-09  1.43812258e+00                                 
 3.15343291e-09  6.90942252e-01  3.15343291e-09  6.17596446e-01  3.15343291e-09  1.40403242e+00  3.15343291e-09  1.80000000e+00  3.15343291e-09  7.38878728e-03  3.15343291e-09  6.24310999e-01  3.15343291e-09  1.43581944e+00  3.15343291e-09  1.43842077e+00                                 
 4.64036690e-09  6.90868975e-01  4.64036690e-09  6.17556620e-01  4.64036690e-09  1.39312849e+00  4.64036690e-09  1.80000000e+00  4.64036690e-09 -7.22450363e-03  4.64036690e-09  6.20788707e-01  4.64036690e-09  1.43262186e+00  4.64036690e-09  1.43881039e+00                                 
 7.04285287e-09  6.90882526e-01  7.04285287e-09  6.17597080e-01  7.04285287e-09  1.37544856e+00  7.04285287e-09  1.80000000e+00  7.04285287e-09  7.18614833e-03  7.04285287e-09  6.17970630e-01  7.04285287e-09  1.43028201e+00  7.04285287e-09  1.43907420e+00                                 
 9.65754668e-09  6.90881241e-01  9.65754668e-09  6.17566937e-01  9.65754668e-09  1.35420638e+00  9.65754668e-09  1.80000000e+00  9.65754668e-09 -7.07255668e-03  9.65754668e-09  6.15880241e-01  9.65754668e-09  1.42834126e+00  9.65754668e-09  1.43900164e+00                                 
 1.19575717e-08  6.90916492e-01  1.19575717e-08  6.17607635e-01  1.19575717e-08  1.33514715e+00  1.19575717e-08  1.80000000e+00  1.19575717e-08  7.03717734e-03  1.19575717e-08  6.15682005e-01  1.19575717e-08  1.42827525e+00  1.19575717e-08  1.43879911e+00                                 
 1.44704330e-08  6.90911054e-01  1.44704330e-08  6.17572413e-01  1.44704330e-08  1.31282984e+00  1.44704330e-08  1.80000000e+00  1.44704330e-08 -6.92033518e-03  1.44704330e-08  6.15075290e-01  1.44704330e-08  1.42762075e+00  1.44704330e-08  1.43853134e+00                                 
 1.70890157e-08  6.90939540e-01  1.70890157e-08  6.17610043e-01  1.70890157e-08  1.28974904e+00  1.70890157e-08  1.80000000e+00  1.70890157e-08  6.89735773e-03  1.70890157e-08  6.15524136e-01  1.70890157e-08  1.42811291e+00  1.70890157e-08  1.43826488e+00                                 
 2.07304975e-08  6.90929082e-01  2.07304975e-08  6.17573109e-01  2.07304975e-08  1.25627114e+00  2.07304975e-08  1.80000000e+00  2.07304975e-08 -6.80315344e-03  2.07304975e-08  6.15330735e-01  2.07304975e-08  1.42781837e+00  2.07304975e-08  1.43794092e+00                                 
 2.50841757e-08  6.90951781e-01  2.50841757e-08  6.17610272e-01  2.50841757e-08  1.21654254e+00  2.50841757e-08  1.80000000e+00  2.50841757e-08  6.80860158e-03  2.50841757e-08  6.16046435e-01  2.50841757e-08  1.42854237e+00  2.50841757e-08  1.43765849e+00                                 
 3.12568510e-08  6.90934498e-01  3.12568510e-08  6.17573085e-01  3.12568510e-08  1.15909086e+00  3.12568510e-08  1.80000000e+00  3.12568510e-08 -6.73436004e-03  3.12568510e-08  6.16009042e-01  3.12568510e-08  1.42839039e+00  3.12568510e-08  1.43740574e+00                                 
 3.97667084e-08  6.90951383e-01  3.97667084e-08  6.17610154e-01  3.97667084e-08  1.08077289e+00  3.97667084e-08  1.80000000e+00  3.97667084e-08  6.75999614e-03  3.97667084e-08  6.16762218e-01  3.97667084e-08  1.42915484e+00  3.97667084e-08  1.43726792e+00                                 
 5.46712371e-08  6.90929803e-01  5.46712371e-08  6.17572734e-01  5.46712371e-08  9.44002367e-01  5.46712371e-08  1.80000000e+00  5.46712371e-08 -6.70207382e-03  5.46712371e-08  6.16652410e-01  5.46712371e-08  1.42895209e+00  5.46712371e-08  1.43726884e+00                                 
 8.44802945e-08  6.90947497e-01  8.44802945e-08  6.17609707e-01  8.44802945e-08  7.01851553e-01  8.44802945e-08  1.80000000e+00  8.44802945e-08  6.74492778e-03  8.44802945e-08  6.17210583e-01  8.44802945e-08  1.42955626e+00  8.44802945e-08  1.43745364e+00                                 
 1.03408202e-07  6.90934764e-01  1.03408202e-07  6.17573281e-01  1.03408202e-07  6.25783520e-01  1.03408202e-07  1.80000000e+00  1.03408202e-07 -6.68127491e-03  1.03408202e-07  6.16826495e-01  1.03408202e-07  1.42911286e+00  1.03408202e-07  1.43752682e+00                                 
 1.22446464e-07  6.90940184e-01  1.22446464e-07  6.17608973e-01  1.22446464e-07  6.17539073e-01  1.22446464e-07  1.80000000e+00  1.22446464e-07  6.72969511e-03  1.22446464e-07  6.17222745e-01  1.22446464e-07  1.42956856e+00  1.22446464e-07  1.43756608e+00                                 
 1.35444066e-07  6.90931536e-01  1.35444066e-07  6.17573336e-01  1.35444066e-07  6.16626555e-01  1.35444066e-07  1.80000000e+00  1.35444066e-07 -6.65955697e-03  1.35444066e-07  6.16820351e-01  1.35444066e-07  1.42910774e+00  1.35444066e-07  1.43757100e+00                                 
 1.50436962e-07  6.90945310e-01  1.50436962e-07  6.17609025e-01  1.50436962e-07  6.16853089e-01  1.50436962e-07  1.80000000e+00  1.50436962e-07  6.70564703e-03  1.50436962e-07  6.17218731e-01  1.50436962e-07  1.42956426e+00  1.50436962e-07  1.43757965e+00                                 
 1.76603350e-07  6.90930514e-01  1.76603350e-07  6.17573369e-01  1.76603350e-07  6.16175230e-01  1.76603350e-07  1.80000000e+00  1.76603350e-07 -6.64204894e-03  1.76603350e-07  6.16818677e-01  1.76603350e-07  1.42910525e+00  1.76603350e-07  1.43757741e+00                                 
 2.28936126e-07  6.90946106e-01  2.28936126e-07  6.17609045e-01  2.28936126e-07  6.16685426e-01  2.28936126e-07  1.80000000e+00  2.28936126e-07  6.69604108e-03  2.28936126e-07  6.17218119e-01  2.28936126e-07  1.42956125e+00  2.28936126e-07  1.43758084e+00                                 
 3.27819134e-07  6.90930236e-01  3.27819134e-07  6.17573365e-01  3.27819134e-07  6.16166729e-01  3.27819134e-07  1.80000000e+00  3.27819134e-07 -6.63732302e-03  3.27819134e-07  6.16818611e-01  3.27819134e-07  1.42910053e+00  3.27819134e-07  1.43757330e+00                                 
 5.17749282e-07  6.90946244e-01  5.17749282e-07  6.17609049e-01  5.17749282e-07  6.16682383e-01  5.17749282e-07  1.80000000e+00  5.17749282e-07  6.69347098e-03  5.17749282e-07  6.17218135e-01  5.17749282e-07  1.42955224e+00  5.17749282e-07  1.43757178e+00                                 
 8.93762859e-07  6.90930167e-01  8.93762859e-07  6.17573364e-01  8.93762859e-07  6.16165918e-01  8.93762859e-07  1.80000000e+00  8.93762859e-07 -6.63601165e-03  8.93762859e-07  6.16818604e-01  8.93762859e-07  1.42908287e+00  8.93762859e-07  1.43755568e+00                                 
 1.61450980e-06  6.90946279e-01  1.61450980e-06  6.17609049e-01  1.61450980e-06  6.16681637e-01  1.61450980e-06  1.80000000e+00  1.61450980e-06  6.69279430e-03  1.61450980e-06  6.17218138e-01  1.61450980e-06  1.42951802e+00  1.61450980e-06  1.43753760e+00                                 
 2.61450980e-06  6.90930147e-01  2.61450980e-06  6.17573363e-01  2.61450980e-06  6.16163603e-01  2.61450980e-06  1.80000000e+00  2.61450980e-06 -6.63555538e-03  2.61450980e-06  6.16818603e-01  2.61450980e-06  1.42902921e+00  2.61450980e-06  1.43750208e+00                                 
 3.61450980e-06  6.90946296e-01  3.61450980e-06  6.17609050e-01  3.61450980e-06  6.16683157e-01  3.61450980e-06  1.80000000e+00  3.61450980e-06  6.69247326e-03  3.61450980e-06  6.17218140e-01  3.61450980e-06  1.42945567e+00  3.61450980e-06  1.43747533e+00                                 
 4.61450980e-06  6.90930130e-01  4.61450980e-06  6.17573363e-01  4.61450980e-06  6.16164647e-01  4.61450980e-06  1.80000000e+00  4.61450980e-06 -6.63525719e-03  4.61450980e-06  6.16818601e-01  4.61450980e-06  1.42896685e+00  4.61450980e-06  1.43743980e+00                                 
 5.61450980e-06  6.90946312e-01  5.61450980e-06  6.17609050e-01  5.61450980e-06  6.16682751e-01  5.61450980e-06  1.80000000e+00  5.61450980e-06  6.69213883e-03  5.61450980e-06  6.17218141e-01  5.61450980e-06  1.42939325e+00  5.61450980e-06  1.43741299e+00                                 
 6.61450980e-06  6.90930114e-01  6.61450980e-06  6.17573362e-01  6.61450980e-06  6.16164581e-01  6.61450980e-06  1.80000000e+00  6.61450980e-06 -6.63492631e-03  6.61450980e-06  6.16818600e-01  6.61450980e-06  1.42890441e+00  6.61450980e-06  1.43737745e+00                                 
 7.61450980e-06  6.90946328e-01  7.61450980e-06  6.17609051e-01  7.61450980e-06  6.16682340e-01  7.61450980e-06  1.80000000e+00  7.61450980e-06  6.69180442e-03  7.61450980e-06  6.17218142e-01  7.61450980e-06  1.42933083e+00  7.61450980e-06  1.43735064e+00                                 
 8.61450980e-06  6.90930098e-01  8.61450980e-06  6.17573362e-01  8.61450980e-06  6.16164520e-01  8.61450980e-06  1.80000000e+00  8.61450980e-06 -6.63459545e-03  8.61450980e-06  6.16818598e-01  8.61450980e-06  1.42884202e+00  8.61450980e-06  1.43731514e+00                                 
 9.61450980e-06  6.90946345e-01  9.61450980e-06  6.17609051e-01  9.61450980e-06  6.16681926e-01  9.61450980e-06  1.80000000e+00  9.61450980e-06  6.69147002e-03  9.61450980e-06  6.17218144e-01  9.61450980e-06  1.42926845e+00  9.61450980e-06  1.43728835e+00                                 
 1.00005000e-05  6.90930069e-01  1.00005000e-05  6.17573361e-01  1.00005000e-05  6.16165241e-01  1.00005000e-05  1.80000000e+00  1.00005000e-05 -6.63402452e-03  1.00005000e-05  6.16818596e-01  1.00005000e-05  1.42879880e+00  1.00005000e-05  1.43727196e+00                                 
 1.00005500e-05  6.90900020e-01  1.00005500e-05  6.17399436e-01  1.00005500e-05  6.14629170e-01  1.00005500e-05  1.62000000e+00  1.00005500e-05 -8.13711376e-04  1.00005500e-05  6.15547157e-01  1.00005500e-05  1.42773192e+00  1.00005500e-05  1.43725948e+00                                 
 1.00006500e-05  6.90927257e-01  1.00006500e-05  6.17366769e-01  1.00006500e-05  6.14473984e-01  1.00006500e-05  1.26000000e+00  1.00006500e-05  5.85163351e-04  1.00006500e-05  6.15065591e-01  1.00006500e-05  1.42732199e+00  1.00006500e-05  1.43727350e+00                                 
 1.00008500e-05  6.90981931e-01  1.00008500e-05  6.17538716e-01  1.00008500e-05  6.16657141e-01  1.00008500e-05  5.40000000e-01  1.00008500e-05  4.56233135e-02  1.00008500e-05  6.15459309e-01  1.00008500e-05  1.42559761e+00  1.00008500e-05  1.43726200e+00                                 
 1.00010000e-05  6.90920819e-01  1.00010000e-05  6.16940245e-01  1.00010000e-05  6.37632764e-01  1.00010000e-05  0.00000000e+00  1.00010000e-05  1.55407594e+00  1.00010000e-05  6.08999775e-01  1.00010000e-05  1.36819274e+00  1.00010000e-05  1.43679186e+00                                 
 1.00010248e-05  6.90938477e-01  1.00010248e-05  6.16513387e-01  1.00010248e-05  6.43469876e-01  1.00010248e-05  0.00000000e+00  1.00010248e-05  1.70556683e+00  1.00010248e-05  6.03897963e-01  1.00010248e-05  1.33869735e+00  1.00010248e-05  1.43656481e+00                                 
 1.00010743e-05  6.90943404e-01  1.00010743e-05  6.15769909e-01  1.00010743e-05  6.49062900e-01  1.00010743e-05  0.00000000e+00  1.00010743e-05  1.81825583e+00  1.00010743e-05  5.94849937e-01  1.00010743e-05  1.27475351e+00  1.00010743e-05  1.43641641e+00                                 
 1.00011734e-05  6.90937191e-01  1.00011734e-05  6.15623249e-01  1.00011734e-05  6.44905976e-01  1.00011734e-05  0.00000000e+00  1.00011734e-05  1.78826759e+00  1.00011734e-05  5.93038706e-01  1.00011734e-05  1.16375174e+00  1.00011734e-05  1.43699059e+00                                 
 1.00013057e-05  6.90941315e-01  1.00013057e-05  6.15877499e-01  1.00013057e-05  6.42110098e-01  1.00013057e-05  0.00000000e+00  1.00013057e-05  1.80632113e+00  1.00013057e-05  5.96441599e-01  1.00013057e-05  1.04695930e+00  1.00013057e-05  1.43738976e+00                                 
 1.00015234e-05  6.90936634e-01  1.00015234e-05  6.16038317e-01  1.00015234e-05  6.38325448e-01  1.00015234e-05  0.00000000e+00  1.00015234e-05  1.79424670e+00  1.00015234e-05  5.97198077e-01  1.00015234e-05  8.87527233e-01  1.00015234e-05  1.43762167e+00                                 
 1.00017972e-05  6.90940282e-01  1.00017972e-05  6.16728366e-01  1.00017972e-05  6.31106514e-01  1.00017972e-05  0.00000000e+00  1.00017972e-05  1.80396575e+00  1.00017972e-05  6.04128461e-01  1.00017972e-05  7.53260667e-01  1.00017972e-05  1.43742405e+00                                 
 1.00022039e-05  6.90936662e-01  1.00022039e-05  6.17472158e-01  1.00022039e-05  6.22592658e-01  1.00022039e-05  0.00000000e+00  1.00022039e-05  1.79616122e+00  1.00022039e-05  6.11169930e-01  1.00022039e-05  6.52126483e-01  1.00022039e-05  1.43618166e+00                                 
 1.00026195e-05  6.90939932e-01  1.00026195e-05  6.17990130e-01  1.00026195e-05  6.18592017e-01  1.00026195e-05  0.00000000e+00  1.00026195e-05  1.80327620e+00  1.00026195e-05  6.16785489e-01  1.00026195e-05  6.25689880e-01  1.00026195e-05  1.43381877e+00                                 
 1.00030214e-05  6.90936824e-01  1.00030214e-05  6.17999042e-01  1.00030214e-05  6.19225373e-01  1.00030214e-05  0.00000000e+00  1.00030214e-05  1.79716178e+00  1.00030214e-05  6.16993473e-01  1.00030214e-05  6.19449912e-01  1.00030214e-05  1.43104540e+00                                 
 1.00034277e-05  6.90939701e-01  1.00034277e-05  6.18070005e-01  1.00034277e-05  6.19514360e-01  1.00034277e-05  0.00000000e+00  1.00034277e-05  1.80247405e+00  1.00034277e-05  6.18465866e-01  1.00034277e-05  6.20110072e-01  1.00034277e-05  1.42800446e+00                                 
 1.00040919e-05  6.90936951e-01  1.00040919e-05  6.17941127e-01  1.00040919e-05  6.22056768e-01  1.00040919e-05  0.00000000e+00  1.00040919e-05  1.79774095e+00  1.00040919e-05  6.17805790e-01  1.00040919e-05  6.20701782e-01  1.00040919e-05  1.42282748e+00                                 
 1.00052556e-05  6.90939555e-01  1.00052556e-05  6.17898092e-01  1.00052556e-05  6.25245864e-01  1.00052556e-05  0.00000000e+00  1.00052556e-05  1.80215913e+00  1.00052556e-05  6.18695203e-01  1.00052556e-05  6.25206647e-01  1.00052556e-05  1.41330836e+00                                 
 1.00075831e-05  6.90936937e-01  1.00075831e-05  6.17676170e-01  1.00075831e-05  6.33261192e-01  1.00075831e-05  0.00000000e+00  1.00075831e-05  1.79790267e+00  1.00075831e-05  6.17790360e-01  1.00075831e-05  6.31831578e-01  1.00075831e-05  1.39337642e+00                                 
 1.00122380e-05  6.90939493e-01  1.00122380e-05  6.17614776e-01  1.00122380e-05  6.47413864e-01  1.00122380e-05  0.00000000e+00  1.00122380e-05  1.80208032e+00  1.00122380e-05  6.18305558e-01  1.00122380e-05  6.47300967e-01  1.00122380e-05  1.35214611e+00                                 
 1.00199935e-05  6.90936944e-01  1.00199935e-05  6.17545475e-01  1.00199935e-05  6.71642423e-01  1.00199935e-05  0.00000000e+00  1.00199935e-05  1.79794357e+00  1.00199935e-05  6.17165094e-01  1.00199935e-05  6.70030608e-01  1.00199935e-05  1.28213420e+00                                 
