 time            v(vbep)         time            v(vben)         time            v(vout)         time            v(vphi1)        time            v(vphi2)        time            v(vref)         yes             currtemp       
 0.00000000e+00  5.26376528e-01  0.00000000e+00  4.58518655e-01  0.00000000e+00  3.25032067e-01  0.00000000e+00  0.00000000e+00  0.00000000e+00  1.79997049e+00  0.00000000e+00  4.58518655e-01  1.00000000e+00  1.00000000e+02 
 5.00000000e-12  5.26359129e-01  5.00000000e-12  4.58504208e-01  5.00000000e-12  3.25577875e-01  5.00000000e-12  1.80000000e-02  5.00000000e-12  1.80008175e+00  5.00000000e-12  4.58504208e-01                                 
 1.00000000e-11  5.26341941e-01  1.00000000e-11  4.58490053e-01  1.00000000e-11  3.26026045e-01  1.00000000e-11  3.60000000e-02  1.00000000e-11  1.80014276e+00  1.00000000e-11  4.58490053e-01                                 
 2.00000000e-11  5.26307671e-01  2.00000000e-11  4.58461818e-01  2.00000000e-11  3.26772451e-01  2.00000000e-11  7.20000000e-02  2.00000000e-11  1.80020263e+00  2.00000000e-11  4.58461818e-01                                 
 4.00000000e-11  5.26239327e-01  4.00000000e-11  4.58405485e-01  4.00000000e-11  3.27658773e-01  4.00000000e-11  1.44000000e-01  4.00000000e-11  1.80016630e+00  4.00000000e-11  4.58405485e-01                                 
 8.00000000e-11  5.26103025e-01  8.00000000e-11  4.58293097e-01  8.00000000e-11  3.28391044e-01  8.00000000e-11  2.88000000e-01  8.00000000e-11  1.80007805e+00  8.00000000e-11  4.58293097e-01                                 
 1.60000000e-10  5.25832006e-01  1.60000000e-10  4.58069404e-01  1.60000000e-10  3.28937994e-01  1.60000000e-10  5.76000000e-01  1.60000000e-10  1.80003403e+00  1.60000000e-10  4.58069404e-01                                 
 3.20000000e-10  5.25296028e-01  3.20000000e-10  4.57626210e-01  3.20000000e-10  3.28792240e-01  3.20000000e-10  1.15200000e+00  3.20000000e-10  1.80036460e+00  3.20000000e-10  4.57626210e-01                                 
 5.00000000e-10  5.24702395e-01  5.00000000e-10  4.57134070e-01  5.00000000e-10  5.48467732e-01  5.00000000e-10  1.80000000e+00  5.00000000e-10  2.03661818e-01  5.00000000e-10  4.57134070e-01                                 
 5.23106305e-10  5.24626977e-01  5.23106305e-10  4.57071441e-01  5.23106305e-10  6.03255900e-01  5.23106305e-10  1.80000000e+00  5.23106305e-10  5.23496503e-02  5.23106305e-10  4.57071441e-01                                 
 5.69318915e-10  5.24476459e-01  5.69318915e-10  4.56946403e-01  5.69318915e-10  7.05053489e-01  5.69318915e-10  1.80000000e+00  5.69318915e-10 -1.83685406e-02  5.69318915e-10  4.56946403e-01                                 
 6.61744134e-10  5.24177333e-01  6.61744134e-10  4.56697660e-01  6.61744134e-10  8.68955184e-01  6.61744134e-10  1.80000000e+00  6.61744134e-10  1.59714209e-02  6.61744134e-10  4.56697660e-01                                 
 7.80148750e-10  5.23797757e-01  7.80148750e-10  4.56381539e-01  7.80148750e-10  1.03282200e+00  7.80148750e-10  1.80000000e+00  7.80148750e-10 -1.12416888e-02  7.80148750e-10  4.56381539e-01                                 
 9.70325223e-10  5.23196333e-01  9.70325223e-10  4.55879570e-01  9.70325223e-10  1.24421320e+00  9.70325223e-10  1.80000000e+00  9.70325223e-10  1.14841469e-02  9.70325223e-10  4.55879570e-01                                 
 1.32850034e-09  5.22089972e-01  1.32850034e-09  4.54952744e-01  1.32850034e-09  1.52273290e+00  1.32850034e-09  1.80000000e+00  1.32850034e-09 -9.51845892e-03  1.32850034e-09  4.54952744e-01                                 
 1.89586085e-09  5.20403590e-01  1.89586085e-09  4.53531656e-01  1.89586085e-09  1.72659364e+00  1.89586085e-09  1.80000000e+00  1.89586085e-09  9.76895584e-03  1.89586085e-09  4.53531656e-01                                 
 2.18861732e-09  5.19563543e-01  2.18861732e-09  4.52819963e-01  2.18861732e-09  1.76089789e+00  2.18861732e-09  1.80000000e+00  2.18861732e-09 -8.70551948e-03  2.18861732e-09  4.52819963e-01                                 
 2.54501742e-09  5.18566563e-01  2.54501742e-09  4.51972162e-01  2.54501742e-09  1.77935160e+00  2.54501742e-09  1.80000000e+00  2.54501742e-09  8.31327070e-03  2.54501742e-09  4.51972162e-01                                 
 2.93381740e-09  5.17509506e-01  2.93381740e-09  4.51069587e-01  2.93381740e-09  1.78635931e+00  2.93381740e-09  1.80000000e+00  2.93381740e-09 -7.69080840e-03  2.93381740e-09  4.51069587e-01                                 
 3.63330251e-09  5.15682035e-01  3.63330251e-09  4.49500549e-01  3.63330251e-09  1.78916610e+00  3.63330251e-09  1.80000000e+00  3.63330251e-09  7.52410731e-03  3.63330251e-09  4.49500549e-01                                 
 4.40085606e-09  5.13777766e-01  4.40085606e-09  4.47854120e-01  4.40085606e-09  1.78725005e+00  4.40085606e-09  1.80000000e+00  4.40085606e-09 -7.20938096e-03  4.40085606e-09  4.47854120e-01                                 
 5.91324449e-09  5.10290464e-01  5.91324449e-09  4.44810994e-01  5.91324449e-09  1.78366892e+00  5.91324449e-09  1.80000000e+00  5.91324449e-09  7.18217281e-03  5.91324449e-09  4.44810994e-01                                 
 8.11079941e-09  5.05747024e-01  8.11079941e-09  4.40794899e-01  8.11079941e-09  1.77859041e+00  8.11079941e-09  1.80000000e+00  8.11079941e-09 -7.02022355e-03  8.11079941e-09  4.40794899e-01                                 
 1.01289394e-08  5.02023529e-01  1.01289394e-08  4.37462350e-01  1.01289394e-08  1.77424960e+00  1.01289394e-08  1.80000000e+00  1.01289394e-08  7.01009299e-03  1.01289394e-08  4.37462350e-01                                 
 1.15183278e-08  4.99667361e-01  1.15183278e-08  4.35335676e-01  1.15183278e-08  1.77104743e+00  1.15183278e-08  1.80000000e+00  1.15183278e-08 -6.82136888e-03  1.15183278e-08  4.35335676e-01                                 
 1.29308614e-08  4.97419887e-01  1.29308614e-08  4.33295163e-01  1.29308614e-08  1.76835380e+00  1.29308614e-08  1.80000000e+00  1.29308614e-08  6.77087719e-03  1.29308614e-08  4.33295163e-01                                 
 1.44156360e-08  4.95200597e-01  1.44156360e-08  4.31269217e-01  1.44156360e-08  1.76507531e+00  1.44156360e-08  1.80000000e+00  1.44156360e-08 -6.59844340e-03  1.44156360e-08  4.31269217e-01                                 
 1.61378588e-08  4.92790071e-01  1.61378588e-08  4.29056660e-01  1.61378588e-08  1.76188374e+00  1.61378588e-08  1.80000000e+00  1.61378588e-08  6.56891218e-03  1.61378588e-08  4.29056660e-01                                 
 1.83725801e-08  4.89893563e-01  1.83725801e-08  4.26381797e-01  1.83725801e-08  1.75724507e+00  1.83725801e-08  1.80000000e+00  1.83725801e-08 -6.43697465e-03  1.83725801e-08  4.26381797e-01                                 
 2.12145351e-08  4.86538193e-01  2.12145351e-08  4.23261081e-01  2.12145351e-08  1.75207345e+00  2.12145351e-08  1.80000000e+00  2.12145351e-08  6.44404794e-03  2.12145351e-08  4.23261081e-01                                 
 2.51928919e-08  4.82357758e-01  2.51928919e-08  4.19339709e-01  2.51928919e-08  1.74453569e+00  2.51928919e-08  1.80000000e+00  2.51928919e-08 -6.34381112e-03  2.51928919e-08  4.19339709e-01                                 
 3.10033850e-08  4.77104796e-01  3.10033850e-08  4.14360524e-01  3.10033850e-08  1.73471911e+00  3.10033850e-08  1.80000000e+00  3.10033850e-08  6.37948323e-03  3.10033850e-08  4.14360524e-01                                 
 4.13561513e-08  4.69462593e-01  4.13561513e-08  4.07027402e-01  4.13561513e-08  1.71762004e+00  4.13561513e-08  1.80000000e+00  4.13561513e-08 -6.30241869e-03  4.13561513e-08  4.07027402e-01                                 
 6.20616839e-08  4.57943582e-01  6.20616839e-08  3.95836152e-01  6.20616839e-08  1.68686232e+00  6.20616839e-08  1.80000000e+00  6.20616839e-08  6.35820622e-03  6.20616839e-08  3.95836152e-01                                 
 1.01315646e-07  4.42466490e-01  1.01315646e-07  3.80734658e-01  1.01315646e-07  1.63256982e+00  1.01315646e-07  1.80000000e+00  1.01315646e-07 -6.29061016e-03  1.01315646e-07  3.80734658e-01                                 
 1.37023428e-07  4.29404629e-01  1.37023428e-07  3.68539657e-01  1.37023428e-07  1.58401998e+00  1.37023428e-07  1.80000000e+00  1.37023428e-07  6.35030662e-03  1.37023428e-07  3.68539657e-01                                 
 2.08438992e-07  4.05152719e-01  2.08438992e-07  3.46643526e-01  2.08438992e-07  1.48613440e+00  2.08438992e-07  1.80000000e+00  2.08438992e-07 -6.28422064e-03  2.08438992e-07  3.46643526e-01                                 
 2.75428843e-07  3.85333652e-01  2.75428843e-07  3.29212273e-01  2.75428843e-07  1.39636237e+00  2.75428843e-07  1.80000000e+00  2.75428843e-07  6.34618927e-03  2.75428843e-07  3.29212273e-01                                 
 3.87838898e-07  3.48665961e-01  3.87838898e-07  2.98214749e-01  3.87838898e-07  1.24120530e+00  3.87838898e-07  1.80000000e+00  3.87838898e-07 -6.28077972e-03  3.87838898e-07  2.98214749e-01                                 
 5.32368374e-07  3.43462158e-01  5.32368374e-07  2.92898435e-01  5.32368374e-07  1.09271541e+00  5.32368374e-07  1.80000000e+00  5.32368374e-07  6.34512741e-03  5.32368374e-07  2.92898435e-01                                 
 5.54247612e-07  3.77800470e-01  5.54247612e-07  3.20228922e-01  5.54247612e-07  1.10446226e+00  5.54247612e-07  1.80000000e+00  5.54247612e-07  2.38643669e-05  5.54247612e-07  3.20228922e-01                                 
 5.98006089e-07  5.60685907e-01  5.98006089e-07  4.87218160e-01  5.98006089e-07  1.23399343e+00  5.98006089e-07  1.80000000e+00  5.98006089e-07  3.27632582e-05  5.98006089e-07  4.87218160e-01                                 
 6.50186441e-07  6.52410468e-01  6.50186441e-07  5.79381858e-01  6.50186441e-07  1.26804961e+00  6.50186441e-07  1.80000000e+00  6.50186441e-07  1.46813927e-05  6.50186441e-07  5.79381858e-01                                 
 7.09670398e-07  6.86479215e-01  7.09670398e-07  6.08474503e-01  7.09670398e-07  1.23496853e+00  7.09670398e-07  1.80000000e+00  7.09670398e-07  2.62779450e-05  7.09670398e-07  6.08474503e-01                                 
 7.71090398e-07  6.91707429e-01  7.71090398e-07  6.12766326e-01  7.71090398e-07  1.17756603e+00  7.71090398e-07  1.80000000e+00  7.71090398e-07  1.23370165e-05  7.71090398e-07  6.12766326e-01                                 
 7.79847257e-07  6.91369276e-01  7.79847257e-07  6.12470736e-01  7.79847257e-07  1.16722534e+00  7.79847257e-07  1.80000000e+00  7.79847257e-07  1.88573126e-05  7.79847257e-07  6.12470736e-01                                 
 7.97360976e-07  6.91596989e-01  7.97360976e-07  6.12644209e-01  7.97360976e-07  1.14943233e+00  7.97360976e-07  1.80000000e+00  7.97360976e-07  1.93565649e-05  7.97360976e-07  6.12644209e-01                                 
 8.32388414e-07  6.86251157e-01  8.32388414e-07  6.08352148e-01  8.32388414e-07  1.11025585e+00  8.32388414e-07  1.80000000e+00  8.32388414e-07  1.81100099e-05  8.32388414e-07  6.08352148e-01                                 
 8.82996635e-07  6.62191628e-01  8.82996635e-07  5.88044232e-01  8.82996635e-07  1.04288560e+00  8.82996635e-07  1.80000000e+00  8.82996635e-07  1.78419455e-05  8.82996635e-07  5.88044232e-01                                 
 9.29109186e-07  6.62948070e-01  9.29109186e-07  5.88650156e-01  9.29109186e-07  1.00778611e+00  9.29109186e-07  1.80000000e+00  9.29109186e-07  2.07568703e-05  9.29109186e-07  5.88650156e-01                                 
 9.90552841e-07  6.86007800e-01  9.90552841e-07  6.08121435e-01  9.90552841e-07  9.84946195e-01  9.90552841e-07  1.80000000e+00  9.90552841e-07  1.97385006e-05  9.90552841e-07  6.08121435e-01                                 
 1.05728415e-06  6.74410651e-01  1.05728415e-06  5.98544205e-01  1.05728415e-06  9.29907380e-01  1.05728415e-06  1.80000000e+00  1.05728415e-06  1.80865795e-05  1.05728415e-06  5.98544205e-01                                 
 1.11779364e-06  6.67283975e-01  1.11779364e-06  5.92414676e-01  1.11779364e-06  8.85141327e-01  1.11779364e-06  1.80000000e+00  1.11779364e-06  2.00697606e-05  1.11779364e-06  5.92414676e-01                                 
 1.19969227e-06  6.79099574e-01  1.19969227e-06  6.02448370e-01  1.19969227e-06  8.45745149e-01  1.19969227e-06  1.80000000e+00  1.19969227e-06  1.94375262e-05  1.19969227e-06  6.02448370e-01                                 
 1.29434044e-06  6.75398015e-01  1.29434044e-06  5.99344115e-01  1.29434044e-06  7.86089433e-01  1.29434044e-06  1.80000000e+00  1.29434044e-06  1.92124501e-05  1.29434044e-06  5.99344115e-01                                 
 1.39321274e-06  6.71691710e-01  1.39321274e-06  5.96213917e-01  1.39321274e-06  7.26477171e-01  1.39321274e-06  1.80000000e+00  1.39321274e-06  1.95143544e-05  1.39321274e-06  5.96213917e-01                                 
 1.56189511e-06  6.78303411e-01  1.56189511e-06  6.01771686e-01  1.56189511e-06  6.50863361e-01  1.56189511e-06  1.80000000e+00  1.56189511e-06  1.97167813e-05  1.56189511e-06  6.01771686e-01                                 
 1.74307460e-06  6.72107655e-01  1.74307460e-06  5.96574713e-01  1.74307460e-06  5.95896338e-01  1.74307460e-06  1.80000000e+00  1.74307460e-06  1.94088675e-05  1.74307460e-06  5.96574713e-01                                 
 1.77066494e-06  6.73060823e-01  1.77066494e-06  5.97370055e-01  1.77066494e-06  5.93588881e-01  1.77066494e-06  1.80000000e+00  1.77066494e-06  1.97957397e-05  1.77066494e-06  5.97370055e-01                                 
 1.82584561e-06  6.75646716e-01  1.82584561e-06  5.99551485e-01  1.82584561e-06  5.90273439e-01  1.82584561e-06  1.80000000e+00  1.82584561e-06  1.98659016e-05  1.82584561e-06  5.99551485e-01                                 
 1.91714426e-06  6.75552832e-01  1.91714426e-06  5.99478624e-01  1.91714426e-06  5.91686545e-01  1.91714426e-06  1.80000000e+00  1.91714426e-06  1.96821499e-05  1.91714426e-06  5.99478624e-01                                 
 2.01572889e-06  6.73897358e-01  2.01572889e-06  5.98078094e-01  2.01572889e-06  5.99288085e-01  2.01572889e-06  1.80000000e+00  2.01572889e-06  1.98543590e-05  2.01572889e-06  5.98078094e-01                                 
 2.14560478e-06  6.75827010e-01  2.14560478e-06  5.99706070e-01  2.14560478e-06  5.99694271e-01  2.14560478e-06  1.80000000e+00  2.14560478e-06  1.97368794e-05  2.14560478e-06  5.99706070e-01                                 
 2.27440994e-06  6.74579285e-01  2.27440994e-06  5.98656383e-01  2.27440994e-06  5.98578699e-01  2.27440994e-06  1.80000000e+00  2.27440994e-06  1.97545140e-05  2.27440994e-06  5.98656383e-01                                 
 2.47044972e-06  6.74996073e-01  2.47044972e-06  5.99005650e-01  2.47044972e-06  5.99635026e-01  2.47044972e-06  1.80000000e+00  2.47044972e-06  1.97906456e-05  2.47044972e-06  5.99005650e-01                                 
 2.73819898e-06  6.75164272e-01  2.73819898e-06  5.99149594e-01  2.73819898e-06  5.98977067e-01  2.73819898e-06  1.80000000e+00  2.73819898e-06  1.97442897e-05  2.73819898e-06  5.99149594e-01                                 
 3.08731669e-06  6.74630183e-01  3.08731669e-06  5.98697404e-01  3.08731669e-06  5.99302905e-01  3.08731669e-06  1.80000000e+00  3.08731669e-06  1.97837358e-05  3.08731669e-06  5.98697404e-01                                 
 3.62361862e-06  6.75371655e-01  3.62361862e-06  5.99323902e-01  3.62361862e-06  5.99195317e-01  3.62361862e-06  1.80000000e+00  3.62361862e-06  1.97555134e-05  3.62361862e-06  5.99323902e-01                                 
 4.36811843e-06  6.74518617e-01  4.36811843e-06  5.98603532e-01  4.36811843e-06  5.99171303e-01  4.36811843e-06  1.80000000e+00  4.36811843e-06  1.97735295e-05  4.36811843e-06  5.98603532e-01                                 
 5.36811843e-06  6.75435502e-01  5.36811843e-06  5.99377432e-01  5.36811843e-06  5.99275644e-01  5.36811843e-06  1.80000000e+00  5.36811843e-06  1.97639972e-05  5.36811843e-06  5.99377432e-01                                 
 6.36811843e-06  6.74474682e-01  6.36811843e-06  5.98566643e-01  6.36811843e-06  5.99112148e-01  6.36811843e-06  1.80000000e+00  6.36811843e-06  1.97657253e-05  6.36811843e-06  5.98566643e-01                                 
 7.36811843e-06  6.75468813e-01  7.36811843e-06  5.99405272e-01  7.36811843e-06  5.99324140e-01  7.36811843e-06  1.80000000e+00  7.36811843e-06  1.97721759e-05  7.36811843e-06  5.99405272e-01                                 
 8.36811843e-06  6.74450435e-01  8.36811843e-06  5.98546379e-01  8.36811843e-06  5.99072290e-01  8.36811843e-06  1.80000000e+00  8.36811843e-06  1.97572645e-05  8.36811843e-06  5.98546379e-01                                 
 9.36811843e-06  6.75483080e-01  9.36811843e-06  5.99417077e-01  9.36811843e-06  5.99354448e-01  9.36811843e-06  1.80000000e+00  9.36811843e-06  1.97808299e-05  9.36811843e-06  5.99417077e-01                                 
 1.00005000e-05  6.74446938e-01  1.00005000e-05  5.98543692e-01  1.00005000e-05  5.99045683e-01  1.00005000e-05  1.80000000e+00  1.00005000e-05  1.97459587e-05  1.00005000e-05  5.98543692e-01                                 
 1.00005500e-05  6.74447083e-01  1.00005500e-05  5.98543802e-01  1.00005500e-05  5.92363063e-01  1.00005500e-05  1.62000000e+00  1.00005500e-05 -1.17186892e-04  1.00005500e-05  5.98543802e-01                                 
 1.00006500e-05  6.74447424e-01  1.00006500e-05  5.98544062e-01  1.00006500e-05  5.80515250e-01  1.00006500e-05  1.26000000e+00  1.00006500e-05 -1.00456963e-04  1.00006500e-05  5.98544062e-01                                 
 1.00008500e-05  6.74448334e-01  1.00008500e-05  5.98544774e-01  1.00008500e-05  5.71023330e-01  1.00008500e-05  5.40000000e-01  1.00008500e-05  8.27566298e-02  1.00008500e-05  5.98544774e-01                                 
 1.00010000e-05  6.74449146e-01  1.00010000e-05  5.98545429e-01  1.00010000e-05  5.50324156e-01  1.00010000e-05  0.00000000e+00  1.00010000e-05  1.57187111e+00  1.00010000e-05  5.98545429e-01                                 
 1.00010246e-05  6.74449278e-01  1.00010246e-05  5.98545539e-01  1.00010246e-05  5.37914282e-01  1.00010246e-05  0.00000000e+00  1.00010246e-05  1.71145828e+00  1.00010246e-05  5.98545539e-01                                 
 1.00010739e-05  6.74449568e-01  1.00010739e-05  5.98545772e-01  1.00010739e-05  5.17415795e-01  1.00010739e-05  0.00000000e+00  1.00010739e-05  1.81730707e+00  1.00010739e-05  5.98545772e-01                                 
 1.00011724e-05  6.74450220e-01  1.00011724e-05  5.98546289e-01  1.00011724e-05  5.03934639e-01  1.00011724e-05  0.00000000e+00  1.00011724e-05  1.79019200e+00  1.00011724e-05  5.98546289e-01                                 
 1.00013135e-05  6.74451191e-01  1.00013135e-05  5.98547085e-01  1.00013135e-05  5.06256770e-01  1.00013135e-05  0.00000000e+00  1.00013135e-05  1.80643394e+00  1.00013135e-05  5.98547085e-01                                 
 1.00014674e-05  6.74452295e-01  1.00014674e-05  5.98547992e-01  1.00014674e-05  5.05493340e-01  1.00014674e-05  0.00000000e+00  1.00014674e-05  1.79560106e+00  1.00014674e-05  5.98547992e-01                                 
 1.00017752e-05  6.74454647e-01  1.00017752e-05  5.98549933e-01  1.00017752e-05  5.05955760e-01  1.00017752e-05  0.00000000e+00  1.00017752e-05  1.80363267e+00  1.00017752e-05  5.98549933e-01                                 
 1.00023909e-05  6.74459830e-01  1.00023909e-05  5.98554238e-01  1.00023909e-05  5.05494959e-01  1.00023909e-05  0.00000000e+00  1.00023909e-05  1.79668500e+00  1.00023909e-05  5.98554238e-01                                 
 1.00036222e-05  6.74471669e-01  1.00036222e-05  5.98564136e-01  1.00036222e-05  5.05811339e-01  1.00036222e-05  0.00000000e+00  1.00036222e-05  1.80315367e+00  1.00036222e-05  5.98564136e-01                                 
