 time            v(vbep)         time            v(vben)         time            v(vout)         time            v(vphi1)        time            v(vphi2)        time            v(vref)         yes             currtemp       
 0.00000000e+00  8.73104533e-01  0.00000000e+00  8.01182596e-01  0.00000000e+00  1.00746486e+00  0.00000000e+00  0.00000000e+00  0.00000000e+00  1.78821277e+00  0.00000000e+00  5.00000000e-01  1.00000000e+00  1.60000000e+01 
 5.00000000e-12  8.68308759e-01  5.00000000e-12  7.99478993e-01  5.00000000e-12  1.00804437e+00  5.00000000e-12  1.80000000e-02  5.00000000e-12  1.79112029e+00  5.00000000e-12  5.00000000e-01                                 
 1.00000000e-11  8.64896934e-01  1.00000000e-11  7.98862419e-01  1.00000000e-11  1.00854803e+00  1.00000000e-11  3.60000000e-02  1.00000000e-11  1.79343703e+00  1.00000000e-11  5.00000000e-01                                 
 2.00000000e-11  8.59928727e-01  2.00000000e-11  7.98131941e-01  2.00000000e-11  1.00945208e+00  2.00000000e-11  7.20000000e-02  2.00000000e-11  1.79699300e+00  2.00000000e-11  5.00000000e-01                                 
 4.00000000e-11  8.55893705e-01  4.00000000e-11  7.97235233e-01  4.00000000e-11  1.01078607e+00  4.00000000e-11  1.44000000e-01  4.00000000e-11  1.79973027e+00  4.00000000e-11  5.00000000e-01                                 
 8.00000000e-11  8.53160495e-01  8.00000000e-11  7.95341563e-01  8.00000000e-11  1.01233853e+00  8.00000000e-11  2.88000000e-01  8.00000000e-11  1.80009369e+00  8.00000000e-11  5.00000000e-01                                 
 1.60000000e-10  8.49045145e-01  1.60000000e-10  7.91699624e-01  1.60000000e-10  1.01365839e+00  1.60000000e-10  5.76000000e-01  1.60000000e-10  1.79994698e+00  1.60000000e-10  5.00000000e-01                                 
 3.20000000e-10  8.40527261e-01  3.20000000e-10  7.84427979e-01  3.20000000e-10  1.00575442e+00  3.20000000e-10  1.15200000e+00  3.20000000e-10  1.80045140e+00  3.20000000e-10  5.00000000e-01                                 
 5.00000000e-10  8.31470633e-01  5.00000000e-10  7.76554201e-01  5.00000000e-10  1.19951651e+00  5.00000000e-10  1.80000000e+00  5.00000000e-10  1.07022401e-01  5.00000000e-10  5.00000000e-01                                 
 5.21245993e-10  8.30421574e-01  5.21245993e-10  7.75643683e-01  5.21245993e-10  1.24348024e+00  5.21245993e-10  1.80000000e+00  5.21245993e-10  2.00365753e-02  5.21245993e-10  5.00000000e-01                                 
 5.63737978e-10  8.28352973e-01  5.63737978e-10  7.73836970e-01  5.63737978e-10  1.32392688e+00  5.63737978e-10  1.80000000e+00  5.63737978e-10 -9.39788637e-03  5.63737978e-10  5.00000000e-01                                 
 6.48721948e-10  8.24306512e-01  6.48721948e-10  7.70264677e-01  6.48721948e-10  1.45665759e+00  6.48721948e-10  1.80000000e+00  6.48721948e-10  8.06627753e-03  6.48721948e-10  5.00000000e-01                                 
 7.71834183e-10  8.18608876e-01  7.71834183e-10  7.65192476e-01  7.71834183e-10  1.60959090e+00  7.71834183e-10  1.80000000e+00  7.71834183e-10 -7.02267869e-03  7.71834183e-10  5.00000000e-01                                 
 9.63073481e-10  8.10158579e-01  9.63073481e-10  7.57560248e-01  9.63073481e-10  1.78235695e+00  9.63073481e-10  1.80000000e+00  9.63073481e-10  6.66560607e-03  9.63073481e-10  5.00000000e-01                                 
 1.34555208e-09  7.94526833e-01  1.34555208e-09  7.43147411e-01  1.34555208e-09  1.97197518e+00  1.34555208e-09  1.80000000e+00  1.34555208e-09 -6.30274778e-03  1.34555208e-09  5.00000000e-01                                 
 1.60596109e-09  7.85278430e-01  1.60596109e-09  7.34488635e-01  1.60596109e-09  2.02377237e+00  1.60596109e-09  1.80000000e+00  1.60596109e-09  6.07337919e-03  1.60596109e-09  5.00000000e-01                                 
 1.90273516e-09  7.75905367e-01  1.90273516e-09  7.25605796e-01  1.90273516e-09  2.04861224e+00  1.90273516e-09  1.80000000e+00  1.90273516e-09 -5.72900706e-03  1.90273516e-09  5.00000000e-01                                 
 2.21951144e-09  7.67125210e-01  2.21951144e-09  7.17260662e-01  2.21951144e-09  2.05571386e+00  2.21951144e-09  1.80000000e+00  2.21951144e-09  5.53476288e-03  2.21951144e-09  5.00000000e-01                                 
 2.72254617e-09  7.55428014e-01  2.72254617e-09  7.06061821e-01  2.72254617e-09  2.05213352e+00  2.72254617e-09  1.80000000e+00  2.72254617e-09 -5.35157506e-03  2.72254617e-09  5.00000000e-01                                 
 3.34040688e-09  7.44178538e-01  3.34040688e-09  6.95248623e-01  3.34040688e-09  2.04175623e+00  3.34040688e-09  1.80000000e+00  3.34040688e-09  5.26313726e-03  3.34040688e-09  5.00000000e-01                                 
 4.40144910e-09  7.30035201e-01  4.40144910e-09  6.81549259e-01  4.40144910e-09  2.02685032e+00  4.40144910e-09  1.80000000e+00  4.40144910e-09 -5.17143358e-03  4.40144910e-09  5.00000000e-01                                 
 5.97688775e-09  7.16104525e-01  5.97688775e-09  6.67950020e-01  5.97688775e-09  2.01262022e+00  5.97688775e-09  1.80000000e+00  5.97688775e-09  5.15504357e-03  5.97688775e-09  5.00000000e-01                                 
 9.12776505e-09  6.99009026e-01  9.12776505e-09  6.51116698e-01  9.12776505e-09  1.99593405e+00  9.12776505e-09  1.80000000e+00  9.12776505e-09 -5.09721183e-03  9.12776505e-09  5.00000000e-01                                 
 1.06159630e-08  6.93773317e-01  1.06159630e-08  6.45928132e-01  1.06159630e-08  1.99089722e+00  1.06159630e-08  1.80000000e+00  1.06159630e-08  5.08041492e-03  1.06159630e-08  5.00000000e-01                                 
 1.24948973e-08  6.88313995e-01  1.24948973e-08  6.40504085e-01  1.24948973e-08  1.98567493e+00  1.24948973e-08  1.80000000e+00  1.24948973e-08 -5.01997641e-03  1.24948973e-08  5.00000000e-01                                 
 1.44882308e-08  6.83503906e-01  1.44882308e-08  6.35719499e-01  1.44882308e-08  1.98112271e+00  1.44882308e-08  1.80000000e+00  1.44882308e-08  5.00852463e-03  1.44882308e-08  5.00000000e-01                                 
 1.80771092e-08  6.76497122e-01  1.80771092e-08  6.28735545e-01  1.80771092e-08  1.97447146e+00  1.80771092e-08  1.80000000e+00  1.80771092e-08 -4.96890580e-03  1.80771092e-08  5.00000000e-01                                 
 2.15186019e-08  6.71163233e-01  2.15186019e-08  6.23411366e-01  2.15186019e-08  1.96946250e+00  2.15186019e-08  1.80000000e+00  2.15186019e-08  4.97028679e-03  2.15186019e-08  5.00000000e-01                                 
 2.84015871e-08  6.62831774e-01  2.84015871e-08  6.15081197e-01  2.84015871e-08  1.96160260e+00  2.84015871e-08  1.80000000e+00  2.84015871e-08 -4.93977957e-03  2.84015871e-08  5.00000000e-01                                 
 3.60422382e-08  6.55908009e-01  3.60422382e-08  6.08147672e-01  3.60422382e-08  1.95512186e+00  3.60422382e-08  1.80000000e+00  3.60422382e-08  4.95229167e-03  3.60422382e-08  5.00000000e-01                                 
 5.13235402e-08  6.45768937e-01  5.13235402e-08  5.97979704e-01  5.13235402e-08  1.94558977e+00  5.13235402e-08  1.80000000e+00  5.13235402e-08 -4.92661975e-03  5.13235402e-08  5.00000000e-01                                 
 7.52729809e-08  6.35039635e-01  7.52729809e-08  5.87201082e-01  7.52729809e-08  1.93554049e+00  7.52729809e-08  1.80000000e+00  7.52729809e-08  4.94545113e-03  7.52729809e-08  5.00000000e-01                                 
 1.21599509e-07  6.21996647e-01  1.21599509e-07  5.74023385e-01  1.21599509e-07  1.92398126e+00  1.21599509e-07  1.80000000e+00  1.21599509e-07 -4.92244405e-03  1.21599509e-07  5.00000000e-01                                 
 1.82054565e-07  6.12594844e-01  1.82054565e-07  5.64235397e-01  1.82054565e-07  1.91900632e+00  1.82054565e-07  1.80000000e+00  1.82054565e-07  4.94308229e-03  1.82054565e-07  5.00000000e-01                                 
 2.21459977e-07  6.08043631e-01  2.21459977e-07  5.59520670e-01  2.21459977e-07  1.90769131e+00  2.21459977e-07  1.80000000e+00  2.21459977e-07 -4.91969035e-03  2.21459977e-07  5.00000000e-01                                 
 2.57316527e-07  6.01172127e-01  2.57316527e-07  5.53226949e-01  2.57316527e-07  1.88341838e+00  2.57316527e-07  1.80000000e+00  2.57316527e-07  4.93953498e-03  2.57316527e-07  5.00000000e-01                                 
 2.83928042e-07  5.91079074e-01  2.83928042e-07  5.44680252e-01  2.83928042e-07  1.85204393e+00  2.83928042e-07  1.80000000e+00  2.83928042e-07 -4.91563060e-03  2.83928042e-07  5.00000000e-01                                 
 3.12551297e-07  5.82610465e-01  3.12551297e-07  5.37449421e-01  3.12551297e-07  1.81128802e+00  3.12551297e-07  1.80000000e+00  3.12551297e-07  4.93487560e-03  3.12551297e-07  5.00000000e-01                                 
 3.35429929e-07  5.78441800e-01  3.35429929e-07  5.33775902e-01  3.35429929e-07  1.78045997e+00  3.35429929e-07  1.80000000e+00  3.35429929e-07 -4.91044596e-03  3.35429929e-07  5.00000000e-01                                 
 3.59319740e-07  5.85290092e-01  3.59319740e-07  5.38832751e-01  3.59319740e-07  1.78749351e+00  3.59319740e-07  1.80000000e+00  3.59319740e-07  4.92973857e-03  3.59319740e-07  5.00000000e-01                                 
 3.78385279e-07  5.86796163e-01  3.78385279e-07  5.39732296e-01  3.78385279e-07  1.77136787e+00  3.78385279e-07  1.80000000e+00  3.78385279e-07 -4.90464301e-03  3.78385279e-07  5.00000000e-01                                 
 3.98302776e-07  5.80106387e-01  3.98302776e-07  5.34138624e-01  3.98302776e-07  1.74470435e+00  3.98302776e-07  1.80000000e+00  3.98302776e-07  4.92277678e-03  3.98302776e-07  5.00000000e-01                                 
 4.14790893e-07  5.77056557e-01  4.14790893e-07  5.31496954e-01  4.14790893e-07  1.72634549e+00  4.14790893e-07  1.80000000e+00  4.14790893e-07 -4.89743551e-03  4.14790893e-07  5.00000000e-01                                 
 4.33018802e-07  5.73359928e-01  4.33018802e-07  5.28332800e-01  4.33018802e-07  1.70582935e+00  4.33018802e-07  1.80000000e+00  4.33018802e-07  4.91529632e-03  4.33018802e-07  5.00000000e-01                                 
 4.63450256e-07  5.66690435e-01  4.63450256e-07  5.22688533e-01  4.63450256e-07  1.67015221e+00  4.63450256e-07  1.80000000e+00  4.63450256e-07 -4.89176016e-03  4.63450256e-07  5.00000000e-01                                 
 5.10751604e-07  5.55733353e-01  5.10751604e-07  5.13524371e-01  5.10751604e-07  1.61324349e+00  5.10751604e-07  1.80000000e+00  5.10751604e-07  4.91179987e-03  5.10751604e-07  5.00000000e-01                                 
 5.85678159e-07  5.41032188e-01  5.85678159e-07  5.01272437e-01  5.85678159e-07  1.52678978e+00  5.85678159e-07  1.80000000e+00  5.85678159e-07 -4.88960908e-03  5.85678159e-07  5.00000000e-01                                 
 6.66395157e-07  5.13861714e-01  6.66395157e-07  4.79257092e-01  6.66395157e-07  1.41807965e+00  6.66395157e-07  1.80000000e+00  6.66395157e-07  4.91003159e-03  6.66395157e-07  5.00000000e-01                                 
 7.49266787e-07  4.81587628e-01  7.49266787e-07  4.53329054e-01  7.49266787e-07  1.30321693e+00  7.49266787e-07  1.80000000e+00  7.49266787e-07 -4.88809284e-03  7.49266787e-07  5.00000000e-01                                 
 8.23906389e-07  4.68925820e-01  8.23906389e-07  4.43209040e-01  8.23906389e-07  1.21332910e+00  8.23906389e-07  1.80000000e+00  8.23906389e-07  4.90857728e-03  8.23906389e-07  5.00000000e-01                                 
 8.31111774e-07  4.71806801e-01  8.31111774e-07  4.45522232e-01  8.31111774e-07  1.20903798e+00  8.31111774e-07  1.80000000e+00  8.31111774e-07  2.64295490e-06  8.31111774e-07  5.00000000e-01                                 
 8.45522545e-07  4.84157843e-01  8.45522545e-07  4.55423915e-01  8.45522545e-07  1.20601738e+00  8.45522545e-07  1.80000000e+00  8.45522545e-07 -1.57419584e-06  8.45522545e-07  5.00000000e-01                                 
 8.69412022e-07  5.58986060e-01  8.69412022e-07  5.15283789e-01  8.69412022e-07  1.25293938e+00  8.69412022e-07  1.80000000e+00  8.69412022e-07  4.50860646e-06  8.69412022e-07  5.00000000e-01                                 
 8.91779291e-07  7.08878234e-01  8.91779291e-07  6.48289417e-01  8.91779291e-07  1.37283617e+00  8.91779291e-07  1.80000000e+00  8.91779291e-07  2.32580496e-06  8.91779291e-07  5.00000000e-01                                 
 9.13203759e-07  7.65493100e-01  9.13203759e-07  7.10582020e-01  9.13203759e-07  1.40721079e+00  9.13203759e-07  1.80000000e+00  9.13203759e-07  1.80824308e-06  9.13203759e-07  5.00000000e-01                                 
 9.35867668e-07  7.94326352e-01  9.35867668e-07  7.38008839e-01  9.35867668e-07  1.40906425e+00  9.35867668e-07  1.80000000e+00  9.35867668e-07  9.01153465e-08  9.35867668e-07  5.00000000e-01                                 
 9.64815456e-07  8.13446405e-01  9.64815456e-07  7.54789941e-01  9.64815456e-07  1.39994327e+00  9.64815456e-07  1.80000000e+00  9.64815456e-07  1.32152651e-06  9.64815456e-07  5.00000000e-01                                 
 9.95156627e-07  8.14870872e-01  9.95156627e-07  7.56088593e-01  9.95156627e-07  1.36815319e+00  9.95156627e-07  1.80000000e+00  9.95156627e-07 -9.25948845e-07  9.95156627e-07  5.00000000e-01                                 
 1.00132351e-06  8.15260596e-01  1.00132351e-06  7.56376259e-01  1.00132351e-06  1.36317934e+00  1.00132351e-06  1.80000000e+00  1.00132351e-06  3.02875306e-07  1.00132351e-06  5.00000000e-01                                 
 1.01365727e-06  8.15568836e-01  1.01365727e-06  7.56635413e-01  1.01365727e-06  1.35101173e+00  1.01365727e-06  1.80000000e+00  1.01365727e-06  1.46801155e-07  1.01365727e-06  5.00000000e-01                                 
 1.03832478e-06  8.16106685e-01  1.03832478e-06  7.57089052e-01  1.03832478e-06  1.32612852e+00  1.03832478e-06  1.80000000e+00  1.03832478e-06  2.76250736e-07  1.03832478e-06  5.00000000e-01                                 
 1.07943040e-06  8.17561652e-01  1.07943040e-06  7.58307661e-01  1.07943040e-06  1.28547475e+00  1.07943040e-06  1.80000000e+00  1.07943040e-06  1.69659801e-07  1.07943040e-06  5.00000000e-01                                 
 1.12947329e-06  8.11650159e-01  1.12947329e-06  7.53327292e-01  1.12947329e-06  1.22844450e+00  1.12947329e-06  1.80000000e+00  1.12947329e-06  8.37692507e-08  1.12947329e-06  5.00000000e-01                                 
 1.18132936e-06  7.91334599e-01  1.18132936e-06  7.35311863e-01  1.18132936e-06  1.15564121e+00  1.18132936e-06  1.80000000e+00  1.18132936e-06 -1.87432701e-07  1.18132936e-06  5.00000000e-01                                 
 1.24762322e-06  7.90697282e-01  1.24762322e-06  7.34674613e-01  1.24762322e-06  1.08504071e+00  1.24762322e-06  1.80000000e+00  1.24762322e-06  5.52537557e-07  1.24762322e-06  5.00000000e-01                                 
 1.31521589e-06  8.13571863e-01  1.31521589e-06  7.54932372e-01  1.31521589e-06  1.03672440e+00  1.31521589e-06  1.80000000e+00  1.31521589e-06  2.90994827e-07  1.31521589e-06  5.00000000e-01                                 
 1.38074244e-06  8.00556950e-01  1.38074244e-06  7.43658231e-01  1.38074244e-06  9.61059243e-01  1.38074244e-06  1.80000000e+00  1.38074244e-06 -1.28792919e-07  1.38074244e-06  5.00000000e-01                                 
 1.44802781e-06  7.88976648e-01  1.44802781e-06  7.33090121e-01  1.44802781e-06  8.98136566e-01  1.44802781e-06  1.80000000e+00  1.44802781e-06  2.90372854e-07  1.44802781e-06  5.00000000e-01                                 
 1.52660719e-06  8.06894196e-01  1.52660719e-06  7.49198723e-01  1.52660719e-06  8.59642079e-01  1.52660719e-06  1.80000000e+00  1.52660719e-06  4.07412484e-07  1.52660719e-06  5.00000000e-01                                 
 1.60806714e-06  8.03408346e-01  1.60806714e-06  7.46149305e-01  1.60806714e-06  8.07199678e-01  1.60806714e-06  1.80000000e+00  1.60806714e-06 -4.83068827e-08  1.60806714e-06  5.00000000e-01                                 
 1.69214574e-06  7.94798378e-01  1.69214574e-06  7.38444899e-01  1.69214574e-06  7.54338908e-01  1.69214574e-06  1.80000000e+00  1.69214574e-06  3.06225333e-07  1.69214574e-06  5.00000000e-01                                 
 1.81984383e-06  8.05077393e-01  1.81984383e-06  7.47598175e-01  1.81984383e-06  6.99563843e-01  1.81984383e-06  1.80000000e+00  1.81984383e-06  1.99110845e-07  1.81984383e-06  5.00000000e-01                                 
 1.94993713e-06  7.99945091e-01  1.94993713e-06  7.43088369e-01  1.94993713e-06  6.34279914e-01  1.94993713e-06  1.80000000e+00  1.94993713e-06  1.51471940e-07  1.94993713e-06  5.00000000e-01                                 
 2.09699211e-06  7.99066479e-01  2.09699211e-06  7.42267145e-01  2.09699211e-06  5.70675108e-01  2.09699211e-06  1.80000000e+00  2.09699211e-06  2.37216489e-07  2.09699211e-06  5.00000000e-01                                 
 2.31977425e-06  8.04398093e-01  2.31977425e-06  7.47028576e-01  2.31977425e-06  5.15126331e-01  2.31977425e-06  1.80000000e+00  2.31977425e-06  1.97708593e-07  2.31977425e-06  5.00000000e-01                                 
 2.52965002e-06  7.96894465e-01  2.52965002e-06  7.40323773e-01  2.52965002e-06  4.92391656e-01  2.52965002e-06  1.80000000e+00  2.52965002e-06  1.54871597e-07  2.52965002e-06  5.00000000e-01                                 
 2.55696898e-06  7.99692630e-01  2.55696898e-06  7.42838874e-01  2.55696898e-06  4.94592450e-01  2.55696898e-06  1.80000000e+00  2.55696898e-06  2.64308445e-07  2.55696898e-06  5.00000000e-01                                 
 2.61160688e-06  8.03071410e-01  2.61160688e-06  7.45844170e-01  2.61160688e-06  4.96663272e-01  2.61160688e-06  1.80000000e+00  2.61160688e-06  2.17824644e-07  2.61160688e-06  5.00000000e-01                                 
 2.72088269e-06  8.00422717e-01  2.72088269e-06  7.43500218e-01  2.72088269e-06  4.91719470e-01  2.72088269e-06  1.80000000e+00  2.72088269e-06  1.50640359e-07  2.72088269e-06  5.00000000e-01                                 
 2.90752660e-06  8.00751809e-01  2.90752660e-06  7.43784529e-01  2.90752660e-06  4.97643783e-01  2.90752660e-06  1.80000000e+00  2.90752660e-06  2.50547355e-07  2.90752660e-06  5.00000000e-01                                 
 3.08628119e-06  8.02143717e-01  3.08628119e-06  7.45028466e-01  3.08628119e-06  5.04322309e-01  3.08628119e-06  1.80000000e+00  3.08628119e-06  1.58584881e-07  3.08628119e-06  5.00000000e-01                                 
 3.32317403e-06  7.99657018e-01  3.32317403e-06  7.42810473e-01  3.32317403e-06  4.97058191e-01  3.32317403e-06  1.80000000e+00  3.32317403e-06  2.25527230e-07  3.32317403e-06  5.00000000e-01                                 
 3.56716395e-06  8.02524170e-01  3.56716395e-06  7.45362810e-01  3.56716395e-06  5.01581435e-01  3.56716395e-06  1.80000000e+00  3.56716395e-06  1.89955155e-07  3.56716395e-06  5.00000000e-01                                 
 3.98558920e-06  7.99632789e-01  3.98558920e-06  7.42791014e-01  3.98558920e-06  4.99398252e-01  3.98558920e-06  1.80000000e+00  3.98558920e-06  1.99219177e-07  3.98558920e-06  5.00000000e-01                                 
 4.03862428e-06  8.00716965e-01  4.03862428e-06  7.43756820e-01  4.03862428e-06  4.99644459e-01  4.03862428e-06  1.80000000e+00  4.03862428e-06  2.13123081e-07  4.03862428e-06  5.00000000e-01                                 
 4.14469444e-06  8.01560180e-01  4.14469444e-06  7.44507740e-01  4.14469444e-06  5.00088289e-01  4.14469444e-06  1.80000000e+00  4.14469444e-06  1.97190153e-07  4.14469444e-06  5.00000000e-01                                 
 4.35683478e-06  8.00650932e-01  4.35683478e-06  7.43699444e-01  4.35683478e-06  4.99984209e-01  4.35683478e-06  1.80000000e+00  4.35683478e-06  1.95906070e-07  4.35683478e-06  5.00000000e-01                                 
