 time            v(vbep)         time            v(vben)         time            v(vout)         time            v(vphi1)        time            v(vphi2)        time            v(vref)         time            v(voutc)        time            v(voutcc)       yes             currtemp       
 0.00000000e+00  6.86849114e-01  0.00000000e+00  6.16195926e-01  0.00000000e+00  1.42292472e+00  0.00000000e+00  0.00000000e+00  0.00000000e+00  1.79999999e+00  0.00000000e+00  6.15672712e-01  0.00000000e+00  1.42292471e+00  0.00000000e+00  1.43103624e+00  1.00000000e+00  8.40000000e+01 
 1.00000000e-11  6.86874332e-01  1.00000000e-11  6.16269007e-01  1.00000000e-11  1.42366818e+00  1.00000000e-11  1.80000000e-02  1.00000000e-11  1.80025115e+00  1.00000000e-11  6.16197964e-01  1.00000000e-11  1.42338694e+00  1.00000000e-11  1.43105005e+00                                 
 2.00000000e-11  6.86881054e-01  2.00000000e-11  6.16313603e-01  2.00000000e-11  1.42410726e+00  2.00000000e-11  3.60000000e-02  2.00000000e-11  1.80034784e+00  2.00000000e-11  6.16584347e-01  2.00000000e-11  1.42373117e+00  2.00000000e-11  1.43105487e+00                                 
 4.00000000e-11  6.86880848e-01  4.00000000e-11  6.16371152e-01  4.00000000e-11  1.42461277e+00  4.00000000e-11  7.20000000e-02  4.00000000e-11  1.80038015e+00  4.00000000e-11  6.17146338e-01  4.00000000e-11  1.42423742e+00  4.00000000e-11  1.43105608e+00                                 
 8.00000000e-11  6.86869148e-01  8.00000000e-11  6.16405467e-01  8.00000000e-11  1.42465953e+00  8.00000000e-11  1.44000000e-01  8.00000000e-11  1.80017417e+00  8.00000000e-11  6.17579649e-01  8.00000000e-11  1.42463304e+00  8.00000000e-11  1.43104590e+00                                 
 1.60000000e-10  6.86866414e-01  1.60000000e-10  6.16412716e-01  1.60000000e-10  1.42432610e+00  1.60000000e-10  2.88000000e-01  1.60000000e-10  1.80000506e+00  1.60000000e-10  6.17676139e-01  1.60000000e-10  1.42466955e+00  1.60000000e-10  1.43103704e+00                                 
 3.20000000e-10  6.86861190e-01  3.20000000e-10  6.16399512e-01  3.20000000e-10  1.42395706e+00  3.20000000e-10  5.76000000e-01  3.20000000e-10  1.79998091e+00  3.20000000e-10  6.17518080e-01  3.20000000e-10  1.42432714e+00  3.20000000e-10  1.43103172e+00                                 
 6.40000000e-10  6.86779909e-01  6.40000000e-10  6.15921050e-01  6.40000000e-10  1.42233341e+00  6.40000000e-10  1.15200000e+00  6.40000000e-10  1.80745867e+00  6.40000000e-10  6.14132739e-01  6.40000000e-10  1.42666233e+00  6.40000000e-10  1.43105073e+00                                 
 1.00000000e-09  6.87304772e-01  1.00000000e-09  6.16434263e-01  1.00000000e-09  1.40427994e+00  1.00000000e-09  1.80000000e+00  1.00000000e-09  1.14265091e-01  1.00000000e-09  6.31115996e-01  1.00000000e-09  1.43437815e+00  1.00000000e-09  1.43107854e+00                                 
 1.03803748e-09  6.87390141e-01  1.03803748e-09  6.16414973e-01  1.03803748e-09  1.40247476e+00  1.03803748e-09  1.80000000e+00  1.03803748e-09  2.79628802e-02  1.03803748e-09  6.34030324e-01  1.03803748e-09  1.43587260e+00  1.03803748e-09  1.43108790e+00                                 
 1.11411245e-09  6.87579442e-01  1.11411245e-09  6.16411478e-01  1.11411245e-09  1.40020580e+00  1.11411245e-09  1.80000000e+00  1.11411245e-09 -1.25819704e-02  1.11411245e-09  6.37520169e-01  1.11411245e-09  1.43852902e+00  1.11411245e-09  1.43109303e+00                                 
 1.26626239e-09  6.87705354e-01  1.26626239e-09  6.16243067e-01  1.26626239e-09  1.39681169e+00  1.26626239e-09  1.80000000e+00  1.26626239e-09  9.70756662e-03  1.26626239e-09  6.36824479e-01  1.26626239e-09  1.43823816e+00  1.26626239e-09  1.43105253e+00                                 
 1.45046157e-09  6.87661552e-01  1.45046157e-09  6.16236751e-01  1.45046157e-09  1.39569964e+00  1.45046157e-09  1.80000000e+00  1.45046157e-09 -7.33974400e-03  1.45046157e-09  6.35575578e-01  1.45046157e-09  1.43694143e+00  1.45046157e-09  1.43109843e+00                                 
 1.65590391e-09  6.87544874e-01  1.65590391e-09  6.16236969e-01  1.65590391e-09  1.39520181e+00  1.65590391e-09  1.80000000e+00  1.65590391e-09  5.92831299e-03  1.65590391e-09  6.33817870e-01  1.65590391e-09  1.43563287e+00  1.65590391e-09  1.43114849e+00                                 
 2.02245685e-09  6.87278262e-01  2.02245685e-09  6.16202110e-01  2.02245685e-09  1.39430770e+00  2.02245685e-09  1.80000000e+00  2.02245685e-09 -5.25989533e-03  2.02245685e-09  6.30830479e-01  2.02245685e-09  1.43291341e+00  2.02245685e-09  1.43130710e+00                                 
 2.62074608e-09  6.86984526e-01  2.62074608e-09  6.16212431e-01  2.62074608e-09  1.39284707e+00  2.62074608e-09  1.80000000e+00  2.62074608e-09  4.84190800e-03  2.62074608e-09  6.26920901e-01  2.62074608e-09  1.42971976e+00  2.62074608e-09  1.43155845e+00                                 
 3.61192096e-09  6.86731457e-01  3.61192096e-09  6.16168207e-01  3.61192096e-09  1.38883069e+00  3.61192096e-09  1.80000000e+00  3.61192096e-09 -4.66161494e-03  3.61192096e-09  6.21675469e-01  3.61192096e-09  1.42509781e+00  3.61192096e-09  1.43190005e+00                                 
 5.20172165e-09  6.86646473e-01  5.20172165e-09  6.16186478e-01  5.20172165e-09  1.38140314e+00  5.20172165e-09  1.80000000e+00  5.20172165e-09  4.51549675e-03  5.20172165e-09  6.17074286e-01  5.20172165e-09  1.42131563e+00  5.20172165e-09  1.43210996e+00                                 
 6.56188455e-09  6.86650288e-01  6.56188455e-09  6.16159351e-01  6.56188455e-09  1.37346820e+00  6.56188455e-09  1.80000000e+00  6.56188455e-09 -4.37715979e-03  6.56188455e-09  6.14916727e-01  6.56188455e-09  1.41934710e+00  6.56188455e-09  1.43203639e+00                                 
 7.79466786e-09  6.86697493e-01  7.79466786e-09  6.16192561e-01  7.79466786e-09  1.36571315e+00  7.79466786e-09  1.80000000e+00  7.79466786e-09  4.22338325e-03  7.79466786e-09  6.14257700e-01  7.79466786e-09  1.41891460e+00  7.79466786e-09  1.43184550e+00                                 
 9.15063076e-09  6.86726959e-01  9.15063076e-09  6.16168308e-01  9.15063076e-09  1.35577471e+00  9.15063076e-09  1.80000000e+00  9.15063076e-09 -4.08568160e-03  9.15063076e-09  6.13603570e-01  9.15063076e-09  1.41822589e+00  9.15063076e-09  1.43158460e+00                                 
 1.09704592e-08  6.86786875e-01  1.09704592e-08  6.16203477e-01  1.09704592e-08  1.34181512e+00  1.09704592e-08  1.80000000e+00  1.09704592e-08  3.99417110e-03  1.09704592e-08  6.13673141e-01  1.09704592e-08  1.41839545e+00  1.09704592e-08  1.43120269e+00                                 
 1.32006689e-08  6.86814793e-01  1.32006689e-08  6.16177699e-01  1.32006689e-08  1.32308586e+00  1.32006689e-08  1.80000000e+00  1.32006689e-08 -3.90877379e-03  1.32006689e-08  6.13545044e-01  1.32006689e-08  1.41814818e+00  1.32006689e-08  1.43075387e+00                                 
 1.61780010e-08  6.86855093e-01  1.61780010e-08  6.16210199e-01  1.61780010e-08  1.29754391e+00  1.61780010e-08  1.80000000e+00  1.61780010e-08  3.86099170e-03  1.61780010e-08  6.14048708e-01  1.61780010e-08  1.41867300e+00  1.61780010e-08  1.43022130e+00                                 
 2.01328642e-08  6.86855424e-01  2.01328642e-08  6.16181361e-01  2.01328642e-08  1.26229505e+00  2.01328642e-08  1.80000000e+00  2.01328642e-08 -3.80873605e-03  2.01328642e-08  6.14181960e-01  2.01328642e-08  1.41864566e+00  2.01328642e-08  1.42965186e+00                                 
 2.63899017e-08  6.86868128e-01  2.63899017e-08  6.16211880e-01  2.63899017e-08  1.20664796e+00  2.63899017e-08  1.80000000e+00  2.63899017e-08  3.79244650e-03  2.63899017e-08  6.14863561e-01  2.63899017e-08  1.41931814e+00  2.63899017e-08  1.42900819e+00                                 
 3.68937569e-08  6.86849522e-01  3.68937569e-08  6.16181578e-01  3.68937569e-08  1.11297636e+00  3.68937569e-08  1.80000000e+00  3.68937569e-08 -3.76639375e-03  3.68937569e-08  6.15088175e-01  3.68937569e-08  1.41937529e+00  3.68937569e-08  1.42840253e+00                                 
 5.17109870e-08  6.86856349e-01  5.17109870e-08  6.16211262e-01  5.17109870e-08  9.83014147e-01  5.17109870e-08  1.80000000e+00  5.17109870e-08  3.76624795e-03  5.17109870e-08  6.15618790e-01  5.17109870e-08  1.41993600e+00  5.17109870e-08  1.42807480e+00                                 
 8.13454472e-08  6.86843210e-01  8.13454472e-08  6.16180735e-01  8.13454472e-08  7.39054343e-01  8.13454472e-08  1.80000000e+00  8.13454472e-08 -3.74672165e-03  8.13454472e-08  6.15540459e-01  8.13454472e-08  1.41975429e+00  8.13454472e-08  1.42797806e+00                                 
 1.06872546e-07  6.86860528e-01  1.06872546e-07  6.16211621e-01  1.06872546e-07  6.27517698e-01  1.06872546e-07  1.80000000e+00  1.06872546e-07  3.76514010e-03  1.06872546e-07  6.15802009e-01  1.06872546e-07  1.42009277e+00  1.06872546e-07  1.42802099e+00                                 
 1.32615476e-07  6.86834462e-01  1.32615476e-07  6.16180076e-01  1.32615476e-07  6.15788196e-01  1.32615476e-07  1.80000000e+00  1.32615476e-07 -3.72814904e-03  1.32615476e-07  6.15553489e-01  1.32615476e-07  1.41976597e+00  1.32615476e-07  1.42803899e+00                                 
 1.46709445e-07  6.86860174e-01  1.46709445e-07  6.16211630e-01  1.46709445e-07  6.15588074e-01  1.46709445e-07  1.80000000e+00  1.46709445e-07  3.74847487e-03  1.46709445e-07  6.15795093e-01  1.46709445e-07  1.42008581e+00  1.46709445e-07  1.42803954e+00                                 
 1.65442403e-07  6.86839055e-01  1.65442403e-07  6.16180186e-01  1.65442403e-07  6.15094474e-01  1.65442403e-07  1.80000000e+00  1.65442403e-07 -3.70866730e-03  1.65442403e-07  6.15551229e-01  1.65442403e-07  1.41976329e+00  1.65442403e-07  1.42804019e+00                                 
 2.02908320e-07  6.86858605e-01  2.02908320e-07  6.16211648e-01  2.02908320e-07  6.15218170e-01  2.02908320e-07  1.80000000e+00  2.02908320e-07  3.73591045e-03  2.02908320e-07  6.15794376e-01  2.02908320e-07  1.42008322e+00  2.02908320e-07  1.42803834e+00                                 
 2.77840154e-07  6.86839858e-01  2.77840154e-07  6.16180195e-01  2.77840154e-07  6.15011488e-01  2.77840154e-07  1.80000000e+00  2.77840154e-07 -3.70241147e-03  2.77840154e-07  6.15550994e-01  2.77840154e-07  1.41975962e+00  2.77840154e-07  1.42803647e+00                                 
 4.27703821e-07  6.86858258e-01  4.27703821e-07  6.16211645e-01  4.27703821e-07  6.15216290e-01  4.27703821e-07  1.80000000e+00  4.27703821e-07  3.73277033e-03  4.27703821e-07  6.15794395e-01  4.27703821e-07  1.42007609e+00  4.27703821e-07  1.42803117e+00                                 
 7.27431156e-07  6.86840023e-01  7.27431156e-07  6.16180196e-01  7.27431156e-07  6.15011392e-01  7.27431156e-07  1.80000000e+00  7.27431156e-07 -3.70085328e-03  7.27431156e-07  6.15550987e-01  7.27431156e-07  1.41974543e+00  7.27431156e-07  1.42802229e+00                                 
 1.32688582e-06  6.86858177e-01  1.32688582e-06  6.16211644e-01  1.32688582e-06  6.15216024e-01  1.32688582e-06  1.80000000e+00  1.32688582e-06  3.73198570e-03  1.32688582e-06  6.15794398e-01  1.32688582e-06  1.42004768e+00  1.32688582e-06  1.42800281e+00                                 
 2.52579516e-06  6.86840063e-01  2.52579516e-06  6.16180197e-01  2.52579516e-06  6.15011647e-01  2.52579516e-06  1.80000000e+00  2.52579516e-06 -3.70046383e-03  2.52579516e-06  6.15550986e-01  2.52579516e-06  1.41968864e+00  2.52579516e-06  1.42796557e+00                                 
 3.72579516e-06  6.86858151e-01  3.72579516e-06  6.16211644e-01  3.72579516e-06  6.15217028e-01  3.72579516e-06  1.80000000e+00  3.72579516e-06  3.73172463e-03  3.72579516e-06  6.15794399e-01  3.72579516e-06  1.41997191e+00  3.72579516e-06  1.42792713e+00                                 
 4.92579516e-06  6.86840089e-01  4.92579516e-06  6.16180197e-01  4.92579516e-06  6.15012455e-01  4.92579516e-06  1.80000000e+00  4.92579516e-06 -3.70022021e-03  4.92579516e-06  6.15550985e-01  4.92579516e-06  1.41961281e+00  4.92579516e-06  1.42788983e+00                                 
 6.00100000e-06  6.86858123e-01  6.00100000e-06  6.16211644e-01  6.00100000e-06  6.15216764e-01  6.00100000e-06  1.80000000e+00  6.00100000e-06  3.73144822e-03  6.00100000e-06  6.15794400e-01  6.00100000e-06  1.41989994e+00  6.00100000e-06  1.42785525e+00                                 
 6.00110000e-06  6.86801897e-01  6.00110000e-06  6.15958941e-01  6.00110000e-06  6.13414123e-01  6.00110000e-06  1.62000000e+00  6.00110000e-06  2.60942853e-04  6.00110000e-06  6.14160144e-01  6.00110000e-06  1.41845166e+00  6.00110000e-06  1.42784496e+00                                 
 6.00130000e-06  6.86835175e-01  6.00130000e-06  6.15950405e-01  6.00130000e-06  6.13375830e-01  6.00130000e-06  1.26000000e+00  6.00130000e-06 -2.81199832e-04  6.00130000e-06  6.13816096e-01  6.00130000e-06  1.41815097e+00  6.00130000e-06  1.42786003e+00                                 
 6.00164937e-06  6.86904332e-01  6.00164937e-06  6.16142616e-01  6.00164937e-06  6.15359748e-01  6.00164937e-06  6.31125599e-01  6.00164937e-06  2.28373906e-02  6.00164937e-06  6.13948906e-01  6.00164937e-06  1.41475371e+00  6.00164937e-06  1.42783510e+00                                 
 6.00200000e-06  6.86832369e-01  6.00200000e-06  6.14855697e-01  6.00200000e-06  6.48278250e-01  6.00200000e-06  0.00000000e+00  6.00200000e-06  1.61266927e+00  6.00200000e-06  6.00540643e-01  6.00200000e-06  1.20592724e+00  6.00200000e-06  1.42725714e+00                                 
 6.00204667e-06  6.86849468e-01  6.00204667e-06  6.14206085e-01  6.00204667e-06  6.56147516e-01  6.00204667e-06  0.00000000e+00  6.00204667e-06  1.73252917e+00  6.00204667e-06  5.93179513e-01  6.00204667e-06  1.13000310e+00  6.00204667e-06  1.42726654e+00                                 
 6.00214000e-06  6.86852881e-01  6.00214000e-06  6.13243692e-01  6.00214000e-06  6.61213655e-01  6.00214000e-06  0.00000000e+00  6.00214000e-06  1.81508026e+00  6.00214000e-06  5.82392388e-01  6.00214000e-06  9.79223267e-01  6.00214000e-06  1.42771673e+00                                 
 6.00232668e-06  6.86848251e-01  6.00232668e-06  6.13551865e-01  6.00232668e-06  6.47217540e-01  6.00232668e-06  0.00000000e+00  6.00232668e-06  1.78765093e+00  6.00232668e-06  5.86202367e-01  6.00232668e-06  7.66110901e-01  6.00232668e-06  1.42818859e+00                                 
 6.00251309e-06  6.86850656e-01  6.00251309e-06  6.14762040e-01  6.00251309e-06  6.32116159e-01  6.00251309e-06  0.00000000e+00  6.00251309e-06  1.80591847e+00  6.00251309e-06  5.99183935e-01  6.00251309e-06  6.72302638e-01  6.00251309e-06  1.42824309e+00                                 
 6.00266937e-06  6.86847833e-01  6.00266937e-06  6.15502942e-01  6.00266937e-06  6.23475976e-01  6.00266937e-06  0.00000000e+00  6.00266937e-06  1.79670695e+00  6.00266937e-06  6.06221582e-01  6.00266937e-06  6.39749463e-01  6.00266937e-06  1.42818107e+00                                 
 6.00287912e-06  6.86850231e-01  6.00287912e-06  6.16190282e-01  6.00287912e-06  6.18555811e-01  6.00287912e-06  0.00000000e+00  6.00287912e-06  1.80214933e+00  6.00287912e-06  6.12592923e-01  6.00287912e-06  6.24133802e-01  6.00287912e-06  1.42736294e+00                                 
 6.00308406e-06  6.86848113e-01  6.00308406e-06  6.16437370e-01  6.00308406e-06  6.16720607e-01  6.00308406e-06  0.00000000e+00  6.00308406e-06  1.79874510e+00  6.00308406e-06  6.14457240e-01  6.00308406e-06  6.18462498e-01  6.00308406e-06  1.42635859e+00                                 
 6.00339530e-06  6.86850175e-01  6.00339530e-06  6.16634770e-01  6.00339530e-06  6.16404141e-01  6.00339530e-06  0.00000000e+00  6.00339530e-06  1.80097856e+00  6.00339530e-06  6.16285596e-01  6.00339530e-06  6.16816034e-01  6.00339530e-06  1.42438051e+00                                 
 6.00380894e-06  6.86848373e-01  6.00380894e-06  6.16632840e-01  6.00380894e-06  6.17117720e-01  6.00380894e-06  0.00000000e+00  6.00380894e-06  1.79925420e+00  6.00380894e-06  6.16416402e-01  6.00380894e-06  6.16792837e-01  6.00380894e-06  1.42157942e+00                                 
 6.00454641e-06  6.86850139e-01  6.00454641e-06  6.16616487e-01  6.00454641e-06  6.19196824e-01  6.00454641e-06  0.00000000e+00  6.00454641e-06  1.80068329e+00  6.00454641e-06  6.16951486e-01  6.00454641e-06  6.19056427e-01  6.00454641e-06  1.41610877e+00                                 
 6.00569946e-06  6.86848347e-01  6.00569946e-06  6.16510085e-01  6.00569946e-06  6.22637635e-01  6.00569946e-06  0.00000000e+00  6.00569946e-06  1.79940052e+00  6.00569946e-06  6.16724345e-01  6.00569946e-06  6.22209853e-01  6.00569946e-06  1.40716424e+00                                 
 6.00800556e-06  6.86849953e-01  6.00800556e-06  6.16385572e-01  6.00800556e-06  6.29721451e-01  6.00800556e-06  0.00000000e+00  6.00800556e-06  1.80060504e+00  6.00800556e-06  6.16941254e-01  6.00800556e-06  6.29530931e-01  6.00800556e-06  1.38824718e+00                                 
 6.01261776e-06  6.86848263e-01  6.01261776e-06  6.16199190e-01  6.01261776e-06  6.43572615e-01  6.01261776e-06  0.00000000e+00  6.01261776e-06  1.79943201e+00  6.01261776e-06  6.16415546e-01  6.01261776e-06  6.43099944e-01  6.01261776e-06  1.34921903e+00                                 
 6.02022291e-06  6.86849942e-01  6.02022291e-06  6.16186703e-01  6.02022291e-06  6.65823077e-01  6.02022291e-06  0.00000000e+00  6.02022291e-06  1.80058529e+00  6.02022291e-06  6.16361703e-01  6.02022291e-06  6.65594161e-01  6.02022291e-06  1.28350992e+00                                 
 6.03382569e-06  6.86848278e-01  6.03382569e-06  6.16178935e-01  6.03382569e-06  7.03695405e-01  6.03382569e-06  0.00000000e+00  6.03382569e-06  1.79944208e+00  6.03382569e-06  6.15745955e-01  6.03382569e-06  7.03144450e-01  6.03382569e-06  1.16559850e+00                                 
 6.04816837e-06  6.86849944e-01  6.04816837e-06  6.16203673e-01  6.04816837e-06  7.41163263e-01  6.04816837e-06  0.00000000e+00  6.04816837e-06  1.80057620e+00  6.04816837e-06  6.15883738e-01  6.04816837e-06  7.40910533e-01  6.04816837e-06  1.05230338e+00                                 
 6.06837438e-06  6.86848283e-01  6.06837438e-06  6.16184601e-01  6.06837438e-06  7.89798164e-01  6.06837438e-06  0.00000000e+00  6.06837438e-06  1.79944643e+00  6.06837438e-06  6.15542078e-01  6.06837438e-06  7.89048797e-01  6.06837438e-06  9.21085938e-01                                 
 6.09788844e-06  6.86849943e-01  6.09788844e-06  6.16206854e-01  6.09788844e-06  8.52906883e-01  6.09788844e-06  0.00000000e+00  6.09788844e-06  1.80056920e+00  6.09788844e-06  6.15801830e-01  6.09788844e-06  8.52654214e-01  6.09788844e-06  8.44996758e-01                                 
 6.12639470e-06  6.86848285e-01  6.12639470e-06  6.16184870e-01  6.12639470e-06  9.05551941e-01  6.12639470e-06  0.00000000e+00  6.12639470e-06  1.79944702e+00  6.12639470e-06  6.15524812e-01  6.12639470e-06  9.04507798e-01  6.12639470e-06  8.79276321e-01                                 
 6.14308622e-06  6.86849941e-01  6.14308622e-06  6.16207257e-01  6.14308622e-06  9.32958640e-01  6.14308622e-06  0.00000000e+00  6.14308622e-06  1.80056484e+00  6.14308622e-06  6.15804839e-01  6.14308622e-06  9.32749616e-01  6.14308622e-06  9.07540437e-01                                 
 6.16035134e-06  6.86848288e-01  6.16035134e-06  6.16184392e-01  6.16035134e-06  9.58858868e-01  6.16035134e-06  0.00000000e+00  6.16035134e-06  1.79945146e+00  6.16035134e-06  6.15522768e-01  6.16035134e-06  9.57672170e-01  6.16035134e-06  9.34622491e-01                                 
 6.19488157e-06  6.86849939e-01  6.19488157e-06  6.16207613e-01  6.19488157e-06  1.00407161e+00  6.19488157e-06  0.00000000e+00  6.19488157e-06  1.80055631e+00  6.19488157e-06  6.15809197e-01  6.19488157e-06  1.00389469e+00  6.19488157e-06  9.83240629e-01                                 
