 time            v(vbep)         time            v(vben)         time            v(vout)         time            v(vphi1)        time            v(vphi2)        time            v(vref)         yes             currtemp       
 0.00000000e+00  5.63464030e-01  0.00000000e+00  4.99277068e-01  0.00000000e+00  1.83727142e-01  0.00000000e+00  0.00000000e+00  0.00000000e+00  1.79998062e+00  0.00000000e+00  5.00000000e-01  1.00000000e+00  7.90000000e+01 
 5.00000000e-12  5.63449547e-01  5.00000000e-12  4.99265025e-01  5.00000000e-12  1.84319950e-01  5.00000000e-12  1.80000000e-02  5.00000000e-12  1.80007990e+00  5.00000000e-12  5.00000000e-01                                 
 1.00000000e-11  5.63435214e-01  1.00000000e-11  4.99253214e-01  1.00000000e-11  1.84852907e-01  1.00000000e-11  3.60000000e-02  1.00000000e-11  1.80012748e+00  1.00000000e-11  5.00000000e-01                                 
 2.00000000e-11  5.63406621e-01  2.00000000e-11  4.99229648e-01  2.00000000e-11  1.85829389e-01  2.00000000e-11  7.20000000e-02  2.00000000e-11  1.80016590e+00  2.00000000e-11  5.00000000e-01                                 
 4.00000000e-11  5.63349572e-01  4.00000000e-11  4.99182620e-01  4.00000000e-11  1.87391103e-01  4.00000000e-11  1.44000000e-01  4.00000000e-11  1.80012307e+00  4.00000000e-11  5.00000000e-01                                 
 8.00000000e-11  5.63235752e-01  8.00000000e-11  4.99088761e-01  8.00000000e-11  1.89666325e-01  8.00000000e-11  2.88000000e-01  8.00000000e-11  1.80005656e+00  8.00000000e-11  5.00000000e-01                                 
 1.60000000e-10  5.63009256e-01  1.60000000e-10  4.98901823e-01  1.60000000e-10  1.93082497e-01  1.60000000e-10  5.76000000e-01  1.60000000e-10  1.80001435e+00  1.60000000e-10  5.00000000e-01                                 
 3.20000000e-10  5.62560702e-01  3.20000000e-10  4.98530998e-01  3.20000000e-10  2.11453202e-01  3.20000000e-10  1.15200000e+00  3.20000000e-10  1.80030523e+00  3.20000000e-10  5.00000000e-01                                 
 5.00000000e-10  5.62062967e-01  5.00000000e-10  4.98118559e-01  5.00000000e-10  4.65607517e-01  5.00000000e-10  1.80000000e+00  5.00000000e-10  1.36563329e-01  5.00000000e-10  5.00000000e-01                                 
 5.22613354e-10  5.62001005e-01  5.22613354e-10  4.98067137e-01  5.22613354e-10  5.20084744e-01  5.22613354e-10  1.80000000e+00  5.22613354e-10  2.89751702e-02  5.22613354e-10  5.00000000e-01                                 
 5.67840062e-10  5.61877308e-01  5.67840062e-10  4.97964451e-01  5.67840062e-10  6.20097378e-01  5.67840062e-10  1.80000000e+00  5.67840062e-10 -1.30133481e-02  5.67840062e-10  5.00000000e-01                                 
 6.58293478e-10  5.61631284e-01  6.58293478e-10  4.97760033e-01  6.58293478e-10  7.75773259e-01  6.58293478e-10  1.80000000e+00  6.58293478e-10  1.07724748e-02  6.58293478e-10  5.00000000e-01                                 
 7.81279148e-10  5.61299640e-01  7.81279148e-10  4.97484089e-01  7.81279148e-10  9.27167490e-01  7.81279148e-10  1.80000000e+00  7.81279148e-10 -8.99643647e-03  7.81279148e-10  5.00000000e-01                                 
 9.78465877e-10  5.60774593e-01  9.78465877e-10  4.97046332e-01  9.78465877e-10  1.10217830e+00  9.78465877e-10  1.80000000e+00  9.78465877e-10  8.41726939e-03  9.78465877e-10  5.00000000e-01                                 
 1.27669453e-09  5.59995769e-01  1.27669453e-09  4.96394988e-01  1.27669453e-09  1.29035798e+00  1.27669453e-09  1.80000000e+00  1.27669453e-09 -7.78467809e-03  1.27669453e-09  5.00000000e-01                                 
 1.71966283e-09  5.58871518e-01  1.71966283e-09  4.95450590e-01  1.71966283e-09  1.45379085e+00  1.71966283e-09  1.80000000e+00  1.71966283e-09  7.60375673e-03  1.71966283e-09  5.00000000e-01                                 
 2.15311883e-09  5.57806546e-01  2.15311883e-09  4.94551511e-01  2.15311883e-09  1.52362636e+00  2.15311883e-09  1.80000000e+00  2.15311883e-09 -7.18279967e-03  2.15311883e-09  5.00000000e-01                                 
 2.55971430e-09  5.56836861e-01  2.55971430e-09  4.93729180e-01  2.55971430e-09  1.54851402e+00  2.55971430e-09  1.80000000e+00  2.55971430e-09  6.97891906e-03  2.55971430e-09  5.00000000e-01                                 
 2.99694343e-09  5.55823762e-01  2.99694343e-09  4.92866360e-01  2.99694343e-09  1.55717690e+00  2.99694343e-09  1.80000000e+00  2.99694343e-09 -6.63614489e-03  2.99694343e-09  5.00000000e-01                                 
 3.43939863e-09  5.54828032e-01  3.43939863e-09  4.92014745e-01  3.43939863e-09  1.55890025e+00  3.43939863e-09  1.80000000e+00  3.43939863e-09  6.43557412e-03  3.43939863e-09  5.00000000e-01                                 
 3.98078820e-09  5.53647463e-01  3.98078820e-09  4.91000556e-01  3.98078820e-09  1.55783681e+00  3.98078820e-09  1.80000000e+00  3.98078820e-09 -6.18427163e-03  3.98078820e-09  5.00000000e-01                                 
 4.79815583e-09  5.51937967e-01  4.79815583e-09  4.89523636e-01  4.79815583e-09  1.55509813e+00  4.79815583e-09  1.80000000e+00  4.79815583e-09  6.09959846e-03  4.79815583e-09  5.00000000e-01                                 
 6.03568218e-09  5.49500115e-01  6.03568218e-09  4.87401041e-01  6.03568218e-09  1.55098639e+00  6.03568218e-09  1.80000000e+00  6.03568218e-09 -5.97136053e-03  6.03568218e-09  5.00000000e-01                                 
 8.51073489e-09  5.45080962e-01  8.51073489e-09  4.83508020e-01  8.51073489e-09  1.54459909e+00  8.51073489e-09  1.80000000e+00  8.51073489e-09  5.97295572e-03  8.51073489e-09  5.00000000e-01                                 
 1.34608403e-08  5.37632577e-01  1.34608403e-08  4.76827218e-01  1.34608403e-08  1.53164060e+00  1.34608403e-08  1.80000000e+00  1.34608403e-08 -5.90900752e-03  1.34608403e-08  5.00000000e-01                                 
 2.33610511e-08  5.26377792e-01  2.33610511e-08  4.66477418e-01  2.33610511e-08  1.49255801e+00  2.33610511e-08  1.80000000e+00  2.33610511e-08  5.94224208e-03  2.33610511e-08  5.00000000e-01                                 
 4.31614728e-08  5.11541360e-01  4.31614728e-08  4.52408091e-01  4.31614728e-08  1.37773298e+00  4.31614728e-08  1.80000000e+00  4.31614728e-08 -5.89327075e-03  4.31614728e-08  5.00000000e-01                                 
 6.94130149e-08  4.98847487e-01  6.94130149e-08  4.40100148e-01  6.94130149e-08  1.20809664e+00  6.94130149e-08  1.80000000e+00  6.94130149e-08  5.93356178e-03  6.94130149e-08  5.00000000e-01                                 
 1.17753144e-07  4.79216855e-01  1.17753144e-07  4.21662224e-01  1.17753144e-07  9.23039972e-01  1.17753144e-07  1.80000000e+00  1.17753144e-07 -5.88724216e-03  1.17753144e-07  5.00000000e-01                                 
 1.69818727e-07  4.61577040e-01  1.69818727e-07  4.05572758e-01  1.69818727e-07  7.38884469e-01  1.69818727e-07  1.80000000e+00  1.69818727e-07  5.92961934e-03  1.69818727e-07  5.00000000e-01                                 
 2.34926705e-07  4.43206983e-01  2.34926705e-07  3.89130492e-01  2.34926705e-07  5.98115075e-01  2.34926705e-07  1.80000000e+00  2.34926705e-07 -5.88371928e-03  2.34926705e-07  5.00000000e-01                                 
 3.14462331e-07  4.20797620e-01  3.14462331e-07  3.69762604e-01  3.14462331e-07  4.77032782e-01  3.14462331e-07  1.80000000e+00  3.14462331e-07  5.92681818e-03  3.14462331e-07  5.00000000e-01                                 
 4.18804121e-07  3.88840814e-01  4.18804121e-07  3.43056577e-01  4.18804121e-07  4.70687494e-01  4.18804121e-07  1.80000000e+00  4.18804121e-07 -5.88153551e-03  4.18804121e-07  5.00000000e-01                                 
 4.30998203e-07  3.84436822e-01  4.30998203e-07  3.39450159e-01  4.30998203e-07  4.80653616e-01  4.30998203e-07  1.80000000e+00  4.30998203e-07  5.64101788e-06  4.30998203e-07  5.00000000e-01                                 
 4.55386368e-07  3.75426152e-01  4.55386368e-07  3.32087681e-01  4.55386368e-07  5.05890008e-01  4.55386368e-07  1.80000000e+00  4.55386368e-07  9.51955737e-06  4.55386368e-07  5.00000000e-01                                 
 4.92347618e-07  3.61767675e-01  4.92347618e-07  3.20974637e-01  4.92347618e-07  5.20500776e-01  4.92347618e-07  1.80000000e+00  4.92347618e-07  5.64259974e-06  4.92347618e-07  5.00000000e-01                                 
 5.32623868e-07  3.49682415e-01  5.32623868e-07  3.11160553e-01  5.32623868e-07  4.93650299e-01  5.32623868e-07  1.80000000e+00  5.32623868e-07  9.59543000e-06  5.32623868e-07  5.00000000e-01                                 
 5.79342091e-07  3.57935303e-01  5.79342091e-07  3.17676581e-01  5.79342091e-07  4.90502603e-01  5.79342091e-07  1.80000000e+00  5.79342091e-07  6.13715186e-06  5.79342091e-07  5.00000000e-01                                 
 6.24056906e-07  4.84773722e-01  6.24056906e-07  4.19367397e-01  6.24056906e-07  5.56661645e-01  6.24056906e-07  1.80000000e+00  6.24056906e-07  1.24794286e-05  6.24056906e-07  5.00000000e-01                                 
 6.73086785e-07  6.50528259e-01  6.73086785e-07  5.82999074e-01  6.73086785e-07  5.63000768e-01  6.73086785e-07  1.80000000e+00  6.73086785e-07  7.87572701e-06  6.73086785e-07  5.00000000e-01                                 
 7.05532706e-07  6.87301702e-01  7.05532706e-07  6.18799449e-01  7.05532706e-07  5.17180057e-01  7.05532706e-07  1.80000000e+00  7.05532706e-07  9.56652135e-06  7.05532706e-07  5.00000000e-01                                 
 7.37207812e-07  7.06526601e-01  7.37207812e-07  6.35361783e-01  7.37207812e-07  5.00595694e-01  7.37207812e-07  1.80000000e+00  7.37207812e-07  6.96637632e-06  7.37207812e-07  5.00000000e-01                                 
 7.85723227e-07  7.19134452e-01  7.85723227e-07  6.46204738e-01  7.85723227e-07  4.87997997e-01  7.85723227e-07  1.80000000e+00  7.85723227e-07  9.02782957e-06  7.85723227e-07  5.00000000e-01                                 
 7.92652876e-07  7.19761335e-01  7.92652876e-07  6.46636197e-01  7.92652876e-07  4.87058224e-01  7.92652876e-07  1.80000000e+00  7.92652876e-07  7.83313899e-06  7.92652876e-07  5.00000000e-01                                 
 8.06512173e-07  7.20764761e-01  8.06512173e-07  6.47445381e-01  8.06512173e-07  4.85290497e-01  8.06512173e-07  1.80000000e+00  8.06512173e-07  7.83604385e-06  8.06512173e-07  5.00000000e-01                                 
 8.34230767e-07  7.21960981e-01  8.34230767e-07  6.48437422e-01  8.34230767e-07  4.85688724e-01  8.34230767e-07  1.80000000e+00  8.34230767e-07  7.79010815e-06  8.34230767e-07  5.00000000e-01                                 
 8.89667955e-07  7.17210200e-01  8.89667955e-07  6.44531747e-01  8.89667955e-07  5.06809617e-01  8.89667955e-07  1.80000000e+00  8.89667955e-07  7.62381889e-06  8.89667955e-07  5.00000000e-01                                 
 9.53733106e-07  6.97220756e-01  9.53733106e-07  6.27470723e-01  9.53733106e-07  5.01416616e-01  9.53733106e-07  1.80000000e+00  9.53733106e-07  7.41075871e-06  9.53733106e-07  5.00000000e-01                                 
 1.02585058e-06  7.01136654e-01  1.02585058e-06  6.30831099e-01  1.02585058e-06  4.93605844e-01  1.02585058e-06  1.80000000e+00  1.02585058e-06  8.22731698e-06  1.02585058e-06  5.00000000e-01                                 
 1.10699693e-06  7.17694484e-01  1.10699693e-06  6.44935797e-01  1.10699693e-06  5.09846917e-01  1.10699693e-06  1.80000000e+00  1.10699693e-06  7.66131549e-06  1.10699693e-06  5.00000000e-01                                 
 1.11854944e-06  7.14491681e-01  1.11854944e-06  6.42279626e-01  1.11854944e-06  5.05496026e-01  1.11854944e-06  1.80000000e+00  1.11854944e-06  7.54772476e-06  1.11854944e-06  5.00000000e-01                                 
 1.14165447e-06  7.07042171e-01  1.14165447e-06  6.35982623e-01  1.14165447e-06  4.96703853e-01  1.14165447e-06  1.80000000e+00  1.14165447e-06  7.47468684e-06  1.14165447e-06  5.00000000e-01                                 
 1.18786452e-06  7.00539992e-01  1.18786452e-06  6.30341994e-01  1.18786452e-06  4.94376378e-01  1.18786452e-06  1.80000000e+00  1.18786452e-06  7.84406199e-06  1.18786452e-06  5.00000000e-01                                 
 1.26039994e-06  7.08876712e-01  1.26039994e-06  6.37522440e-01  1.26039994e-06  5.07594632e-01  1.26039994e-06  1.80000000e+00  1.26039994e-06  7.89484625e-06  1.26039994e-06  5.00000000e-01                                 
 1.36116171e-06  7.08320641e-01  1.36116171e-06  6.37063593e-01  1.36116171e-06  4.96646486e-01  1.36116171e-06  1.80000000e+00  1.36116171e-06  7.64762704e-06  1.36116171e-06  5.00000000e-01                                 
 1.45459049e-06  7.03906255e-01  1.45459049e-06  6.33265362e-01  1.45459049e-06  4.98089695e-01  1.45459049e-06  1.80000000e+00  1.45459049e-06  7.82629469e-06  1.45459049e-06  5.00000000e-01                                 
 1.62102912e-06  7.09326800e-01  1.62102912e-06  6.37911610e-01  1.62102912e-06  5.04999135e-01  1.62102912e-06  1.80000000e+00  1.62102912e-06  7.77763385e-06  1.62102912e-06  5.00000000e-01                                 
 1.81128778e-06  7.05168616e-01  1.81128778e-06  6.34359403e-01  1.81128778e-06  4.94194014e-01  1.81128778e-06  1.80000000e+00  1.81128778e-06  7.73809623e-06  1.81128778e-06  5.00000000e-01                                 
 2.04799790e-06  7.07704677e-01  2.04799790e-06  6.36526695e-01  2.04799790e-06  5.06419615e-01  2.04799790e-06  1.80000000e+00  2.04799790e-06  7.83019733e-06  2.04799790e-06  5.00000000e-01                                 
 2.39201189e-06  7.06639980e-01  2.39201189e-06  6.35624021e-01  2.39201189e-06  4.94416001e-01  2.39201189e-06  1.80000000e+00  2.39201189e-06  7.71594994e-06  2.39201189e-06  5.00000000e-01                                 
 2.75248104e-06  7.06613699e-01  2.75248104e-06  6.35593251e-01  2.75248104e-06  5.05442071e-01  2.75248104e-06  1.80000000e+00  2.75248104e-06  7.83490706e-06  2.75248104e-06  5.00000000e-01                                 
 3.21759105e-06  7.07510515e-01  3.21759105e-06  6.36368528e-01  3.21759105e-06  4.95718289e-01  3.21759105e-06  1.80000000e+00  3.21759105e-06  7.71932930e-06  3.21759105e-06  5.00000000e-01                                 
 3.75745306e-06  7.05988922e-01  3.75745306e-06  6.35057961e-01  3.75745306e-06  5.04100108e-01  3.75745306e-06  1.80000000e+00  3.75745306e-06  7.82713445e-06  3.75745306e-06  5.00000000e-01                                 
 4.41102343e-06  7.07950305e-01  4.41102343e-06  6.36743411e-01  4.41102343e-06  4.97002948e-01  4.41102343e-06  1.80000000e+00  4.41102343e-06  7.72880109e-06  4.41102343e-06  5.00000000e-01                                 
 5.22782289e-06  7.05672850e-01  5.22782289e-06  6.34787131e-01  5.22782289e-06  5.02970011e-01  5.22782289e-06  1.80000000e+00  5.22782289e-06  7.81774028e-06  5.22782289e-06  5.00000000e-01                                 
 6.22782289e-06  7.08155215e-01  6.22782289e-06  6.36917652e-01  6.22782289e-06  4.97957480e-01  6.22782289e-06  1.80000000e+00  6.22782289e-06  7.73733753e-06  6.22782289e-06  5.00000000e-01                                 
 7.22782289e-06  7.05510546e-01  7.22782289e-06  6.34648184e-01  7.22782289e-06  5.02088473e-01  7.22782289e-06  1.80000000e+00  7.22782289e-06  7.80944841e-06  7.22782289e-06  5.00000000e-01                                 
 8.22782289e-06  7.08280422e-01  8.22782289e-06  6.37023845e-01  8.22782289e-06  4.98850906e-01  8.22782289e-06  1.80000000e+00  8.22782289e-06  7.74608407e-06  8.22782289e-06  5.00000000e-01                                 
 9.22782289e-06  7.05406424e-01  9.22782289e-06  6.34559257e-01  9.22782289e-06  5.01187205e-01  9.22782289e-06  1.80000000e+00  9.22782289e-06  7.80034153e-06  9.22782289e-06  5.00000000e-01                                 
 1.00005000e-05  7.08358081e-01  1.00005000e-05  6.37089731e-01  1.00005000e-05  4.99866541e-01  1.00005000e-05  1.80000000e+00  1.00005000e-05  7.75687264e-06  1.00005000e-05  5.00000000e-01                                 
 1.00005500e-05  7.08356057e-01  1.00005500e-05  6.37087920e-01  1.00005500e-05  4.92439710e-01  1.00005500e-05  1.62000000e+00  1.00005500e-05 -8.55590755e-05  1.00005500e-05  5.00000000e-01                                 
 1.00006500e-05  7.08351796e-01  1.00006500e-05  6.37084288e-01  1.00006500e-05  4.78819840e-01  1.00006500e-05  1.26000000e+00  1.00006500e-05 -7.27012251e-05  1.00006500e-05  5.00000000e-01                                 
 1.00008500e-05  7.08343355e-01  1.00008500e-05  6.37077181e-01  1.00008500e-05  4.77213991e-01  1.00008500e-05  5.40000000e-01  1.00008500e-05  5.37892476e-02  1.00008500e-05  5.00000000e-01                                 
 1.00010000e-05  7.08337132e-01  1.00010000e-05  6.37071907e-01  1.00010000e-05  4.47578479e-01  1.00010000e-05  0.00000000e+00  1.00010000e-05  1.61107153e+00  1.00010000e-05  5.00000000e-01                                 
 1.00010249e-05  7.08336079e-01  1.00010249e-05  6.37071027e-01  1.00010249e-05  4.30088373e-01  1.00010249e-05  0.00000000e+00  1.00010249e-05  1.73623240e+00  1.00010249e-05  5.00000000e-01                                 
 1.00010746e-05  7.08334029e-01  1.00010746e-05  6.37069287e-01  1.00010746e-05  4.00896863e-01  1.00010746e-05  0.00000000e+00  1.00010746e-05  1.81786332e+00  1.00010746e-05  5.00000000e-01                                 
 1.00011741e-05  7.08330045e-01  1.00011741e-05  6.37065879e-01  1.00011741e-05  3.76469322e-01  1.00011741e-05  0.00000000e+00  1.00011741e-05  1.78733733e+00  1.00011741e-05  5.00000000e-01                                 
 1.00013314e-05  7.08323745e-01  1.00013314e-05  6.37060540e-01  1.00013314e-05  3.74264242e-01  1.00013314e-05  0.00000000e+00  1.00013314e-05  1.80903380e+00  1.00013314e-05  5.00000000e-01                                 
 1.00015171e-05  7.08316258e-01  1.00015171e-05  6.37054192e-01  1.00015171e-05  3.73357426e-01  1.00015171e-05  0.00000000e+00  1.00015171e-05  1.79292163e+00  1.00015171e-05  5.00000000e-01                                 
 1.00017343e-05  7.08307436e-01  1.00017343e-05  6.37046705e-01  1.00017343e-05  3.72586141e-01  1.00017343e-05  0.00000000e+00  1.00017343e-05  1.80565897e+00  1.00017343e-05  5.00000000e-01                                 
 1.00021687e-05  7.08289612e-01  1.00021687e-05  6.37031565e-01  1.00021687e-05  3.71264169e-01  1.00021687e-05  0.00000000e+00  1.00021687e-05  1.79489301e+00  1.00021687e-05  5.00000000e-01                                 
 1.00030375e-05  7.08253295e-01  1.00030375e-05  6.37000684e-01  1.00030375e-05  3.70306794e-01  1.00030375e-05  0.00000000e+00  1.00030375e-05  1.80481620e+00  1.00030375e-05  5.00000000e-01                                 
 1.00047751e-05  7.08177381e-01  1.00047751e-05  6.36936101e-01  1.00047751e-05  3.70099459e-01  1.00047751e-05  0.00000000e+00  1.00047751e-05  1.79528984e+00  1.00047751e-05  5.00000000e-01                                 
 1.00082503e-05  7.08009906e-01  1.00082503e-05  6.36793578e-01  1.00082503e-05  3.72436364e-01  1.00082503e-05  0.00000000e+00  1.00082503e-05  1.80462605e+00  1.00082503e-05  5.00000000e-01                                 
 1.00152007e-05  7.07630292e-01  1.00152007e-05  6.36469916e-01  1.00152007e-05  3.79737521e-01  1.00152007e-05  0.00000000e+00  1.00152007e-05  1.79538403e+00  1.00152007e-05  5.00000000e-01                                 
 1.00291016e-05  7.06871977e-01  1.00291016e-05  6.35821190e-01  1.00291016e-05  4.25157553e-01  1.00291016e-05  0.00000000e+00  1.00291016e-05  1.80457974e+00  1.00291016e-05  5.00000000e-01                                 
 1.00493052e-05  7.06148259e-01  1.00493052e-05  6.35199408e-01  1.00493052e-05  5.48036685e-01  1.00493052e-05  0.00000000e+00  1.00493052e-05  1.79541016e+00  1.00493052e-05  5.00000000e-01                                 
