 time            v(vbep)         time            v(vben)         time            v(vout)         time            v(vphi1)        time            v(vphi2)        time            v(vref)         time            v(voutc)        time            v(voutcc)       yes             currtemp       
 0.00000000e+00  7.20576199e-01  0.00000000e+00  6.54764747e-01  0.00000000e+00  1.49690805e+00  0.00000000e+00  0.00000000e+00  0.00000000e+00  1.79999999e+00  0.00000000e+00  6.55587213e-01  0.00000000e+00  1.49690804e+00  0.00000000e+00  1.50432296e+00  1.00000000e+00  6.20000000e+01 
 1.00000000e-11  7.20601305e-01  1.00000000e-11  6.54837225e-01  1.00000000e-11  1.49767464e+00  1.00000000e-11  1.80000000e-02  1.00000000e-11  1.80025385e+00  1.00000000e-11  6.56121565e-01  1.00000000e-11  1.49737975e+00  1.00000000e-11  1.50433691e+00                                 
 2.00000000e-11  7.20608136e-01  2.00000000e-11  6.54882114e-01  2.00000000e-11  1.49813522e+00  2.00000000e-11  3.60000000e-02  2.00000000e-11  1.80035320e+00  2.00000000e-11  6.56516710e-01  2.00000000e-11  1.49773389e+00  2.00000000e-11  1.50434192e+00                                 
 4.00000000e-11  7.20608126e-01  4.00000000e-11  6.54940818e-01  4.00000000e-11  1.49867682e+00  4.00000000e-11  7.20000000e-02  4.00000000e-11  1.80038952e+00  4.00000000e-11  6.57094039e-01  4.00000000e-11  1.49825878e+00  4.00000000e-11  1.50434333e+00                                 
 8.00000000e-11  7.20596529e-01  8.00000000e-11  6.54977706e-01  8.00000000e-11  1.49875618e+00  8.00000000e-11  1.44000000e-01  8.00000000e-11  1.80018372e+00  8.00000000e-11  6.57543495e-01  8.00000000e-11  1.49867873e+00  8.00000000e-11  1.50433285e+00                                 
 1.60000000e-10  7.20593797e-01  1.60000000e-10  6.54987563e-01  1.60000000e-10  1.49841908e+00  1.60000000e-10  2.88000000e-01  1.60000000e-10  1.80000555e+00  1.60000000e-10  6.57636948e-01  1.60000000e-10  1.49872278e+00  1.60000000e-10  1.50432363e+00                                 
 3.20000000e-10  7.20589201e-01  3.20000000e-10  6.54978272e-01  3.20000000e-10  1.49803290e+00  3.20000000e-10  5.76000000e-01  3.20000000e-10  1.79998158e+00  3.20000000e-10  6.57469868e-01  3.20000000e-10  1.49837370e+00  3.20000000e-10  1.50431852e+00                                 
 6.40000000e-10  7.20506142e-01  6.40000000e-10  6.54551381e-01  6.40000000e-10  1.49634414e+00  6.40000000e-10  1.15200000e+00  6.40000000e-10  1.80980845e+00  6.40000000e-10  6.54688168e-01  6.40000000e-10  1.50217045e+00  6.40000000e-10  1.50434375e+00                                 
 1.00000000e-09  7.21074953e-01  1.00000000e-09  6.54936369e-01  1.00000000e-09  1.47572976e+00  1.00000000e-09  1.80000000e+00  1.00000000e-09  1.02886024e-01  1.00000000e-09  6.70096389e-01  1.00000000e-09  1.50707788e+00  1.00000000e-09  1.50434229e+00                                 
 1.03715292e-09  7.21146063e-01  1.03715292e-09  6.54950107e-01  1.03715292e-09  1.47433365e+00  1.03715292e-09  1.80000000e+00  1.03715292e-09  2.41119491e-02  1.03715292e-09  6.73302807e-01  1.03715292e-09  1.50885770e+00  1.03715292e-09  1.50436757e+00                                 
 1.11145877e-09  7.21312760e-01  1.11145877e-09  6.54989507e-01  1.11145877e-09  1.47252372e+00  1.11145877e-09  1.80000000e+00  1.11145877e-09 -1.12896298e-02  1.11145877e-09  6.77356803e-01  1.11145877e-09  1.51200594e+00  1.11145877e-09  1.50438295e+00                                 
 1.26007046e-09  7.21445435e-01  1.26007046e-09  6.54841885e-01  1.26007046e-09  1.46938554e+00  1.26007046e-09  1.80000000e+00  1.26007046e-09  8.96349779e-03  1.26007046e-09  6.77317173e-01  1.26007046e-09  1.51225708e+00  1.26007046e-09  1.50433504e+00                                 
 1.44614242e-09  7.21416732e-01  1.44614242e-09  6.54824504e-01  1.44614242e-09  1.46853999e+00  1.44614242e-09  1.80000000e+00  1.44614242e-09 -6.84473084e-03  1.44614242e-09  6.76293194e-01  1.44614242e-09  1.51116673e+00  1.44614242e-09  1.50437187e+00                                 
 1.65512557e-09  7.21314911e-01  1.65512557e-09  6.54821484e-01  1.65512557e-09  1.46828557e+00  1.65512557e-09  1.80000000e+00  1.65512557e-09  5.66433654e-03  1.65512557e-09  6.74608634e-01  1.65512557e-09  1.50991440e+00  1.65512557e-09  1.50440232e+00                                 
 2.00436531e-09  7.21064492e-01  2.00436531e-09  6.54776318e-01  2.00436531e-09  1.46799389e+00  2.00436531e-09  1.80000000e+00  2.00436531e-09 -5.05337953e-03  2.00436531e-09  6.71799798e-01  2.00436531e-09  1.50735320e+00  2.00436531e-09  1.50452663e+00                                 
 2.51845937e-09  7.20787456e-01  2.51845937e-09  6.54779382e-01  2.51845937e-09  1.46787221e+00  2.51845937e-09  1.80000000e+00  2.51845937e-09  4.58776249e-03  2.51845937e-09  6.68376330e-01  2.51845937e-09  1.50456905e+00  2.51845937e-09  1.50470696e+00                                 
 3.25978735e-09  7.20533392e-01  3.25978735e-09  6.54732829e-01  3.25978735e-09  1.46679207e+00  3.25978735e-09  1.80000000e+00  3.25978735e-09 -4.40470169e-03  3.25978735e-09  6.63915512e-01  3.25978735e-09  1.50061905e+00  3.25978735e-09  1.50495919e+00                                 
 4.44234701e-09  7.20394732e-01  4.44234701e-09  6.54750250e-01  4.44234701e-09  1.46469291e+00  4.44234701e-09  1.80000000e+00  4.44234701e-09  4.20829697e-03  4.44234701e-09  6.59345750e-01  4.44234701e-09  1.49684869e+00  4.44234701e-09  1.50520247e+00                                 
 5.94140347e-09  7.20355500e-01  5.94140347e-09  6.54724369e-01  5.94140347e-09  1.46010846e+00  5.94140347e-09  1.80000000e+00  5.94140347e-09 -4.12069223e-03  5.94140347e-09  6.55734008e-01  5.94140347e-09  1.49364521e+00  5.94140347e-09  1.50526618e+00                                 
 7.25233418e-09  7.20395040e-01  7.25233418e-09  6.54758765e-01  7.25233418e-09  1.45519716e+00  7.25233418e-09  1.80000000e+00  7.25233418e-09  3.98026189e-03  7.25233418e-09  6.54507413e-01  7.25233418e-09  1.49272534e+00  7.25233418e-09  1.50514104e+00                                 
 8.69385954e-09  7.20429521e-01  8.69385954e-09  6.54736071e-01  8.69385954e-09  1.44807308e+00  8.69385954e-09  1.80000000e+00  8.69385954e-09 -3.87695091e-03  8.69385954e-09  6.53539080e-01  8.69385954e-09  1.49177765e+00  8.69385954e-09  1.50491271e+00                                 
 1.01651226e-08  7.20485766e-01  1.01651226e-08  6.54770050e-01  1.01651226e-08  1.44017660e+00  1.01651226e-08  1.80000000e+00  1.01651226e-08  3.76745109e-03  1.01651226e-08  6.53500886e-01  1.01651226e-08  1.49185596e+00  1.01651226e-08  1.50462864e+00                                 
 1.22686688e-08  7.20523970e-01  1.22686688e-08  6.54745753e-01  1.22686688e-08  1.42704620e+00  1.22686688e-08  1.80000000e+00  1.22686688e-08 -3.69684651e-03  1.22686688e-08  6.53255457e-01  1.22686688e-08  1.49151812e+00  1.22686688e-08  1.50421700e+00                                 
 1.47216842e-08  7.20569237e-01  1.47216842e-08  6.54777732e-01  1.47216842e-08  1.41101007e+00  1.47216842e-08  1.80000000e+00  1.47216842e-08  3.63652668e-03  1.47216842e-08  6.53696913e-01  1.47216842e-08  1.49198902e+00  1.47216842e-08  1.50376204e+00                                 
 1.83027147e-08  7.20579388e-01  1.83027147e-08  6.54750431e-01  1.83027147e-08  1.38591317e+00  1.83027147e-08  1.80000000e+00  1.83027147e-08 -3.59463734e-03  1.83027147e-08  6.53824333e-01  1.83027147e-08  1.49196165e+00  1.83027147e-08  1.50319289e+00                                 
 2.30257006e-08  7.20595146e-01  2.30257006e-08  6.54780151e-01  2.30257006e-08  1.35249640e+00  2.30257006e-08  1.80000000e+00  2.30257006e-08  3.56520977e-03  2.30257006e-08  6.54484051e-01  2.30257006e-08  1.49260990e+00  2.30257006e-08  1.50259840e+00                                 
 3.14449158e-08  7.20580026e-01  3.14449158e-08  6.54751086e-01  3.14449158e-08  1.29176620e+00  3.14449158e-08  1.80000000e+00  3.14449158e-08 -3.54699535e-03  3.14449158e-08  6.54757645e-01  3.14449158e-08  1.49270691e+00  3.14449158e-08  1.50187876e+00                                 
 4.44720839e-08  7.20585170e-01  4.44720839e-08  6.54779723e-01  4.44720839e-08  1.19835430e+00  4.44720839e-08  1.80000000e+00  4.44720839e-08  3.53704596e-03  4.44720839e-08  6.55412825e-01  4.44720839e-08  1.49335812e+00  4.44720839e-08  1.50128985e+00                                 
 7.05264200e-08  7.20570986e-01  7.05264200e-08  6.54750232e-01  7.05264200e-08  1.01238843e+00  7.05264200e-08  1.80000000e+00  7.05264200e-08 -3.53015545e-03  7.05264200e-08  6.55438628e-01  7.05264200e-08  1.49326389e+00  7.05264200e-08  1.50090637e+00                                 
 1.00477394e-07  7.20580724e-01  1.00477394e-07  6.54779192e-01  1.00477394e-07  8.07184487e-01  1.00477394e-07  1.80000000e+00  1.00477394e-07  3.52881934e-03  1.00477394e-07  6.55702057e-01  1.00477394e-07  1.49359731e+00  1.00477394e-07  1.50086309e+00                                 
 1.30479470e-07  7.20575522e-01  1.30479470e-07  6.54750461e-01  1.30479470e-07  6.80121543e-01  1.30479470e-07  1.80000000e+00  1.30479470e-07 -3.51361692e-03  1.30479470e-07  6.55470070e-01  1.30479470e-07  1.49328947e+00  1.30479470e-07  1.50086316e+00                                 
 1.57570898e-07  7.20575231e-01  1.57570898e-07  6.54779130e-01  1.57570898e-07  6.57589220e-01  1.57570898e-07  1.80000000e+00  1.57570898e-07  3.52452567e-03  1.57570898e-07  6.55712237e-01  1.57570898e-07  1.49360394e+00  1.57570898e-07  1.50086457e+00                                 
 1.76010082e-07  7.20574710e-01  1.76010082e-07  6.54750126e-01  1.76010082e-07  6.56638268e-01  1.76010082e-07  1.80000000e+00  1.76010082e-07 -3.50001268e-03  1.76010082e-07  6.55466095e-01  1.76010082e-07  1.49328487e+00  1.76010082e-07  1.50086491e+00                                 
 1.97101482e-07  7.20578064e-01  1.97101482e-07  6.54779362e-01  1.97101482e-07  6.56529147e-01  1.97101482e-07  1.80000000e+00  1.97101482e-07  3.51059252e-03  1.97101482e-07  6.55708799e-01  1.97101482e-07  1.49359947e+00  1.97101482e-07  1.50086243e+00                                 
 2.30362870e-07  7.20573833e-01  2.30362870e-07  6.54750117e-01  2.30362870e-07  6.56374476e-01  2.30362870e-07  1.80000000e+00  2.30362870e-07 -3.48942205e-03  2.30362870e-07  6.55465888e-01  2.30362870e-07  1.49328303e+00  2.30362870e-07  1.50086148e+00                                 
 2.96885645e-07  7.20578769e-01  2.96885645e-07  6.54779364e-01  2.96885645e-07  6.56483282e-01  2.96885645e-07  1.80000000e+00  2.96885645e-07  3.50441512e-03  2.96885645e-07  6.55708442e-01  2.96885645e-07  1.49359582e+00  2.96885645e-07  1.50085819e+00                                 
 4.29931196e-07  7.20573531e-01  4.29931196e-07  6.54750121e-01  4.29931196e-07  6.56373138e-01  4.29931196e-07  1.80000000e+00  4.29931196e-07 -3.48634723e-03  4.29931196e-07  6.55465962e-01  4.29931196e-07  1.49327669e+00  4.29931196e-07  1.50085473e+00                                 
 6.77602849e-07  7.20578918e-01  6.77602849e-07  6.54779362e-01  6.77602849e-07  6.56483982e-01  6.77602849e-07  1.80000000e+00  6.77602849e-07  3.50283466e-03  6.77602849e-07  6.55708410e-01  6.77602849e-07  1.49358346e+00  6.77602849e-07  1.50084593e+00                                 
 1.17294615e-06  7.20573454e-01  1.17294615e-06  6.54750123e-01  1.17294615e-06  6.56372545e-01  1.17294615e-06  1.80000000e+00  1.17294615e-06 -3.48552441e-03  1.17294615e-06  6.55465977e-01  1.17294615e-06  1.49325268e+00  1.17294615e-06  1.50083072e+00                                 
 2.16363277e-06  7.20578957e-01  2.16363277e-06  6.54779361e-01  2.16363277e-06  6.56484218e-01  2.16363277e-06  1.80000000e+00  2.16363277e-06  3.50242036e-03  2.16363277e-06  6.55708402e-01  2.16363277e-06  1.49353535e+00  2.16363277e-06  1.50079790e+00                                 
 3.36363277e-06  7.20573431e-01  3.36363277e-06  6.54750123e-01  3.36363277e-06  6.56372347e-01  3.36363277e-06  1.80000000e+00  3.36363277e-06 -3.48528785e-03  3.36363277e-06  6.55465981e-01  3.36363277e-06  1.49318179e+00  3.36363277e-06  1.50075990e+00                                 
 4.56363277e-06  7.20578977e-01  4.56363277e-06  6.54779360e-01  4.56363277e-06  6.56484342e-01  4.56363277e-06  1.80000000e+00  4.56363277e-06  3.50219320e-03  4.56363277e-06  6.55708399e-01  4.56363277e-06  1.49345766e+00  4.56363277e-06  1.50072033e+00                                 
 5.76363277e-06  7.20573411e-01  5.76363277e-06  6.54750124e-01  5.76363277e-06  6.56372173e-01  5.76363277e-06  1.80000000e+00  5.76363277e-06 -3.48506332e-03  5.76363277e-06  6.55465985e-01  5.76363277e-06  1.49310410e+00  5.76363277e-06  1.50068230e+00                                 
 6.00100000e-06  7.20579040e-01  6.00100000e-06  6.54779359e-01  6.00100000e-06  6.56484776e-01  6.00100000e-06  1.80000000e+00  6.00100000e-06  3.50150332e-03  6.00100000e-06  6.55708388e-01  6.00100000e-06  1.49341112e+00  6.00100000e-06  1.50067387e+00                                 
 6.00110000e-06  7.20525995e-01  6.00110000e-06  6.54527155e-01  6.00110000e-06  6.54630663e-01  6.00110000e-06  1.62000000e+00  6.00110000e-06  2.12697285e-04  6.00110000e-06  6.54035126e-01  6.00110000e-06  1.49193166e+00  6.00110000e-06  1.50066314e+00                                 
 6.00130000e-06  7.20558946e-01  6.00130000e-06  6.54523543e-01  6.00130000e-06  6.54702055e-01  6.00130000e-06  1.26000000e+00  6.00130000e-06 -2.47454054e-04  6.00130000e-06  6.53784703e-01  6.00130000e-06  1.49171154e+00  6.00130000e-06  1.50067927e+00                                 
 6.00165495e-06  7.20624270e-01  6.00165495e-06  6.54721227e-01  6.00165495e-06  6.56701273e-01  6.00165495e-06  6.21087597e-01  6.00165495e-06  5.69315518e-03  6.00165495e-06  6.54106301e-01  6.00165495e-06  1.48867836e+00  6.00165495e-06  1.50065563e+00                                 
 6.00200000e-06  7.20561150e-01  6.00200000e-06  6.53317695e-01  6.00200000e-06  6.88955882e-01  6.00200000e-06  0.00000000e+00  6.00200000e-06  1.60291717e+00  6.00200000e-06  6.39315424e-01  6.00200000e-06  1.29396632e+00  6.00200000e-06  1.50007951e+00                                 
 6.00204134e-06  7.20576756e-01  6.00204134e-06  6.52831011e-01  6.00204134e-06  6.95879990e-01  6.00204134e-06  0.00000000e+00  6.00204134e-06  1.72350882e+00  6.00204134e-06  6.33789410e-01  6.00204134e-06  1.23102911e+00  6.00204134e-06  1.50008549e+00                                 
 6.00212402e-06  7.20578105e-01  6.00212402e-06  6.51985766e-01  6.00212402e-06  7.00983875e-01  6.00212402e-06  0.00000000e+00  6.00212402e-06  1.81332704e+00  6.00212402e-06  6.24421134e-01  6.00212402e-06  1.10159067e+00  6.00212402e-06  1.50046160e+00                                 
 6.00228939e-06  7.20573712e-01  6.00228939e-06  6.51873652e-01  6.00228939e-06  6.91834036e-01  6.00228939e-06  0.00000000e+00  6.00228939e-06  1.78940818e+00  6.00228939e-06  6.23944675e-01  6.00228939e-06  8.97131630e-01  6.00228939e-06  1.50093998e+00                                 
 6.00244920e-06  7.20576302e-01  6.00244920e-06  6.52588907e-01  6.00244920e-06  6.82638320e-01  6.00244920e-06  0.00000000e+00  6.00244920e-06  1.80386515e+00  6.00244920e-06  6.32020906e-01  6.00244920e-06  7.78820177e-01  6.00244920e-06  1.50092702e+00                                 
 6.00263089e-06  7.20573132e-01  6.00263089e-06  6.53492639e-01  6.00263089e-06  6.70421219e-01  6.00263089e-06  0.00000000e+00  6.00263089e-06  1.79688408e+00  6.00263089e-06  6.41014845e-01  6.00263089e-06  7.05266816e-01  6.00263089e-06  1.50113021e+00                                 
 6.00285530e-06  7.20576192e-01  6.00285530e-06  6.54472081e-01  6.00285530e-06  6.61609572e-01  6.00285530e-06  0.00000000e+00  6.00285530e-06  1.80190044e+00  6.00285530e-06  6.50290864e-01  6.00285530e-06  6.72689881e-01  6.00285530e-06  1.50081625e+00                                 
 6.00311028e-06  7.20573699e-01  6.00311028e-06  6.54931452e-01  6.00311028e-06  6.58428469e-01  6.00311028e-06  0.00000000e+00  6.00311028e-06  1.79878906e+00  6.00311028e-06  6.53727544e-01  6.00311028e-06  6.60827654e-01  6.00311028e-06  1.50009755e+00                                 
 6.00334489e-06  7.20576502e-01  6.00334489e-06  6.55172572e-01  6.00334489e-06  6.57380613e-01  6.00334489e-06  0.00000000e+00  6.00334489e-06  1.80085190e+00  6.00334489e-06  6.55760635e-01  6.00334489e-06  6.58705285e-01  6.00334489e-06  1.49904083e+00                                 
 6.00372438e-06  7.20574430e-01  6.00372438e-06  6.55227611e-01  6.00372438e-06  6.57890735e-01  6.00372438e-06  0.00000000e+00  6.00372438e-06  1.79938075e+00  6.00372438e-06  6.56137090e-01  6.00372438e-06  6.57477701e-01  6.00372438e-06  1.49716853e+00                                 
 6.00427088e-06  7.20576934e-01  6.00427088e-06  6.55249339e-01  6.00427088e-06  6.58853446e-01  6.00427088e-06  0.00000000e+00  6.00427088e-06  1.80054246e+00  6.00427088e-06  6.56857698e-01  6.00427088e-06  6.58934973e-01  6.00427088e-06  1.49406405e+00                                 
 6.00532880e-06  7.20574989e-01  6.00532880e-06  6.55142613e-01  6.00532880e-06  6.61994353e-01  6.00532880e-06  0.00000000e+00  6.00532880e-06  1.79953189e+00  6.00532880e-06  6.56659689e-01  6.00532880e-06  6.61364018e-01  6.00532880e-06  1.48769767e+00                                 
 6.00705071e-06  7.20577203e-01  6.00705071e-06  6.55050084e-01  6.00705071e-06  6.66690875e-01  6.00705071e-06  0.00000000e+00  6.00705071e-06  1.80046572e+00  6.00705071e-06  6.57027484e-01  6.00705071e-06  6.66666657e-01  6.00705071e-06  1.47665414e+00                                 
 6.01049453e-06  7.20575149e-01  6.01049453e-06  6.54837967e-01  6.01049453e-06  6.76893317e-01  6.01049453e-06  0.00000000e+00  6.01049453e-06  1.79957143e+00  6.01049453e-06  6.56503643e-01  6.01049453e-06  6.76215926e-01  6.01049453e-06  1.45378025e+00                                 
 6.01738218e-06  7.20577237e-01  6.01738218e-06  6.54752087e-01  6.01738218e-06  6.95988662e-01  6.01738218e-06  0.00000000e+00  6.01738218e-06  1.80044542e+00  6.01738218e-06  6.56479728e-01  6.01738218e-06  6.95954413e-01  6.01738218e-06  1.40639409e+00                                 
 6.03115746e-06  7.20575158e-01  6.03115746e-06  6.54742280e-01  6.03115746e-06  7.32995882e-01  6.03115746e-06  0.00000000e+00  6.03115746e-06  1.79957995e+00  6.03115746e-06  6.55694263e-01  6.03115746e-06  7.32207279e-01  6.03115746e-06  1.31637708e+00                                 
 6.04554271e-06  7.20577236e-01  6.04554271e-06  6.54774056e-01  6.04554271e-06  7.68407145e-01  6.04554271e-06  0.00000000e+00  6.04554271e-06  1.80043781e+00  6.04554271e-06  6.55849688e-01  6.04554271e-06  7.68417490e-01  6.04554271e-06  1.23218850e+00                                 
 6.07431322e-06  7.20575163e-01  6.07431322e-06  6.54751370e-01  6.07431322e-06  8.32436507e-01  6.07431322e-06  0.00000000e+00  6.07431322e-06  1.79958187e+00  6.07431322e-06  6.55410833e-01  6.07431322e-06  8.31226516e-01  6.07431322e-06  1.08495599e+00                                 
 6.11365168e-06  7.20577234e-01  6.11365168e-06  6.54778241e-01  6.11365168e-06  9.04675209e-01  6.11365168e-06  0.00000000e+00  6.11365168e-06  1.80043171e+00  6.11365168e-06  6.55746701e-01  6.11365168e-06  9.04922401e-01  6.11365168e-06  9.56217040e-01                                 
 6.17711697e-06  7.20575165e-01  6.17711697e-06  6.54751180e-01  6.17711697e-06  9.92782271e-01  6.17711697e-06  0.00000000e+00  6.17711697e-06  1.79957893e+00  6.17711697e-06  6.55408902e-01  6.17711697e-06  9.90475812e-01  6.17711697e-06  9.52508751e-01                                 
 6.21970130e-06  7.20577233e-01  6.21970130e-06  6.54778541e-01  6.21970130e-06  1.03501391e+00  6.21970130e-06  0.00000000e+00  6.21970130e-06  1.80042685e+00  6.21970130e-06  6.55755371e-01  6.21970130e-06  1.03592820e+00  6.21970130e-06  1.01441863e+00                                 
