 time            v(vbep)         time            v(vben)         time            v(vout)         time            v(vphi1)        time            v(vphi2)        time            v(vref)         yes             currtemp       
 0.00000000e+00  7.38660318e-01  0.00000000e+00  6.90510129e-01  0.00000000e+00  7.80307438e-02  0.00000000e+00  0.00000000e+00  0.00000000e+00  1.79997911e+00  0.00000000e+00  5.00000000e-01  1.00000000e+00 -1.00000000e+01 
 5.00000000e-12  7.38647009e-01  5.00000000e-12  6.90499028e-01  5.00000000e-12  7.84833756e-02  5.00000000e-12  1.80000000e-02  5.00000000e-12  1.80005598e+00  5.00000000e-12  5.00000000e-01                                 
 1.00000000e-11  7.38633864e-01  1.00000000e-11  6.90488141e-01  1.00000000e-11  7.88879384e-02  1.00000000e-11  3.60000000e-02  1.00000000e-11  1.80009279e+00  1.00000000e-11  5.00000000e-01                                 
 2.00000000e-11  7.38607655e-01  2.00000000e-11  6.90466422e-01  2.00000000e-11  7.96282708e-02  2.00000000e-11  7.20000000e-02  2.00000000e-11  1.80012523e+00  2.00000000e-11  5.00000000e-01                                 
 4.00000000e-11  7.38555384e-01  4.00000000e-11  6.90423082e-01  4.00000000e-11  8.07886951e-02  4.00000000e-11  1.44000000e-01  4.00000000e-11  1.80010384e+00  4.00000000e-11  5.00000000e-01                                 
 8.00000000e-11  7.38451122e-01  8.00000000e-11  6.90336601e-01  8.00000000e-11  8.23592378e-02  8.00000000e-11  2.88000000e-01  8.00000000e-11  1.80006145e+00  8.00000000e-11  5.00000000e-01                                 
 1.60000000e-10  7.38243791e-01  1.60000000e-10  6.90164453e-01  1.60000000e-10  8.43319251e-02  1.60000000e-10  5.76000000e-01  1.60000000e-10  1.80002352e+00  1.60000000e-10  5.00000000e-01                                 
 3.20000000e-10  7.37833824e-01  3.20000000e-10  6.89823403e-01  3.20000000e-10  1.20904966e-01  3.20000000e-10  1.15200000e+00  3.20000000e-10  1.79990621e+00  3.20000000e-10  5.00000000e-01                                 
 5.00000000e-10  7.37380096e-01  5.00000000e-10  6.89444923e-01  5.00000000e-10  4.97024970e-01  5.00000000e-10  1.80000000e+00  5.00000000e-10  9.69404148e-02  5.00000000e-10  5.00000000e-01                                 
 5.21011689e-10  7.37327700e-01  5.21011689e-10  6.89401140e-01  5.21011689e-10  5.65828708e-01  5.21011689e-10  1.80000000e+00  5.21011689e-10  1.68916341e-02  5.21011689e-10  5.00000000e-01                                 
 5.63035066e-10  7.37223113e-01  5.63035066e-10  6.89313717e-01  5.63035066e-10  6.88362845e-01  5.63035066e-10  1.80000000e+00  5.63035066e-10 -8.10754821e-03  5.63035066e-10  5.00000000e-01                                 
 6.47081821e-10  7.37015192e-01  6.47081821e-10  6.89139752e-01  6.47081821e-10  8.72146073e-01  6.47081821e-10  1.80000000e+00  6.47081821e-10  7.06742615e-03  6.47081821e-10  5.00000000e-01                                 
 7.71036250e-10  7.36711555e-01  7.71036250e-10  6.88885305e-01  7.71036250e-10  1.07553360e+00  7.71036250e-10  1.80000000e+00  7.71036250e-10 -6.24936877e-03  7.71036250e-10  5.00000000e-01                                 
 9.59970567e-10  7.36255491e-01  9.59970567e-10  6.88502241e-01  9.59970567e-10  1.32612294e+00  9.59970567e-10  1.80000000e+00  9.59970567e-10  5.95083143e-03  9.59970567e-10  5.00000000e-01                                 
 1.32881664e-09  7.35387640e-01  1.32881664e-09  6.87770434e-01  1.32881664e-09  1.66657153e+00  1.32881664e-09  1.80000000e+00  1.32881664e-09 -5.66634905e-03  1.32881664e-09  5.00000000e-01                                 
 1.99313949e-09  7.33894249e-01  1.99313949e-09  6.86502572e-01  1.99313949e-09  1.89291631e+00  1.99313949e-09  1.80000000e+00  1.99313949e-09  5.63765884e-03  1.99313949e-09  5.00000000e-01                                 
 2.24092756e-09  7.33359023e-01  2.24092756e-09  6.86045480e-01  2.24092756e-09  1.90908939e+00  2.24092756e-09  1.80000000e+00  2.24092756e-09 -5.30062776e-03  2.24092756e-09  5.00000000e-01                                 
 2.54876846e-09  7.32709228e-01  2.54876846e-09  6.85488729e-01  2.54876846e-09  1.91609245e+00  2.54876846e-09  1.80000000e+00  2.54876846e-09  5.14491856e-03  2.54876846e-09  5.00000000e-01                                 
 2.89638140e-09  7.31994706e-01  2.89638140e-09  6.84874256e-01  2.89638140e-09  1.92081922e+00  2.89638140e-09  1.80000000e+00  2.89638140e-09 -4.92602569e-03  2.89638140e-09  5.00000000e-01                                 
 3.59160726e-09  7.30622168e-01  3.59160726e-09  6.83687509e-01  3.59160726e-09  1.92572262e+00  3.59160726e-09  1.80000000e+00  3.59160726e-09  4.87894519e-03  3.59160726e-09  5.00000000e-01                                 
 4.79475160e-09  7.28405868e-01  4.79475160e-09  6.81754178e-01  4.79475160e-09  1.92256880e+00  4.79475160e-09  1.80000000e+00  4.79475160e-09 -4.80058081e-03  4.79475160e-09  5.00000000e-01                                 
 7.10754412e-09  7.24608400e-01  7.10754412e-09  6.78396629e-01  7.10754412e-09  1.90863091e+00  7.10754412e-09  1.80000000e+00  7.10754412e-09  4.80980937e-03  7.10754412e-09  5.00000000e-01                                 
 9.22062002e-09  7.21571652e-01  9.22062002e-09  6.75672068e-01  9.22062002e-09  1.89810764e+00  9.22062002e-09  1.80000000e+00  9.22062002e-09 -4.74793976e-03  9.22062002e-09  5.00000000e-01                                 
 1.06969311e-08  7.19645557e-01  1.06969311e-08  6.73927376e-01  1.06969311e-08  1.89213926e+00  1.06969311e-08  1.80000000e+00  1.06969311e-08  4.73664087e-03  1.06969311e-08  5.00000000e-01                                 
 1.26730449e-08  7.17275366e-01  1.26730449e-08  6.71764322e-01  1.26730449e-08  1.88531690e+00  1.26730449e-08  1.80000000e+00  1.26730449e-08 -4.68368847e-03  1.26730449e-08  5.00000000e-01                                 
 1.51479886e-08  7.14595793e-01  1.51479886e-08  6.69297873e-01  1.51479886e-08  1.87789185e+00  1.51479886e-08  1.80000000e+00  1.51479886e-08  4.68222054e-03  1.51479886e-08  5.00000000e-01                                 
 1.89910164e-08  7.10960098e-01  1.89910164e-08  6.65915489e-01  1.89910164e-08  1.86826760e+00  1.89910164e-08  1.80000000e+00  1.89910164e-08 -4.64728327e-03  1.89910164e-08  5.00000000e-01                                 
 2.38910104e-08  7.07062276e-01  2.38910104e-08  6.62240480e-01  2.38910104e-08  1.85799270e+00  2.38910104e-08  1.80000000e+00  2.38910104e-08  4.65552401e-03  2.38910104e-08  5.00000000e-01                                 
 3.22247782e-08  7.01713582e-01  3.22247782e-08  6.57122104e-01  3.22247782e-08  1.84362103e+00  3.22247782e-08  1.80000000e+00  3.22247782e-08 -4.62907159e-03  3.22247782e-08  5.00000000e-01                                 
 4.65269487e-08  6.94652225e-01  4.65269487e-08  6.50277005e-01  4.65269487e-08  1.82251239e+00  4.65269487e-08  1.80000000e+00  4.65269487e-08  4.64491604e-03  4.65269487e-08  5.00000000e-01                                 
 7.51312897e-08  6.84527970e-01  7.51312897e-08  6.40369552e-01  7.51312897e-08  1.78586471e+00  7.51312897e-08  1.80000000e+00  7.51312897e-08 -4.62320995e-03  7.51312897e-08  5.00000000e-01                                 
 1.22940449e-07  6.73076283e-01  1.22940449e-07  6.29128733e-01  1.22940449e-07  1.73130278e+00  1.22940449e-07  1.80000000e+00  1.22940449e-07  4.64189973e-03  1.22940449e-07  5.00000000e-01                                 
 1.68942191e-07  6.63334853e-01  1.68942191e-07  6.19945285e-01  1.68942191e-07  1.67930357e+00  1.68942191e-07  1.80000000e+00  1.68942191e-07 -4.62081843e-03  1.68942191e-07  5.00000000e-01                                 
 2.52695814e-07  6.47793305e-01  2.52695814e-07  6.05701613e-01  2.52695814e-07  1.58413136e+00  2.52695814e-07  1.80000000e+00  2.52695814e-07  4.64004810e-03  2.52695814e-07  5.00000000e-01                                 
 3.35993266e-07  6.35177323e-01  3.35993266e-07  5.94365145e-01  3.35993266e-07  1.48995317e+00  3.35993266e-07  1.80000000e+00  3.35993266e-07 -4.61946825e-03  3.35993266e-07  5.00000000e-01                                 
 5.02588169e-07  6.11708160e-01  5.02588169e-07  5.73975456e-01  5.02588169e-07  1.29990166e+00  5.02588169e-07  1.80000000e+00  5.02588169e-07  4.63906219e-03  5.02588169e-07  5.00000000e-01                                 
 8.27282031e-07  5.67729913e-01  8.27282031e-07  5.37339211e-01  8.27282031e-07  9.29164093e-01  8.27282031e-07  1.80000000e+00  8.27282031e-07 -4.61896176e-03  8.27282031e-07  5.00000000e-01                                 
 8.86227796e-07  5.59744852e-01  8.86227796e-07  5.30855045e-01  8.86227796e-07  8.79420305e-01  8.86227796e-07  1.80000000e+00  8.86227796e-07 -2.43185731e-07  8.86227796e-07  5.00000000e-01                                 
 1.00411933e-06  5.43895742e-01  1.00411933e-06  5.18018101e-01  1.00411933e-06  7.85654530e-01  1.00411933e-06  1.80000000e+00  1.00411933e-06  1.99913097e-07  1.00411933e-06  5.00000000e-01                                 
 1.02655480e-06  5.41209805e-01  1.02655480e-06  5.15848165e-01  1.02655480e-06  7.71333505e-01  1.02655480e-06  1.80000000e+00  1.02655480e-06 -1.61501500e-08  1.02655480e-06  5.00000000e-01                                 
 1.07142574e-06  5.36260722e-01  1.07142574e-06  5.11850135e-01  1.07142574e-06  7.44207679e-01  1.07142574e-06  1.80000000e+00  1.07142574e-06 -9.30853635e-09  1.07142574e-06  5.00000000e-01                                 
 1.13826084e-06  5.33002999e-01  1.13826084e-06  5.09197973e-01  1.13826084e-06  7.10544048e-01  1.13826084e-06  1.80000000e+00  1.13826084e-06  2.76310750e-08  1.13826084e-06  5.00000000e-01                                 
 1.21431510e-06  5.47050370e-01  1.21431510e-06  5.20396348e-01  1.21431510e-06  6.90234275e-01  1.21431510e-06  1.80000000e+00  1.21431510e-06  1.57263507e-07  1.21431510e-06  5.00000000e-01                                 
 1.28703957e-06  7.04649024e-01  1.28703957e-06  6.50558876e-01  1.28703957e-06  7.95261421e-01  1.28703957e-06  1.80000000e+00  1.28703957e-06  1.58746761e-06  1.28703957e-06  5.00000000e-01                                 
 1.36536866e-06  8.22320740e-01  1.36536866e-06  7.71963531e-01  1.36536866e-06  8.45977693e-01  1.36536866e-06  1.80000000e+00  1.36536866e-06  1.24733188e-07  1.36536866e-06  5.00000000e-01                                 
 1.37510582e-06  8.29825244e-01  1.37510582e-06  7.79126037e-01  1.37510582e-06  8.44862122e-01  1.37510582e-06  1.80000000e+00  1.37510582e-06  4.27680299e-07  1.37510582e-06  5.00000000e-01                                 
 1.39458014e-06  8.45125147e-01  1.39458014e-06  7.92959239e-01  1.39458014e-06  8.43735683e-01  1.39458014e-06  1.80000000e+00  1.39458014e-06  5.10121812e-07  1.39458014e-06  5.00000000e-01                                 
 1.42598402e-06  8.74621948e-01  1.42598402e-06  8.17214759e-01  1.42598402e-06  8.45322886e-01  1.42598402e-06  1.80000000e+00  1.42598402e-06  5.95931000e-07  1.42598402e-06  5.00000000e-01                                 
 1.45920412e-06  9.12088949e-01  1.45920412e-06  8.43166067e-01  1.45920412e-06  8.50302807e-01  1.45920412e-06  1.80000000e+00  1.45920412e-06  6.50948630e-07  1.45920412e-06  5.00000000e-01                                 
 1.48530431e-06  9.17774245e-01  1.48530431e-06  8.46947661e-01  1.48530431e-06  8.37275954e-01  1.48530431e-06  1.80000000e+00  1.48530431e-06 -2.05787873e-07  1.48530431e-06  5.00000000e-01                                 
 1.51482268e-06  9.10721619e-01  1.51482268e-06  8.42450702e-01  1.51482268e-06  8.12231078e-01  1.51482268e-06  1.80000000e+00  1.51482268e-06  3.47704370e-08  1.51482268e-06  5.00000000e-01                                 
 1.54058294e-06  9.11407356e-01  1.54058294e-06  8.42911321e-01  1.54058294e-06  7.97515218e-01  1.54058294e-06  1.80000000e+00  1.54058294e-06  3.06718532e-08  1.54058294e-06  5.00000000e-01                                 
 1.57027897e-06  9.06489284e-01  1.57027897e-06  8.39794079e-01  1.57027897e-06  7.77182827e-01  1.57027897e-06  1.80000000e+00  1.57027897e-06 -1.02861002e-07  1.57027897e-06  5.00000000e-01                                 
 1.60657890e-06  9.02540314e-01  1.60657890e-06  8.37162487e-01  1.60657890e-06  7.55376061e-01  1.60657890e-06  1.80000000e+00  1.60657890e-06  3.04386841e-08  1.60657890e-06  5.00000000e-01                                 
 1.65215381e-06  8.93296005e-01  1.65215381e-06  8.30977369e-01  1.65215381e-06  7.26447172e-01  1.65215381e-06  1.80000000e+00  1.65215381e-06 -1.76783668e-07  1.65215381e-06  5.00000000e-01                                 
 1.72045557e-06  8.70418316e-01  1.72045557e-06  8.14033427e-01  1.72045557e-06  6.77580223e-01  1.72045557e-06  1.80000000e+00  1.72045557e-06 -1.46099106e-07  1.72045557e-06  5.00000000e-01                                 
 1.73484991e-06  8.63472602e-01  1.73484991e-06  8.08557696e-01  1.73484991e-06  6.65903084e-01  1.73484991e-06  1.80000000e+00  1.73484991e-06 -2.43747398e-07  1.73484991e-06  5.00000000e-01                                 
 1.76363857e-06  8.50059836e-01  1.76363857e-06  7.97325380e-01  1.76363857e-06  6.42929585e-01  1.76363857e-06  1.80000000e+00  1.76363857e-06 -2.46005194e-07  1.76363857e-06  5.00000000e-01                                 
 1.82121589e-06  8.36418496e-01  1.82121589e-06  7.85222896e-01  1.82121589e-06  6.09319214e-01  1.82121589e-06  1.80000000e+00  1.82121589e-06  5.74019468e-09  1.82121589e-06  5.00000000e-01                                 
 1.88579155e-06  8.38469764e-01  1.88579155e-06  7.87074173e-01  1.88579155e-06  5.87794557e-01  1.88579155e-06  1.80000000e+00  1.88579155e-06  8.02282630e-08  1.88579155e-06  5.00000000e-01                                 
 1.96786549e-06  8.39642742e-01  1.96786549e-06  7.88133802e-01  1.96786549e-06  5.60668931e-01  1.96786549e-06  1.80000000e+00  1.96786549e-06 -4.22431719e-09  1.96786549e-06  5.00000000e-01                                 
 2.06784162e-06  8.37817899e-01  2.06784162e-06  7.86490176e-01  2.06784162e-06  5.32397746e-01  2.06784162e-06  1.80000000e+00  2.06784162e-06  3.87395702e-08  2.06784162e-06  5.00000000e-01                                 
 2.26779388e-06  8.39376879e-01  2.26779388e-06  7.87892107e-01  2.26779388e-06  5.08486467e-01  2.26779388e-06  1.80000000e+00  2.26779388e-06  2.73652119e-08  2.26779388e-06  5.00000000e-01                                 
 2.49326993e-06  8.38148016e-01  2.49326993e-06  7.86789586e-01  2.49326993e-06  5.00396816e-01  2.49326993e-06  1.80000000e+00  2.49326993e-06  2.04712103e-08  2.49326993e-06  5.00000000e-01                                 
 2.73387983e-06  8.39056703e-01  2.73387983e-06  7.87603352e-01  2.73387983e-06  4.98537898e-01  2.73387983e-06  1.80000000e+00  2.73387983e-06  3.77033237e-08  2.73387983e-06  5.00000000e-01                                 
 3.05595214e-06  8.38411021e-01  3.05595214e-06  7.87027300e-01  3.05595214e-06  4.98238703e-01  3.05595214e-06  1.80000000e+00  3.05595214e-06  1.40594929e-08  3.05595214e-06  5.00000000e-01                                 
 3.41931943e-06  8.38867160e-01  3.41931943e-06  7.87432523e-01  3.41931943e-06  5.01439253e-01  3.41931943e-06  1.80000000e+00  3.41931943e-06  4.09644873e-08  3.41931943e-06  5.00000000e-01                                 
 4.14605402e-06  8.38536853e-01  4.14605402e-06  7.87140824e-01  4.14605402e-06  4.99621256e-01  4.14605402e-06  1.80000000e+00  4.14605402e-06  1.22896004e-08  4.14605402e-06  5.00000000e-01                                 
 4.84667205e-06  8.38791859e-01  4.84667205e-06  7.87364686e-01  4.84667205e-06  4.99889570e-01  4.84667205e-06  1.80000000e+00  4.84667205e-06  4.18902641e-08  4.84667205e-06  5.00000000e-01                                 
 5.84667205e-06  8.38599676e-01  5.84667205e-06  7.87197446e-01  5.84667205e-06  5.00641092e-01  5.84667205e-06  1.80000000e+00  5.84667205e-06  1.16654175e-08  5.84667205e-06  5.00000000e-01                                 
 6.84667205e-06  8.38745001e-01  6.84667205e-06  7.87322485e-01  6.84667205e-06  4.99507134e-01  6.84667205e-06  1.80000000e+00  6.84667205e-06  4.22336343e-08  6.84667205e-06  5.00000000e-01                                 
 7.84667205e-06  8.38644826e-01  7.84667205e-06  7.87238113e-01  7.84667205e-06  5.00681686e-01  7.84667205e-06  1.80000000e+00  7.84667205e-06  1.14665615e-08  7.84667205e-06  5.00000000e-01                                 
 8.84667205e-06  8.38703948e-01  8.84667205e-06  7.87285524e-01  8.84667205e-06  4.99705755e-01  8.84667205e-06  1.80000000e+00  8.84667205e-06  4.22958183e-08  8.84667205e-06  5.00000000e-01                                 
 9.84667205e-06  8.38683985e-01  9.84667205e-06  7.87273361e-01  9.84667205e-06  5.00361468e-01  9.84667205e-06  1.80000000e+00  9.84667205e-06  1.15267059e-08  9.84667205e-06  5.00000000e-01                                 
 1.00005000e-05  8.38598053e-01  1.00005000e-05  7.87190288e-01  1.00005000e-05  5.00255022e-01  1.00005000e-05  1.80000000e+00  1.00005000e-05  4.10433962e-08  1.00005000e-05  5.00000000e-01                                 
 1.00005500e-05  8.38599432e-01  1.00005500e-05  7.87191627e-01  1.00005500e-05  4.92235002e-01  1.00005500e-05  1.62000000e+00  1.00005500e-05 -6.62503056e-05  1.00005500e-05  5.00000000e-01                                 
 1.00006500e-05  8.38602109e-01  1.00006500e-05  7.87194219e-01  1.00006500e-05  4.78677466e-01  1.00006500e-05  1.26000000e+00  1.00006500e-05 -4.55051008e-05  1.00006500e-05  5.00000000e-01                                 
 1.00008500e-05  8.38606986e-01  1.00008500e-05  7.87198927e-01  1.00008500e-05  4.78494438e-01  1.00008500e-05  5.40000000e-01  1.00008500e-05 -3.46256597e-04  1.00008500e-05  5.00000000e-01                                 
 1.00010000e-05  8.38610143e-01  1.00010000e-05  7.87202008e-01  1.00010000e-05  4.43161474e-01  1.00010000e-05  0.00000000e+00  1.00010000e-05  1.54705442e+00  1.00010000e-05  5.00000000e-01                                 
 1.00010141e-05  8.38610364e-01  1.00010141e-05  7.87202251e-01  1.00010141e-05  4.25127810e-01  1.00010141e-05  0.00000000e+00  1.00010141e-05  1.67477340e+00  1.00010141e-05  5.00000000e-01                                 
 1.00010424e-05  8.38610811e-01  1.00010424e-05  7.87202729e-01  1.00010424e-05  3.80488114e-01  1.00010424e-05  0.00000000e+00  1.00010424e-05  1.79880175e+00  1.00010424e-05  5.00000000e-01                                 
 1.00010990e-05  8.38611886e-01  1.00010990e-05  7.87203730e-01  1.00010990e-05  2.96371918e-01  1.00010990e-05  0.00000000e+00  1.00010990e-05  1.79754853e+00  1.00010990e-05  5.00000000e-01                                 
 1.00011710e-05  8.38613445e-01  1.00011710e-05  7.87205124e-01  1.00011710e-05  2.46192802e-01  1.00011710e-05  0.00000000e+00  1.00011710e-05  1.79778807e+00  1.00011710e-05  5.00000000e-01                                 
 1.00012701e-05  8.38615516e-01  1.00012701e-05  7.87207071e-01  1.00012701e-05  2.30650010e-01  1.00012701e-05  0.00000000e+00  1.00012701e-05  1.80049021e+00  1.00012701e-05  5.00000000e-01                                 
 1.00014319e-05  8.38618632e-01  1.00014319e-05  7.87210035e-01  1.00014319e-05  2.32591308e-01  1.00014319e-05  0.00000000e+00  1.00014319e-05  1.79897279e+00  1.00014319e-05  5.00000000e-01                                 
 1.00016037e-05  8.38621528e-01  1.00016037e-05  7.87212814e-01  1.00016037e-05  2.33565405e-01  1.00016037e-05  0.00000000e+00  1.00016037e-05  1.80087951e+00  1.00016037e-05  5.00000000e-01                                 
 1.00019202e-05  8.38626096e-01  1.00019202e-05  7.87217176e-01  1.00019202e-05  2.34013623e-01  1.00019202e-05  0.00000000e+00  1.00019202e-05  1.79913027e+00  1.00019202e-05  5.00000000e-01                                 
