 time            v(vbep)         time            v(vben)         time            v(vout)         time            v(vphi1)        time            v(vphi2)        time            v(vref)         time            v(voutc)        time            v(voutcc)       yes             currtemp       
 0.00000000e+00  7.81097545e-01  0.00000000e+00  7.23841210e-01  0.00000000e+00  1.61865305e+00  0.00000000e+00  0.00000000e+00  0.00000000e+00  1.80000000e+00  0.00000000e+00  7.26495903e-01  0.00000000e+00  1.61865304e+00  0.00000000e+00  1.62484971e+00  1.00000000e+00  2.20000000e+01 
 1.00000000e-11  7.81122203e-01  1.00000000e-11  7.23912279e-01  1.00000000e-11  1.61944387e+00  1.00000000e-11  1.80000000e-02  1.00000000e-11  1.80024943e+00  1.00000000e-11  7.27023953e-01  1.00000000e-11  1.61912078e+00  1.00000000e-11  1.62486311e+00                                 
 2.00000000e-11  7.81128949e-01  2.00000000e-11  7.23956981e-01  2.00000000e-11  1.61994131e+00  2.00000000e-11  3.60000000e-02  2.00000000e-11  1.80034965e+00  2.00000000e-11  7.27417539e-01  2.00000000e-11  1.61947770e+00  2.00000000e-11  1.62486830e+00                                 
 4.00000000e-11  7.81128791e-01  4.00000000e-11  7.24015901e-01  4.00000000e-11  1.62055561e+00  4.00000000e-11  7.20000000e-02  4.00000000e-11  1.80038989e+00  4.00000000e-11  7.27993989e-01  4.00000000e-11  1.62001381e+00  4.00000000e-11  1.62487020e+00                                 
 8.00000000e-11  7.81116804e-01  8.00000000e-11  7.24053415e-01  8.00000000e-11  1.62072248e+00  8.00000000e-11  1.44000000e-01  8.00000000e-11  1.80018834e+00  8.00000000e-11  7.28439978e-01  8.00000000e-11  1.62046423e+00  8.00000000e-11  1.62485950e+00                                 
 1.60000000e-10  7.81113704e-01  1.60000000e-10  7.24062528e-01  1.60000000e-10  1.62040273e+00  1.60000000e-10  2.88000000e-01  1.60000000e-10  1.80000435e+00  1.60000000e-10  7.28499161e-01  1.60000000e-10  1.62053787e+00  1.60000000e-10  1.62484936e+00                                 
 3.20000000e-10  7.81110293e-01  3.20000000e-10  7.24064873e-01  3.20000000e-10  1.62005563e+00  3.20000000e-10  5.76000000e-01  3.20000000e-10  1.79999868e+00  3.20000000e-10  7.28390873e-01  3.20000000e-10  1.62030453e+00  3.20000000e-10  1.62484602e+00                                 
 6.40000000e-10  7.81030481e-01  6.40000000e-10  7.23739764e-01  6.40000000e-10  1.61694139e+00  6.40000000e-10  1.15200000e+00  6.40000000e-10  1.81250661e+00  6.40000000e-10  7.26754409e-01  6.40000000e-10  1.62533921e+00  6.40000000e-10  1.62487544e+00                                 
 1.00000000e-09  7.81644817e-01  1.00000000e-09  7.23908102e-01  1.00000000e-09  1.58963904e+00  1.00000000e-09  1.80000000e+00  1.00000000e-09  8.64325203e-02  1.00000000e-09  7.34427061e-01  1.00000000e-09  1.62169467e+00  1.00000000e-09  1.62481049e+00                                 
 1.03611037e-09  7.81642917e-01  1.03611037e-09  7.23953245e-01  1.03611037e-09  1.58926456e+00  1.03611037e-09  1.80000000e+00  1.03611037e-09  1.87149416e-02  1.03611037e-09  7.37088220e-01  1.03611037e-09  1.62311202e+00  1.03611037e-09  1.62485650e+00                                 
 1.10833110e-09  7.81701292e-01  1.10833110e-09  7.24027724e-01  1.10833110e-09  1.58953358e+00  1.10833110e-09  1.80000000e+00  1.10833110e-09 -8.99786053e-03  1.10833110e-09  7.40523130e-01  1.10833110e-09  1.62578430e+00  1.10833110e-09  1.62489027e+00                                 
 1.25277257e-09  7.81845463e-01  1.25277257e-09  7.23900962e-01  1.25277257e-09  1.58758769e+00  1.25277257e-09  1.80000000e+00  1.25277257e-09  7.85307468e-03  1.25277257e-09  7.40745311e-01  1.25277257e-09  1.62620110e+00  1.25277257e-09  1.62484562e+00                                 
 1.51673494e-09  7.81860966e-01  1.51673494e-09  7.23871750e-01  1.51673494e-09  1.58560203e+00  1.51673494e-09  1.80000000e+00  1.51673494e-09 -6.37305255e-03  1.51673494e-09  7.40430628e-01  1.51673494e-09  1.62573267e+00  1.51673494e-09  1.62487930e+00                                 
 1.75746916e-09  7.81756179e-01  1.75746916e-09  7.23866296e-01  1.75746916e-09  1.58587115e+00  1.75746916e-09  1.80000000e+00  1.75746916e-09  5.53610186e-03  1.75746916e-09  7.39280646e-01  1.75746916e-09  1.62493014e+00  1.75746916e-09  1.62487218e+00                                 
 2.09425305e-09  7.81522642e-01  2.09425305e-09  7.23830539e-01  2.09425305e-09  1.58670172e+00  2.09425305e-09  1.80000000e+00  2.09425305e-09 -5.00633587e-03  2.09425305e-09  7.37825051e-01  2.09425305e-09  1.62353517e+00  2.09425305e-09  1.62492297e+00                                 
 2.44523256e-09  7.81344366e-01  2.44523256e-09  7.23838825e-01  2.44523256e-09  1.58790185e+00  2.44523256e-09  1.80000000e+00  2.44523256e-09  4.44009688e-03  2.44523256e-09  7.36551211e-01  2.44523256e-09  1.62259207e+00  2.44523256e-09  1.62495143e+00                                 
 3.12703211e-09  7.81112360e-01  3.12703211e-09  7.23802257e-01  3.12703211e-09  1.58883893e+00  3.12703211e-09  1.80000000e+00  3.12703211e-09 -4.29077336e-03  3.12703211e-09  7.33965375e-01  3.12703211e-09  1.62025766e+00  3.12703211e-09  1.62503829e+00                                 
 4.22309894e-09  7.81004230e-01  4.22309894e-09  7.23823620e-01  4.22309894e-09  1.58953772e+00  4.22309894e-09  1.80000000e+00  4.22309894e-09  4.07395149e-03  4.22309894e-09  7.31060370e-01  4.22309894e-09  1.61791043e+00  4.22309894e-09  1.62512129e+00                                 
 6.41523261e-09  7.80977026e-01  6.41523261e-09  7.23812314e-01  6.41523261e-09  1.58754170e+00  6.41523261e-09  1.80000000e+00  6.41523261e-09 -4.07262881e-03  6.41523261e-09  7.27189585e-01  6.41523261e-09  1.61449346e+00  6.41523261e-09  1.62514505e+00                                 
 8.11952028e-09  7.80966495e-01  8.11952028e-09  7.23846182e-01  8.11952028e-09  1.58671450e+00  8.11952028e-09  1.80000000e+00  8.11952028e-09  3.95491159e-03  8.11952028e-09  7.26097496e-01  8.11952028e-09  1.61368730e+00  8.11952028e-09  1.62501986e+00                                 
 9.98573542e-09  7.80972932e-01  9.98573542e-09  7.23825282e-01  9.98573542e-09  1.58446312e+00  9.98573542e-09  1.80000000e+00  9.98573542e-09 -3.89422160e-03  9.98573542e-09  7.25264713e-01  9.98573542e-09  1.61285729e+00  9.98573542e-09  1.62481930e+00                                 
 1.17053152e-08  7.81006343e-01  1.17053152e-08  7.23851913e-01  1.17053152e-08  1.58173556e+00  1.17053152e-08  1.80000000e+00  1.17053152e-08  3.81088292e-03  1.17053152e-08  7.25242159e-01  1.17053152e-08  1.61295123e+00  1.17053152e-08  1.62459170e+00                                 
 1.44807716e-08  7.81045774e-01  1.44807716e-08  7.23827755e-01  1.44807716e-08  1.57445898e+00  1.44807716e-08  1.80000000e+00  1.44807716e-08 -3.76197034e-03  1.44807716e-08  7.24991212e-01  1.44807716e-08  1.61261037e+00  1.44807716e-08  1.62422616e+00                                 
 1.75548918e-08  7.81082445e-01  1.75548918e-08  7.23853510e-01  1.75548918e-08  1.56513257e+00  1.75548918e-08  1.80000000e+00  1.75548918e-08  3.72327456e-03  1.75548918e-08  7.25318947e-01  1.75548918e-08  1.61298851e+00  1.75548918e-08  1.62382940e+00                                 
 2.24136137e-08  7.81099568e-01  2.24136137e-08  7.23828829e-01  2.24136137e-08  1.54793696e+00  2.24136137e-08  1.80000000e+00  2.24136137e-08 -3.69131331e-03  2.24136137e-08  7.25358819e-01  2.24136137e-08  1.61288549e+00  2.24136137e-08  1.62328197e+00                                 
 2.85550271e-08  7.81107643e-01  2.85550271e-08  7.23854136e-01  2.85550271e-08  1.52581933e+00  2.85550271e-08  1.80000000e+00  2.85550271e-08  3.67584221e-03  2.85550271e-08  7.25835757e-01  2.85550271e-08  1.61338037e+00  2.85550271e-08  1.62269869e+00                                 
 4.07038856e-08  7.81100571e-01  4.07038856e-08  7.23828744e-01  4.07038856e-08  1.48048081e+00  4.07038856e-08  1.80000000e+00  4.07038856e-08 -3.65986766e-03  4.07038856e-08  7.25976825e-01  4.07038856e-08  1.61335665e+00  4.07038856e-08  1.62185179e+00                                 
 5.64849837e-08  7.81101992e-01  5.64849837e-08  7.23853852e-01  5.64849837e-08  1.42187463e+00  5.64849837e-08  1.80000000e+00  5.64849837e-08  3.65698258e-03  5.64849837e-08  7.26417073e-01  5.64849837e-08  1.61382240e+00  5.64849837e-08  1.62114913e+00                                 
 8.80471798e-08  7.81096088e-01  8.80471798e-08  7.23828596e-01  8.80471798e-08  1.30391036e+00  8.80471798e-08  1.80000000e+00  8.80471798e-08 -3.64774797e-03  8.80471798e-08  7.26367113e-01  8.80471798e-08  1.61365025e+00  8.80471798e-08  1.62044956e+00                                 
 1.42851893e-07  7.81099497e-01  1.42851893e-07  7.23853814e-01  1.42851893e-07  1.10190224e+00  1.42851893e-07  1.80000000e+00  1.42851893e-07  3.65081785e-03  1.42851893e-07  7.26604207e-01  1.42851893e-07  1.61395563e+00  1.42851893e-07  1.62008087e+00                                 
 2.22007900e-07  7.81095525e-01  2.22007900e-07  7.23828582e-01  2.22007900e-07  8.35314144e-01  2.22007900e-07  1.80000000e+00  2.22007900e-07 -3.64250343e-03  2.22007900e-07  7.26388259e-01  2.22007900e-07  1.61365477e+00  2.22007900e-07  1.62001118e+00                                 
 2.83128670e-07  7.81100284e-01  2.83128670e-07  7.23853869e-01  2.83128670e-07  7.32645642e-01  2.83128670e-07  1.80000000e+00  2.83128670e-07  3.65083279e-03  2.83128670e-07  7.26602946e-01  2.83128670e-07  1.61394694e+00  2.83128670e-07  1.62000431e+00                                 
 3.43107002e-07  7.81094179e-01  3.43107002e-07  7.23828542e-01  3.43107002e-07  7.28275775e-01  3.43107002e-07  1.80000000e+00  3.43107002e-07 -3.63635709e-03  3.43107002e-07  7.26391807e-01  3.43107002e-07  1.61365306e+00  3.43107002e-07  1.62000672e+00                                 
 3.73644059e-07  7.81100584e-01  3.73644059e-07  7.23853799e-01  3.73644059e-07  7.29377236e-01  3.73644059e-07  1.80000000e+00  3.73644059e-07  3.64485486e-03  3.73644059e-07  7.26599966e-01  3.73644059e-07  1.61394090e+00  3.73644059e-07  1.62000157e+00                                 
 4.15261082e-07  7.81094710e-01  4.15261082e-07  7.23828645e-01  4.15261082e-07  7.28963291e-01  4.15261082e-07  1.80000000e+00  4.15261082e-07 -3.62943612e-03  4.15261082e-07  7.26391317e-01  4.15261082e-07  1.61364996e+00  4.15261082e-07  1.62000282e+00                                 
 4.98495127e-07  7.81100313e-01  4.98495127e-07  7.23853758e-01  4.98495127e-07  7.29421313e-01  4.98495127e-07  1.80000000e+00  4.98495127e-07  3.64042492e-03  4.98495127e-07  7.26600593e-01  4.98495127e-07  1.61393661e+00  4.98495127e-07  1.61999636e+00                                 
 6.12861059e-07  7.81094819e-01  6.12861059e-07  7.23828657e-01  6.12861059e-07  7.28978415e-01  6.12861059e-07  1.80000000e+00  6.12861059e-07 -3.62690812e-03  6.12861059e-07  7.26391086e-01  6.12861059e-07  1.61364230e+00  6.12861059e-07  1.61999525e+00                                 
 8.41592923e-07  7.81100250e-01  8.41592923e-07  7.23853751e-01  8.41592923e-07  7.29412020e-01  8.41592923e-07  1.80000000e+00  8.41592923e-07  3.63881615e-03  8.41592923e-07  7.26600725e-01  8.41592923e-07  1.61392366e+00  8.41592923e-07  1.61998334e+00                                 
 1.29905665e-06  7.81094849e-01  1.29905665e-06  7.23828660e-01  1.29905665e-06  7.28982875e-01  1.29905665e-06  1.80000000e+00  1.29905665e-06 -3.62608581e-03  1.29905665e-06  7.26391023e-01  1.29905665e-06  1.61361617e+00  1.29905665e-06  1.61996920e+00                                 
 2.21398411e-06  7.81100236e-01  2.21398411e-06  7.23853751e-01  2.21398411e-06  7.29409826e-01  2.21398411e-06  1.80000000e+00  2.21398411e-06  3.63841407e-03  2.21398411e-06  7.26600756e-01  2.21398411e-06  1.61387155e+00  2.21398411e-06  1.61993129e+00                                 
 3.41398411e-06  7.81094857e-01  3.41398411e-06  7.23828661e-01  3.41398411e-06  7.28984153e-01  3.41398411e-06  1.80000000e+00  3.41398411e-06 -3.62587709e-03  3.41398411e-06  7.26391005e-01  3.41398411e-06  1.61353587e+00  3.41398411e-06  1.61988904e+00                                 
 4.61398411e-06  7.81100228e-01  4.61398411e-06  7.23853750e-01  4.61398411e-06  7.29408738e-01  4.61398411e-06  1.80000000e+00  4.61398411e-06  3.63821188e-03  4.61398411e-06  7.26600771e-01  4.61398411e-06  1.61378037e+00  4.61398411e-06  1.61984025e+00                                 
 5.81398411e-06  7.81094864e-01  5.81398411e-06  7.23828661e-01  5.81398411e-06  7.28985239e-01  5.81398411e-06  1.80000000e+00  5.81398411e-06 -3.62568022e-03  5.81398411e-06  7.26390990e-01  5.81398411e-06  1.61344458e+00  5.81398411e-06  1.61979791e+00                                 
 6.00100000e-06  7.81100204e-01  6.00100000e-06  7.23853748e-01  6.00100000e-06  7.29404801e-01  6.00100000e-06  1.80000000e+00  6.00100000e-06  3.63745431e-03  6.00100000e-06  7.26600825e-01  6.00100000e-06  1.61372765e+00  6.00100000e-06  1.61978759e+00                                 
 6.00110000e-06  7.81058256e-01  6.00110000e-06  7.23600331e-01  6.00110000e-06  7.27386123e-01  6.00110000e-06  1.62000000e+00  6.00110000e-06  1.83617084e-04  6.00110000e-06  7.24811773e-01  6.00110000e-06  1.61215245e+00  6.00110000e-06  1.61977626e+00                                 
 6.00130000e-06  7.81089389e-01  6.00130000e-06  7.23618003e-01  6.00130000e-06  7.27774136e-01  6.00130000e-06  1.26000000e+00  6.00130000e-06 -2.10604794e-04  6.00130000e-06  7.24845793e-01  6.00130000e-06  1.61217614e+00  6.00130000e-06  1.61979631e+00                                 
 6.00170000e-06  7.81138780e-01  6.00170000e-06  7.23374272e-01  6.00170000e-06  7.41999740e-01  6.00170000e-06  5.40000000e-01  6.00170000e-06  1.43462122e+00  6.00170000e-06  7.20472213e-01  6.00170000e-06  1.55407749e+00  6.00170000e-06  1.61954809e+00                                 
 6.00200000e-06  7.81084146e-01  6.00200000e-06  7.20955924e-01  6.00200000e-06  7.73591818e-01  6.00200000e-06  0.00000000e+00  6.00200000e-06  1.85528420e+00  6.00200000e-06  6.94535962e-01  6.00200000e-06  1.24508313e+00  6.00200000e-06  1.61920136e+00                                 
 6.00203881e-06  7.81095852e-01  6.00203881e-06  7.20965965e-01  6.00203881e-06  7.69159095e-01  6.00203881e-06  0.00000000e+00  6.00203881e-06  1.82029431e+00  6.00203881e-06  6.94934727e-01  6.00203881e-06  1.19800891e+00  6.00203881e-06  1.61959498e+00                                 
 6.00211644e-06  7.81099985e-01  6.00211644e-06  7.21147844e-01  6.00211644e-06  7.61833026e-01  6.00211644e-06  0.00000000e+00  6.00211644e-06  1.79329833e+00  6.00211644e-06  6.97688823e-01  6.00211644e-06  1.11847738e+00  6.00211644e-06  1.61996415e+00                                 
 6.00227168e-06  7.81096064e-01  6.00227168e-06  7.21456397e-01  6.00227168e-06  7.56961121e-01  6.00227168e-06  0.00000000e+00  6.00227168e-06  1.80201350e+00  6.00227168e-06  7.01747298e-01  6.00227168e-06  9.97851470e-01  6.00227168e-06  1.61992164e+00                                 
 6.00247434e-06  7.81097696e-01  6.00247434e-06  7.21860081e-01  6.00247434e-06  7.51493201e-01  6.00247434e-06  0.00000000e+00  6.00247434e-06  1.79777557e+00  6.00247434e-06  7.05632148e-01  6.00247434e-06  8.77229090e-01  6.00247434e-06  1.62006594e+00                                 
 6.00269611e-06  7.81095848e-01  6.00269611e-06  7.22676855e-01  6.00269611e-06  7.42813576e-01  6.00269611e-06  0.00000000e+00  6.00269611e-06  1.80054937e+00  6.00269611e-06  7.13535555e-01  6.00269611e-06  7.95463904e-01  6.00269611e-06  1.62005769e+00                                 
 6.00313964e-06  7.81097468e-01  6.00313964e-06  7.23885299e-01  6.00313964e-06  7.31791630e-01  6.00313964e-06  0.00000000e+00  6.00313964e-06  1.79934014e+00  6.00313964e-06  7.23712826e-01  6.00313964e-06  7.35199934e-01  6.00313964e-06  1.61989083e+00                                 
 6.00346911e-06  7.81096370e-01  6.00346911e-06  7.24288182e-01  6.00346911e-06  7.29892894e-01  6.00346911e-06  0.00000000e+00  6.00346911e-06  1.80055438e+00  6.00346911e-06  7.26468835e-01  6.00346911e-06  7.31755716e-01  6.00346911e-06  1.61935098e+00                                 
 6.00383649e-06  7.81097780e-01  6.00383649e-06  7.24375112e-01  6.00383649e-06  7.30244715e-01  6.00383649e-06  0.00000000e+00  6.00383649e-06  1.79962078e+00  6.00383649e-06  7.26823211e-01  6.00383649e-06  7.30015599e-01  6.00383649e-06  1.61855671e+00                                 
 6.00423733e-06  7.81096857e-01  6.00423733e-06  7.24405145e-01  6.00423733e-06  7.30325845e-01  6.00423733e-06  0.00000000e+00  6.00423733e-06  1.80029640e+00  6.00423733e-06  7.27433237e-01  6.00423733e-06  7.30544845e-01  6.00423733e-06  1.61746808e+00                                 
 6.00503901e-06  7.81098016e-01  6.00503901e-06  7.24315783e-01  6.00503901e-06  7.32078800e-01  6.00503901e-06  0.00000000e+00  6.00503901e-06  1.79976674e+00  6.00503901e-06  7.27397420e-01  6.00503901e-06  7.31502695e-01  6.00503901e-06  1.61513088e+00                                 
 6.00664237e-06  7.81097095e-01  6.00664237e-06  7.24192466e-01  6.00664237e-06  7.34887208e-01  6.00664237e-06  0.00000000e+00  6.00664237e-06  1.80023187e+00  6.00664237e-06  7.27790089e-01  6.00664237e-06  7.34904554e-01  6.00664237e-06  1.61000854e+00                                 
 6.00984909e-06  7.81098023e-01  6.00984909e-06  7.23983023e-01  6.00984909e-06  7.42085532e-01  6.00984909e-06  0.00000000e+00  6.00984909e-06  1.79979560e+00  6.00984909e-06  7.27514193e-01  6.00984909e-06  7.41419586e-01  6.00984909e-06  1.59949683e+00                                 
 6.01626254e-06  7.81097070e-01  6.01626254e-06  7.23839799e-01  6.01626254e-06  7.55487499e-01  6.01626254e-06  0.00000000e+00  6.01626254e-06  1.80021732e+00  6.01626254e-06  7.27467968e-01  6.01626254e-06  7.55470322e-01  6.01626254e-06  1.57864716e+00                                 
 6.02908943e-06  7.81098017e-01  6.02908943e-06  7.23814056e-01  6.02908943e-06  7.82193872e-01  6.02908943e-06  0.00000000e+00  6.02908943e-06  1.79980173e+00  6.02908943e-06  7.26828465e-01  6.02908943e-06  7.81401101e-01  6.02908943e-06  1.53853126e+00                                 
 6.05474322e-06  7.81097072e-01  6.05474322e-06  7.23851531e-01  6.05474322e-06  8.29810214e-01  6.05474322e-06  0.00000000e+00  6.05474322e-06  1.80021246e+00  6.05474322e-06  7.26701754e-01  6.05474322e-06  8.29872329e-01  6.05474322e-06  1.46377766e+00                                 
 6.10605079e-06  7.81098017e-01  6.10605079e-06  7.23829163e-01  6.10605079e-06  9.09854805e-01  6.10605079e-06  0.00000000e+00  6.10605079e-06  1.79980028e+00  6.10605079e-06  7.26358568e-01  6.10605079e-06  9.07878057e-01  6.10605079e-06  1.32955550e+00                                 
 6.20866593e-06  7.81097073e-01  6.20866593e-06  7.23853254e-01  6.20866593e-06  1.01968891e+00  6.20866593e-06  0.00000000e+00  6.20866593e-06  1.80020710e+00  6.20866593e-06  7.26610774e-01  6.20866593e-06  1.02076886e+00  6.20866593e-06  1.11364850e+00                                 
 6.32147570e-06  7.81098016e-01  6.32147570e-06  7.23829277e-01  6.32147570e-06  1.08984044e+00  6.32147570e-06  0.00000000e+00  6.32147570e-06  1.79979668e+00  6.32147570e-06  7.26372561e-01  6.32147570e-06  1.08796797e+00  6.32147570e-06  1.06148624e+00                                 
 6.43535535e-06  7.81097073e-01  6.43535535e-06  7.23853051e-01  6.43535535e-06  1.12859021e+00  6.43535535e-06  0.00000000e+00  6.43535535e-06  1.80020478e+00  6.43535535e-06  7.26613990e-01  6.43535535e-06  1.12965123e+00  6.43535535e-06  1.12606645e+00                                 
 6.54227271e-06  7.81098016e-01  6.54227271e-06  7.23829468e-01  6.54227271e-06  1.14976320e+00  6.54227271e-06  0.00000000e+00  6.54227271e-06  1.79979617e+00  6.54227271e-06  7.26374024e-01  6.54227271e-06  1.14856442e+00  6.54227271e-06  1.14903141e+00                                 
