 time            v(vbep)         time            v(vben)         time            v(vout)         time            v(vphi1)        time            v(vphi2)        time            v(vref)         time            v(voutc)        time            v(voutcc)       yes             currtemp       
 0.00000000e+00  6.80702976e-01  0.00000000e+00  6.09155227e-01  0.00000000e+00  1.39942616e+00  0.00000000e+00  0.00000000e+00  0.00000000e+00  1.79999998e+00  0.00000000e+00  6.08369715e-01  0.00000000e+00  1.39942616e+00  0.00000000e+00  1.40767939e+00  1.00000000e+00  8.80000000e+01 
 1.00000000e-11  6.80728241e-01  1.00000000e-11  6.09227970e-01  1.00000000e-11  1.40016067e+00  1.00000000e-11  1.80000000e-02  1.00000000e-11  1.80024901e+00  1.00000000e-11  6.08889065e-01  1.00000000e-11  1.39988268e+00  1.00000000e-11  1.40769267e+00                                 
 2.00000000e-11  6.80734947e-01  2.00000000e-11  6.09272196e-01  2.00000000e-11  1.40059307e+00  2.00000000e-11  3.60000000e-02  2.00000000e-11  1.80034441e+00  2.00000000e-11  6.09270531e-01  2.00000000e-11  1.40022195e+00  2.00000000e-11  1.40769722e+00                                 
 4.00000000e-11  6.80734698e-01  4.00000000e-11  6.09329040e-01  4.00000000e-11  1.40108845e+00  4.00000000e-11  7.20000000e-02  4.00000000e-11  1.80037522e+00  4.00000000e-11  6.09824302e-01  4.00000000e-11  1.40071969e+00  4.00000000e-11  1.40769815e+00                                 
 8.00000000e-11  6.80722960e-01  8.00000000e-11  6.09362365e-01  8.00000000e-11  1.40112824e+00  8.00000000e-11  1.44000000e-01  8.00000000e-11  1.80016988e+00  8.00000000e-11  6.10248713e-01  8.00000000e-11  1.40110586e+00  8.00000000e-11  1.40768808e+00                                 
 1.60000000e-10  6.80720225e-01  1.60000000e-10  6.09368742e-01  1.60000000e-10  1.40079839e+00  1.60000000e-10  2.88000000e-01  1.60000000e-10  1.80000421e+00  1.60000000e-10  6.10341348e-01  1.60000000e-10  1.40114016e+00  1.60000000e-10  1.40767939e+00                                 
 3.20000000e-10  6.80714897e-01  3.20000000e-10  6.09355481e-01  3.20000000e-10  1.40044064e+00  3.20000000e-10  5.76000000e-01  3.20000000e-10  1.79998221e+00  3.20000000e-10  6.10192250e-01  3.20000000e-10  1.40081255e+00  3.20000000e-10  1.40767417e+00                                 
 6.40000000e-10  6.80633898e-01  6.40000000e-10  6.08866304e-01  6.40000000e-10  1.39878031e+00  6.40000000e-10  1.15200000e+00  6.40000000e-10  1.80711264e+00  6.40000000e-10  6.06676002e-01  6.40000000e-10  1.40288723e+00  6.40000000e-10  1.40769192e+00                                 
 1.00000000e-09  6.81159413e-01  1.00000000e-09  6.09400039e-01  1.00000000e-09  1.38097827e+00  1.00000000e-09  1.80000000e+00  1.00000000e-09  1.16501508e-01  1.00000000e-09  6.22764517e-01  1.00000000e-09  1.41026674e+00  1.00000000e-09  1.40772067e+00                                 
 1.03823677e-09  6.81245752e-01  1.03823677e-09  6.09373487e-01  1.03823677e-09  1.37910480e+00  1.03823677e-09  1.80000000e+00  1.03823677e-09  2.87209938e-02  1.03823677e-09  6.25412009e-01  1.03823677e-09  1.41153162e+00  1.03823677e-09  1.40772671e+00                                 
 1.11471030e-09  6.81434526e-01  1.11471030e-09  6.09363099e-01  1.11471030e-09  1.37686578e+00  1.11471030e-09  1.80000000e+00  1.11471030e-09 -1.28230849e-02  1.11471030e-09  6.28508628e-01  1.11471030e-09  1.41385446e+00  1.11471030e-09  1.40773123e+00                                 
 1.26765738e-09  6.81550095e-01  1.26765738e-09  6.09195104e-01  1.26765738e-09  1.37368205e+00  1.26765738e-09  1.80000000e+00  1.26765738e-09  9.84266847e-03  1.26765738e-09  6.27535495e-01  1.26765738e-09  1.41332642e+00  1.26765738e-09  1.40769509e+00                                 
 1.45840379e-09  6.81493726e-01  1.45840379e-09  6.09190124e-01  1.45840379e-09  1.37263767e+00  1.45840379e-09  1.80000000e+00  1.45840379e-09 -7.50319826e-03  1.45840379e-09  6.26204902e-01  1.45840379e-09  1.41195662e+00  1.45840379e-09  1.40774367e+00                                 
 1.66793869e-09  6.81366799e-01  1.66793869e-09  6.09189326e-01  1.66793869e-09  1.37218299e+00  1.66793869e-09  1.80000000e+00  1.66793869e-09  6.05936834e-03  1.66793869e-09  6.24430100e-01  1.66793869e-09  1.41063610e+00  1.66793869e-09  1.40779526e+00                                 
 2.05753267e-09  6.81086873e-01  2.05753267e-09  6.09156387e-01  2.05753267e-09  1.37116081e+00  2.05753267e-09  1.80000000e+00  2.05753267e-09 -5.40523754e-03  2.05753267e-09  6.21393648e-01  2.05753267e-09  1.40787263e+00  2.05753267e-09  1.40795657e+00                                 
 2.67986450e-09  6.80800651e-01  2.67986450e-09  6.09167936e-01  2.67986450e-09  1.36932005e+00  2.67986450e-09  1.80000000e+00  2.67986450e-09  4.99332063e-03  2.67986450e-09  6.17621851e-01  2.67986450e-09  1.40480230e+00  2.67986450e-09  1.40819600e+00                                 
 3.80880954e-09  6.80553065e-01  3.80880954e-09  6.09126396e-01  3.80880954e-09  1.36406812e+00  3.80880954e-09  1.80000000e+00  3.80880954e-09 -4.82165310e-03  3.80880954e-09  6.12472610e-01  3.80880954e-09  1.40026230e+00  3.80880954e-09  1.40851750e+00                                 
 5.18998500e-09  6.80504190e-01  5.18998500e-09  6.09148181e-01  5.18998500e-09  1.35683682e+00  5.18998500e-09  1.80000000e+00  5.18998500e-09  4.65619387e-03  5.18998500e-09  6.09278629e-01  5.18998500e-09  1.39768527e+00  5.18998500e-09  1.40863332e+00                                 
 6.38192411e-09  6.80505846e-01  6.38192411e-09  6.09121000e-01  6.38192411e-09  1.34929630e+00  6.38192411e-09  1.80000000e+00  6.38192411e-09 -4.48613517e-03  6.38192411e-09  6.07637954e-01  6.38192411e-09  1.39615368e+00  6.38192411e-09  1.40856015e+00                                 
 7.73958141e-09  6.80556468e-01  7.73958141e-09  6.09154042e-01  7.73958141e-09  1.34006822e+00  7.73958141e-09  1.80000000e+00  7.73958141e-09  4.34457949e-03  7.73958141e-09  6.07046828e-01  7.73958141e-09  1.39578165e+00  7.73958141e-09  1.40836127e+00                                 
 9.11191819e-09  6.80586997e-01  9.11191819e-09  6.09129313e-01  9.11191819e-09  1.32927977e+00  9.11191819e-09  1.80000000e+00  9.11191819e-09 -4.19881681e-03  9.11191819e-09  6.06518440e-01  9.11191819e-09  1.39519718e+00  9.11191819e-09  1.40811467e+00                                 
 1.11061776e-08  6.80650269e-01  1.11061776e-08  6.09164089e-01  1.11061776e-08  1.31292074e+00  1.11061776e-08  1.80000000e+00  1.11061776e-08  4.11604178e-03  1.11061776e-08  6.06660620e-01  1.11061776e-08  1.39543094e+00  1.11061776e-08  1.40773342e+00                                 
 1.34009704e-08  6.80675887e-01  1.34009704e-08  6.09137693e-01  1.34009704e-08  1.29251590e+00  1.34009704e-08  1.80000000e+00  1.34009704e-08 -4.02540350e-03  1.34009704e-08  6.06572160e-01  1.34009704e-08  1.39521556e+00  1.34009704e-08  1.40732296e+00                                 
 1.68276011e-08  6.80714506e-01  1.68276011e-08  6.09169927e-01  1.68276011e-08  1.26155690e+00  1.68276011e-08  1.80000000e+00  1.68276011e-08  3.98681392e-03  1.68276011e-08  6.07081288e-01  1.68276011e-08  1.39574808e+00  1.68276011e-08  1.40679400e+00                                 
 2.13069164e-08  6.80710392e-01  2.13069164e-08  6.09140789e-01  2.13069164e-08  1.21989583e+00  2.13069164e-08  1.80000000e+00  2.13069164e-08 -3.93381772e-03  2.13069164e-08  6.07190064e-01  2.13069164e-08  1.39569871e+00  2.13069164e-08  1.40626055e+00                                 
 2.93352232e-08  6.80719628e-01  2.93352232e-08  6.09171108e-01  2.93352232e-08  1.14577728e+00  2.93352232e-08  1.80000000e+00  2.93352232e-08  3.92631475e-03  2.93352232e-08  6.07842921e-01  2.93352232e-08  1.39635165e+00  2.93352232e-08  1.40562898e+00                                 
 3.99367037e-08  6.80701238e-01  3.99367037e-08  6.09140639e-01  3.99367037e-08  1.04828094e+00  3.99367037e-08  1.80000000e+00  3.99367037e-08 -3.89557927e-03  3.99367037e-08  6.07931026e-01  3.99367037e-08  1.39629611e+00  3.99367037e-08  1.40520649e+00                                 
 5.99579754e-08  6.80708465e-01  5.99579754e-08  6.09170307e-01  5.99579754e-08  8.68695923e-01  5.99579754e-08  1.80000000e+00  5.99579754e-08  3.90268330e-03  5.99579754e-08  6.08403252e-01  5.99579754e-08  1.39681243e+00  5.99579754e-08  1.40494683e+00                                 
 8.37065234e-08  6.80701060e-01  8.37065234e-08  6.09140281e-01  8.37065234e-08  6.87261437e-01  8.37065234e-08  1.80000000e+00  8.37065234e-08 -3.87407274e-03  8.37065234e-08  6.08237920e-01  8.37065234e-08  1.39655412e+00  8.37065234e-08  1.40493979e+00                                 
 1.05150701e-07  6.80708073e-01  1.05150701e-07  6.09170833e-01  1.05150701e-07  6.18449666e-01  1.05150701e-07  1.80000000e+00  1.05150701e-07  3.89779518e-03  1.05150701e-07  6.08497674e-01  1.05150701e-07  1.39689388e+00  1.05150701e-07  1.40496508e+00                                 
 1.25822163e-07  6.80694277e-01  1.25822163e-07  6.09139267e-01  1.25822163e-07  6.10094177e-01  1.25822163e-07  1.80000000e+00  1.25822163e-07 -3.85398598e-03  1.25822163e-07  6.08250400e-01  1.25822163e-07  1.39656507e+00  1.25822163e-07  1.40497954e+00                                 
 1.40836284e-07  6.80709699e-01  1.40836284e-07  6.09171133e-01  1.40836284e-07  6.08054225e-01  1.40836284e-07  1.80000000e+00  1.40836284e-07  3.87912005e-03  1.40836284e-07  6.08490959e-01  1.40836284e-07  1.39688719e+00  1.40836284e-07  1.40498040e+00                                 
 1.59187222e-07  6.80696382e-01  1.59187222e-07  6.09139297e-01  1.59187222e-07  6.08056436e-01  1.59187222e-07  1.80000000e+00  1.59187222e-07 -3.83381772e-03  1.59187222e-07  6.08250006e-01  1.59187222e-07  1.39656401e+00  1.59187222e-07  1.40498208e+00                                 
 1.95889100e-07  6.80709261e-01  1.95889100e-07  6.09171123e-01  1.95889100e-07  6.07401417e-01  1.95889100e-07  1.80000000e+00  1.95889100e-07  3.86555002e-03  1.95889100e-07  6.08489551e-01  1.95889100e-07  1.39688406e+00  1.95889100e-07  1.40498025e+00                                 
 2.51379540e-07  6.80696835e-01  2.51379540e-07  6.09139333e-01  2.51379540e-07  6.07813933e-01  2.51379540e-07  1.80000000e+00  2.51379540e-07 -3.82634329e-03  2.51379540e-07  6.08249881e-01  2.51379540e-07  1.39656107e+00  2.51379540e-07  1.40497929e+00                                 
 3.47427422e-07  6.80709044e-01  3.47427422e-07  6.09171105e-01  3.47427422e-07  6.07426267e-01  3.47427422e-07  1.80000000e+00  3.47427422e-07  3.86083161e-03  3.47427422e-07  6.08489491e-01  3.47427422e-07  1.39687913e+00  3.47427422e-07  1.40497539e+00                                 
 5.13755538e-07  6.80696950e-01  5.13755538e-07  6.09139343e-01  5.13755538e-07  6.07792647e-01  5.13755538e-07  1.80000000e+00  5.13755538e-07 -3.82364008e-03  5.13755538e-07  6.08249910e-01  5.13755538e-07  1.39655281e+00  5.13755538e-07  1.40497096e+00                                 
 7.88848652e-07  6.80708979e-01  7.88848652e-07  6.09171099e-01  7.88848652e-07  6.07431772e-01  7.88848652e-07  1.80000000e+00  7.88848652e-07  3.85923264e-03  7.88848652e-07  6.08489476e-01  7.88848652e-07  1.39686508e+00  7.88848652e-07  1.40496139e+00                                 
 1.29019142e-06  6.80696987e-01  1.29019142e-06  6.09139346e-01  1.29019142e-06  6.07786300e-01  1.29019142e-06  1.80000000e+00  1.29019142e-06 -3.82271413e-03  1.29019142e-06  6.08249918e-01  1.29019142e-06  1.39652819e+00  1.29019142e-06  1.40494635e+00                                 
 2.29287694e-06  6.80708960e-01  2.29287694e-06  6.09171097e-01  2.29287694e-06  6.07433211e-01  2.29287694e-06  1.80000000e+00  2.29287694e-06  3.85873694e-03  2.29287694e-06  6.08489472e-01  2.29287694e-06  1.39681736e+00  2.29287694e-06  1.40491374e+00                                 
 3.49287694e-06  6.80696998e-01  3.49287694e-06  6.09139347e-01  3.49287694e-06  6.07784331e-01  3.49287694e-06  1.80000000e+00  3.49287694e-06 -3.82241310e-03  3.49287694e-06  6.08249920e-01  3.49287694e-06  1.39645831e+00  3.49287694e-06  1.40487654e+00                                 
 4.69287694e-06  6.80708949e-01  4.69287694e-06  6.09171096e-01  4.69287694e-06  6.07434302e-01  4.69287694e-06  1.80000000e+00  4.69287694e-06  3.85846085e-03  4.69287694e-06  6.08489470e-01  4.69287694e-06  1.39674124e+00  4.69287694e-06  1.40483772e+00                                 
 5.89287694e-06  6.80697009e-01  5.89287694e-06  6.09139348e-01  5.89287694e-06  6.07781551e-01  5.89287694e-06  1.80000000e+00  5.89287694e-06 -3.82213524e-03  5.89287694e-06  6.08249922e-01  5.89287694e-06  1.39638227e+00  5.89287694e-06  1.40480059e+00                                 
 6.00100000e-06  6.80708888e-01  6.00100000e-06  6.09171090e-01  6.00100000e-06  6.07440042e-01  6.00100000e-06  1.80000000e+00  6.00100000e-06  3.85679125e-03  6.00100000e-06  6.08489460e-01  6.00100000e-06  1.39669976e+00  6.00100000e-06  1.40479634e+00                                 
 6.00110000e-06  6.80652929e-01  6.00110000e-06  6.08918438e-01  6.00110000e-06  6.05679717e-01  6.00110000e-06  1.62000000e+00  6.00110000e-06  2.79011442e-04  6.00110000e-06  6.06862557e-01  6.00110000e-06  1.39525684e+00  6.00110000e-06  1.40478621e+00                                 
 6.00130000e-06  6.80687474e-01  6.00130000e-06  6.08909382e-01  6.00130000e-06  6.05677188e-01  6.00130000e-06  1.26000000e+00  6.00130000e-06 -2.92779008e-04  6.00130000e-06  6.06507712e-01  6.00130000e-06  1.39494683e+00  6.00130000e-06  1.40480116e+00                                 
 6.00164855e-06  6.80757803e-01  6.00164855e-06  6.09100564e-01  6.00164855e-06  6.07719729e-01  6.00164855e-06  6.32607212e-01  6.00164855e-06  2.81913754e-02  6.00164855e-06  6.06606251e-01  6.00164855e-06  1.39151366e+00  6.00164855e-06  1.40477605e+00                                 
 6.00200000e-06  6.80684809e-01  6.00200000e-06  6.07852023e-01  6.00200000e-06  6.40552915e-01  6.00200000e-06  0.00000000e+00  6.00200000e-06  1.61502443e+00  6.00200000e-06  5.93627744e-01  6.00200000e-06  1.18236659e+00  6.00200000e-06  1.40419957e+00                                 
 6.00204654e-06  6.80702164e-01  6.00204654e-06  6.07186595e-01  6.00204654e-06  6.48503288e-01  6.00204654e-06  0.00000000e+00  6.00204654e-06  1.73328005e+00  6.00204654e-06  5.86083993e-01  6.00204654e-06  1.10648747e+00  6.00204654e-06  1.40420163e+00                                 
 6.00213963e-06  6.80706123e-01  6.00213963e-06  6.06213785e-01  6.00213963e-06  6.53652927e-01  6.00213963e-06  0.00000000e+00  6.00213963e-06  1.81481479e+00  6.00213963e-06  5.75137593e-01  6.00213963e-06  9.56171870e-01  6.00213963e-06  1.40464308e+00                                 
 6.00232581e-06  6.80701529e-01  6.00232581e-06  6.06580818e-01  6.00232581e-06  6.38807374e-01  6.00232581e-06  0.00000000e+00  6.00232581e-06  1.78776800e+00  6.00232581e-06  5.79525077e-01  6.00232581e-06  7.47582819e-01  6.00232581e-06  1.40514859e+00                                 
 6.00251171e-06  6.80704038e-01  6.00251171e-06  6.07814433e-01  6.00251171e-06  6.23477780e-01  6.00251171e-06  0.00000000e+00  6.00251171e-06  1.80595171e+00  6.00251171e-06  5.92744747e-01  6.00251171e-06  6.59660092e-01  6.00251171e-06  1.40519343e+00                                 
 6.00266095e-06  6.80701306e-01  6.00266095e-06  6.08502330e-01  6.00266095e-06  6.15614290e-01  6.00266095e-06  0.00000000e+00  6.00266095e-06  1.79683941e+00  6.00266095e-06  5.99250677e-01  6.00266095e-06  6.30805527e-01  6.00266095e-06  1.40508884e+00                                 
 6.00286633e-06  6.80703701e-01  6.00286633e-06  6.09161403e-01  6.00286633e-06  6.10890532e-01  6.00286633e-06  0.00000000e+00  6.00286633e-06  1.80205926e+00  6.00286633e-06  6.05401413e-01  6.00286633e-06  6.16276070e-01  6.00286633e-06  1.40421479e+00                                 
 6.00307011e-06  6.80701703e-01  6.00307011e-06  6.09397004e-01  6.00307011e-06  6.09170095e-01  6.00307011e-06  0.00000000e+00  6.00307011e-06  1.79880072e+00  6.00307011e-06  6.07198138e-01  6.00307011e-06  6.10793434e-01  6.00307011e-06  1.40315285e+00                                 
 6.00338969e-06  6.80703749e-01  6.00338969e-06  6.09589543e-01  6.00338969e-06  6.08857287e-01  6.00338969e-06  0.00000000e+00  6.00338969e-06  1.80094642e+00  6.00338969e-06  6.09019572e-01  6.00338969e-06  6.09242653e-01  6.00338969e-06  1.40102274e+00                                 
 6.00380565e-06  6.80702077e-01  6.00380565e-06  6.09580377e-01  6.00380565e-06  6.09650382e-01  6.00380565e-06  0.00000000e+00  6.00380565e-06  1.79927664e+00  6.00380565e-06  6.09099997e-01  6.00380565e-06  6.09297237e-01  6.00380565e-06  1.39807952e+00                                 
 6.00455446e-06  6.80703841e-01  6.00455446e-06  6.09563178e-01  6.00455446e-06  6.11742058e-01  6.00455446e-06  0.00000000e+00  6.00455446e-06  1.80066535e+00  6.00455446e-06  6.09630262e-01  6.00455446e-06  6.11629575e-01  6.00455446e-06  1.39229617e+00                                 
 6.00572550e-06  6.80702184e-01  6.00572550e-06  6.09455932e-01  6.00572550e-06  6.15261251e-01  6.00572550e-06  0.00000000e+00  6.00572550e-06  1.79941491e+00  6.00572550e-06  6.09383128e-01  6.00572550e-06  6.14819590e-01  6.00572550e-06  1.38282509e+00                                 
 6.00806758e-06  6.80703772e-01  6.00806758e-06  6.09334027e-01  6.00806758e-06  6.22389850e-01  6.00806758e-06  0.00000000e+00  6.00806758e-06  1.80059089e+00  6.00806758e-06  6.09606052e-01  6.00806758e-06  6.22230939e-01  6.00806758e-06  1.36279831e+00                                 
 6.01275176e-06  6.80702163e-01  6.01275176e-06  6.09154193e-01  6.01275176e-06  6.36387158e-01  6.01275176e-06  0.00000000e+00  6.01275176e-06  1.79945013e+00  6.01275176e-06  6.09074310e-01  6.01275176e-06  6.35905234e-01  6.01275176e-06  1.32161316e+00                                 
 6.02027329e-06  6.80703770e-01  6.02027329e-06  6.09148100e-01  6.02027329e-06  6.58182091e-01  6.02027329e-06  0.00000000e+00  6.02027329e-06  1.80057192e+00  6.02027329e-06  6.09047104e-01  6.02027329e-06  6.57986382e-01  6.02027329e-06  1.25422084e+00                                 
 6.03531637e-06  6.80702176e-01  6.03531637e-06  6.09138470e-01  6.03531637e-06  6.99525101e-01  6.03531637e-06  0.00000000e+00  6.03531637e-06  1.79945471e+00  6.03531637e-06  6.08408907e-01  6.03531637e-06  6.98949608e-01  6.03531637e-06  1.11875686e+00                                 
 6.04932495e-06  6.80703773e-01  6.04932495e-06  6.09163915e-01  6.04932495e-06  7.35382987e-01  6.04932495e-06  0.00000000e+00  6.04932495e-06  1.80056326e+00  6.04932495e-06  6.08577730e-01  6.04932495e-06  7.35169019e-01  6.04932495e-06  1.00327288e+00                                 
 6.06905854e-06  6.80702181e-01  6.06905854e-06  6.09143388e-01  6.06905854e-06  7.81873723e-01  6.06905854e-06  0.00000000e+00  6.06905854e-06  1.79945899e+00  6.06905854e-06  6.08232558e-01  6.06905854e-06  7.81118197e-01  6.06905854e-06  8.77733941e-01                                 
 6.09824409e-06  6.80703771e-01  6.09824409e-06  6.09166681e-01  6.09824409e-06  8.42643465e-01  6.09824409e-06  0.00000000e+00  6.09824409e-06  1.80055634e+00  6.09824409e-06  6.08504368e-01  6.09824409e-06  8.42498862e-01  6.09824409e-06  8.23150414e-01                                 
 6.11662797e-06  6.80702183e-01  6.11662797e-06  6.09143582e-01  6.11662797e-06  8.76366673e-01  6.11662797e-06  0.00000000e+00  6.11662797e-06  1.79946089e+00  6.11662797e-06  6.08215346e-01  6.11662797e-06  8.75421010e-01  6.11662797e-06  8.52710573e-01                                 
 6.12874671e-06  6.80703768e-01  6.12874671e-06  6.09167192e-01  6.12874671e-06  8.96812669e-01  6.12874671e-06  0.00000000e+00  6.12874671e-06  1.80054829e+00  6.12874671e-06  6.08507526e-01  6.12874671e-06  8.96674754e-01  6.12874671e-06  8.73368073e-01                                 
