 time            v(vbep)         time            v(vben)         time            v(vout)         time            v(vphi1)        time            v(vphi2)        time            v(vref)         yes             currtemp       
 0.00000000e+00  8.16713791e-01  0.00000000e+00  7.73946270e-01  0.00000000e+00  1.03640259e+00  0.00000000e+00  0.00000000e+00  0.00000000e+00  1.79993126e+00  0.00000000e+00  5.00000000e-01  1.00000000e+00 -3.90000000e+01 
 5.00000000e-12  8.16676366e-01  5.00000000e-12  7.73915633e-01  5.00000000e-12  1.03710739e+00  5.00000000e-12  1.80000000e-02  5.00000000e-12  1.80003409e+00  5.00000000e-12  5.00000000e-01                                 
 1.00000000e-11  8.16640717e-01  1.00000000e-11  7.73886066e-01  1.00000000e-11  1.03773914e+00  1.00000000e-11  3.60000000e-02  1.00000000e-11  1.80008724e+00  1.00000000e-11  5.00000000e-01                                 
 2.00000000e-11  8.16570677e-01  2.00000000e-11  7.73827259e-01  2.00000000e-11  1.03888982e+00  2.00000000e-11  7.20000000e-02  2.00000000e-11  1.80013591e+00  2.00000000e-11  5.00000000e-01                                 
 4.00000000e-11  8.16432814e-01  4.00000000e-11  7.73710323e-01  4.00000000e-11  1.04069281e+00  4.00000000e-11  1.44000000e-01  4.00000000e-11  1.80010344e+00  4.00000000e-11  5.00000000e-01                                 
 8.00000000e-11  8.16159068e-01  8.00000000e-11  7.73478062e-01  8.00000000e-11  1.04310546e+00  8.00000000e-11  2.88000000e-01  8.00000000e-11  1.80003188e+00  8.00000000e-11  5.00000000e-01                                 
 1.60000000e-10  8.15620434e-01  1.60000000e-10  7.73019992e-01  1.60000000e-10  1.04611256e+00  1.60000000e-10  5.76000000e-01  1.60000000e-10  1.79999668e+00  1.60000000e-10  5.00000000e-01                                 
 3.20000000e-10  8.14575818e-01  3.20000000e-10  7.72128421e-01  3.20000000e-10  1.03912956e+00  3.20000000e-10  1.15200000e+00  3.20000000e-10  1.80018014e+00  3.20000000e-10  5.00000000e-01                                 
 5.00000000e-10  8.13450245e-01  5.00000000e-10  7.71162652e-01  5.00000000e-10  1.19327430e+00  5.00000000e-10  1.80000000e+00  5.00000000e-10  8.40533812e-02  5.00000000e-10  5.00000000e-01                                 
 5.20268482e-10  8.13326987e-01  5.20268482e-10  7.71056554e-01  5.20268482e-10  1.22676668e+00  5.20268482e-10  1.80000000e+00  5.20268482e-10  1.39067890e-02  5.20268482e-10  5.00000000e-01                                 
 5.60805445e-10  8.13081632e-01  5.60805445e-10  7.70845207e-01  5.60805445e-10  1.28652899e+00  5.60805445e-10  1.80000000e+00  5.60805445e-10 -6.48209254e-03  5.60805445e-10  5.00000000e-01                                 
 6.41879371e-10  8.12598010e-01  6.41879371e-10  7.70427917e-01  6.41879371e-10  1.38141297e+00  6.41879371e-10  1.80000000e+00  6.41879371e-10  5.87975386e-03  6.41879371e-10  5.00000000e-01                                 
 7.66977267e-10  8.11869728e-01  7.66977267e-10  7.69797748e-01  7.66977267e-10  1.49636004e+00  7.66977267e-10  1.80000000e+00  7.66977267e-10 -5.20102891e-03  7.66977267e-10  5.00000000e-01                                 
 9.52174841e-10  8.10829350e-01  9.52174841e-10  7.68893870e-01  9.52174841e-10  1.62147289e+00  9.52174841e-10  1.80000000e+00  9.52174841e-10  5.03025804e-03  9.52174841e-10  5.00000000e-01                                 
 1.32256999e-09  8.08870745e-01  1.32256999e-09  7.67180923e-01  1.32256999e-09  1.76795505e+00  1.32256999e-09  1.80000000e+00  1.32256999e-09 -4.79954110e-03  1.32256999e-09  5.00000000e-01                                 
 1.63019629e-09  8.07357194e-01  1.63019629e-09  7.65846771e-01  1.63019629e-09  1.82102780e+00  1.63019629e-09  1.80000000e+00  1.63019629e-09  4.69952234e-03  1.63019629e-09  5.00000000e-01                                 
 1.99071795e-09  8.05696991e-01  1.99071795e-09  7.64373304e-01  1.99071795e-09  1.84736833e+00  1.99071795e-09  1.80000000e+00  1.99071795e-09 -4.48898739e-03  1.99071795e-09  5.00000000e-01                                 
 2.32816318e-09  8.04242048e-01  2.32816318e-09  7.63073487e-01  2.32816318e-09  1.85623316e+00  2.32816318e-09  1.80000000e+00  2.32816318e-09  4.42422678e-03  2.32816318e-09  5.00000000e-01                                 
 2.63031689e-09  8.03011726e-01  2.63031689e-09  7.61968260e-01  2.63031689e-09  1.85900549e+00  2.63031689e-09  1.80000000e+00  2.63031689e-09 -4.21837170e-03  2.63031689e-09  5.00000000e-01                                 
 3.01973056e-09  8.01515630e-01  3.01973056e-09  7.60617103e-01  3.01973056e-09  1.85983609e+00  3.01973056e-09  1.80000000e+00  3.01973056e-09  4.13728288e-03  3.01973056e-09  5.00000000e-01                                 
 3.46952702e-09  7.99899516e-01  3.46952702e-09  7.59148875e-01  3.46952702e-09  1.85940030e+00  3.46952702e-09  1.80000000e+00  3.46952702e-09 -4.01963795e-03  3.46952702e-09  5.00000000e-01                                 
 4.28499075e-09  7.97227095e-01  4.28499075e-09  7.56702558e-01  4.28499075e-09  1.85784520e+00  4.28499075e-09  1.80000000e+00  4.28499075e-09  3.98192430e-03  4.28499075e-09  5.00000000e-01                                 
 5.40772503e-09  7.93993005e-01  5.40772503e-09  7.53712372e-01  5.40772503e-09  1.85573880e+00  5.40772503e-09  1.80000000e+00  5.40772503e-09 -3.93224363e-03  5.40772503e-09  5.00000000e-01                                 
 7.44790991e-09  7.89074903e-01  7.44790991e-09  7.49109532e-01  7.44790991e-09  1.85268921e+00  7.44790991e-09  1.80000000e+00  7.44790991e-09  3.92404026e-03  7.44790991e-09  5.00000000e-01                                 
 1.09944367e-08  7.82460523e-01  1.09944367e-08  7.42824137e-01  1.09944367e-08  1.84891769e+00  1.09944367e-08  1.80000000e+00  1.09944367e-08 -3.89973175e-03  1.09944367e-08  5.00000000e-01                                 
 1.80874902e-08  7.73208397e-01  1.80874902e-08  7.33879411e-01  1.80874902e-08  1.84465606e+00  1.80874902e-08  1.80000000e+00  1.80874902e-08  3.90698535e-03  1.80874902e-08  5.00000000e-01                                 
 3.22735972e-08  7.61814001e-01  3.22735972e-08  7.22653003e-01  3.22735972e-08  1.84267430e+00  3.22735972e-08  1.80000000e+00  3.22735972e-08 -3.89069922e-03  3.22735972e-08  5.00000000e-01                                 
 5.20448326e-08  7.52408081e-01  5.20448326e-08  7.13239972e-01  5.20448326e-08  1.84386769e+00  5.20448326e-08  1.80000000e+00  5.20448326e-08  3.90230560e-03  5.20448326e-08  5.00000000e-01                                 
 7.12045077e-08  7.46304811e-01  7.12045077e-08  7.07080384e-01  7.12045077e-08  1.84639283e+00  7.12045077e-08  1.80000000e+00  7.12045077e-08 -3.88638402e-03  7.12045077e-08  5.00000000e-01                                 
 9.74337028e-08  7.40059548e-01  9.74337028e-08  7.00767480e-01  9.74337028e-08  1.81984695e+00  9.74337028e-08  1.80000000e+00  9.74337028e-08  3.89866819e-03  9.74337028e-08  5.00000000e-01                                 
 1.20755779e-07  7.34624425e-01  1.20755779e-07  6.95512705e-01  1.20755779e-07  1.74735315e+00  1.20755779e-07  1.80000000e+00  1.20755779e-07 -3.88309686e-03  1.20755779e-07  5.00000000e-01                                 
 1.47627960e-07  7.27476598e-01  1.47627960e-07  6.88946105e-01  1.47627960e-07  1.64390554e+00  1.47627960e-07  1.80000000e+00  1.47627960e-07  3.89539815e-03  1.47627960e-07  5.00000000e-01                                 
 1.75811695e-07  7.18011376e-01  1.75811695e-07  6.80662857e-01  1.75811695e-07  1.48835281e+00  1.75811695e-07  1.80000000e+00  1.75811695e-07 -3.88023031e-03  1.75811695e-07  5.00000000e-01                                 
 2.02548939e-07  7.10000601e-01  2.02548939e-07  6.73702307e-01  2.02548939e-07  1.32505246e+00  2.02548939e-07  1.80000000e+00  2.02548939e-07  3.89249268e-03  2.02548939e-07  5.00000000e-01                                 
 2.34237058e-07  7.10440360e-01  2.34237058e-07  6.73430225e-01  2.34237058e-07  1.19099311e+00  2.34237058e-07  1.80000000e+00  2.34237058e-07 -3.87724624e-03  2.34237058e-07  5.00000000e-01                                 
 2.64930346e-07  7.15415753e-01  2.64930346e-07  6.76819699e-01  2.64930346e-07  1.02442161e+00  2.64930346e-07  1.80000000e+00  2.64930346e-07  3.88999244e-03  2.64930346e-07  5.00000000e-01                                 
 2.89503888e-07  7.12962879e-01  2.89503888e-07  6.74453926e-01  2.89503888e-07  8.93070026e-01  2.89503888e-07  1.80000000e+00  2.89503888e-07 -3.87448507e-03  2.89503888e-07  5.00000000e-01                                 
 3.15500766e-07  7.08747469e-01  3.15500766e-07  6.70702798e-01  3.15500766e-07  7.78644054e-01  3.15500766e-07  1.80000000e+00  3.15500766e-07  3.88674773e-03  3.15500766e-07  5.00000000e-01                                 
 3.50577323e-07  7.04644221e-01  3.50577323e-07  6.66953650e-01  3.50577323e-07  6.78961514e-01  3.50577323e-07  1.80000000e+00  3.50577323e-07 -3.87176625e-03  3.50577323e-07  5.00000000e-01                                 
 3.88245843e-07  6.99814965e-01  3.88245843e-07  6.62649793e-01  3.88245843e-07  6.24030669e-01  3.88245843e-07  1.80000000e+00  3.88245843e-07  3.88451045e-03  3.88245843e-07  5.00000000e-01                                 
 4.39005907e-07  6.94093485e-01  4.39005907e-07  6.57553885e-01  4.39005907e-07  5.67860438e-01  4.39005907e-07  1.80000000e+00  4.39005907e-07 -3.86990590e-03  4.39005907e-07  5.00000000e-01                                 
 4.93749527e-07  6.87980551e-01  4.93749527e-07  6.52187653e-01  4.93749527e-07  5.17385726e-01  4.93749527e-07  1.80000000e+00  4.93749527e-07  3.88297937e-03  4.93749527e-07  5.00000000e-01                                 
 5.92221832e-07  6.77962860e-01  5.92221832e-07  6.43479653e-01  5.92221832e-07  4.81653939e-01  5.92221832e-07  1.80000000e+00  5.92221832e-07 -3.86876413e-03  5.92221832e-07  5.00000000e-01                                 
 6.73551226e-07  6.69564191e-01  6.73551226e-07  6.36318819e-01  6.73551226e-07  4.74968120e-01  6.73551226e-07  1.80000000e+00  6.73551226e-07  3.88207965e-03  6.73551226e-07  5.00000000e-01                                 
 7.60872227e-07  6.61495912e-01  7.60872227e-07  6.29483878e-01  7.60872227e-07  4.72482864e-01  7.60872227e-07  1.80000000e+00  7.60872227e-07 -3.86781177e-03  7.60872227e-07  5.00000000e-01                                 
 9.03616453e-07  6.48453441e-01  9.03616453e-07  6.18584776e-01  9.03616453e-07  4.62404236e-01  9.03616453e-07  1.80000000e+00  9.03616453e-07  3.88134169e-03  9.03616453e-07  5.00000000e-01                                 
 1.04322173e-06  6.36794705e-01  1.04322173e-06  6.08937004e-01  1.04322173e-06  4.90091789e-01  1.04322173e-06  1.80000000e+00  1.04322173e-06 -3.86724391e-03  1.04322173e-06  5.00000000e-01                                 
 1.06445039e-06  6.35157552e-01  1.06445039e-06  6.07588154e-01  1.06445039e-06  4.98568840e-01  1.06445039e-06  1.80000000e+00  1.06445039e-06 -4.66307466e-07  1.06445039e-06  5.00000000e-01                                 
 1.10690770e-06  6.31893044e-01  1.10690770e-06  6.04901701e-01  1.10690770e-06  5.13074305e-01  1.10690770e-06  1.80000000e+00  1.10690770e-06  4.24608320e-07  1.10690770e-06  5.00000000e-01                                 
 1.11752203e-06  6.31094812e-01  1.11752203e-06  6.04245658e-01  1.11752203e-06  5.15106556e-01  1.11752203e-06  1.80000000e+00  1.11752203e-06 -2.02052341e-08  1.11752203e-06  5.00000000e-01                                 
 1.13875068e-06  6.29506717e-01  1.13875068e-06  6.02941004e-01  1.13875068e-06  5.18576950e-01  1.13875068e-06  1.80000000e+00  1.13875068e-06 -1.98254189e-08  1.13875068e-06  5.00000000e-01                                 
 1.18120800e-06  6.26399452e-01  1.18120800e-06  6.00391053e-01  1.18120800e-06  5.20940661e-01  1.18120800e-06  1.80000000e+00  1.18120800e-06 -1.90923936e-08  1.18120800e-06  5.00000000e-01                                 
 1.26612263e-06  6.20441481e-01  1.26612263e-06  5.95510943e-01  1.26612263e-06  5.08029546e-01  1.26612263e-06  1.80000000e+00  1.26612263e-06 -1.76221661e-08  1.26612263e-06  5.00000000e-01                                 
 1.36722477e-06  6.13775025e-01  1.36722477e-06  5.90063273e-01  1.36722477e-06  4.96474013e-01  1.36722477e-06  1.80000000e+00  1.36722477e-06 -1.57842024e-08  1.36722477e-06  5.00000000e-01                                 
 1.47762213e-06  6.07012212e-01  1.47762213e-06  5.84548039e-01  1.47762213e-06  4.96631158e-01  1.47762213e-06  1.80000000e+00  1.47762213e-06 -1.46219838e-08  1.47762213e-06  5.00000000e-01                                 
 1.61547219e-06  5.99433255e-01  1.61547219e-06  5.78375319e-01  1.61547219e-06  4.95331884e-01  1.61547219e-06  1.80000000e+00  1.61547219e-06 -1.15306464e-08  1.61547219e-06  5.00000000e-01                                 
 1.81325986e-06  5.91498106e-01  1.81325986e-06  5.71898983e-01  1.81325986e-06  4.94065662e-01  1.81325986e-06  1.80000000e+00  1.81325986e-06 -5.18474066e-09  1.81325986e-06  5.00000000e-01                                 
 1.84808018e-06  5.90741175e-01  1.84808018e-06  5.71274138e-01  1.84808018e-06  4.94121714e-01  1.84808018e-06  1.80000000e+00  1.84808018e-06 -2.56769668e-09  1.84808018e-06  5.00000000e-01                                 
 1.91772082e-06  5.89808286e-01  1.91772082e-06  5.70490556e-01  1.91772082e-06  4.94551805e-01  1.91772082e-06  1.80000000e+00  1.91772082e-06  2.57282079e-09  1.91772082e-06  5.00000000e-01                                 
 2.05700210e-06  5.94123785e-01  2.05700210e-06  5.73875761e-01  2.05700210e-06  4.99109733e-01  2.05700210e-06  1.80000000e+00  2.05700210e-06  2.50006265e-08  2.05700210e-06  5.00000000e-01                                 
 2.09182241e-06  5.97628626e-01  2.09182241e-06  5.76664570e-01  2.09182241e-06  5.01784874e-01  2.09182241e-06  1.80000000e+00  2.09182241e-06  3.55048077e-08  2.09182241e-06  5.00000000e-01                                 
 2.16146305e-06  6.08693812e-01  2.16146305e-06  5.85488269e-01  2.16146305e-06  5.10089608e-01  2.16146305e-06  1.80000000e+00  2.16146305e-06  7.22300017e-08  2.16146305e-06  5.00000000e-01                                 
 2.17887321e-06  6.13399938e-01  2.17887321e-06  5.89246579e-01  2.17887321e-06  5.13680083e-01  2.17887321e-06  1.80000000e+00  2.17887321e-06  8.91789089e-08  2.17887321e-06  5.00000000e-01                                 
 2.21369353e-06  6.25411053e-01  2.21369353e-06  5.98842444e-01  2.21369353e-06  5.19569461e-01  2.21369353e-06  1.80000000e+00  2.21369353e-06  1.37151943e-07  2.21369353e-06  5.00000000e-01                                 
 2.28333417e-06  7.07466021e-01  2.28333417e-06  6.64610366e-01  2.28333417e-06  5.29659786e-01  2.28333417e-06  1.80000000e+00  2.28333417e-06  6.50207396e-07  2.28333417e-06  5.00000000e-01                                 
 2.34898003e-06  8.47647912e-01  2.34898003e-06  8.03350201e-01  2.34898003e-06  5.41376751e-01  2.34898003e-06  1.80000000e+00  2.34898003e-06  1.20816374e-06  2.34898003e-06  5.00000000e-01                                 
 2.42926552e-06  9.53392722e-01  2.42926552e-06  8.89578880e-01  2.42926552e-06  5.24812877e-01  2.42926552e-06  1.80000000e+00  2.42926552e-06  1.45007892e-07  2.42926552e-06  5.00000000e-01                                 
 2.43853185e-06  9.62577519e-01  2.43853185e-06  8.94832482e-01  2.43853185e-06  5.24608767e-01  2.43853185e-06  1.80000000e+00  2.43853185e-06  4.08459781e-07  2.43853185e-06  5.00000000e-01                                 
 2.45706452e-06  9.67664224e-01  2.45706452e-06  8.97805110e-01  2.45706452e-06  5.20385057e-01  2.45706452e-06  1.80000000e+00  2.45706452e-06  5.98037466e-09  2.45706452e-06  5.00000000e-01                                 
 2.48166039e-06  9.64177847e-01  2.48166039e-06  8.95864528e-01  2.48166039e-06  5.11811262e-01  2.48166039e-06  1.80000000e+00  2.48166039e-06 -8.12934541e-08  2.48166039e-06  5.00000000e-01                                 
 2.50968152e-06  9.65834400e-01  2.50968152e-06  8.96751025e-01  2.50968152e-06  5.10038320e-01  2.50968152e-06  1.80000000e+00  2.50968152e-06  1.34227382e-07  2.50968152e-06  5.00000000e-01                                 
 2.53833004e-06  9.64489183e-01  2.53833004e-06  8.96066853e-01  2.53833004e-06  5.09230593e-01  2.53833004e-06  1.80000000e+00  2.53833004e-06 -1.28551091e-07  2.53833004e-06  5.00000000e-01                                 
 2.58586394e-06  9.64565383e-01  2.58586394e-06  8.96043984e-01  2.58586394e-06  5.08316603e-01  2.58586394e-06  1.80000000e+00  2.58586394e-06  1.17292930e-07  2.58586394e-06  5.00000000e-01                                 
 2.64947917e-06  9.63690738e-01  2.64947917e-06  8.95629938e-01  2.64947917e-06  5.08330059e-01  2.64947917e-06  1.80000000e+00  2.64947917e-06 -1.07112146e-07  2.64947917e-06  5.00000000e-01                                 
 2.76817235e-06  9.62720051e-01  2.76817235e-06  8.95023234e-01  2.76817235e-06  5.06911098e-01  2.76817235e-06  1.80000000e+00  2.76817235e-06  1.00077447e-07  2.76817235e-06  5.00000000e-01                                 
 3.00555872e-06  9.60407274e-01  3.00555872e-06  8.93798332e-01  3.00555872e-06  5.05731247e-01  3.00555872e-06  1.80000000e+00  3.00555872e-06 -9.76394520e-08  3.00555872e-06  5.00000000e-01                                 
 3.35206011e-06  9.57150380e-01  3.35206011e-06  8.91868813e-01  3.35206011e-06  5.03964619e-01  3.35206011e-06  1.80000000e+00  3.35206011e-06  9.46480099e-08  3.35206011e-06  5.00000000e-01                                 
 4.01829997e-06  9.50294369e-01  4.01829997e-06  8.87908942e-01  4.01829997e-06  5.02356058e-01  4.01829997e-06  1.80000000e+00  4.01829997e-06 -9.52726645e-08  4.01829997e-06  5.00000000e-01                                 
 5.01829997e-06  9.34776597e-01  5.01829997e-06  8.77982261e-01  5.01829997e-06  4.95098932e-01  5.01829997e-06  1.80000000e+00  5.01829997e-06  8.75984509e-08  5.01829997e-06  5.00000000e-01                                 
 5.14329997e-06  9.31918078e-01  5.14329997e-06  8.76113483e-01  5.14329997e-06  4.93845323e-01  5.14329997e-06  1.80000000e+00  5.14329997e-06 -6.19090129e-09  5.14329997e-06  5.00000000e-01                                 
 5.39329997e-06  9.24999283e-01  5.39329997e-06  8.71309695e-01  5.39329997e-06  4.90236105e-01  5.39329997e-06  1.80000000e+00  5.39329997e-06 -1.33715325e-08  5.39329997e-06  5.00000000e-01                                 
 5.89329997e-06  9.02226645e-01  5.89329997e-06  8.53906023e-01  5.89329997e-06  4.86347238e-01  5.89329997e-06  1.80000000e+00  5.89329997e-06 -2.49484659e-08  5.89329997e-06  5.00000000e-01                                 
 6.01403360e-06  8.95435941e-01  6.01403360e-06  8.48242526e-01  6.01403360e-06  4.89722822e-01  6.01403360e-06  1.80000000e+00  6.01403360e-06 -2.49682482e-08  6.01403360e-06  5.00000000e-01                                 
 6.25550086e-06  8.85070567e-01  6.25550086e-06  8.39212932e-01  6.25550086e-06  4.98686423e-01  6.25550086e-06  1.80000000e+00  6.25550086e-06 -1.15140965e-08  6.25550086e-06  5.00000000e-01                                 
 6.73843536e-06  8.78861123e-01  6.73843536e-06  8.33610009e-01  6.73843536e-06  5.08612347e-01  6.73843536e-06  1.80000000e+00  6.73843536e-06  6.40848795e-09  6.73843536e-06  5.00000000e-01                                 
 7.21958816e-06  8.79574077e-01  7.21958816e-06  8.34258428e-01  7.21958816e-06  5.05794203e-01  7.21958816e-06  1.80000000e+00  7.21958816e-06  3.66585410e-09  7.21958816e-06  5.00000000e-01                                 
 7.93019295e-06  8.79419528e-01  7.93019295e-06  8.34119424e-01  7.93019295e-06  5.06689077e-01  7.93019295e-06  1.80000000e+00  7.93019295e-06  4.64190191e-09  7.93019295e-06  5.00000000e-01                                 
