 time            v(vbep)         time            v(vben)         time            v(vout)         time            v(vphi1)        time            v(vphi2)        time            v(vref)         time            v(voutc)        time            v(voutcc)       yes             currtemp       
 0.00000000e+00  7.67623376e-01  0.00000000e+00  7.08462759e-01  0.00000000e+00  1.59138000e+00  0.00000000e+00  0.00000000e+00  0.00000000e+00  1.80000000e+00  0.00000000e+00  7.10789365e-01  0.00000000e+00  1.59137999e+00  0.00000000e+00  1.59785281e+00  1.00000000e+00  3.10000000e+01 
 1.00000000e-11  7.67648322e-01  1.00000000e-11  7.08533908e-01  1.00000000e-11  1.59216364e+00  1.00000000e-11  1.80000000e-02  1.00000000e-11  1.80025044e+00  1.00000000e-11  7.11319246e-01  1.00000000e-11  1.59184897e+00  1.00000000e-11  1.59786427e+00                                 
 2.00000000e-11  7.67655147e-01  2.00000000e-11  7.08578592e-01  2.00000000e-11  1.59265031e+00  2.00000000e-11  3.60000000e-02  2.00000000e-11  1.80035037e+00  2.00000000e-11  7.11713326e-01  2.00000000e-11  1.59220520e+00  2.00000000e-11  1.59786819e+00                                 
 4.00000000e-11  7.67655047e-01  4.00000000e-11  7.08637526e-01  4.00000000e-11  1.59324316e+00  4.00000000e-11  7.20000000e-02  4.00000000e-11  1.80038954e+00  4.00000000e-11  7.12289944e-01  4.00000000e-11  1.59273808e+00  4.00000000e-11  1.59786849e+00                                 
 8.00000000e-11  7.67643117e-01  8.00000000e-11  7.08675458e-01  8.00000000e-11  1.59338303e+00  8.00000000e-11  1.44000000e-01  8.00000000e-11  1.80018688e+00  8.00000000e-11  7.12735832e-01  8.00000000e-11  1.59317833e+00  8.00000000e-11  1.59785747e+00                                 
 1.60000000e-10  7.67640143e-01  1.60000000e-10  7.08685867e-01  1.60000000e-10  1.59305485e+00  1.60000000e-10  2.88000000e-01  1.60000000e-10  1.80000399e+00  1.60000000e-10  7.12801092e-01  1.60000000e-10  1.59323824e+00  1.60000000e-10  1.59784773e+00                                 
 3.20000000e-10  7.67636483e-01  3.20000000e-10  7.08686569e-01  3.20000000e-10  1.59269671e+00  3.20000000e-10  5.76000000e-01  3.20000000e-10  1.79999399e+00  3.20000000e-10  7.12675976e-01  3.20000000e-10  1.59296885e+00  3.20000000e-10  1.59784390e+00                                 
 6.40000000e-10  7.67554850e-01  6.40000000e-10  7.08333778e-01  6.40000000e-10  1.59009496e+00  6.40000000e-10  1.15200000e+00  6.40000000e-10  1.81203794e+00  6.40000000e-10  7.10747651e-01  6.40000000e-10  1.59787315e+00  6.40000000e-10  1.59787298e+00                                 
 1.00000000e-09  7.68186178e-01  1.00000000e-09  7.08546609e-01  1.00000000e-09  1.56406397e+00  1.00000000e-09  1.80000000e+00  1.00000000e-09  8.98574418e-02  1.00000000e-09  7.20171877e-01  1.00000000e-09  1.59614896e+00  1.00000000e-09  1.59782172e+00                                 
 1.03629924e-09  7.68206329e-01  1.03629924e-09  7.08587746e-01  1.03629924e-09  1.56334860e+00  1.03629924e-09  1.80000000e+00  1.03629924e-09  1.97966559e-02  1.03629924e-09  7.22979291e-01  1.03629924e-09  1.59766381e+00  1.03629924e-09  1.59786361e+00                                 
 1.10889773e-09  7.68285119e-01  1.10889773e-09  7.08660967e-01  1.10889773e-09  1.56309275e+00  1.10889773e-09  1.80000000e+00  1.10889773e-09 -9.51002369e-03  1.10889773e-09  7.26613265e-01  1.10889773e-09  1.60049125e+00  1.10889773e-09  1.59789369e+00                                 
 1.25409470e-09  7.68403569e-01  1.25409470e-09  7.08534460e-01  1.25409470e-09  1.56131619e+00  1.25409470e-09  1.80000000e+00  1.25409470e-09  8.11925567e-03  1.25409470e-09  7.26831036e-01  1.25409470e-09  1.60091892e+00  1.25409470e-09  1.59784782e+00                                 
 1.47714474e-09  7.68406378e-01  1.47714474e-09  7.08507841e-01  1.47714474e-09  1.56011937e+00  1.47714474e-09  1.80000000e+00  1.47714474e-09 -6.37745173e-03  1.47714474e-09  7.26388364e-01  1.47714474e-09  1.60033845e+00  1.47714474e-09  1.59788007e+00                                 
 1.71390827e-09  7.68314281e-01  1.71390827e-09  7.08502114e-01  1.71390827e-09  1.56007486e+00  1.71390827e-09  1.80000000e+00  1.71390827e-09  5.54330669e-03  1.71390827e-09  7.25133800e-01  1.71390827e-09  1.59944718e+00  1.71390827e-09  1.59788039e+00                                 
 2.07195387e-09  7.68074033e-01  2.07195387e-09  7.08459910e-01  2.07195387e-09  1.56055346e+00  2.07195387e-09  1.80000000e+00  2.07195387e-09 -5.01888342e-03  2.07195387e-09  7.23284576e-01  2.07195387e-09  1.59771425e+00  2.07195387e-09  1.59794626e+00                                 
 2.44569500e-09  7.67881268e-01  2.44569500e-09  7.08466320e-01  2.44569500e-09  1.56137006e+00  2.44569500e-09  1.80000000e+00  2.44569500e-09  4.45803231e-03  2.44569500e-09  7.21677959e-01  2.44569500e-09  1.59648652e+00  2.44569500e-09  1.59799674e+00                                 
 3.07555971e-09  7.67661407e-01  3.07555971e-09  7.08425952e-01  3.07555971e-09  1.56156150e+00  3.07555971e-09  1.80000000e+00  3.07555971e-09 -4.29033233e-03  3.07555971e-09  7.18887477e-01  3.07555971e-09  1.59397401e+00  3.07555971e-09  1.59810692e+00                                 
 4.04859066e-09  7.67543440e-01  4.04859066e-09  7.08444857e-01  4.04859066e-09  1.56141054e+00  4.04859066e-09  1.80000000e+00  4.04859066e-09  4.04326272e-03  4.04859066e-09  7.15861476e-01  4.04859066e-09  1.59152059e+00  4.04859066e-09  1.59822081e+00                                 
 5.99465254e-09  7.67470318e-01  5.99465254e-09  7.08428272e-01  5.99465254e-09  1.55933043e+00  5.99465254e-09  1.80000000e+00  5.99465254e-09 -4.03121959e-03  5.99465254e-09  7.11693496e-01  5.99465254e-09  1.58784838e+00  5.99465254e-09  1.59829462e+00                                 
 7.62528664e-09  7.67462461e-01  7.62528664e-09  7.08464335e-01  7.62528664e-09  1.55804882e+00  7.62528664e-09  1.80000000e+00  7.62528664e-09  3.91103114e-03  7.62528664e-09  7.10346130e-01  7.62528664e-09  1.58682394e+00  7.62528664e-09  1.59819013e+00                                 
 9.17508956e-09  7.67477373e-01  9.17508956e-09  7.08443084e-01  9.17508956e-09  1.55523197e+00  9.17508956e-09  1.80000000e+00  9.17508956e-09 -3.83393881e-03  9.17508956e-09  7.09441598e-01  9.17508956e-09  1.58593450e+00  9.17508956e-09  1.59801959e+00                                 
 1.08344519e-08  7.67517774e-01  1.08344519e-08  7.08472256e-01  1.08344519e-08  1.55150027e+00  1.08344519e-08  1.80000000e+00  1.08344519e-08  3.74433791e-03  1.08344519e-08  7.09343586e-01  1.08344519e-08  1.58596319e+00  1.08344519e-08  1.59778679e+00                                 
 1.31689752e-08  7.67559094e-01  1.31689752e-08  7.08447834e-01  1.31689752e-08  1.54377863e+00  1.31689752e-08  1.80000000e+00  1.31689752e-08 -3.68790990e-03  1.31689752e-08  7.09044345e-01  1.31689752e-08  1.58558438e+00  1.31689752e-08  1.59744942e+00                                 
 1.60107551e-08  7.67603263e-01  1.60107551e-08  7.08475291e-01  1.60107551e-08  1.53321851e+00  1.60107551e-08  1.80000000e+00  1.60107551e-08  3.64265224e-03  1.60107551e-08  7.09385665e-01  1.60107551e-08  1.58597247e+00  1.60107551e-08  1.59704416e+00                                 
 1.99728357e-08  7.67623109e-01  1.99728357e-08  7.08449737e-01  1.99728357e-08  1.51632662e+00  1.99728357e-08  1.80000000e+00  1.99728357e-08 -3.60658676e-03  1.99728357e-08  7.09421686e-01  1.99728357e-08  1.58587043e+00  1.99728357e-08  1.59654500e+00                                 
 2.53276312e-08  7.67635768e-01  2.53276312e-08  7.08476341e-01  2.53276312e-08  1.49311002e+00  2.53276312e-08  1.80000000e+00  2.53276312e-08  3.58561455e-03  2.53276312e-08  7.09957413e-01  2.53276312e-08  1.58641353e+00  2.53276312e-08  1.59597660e+00                                 
 3.44440383e-08  7.67628290e-01  3.44440383e-08  7.08449907e-01  3.44440383e-08  1.45223760e+00  3.44440383e-08  1.80000000e+00  3.44440383e-08 -3.56811791e-03  3.44440383e-08  7.10109884e-01  3.44440383e-08  1.58640554e+00  3.44440383e-08  1.59525508e+00                                 
 4.82000874e-08  7.67629431e-01  4.82000874e-08  7.08476019e-01  4.82000874e-08  1.39095719e+00  4.82000874e-08  1.80000000e+00  4.82000874e-08  3.56185223e-03  4.82000874e-08  7.10642027e-01  4.82000874e-08  1.58694618e+00  4.82000874e-08  1.59455098e+00                                 
 7.57121854e-08  7.67621627e-01  7.57121854e-08  7.08449604e-01  7.57121854e-08  1.26782982e+00  7.57121854e-08  1.80000000e+00  7.57121854e-08 -3.55410293e-03  7.57121854e-08  7.10640610e-01  7.57121854e-08  1.58681810e+00  7.57121854e-08  1.59387142e+00                                 
 1.19567250e-07  7.67625871e-01  1.19567250e-07  7.08475907e-01  1.19567250e-07  1.07409805e+00  1.19567250e-07  1.80000000e+00  1.19567250e-07  3.55452120e-03  1.19567250e-07  7.10903935e-01  1.19567250e-07  1.58714526e+00  1.19567250e-07  1.59355069e+00                                 
 1.81784995e-07  7.67620740e-01  1.81784995e-07  7.08449577e-01  1.81784995e-07  8.22876294e-01  1.81784995e-07  1.80000000e+00  1.81784995e-07 -3.54751775e-03  1.81784995e-07  7.10674922e-01  1.81784995e-07  1.58683642e+00  1.81784995e-07  1.59347609e+00                                 
 2.38942620e-07  7.67627087e-01  2.38942620e-07  7.08475990e-01  2.38942620e-07  7.13095535e-01  2.38942620e-07  1.80000000e+00  2.38942620e-07  3.55492447e-03  2.38942620e-07  7.10903639e-01  2.38942620e-07  1.58713826e+00  2.38942620e-07  1.59346637e+00                                 
 2.90693389e-07  7.67618578e-01  2.90693389e-07  7.08449510e-01  2.90693389e-07  7.12953957e-01  2.90693389e-07  1.80000000e+00  2.90693389e-07 -3.54040451e-03  2.90693389e-07  7.10678714e-01  2.90693389e-07  1.58683540e+00  2.90693389e-07  1.59346771e+00                                 
 3.14793900e-07  7.67627853e-01  3.14793900e-07  7.08475896e-01  3.14793900e-07  7.13427637e-01  3.14793900e-07  1.80000000e+00  3.14793900e-07  3.54741573e-03  3.14793900e-07  7.10899782e-01  3.14793900e-07  1.58713211e+00  3.14793900e-07  1.59346382e+00                                 
 3.51233845e-07  7.67619214e-01  3.51233845e-07  7.08449654e-01  3.51233845e-07  7.12925348e-01  3.51233845e-07  1.80000000e+00  3.51233845e-07 -3.53193788e-03  3.51233845e-07  7.10678321e-01  3.51233845e-07  1.58683292e+00  3.51233845e-07  1.59346402e+00                                 
 4.24113734e-07  7.67627429e-01  4.24113734e-07  7.08475844e-01  4.24113734e-07  7.13383240e-01  4.24113734e-07  1.80000000e+00  4.24113734e-07  3.54233549e-03  4.24113734e-07  7.10900525e-01  4.24113734e-07  1.58712863e+00  4.24113734e-07  1.59345916e+00                                 
 5.69873513e-07  7.67619371e-01  5.69873513e-07  7.08449667e-01  5.69873513e-07  7.12940196e-01  5.69873513e-07  1.80000000e+00  5.69873513e-07 -3.52940237e-03  5.69873513e-07  7.10678095e-01  5.69873513e-07  1.58682475e+00  5.69873513e-07  1.59345589e+00                                 
 8.61393070e-07  7.67627356e-01  8.61393070e-07  7.08475839e-01  8.61393070e-07  7.13376447e-01  8.61393070e-07  1.80000000e+00  8.61393070e-07  3.54106689e-03  8.61393070e-07  7.10900626e-01  8.61393070e-07  1.58711268e+00  8.61393070e-07  1.59344316e+00                                 
 1.44443218e-06  7.67619407e-01  1.44443218e-06  7.08449669e-01  1.44443218e-06  7.12943454e-01  1.44443218e-06  1.80000000e+00  1.44443218e-06 -3.52877269e-03  1.44443218e-06  7.10678047e-01  1.44443218e-06  1.58679270e+00  1.44443218e-06  1.59342392e+00                                 
 2.61051041e-06  7.67627338e-01  2.61051041e-06  7.08475838e-01  2.61051041e-06  7.13374850e-01  2.61051041e-06  1.80000000e+00  2.61051041e-06  3.54074979e-03  2.61051041e-06  7.10900650e-01  2.61051041e-06  1.58704860e+00  2.61051041e-06  1.59337915e+00                                 
 3.81051041e-06  7.67619418e-01  3.81051041e-06  7.08449670e-01  3.81051041e-06  7.12944513e-01  3.81051041e-06  1.80000000e+00  3.81051041e-06 -3.52859008e-03  3.81051041e-06  7.10678032e-01  3.81051041e-06  1.58670591e+00  3.81051041e-06  1.59333727e+00                                 
 5.01051041e-06  7.67627327e-01  5.01051041e-06  7.08475837e-01  5.01051041e-06  7.13373854e-01  5.01051041e-06  1.80000000e+00  5.01051041e-06  3.54054606e-03  5.01051041e-06  7.10900665e-01  5.01051041e-06  1.58696054e+00  5.01051041e-06  1.59329122e+00                                 
 6.00100000e-06  7.67619431e-01  6.00100000e-06  7.08449671e-01  6.00100000e-06  7.12945631e-01  6.00100000e-06  1.80000000e+00  6.00100000e-06 -3.52836668e-03  6.00100000e-06  7.10678016e-01  6.00100000e-06  1.58662548e+00  6.00100000e-06  1.59325698e+00                                 
 6.00110000e-06  7.67579306e-01  6.00110000e-06  7.08221416e-01  6.00110000e-06  7.11192480e-01  6.00110000e-06  1.62000000e+00  6.00110000e-06 -3.78461254e-04  6.00110000e-06  7.09150554e-01  6.00110000e-06  1.58537332e+00  6.00110000e-06  1.59324552e+00                                 
 6.00130000e-06  7.67612532e-01  6.00130000e-06  7.08232701e-01  6.00130000e-06  7.11547006e-01  6.00130000e-06  1.26000000e+00  6.00130000e-06  2.56387958e-04  6.00130000e-06  7.09103535e-01  6.00130000e-06  1.58534314e+00  6.00130000e-06  1.59326096e+00                                 
 6.00170000e-06  7.67666762e-01  6.00170000e-06  7.07806457e-01  6.00170000e-06  7.28883187e-01  6.00170000e-06  5.40000000e-01  6.00170000e-06  1.50764215e+00  6.00170000e-06  7.02661507e-01  6.00170000e-06  1.50415695e+00  6.00170000e-06  1.59294820e+00                                 
 6.00200000e-06  7.67607681e-01  6.00200000e-06  7.05471767e-01  6.00200000e-06  7.58270514e-01  6.00200000e-06  0.00000000e+00  6.00200000e-06  1.87113854e+00  6.00200000e-06  6.77976299e-01  6.00200000e-06  1.17539734e+00  6.00200000e-06  1.59281028e+00                                 
 6.00203673e-06  7.67619932e-01  6.00203673e-06  7.05524706e-01  6.00203673e-06  7.53013557e-01  6.00203673e-06  0.00000000e+00  6.00203673e-06  1.82753654e+00  6.00203673e-06  6.78849870e-01  6.00203673e-06  1.13132613e+00  6.00203673e-06  1.59316523e+00                                 
 6.00211020e-06  7.67625656e-01  6.00211020e-06  7.05754895e-01  6.00211020e-06  7.45216027e-01  6.00211020e-06  0.00000000e+00  6.00211020e-06  1.79244961e+00  6.00211020e-06  6.82064044e-01  6.00211020e-06  1.05703217e+00  6.00211020e-06  1.59346785e+00                                 
 6.00225714e-06  7.67621515e-01  6.00225714e-06  7.06065761e-01  6.00225714e-06  7.41295578e-01  6.00225714e-06  0.00000000e+00  6.00225714e-06  1.80226183e+00  6.00225714e-06  6.85947762e-01  6.00225714e-06  9.42195727e-01  6.00225714e-06  1.59340174e+00                                 
 6.00246346e-06  7.67623003e-01  6.00246346e-06  7.06603624e-01  6.00246346e-06  7.33863732e-01  6.00246346e-06  0.00000000e+00  6.00246346e-06  1.79748262e+00  6.00246346e-06  6.91164596e-01  6.00246346e-06  8.23840637e-01  6.00246346e-06  1.59353543e+00                                 
 6.00268066e-06  7.67621398e-01  6.00268066e-06  7.07536514e-01  6.00268066e-06  7.23881999e-01  6.00268066e-06  0.00000000e+00  6.00268066e-06  1.80084864e+00  6.00268066e-06  7.00193109e-01  6.00268066e-06  7.58117612e-01  6.00268066e-06  1.59350630e+00                                 
 6.00293685e-06  7.67622676e-01  6.00293685e-06  7.08276729e-01  6.00293685e-06  7.17558619e-01  6.00293685e-06  0.00000000e+00  6.00293685e-06  1.79933776e+00  6.00293685e-06  7.06238681e-01  6.00293685e-06  7.26942178e-01  6.00293685e-06  1.59338773e+00                                 
 6.00321757e-06  7.67621965e-01  6.00321757e-06  7.08760224e-01  6.00321757e-06  7.14423780e-01  6.00321757e-06  0.00000000e+00  6.00321757e-06  1.80046777e+00  6.00321757e-06  7.09854355e-01  6.00321757e-06  7.17584800e-01  6.00321757e-06  1.59288926e+00                                 
 6.00352708e-06  7.67623040e-01  6.00352708e-06  7.08934806e-01  6.00352708e-06  7.14204044e-01  6.00352708e-06  0.00000000e+00  6.00352708e-06  1.79973332e+00  6.00352708e-06  7.10852146e-01  6.00352708e-06  7.14521474e-01  6.00352708e-06  1.59214160e+00                                 
 6.00394994e-06  7.67622574e-01  6.00394994e-06  7.09015045e-01  6.00394994e-06  7.14154149e-01  6.00394994e-06  0.00000000e+00  6.00394994e-06  1.80021246e+00  6.00394994e-06  7.11670951e-01  6.00394994e-06  7.14370935e-01  6.00394994e-06  1.59082114e+00                                 
 6.00464819e-06  7.67623494e-01  6.00464819e-06  7.08959238e-01  6.00464819e-06  7.15810502e-01  6.00464819e-06  0.00000000e+00  6.00464819e-06  1.79985255e+00  6.00464819e-06  7.11761186e-01  6.00464819e-06  7.15276816e-01  6.00464819e-06  1.58840269e+00                                 
 6.00586105e-06  7.67622987e-01  6.00586105e-06  7.08865597e-01  6.00586105e-06  7.18118665e-01  6.00586105e-06  0.00000000e+00  6.00586105e-06  1.80014710e+00  6.00586105e-06  7.12088301e-01  6.00586105e-06  7.18084293e-01  6.00586105e-06  1.58377659e+00                                 
 6.00828678e-06  7.67623674e-01  6.00828678e-06  7.08681950e-01  6.00828678e-06  7.24190797e-01  6.00828678e-06  0.00000000e+00  6.00828678e-06  1.79988344e+00  6.00828678e-06  7.11940345e-01  6.00828678e-06  7.23572725e-01  6.00828678e-06  1.57413092e+00                                 
 6.01313825e-06  7.67623056e-01  6.01313825e-06  7.08499751e-01  6.01313825e-06  7.35473926e-01  6.01313825e-06  0.00000000e+00  6.01313825e-06  1.80013154e+00  6.01313825e-06  7.11865332e-01  6.01313825e-06  7.35388451e-01  6.01313825e-06  1.55465572e+00                                 
 6.02284118e-06  7.67623689e-01  6.02284118e-06  7.08424621e-01  6.02284118e-06  7.58323728e-01  6.02284118e-06  0.00000000e+00  6.02284118e-06  1.79988996e+00  6.02284118e-06  7.11302554e-01  6.02284118e-06  7.57622430e-01  6.02284118e-06  1.51710437e+00                                 
 6.04224703e-06  7.67623059e-01  6.04224703e-06  7.08470768e-01  6.04224703e-06  7.99789916e-01  6.04224703e-06  0.00000000e+00  6.04224703e-06  1.80012676e+00  6.04224703e-06  7.11037545e-01  6.04224703e-06  7.99730873e-01  6.04224703e-06  1.44740798e+00                                 
 6.08105874e-06  7.67623691e-01  6.08105874e-06  7.08451150e-01  6.08105874e-06  8.72268149e-01  6.08105874e-06  0.00000000e+00  6.08105874e-06  1.79988894e+00  6.08105874e-06  7.10694786e-01  6.08105874e-06  8.70917769e-01  6.08105874e-06  1.32441038e+00                                 
 6.15868217e-06  7.67623060e-01  6.15868217e-06  7.08473915e-01  6.15868217e-06  9.79060611e-01  6.15868217e-06  0.00000000e+00  6.15868217e-06  1.80012129e+00  6.15868217e-06  7.10861430e-01  6.15868217e-06  9.79547417e-01  6.15868217e-06  1.11853467e+00                                 
 6.25860747e-06  7.67623691e-01  6.25860747e-06  7.08452006e-01  6.25860747e-06  1.06497764e+00  6.25860747e-06  0.00000000e+00  6.25860747e-06  1.79988446e+00  6.25860747e-06  7.10704387e-01  6.25860747e-06  1.06300620e+00  6.25860747e-06  1.03963499e+00                                 
 6.35043023e-06  7.67623061e-01  6.35043023e-06  7.08473157e-01  6.35043023e-06  1.11012285e+00  6.35043023e-06  0.00000000e+00  6.35043023e-06  1.80011815e+00  6.35043023e-06  7.10867736e-01  6.35043023e-06  1.11102369e+00  6.35043023e-06  1.10122592e+00                                 
 6.43169702e-06  7.67623691e-01  6.43169702e-06  7.08452721e-01  6.43169702e-06  1.13511661e+00  6.43169702e-06  0.00000000e+00  6.43169702e-06  1.79988357e+00  6.43169702e-06  7.10705030e-01  6.43169702e-06  1.13394238e+00  6.43169702e-06  1.13153606e+00                                 
 6.52571876e-06  7.67623060e-01  6.52571876e-06  7.08472547e-01  6.52571876e-06  1.15233911e+00  6.52571876e-06  0.00000000e+00  6.52571876e-06  1.80011706e+00  6.52571876e-06  7.10871983e-01  6.52571876e-06  1.15318877e+00  6.52571876e-06  1.15313412e+00                                 
