 time            v(vbep)         time            v(vben)         time            v(vout)         time            v(vphi1)        time            v(vphi2)        time            v(vref)         time            v(voutc)        time            v(voutcc)       yes             currtemp       
 0.00000000e+00  7.43042812e-01  0.00000000e+00  6.77813303e-01  0.00000000e+00  1.53743997e+00  0.00000000e+00  0.00000000e+00  0.00000000e+00  1.80000000e+00  0.00000000e+00  6.79288505e-01  0.00000000e+00  1.53743995e+00  0.00000000e+00  1.54458845e+00  1.00000000e+00  5.40000000e+01 
 5.00000000e-12  7.43064569e-01  5.00000000e-12  6.77867406e-01  5.00000000e-12  1.53806060e+00  5.00000000e-12  1.80000000e-02  5.00000000e-12  1.80018557e+00  5.00000000e-12  6.79680195e-01  5.00000000e-12  1.53778793e+00  5.00000000e-12  1.54460157e+00                                 
 1.00000000e-11  7.43074128e-01  1.00000000e-11  6.77903027e-01  1.00000000e-11  1.53850654e+00  1.00000000e-11  3.60000000e-02  1.00000000e-11  1.80026950e+00  1.00000000e-11  6.79987791e-01  1.00000000e-11  1.53806253e+00  1.00000000e-11  1.54460842e+00                                 
 2.00000000e-11  7.43080495e-01  2.00000000e-11  6.77952534e-01  2.00000000e-11  1.53914655e+00  2.00000000e-11  7.20000000e-02  2.00000000e-11  1.80032255e+00  2.00000000e-11  6.80468972e-01  2.00000000e-11  1.53849542e+00  2.00000000e-11  1.54461470e+00                                 
 4.00000000e-11  7.43068444e-01  4.00000000e-11  6.77988440e-01  4.00000000e-11  1.53956304e+00  4.00000000e-11  1.44000000e-01  4.00000000e-11  1.80019139e+00  4.00000000e-11  6.80931049e-01  4.00000000e-11  1.53892552e+00  4.00000000e-11  1.54460844e+00                                 
 8.00000000e-11  7.43055083e-01  8.00000000e-11  6.77993954e-01  8.00000000e-11  1.53942285e+00  8.00000000e-11  2.88000000e-01  8.00000000e-11  1.80003041e+00  8.00000000e-11  6.81068768e-01  8.00000000e-11  1.53908686e+00  8.00000000e-11  1.54459399e+00                                 
 1.60000000e-10  7.43055517e-01  1.60000000e-10  6.77980938e-01  1.60000000e-10  1.53893188e+00  1.60000000e-10  5.76000000e-01  1.60000000e-10  1.80000894e+00  1.60000000e-10  6.80869883e-01  1.60000000e-10  1.53894241e+00  1.60000000e-10  1.54458843e+00                                 
 3.20000000e-10  7.42988173e-01  3.20000000e-10  6.77538283e-01  3.20000000e-10  1.53525943e+00  3.20000000e-10  1.15200000e+00  3.20000000e-10  1.80073220e+00  3.20000000e-10  6.77038024e-01  3.20000000e-10  1.53581486e+00  3.20000000e-10  1.54455876e+00                                 
 5.00000000e-10  7.43063803e-01  5.00000000e-10  6.78024064e-01  5.00000000e-10  1.53203292e+00  5.00000000e-10  1.80000000e+00  5.00000000e-10  1.66258194e-01  5.00000000e-10  6.83791280e-01  5.00000000e-10  1.54163074e+00  5.00000000e-10  1.54465115e+00                                 
 5.21275103e-10  7.43066419e-01  5.21275103e-10  6.78055296e-01  5.21275103e-10  1.53136638e+00  5.21275103e-10  1.80000000e+00  5.21275103e-10  4.49160078e-02  5.21275103e-10  6.85429045e-01  5.21275103e-10  1.54254782e+00  5.21275103e-10  1.54463997e+00                                 
 5.63825310e-10  7.43148918e-01  5.63825310e-10  6.78119194e-01  5.63825310e-10  1.53071848e+00  5.63825310e-10  1.80000000e+00  5.63825310e-10 -1.58305919e-02  5.63825310e-10  6.87674720e-01  5.63825310e-10  1.54446574e+00  5.63825310e-10  1.54463541e+00                                 
 6.48925724e-10  7.43262535e-01  6.48925724e-10  6.77954621e-01  6.48925724e-10  1.52772014e+00  6.48925724e-10  1.80000000e+00  6.48925724e-10  1.23365080e-02  6.48925724e-10  6.87374209e-01  6.48925724e-10  1.54442876e+00  6.48925724e-10  1.54458428e+00                                 
 7.68391655e-10  7.43310593e-01  7.68391655e-10  6.77914436e-01  7.68391655e-10  1.52598723e+00  7.68391655e-10  1.80000000e+00  7.68391655e-10 -9.68835091e-03  7.68391655e-10  6.88677150e-01  7.68391655e-10  1.54539924e+00  7.68391655e-10  1.54460654e+00                                 
 9.46372194e-10  7.43371392e-01  9.46372194e-10  6.77881568e-01  9.46372194e-10  1.52485065e+00  9.46372194e-10  1.80000000e+00  9.46372194e-10  8.80936692e-03  9.46372194e-10  6.89470101e-01  9.46372194e-10  1.54624830e+00  9.46372194e-10  1.54458012e+00                                 
 1.30233327e-09  7.43333319e-01  1.30233327e-09  6.77806759e-01  1.30233327e-09  1.52293591e+00  1.30233327e-09  1.80000000e+00  1.30233327e-09 -8.02390739e-03  1.30233327e-09  6.89042424e-01  1.30233327e-09  1.54574476e+00  1.30233327e-09  1.54461201e+00                                 
 1.70459039e-09  7.43274377e-01  1.70459039e-09  6.77824108e-01  1.70459039e-09  1.52165738e+00  1.70459039e-09  1.80000000e+00  1.70459039e-09  7.67450590e-03  1.70459039e-09  6.88650337e-01  1.70459039e-09  1.54552889e+00  1.70459039e-09  1.54466593e+00                                 
 2.35320175e-09  7.43138106e-01  2.35320175e-09  6.77784162e-01  2.35320175e-09  1.51890613e+00  2.35320175e-09  1.80000000e+00  2.35320175e-09 -7.36322415e-03  2.35320175e-09  6.86997262e-01  2.35320175e-09  1.54395803e+00  2.35320175e-09  1.54480297e+00                                 
 3.07067154e-09  7.43073191e-01  3.07067154e-09  6.77814199e-01  3.07067154e-09  1.51643107e+00  3.07067154e-09  1.80000000e+00  3.07067154e-09  7.13528946e-03  3.07067154e-09  6.86025218e-01  3.07067154e-09  1.54322192e+00  3.07067154e-09  1.54495779e+00                                 
 4.13714514e-09  7.43005416e-01  4.13714514e-09  6.77779867e-01  4.13714514e-09  1.51165429e+00  4.13714514e-09  1.80000000e+00  4.13714514e-09 -6.97598985e-03  4.13714514e-09  6.83811576e-01  4.13714514e-09  1.54116876e+00  4.13714514e-09  1.54516904e+00                                 
 5.67590102e-09  7.42997010e-01  5.67590102e-09  6.77815874e-01  5.67590102e-09  1.50540977e+00  5.67590102e-09  1.80000000e+00  5.67590102e-09  6.87746489e-03  5.67590102e-09  6.82108690e-01  5.67590102e-09  1.53979282e+00  5.67590102e-09  1.54538681e+00                                 
 8.75341280e-09  7.42975042e-01  8.75341280e-09  6.77790691e-01  8.75341280e-09  1.49115254e+00  8.75341280e-09  1.80000000e+00  8.75341280e-09 -6.81094182e-03  8.75341280e-09  6.79096392e-01  8.75341280e-09  1.53705302e+00  8.75341280e-09  1.54553802e+00                                 
 1.18765793e-08  7.43005785e-01  1.18765793e-08  6.77828665e-01  1.18765793e-08  1.47577496e+00  1.18765793e-08  1.80000000e+00  1.18765793e-08  6.78256682e-03  1.18765793e-08  6.78374962e-01  1.18765793e-08  1.53653288e+00  1.18765793e-08  1.54543750e+00                                 
 1.43044223e-08  7.43005153e-01  1.43044223e-08  6.77796410e-01  1.43044223e-08  1.46212659e+00  1.43044223e-08  1.80000000e+00  1.43044223e-08 -6.69320499e-03  1.43044223e-08  6.77662973e-01  1.43044223e-08  1.53579590e+00  1.43044223e-08  1.54528137e+00                                 
 1.71248086e-08  7.43032743e-01  1.71248086e-08  6.77830294e-01  1.71248086e-08  1.44614573e+00  1.71248086e-08  1.80000000e+00  1.71248086e-08  6.66501326e-03  1.71248086e-08  6.78004200e-01  1.71248086e-08  1.53619495e+00  1.71248086e-08  1.54508761e+00                                 
 2.05071299e-08  7.43029424e-01  2.05071299e-08  6.77796942e-01  2.05071299e-08  1.42534402e+00  2.05071299e-08  1.80000000e+00  2.05071299e-08 -6.59222541e-03  2.05071299e-08  6.77708200e-01  2.05071299e-08  1.53581830e+00  2.05071299e-08  1.54486617e+00                                 
 2.51273204e-08  7.43051818e-01  2.51273204e-08  6.77830439e-01  2.51273204e-08  1.39677405e+00  2.51273204e-08  1.80000000e+00  2.51273204e-08  6.58750172e-03  2.51273204e-08  6.78371584e-01  2.51273204e-08  1.53649475e+00  2.51273204e-08  1.54462372e+00                                 
 3.06871833e-08  7.43040858e-01  3.06871833e-08  6.77796900e-01  3.06871833e-08  1.36089336e+00  3.06871833e-08  1.80000000e+00  3.06871833e-08 -6.53181629e-03  3.06871833e-08  6.78266545e-01  3.06871833e-08  1.53628709e+00  3.06871833e-08  1.54441539e+00                                 
 3.88208984e-08  7.43054833e-01  3.88208984e-08  6.77830319e-01  3.88208984e-08  1.30871753e+00  3.88208984e-08  1.80000000e+00  3.88208984e-08  6.54190273e-03  3.88208984e-08  6.79001667e-01  3.88208984e-08  1.53703044e+00  3.88208984e-08  1.54425139e+00                                 
 5.03373700e-08  7.43038600e-01  5.03373700e-08  6.77796662e-01  5.03373700e-08  1.23390537e+00  5.03373700e-08  1.80000000e+00  5.03373700e-08 -6.50025159e-03  5.03373700e-08  6.78857399e-01  5.03373700e-08  1.53679637e+00  5.03373700e-08  1.54417447e+00                                 
 7.11775240e-08  7.43050548e-01  7.11775240e-08  6.77830085e-01  7.11775240e-08  1.10007817e+00  7.11775240e-08  1.80000000e+00  7.11775240e-08  6.52172280e-03  7.11775240e-08  6.79446722e-01  7.11775240e-08  1.53742085e+00  7.11775240e-08  1.54421472e+00                                 
 1.02055325e-07  7.43035372e-01  1.02055325e-07  6.77796503e-01  1.02055325e-07  9.04421004e-01  1.02055325e-07  1.80000000e+00  1.02055325e-07 -6.48791699e-03  1.02055325e-07  6.79082838e-01  1.02055325e-07  1.53699938e+00  1.02055325e-07  1.54431391e+00                                 
 1.40820397e-07  7.43050647e-01  1.40820397e-07  6.77830060e-01  1.40820397e-07  7.22645830e-01  1.40820397e-07  1.80000000e+00  1.40820397e-07  6.51567844e-03  1.40820397e-07  6.79488912e-01  1.40820397e-07  1.53746020e+00  1.40820397e-07  1.54436873e+00                                 
 1.70400475e-07  7.43037007e-01  1.70400475e-07  6.77796749e-01  1.70400475e-07  6.77682697e-01  1.70400475e-07  1.80000000e+00  1.70400475e-07 -6.47578407e-03  1.70400475e-07  6.79092585e-01  1.70400475e-07  1.53700667e+00  1.70400475e-07  1.54437604e+00                                 
 2.00922165e-07  7.43046577e-01  2.00922165e-07  6.77829685e-01  2.00922165e-07  6.81250137e-01  2.00922165e-07  1.80000000e+00  2.00922165e-07  6.50679024e-03  2.00922165e-07  6.79490065e-01  2.00922165e-07  1.53745926e+00  2.00922165e-07  1.54438231e+00                                 
 2.17302985e-07  7.43038111e-01  2.17302985e-07  6.77796932e-01  2.17302985e-07  6.80761005e-01  2.17302985e-07  1.80000000e+00  2.17302985e-07 -6.46229312e-03  2.17302985e-07  6.79086781e-01  2.17302985e-07  1.53700014e+00  2.17302985e-07  1.54437835e+00                                 
 2.40235906e-07  7.43048118e-01  2.40235906e-07  6.77829656e-01  2.40235906e-07  6.80938496e-01  2.40235906e-07  1.80000000e+00  2.40235906e-07  6.49156416e-03  2.40235906e-07  6.79489940e-01  2.40235906e-07  1.53745758e+00  2.40235906e-07  1.54438023e+00                                 
 2.86101749e-07  7.43037280e-01  2.86101749e-07  6.77796937e-01  2.86101749e-07  6.80658350e-01  2.86101749e-07  1.80000000e+00  2.86101749e-07 -6.45267935e-03  2.86101749e-07  6.79086969e-01  2.86101749e-07  1.53699793e+00  2.86101749e-07  1.54437540e+00                                 
 3.77833434e-07  7.43048444e-01  3.77833434e-07  6.77829654e-01  3.77833434e-07  6.80938179e-01  3.77833434e-07  1.80000000e+00  3.77833434e-07  6.48679324e-03  3.77833434e-07  6.79489915e-01  3.77833434e-07  1.53745266e+00  3.77833434e-07  1.54437520e+00                                 
 5.61296805e-07  7.43037131e-01  5.61296805e-07  6.77796937e-01  5.61296805e-07  6.80657448e-01  5.61296805e-07  1.80000000e+00  5.61296805e-07 -6.45033044e-03  5.61296805e-07  6.79086979e-01  5.61296805e-07  1.53698823e+00  5.61296805e-07  1.54436567e+00                                 
 9.28223548e-07  7.43048516e-01  9.28223548e-07  6.77829654e-01  9.28223548e-07  6.80938492e-01  9.28223548e-07  1.80000000e+00  9.28223548e-07  6.48560645e-03  9.28223548e-07  6.79489911e-01  9.28223548e-07  1.53743320e+00  9.28223548e-07  1.54435579e+00                                 
 1.66207703e-06  7.43037095e-01  1.66207703e-06  6.77796937e-01  1.66207703e-06  6.80657203e-01  1.66207703e-06  1.80000000e+00  1.66207703e-06 -6.44974334e-03  1.66207703e-06  6.79086981e-01  1.66207703e-06  1.53694934e+00  1.66207703e-06  1.54432682e+00                                 
 2.66207703e-06  7.43048536e-01  2.66207703e-06  6.77829654e-01  2.66207703e-06  6.80938593e-01  2.66207703e-06  1.80000000e+00  2.66207703e-06  6.48528571e-03  2.66207703e-06  6.79489909e-01  2.66207703e-06  1.53737193e+00  2.66207703e-06  1.54429461e+00                                 
 3.66207703e-06  7.43037079e-01  3.66207703e-06  6.77796937e-01  3.66207703e-06  6.80657084e-01  3.66207703e-06  1.80000000e+00  3.66207703e-06 -6.44963357e-03  3.66207703e-06  6.79086982e-01  3.66207703e-06  1.53687868e+00  3.66207703e-06  1.54425626e+00                                 
 4.66207703e-06  7.43048553e-01  4.66207703e-06  6.77829655e-01  4.66207703e-06  6.80938678e-01  4.66207703e-06  1.80000000e+00  4.66207703e-06  6.48500118e-03  4.66207703e-06  6.79489908e-01  4.66207703e-06  1.53730128e+00  4.66207703e-06  1.54422406e+00                                 
 5.66207703e-06  7.43037062e-01  5.66207703e-06  6.77796937e-01  5.66207703e-06  6.80656962e-01  5.66207703e-06  1.80000000e+00  5.66207703e-06 -6.44934628e-03  5.66207703e-06  6.79086984e-01  5.66207703e-06  1.53680804e+00  5.66207703e-06  1.54418571e+00                                 
 6.66207703e-06  7.43048569e-01  6.66207703e-06  6.77829654e-01  6.66207703e-06  6.80938764e-01  6.66207703e-06  1.80000000e+00  6.66207703e-06  6.48471091e-03  6.66207703e-06  6.79489907e-01  6.66207703e-06  1.53723063e+00  6.66207703e-06  1.54415351e+00                                 
 7.66207703e-06  7.43037046e-01  7.66207703e-06  6.77796937e-01  7.66207703e-06  6.80656838e-01  7.66207703e-06  1.80000000e+00  7.66207703e-06 -6.44905901e-03  7.66207703e-06  6.79086984e-01  7.66207703e-06  1.53673741e+00  7.66207703e-06  1.54411518e+00                                 
 8.66207703e-06  7.43048586e-01  8.66207703e-06  6.77829654e-01  8.66207703e-06  6.80938851e-01  8.66207703e-06  1.80000000e+00  8.66207703e-06  6.48442066e-03  8.66207703e-06  6.79489906e-01  8.66207703e-06  1.53715998e+00  8.66207703e-06  1.54408296e+00                                 
 9.66207703e-06  7.43037029e-01  9.66207703e-06  6.77796937e-01  9.66207703e-06  6.80656715e-01  9.66207703e-06  1.80000000e+00  9.66207703e-06 -6.44877175e-03  9.66207703e-06  6.79086985e-01  9.66207703e-06  1.53666675e+00  9.66207703e-06  1.54404462e+00                                 
 1.00005000e-05  7.43048618e-01  1.00005000e-05  6.77829709e-01  1.00005000e-05  6.80938008e-01  1.00005000e-05  1.80000000e+00  1.00005000e-05  6.48610897e-03  1.00005000e-05  6.79490301e-01  1.00005000e-05  1.53711304e+00  1.00005000e-05  1.54403512e+00                                 
 1.00005500e-05  7.43005973e-01  1.00005500e-05  6.77623831e-01  1.00005500e-05  6.79050019e-01  1.00005500e-05  1.62000000e+00  1.00005500e-05  5.63092439e-04  1.00005500e-05  6.77784789e-01  1.00005500e-05  1.53557107e+00  1.00005500e-05  1.54401473e+00                                 
 1.00006500e-05  7.43029587e-01  1.00006500e-05  6.77597315e-01  1.00006500e-05  6.79018093e-01  1.00006500e-05  1.26000000e+00  1.00006500e-05 -5.01618130e-04  1.00006500e-05  6.77401223e-01  1.00006500e-05  1.53522718e+00  1.00006500e-05  1.54403575e+00                                 
 1.00008500e-05  7.43078710e-01  1.00008500e-05  6.77788737e-01  1.00008500e-05  6.81265081e-01  1.00008500e-05  5.40000000e-01  1.00008500e-05 -2.35592577e-03  1.00008500e-05  6.78300845e-01  1.00008500e-05  1.53447110e+00  1.00008500e-05  1.54402547e+00                                 
 1.00010000e-05  7.43027392e-01  1.00010000e-05  6.76951718e-01  1.00010000e-05  7.01864073e-01  1.00010000e-05  0.00000000e+00  1.00010000e-05  1.51540284e+00  1.00010000e-05  6.68682453e-01  1.00010000e-05  1.47810669e+00  1.00010000e-05  1.54354237e+00                                 
 1.00010253e-05  7.43045517e-01  1.00010253e-05  6.76615245e-01  1.00010253e-05  7.07766953e-01  1.00010253e-05  0.00000000e+00  1.00010253e-05  1.69138977e+00  1.00010253e-05  6.64561441e-01  1.00010253e-05  1.45132005e+00  1.00010253e-05  1.54335870e+00                                 
 1.00010760e-05  7.43045976e-01  1.00010760e-05  6.75957650e-01  1.00010760e-05  7.13607456e-01  1.00010760e-05  0.00000000e+00  1.00010760e-05  1.82099053e+00  1.00010760e-05  6.56676361e-01  1.00010760e-05  1.39116795e+00  1.00010760e-05  1.54320568e+00                                 
 1.00011772e-05  7.43039070e-01  1.00011772e-05  6.75815159e-01  1.00011772e-05  7.08077220e-01  1.00011772e-05  0.00000000e+00  1.00011772e-05  1.78689991e+00  1.00011772e-05  6.55487779e-01  1.00011772e-05  1.28549015e+00  1.00011772e-05  1.54374545e+00                                 
 1.00013041e-05  7.43045558e-01  1.00013041e-05  6.76120835e-01  1.00013041e-05  7.04659928e-01  1.00013041e-05  0.00000000e+00  1.00013041e-05  1.80692282e+00  1.00013041e-05  6.59838649e-01  1.00013041e-05  1.18359779e+00  1.00013041e-05  1.54411390e+00                                 
 1.00015216e-05  7.43038713e-01  1.00015216e-05  6.76277793e-01  1.00015216e-05  7.00820938e-01  1.00015216e-05  0.00000000e+00  1.00015216e-05  1.79396259e+00  1.00015216e-05  6.60875443e-01  1.00015216e-05  1.03816859e+00  1.00015216e-05  1.54431822e+00                                 
 1.00018226e-05  7.43044903e-01  1.00018226e-05  6.76822848e-01  1.00018226e-05  6.96034149e-01  1.00018226e-05  0.00000000e+00  1.00018226e-05  1.80437948e+00  1.00018226e-05  6.65881768e-01  1.00018226e-05  8.93347387e-01  1.00018226e-05  1.54425388e+00                                 
 1.00022525e-05  7.43039411e-01  1.00022525e-05  6.77409073e-01  1.00022525e-05  6.90131515e-01  1.00022525e-05  0.00000000e+00  1.00022525e-05  1.79576496e+00  1.00022525e-05  6.70679175e-01  1.00022525e-05  7.59633699e-01  1.00022525e-05  1.54368937e+00                                 
 1.00027168e-05  7.43045054e-01  1.00027168e-05  6.78096638e-01  1.00027168e-05  6.83825313e-01  1.00027168e-05  0.00000000e+00  1.00027168e-05  1.80349757e+00  1.00027168e-05  6.77645252e-01  1.00027168e-05  7.02436991e-01  1.00027168e-05  1.54247683e+00                                 
 1.00031050e-05  7.43040032e-01  1.00031050e-05  6.78202886e-01  1.00031050e-05  6.83687068e-01  1.00031050e-05  0.00000000e+00  1.00031050e-05  1.79698302e+00  1.00031050e-05  6.78512649e-01  1.00031050e-05  6.87480359e-01  1.00031050e-05  1.54097317e+00                                 
 1.00036560e-05  7.43044974e-01  1.00036560e-05  6.78341438e-01  1.00036560e-05  6.83227504e-01  1.00036560e-05  0.00000000e+00  1.00036560e-05  1.80268476e+00  1.00036560e-05  6.80703859e-01  1.00036560e-05  6.84398843e-01  1.00036560e-05  1.53841641e+00                                 
 1.00041696e-05  7.43040451e-01  1.00041696e-05  6.78225252e-01  1.00041696e-05  6.85368218e-01  1.00041696e-05  0.00000000e+00  1.00041696e-05  1.79763258e+00  1.00041696e-05  6.80029600e-01  1.00041696e-05  6.83982891e-01  1.00041696e-05  1.53577523e+00                                 
 1.00051699e-05  7.43044907e-01  1.00051699e-05  6.78194500e-01  1.00051699e-05  6.87326892e-01  1.00051699e-05  0.00000000e+00  1.00051699e-05  1.80222312e+00  1.00051699e-05  6.81057647e-01  1.00051699e-05  6.87371308e-01  1.00051699e-05  1.53034451e+00                                 
 1.00066210e-05  7.43040666e-01  1.00066210e-05  6.78003522e-01  1.00066210e-05  6.92370831e-01  1.00066210e-05  0.00000000e+00  1.00066210e-05  1.79787756e+00  1.00066210e-05  6.80228558e-01  1.00066210e-05  6.90736167e-01  1.00066210e-05  1.52205794e+00                                 
 1.00095234e-05  7.43044905e-01  1.00095234e-05  6.77914313e-01  1.00095234e-05  7.00014050e-01  1.00095234e-05  0.00000000e+00  1.00095234e-05  1.80207929e+00  1.00095234e-05  6.80864366e-01  1.00095234e-05  6.99955247e-01  1.00095234e-05  1.50493335e+00                                 
