 time            v(vbep)         time            v(vben)         time            v(vout)         time            v(vphi1)        time            v(vphi2)        time            v(vref)         yes             currtemp       
 0.00000000e+00  7.19492713e-01  0.00000000e+00  6.69335352e-01  0.00000000e+00  8.03218206e-02  0.00000000e+00  0.00000000e+00  0.00000000e+00  1.79997773e+00  0.00000000e+00  5.00000000e-01  1.00000000e+00  1.00000000e+00 
 5.00000000e-12  7.19478306e-01  5.00000000e-12  6.69323340e-01  5.00000000e-12  8.07748477e-02  5.00000000e-12  1.80000000e-02  5.00000000e-12  1.80006053e+00  5.00000000e-12  5.00000000e-01                                 
 1.00000000e-11  7.19464086e-01  1.00000000e-11  6.69311565e-01  1.00000000e-11  8.11816733e-02  1.00000000e-11  3.60000000e-02  1.00000000e-11  1.80009926e+00  1.00000000e-11  5.00000000e-01                                 
 2.00000000e-11  7.19435740e-01  2.00000000e-11  6.69288077e-01  2.00000000e-11  8.19309450e-02  2.00000000e-11  7.20000000e-02  2.00000000e-11  1.80013064e+00  2.00000000e-11  5.00000000e-01                                 
 4.00000000e-11  7.19379217e-01  4.00000000e-11  6.69241212e-01  4.00000000e-11  8.31423089e-02  4.00000000e-11  1.44000000e-01  4.00000000e-11  1.80009798e+00  4.00000000e-11  5.00000000e-01                                 
 8.00000000e-11  7.19266487e-01  8.00000000e-11  6.69147706e-01  8.00000000e-11  8.49616228e-02  8.00000000e-11  2.88000000e-01  8.00000000e-11  1.80004487e+00  8.00000000e-11  5.00000000e-01                                 
 1.60000000e-10  7.19042375e-01  1.60000000e-10  6.68961614e-01  1.60000000e-10  8.79017613e-02  1.60000000e-10  5.76000000e-01  1.60000000e-10  1.80001086e+00  1.60000000e-10  5.00000000e-01                                 
 3.20000000e-10  7.18599425e-01  3.20000000e-10  6.68593089e-01  3.20000000e-10  1.22805321e-01  3.20000000e-10  1.15200000e+00  3.20000000e-10  1.79999085e+00  3.20000000e-10  5.00000000e-01                                 
 5.00000000e-10  7.18109460e-01  5.00000000e-10  6.68184312e-01  5.00000000e-10  4.62480741e-01  5.00000000e-10  1.80000000e+00  5.00000000e-10  1.01761507e-01  5.00000000e-10  5.00000000e-01                                 
 5.21181467e-10  7.18052442e-01  5.21181467e-10  6.68136657e-01  5.21181467e-10  5.24579219e-01  5.21181467e-10  1.80000000e+00  5.21181467e-10  1.83693623e-02  5.21181467e-10  5.00000000e-01                                 
 5.63544401e-10  7.17938641e-01  5.63544401e-10  6.68041510e-01  5.63544401e-10  6.34344071e-01  5.63544401e-10  1.80000000e+00  5.63544401e-10 -8.58542894e-03  5.63544401e-10  5.00000000e-01                                 
 6.48270268e-10  7.17712470e-01  6.48270268e-10  6.67852226e-01  6.48270268e-10  7.93617314e-01  6.48270268e-10  1.80000000e+00  6.48270268e-10  7.56962672e-03  6.48270268e-10  5.00000000e-01                                 
 7.71798048e-10  7.17386097e-01  7.71798048e-10  6.67578640e-01  7.71798048e-10  9.54325704e-01  7.71798048e-10  1.80000000e+00  7.71798048e-10 -6.56262354e-03  7.71798048e-10  5.00000000e-01                                 
 9.61628957e-10  7.16892139e-01  9.61628957e-10  6.67163594e-01  9.61628957e-10  1.13836431e+00  9.61628957e-10  1.80000000e+00  9.61628957e-10  6.26906301e-03  9.61628957e-10  5.00000000e-01                                 
 1.26456798e-09  7.16122137e-01  1.26456798e-09  6.66514281e-01  1.26456798e-09  1.35596420e+00  1.26456798e-09  1.80000000e+00  1.26456798e-09 -5.90895660e-03  1.26456798e-09  5.00000000e-01                                 
 1.80636666e-09  7.14797850e-01  1.80636666e-09  6.65391087e-01  1.80636666e-09  1.56879511e+00  1.80636666e-09  1.80000000e+00  1.80636666e-09  5.85202269e-03  1.80636666e-09  5.00000000e-01                                 
 2.20700121e-09  7.13859901e-01  2.20700121e-09  6.64590580e-01  2.20700121e-09  1.62695250e+00  2.20700121e-09  1.80000000e+00  2.20700121e-09 -5.58022636e-03  2.20700121e-09  5.00000000e-01                                 
 2.58389050e-09  7.13006505e-01  2.58389050e-09  6.63858787e-01  2.58389050e-09  1.64741345e+00  2.58389050e-09  1.80000000e+00  2.58389050e-09  5.46622391e-03  2.58389050e-09  5.00000000e-01                                 
 2.99198821e-09  7.12111834e-01  2.99198821e-09  6.63088173e-01  2.99198821e-09  1.65450623e+00  2.99198821e-09  1.80000000e+00  2.99198821e-09 -5.25370666e-03  2.99198821e-09  5.00000000e-01                                 
 3.37322826e-09  7.11301938e-01  3.37322826e-09  6.62387613e-01  3.37322826e-09  1.65560451e+00  3.37322826e-09  1.80000000e+00  3.37322826e-09  5.11063722e-03  3.37322826e-09  5.00000000e-01                                 
 4.03053028e-09  7.09959565e-01  4.03053028e-09  6.61220518e-01  4.03053028e-09  1.65405095e+00  4.03053028e-09  1.80000000e+00  4.03053028e-09 -4.98823488e-03  4.03053028e-09  5.00000000e-01                                 
 4.88303327e-09  7.08311461e-01  4.88303327e-09  6.59777759e-01  4.88303327e-09  1.65075041e+00  4.88303327e-09  1.80000000e+00  4.88303327e-09  4.93561642e-03  4.88303327e-09  5.00000000e-01                                 
 6.47903626e-09  7.05467622e-01  6.47903626e-09  6.57264590e-01  6.47903626e-09  1.64545742e+00  6.47903626e-09  1.80000000e+00  6.47903626e-09 -4.87579023e-03  6.47903626e-09  5.00000000e-01                                 
 9.42075395e-09  7.00885028e-01  9.42075395e-09  6.53157461e-01  9.42075395e-09  1.63842709e+00  9.42075395e-09  1.80000000e+00  9.42075395e-09  4.87519592e-03  9.42075395e-09  5.00000000e-01                                 
 1.53041893e-08  6.93523171e-01  1.53041893e-08  6.46429112e-01  1.53041893e-08  1.62437017e+00  1.53041893e-08  1.80000000e+00  1.53041893e-08 -4.84416792e-03  1.53041893e-08  5.00000000e-01                                 
 2.70710601e-08  6.83194659e-01  2.70710601e-08  6.36728564e-01  2.70710601e-08  1.57791895e+00  2.70710601e-08  1.80000000e+00  2.70710601e-08  4.85977220e-03  2.70710601e-08  5.00000000e-01                                 
 4.97434792e-08  6.70915560e-01  4.97434792e-08  6.24835278e-01  4.97434792e-08  1.44969774e+00  4.97434792e-08  1.80000000e+00  4.97434792e-08 -4.83592800e-03  4.97434792e-08  5.00000000e-01                                 
 7.73927687e-08  6.61308731e-01  7.73927687e-08  6.15388801e-01  7.73927687e-08  1.28391762e+00  7.73927687e-08  1.80000000e+00  7.73927687e-08  4.85504014e-03  7.73927687e-08  5.00000000e-01                                 
 1.21611893e-07  6.50638708e-01  1.21611893e-07  6.04867430e-01  1.21611893e-07  1.02086137e+00  1.21611893e-07  1.80000000e+00  1.21611893e-07 -4.83225912e-03  1.21611893e-07  5.00000000e-01                                 
 1.69931993e-07  6.39899849e-01  1.69931993e-07  5.94754098e-01  1.69931993e-07  8.11723189e-01  1.69931993e-07  1.80000000e+00  1.69931993e-07  4.85242305e-03  1.69931993e-07  5.00000000e-01                                 
 2.23627013e-07  6.28543473e-01  2.23627013e-07  5.84409254e-01  2.23627013e-07  6.75559432e-01  2.23627013e-07  1.80000000e+00  2.23627013e-07 -4.82987581e-03  2.23627013e-07  5.00000000e-01                                 
 2.81732139e-07  6.18151360e-01  2.81732139e-07  5.75046709e-01  2.81732139e-07  5.73889116e-01  2.81732139e-07  1.80000000e+00  2.81732139e-07  4.85027241e-03  2.81732139e-07  5.00000000e-01                                 
 3.56425627e-07  6.05274906e-01  3.56425627e-07  5.63728450e-01  3.56425627e-07  4.98800277e-01  3.56425627e-07  1.80000000e+00  3.56425627e-07 -4.82802888e-03  3.56425627e-07  5.00000000e-01                                 
 4.76957038e-07  5.85630667e-01  4.76957038e-07  5.46888808e-01  4.76957038e-07  4.84184533e-01  4.76957038e-07  1.80000000e+00  4.76957038e-07  4.84896949e-03  4.76957038e-07  5.00000000e-01                                 
 6.08854547e-07  5.62890111e-01  6.08854547e-07  5.27974679e-01  6.08854547e-07  4.93716378e-01  6.08854547e-07  1.80000000e+00  6.08854547e-07 -4.82708433e-03  6.08854547e-07  5.00000000e-01                                 
 7.50491592e-07  5.37485709e-01  7.50491592e-07  5.07242362e-01  7.50491592e-07  5.13279157e-01  7.50491592e-07  1.80000000e+00  7.50491592e-07  4.84808639e-03  7.50491592e-07  5.00000000e-01                                 
 7.75898283e-07  5.32690640e-01  7.75898283e-07  5.03365704e-01  7.75898283e-07  5.08476650e-01  7.75898283e-07  1.80000000e+00  7.75898283e-07  6.00243542e-07  7.75898283e-07  5.00000000e-01                                 
 8.26711665e-07  5.23069158e-01  8.26711665e-07  4.95597546e-01  8.26711665e-07  4.98583206e-01  8.26711665e-07  1.80000000e+00  8.26711665e-07 -6.16049064e-07  8.26711665e-07  5.00000000e-01                                 
 9.28338429e-07  5.11933517e-01  9.28338429e-07  4.86594953e-01  9.28338429e-07  4.93111265e-01  9.28338429e-07  1.80000000e+00  9.28338429e-07  6.61643353e-07  9.28338429e-07  5.00000000e-01                                 
 9.46227375e-07  5.12975243e-01  9.46227375e-07  4.87418049e-01  9.46227375e-07  4.96057319e-01  9.46227375e-07  1.80000000e+00  9.46227375e-07  8.63530473e-08  9.46227375e-07  5.00000000e-01                                 
 9.82005268e-07  5.20690571e-01  9.82005268e-07  4.93571627e-01  9.82005268e-07  5.05731996e-01  9.82005268e-07  1.80000000e+00  9.82005268e-07  2.05088358e-07  9.82005268e-07  5.00000000e-01                                 
 1.03017558e-06  5.72403105e-01  1.03017558e-06  5.34876067e-01  1.03017558e-06  5.24352548e-01  1.03017558e-06  1.80000000e+00  1.03017558e-06  7.51012262e-07  1.03017558e-06  5.00000000e-01                                 
 1.07790723e-06  7.40836411e-01  1.07790723e-06  6.86514194e-01  1.07790723e-06  5.59594501e-01  1.07790723e-06  1.80000000e+00  1.07790723e-06  2.65679914e-06  1.07790723e-06  5.00000000e-01                                 
 1.11700043e-06  7.96591524e-01  1.11700043e-06  7.44661253e-01  1.11700043e-06  5.22279504e-01  1.11700043e-06  1.80000000e+00  1.11700043e-06 -7.57722452e-07  1.11700043e-06  5.00000000e-01                                 
 1.15801948e-06  8.22882554e-01  1.15801948e-06  7.69077324e-01  1.15801948e-06  5.06572356e-01  1.15801948e-06  1.80000000e+00  1.15801948e-06  1.64671954e-06  1.15801948e-06  5.00000000e-01                                 
 1.21154344e-06  8.52358179e-01  1.21154344e-06  7.94004898e-01  1.21154344e-06  5.12286517e-01  1.21154344e-06  1.80000000e+00  1.21154344e-06 -7.88266147e-07  1.21154344e-06  5.00000000e-01                                 
 1.21753067e-06  8.56339217e-01  1.21753067e-06  7.97112372e-01  1.21753067e-06  5.11938335e-01  1.21753067e-06  1.80000000e+00  1.21753067e-06  3.66393915e-07  1.21753067e-06  5.00000000e-01                                 
 1.22950514e-06  8.65706623e-01  1.22950514e-06  8.04186626e-01  1.22950514e-06  5.12786192e-01  1.22950514e-06  1.80000000e+00  1.22950514e-06  6.96388722e-07  1.22950514e-06  5.00000000e-01                                 
 1.25345408e-06  8.78252247e-01  1.25345408e-06  8.13265057e-01  1.25345408e-06  5.09498551e-01  1.25345408e-06  1.80000000e+00  1.25345408e-06  9.84936834e-08  1.25345408e-06  5.00000000e-01                                 
 1.27451938e-06  8.63366761e-01  1.27451938e-06  8.02721484e-01  1.27451938e-06  4.91956360e-01  1.27451938e-06  1.80000000e+00  1.27451938e-06 -7.89904924e-07  1.27451938e-06  5.00000000e-01                                 
 1.29362121e-06  8.44850592e-01  1.29362121e-06  7.87941621e-01  1.29362121e-06  4.76469914e-01  1.29362121e-06  1.80000000e+00  1.29362121e-06 -3.08178681e-07  1.29362121e-06  5.00000000e-01                                 
 1.31366631e-06  8.33203896e-01  1.31366631e-06  7.78337407e-01  1.31366631e-06  4.68722219e-01  1.31366631e-06  1.80000000e+00  1.31366631e-06 -2.86134487e-07  1.31366631e-06  5.00000000e-01                                 
 1.34149881e-06  8.14510089e-01  1.34149881e-06  7.61420422e-01  1.34149881e-06  4.58022207e-01  1.34149881e-06  1.80000000e+00  1.34149881e-06 -4.26804261e-07  1.34149881e-06  5.00000000e-01                                 
 1.36854205e-06  8.18138101e-01  1.36854205e-06  7.64905801e-01  1.36854205e-06  4.77073842e-01  1.36854205e-06  1.80000000e+00  1.36854205e-06  7.16161402e-07  1.36854205e-06  5.00000000e-01                                 
 1.40633136e-06  8.23170378e-01  1.40633136e-06  7.69303090e-01  1.40633136e-06  5.33871193e-01  1.40633136e-06  1.80000000e+00  1.40633136e-06 -3.98338870e-07  1.40633136e-06  5.00000000e-01                                 
 1.44580267e-06  8.26943195e-01  1.44580267e-06  7.72786481e-01  1.44580267e-06  5.40086368e-01  1.44580267e-06  1.80000000e+00  1.44580267e-06  6.01494113e-07  1.44580267e-06  5.00000000e-01                                 
 1.49390369e-06  8.21672398e-01  1.49390369e-06  7.67987758e-01  1.49390369e-06  4.90678094e-01  1.49390369e-06  1.80000000e+00  1.49390369e-06 -5.87992491e-07  1.49390369e-06  5.00000000e-01                                 
 1.54707907e-06  8.21167070e-01  1.54707907e-06  7.67623497e-01  1.54707907e-06  4.86085178e-01  1.54707907e-06  1.80000000e+00  1.54707907e-06  6.98322171e-07  1.54707907e-06  5.00000000e-01                                 
 1.60707350e-06  8.24438486e-01  1.60707350e-06  7.70461594e-01  1.60707350e-06  4.94670421e-01  1.60707350e-06  1.80000000e+00  1.60707350e-06 -4.93529787e-07  1.60707350e-06  5.00000000e-01                                 
 1.67448101e-06  8.23102700e-01  1.67448101e-06  7.69366049e-01  1.67448101e-06  5.05398662e-01  1.67448101e-06  1.80000000e+00  1.67448101e-06  5.92806047e-07  1.67448101e-06  5.00000000e-01                                 
 1.77452661e-06  8.21737130e-01  1.77452661e-06  7.68042990e-01  1.77452661e-06  5.04203357e-01  1.77452661e-06  1.80000000e+00  1.77452661e-06 -4.79060298e-07  1.77452661e-06  5.00000000e-01                                 
 1.88035717e-06  8.24214669e-01  1.88035717e-06  7.70352874e-01  1.88035717e-06  4.93322841e-01  1.88035717e-06  1.80000000e+00  1.88035717e-06  6.34520856e-07  1.88035717e-06  5.00000000e-01                                 
 2.04346361e-06  8.21680172e-01  2.04346361e-06  7.67997601e-01  2.04346361e-06  5.02708928e-01  2.04346361e-06  1.80000000e+00  2.04346361e-06 -5.22033861e-07  2.04346361e-06  5.00000000e-01                                 
 2.20338545e-06  8.23711430e-01  2.20338545e-06  7.69900016e-01  2.20338545e-06  5.01880693e-01  2.20338545e-06  1.80000000e+00  2.20338545e-06  6.63479078e-07  2.20338545e-06  5.00000000e-01                                 
 2.47037315e-06  8.22264803e-01  2.47037315e-06  7.68526032e-01  2.47037315e-06  4.96318136e-01  2.47037315e-06  1.80000000e+00  2.47037315e-06 -5.39126400e-07  2.47037315e-06  5.00000000e-01                                 
 2.79439989e-06  8.23294230e-01  2.79439989e-06  7.69525915e-01  2.79439989e-06  5.04436590e-01  2.79439989e-06  1.80000000e+00  2.79439989e-06  6.70477983e-07  2.79439989e-06  5.00000000e-01                                 
 3.19662190e-06  8.22614678e-01  3.19662190e-06  7.68841007e-01  3.19662190e-06  4.96240875e-01  3.19662190e-06  1.80000000e+00  3.19662190e-06 -5.42319347e-07  3.19662190e-06  5.00000000e-01                                 
 3.70475510e-06  8.23045832e-01  3.70475510e-06  7.69303198e-01  3.70475510e-06  5.03442240e-01  3.70475510e-06  1.80000000e+00  3.70475510e-06  6.71467022e-07  3.70475510e-06  5.00000000e-01                                 
 4.40443209e-06  8.22798892e-01  4.40443209e-06  7.69006558e-01  4.40443209e-06  4.97412810e-01  4.40443209e-06  1.80000000e+00  4.40443209e-06 -5.42229885e-07  4.40443209e-06  5.00000000e-01                                 
 5.40443209e-06  8.22929499e-01  5.40443209e-06  7.69198888e-01  5.40443209e-06  5.02421330e-01  5.40443209e-06  1.80000000e+00  5.40443209e-06  6.70968779e-07  5.40443209e-06  5.00000000e-01                                 
 6.40443209e-06  8.22891747e-01  6.40443209e-06  7.69089932e-01  6.40443209e-06  4.98305097e-01  6.40443209e-06  1.80000000e+00  6.40443209e-06 -5.41553062e-07  6.40443209e-06  5.00000000e-01                                 
 7.40443209e-06  8.22846675e-01  7.40443209e-06  7.69124624e-01  7.40443209e-06  5.01509621e-01  7.40443209e-06  1.80000000e+00  7.40443209e-06  6.70086366e-07  7.40443209e-06  5.00000000e-01                                 
 8.40443209e-06  8.22971311e-01  8.40443209e-06  7.69161332e-01  8.40443209e-06  4.99212039e-01  8.40443209e-06  1.80000000e+00  8.40443209e-06 -5.40479289e-07  8.40443209e-06  5.00000000e-01                                 
 9.40443209e-06  8.22776789e-01  9.40443209e-06  7.69061961e-01  9.40443209e-06  5.00613130e-01  9.40443209e-06  1.80000000e+00  9.40443209e-06  6.68834932e-07  9.40443209e-06  5.00000000e-01                                 
 1.00005000e-05  8.23055601e-01  1.00005000e-05  7.69236928e-01  1.00005000e-05  5.00315772e-01  1.00005000e-05  1.80000000e+00  1.00005000e-05 -5.38520746e-07  1.00005000e-05  5.00000000e-01                                 
 1.00005500e-05  8.23064126e-01  1.00005500e-05  7.69252970e-01  1.00005500e-05  4.92346448e-01  1.00005500e-05  1.62000000e+00  1.00005500e-05 -7.79226610e-05  1.00005500e-05  5.00000000e-01                                 
 1.00006500e-05  8.23095292e-01  1.00006500e-05  7.69285797e-01  1.00006500e-05  4.78746636e-01  1.00006500e-05  1.26000000e+00  1.00006500e-05 -5.10091342e-05  1.00006500e-05  5.00000000e-01                                 
 1.00008500e-05  8.23152591e-01  1.00008500e-05  7.69338932e-01  1.00008500e-05  4.78145058e-01  1.00008500e-05  5.40000000e-01  1.00008500e-05 -7.95036102e-04  1.00008500e-05  5.00000000e-01                                 
 1.00010000e-05  8.23181265e-01  1.00010000e-05  7.69368944e-01  1.00010000e-05  4.44907115e-01  1.00010000e-05  0.00000000e+00  1.00010000e-05  1.55186697e+00  1.00010000e-05  5.00000000e-01                                 
 1.00010178e-05  8.23184795e-01  1.00010178e-05  7.69372023e-01  1.00010178e-05  4.23476956e-01  1.00010178e-05  0.00000000e+00  1.00010178e-05  1.69191903e+00  1.00010178e-05  5.00000000e-01                                 
 1.00010534e-05  8.23191071e-01  1.00010534e-05  7.69377952e-01  1.00010534e-05  3.78655914e-01  1.00010534e-05  0.00000000e+00  1.00010534e-05  1.80961588e+00  1.00010534e-05  5.00000000e-01                                 
 1.00011246e-05  8.23201961e-01  1.00011246e-05  7.69388912e-01  1.00011246e-05  3.20243395e-01  1.00011246e-05  0.00000000e+00  1.00011246e-05  1.79166385e+00  1.00011246e-05  5.00000000e-01                                 
 1.00012001e-05  8.23212374e-01  1.00012001e-05  7.69399339e-01  1.00012001e-05  3.07088319e-01  1.00012001e-05  0.00000000e+00  1.00012001e-05  1.80223696e+00  1.00012001e-05  5.00000000e-01                                 
 1.00013254e-05  8.23226635e-01  1.00013254e-05  7.69414012e-01  1.00013254e-05  3.04030558e-01  1.00013254e-05  0.00000000e+00  1.00013254e-05  1.79845853e+00  1.00013254e-05  5.00000000e-01                                 
 1.00014597e-05  8.23238616e-01  1.00014597e-05  7.69426539e-01  1.00014597e-05  3.02972440e-01  1.00014597e-05  0.00000000e+00  1.00014597e-05  1.80078458e+00  1.00014597e-05  5.00000000e-01                                 
 1.00016618e-05  8.23251307e-01  1.00016618e-05  7.69440333e-01  1.00016618e-05  3.01453222e-01  1.00016618e-05  0.00000000e+00  1.00016618e-05  1.79955031e+00  1.00016618e-05  5.00000000e-01                                 
 1.00019594e-05  8.23261620e-01  1.00019594e-05  7.69452419e-01  1.00019594e-05  3.00010716e-01  1.00019594e-05  0.00000000e+00  1.00019594e-05  1.80027409e+00  1.00019594e-05  5.00000000e-01                                 
