 time            v(vbep)         time            v(vben)         time            v(vout)         time            v(vphi1)        time            v(vphi2)        time            v(vref)         time            v(voutc)        time            v(voutcc)       yes             currtemp       
 0.00000000e+00  7.32649420e-01  0.00000000e+00  6.65829971e-01  0.00000000e+00  1.51633473e+00  0.00000000e+00  0.00000000e+00  0.00000000e+00  1.79999999e+00  0.00000000e+00  6.66937286e-01  0.00000000e+00  1.51633472e+00  0.00000000e+00  1.52369740e+00  1.00000000e+00  6.10000000e+01 
 5.00000000e-12  7.32671102e-01  5.00000000e-12  6.65884253e-01  5.00000000e-12  1.51695235e+00  5.00000000e-12  1.80000000e-02  5.00000000e-12  1.80018592e+00  5.00000000e-12  6.67328461e-01  5.00000000e-12  1.51668228e+00  5.00000000e-12  1.52371048e+00                                 
 1.00000000e-11  7.32680617e-01  1.00000000e-11  6.65919898e-01  1.00000000e-11  1.51739417e+00  1.00000000e-11  3.60000000e-02  1.00000000e-11  1.80026985e+00  1.00000000e-11  6.67635376e-01  1.00000000e-11  1.51695624e+00  1.00000000e-11  1.52371724e+00                                 
 2.00000000e-11  7.32686955e-01  2.00000000e-11  6.65969339e-01  2.00000000e-11  1.51802548e+00  2.00000000e-11  7.20000000e-02  2.00000000e-11  1.80032260e+00  2.00000000e-11  6.68115340e-01  2.00000000e-11  1.51738775e+00  2.00000000e-11  1.52372337e+00                                 
 4.00000000e-11  7.32674979e-01  4.00000000e-11  6.66004925e-01  4.00000000e-11  1.51842800e+00  4.00000000e-11  1.44000000e-01  4.00000000e-11  1.80019062e+00  4.00000000e-11  6.68575961e-01  4.00000000e-11  1.51781529e+00  4.00000000e-11  1.52371701e+00                                 
 8.00000000e-11  7.32661765e-01  8.00000000e-11  6.66010315e-01  8.00000000e-11  1.51828133e+00  8.00000000e-11  2.88000000e-01  8.00000000e-11  1.80003066e+00  8.00000000e-11  6.68717082e-01  8.00000000e-11  1.51797633e+00  8.00000000e-11  1.52370280e+00                                 
 1.60000000e-10  7.32662045e-01  1.60000000e-10  6.65996657e-01  1.60000000e-10  1.51778778e+00  1.60000000e-10  5.76000000e-01  1.60000000e-10  1.80000849e+00  1.60000000e-10  6.68521244e-01  1.60000000e-10  1.51782873e+00  1.60000000e-10  1.52369716e+00                                 
 3.20000000e-10  7.32594616e-01  3.20000000e-10  6.65553609e-01  3.20000000e-10  1.51419506e+00  3.20000000e-10  1.15200000e+00  3.20000000e-10  1.80073060e+00  3.20000000e-10  6.64691250e-01  3.20000000e-10  1.51470507e+00  3.20000000e-10  1.52366773e+00                                 
 5.00000000e-10  7.32658194e-01  5.00000000e-10  6.66053787e-01  5.00000000e-10  1.51146346e+00  5.00000000e-10  1.80000000e+00  5.00000000e-10  1.70641393e-01  5.00000000e-10  6.71849798e-01  5.00000000e-10  1.52092571e+00  5.00000000e-10  1.52376327e+00                                 
 5.21421962e-10  7.32662044e-01  5.21421962e-10  6.66081207e-01  5.21421962e-10  1.51077913e+00  5.21421962e-10  1.80000000e+00  5.21421962e-10  4.66185080e-02  5.21421962e-10  6.73529150e-01  5.21421962e-10  1.52186158e+00  5.21421962e-10  1.52375073e+00                                 
 5.64265887e-10  7.32749996e-01  5.64265887e-10  6.66140548e-01  5.64265887e-10  1.51009800e+00  5.64265887e-10  1.80000000e+00  5.64265887e-10 -1.62364670e-02  5.64265887e-10  6.75852490e-01  5.64265887e-10  1.52383523e+00  5.64265887e-10  1.52374544e+00                                 
 6.49953737e-10  7.32868236e-01  6.49953737e-10  6.65973226e-01  6.49953737e-10  1.50705368e+00  6.49953737e-10  1.80000000e+00  6.49953737e-10  1.25712762e-02  6.49953737e-10  6.75715713e-01  6.49953737e-10  1.52394605e+00  6.49953737e-10  1.52369484e+00                                 
 7.69721034e-10  7.32920730e-01  7.69721034e-10  6.65929212e-01  7.69721034e-10  1.50521171e+00  7.69721034e-10  1.80000000e+00  7.69721034e-10 -9.85414000e-03  7.69721034e-10  6.77082087e-01  7.69721034e-10  1.52497047e+00  7.69721034e-10  1.52371444e+00                                 
 9.48175872e-10  7.32985732e-01  9.48175872e-10  6.65896322e-01  9.48175872e-10  1.50393025e+00  9.48175872e-10  1.80000000e+00  9.48175872e-10  8.90820550e-03  9.48175872e-10  6.77872629e-01  9.48175872e-10  1.52582028e+00  9.48175872e-10  1.52368928e+00                                 
 1.30508555e-09  7.32942021e-01  1.30508555e-09  6.65822363e-01  1.30508555e-09  1.50190925e+00  1.30508555e-09  1.80000000e+00  1.30508555e-09 -8.12371436e-03  1.30508555e-09  6.77352727e-01  1.30508555e-09  1.52523460e+00  1.30508555e-09  1.52372717e+00                                 
 1.69531062e-09  7.32880554e-01  1.69531062e-09  6.65841801e-01  1.69531062e-09  1.50059051e+00  1.69531062e-09  1.80000000e+00  1.69531062e-09  7.73629537e-03  1.69531062e-09  6.76883926e-01  1.69531062e-09  1.52495222e+00  1.69531062e-09  1.52379145e+00                                 
 2.34483917e-09  7.32742091e-01  2.34483917e-09  6.65801168e-01  2.34483917e-09  1.49752919e+00  2.34483917e-09  1.80000000e+00  2.34483917e-09 -7.41741038e-03  2.34483917e-09  6.75093607e-01  2.34483917e-09  1.52325934e+00  2.34483917e-09  1.52394933e+00                                 
 3.09903661e-09  7.32675236e-01  3.09903661e-09  6.65831442e-01  3.09903661e-09  1.49451551e+00  3.09903661e-09  1.80000000e+00  3.09903661e-09  7.19597580e-03  3.09903661e-09  6.73912858e-01  3.09903661e-09  1.52234078e+00  3.09903661e-09  1.52413540e+00                                 
 4.24365475e-09  7.32603927e-01  4.24365475e-09  6.65796020e-01  4.24365475e-09  1.48884697e+00  4.24365475e-09  1.80000000e+00  4.24365475e-09 -7.03933899e-03  4.24365475e-09  6.71419340e-01  4.24365475e-09  1.52004148e+00  4.24365475e-09  1.52438460e+00                                 
 5.86795702e-09  7.32595951e-01  5.86795702e-09  6.65832888e-01  5.86795702e-09  1.48142662e+00  5.86795702e-09  1.80000000e+00  5.86795702e-09  6.94851771e-03  5.86795702e-09  6.69509992e-01  5.86795702e-09  1.51848672e+00  5.86795702e-09  1.52462050e+00                                 
 9.11656158e-09  7.32580923e-01  9.11656158e-09  6.65807222e-01  9.11656158e-09  1.46426525e+00  9.11656158e-09  1.80000000e+00  9.11656158e-09 -6.87784717e-03  9.11656158e-09  6.66401353e-01  9.11656158e-09  1.51566141e+00  9.11656158e-09  1.52474103e+00                                 
 1.20444367e-08  7.32616323e-01  1.20444367e-08  6.65845667e-01  1.20444367e-08  1.44770913e+00  1.20444367e-08  1.80000000e+00  1.20444367e-08  6.84781044e-03  1.20444367e-08  6.65849058e-01  1.20444367e-08  1.51528820e+00  1.20444367e-08  1.52460137e+00                                 
 1.44490162e-08  7.32614982e-01  1.44490162e-08  6.65812705e-01  1.44490162e-08  1.43248769e+00  1.44490162e-08  1.80000000e+00  1.44490162e-08 -6.75317040e-03  1.44490162e-08  6.65183560e-01  1.44490162e-08  1.51458923e+00  1.44490162e-08  1.52441955e+00                                 
 1.71674750e-08  7.32642865e-01  1.71674750e-08  6.65847434e-01  1.71674750e-08  1.41523866e+00  1.71674750e-08  1.80000000e+00  1.71674750e-08  6.72317814e-03  1.71674750e-08  6.65563459e-01  1.71674750e-08  1.51502206e+00  1.71674750e-08  1.52420872e+00                                 
 2.06364231e-08  7.32637957e-01  2.06364231e-08  6.65813256e-01  2.06364231e-08  1.39162480e+00  2.06364231e-08  1.80000000e+00  2.06364231e-08 -6.64825267e-03  2.06364231e-08  6.65303029e-01  2.06364231e-08  1.51467425e+00  2.06364231e-08  1.52395954e+00                                 
 2.51774009e-08  7.32660049e-01  2.51774009e-08  6.65847568e-01  2.51774009e-08  1.36062918e+00  2.51774009e-08  1.80000000e+00  2.51774009e-08  6.64354276e-03  2.51774009e-08  6.65991022e-01  2.51774009e-08  1.51537281e+00  2.51774009e-08  1.52370456e+00                                 
 3.08881307e-08  7.32647384e-01  3.08881307e-08  6.65813195e-01  3.08881307e-08  1.32017539e+00  3.08881307e-08  1.80000000e+00  3.08881307e-08 -6.58615818e-03  3.08881307e-08  6.65911971e-01  3.08881307e-08  1.51518668e+00  3.08881307e-08  1.52348326e+00                                 
 3.90386049e-08  7.32661762e-01  3.90386049e-08  6.65847435e-01  3.90386049e-08  1.26276276e+00  3.90386049e-08  1.80000000e+00  3.90386049e-08  6.59719525e-03  3.90386049e-08  6.66656456e-01  3.90386049e-08  1.51593981e+00  3.90386049e-08  1.52332371e+00                                 
 5.12388711e-08  7.32644426e-01  5.12388711e-08  6.65812927e-01  5.12388711e-08  1.17589706e+00  5.12388711e-08  1.80000000e+00  5.12388711e-08 -6.55436571e-03  5.12388711e-08  6.66524010e-01  5.12388711e-08  1.51571605e+00  5.12388711e-08  1.52326076e+00                                 
 7.23049935e-08  7.32657404e-01  7.23049935e-08  6.65847165e-01  7.23049935e-08  1.02768272e+00  7.23049935e-08  1.80000000e+00  7.23049935e-08  6.57728741e-03  7.23049935e-08  6.67102066e-01  7.23049935e-08  1.51633263e+00  7.23049935e-08  1.52332857e+00                                 
 1.05651691e-07  7.32641006e-01  1.05651691e-07  6.65812724e-01  1.05651691e-07  8.03668423e-01  1.05651691e-07  1.80000000e+00  1.05651691e-07 -6.54176597e-03  1.05651691e-07  6.66730898e-01  1.05651691e-07  1.51590394e+00  1.05651691e-07  1.52344385e+00                                 
 1.36400291e-07  7.32660572e-01  1.36400291e-07  6.65847296e-01  1.36400291e-07  6.82223624e-01  1.36400291e-07  1.80000000e+00  1.36400291e-07  6.57190333e-03  1.36400291e-07  6.67142494e-01  1.36400291e-07  1.51637061e+00  1.36400291e-07  1.52348736e+00                                 
 1.57569899e-07  7.32638154e-01  1.57569899e-07  6.65812805e-01  1.57569899e-07  6.68137224e-01  1.57569899e-07  1.80000000e+00  1.57569899e-07 -6.52697770e-03  1.57569899e-07  6.66740065e-01  1.57569899e-07  1.51591120e+00  1.57569899e-07  1.52349462e+00                                 
 1.78757022e-07  7.32658064e-01  1.78757022e-07  6.65846920e-01  1.78757022e-07  6.68528882e-01  1.78757022e-07  1.80000000e+00  1.78757022e-07  6.55793043e-03  1.78757022e-07  6.67140095e-01  1.78757022e-07  1.51636727e+00  1.78757022e-07  1.52350145e+00                                 
 1.97891296e-07  7.32640855e-01  1.97891296e-07  6.65813029e-01  1.97891296e-07  6.67815214e-01  1.97891296e-07  1.80000000e+00  1.97891296e-07 -6.51211741e-03  1.97891296e-07  6.66734905e-01  1.97891296e-07  1.51590551e+00  1.97891296e-07  1.52349815e+00                                 
 2.23056558e-07  7.32657702e-01  2.23056558e-07  6.65846888e-01  2.23056558e-07  6.68330437e-01  2.23056558e-07  1.80000000e+00  2.23056558e-07  6.54411369e-03  2.23056558e-07  6.67139852e-01  2.23056558e-07  1.51636540e+00  2.23056558e-07  1.52350060e+00                                 
 2.73387083e-07  7.32641220e-01  2.73387083e-07  6.65813039e-01  2.73387083e-07  6.67823544e-01  2.73387083e-07  1.80000000e+00  2.73387083e-07 -6.50308782e-03  2.73387083e-07  6.66734598e-01  2.73387083e-07  1.51590272e+00  2.73387083e-07  1.52349566e+00                                 
 3.74048134e-07  7.32657579e-01  3.74048134e-07  6.65846889e-01  3.74048134e-07  6.68316060e-01  3.74048134e-07  1.80000000e+00  3.74048134e-07  6.53962241e-03  3.74048134e-07  6.67139860e-01  3.74048134e-07  1.51636019e+00  3.74048134e-07  1.52349538e+00                                 
 5.75370235e-07  7.32641280e-01  5.75370235e-07  6.65813038e-01  5.75370235e-07  6.67829413e-01  5.75370235e-07  1.80000000e+00  5.75370235e-07 -6.50087687e-03  5.75370235e-07  6.66734593e-01  5.75370235e-07  1.51589238e+00  5.75370235e-07  1.52348531e+00                                 
 9.78014437e-07  7.32657550e-01  9.78014437e-07  6.65846890e-01  9.78014437e-07  6.68313336e-01  9.78014437e-07  1.80000000e+00  9.78014437e-07  6.53850524e-03  9.78014437e-07  6.67139863e-01  9.78014437e-07  1.51633948e+00  9.78014437e-07  1.52347471e+00                                 
 1.78330284e-06  7.32641294e-01  1.78330284e-06  6.65813037e-01  1.78330284e-06  6.67830742e-01  1.78330284e-06  1.80000000e+00  1.78330284e-06 -6.50032423e-03  1.78330284e-06  6.66734592e-01  1.78330284e-06  1.51585098e+00  1.78330284e-06  1.52344397e+00                                 
 2.78330284e-06  7.32657542e-01  2.78330284e-06  6.65846890e-01  2.78330284e-06  6.68312555e-01  2.78330284e-06  1.80000000e+00  2.78330284e-06  6.53819131e-03  2.78330284e-06  6.67139863e-01  2.78330284e-06  1.51627761e+00  2.78330284e-06  1.52341292e+00                                 
 3.78330284e-06  7.32641302e-01  3.78330284e-06  6.65813037e-01  3.78330284e-06  6.67831442e-01  3.78330284e-06  1.80000000e+00  3.78330284e-06 -6.50019550e-03  3.78330284e-06  6.66734592e-01  3.78330284e-06  1.51578243e+00  3.78330284e-06  1.52337551e+00                                 
 4.78330284e-06  7.32657535e-01  4.78330284e-06  6.65846890e-01  4.78330284e-06  6.68311868e-01  4.78330284e-06  1.80000000e+00  4.78330284e-06  6.53789449e-03  4.78330284e-06  6.67139864e-01  4.78330284e-06  1.51620908e+00  4.78330284e-06  1.52334448e+00                                 
 5.78330284e-06  7.32641309e-01  5.78330284e-06  6.65813037e-01  5.78330284e-06  6.67832126e-01  5.78330284e-06  1.80000000e+00  5.78330284e-06 -6.49989874e-03  5.78330284e-06  6.66734591e-01  5.78330284e-06  1.51571393e+00  5.78330284e-06  1.52330710e+00                                 
 6.78330284e-06  7.32657527e-01  6.78330284e-06  6.65846890e-01  6.78330284e-06  6.68311192e-01  6.78330284e-06  1.80000000e+00  6.78330284e-06  6.53759465e-03  6.78330284e-06  6.67139864e-01  6.78330284e-06  1.51614056e+00  6.78330284e-06  1.52327606e+00                                 
 7.78330284e-06  7.32641316e-01  7.78330284e-06  6.65813037e-01  7.78330284e-06  6.67832798e-01  7.78330284e-06  1.80000000e+00  7.78330284e-06 -6.49960200e-03  7.78330284e-06  6.66734591e-01  7.78330284e-06  1.51564539e+00  7.78330284e-06  1.52323865e+00                                 
 8.78330284e-06  7.32657520e-01  8.78330284e-06  6.65846891e-01  8.78330284e-06  6.68310526e-01  8.78330284e-06  1.80000000e+00  8.78330284e-06  6.53729482e-03  8.78330284e-06  6.67139864e-01  8.78330284e-06  1.51607200e+00  8.78330284e-06  1.52320760e+00                                 
 9.78330284e-06  7.32641324e-01  9.78330284e-06  6.65813037e-01  9.78330284e-06  6.67833459e-01  9.78330284e-06  1.80000000e+00  9.78330284e-06 -6.49930528e-03  9.78330284e-06  6.66734591e-01  9.78330284e-06  1.51557682e+00  9.78330284e-06  1.52317018e+00                                 
 1.00005000e-05  7.32657499e-01  1.00005000e-05  6.65846936e-01  1.00005000e-05  6.68306895e-01  1.00005000e-05  1.80000000e+00  1.00005000e-05  6.52945822e-03  1.00005000e-05  6.67140173e-01  1.00005000e-05  1.51603046e+00  1.00005000e-05  1.52316537e+00                                 
 1.00005500e-05  7.32614324e-01  1.00005500e-05  6.65640556e-01  1.00005500e-05  6.66417778e-01  1.00005500e-05  1.62000000e+00  1.00005500e-05  5.81232392e-04  1.00005500e-05  6.65444471e-01  1.00005500e-05  1.51449630e+00  1.00005500e-05  1.52314518e+00                                 
 1.00006500e-05  7.32637552e-01  1.00006500e-05  6.65611612e-01  1.00006500e-05  6.66335169e-01  1.00006500e-05  1.26000000e+00  1.00006500e-05 -5.14683021e-04  1.00006500e-05  6.65028372e-01  1.00006500e-05  1.51412357e+00  1.00006500e-05  1.52316564e+00                                 
 1.00008500e-05  7.32688646e-01  1.00008500e-05  6.65795631e-01  1.00008500e-05  6.68531939e-01  1.00008500e-05  5.40000000e-01  1.00008500e-05  4.47458396e-04  1.00008500e-05  6.65783178e-01  1.00008500e-05  1.51308737e+00  1.00008500e-05  1.52315395e+00                                 
 1.00010000e-05  7.32634560e-01  1.00010000e-05  6.65024791e-01  1.00010000e-05  6.89108367e-01  1.00010000e-05  0.00000000e+00  1.00010000e-05  1.52124648e+00  1.00010000e-05  6.57020941e-01  1.00010000e-05  1.45739913e+00  1.00010000e-05  1.52268349e+00                                 
 1.00010252e-05  7.32652702e-01  1.00010252e-05  6.64672348e-01  1.00010252e-05  6.94969647e-01  1.00010252e-05  0.00000000e+00  1.00010252e-05  1.69335833e+00  1.00010252e-05  6.52722589e-01  1.00010252e-05  1.43020497e+00  1.00010252e-05  1.52248825e+00                                 
 1.00010755e-05  7.32654134e-01  1.00010755e-05  6.63992237e-01  1.00010755e-05  7.00803220e-01  1.00010755e-05  0.00000000e+00  1.00010755e-05  1.82051946e+00  1.00010755e-05  6.44528440e-01  1.00010755e-05  1.36931733e+00  1.00010755e-05  1.52232973e+00                                 
 1.00011762e-05  7.32647191e-01  1.00011762e-05  6.63842884e-01  1.00011762e-05  6.95609560e-01  1.00011762e-05  0.00000000e+00  1.00011762e-05  1.78713704e+00  1.00011762e-05  6.43127777e-01  1.00011762e-05  1.26245744e+00  1.00011762e-05  1.52287698e+00                                 
 1.00013031e-05  7.32653069e-01  1.00013031e-05  6.64138139e-01  1.00013031e-05  6.92300582e-01  1.00013031e-05  0.00000000e+00  1.00013031e-05  1.80679836e+00  1.00013031e-05  6.47295436e-01  1.00013031e-05  1.15838597e+00  1.00013031e-05  1.52324950e+00                                 
 1.00015237e-05  7.32646493e-01  1.00015237e-05  6.64290435e-01  1.00015237e-05  6.88540645e-01  1.00015237e-05  0.00000000e+00  1.00015237e-05  1.79400169e+00  1.00015237e-05  6.48205159e-01  1.00015237e-05  1.00759326e+00  1.00015237e-05  1.52346030e+00                                 
 1.00018143e-05  7.32651990e-01  1.00018143e-05  6.64842282e-01  1.00018143e-05  6.83573348e-01  1.00018143e-05  0.00000000e+00  1.00018143e-05  1.80430274e+00  1.00018143e-05  6.53367940e-01  1.00018143e-05  8.65104103e-01  1.00018143e-05  1.52336988e+00                                 
 1.00022406e-05  7.32646746e-01  1.00022406e-05  6.65479141e-01  1.00022406e-05  6.76822977e-01  1.00022406e-05  0.00000000e+00  1.00022406e-05  1.79581605e+00  1.00022406e-05  6.58835398e-01  1.00022406e-05  7.35540799e-01  1.00022406e-05  1.52272047e+00                                 
 1.00026954e-05  7.32651780e-01  1.00026954e-05  6.66147836e-01  1.00026954e-05  6.70793130e-01  1.00026954e-05  0.00000000e+00  1.00026954e-05  1.80348302e+00  1.00026954e-05  6.65700851e-01  1.00026954e-05  6.85788056e-01  1.00026954e-05  1.52129556e+00                                 
 1.00030818e-05  7.32647118e-01  1.00030818e-05  6.66227542e-01  1.00030818e-05  6.70925863e-01  1.00030818e-05  0.00000000e+00  1.00030818e-05  1.79700198e+00  1.00030818e-05  6.66358645e-01  1.00030818e-05  6.73469427e-01  1.00030818e-05  1.51956153e+00                                 
 1.00035821e-05  7.32651555e-01  1.00035821e-05  6.66348702e-01  1.00035821e-05  6.70607536e-01  1.00035821e-05  0.00000000e+00  1.00035821e-05  1.80264891e+00  1.00035821e-05  6.68369551e-01  1.00035821e-05  6.71738059e-01  1.00035821e-05  1.51694592e+00                                 
 1.00041173e-05  7.32647398e-01  1.00041173e-05  6.66230755e-01  1.00041173e-05  6.72842886e-01  1.00041173e-05  0.00000000e+00  1.00041173e-05  1.79764754e+00  1.00041173e-05  6.67688497e-01  1.00041173e-05  6.71420793e-01  1.00041173e-05  1.51390333e+00                                 
 1.00051346e-05  7.32651403e-01  1.00051346e-05  6.66200952e-01  1.00051346e-05  6.74989881e-01  1.00051346e-05  0.00000000e+00  1.00051346e-05  1.80221655e+00  1.00051346e-05  6.68716557e-01  1.00051346e-05  6.75036744e-01  1.00051346e-05  1.50780432e+00                                 
 1.00067276e-05  7.32647492e-01  1.00067276e-05  6.66001216e-01  1.00067276e-05  6.80588969e-01  1.00067276e-05  0.00000000e+00  1.00067276e-05  1.79787451e+00  1.00067276e-05  6.67851856e-01  1.00067276e-05  6.78953775e-01  1.00067276e-05  1.49778726e+00                                 
 1.00099135e-05  7.32651335e-01  1.00099135e-05  6.65912863e-01  1.00099135e-05  6.89348691e-01  1.00099135e-05  0.00000000e+00  1.00099135e-05  1.80208884e+00  1.00099135e-05  6.68480535e-01  1.00099135e-05  6.89303958e-01  1.00099135e-05  1.47699777e+00                                 
