 time            v(vbep)         time            v(vben)         time            v(vout)         time            v(vphi1)        time            v(vphi2)        time            v(vref)         yes             currtemp       
 0.00000000e+00  7.71226035e-01  0.00000000e+00  7.26548402e-01  0.00000000e+00  7.55896229e-02  0.00000000e+00  0.00000000e+00  0.00000000e+00  1.79998155e+00  0.00000000e+00  5.00000000e-01  1.00000000e+00 -2.90000000e+01 
 5.00000000e-12  7.71214586e-01  5.00000000e-12  7.26538846e-01  5.00000000e-12  7.60396964e-02  5.00000000e-12  1.80000000e-02  5.00000000e-12  1.80005650e+00  5.00000000e-12  5.00000000e-01                                 
 1.00000000e-11  7.71203261e-01  1.00000000e-11  7.26529465e-01  1.00000000e-11  7.64403409e-02  1.00000000e-11  3.60000000e-02  1.00000000e-11  1.80009183e+00  1.00000000e-11  5.00000000e-01                                 
 2.00000000e-11  7.71180673e-01  2.00000000e-11  7.26510746e-01  2.00000000e-11  7.71709156e-02  2.00000000e-11  7.20000000e-02  2.00000000e-11  1.80012255e+00  2.00000000e-11  5.00000000e-01                                 
 4.00000000e-11  7.71135609e-01  4.00000000e-11  7.26473389e-01  4.00000000e-11  7.83032497e-02  4.00000000e-11  1.44000000e-01  4.00000000e-11  1.80010076e+00  4.00000000e-11  5.00000000e-01                                 
 8.00000000e-11  7.71045706e-01  8.00000000e-11  7.26398832e-01  8.00000000e-11  7.98085542e-02  8.00000000e-11  2.88000000e-01  8.00000000e-11  1.80005761e+00  8.00000000e-11  5.00000000e-01                                 
 1.60000000e-10  7.70866854e-01  1.60000000e-10  7.26250367e-01  1.60000000e-10  8.16618241e-02  1.60000000e-10  5.76000000e-01  1.60000000e-10  1.80002030e+00  1.60000000e-10  5.00000000e-01                                 
 3.20000000e-10  7.70512910e-01  3.20000000e-10  7.25956023e-01  3.20000000e-10  1.18273880e-01  3.20000000e-10  1.15200000e+00  3.20000000e-10  1.79982890e+00  3.20000000e-10  5.00000000e-01                                 
 5.00000000e-10  7.70120751e-01  5.00000000e-10  7.25629058e-01  5.00000000e-10  4.99125243e-01  5.00000000e-10  1.80000000e+00  5.00000000e-10  8.89120747e-02  5.00000000e-10  5.00000000e-01                                 
 5.20724975e-10  7.70076049e-01  5.20724975e-10  7.25591727e-01  5.20724975e-10  5.67445674e-01  5.20724975e-10  1.80000000e+00  5.20724975e-10  1.47786660e-02  5.20724975e-10  5.00000000e-01                                 
 5.62174926e-10  7.69986806e-01  5.62174926e-10  7.25517174e-01  5.62174926e-10  6.88567422e-01  5.62174926e-10  1.80000000e+00  5.62174926e-10 -7.11411262e-03  5.62174926e-10  5.00000000e-01                                 
 6.45074826e-10  7.69809298e-01  6.45074826e-10  7.25368752e-01  6.45074826e-10  8.68856478e-01  6.45074826e-10  1.80000000e+00  6.45074826e-10  6.28620051e-03  6.45074826e-10  5.00000000e-01                                 
 7.70071401e-10  7.69544104e-01  7.70071401e-10  7.25146681e-01  7.70071401e-10  1.07218668e+00  7.70071401e-10  1.80000000e+00  7.70071401e-10 -5.60420763e-03  7.70071401e-10  5.00000000e-01                                 
 9.57326094e-10  7.69152233e-01  9.57326094e-10  7.24817811e-01  9.57326094e-10  1.31984702e+00  9.57326094e-10  1.80000000e+00  9.57326094e-10  5.36522018e-03  9.57326094e-10  5.00000000e-01                                 
 1.32847885e-09  7.68393984e-01  1.32847885e-09  7.24179067e-01  1.32847885e-09  1.66503767e+00  1.32847885e-09  1.80000000e+00  1.32847885e-09 -5.12510683e-03  1.32847885e-09  5.00000000e-01                                 
 2.01203697e-09  7.67057393e-01  2.01203697e-09  7.23045627e-01  2.01203697e-09  1.89708702e+00  2.01203697e-09  1.80000000e+00  2.01203697e-09  5.10762967e-03  2.01203697e-09  5.00000000e-01                                 
 2.24986009e-09  7.66609733e-01  2.24986009e-09  7.22663820e-01  2.24986009e-09  1.91146199e+00  2.24986009e-09  1.80000000e+00  2.24986009e-09 -4.81369284e-03  2.24986009e-09  5.00000000e-01                                 
 2.54777951e-09  7.66060611e-01  2.54777951e-09  7.22194052e-01  2.54777951e-09  1.91884727e+00  2.54777951e-09  1.80000000e+00  2.54777951e-09  4.68278577e-03  2.54777951e-09  5.00000000e-01                                 
 2.89348409e-09  7.65438956e-01  2.89348409e-09  7.21660365e-01  2.89348409e-09  1.92463693e+00  2.89348409e-09  1.80000000e+00  2.89348409e-09 -4.49619649e-03  2.89348409e-09  5.00000000e-01                                 
 3.58489323e-09  7.64242164e-01  3.58489323e-09  7.20627538e-01  3.58489323e-09  1.92952955e+00  3.58489323e-09  1.80000000e+00  3.58489323e-09  4.45809020e-03  3.58489323e-09  5.00000000e-01                                 
 4.96771153e-09  7.62013852e-01  4.96771153e-09  7.18686531e-01  4.96771153e-09  1.92372129e+00  4.96771153e-09  1.80000000e+00  4.96771153e-09 -4.39667934e-03  4.96771153e-09  5.00000000e-01                                 
 7.08114104e-09  7.58965102e-01  7.08114104e-09  7.15994935e-01  7.08114104e-09  1.90951642e+00  7.08114104e-09  1.80000000e+00  7.08114104e-09  4.40522277e-03  7.08114104e-09  5.00000000e-01                                 
 9.08396623e-09  7.56400182e-01  9.08396623e-09  7.13699827e-01  9.08396623e-09  1.89893452e+00  9.08396623e-09  1.80000000e+00  9.08396623e-09 -4.34947089e-03  9.08396623e-09  5.00000000e-01                                 
 1.05257336e-08  7.54713235e-01  1.05257336e-08  7.12176193e-01  1.05257336e-08  1.89276662e+00  1.05257336e-08  1.80000000e+00  1.05257336e-08  4.34112149e-03  1.05257336e-08  5.00000000e-01                                 
 1.23882845e-08  7.52700625e-01  1.23882845e-08  7.10344795e-01  1.23882845e-08  1.88625415e+00  1.23882845e-08  1.80000000e+00  1.23882845e-08 -4.29356713e-03  1.23882845e-08  5.00000000e-01                                 
 1.51108001e-08  7.50048277e-01  1.51108001e-08  7.07909164e-01  1.51108001e-08  1.87821439e+00  1.51108001e-08  1.80000000e+00  1.51108001e-08  4.29511865e-03  1.51108001e-08  5.00000000e-01                                 
 1.85409686e-08  7.47113852e-01  1.85409686e-08  7.05185119e-01  1.85409686e-08  1.86999555e+00  1.85409686e-08  1.80000000e+00  1.85409686e-08 -4.26359272e-03  1.85409686e-08  5.00000000e-01                                 
 2.42107057e-08  7.42999981e-01  2.42107057e-08  7.01318665e-01  2.42107057e-08  1.85860499e+00  2.42107057e-08  1.80000000e+00  2.42107057e-08  4.27227183e-03  2.42107057e-08  5.00000000e-01                                 
 3.20754008e-08  7.38251338e-01  3.20754008e-08  6.96810298e-01  3.20754008e-08  1.84544466e+00  3.20754008e-08  1.80000000e+00  3.20754008e-08 -4.24932559e-03  3.20754008e-08  5.00000000e-01                                 
 4.78047911e-08  7.30354088e-01  4.78047911e-08  6.89311469e-01  4.78047911e-08  1.82206980e+00  4.78047911e-08  1.80000000e+00  4.78047911e-08  4.26327156e-03  4.78047911e-08  5.00000000e-01                                 
 7.48477633e-08  7.19944838e-01  7.48477633e-08  6.79441245e-01  7.48477633e-08  1.78728402e+00  7.48477633e-08  1.80000000e+00  7.48477633e-08 -4.24457007e-03  7.48477633e-08  5.00000000e-01                                 
 1.13782255e-07  7.09353725e-01  1.13782255e-07  6.69371974e-01  1.13782255e-07  1.74268687e+00  1.13782255e-07  1.80000000e+00  1.13782255e-07  4.26040693e-03  1.13782255e-07  5.00000000e-01                                 
 1.54320246e-07  7.01116257e-01  1.54320246e-07  6.61566024e-01  1.54320246e-07  1.69810805e+00  1.54320246e-07  1.80000000e+00  1.54320246e-07 -4.24216282e-03  1.54320246e-07  5.00000000e-01                                 
 2.33120102e-07  6.88895501e-01  2.33120102e-07  6.50074128e-01  2.33120102e-07  1.61264324e+00  2.33120102e-07  1.80000000e+00  2.33120102e-07  4.25867683e-03  2.33120102e-07  5.00000000e-01                                 
 3.06846391e-07  6.80104329e-01  3.06846391e-07  6.41904080e-01  3.06846391e-07  1.53335255e+00  3.06846391e-07  1.80000000e+00  3.06846391e-07 -4.24089074e-03  3.06846391e-07  5.00000000e-01                                 
 4.54298969e-07  6.65989114e-01  4.54298969e-07  6.28989988e-01  4.54298969e-07  1.37460953e+00  4.54298969e-07  1.80000000e+00  4.54298969e-07  4.25775978e-03  4.54298969e-07  5.00000000e-01                                 
 7.49204123e-07  6.44318033e-01  7.49204123e-07  6.09689886e-01  7.49204123e-07  1.04820545e+00  7.49204123e-07  1.80000000e+00  7.49204123e-07 -4.24027255e-03  7.49204123e-07  5.00000000e-01                                 
 1.25848593e-06  6.17438292e-01  1.25848593e-06  5.86446123e-01  1.25848593e-06  6.96184265e-01  1.25848593e-06  1.80000000e+00  1.25848593e-06  4.25752790e-03  1.25848593e-06  5.00000000e-01                                 
 1.74735634e-06  6.00184482e-01  1.74735634e-06  5.71763757e-01  1.74735634e-06  5.33854355e-01  1.74735634e-06  1.80000000e+00  1.74735634e-06 -4.24022895e-03  1.74735634e-06  5.00000000e-01                                 
 1.77273009e-06  5.99477182e-01  1.77273009e-06  5.71163184e-01  1.77273009e-06  5.29240971e-01  1.77273009e-06  1.80000000e+00  1.77273009e-06 -4.33178648e-07  1.77273009e-06  5.00000000e-01                                 
 1.82347758e-06  5.98090911e-01  1.82347758e-06  5.69985850e-01  1.82347758e-06  5.21654019e-01  1.82347758e-06  1.80000000e+00  1.82347758e-06  4.30417748e-07  1.82347758e-06  5.00000000e-01                                 
 1.92497256e-06  5.95489909e-01  1.92497256e-06  5.67775082e-01  1.92497256e-06  5.12777870e-01  1.92497256e-06  1.80000000e+00  1.92497256e-06 -4.32146281e-07  1.92497256e-06  5.00000000e-01                                 
 2.12796252e-06  5.90989956e-01  2.12796252e-06  5.63937884e-01  2.12796252e-06  5.04509177e-01  2.12796252e-06  1.80000000e+00  2.12796252e-06  4.30612577e-07  2.12796252e-06  5.00000000e-01                                 
 2.34874227e-06  5.87290168e-01  2.34874227e-06  5.60747192e-01  2.34874227e-06  5.00539431e-01  2.34874227e-06  1.80000000e+00  2.34874227e-06 -4.28486253e-07  2.34874227e-06  5.00000000e-01                                 
 2.75795610e-06  5.85436266e-01  2.75795610e-06  5.58880616e-01  2.75795610e-06  4.98984469e-01  2.75795610e-06  1.80000000e+00  2.75795610e-06  4.38695609e-07  2.75795610e-06  5.00000000e-01                                 
 2.81556846e-06  5.85960048e-01  2.81556846e-06  5.59249220e-01  2.81556846e-06  4.99517956e-01  2.81556846e-06  1.80000000e+00  2.81556846e-06  9.63054722e-09  2.81556846e-06  5.00000000e-01                                 
 2.93079317e-06  5.87659292e-01  2.93079317e-06  5.60508378e-01  2.93079317e-06  5.01195964e-01  2.93079317e-06  1.80000000e+00  2.93079317e-06  1.33177926e-08  2.93079317e-06  5.00000000e-01                                 
 3.16124261e-06  5.99750915e-01  3.16124261e-06  5.69978351e-01  3.16124261e-06  5.10157038e-01  3.16124261e-06  1.80000000e+00  3.16124261e-06  3.45944301e-08  3.16124261e-06  5.00000000e-01                                 
 3.21293897e-06  6.06202636e-01  3.21293897e-06  5.75092023e-01  3.21293897e-06  5.13549409e-01  3.21293897e-06  1.80000000e+00  3.21293897e-06  4.80399083e-08  3.21293897e-06  5.00000000e-01                                 
 3.31633169e-06  6.30463272e-01  3.31633169e-06  5.94405675e-01  3.31633169e-06  5.25330183e-01  3.31633169e-06  1.80000000e+00  3.31633169e-06  1.22702704e-07  3.31633169e-06  5.00000000e-01                                 
 3.34217987e-06  6.43482724e-01  3.34217987e-06  6.04801661e-01  3.34217987e-06  5.31954910e-01  3.34217987e-06  1.80000000e+00  3.34217987e-06  1.78270618e-07  3.34217987e-06  5.00000000e-01                                 
 3.39387624e-06  6.90303705e-01  3.39387624e-06  6.42478843e-01  3.39387624e-06  5.58755323e-01  3.39387624e-06  1.80000000e+00  3.39387624e-06  4.71500207e-07  3.39387624e-06  5.00000000e-01                                 
 3.40680033e-06  7.13519751e-01  3.40680033e-06  6.61600205e-01  3.40680033e-06  5.73306866e-01  3.40680033e-06  1.80000000e+00  3.40680033e-06  6.68710798e-07  3.40680033e-06  5.00000000e-01                                 
 3.43264851e-06  7.69631530e-01  3.43264851e-06  7.15206690e-01  3.43264851e-06  6.09158220e-01  3.43264851e-06  1.80000000e+00  3.43264851e-06  1.15106936e-06  3.43264851e-06  5.00000000e-01                                 
 3.48434487e-06  8.41891171e-01  3.48434487e-06  7.95797267e-01  3.48434487e-06  6.50917303e-01  3.48434487e-06  1.80000000e+00  3.48434487e-06  3.57865101e-07  3.48434487e-06  5.00000000e-01                                 
 3.53340088e-06  9.02495467e-01  3.53340088e-06  8.48925460e-01  3.53340088e-06  6.83309027e-01  3.53340088e-06  1.80000000e+00  3.53340088e-06  8.66334286e-07  3.53340088e-06  5.00000000e-01                                 
 3.58331620e-06  9.45782178e-01  3.58331620e-06  8.77690558e-01  3.58331620e-06  6.99145235e-01  3.58331620e-06  1.80000000e+00  3.58331620e-06  7.63751354e-08  3.58331620e-06  5.00000000e-01                                 
 3.61740496e-06  9.43247881e-01  3.61740496e-06  8.76464910e-01  3.61740496e-06  6.84246607e-01  3.61740496e-06  1.80000000e+00  3.61740496e-06 -6.23000638e-08  3.61740496e-06  5.00000000e-01                                 
 3.65416947e-06  9.42730147e-01  3.65416947e-06  8.75884794e-01  3.65416947e-06  6.71928743e-01  3.65416947e-06  1.80000000e+00  3.65416947e-06  7.00169758e-08  3.65416947e-06  5.00000000e-01                                 
 3.69246797e-06  9.43520924e-01  3.69246797e-06  8.76603979e-01  3.69246797e-06  6.57896836e-01  3.69246797e-06  1.80000000e+00  3.69246797e-06 -5.93534401e-08  3.69246797e-06  5.00000000e-01                                 
 3.76906496e-06  9.40595557e-01  3.76906496e-06  8.74633389e-01  3.76906496e-06  6.32383310e-01  3.76906496e-06  1.80000000e+00  3.76906496e-06  6.27146941e-08  3.76906496e-06  5.00000000e-01                                 
 3.84226569e-06  9.41422934e-01  3.84226569e-06  8.75340110e-01  3.84226569e-06  6.08866304e-01  3.84226569e-06  1.80000000e+00  3.84226569e-06 -5.90006187e-08  3.84226569e-06  5.00000000e-01                                 
 3.93525248e-06  9.37803306e-01  3.93525248e-06  8.72957708e-01  3.93525248e-06  5.80971873e-01  3.93525248e-06  1.80000000e+00  3.93525248e-06  5.92346263e-08  3.93525248e-06  5.00000000e-01                                 
 4.05791815e-06  9.37591229e-01  4.05791815e-06  8.73012568e-01  4.05791815e-06  5.47804296e-01  4.05791815e-06  1.80000000e+00  4.05791815e-06 -5.80924263e-08  4.05791815e-06  5.00000000e-01                                 
 4.20328654e-06  9.32361353e-01  4.20328654e-06  8.69584990e-01  4.20328654e-06  5.21493976e-01  4.20328654e-06  1.80000000e+00  4.20328654e-06  6.23540369e-08  4.20328654e-06  5.00000000e-01                                 
 4.41065027e-06  9.28667135e-01  4.41065027e-06  8.67407428e-01  4.41065027e-06  5.05621333e-01  4.41065027e-06  1.80000000e+00  4.41065027e-06 -6.79510430e-08  4.41065027e-06  5.00000000e-01                                 
 4.44764307e-06  9.26282378e-01  4.44764307e-06  8.65773626e-01  4.44764307e-06  5.04303294e-01  4.44764307e-06  1.80000000e+00  4.44764307e-06 -1.28063535e-08  4.44764307e-06  5.00000000e-01                                 
 4.52162869e-06  9.23363696e-01  4.52162869e-06  8.63837009e-01  4.52162869e-06  5.01552436e-01  4.52162869e-06  1.80000000e+00  4.52162869e-06 -1.50574055e-08  4.52162869e-06  5.00000000e-01                                 
 4.65192617e-06  9.17065409e-01  4.65192617e-06  8.59572364e-01  4.65192617e-06  4.95556459e-01  4.65192617e-06  1.80000000e+00  4.65192617e-06 -2.26616511e-08  4.65192617e-06  5.00000000e-01                                 
 4.78657941e-06  9.07241437e-01  4.78657941e-06  8.52560040e-01  4.78657941e-06  4.86545240e-01  4.78657941e-06  1.80000000e+00  4.78657941e-06 -4.09837981e-08  4.78657941e-06  5.00000000e-01                                 
 4.82024272e-06  9.04011206e-01  4.82024272e-06  8.50171140e-01  4.82024272e-06  4.83554459e-01  4.82024272e-06  1.80000000e+00  4.82024272e-06 -4.49296017e-08  4.82024272e-06  5.00000000e-01                                 
 4.88756934e-06  8.96730038e-01  4.88756934e-06  8.44601428e-01  4.88756934e-06  4.76965724e-01  4.88756934e-06  1.80000000e+00  4.88756934e-06 -5.75009354e-08  4.88756934e-06  5.00000000e-01                                 
 5.02222257e-06  8.80615367e-01  5.02222257e-06  8.31430598e-01  5.02222257e-06  4.76845047e-01  5.02222257e-06  1.80000000e+00  5.02222257e-06 -5.09433755e-08  5.02222257e-06  5.00000000e-01                                 
 5.16101594e-06  8.68998502e-01  5.16101594e-06  8.21264923e-01  5.16101594e-06  4.83840161e-01  5.16101594e-06  1.80000000e+00  5.16101594e-06 -3.44206904e-08  5.16101594e-06  5.00000000e-01                                 
 5.35551757e-06  8.65159901e-01  5.35551757e-06  8.17798636e-01  5.35551757e-06  4.89761361e-01  5.35551757e-06  1.80000000e+00  5.35551757e-06  2.34224206e-08  5.35551757e-06  5.00000000e-01                                 
 5.55791857e-06  8.65615608e-01  5.55791857e-06  8.18212122e-01  5.55791857e-06  4.96359962e-01  5.55791857e-06  1.80000000e+00  5.55791857e-06 -6.54094531e-09  5.55791857e-06  5.00000000e-01                                 
 5.90813190e-06  8.65501366e-01  5.90813190e-06  8.18109043e-01  5.90813190e-06  5.02292936e-01  5.90813190e-06  1.80000000e+00  5.90813190e-06  1.89927699e-08  5.90813190e-06  5.00000000e-01                                 
 6.39817827e-06  8.65560536e-01  6.39817827e-06  8.18162101e-01  6.39817827e-06  5.02481199e-01  6.39817827e-06  1.80000000e+00  6.39817827e-06 -5.14673631e-09  6.39817827e-06  5.00000000e-01                                 
 6.97894538e-06  8.65522252e-01  6.97894538e-06  8.18128021e-01  6.97894538e-06  5.02434401e-01  6.97894538e-06  1.80000000e+00  6.97894538e-06  1.85144305e-08  6.97894538e-06  5.00000000e-01                                 
 7.80900345e-06  8.65550339e-01  7.80900345e-06  8.18152837e-01  7.80900345e-06  5.02384708e-01  7.80900345e-06  1.80000000e+00  7.80900345e-06 -4.83427577e-09  7.80900345e-06  5.00000000e-01                                 
 8.80900345e-06  8.65527506e-01  8.80900345e-06  8.18132795e-01  8.80900345e-06  5.01801608e-01  8.80900345e-06  1.80000000e+00  8.80900345e-06  1.83034413e-08  8.80900345e-06  5.00000000e-01                                 
 9.80900345e-06  8.65546758e-01  9.80900345e-06  8.18149583e-01  9.80900345e-06  5.01618912e-01  9.80900345e-06  1.80000000e+00  9.80900345e-06 -4.64993644e-09  9.80900345e-06  5.00000000e-01                                 
 1.00005000e-05  8.65533588e-01  1.00005000e-05  8.18138323e-01  1.00005000e-05  5.01443751e-01  1.00005000e-05  1.80000000e+00  1.00005000e-05  1.77800945e-08  1.00005000e-05  5.00000000e-01                                 
 1.00005500e-05  8.65533215e-01  1.00005500e-05  8.18137932e-01  1.00005500e-05  4.93488472e-01  1.00005500e-05  1.62000000e+00  1.00005500e-05 -5.99637376e-05  1.00005500e-05  5.00000000e-01                                 
 1.00006500e-05  8.65532450e-01  1.00006500e-05  8.18137206e-01  1.00006500e-05  4.80109969e-01  1.00006500e-05  1.26000000e+00  1.00006500e-05 -3.99563608e-05  1.00006500e-05  5.00000000e-01                                 
 1.00008500e-05  8.65531295e-01  1.00008500e-05  8.18136134e-01  1.00008500e-05  4.80098636e-01  1.00008500e-05  5.40000000e-01  1.00008500e-05  4.17374261e-05  1.00008500e-05  5.00000000e-01                                 
 1.00010000e-05  8.65530620e-01  1.00010000e-05  8.18135512e-01  1.00010000e-05  4.46433915e-01  1.00010000e-05  0.00000000e+00  1.00010000e-05  1.54134941e+00  1.00010000e-05  5.00000000e-01                                 
