 time            v(vbep)         time            v(vben)         time            v(vout)         time            v(vphi1)        time            v(vphi2)        time            v(vref)         yes             currtemp       
 0.00000000e+00  7.09888563e-01  0.00000000e+00  6.57554793e-01  0.00000000e+00  6.05355967e-01  0.00000000e+00  0.00000000e+00  0.00000000e+00  1.79995702e+00  0.00000000e+00  6.57554793e-01  1.00000000e+00  1.30000000e+01 
 5.00000000e-12  7.09864861e-01  5.00000000e-12  6.57535101e-01  5.00000000e-12  6.05918634e-01  5.00000000e-12  1.80000000e-02  5.00000000e-12  1.80006584e+00  5.00000000e-12  6.57535101e-01                                 
 1.00000000e-11  7.09841691e-01  1.00000000e-11  6.57515883e-01  1.00000000e-11  6.06398221e-01  1.00000000e-11  3.60000000e-02  1.00000000e-11  1.80012886e+00  1.00000000e-11  6.57515883e-01                                 
 2.00000000e-11  7.09795661e-01  2.00000000e-11  6.57477582e-01  2.00000000e-11  6.07225706e-01  2.00000000e-11  7.20000000e-02  2.00000000e-11  1.80019667e+00  2.00000000e-11  6.57477582e-01                                 
 4.00000000e-11  7.09704141e-01  4.00000000e-11  6.57401249e-01  4.00000000e-11  6.08330693e-01  4.00000000e-11  1.44000000e-01  4.00000000e-11  1.80018096e+00  4.00000000e-11  6.57401249e-01                                 
 8.00000000e-11  7.09521915e-01  8.00000000e-11  6.57249195e-01  8.00000000e-11  6.09423250e-01  8.00000000e-11  2.88000000e-01  8.00000000e-11  1.80010005e+00  8.00000000e-11  6.57249195e-01                                 
 1.60000000e-10  7.09160954e-01  1.60000000e-10  6.56947532e-01  1.60000000e-10  6.10223141e-01  1.60000000e-10  5.76000000e-01  1.60000000e-10  1.80004158e+00  1.60000000e-10  6.56947532e-01                                 
 3.20000000e-10  7.08452261e-01  3.20000000e-10  6.56353666e-01  3.20000000e-10  6.02090826e-01  3.20000000e-10  1.15200000e+00  3.20000000e-10  1.80017068e+00  3.20000000e-10  6.56353666e-01                                 
 5.00000000e-10  7.07675375e-01  5.00000000e-10  6.55700147e-01  5.00000000e-10  7.42582307e-01  5.00000000e-10  1.80000000e+00  5.00000000e-10  1.39332922e-01  5.00000000e-10  6.55700147e-01                                 
 5.21046854e-10  7.07586055e-01  5.21046854e-10  6.55624829e-01  5.21046854e-10  7.76712011e-01  5.21046854e-10  1.80000000e+00  5.21046854e-10  3.11405910e-02  5.21046854e-10  6.55624829e-01                                 
 5.63140562e-10  7.07407962e-01  5.63140562e-10  6.55474582e-01  5.63140562e-10  8.41002914e-01  5.63140562e-10  1.80000000e+00  5.63140562e-10 -1.25261222e-02  5.63140562e-10  6.55474582e-01                                 
 6.47327977e-10  7.07055078e-01  6.47327977e-10  6.55176476e-01  6.47327977e-10  9.51612523e-01  6.47327977e-10  1.80000000e+00  6.47327977e-10  1.10600892e-02  6.47327977e-10  6.55176476e-01                                 
 7.65744534e-10  7.06565998e-01  7.65744534e-10  6.54762448e-01  7.65744534e-10  1.08995474e+00  7.65744534e-10  1.80000000e+00  7.65744534e-10 -8.49655753e-03  7.65744534e-10  6.54762448e-01                                 
 9.49660281e-10  7.05822615e-01  9.49660281e-10  6.54131235e-01  9.49660281e-10  1.27835196e+00  9.49660281e-10  1.80000000e+00  9.49660281e-10  8.73131640e-03  9.49660281e-10  6.54131235e-01                                 
 1.31749177e-09  7.04391260e-01  1.31749177e-09  6.52909536e-01  1.31749177e-09  1.55214454e+00  1.31749177e-09  1.80000000e+00  1.31749177e-09 -7.49973864e-03  1.31749177e-09  6.52909536e-01                                 
 1.86658530e-09  7.02379841e-01  1.86658530e-09  6.51178942e-01  1.86658530e-09  1.75280180e+00  1.86658530e-09  1.80000000e+00  1.86658530e-09  7.70473324e-03  1.86658530e-09  6.51178942e-01                                 
 2.17255399e-09  7.01319029e-01  2.17255399e-09  6.50259653e-01  2.17255399e-09  1.79095339e+00  2.17255399e-09  1.80000000e+00  2.17255399e-09 -7.07769491e-03  2.17255399e-09  6.50259653e-01                                 
 2.53177547e-09  7.00122540e-01  2.53177547e-09  6.49217626e-01  2.53177547e-09  1.81102117e+00  2.53177547e-09  1.80000000e+00  2.53177547e-09  6.83544554e-03  2.53177547e-09  6.49217626e-01                                 
 2.93079946e-09  6.98850663e-01  2.93079946e-09  6.48104070e-01  2.93079946e-09  1.81858262e+00  2.93079946e-09  1.80000000e+00  2.93079946e-09 -6.47353980e-03  2.93079946e-09  6.48104070e-01                                 
 3.60335835e-09  6.96828556e-01  3.60335835e-09  6.46321787e-01  3.60335835e-09  1.82125611e+00  3.60335835e-09  1.80000000e+00  3.60335835e-09  6.34118721e-03  3.60335835e-09  6.46321787e-01                                 
 4.40098615e-09  6.94605706e-01  4.40098615e-09  6.44346142e-01  4.40098615e-09  1.81920259e+00  4.40098615e-09  1.80000000e+00  4.40098615e-09 -6.17087040e-03  4.40098615e-09  6.44346142e-01                                 
 5.85737540e-09  6.90947685e-01  5.85737540e-09  6.41060768e-01  5.85737540e-09  1.81574704e+00  5.85737540e-09  1.80000000e+00  5.85737540e-09  6.12074660e-03  5.85737540e-09  6.41060768e-01                                 
 8.14761441e-09  6.86005913e-01  8.14761441e-09  6.36560563e-01  8.14761441e-09  1.81033533e+00  8.14761441e-09  1.80000000e+00  8.14761441e-09 -6.04834811e-03  8.14761441e-09  6.36560563e-01                                 
 1.27280924e-08  6.78063963e-01  1.27280924e-08  6.29209431e-01  1.27280924e-08  1.80146892e+00  1.27280924e-08  1.80000000e+00  1.27280924e-08  6.05213859e-03  1.27280924e-08  6.29209431e-01                                 
 1.54754047e-08  6.74186438e-01  1.54754047e-08  6.25572713e-01  1.54754047e-08  1.79623202e+00  1.54754047e-08  1.80000000e+00  1.54754047e-08 -5.98782514e-03  1.54754047e-08  6.25572713e-01                                 
 1.69576673e-08  6.72276176e-01  1.69576673e-08  6.23774434e-01  1.69576673e-08  1.79416805e+00  1.69576673e-08  1.80000000e+00  1.69576673e-08  5.93794236e-03  1.69576673e-08  6.23774434e-01                                 
 1.87124572e-08  6.70142327e-01  1.87124572e-08  6.21762715e-01  1.87124572e-08  1.79105655e+00  1.87124572e-08  1.80000000e+00  1.87124572e-08 -5.85521304e-03  1.87124572e-08  6.21762715e-01                                 
 2.05529076e-08  6.68030554e-01  2.05529076e-08  6.19770027e-01  2.05529076e-08  1.78839668e+00  2.05529076e-08  1.80000000e+00  2.05529076e-08  5.81939814e-03  2.05529076e-08  6.19770027e-01                                 
 2.34460005e-08  6.64925062e-01  2.34460005e-08  6.16839012e-01  2.34460005e-08  1.78330644e+00  2.34460005e-08  1.80000000e+00  2.34460005e-08 -5.76245881e-03  2.34460005e-08  6.16839012e-01                                 
 2.65483863e-08  6.61838879e-01  2.65483863e-08  6.13927570e-01  2.65483863e-08  1.77800268e+00  2.65483863e-08  1.80000000e+00  2.65483863e-08  5.74968705e-03  2.65483863e-08  6.13927570e-01                                 
 3.20188062e-08  6.56874820e-01  3.20188062e-08  6.09252365e-01  3.20188062e-08  1.76681092e+00  3.20188062e-08  1.80000000e+00  3.20188062e-08 -5.71054049e-03  3.20188062e-08  6.09252365e-01                                 
 3.77340258e-08  6.52205422e-01  3.77340258e-08  6.04868293e-01  3.77340258e-08  1.75386757e+00  3.77340258e-08  1.80000000e+00  3.77340258e-08  5.71277917e-03  3.77340258e-08  6.04868293e-01                                 
 4.91644650e-08  6.43993076e-01  4.91644650e-08  5.97197126e-01  4.91644650e-08  1.72958087e+00  4.91644650e-08  1.80000000e+00  4.91644650e-08 -5.68348084e-03  4.91644650e-08  5.97197126e-01                                 
 6.83887643e-08  6.32799458e-01  6.83887643e-08  5.86794870e-01  6.83887643e-08  1.69113966e+00  6.83887643e-08  1.80000000e+00  6.83887643e-08  5.69899573e-03  6.83887643e-08  5.86794870e-01                                 
 9.24093094e-08  6.24183335e-01  9.24093094e-08  5.78514058e-01  9.24093094e-08  1.65364344e+00  9.24093094e-08  1.80000000e+00  9.24093094e-08 -5.67304389e-03  9.24093094e-08  5.78514058e-01                                 
 1.19040180e-07  6.26952916e-01  1.19040180e-07  5.79413389e-01  1.19040180e-07  1.65446098e+00  1.19040180e-07  1.80000000e+00  1.19040180e-07  5.69359963e-03  1.19040180e-07  5.79413389e-01                                 
 1.38284288e-07  6.26911663e-01  1.38284288e-07  5.78598586e-01  1.38284288e-07  1.63605888e+00  1.38284288e-07  1.80000000e+00  1.38284288e-07 -5.66538585e-03  1.38284288e-07  5.78598586e-01                                 
 1.56868471e-07  6.21558423e-01  1.56868471e-07  5.73701179e-01  1.56868471e-07  1.61244597e+00  1.56868471e-07  1.80000000e+00  1.56868471e-07  5.68211885e-03  1.56868471e-07  5.73701179e-01                                 
 1.73740516e-07  6.17276179e-01  1.73740516e-07  5.69768632e-01  1.73740516e-07  1.58895677e+00  1.73740516e-07  1.80000000e+00  1.73740516e-07 -5.65416700e-03  1.73740516e-07  5.69768632e-01                                 
 1.91847049e-07  6.12040993e-01  1.91847049e-07  5.65094163e-01  1.91847049e-07  1.56836086e+00  1.91847049e-07  1.80000000e+00  1.91847049e-07  5.67084705e-03  1.91847049e-07  5.65094163e-01                                 
 2.21787802e-07  6.03412335e-01  2.21787802e-07  5.57488632e-01  2.21787802e-07  1.52833122e+00  2.21787802e-07  1.80000000e+00  2.21787802e-07 -5.64544604e-03  2.21787802e-07  5.57488632e-01                                 
 2.63706499e-07  5.91982578e-01  2.63706499e-07  5.47537473e-01  2.63706499e-07  1.47779690e+00  2.63706499e-07  1.80000000e+00  2.63706499e-07  5.66530988e-03  2.63706499e-07  5.47537473e-01                                 
 3.36883659e-07  5.71957386e-01  3.36883659e-07  5.30503169e-01  3.36883659e-07  1.38277695e+00  3.36883659e-07  1.80000000e+00  3.36883659e-07 -5.64180278e-03  3.36883659e-07  5.30503169e-01                                 
 4.83237977e-07  5.21678846e-01  4.83237977e-07  4.89339901e-01  4.83237977e-07  1.18835398e+00  4.83237977e-07  1.80000000e+00  4.83237977e-07  5.66314144e-03  4.83237977e-07  4.89339901e-01                                 
 5.19826557e-07  5.05440052e-01  5.19826557e-07  4.76316935e-01  5.19826557e-07  1.13322148e+00  5.19826557e-07  1.80000000e+00  5.19826557e-07 -2.99007054e-07  5.19826557e-07  4.76316935e-01                                 
 5.93003716e-07  5.01556641e-01  5.93003716e-07  4.73171504e-01  5.93003716e-07  1.05248987e+00  5.93003716e-07  1.80000000e+00  5.93003716e-07 -5.26595043e-07  5.93003716e-07  4.73171504e-01                                 
 6.11298006e-07  5.38667850e-01  6.11298006e-07  5.02809869e-01  6.11298006e-07  1.06965516e+00  6.11298006e-07  1.80000000e+00  6.11298006e-07  2.48466833e-06  6.11298006e-07  5.02809869e-01                                 
 6.47886586e-07  7.23797792e-01  6.47886586e-07  6.67128657e-01  6.47886586e-07  1.21105843e+00  6.47886586e-07  1.80000000e+00  6.47886586e-07  1.29834378e-05  6.47886586e-07  6.67128657e-01                                 
 6.91297048e-07  7.94870055e-01  6.91297048e-07  7.39523628e-01  6.91297048e-07  1.23901696e+00  6.91297048e-07  1.80000000e+00  6.91297048e-07 -7.01702165e-06  6.91297048e-07  7.39523628e-01                                 
 7.39738976e-07  8.18637043e-01  7.39738976e-07  7.60541479e-01  7.39738976e-07  1.20757189e+00  7.39738976e-07  1.80000000e+00  7.39738976e-07  8.11246499e-06  7.39738976e-07  7.60541479e-01                                 
 7.92045889e-07  8.22704404e-01  7.92045889e-07  7.64016985e-01  7.92045889e-07  1.16241290e+00  7.92045889e-07  1.80000000e+00  7.92045889e-07 -8.35812855e-06  7.92045889e-07  7.64016985e-01                                 
 7.99399837e-07  8.22642331e-01  7.99399837e-07  7.63948008e-01  7.99399837e-07  1.15259698e+00  7.99399837e-07  1.80000000e+00  7.99399837e-07 -5.78233531e-07  7.99399837e-07  7.63948008e-01                                 
 8.14107733e-07  8.23637396e-01  8.14107733e-07  7.64764268e-01  8.14107733e-07  1.13771349e+00  8.14107733e-07  1.80000000e+00  8.14107733e-07  1.08367216e-07  8.14107733e-07  7.64764268e-01                                 
 8.43523525e-07  8.26762282e-01  8.43523525e-07  7.67350338e-01  8.43523525e-07  1.11049909e+00  8.43523525e-07  1.80000000e+00  8.43523525e-07 -3.64007570e-07  8.43523525e-07  7.67350338e-01                                 
 8.84144707e-07  8.11732223e-01  8.84144707e-07  7.54692089e-01  8.84144707e-07  1.05356461e+00  8.84144707e-07  1.80000000e+00  8.84144707e-07 -1.71420519e-06  8.84144707e-07  7.54692089e-01                                 
 8.89443942e-07  8.06809814e-01  8.89443942e-07  7.50365950e-01  8.89443942e-07  1.04342192e+00  8.89443942e-07  1.80000000e+00  8.89443942e-07 -2.10198810e-06  8.89443942e-07  7.50365950e-01                                 
 9.00042413e-07  7.98260448e-01  9.00042413e-07  7.42665320e-01  9.00042413e-07  1.02396297e+00  9.00042413e-07  1.80000000e+00  9.00042413e-07 -1.68779463e-06  9.00042413e-07  7.42665320e-01                                 
 9.21239354e-07  7.92403322e-01  9.21239354e-07  7.37246410e-01  9.21239354e-07  9.96057016e-01  9.21239354e-07  1.80000000e+00  9.21239354e-07 -3.22247507e-08  9.21239354e-07  7.37246410e-01                                 
 9.63633238e-07  8.01655013e-01  9.63633238e-07  7.45682788e-01  9.63633238e-07  9.64531883e-01  9.63633238e-07  1.80000000e+00  9.63633238e-07  3.38940215e-07  9.63633238e-07  7.45682788e-01                                 
 1.00399849e-06  8.10525019e-01  1.00399849e-06  7.53576096e-01  1.00399849e-06  9.38103725e-01  1.00399849e-06  1.80000000e+00  1.00399849e-06  6.42778150e-08  1.00399849e-06  7.53576096e-01                                 
 1.07625435e-06  8.07413963e-01  1.07625435e-06  7.50857845e-01  1.07625435e-06  8.82056743e-01  1.07625435e-06  1.80000000e+00  1.07625435e-06 -5.17568451e-07  1.07625435e-06  7.50857845e-01                                 
 1.16215377e-06  8.00218884e-01  1.16215377e-06  7.44401883e-01  1.16215377e-06  8.21903598e-01  1.16215377e-06  1.80000000e+00  1.16215377e-06  4.56319189e-08  1.16215377e-06  7.44401883e-01                                 
 1.26741505e-06  8.09133972e-01  1.26741505e-06  7.52356842e-01  1.26741505e-06  7.85651261e-01  1.26741505e-06  1.80000000e+00  1.26741505e-06  2.84553235e-07  1.26741505e-06  7.52356842e-01                                 
 1.39654562e-06  8.04259790e-01  1.39654562e-06  7.48051512e-01  1.39654562e-06  7.54240097e-01  1.39654562e-06  1.80000000e+00  1.39654562e-06 -2.37991189e-07  1.39654562e-06  7.48051512e-01                                 
 1.53463448e-06  8.03837034e-01  1.53463448e-06  7.47651802e-01  1.53463448e-06  7.41268415e-01  1.53463448e-06  1.80000000e+00  1.53463448e-06  4.88471423e-07  1.53463448e-06  7.47651802e-01                                 
 1.69130106e-06  8.08568565e-01  1.69130106e-06  7.51871321e-01  1.69130106e-06  7.47148058e-01  1.69130106e-06  1.80000000e+00  1.69130106e-06 -4.98902748e-08  1.69130106e-06  7.51871321e-01                                 
 1.72051101e-06  8.05827872e-01  1.72051101e-06  7.49444296e-01  1.72051101e-06  7.46973327e-01  1.72051101e-06  1.80000000e+00  1.72051101e-06  1.86547579e-08  1.72051101e-06  7.49444296e-01                                 
 1.77893091e-06  8.03751840e-01  1.77893091e-06  7.47584617e-01  1.77893091e-06  7.47880477e-01  1.77893091e-06  1.80000000e+00  1.77893091e-06  2.02853861e-07  1.77893091e-06  7.47584617e-01                                 
 1.89577071e-06  8.06652644e-01  1.89577071e-06  7.50169970e-01  1.89577071e-06  7.50604262e-01  1.89577071e-06  1.80000000e+00  1.89577071e-06  2.06586324e-07  1.89577071e-06  7.50169970e-01                                 
 2.06389589e-06  8.04892421e-01  2.06389589e-06  7.48608115e-01  2.06389589e-06  7.48391107e-01  2.06389589e-06  1.80000000e+00  2.06389589e-06  7.50710163e-08  2.06389589e-06  7.48608115e-01                                 
 2.24414382e-06  8.05373923e-01  2.24414382e-06  7.49031960e-01  2.24414382e-06  7.49270645e-01  2.24414382e-06  1.80000000e+00  2.24414382e-06  2.56557681e-07  2.24414382e-06  7.49031960e-01                                 
 2.60463970e-06  8.05827800e-01  2.60463970e-06  7.49441395e-01  2.60463970e-06  7.49423874e-01  2.60463970e-06  1.80000000e+00  2.60463970e-06  6.86101653e-08  2.60463970e-06  7.49441395e-01                                 
 3.16656793e-06  8.04934505e-01  3.16656793e-06  7.48640569e-01  3.16656793e-06  7.48783537e-01  3.16656793e-06  1.80000000e+00  3.16656793e-06  2.46697088e-07  3.16656793e-06  7.48640569e-01                                 
 3.96566160e-06  8.06073960e-01  3.96566160e-06  7.49659871e-01  3.96566160e-06  7.49696592e-01  3.96566160e-06  1.80000000e+00  3.96566160e-06  7.93163807e-08  3.96566160e-06  7.49659871e-01                                 
 4.96566160e-06  8.04769407e-01  4.96566160e-06  7.48493592e-01  4.96566160e-06  7.48601447e-01  4.96566160e-06  1.80000000e+00  4.96566160e-06  2.36931573e-07  4.96566160e-06  7.48493592e-01                                 
 5.96566160e-06  8.06201760e-01  5.96566160e-06  7.49773097e-01  5.96566160e-06  7.49837381e-01  5.96566160e-06  1.80000000e+00  5.96566160e-06  8.91408181e-08  5.96566160e-06  7.49773097e-01                                 
 6.96566160e-06  8.04653358e-01  6.96566160e-06  7.48390354e-01  6.96566160e-06  7.48473741e-01  6.96566160e-06  1.80000000e+00  6.96566160e-06  2.26207790e-07  6.96566160e-06  7.48390354e-01                                 
 7.96566160e-06  8.06297987e-01  7.96566160e-06  7.49858191e-01  7.96566160e-06  7.49943948e-01  7.96566160e-06  1.80000000e+00  7.96566160e-06  1.00647085e-07  7.96566160e-06  7.49858191e-01                                 
 8.96566160e-06  8.04571076e-01  8.96566160e-06  7.48317297e-01  8.96566160e-06  7.48382054e-01  8.96566160e-06  1.80000000e+00  8.96566160e-06  2.14043744e-07  8.96566160e-06  7.48317297e-01                                 
 9.96566160e-06  8.06363407e-01  9.96566160e-06  7.49915993e-01  9.96566160e-06  7.50017671e-01  9.96566160e-06  1.80000000e+00  9.96566160e-06  1.13355417e-07  9.96566160e-06  7.49915993e-01                                 
 1.00005000e-05  8.05333409e-01  1.00005000e-05  7.49000808e-01  1.00005000e-05  7.49058473e-01  1.00005000e-05  1.80000000e+00  1.00005000e-05  1.00794867e-07  1.00005000e-05  7.49000808e-01                                 
 1.00005500e-05  8.05331466e-01  1.00005500e-05  7.48999063e-01  1.00005500e-05  7.42097567e-01  1.00005500e-05  1.62000000e+00  1.00005500e-05 -1.09193663e-04  1.00005500e-05  7.48999063e-01                                 
 1.00006500e-05  8.05327612e-01  1.00006500e-05  7.48995613e-01  1.00006500e-05  7.32320398e-01  1.00006500e-05  1.26000000e+00  1.00006500e-05 -5.43925927e-05  1.00006500e-05  7.48995613e-01                                 
 1.00008500e-05  8.05320073e-01  1.00008500e-05  7.48988883e-01  1.00008500e-05  7.31365983e-01  1.00008500e-05  5.40000000e-01  1.00008500e-05 -1.23218548e-03  1.00008500e-05  7.48988883e-01                                 
 1.00010000e-05  8.05314502e-01  1.00010000e-05  7.48983916e-01  1.00010000e-05  7.39735587e-01  1.00010000e-05  0.00000000e+00  1.00010000e-05  1.49802109e+00  1.00010000e-05  7.48983916e-01                                 
 1.00010265e-05  8.05313505e-01  1.00010265e-05  7.48983033e-01  1.00010265e-05  7.37622686e-01  1.00010265e-05  0.00000000e+00  1.00010265e-05  1.68687731e+00  1.00010265e-05  7.48983033e-01                                 
 1.00010796e-05  8.05311487e-01  1.00010796e-05  7.48981252e-01  1.00010796e-05  7.25453360e-01  1.00010796e-05  0.00000000e+00  1.00010796e-05  1.82315609e+00  1.00010796e-05  7.48981252e-01                                 
