 time            v(vbep)         time            v(vben)         time            v(vout)         time            v(vphi1)        time            v(vphi2)        time            v(vref)         yes             currtemp       
 0.00000000e+00  5.54968249e-01  0.00000000e+00  4.87568411e-01  0.00000000e+00  9.63918397e-01  0.00000000e+00  0.00000000e+00  0.00000000e+00  1.79995479e+00  0.00000000e+00  5.00000000e-01  1.00000000e+00  9.70000000e+01 
 5.00000000e-12  5.54935781e-01  5.00000000e-12  4.87541596e-01  5.00000000e-12  9.64722963e-01  5.00000000e-12  1.80000000e-02  5.00000000e-12  1.80007340e+00  5.00000000e-12  5.00000000e-01                                 
 1.00000000e-11  5.54904142e-01  1.00000000e-11  4.87515495e-01  1.00000000e-11  9.65457662e-01  1.00000000e-11  3.60000000e-02  1.00000000e-11  1.80013431e+00  1.00000000e-11  5.00000000e-01                                 
 2.00000000e-11  5.54841359e-01  2.00000000e-11  4.87463491e-01  2.00000000e-11  9.66818309e-01  2.00000000e-11  7.20000000e-02  2.00000000e-11  1.80018862e+00  2.00000000e-11  5.00000000e-01                                 
 4.00000000e-11  5.54716635e-01  4.00000000e-11  4.87359882e-01  4.00000000e-11  9.69052535e-01  4.00000000e-11  1.44000000e-01  4.00000000e-11  1.80014629e+00  4.00000000e-11  5.00000000e-01                                 
 8.00000000e-11  5.54468362e-01  8.00000000e-11  4.87153549e-01  8.00000000e-11  9.72309936e-01  8.00000000e-11  2.88000000e-01  8.00000000e-11  1.80006401e+00  8.00000000e-11  5.00000000e-01                                 
 1.60000000e-10  5.53976802e-01  1.60000000e-10  4.86744349e-01  1.60000000e-10  9.76340913e-01  1.60000000e-10  5.76000000e-01  1.60000000e-10  1.80000306e+00  1.60000000e-10  5.00000000e-01                                 
 3.20000000e-10  5.53012465e-01  3.20000000e-10  4.85939334e-01  3.20000000e-10  9.72401680e-01  3.20000000e-10  1.15200000e+00  3.20000000e-10  1.80051834e+00  3.20000000e-10  5.00000000e-01                                 
 5.00000000e-10  5.51956530e-01  5.00000000e-10  4.85054294e-01  5.00000000e-10  1.07926113e+00  5.00000000e-10  1.80000000e+00  5.00000000e-10  1.44700048e-01  5.00000000e-10  5.00000000e-01                                 
 5.22810714e-10  5.51825083e-01  5.22810714e-10  4.84943839e-01  5.22810714e-10  1.10722570e+00  5.22810714e-10  1.80000000e+00  5.22810714e-10  3.19724884e-02  5.22810714e-10  5.00000000e-01                                 
 5.68432141e-10  5.51563090e-01  5.68432141e-10  4.84723563e-01  5.68432141e-10  1.16041384e+00  5.68432141e-10  1.80000000e+00  5.68432141e-10 -1.40326335e-02  5.68432141e-10  5.00000000e-01                                 
 6.59674996e-10  5.51044577e-01  6.59674996e-10  4.84286960e-01  6.59674996e-10  1.25389239e+00  6.59674996e-10  1.80000000e+00  6.59674996e-10  1.13732844e-02  6.59674996e-10  5.00000000e-01                                 
 7.82643835e-10  5.50357047e-01  7.82643835e-10  4.83706698e-01  7.82643835e-10  1.36091658e+00  7.82643835e-10  1.80000000e+00  7.82643835e-10 -9.44142991e-03  7.82643835e-10  5.00000000e-01                                 
 9.80823429e-10  5.49275129e-01  9.80823429e-10  4.82790522e-01  9.80823429e-10  1.49299848e+00  9.80823429e-10  1.80000000e+00  9.80823429e-10  8.79440901e-03  9.80823429e-10  5.00000000e-01                                 
 1.37718262e-09  5.47201517e-01  1.37718262e-09  4.81024373e-01  1.37718262e-09  1.64570902e+00  1.37718262e-09  1.80000000e+00  1.37718262e-09 -8.20700873e-03  1.37718262e-09  5.00000000e-01                                 
 1.69654461e-09  5.45612723e-01  1.69654461e-09  4.79661962e-01  1.69654461e-09  1.69786453e+00  1.69654461e-09  1.80000000e+00  1.69654461e-09  7.87803682e-03  1.69654461e-09  5.00000000e-01                                 
 2.06862106e-09  5.43844898e-01  2.06862106e-09  4.78136984e-01  2.06862106e-09  1.72320054e+00  2.06862106e-09  1.80000000e+00  2.06862106e-09 -7.35143778e-03  2.06862106e-09  5.00000000e-01                                 
 2.41487323e-09  5.42273842e-01  2.41487323e-09  4.76773856e-01  2.41487323e-09  1.73152875e+00  2.41487323e-09  1.80000000e+00  2.41487323e-09  7.08410289e-03  2.41487323e-09  5.00000000e-01                                 
 2.81688392e-09  5.40531382e-01  2.81688392e-09  4.75253577e-01  2.81688392e-09  1.73408666e+00  2.81688392e-09  1.80000000e+00  2.81688392e-09 -6.67066961e-03  2.81688392e-09  5.00000000e-01                                 
 3.27868799e-09  5.38628402e-01  3.27868799e-09  4.73583354e-01  3.27868799e-09  1.73401439e+00  3.27868799e-09  1.80000000e+00  3.27868799e-09  6.48129493e-03  3.27868799e-09  5.00000000e-01                                 
 3.78735919e-09  5.36642796e-01  3.78735919e-09  4.71829877e-01  3.78735919e-09  1.73264556e+00  3.78735919e-09  1.80000000e+00  3.78735919e-09 -6.18486701e-03  3.78735919e-09  5.00000000e-01                                 
 4.49225133e-09  5.34060828e-01  4.49225133e-09  4.69534041e-01  4.49225133e-09  1.73063507e+00  4.49225133e-09  1.80000000e+00  4.49225133e-09  6.08510010e-03  4.49225133e-09  5.00000000e-01                                 
 5.50022355e-09  5.30664484e-01  5.50022355e-09  4.66488221e-01  5.50022355e-09  1.72763796e+00  5.50022355e-09  1.80000000e+00  5.50022355e-09 -5.91580705e-03  5.50022355e-09  5.00000000e-01                                 
 7.43149770e-09  5.24931042e-01  7.43149770e-09  4.61285770e-01  7.43149770e-09  1.72256947e+00  7.43149770e-09  1.80000000e+00  7.43149770e-09  5.91832588e-03  7.43149770e-09  5.00000000e-01                                 
 1.12767516e-08  5.15649437e-01  1.12767516e-08  4.52721843e-01  1.12767516e-08  1.71295565e+00  1.12767516e-08  1.80000000e+00  1.12767516e-08 -5.83088541e-03  1.12767516e-08  5.00000000e-01                                 
 1.89672593e-08  5.02008427e-01  1.89672593e-08  4.39886826e-01  1.89672593e-08  1.69278282e+00  1.89672593e-08  1.80000000e+00  1.89672593e-08  5.87696582e-03  1.89672593e-08  5.00000000e-01                                 
 3.43482749e-08  4.82700444e-01  3.43482749e-08  4.21615477e-01  3.43482749e-08  1.64559919e+00  3.43482749e-08  1.80000000e+00  3.43482749e-08 -5.80940100e-03  3.43482749e-08  5.00000000e-01                                 
 5.16283216e-08  4.66306850e-01  5.16283216e-08  4.06321802e-01  5.16283216e-08  1.57541689e+00  5.16283216e-08  1.80000000e+00  5.16283216e-08  5.86425117e-03  5.16283216e-08  5.00000000e-01                                 
 6.95480338e-08  4.53720765e-01  6.95480338e-08  3.94570863e-01  6.95480338e-08  1.47110392e+00  6.95480338e-08  1.80000000e+00  6.95480338e-08 -5.79704328e-03  6.95480338e-08  5.00000000e-01                                 
 9.70995563e-08  4.39550406e-01  9.70995563e-08  3.81273171e-01  9.70995563e-08  1.29648185e+00  9.70995563e-08  1.80000000e+00  9.70995563e-08  5.85471434e-03  9.70995563e-08  5.00000000e-01                                 
 1.22526018e-07  4.38331804e-01  1.22526018e-07  3.78789773e-01  1.22526018e-07  1.16157242e+00  1.22526018e-07  1.80000000e+00  1.22526018e-07 -5.78851682e-03  1.22526018e-07  5.00000000e-01                                 
 1.45487303e-07  4.37579101e-01  1.45487303e-07  3.77032910e-01  1.45487303e-07  1.03604846e+00  1.45487303e-07  1.80000000e+00  1.45487303e-07  5.84594538e-03  1.45487303e-07  5.00000000e-01                                 
 1.69917078e-07  4.31412116e-01  1.69917078e-07  3.71097514e-01  1.69917078e-07  9.36427882e-01  1.69917078e-07  1.80000000e+00  1.69917078e-07 -5.77991340e-03  1.69917078e-07  5.00000000e-01                                 
 1.95668217e-07  4.27496330e-01  1.95668217e-07  3.67029434e-01  1.95668217e-07  8.62439339e-01  1.95668217e-07  1.80000000e+00  1.95668217e-07  5.83761275e-03  1.95668217e-07  5.00000000e-01                                 
 2.20756157e-07  4.24109198e-01  2.20756157e-07  3.63514725e-01  2.20756157e-07  7.95769534e-01  2.20756157e-07  1.80000000e+00  2.20756157e-07 -5.77165895e-03  2.20756157e-07  5.00000000e-01                                 
 2.60466925e-07  4.16822836e-01  2.60466925e-07  3.56595487e-01  2.60466925e-07  6.91071149e-01  2.60466925e-07  1.80000000e+00  2.60466925e-07  5.83068622e-03  2.60466925e-07  5.00000000e-01                                 
 3.09992313e-07  4.04262409e-01  3.09992313e-07  3.45441188e-01  3.09992313e-07  5.70849741e-01  3.09992313e-07  1.80000000e+00  3.09992313e-07 -5.76700332e-03  3.09992313e-07  5.00000000e-01                                 
 3.78119573e-07  3.86839355e-01  3.78119573e-07  3.30300143e-01  3.78119573e-07  4.80750814e-01  3.78119573e-07  1.80000000e+00  3.78119573e-07  5.82702000e-03  3.78119573e-07  5.00000000e-01                                 
 4.50524779e-07  3.68231678e-01  4.50524779e-07  3.14454622e-01  4.50524779e-07  4.63569446e-01  4.50524779e-07  1.80000000e+00  4.50524779e-07 -5.76403941e-03  4.50524779e-07  5.00000000e-01                                 
 4.60025737e-07  3.65649108e-01  4.60025737e-07  3.12286622e-01  4.60025737e-07  4.62331362e-01  4.60025737e-07  1.80000000e+00  4.60025737e-07  1.46391708e-05  4.60025737e-07  5.00000000e-01                                 
 4.79027654e-07  3.60307674e-01  4.79027654e-07  3.07817915e-01  4.79027654e-07  4.58657929e-01  4.79027654e-07  1.80000000e+00  4.79027654e-07  1.98568494e-05  4.79027654e-07  5.00000000e-01                                 
 5.17031488e-07  3.48924746e-01  5.17031488e-07  2.98370101e-01  5.17031488e-07  4.72839399e-01  5.17031488e-07  1.80000000e+00  5.17031488e-07  1.46284122e-05  5.17031488e-07  5.00000000e-01                                 
 5.55403568e-07  3.36102572e-01  5.55403568e-07  2.87830244e-01  5.55403568e-07  5.31418630e-01  5.55403568e-07  1.80000000e+00  5.55403568e-07  1.98175729e-05  5.55403568e-07  5.00000000e-01                                 
 5.90409620e-07  3.22732424e-01  5.90409620e-07  2.76926778e-01  5.90409620e-07  5.24285234e-01  5.90409620e-07  1.80000000e+00  5.90409620e-07  1.45713742e-05  5.90409620e-07  5.00000000e-01                                 
 6.28226382e-07  3.07089751e-01  6.28226382e-07  2.64236798e-01  6.28226382e-07  4.67666862e-01  6.28226382e-07  1.80000000e+00  6.28226382e-07  1.97971819e-05  6.28226382e-07  5.00000000e-01                                 
 6.60438053e-07  2.95137201e-01  6.60438053e-07  2.54567280e-01  6.60438053e-07  4.70563948e-01  6.60438053e-07  1.80000000e+00  6.60438053e-07  1.46241958e-05  6.60438053e-07  5.00000000e-01                                 
 6.94994119e-07  2.93634206e-01  6.94994119e-07  2.53328082e-01  6.94994119e-07  5.13472189e-01  6.94994119e-07  1.80000000e+00  6.94994119e-07  2.01475323e-05  6.94994119e-07  5.00000000e-01                                 
 7.33534782e-07  3.52306757e-01  7.33534782e-07  3.00421050e-01  7.33534782e-07  5.51481800e-01  7.33534782e-07  1.80000000e+00  7.33534782e-07  1.63373864e-05  7.33534782e-07  5.00000000e-01                                 
 7.70465675e-07  5.63134819e-01  7.70465675e-07  4.89121779e-01  7.70465675e-07  5.95503019e-01  7.70465675e-07  1.80000000e+00  7.70465675e-07  2.59247110e-05  7.70465675e-07  5.00000000e-01                                 
 8.01530654e-07  6.48541694e-01  8.01530654e-07  5.76800006e-01  8.01530654e-07  5.53241556e-01  8.01530654e-07  1.80000000e+00  8.01530654e-07  1.36282863e-05  8.01530654e-07  5.00000000e-01                                 
 8.30812666e-07  6.91718133e-01  8.30812666e-07  6.14317087e-01  8.30812666e-07  5.19237710e-01  8.30812666e-07  1.80000000e+00  8.30812666e-07  2.36770205e-05  8.30812666e-07  5.00000000e-01                                 
 8.61196481e-07  7.07829065e-01  8.61196481e-07  6.27143363e-01  8.61196481e-07  5.00301504e-01  8.61196481e-07  1.80000000e+00  8.61196481e-07  1.21626454e-05  8.61196481e-07  5.00000000e-01                                 
 8.93393939e-07  7.07431281e-01  8.93393939e-07  6.26855082e-01  8.93393939e-07  4.83367952e-01  8.93393939e-07  1.80000000e+00  8.93393939e-07  2.25615876e-05  8.93393939e-07  5.00000000e-01                                 
 9.36085053e-07  7.08138732e-01  9.36085053e-07  6.27380576e-01  9.36085053e-07  4.79371980e-01  9.36085053e-07  1.80000000e+00  9.36085053e-07  1.23480687e-05  9.36085053e-07  5.00000000e-01                                 
 9.74813116e-07  6.98060719e-01  9.74813116e-07  6.19519720e-01  9.74813116e-07  4.87485204e-01  9.74813116e-07  1.80000000e+00  9.74813116e-07  2.19712945e-05  9.74813116e-07  5.00000000e-01                                 
 9.82210237e-07  6.92755921e-01  9.82210237e-07  6.15248942e-01  9.82210237e-07  4.92426670e-01  9.82210237e-07  1.80000000e+00  9.82210237e-07  1.68732030e-05  9.82210237e-07  5.00000000e-01                                 
 9.97004481e-07  6.80360645e-01  9.97004481e-07  6.05005635e-01  9.97004481e-07  5.00005075e-01  9.97004481e-07  1.80000000e+00  9.97004481e-07  1.65050180e-05  9.97004481e-07  5.00000000e-01                                 
 1.02659297e-06  6.61415436e-01  1.02659297e-06  5.88579372e-01  1.02659297e-06  5.03320032e-01  1.02659297e-06  1.80000000e+00  1.02659297e-06  1.71921866e-05  1.02659297e-06  5.00000000e-01                                 
 1.06026772e-06  6.61326825e-01  1.06026772e-06  5.88463693e-01  1.06026772e-06  5.01257491e-01  1.06026772e-06  1.80000000e+00  1.06026772e-06  1.76186554e-05  1.06026772e-06  5.00000000e-01                                 
 1.11274705e-06  6.81593885e-01  1.11274705e-06  6.05976260e-01  1.11274705e-06  5.05367012e-01  1.11274705e-06  1.80000000e+00  1.11274705e-06  1.78682362e-05  1.11274705e-06  5.00000000e-01                                 
 1.16951305e-06  6.88993949e-01  1.16951305e-06  6.12149142e-01  1.16951305e-06  4.99524593e-01  1.16951305e-06  1.80000000e+00  1.16951305e-06  1.71830681e-05  1.16951305e-06  5.00000000e-01                                 
 1.23281416e-06  6.75475441e-01  1.23281416e-06  6.00828303e-01  1.23281416e-06  4.93671515e-01  1.23281416e-06  1.80000000e+00  1.23281416e-06  1.72696483e-05  1.23281416e-06  5.00000000e-01                                 
 1.30493776e-06  6.74534239e-01  1.30493776e-06  5.99997336e-01  1.30493776e-06  5.05466806e-01  1.30493776e-06  1.80000000e+00  1.30493776e-06  1.75269864e-05  1.30493776e-06  5.00000000e-01                                 
 1.38324756e-06  6.85594731e-01  1.38324756e-06  6.09333511e-01  1.38324756e-06  5.02492574e-01  1.38324756e-06  1.80000000e+00  1.38324756e-06  1.75373097e-05  1.38324756e-06  5.00000000e-01                                 
 1.49746049e-06  6.76076097e-01  1.49746049e-06  6.01339380e-01  1.49746049e-06  4.93640053e-01  1.49746049e-06  1.80000000e+00  1.49746049e-06  1.71421561e-05  1.49746049e-06  5.00000000e-01                                 
 1.60141588e-06  6.78422801e-01  1.60141588e-06  6.03310092e-01  1.60141588e-06  5.07393279e-01  1.60141588e-06  1.80000000e+00  1.60141588e-06  1.77153674e-05  1.60141588e-06  5.00000000e-01                                 
 1.73514445e-06  6.82790961e-01  1.73514445e-06  6.07010649e-01  1.73514445e-06  4.95954333e-01  1.73514445e-06  1.80000000e+00  1.73514445e-06  1.71635722e-05  1.73514445e-06  5.00000000e-01                                 
 1.90279032e-06  6.75668930e-01  1.90279032e-06  6.00974531e-01  1.90279032e-06  5.01265644e-01  1.90279032e-06  1.80000000e+00  1.90279032e-06  1.75838496e-05  1.90279032e-06  5.00000000e-01                                 
 2.05649524e-06  6.82482446e-01  2.05649524e-06  6.06744231e-01  2.05649524e-06  5.02847538e-01  2.05649524e-06  1.80000000e+00  2.05649524e-06  1.73136715e-05  2.05649524e-06  5.00000000e-01                                 
 2.27145279e-06  6.77421499e-01  2.27145279e-06  6.02474789e-01  2.27145279e-06  4.95687389e-01  2.27145279e-06  1.80000000e+00  2.27145279e-06  1.74672023e-05  2.27145279e-06  5.00000000e-01                                 
 2.50988497e-06  6.80549128e-01  2.50988497e-06  6.05117328e-01  2.50988497e-06  5.05861252e-01  2.50988497e-06  1.80000000e+00  2.50988497e-06  1.73762715e-05  2.50988497e-06  5.00000000e-01                                 
 2.82358667e-06  6.79264656e-01  2.82358667e-06  6.04038660e-01  2.82358667e-06  4.94370022e-01  2.82358667e-06  1.80000000e+00  2.82358667e-06  1.74380373e-05  2.82358667e-06  5.00000000e-01                                 
 3.25313014e-06  6.79281016e-01  3.25313014e-06  6.04046985e-01  3.25313014e-06  5.06068377e-01  3.25313014e-06  1.80000000e+00  3.25313014e-06  1.73830934e-05  3.25313014e-06  5.00000000e-01                                 
 3.67860913e-06  6.80229086e-01  3.67860913e-06  6.04852448e-01  3.67860913e-06  4.94762434e-01  3.67860913e-06  1.80000000e+00  3.67860913e-06  1.74419665e-05  3.67860913e-06  5.00000000e-01                                 
 4.21787933e-06  6.78510706e-01  4.21787933e-06  6.03395626e-01  4.21787933e-06  5.05379486e-01  4.21787933e-06  1.80000000e+00  4.21787933e-06  1.73737083e-05  4.21787933e-06  5.00000000e-01                                 
 4.79838142e-06  6.80756692e-01  4.79838142e-06  6.05296088e-01  4.79838142e-06  4.95613806e-01  4.79838142e-06  1.80000000e+00  4.79838142e-06  1.74540917e-05  4.79838142e-06  5.00000000e-01                                 
 5.46726565e-06  6.78101747e-01  5.46726565e-06  6.03049717e-01  5.46726565e-06  5.04449906e-01  5.46726565e-06  1.80000000e+00  5.46726565e-06  1.73602935e-05  5.46726565e-06  5.00000000e-01                                 
 6.24344955e-06  6.81022545e-01  6.24344955e-06  6.05518966e-01  6.24344955e-06  4.96527740e-01  6.24344955e-06  1.80000000e+00  6.24344955e-06  1.74672867e-05  6.24344955e-06  5.00000000e-01                                 
 7.12891461e-06  6.77911022e-01  7.12891461e-06  6.02888620e-01  7.12891461e-06  5.03588187e-01  7.12891461e-06  1.80000000e+00  7.12891461e-06  1.73479035e-05  7.12891461e-06  5.00000000e-01                                 
 8.12891461e-06  6.81139270e-01  8.12891461e-06  6.05616444e-01  8.12891461e-06  4.97331186e-01  8.12891461e-06  1.80000000e+00  8.12891461e-06  1.74787446e-05  8.12891461e-06  5.00000000e-01                                 
 9.12891461e-06  6.77829906e-01  9.12891461e-06  6.02820424e-01  9.12891461e-06  5.02804027e-01  9.12891461e-06  1.80000000e+00  9.12891461e-06  1.73368127e-05  9.12891461e-06  5.00000000e-01                                 
 1.00005000e-05  6.81183883e-01  1.00005000e-05  6.05653251e-01  1.00005000e-05  4.98198139e-01  1.00005000e-05  1.80000000e+00  1.00005000e-05  1.74908656e-05  1.00005000e-05  5.00000000e-01                                 
 1.00005500e-05  6.81187570e-01  1.00005500e-05  6.05655951e-01  1.00005500e-05  4.90965881e-01  1.00005500e-05  1.62000000e+00  1.00005500e-05 -7.76110313e-05  1.00005500e-05  5.00000000e-01                                 
 1.00006500e-05  6.81193383e-01  1.00006500e-05  6.05660693e-01  1.00006500e-05  4.77496193e-01  1.00006500e-05  1.26000000e+00  1.00006500e-05 -6.77349323e-05  1.00006500e-05  5.00000000e-01                                 
 1.00008500e-05  6.81201245e-01  1.00008500e-05  6.05667526e-01  1.00008500e-05  4.78003241e-01  1.00008500e-05  5.40000000e-01  1.00008500e-05  2.51420505e-01  1.00008500e-05  5.00000000e-01                                 
 1.00010000e-05  6.81204843e-01  1.00010000e-05  6.05670639e-01  1.00010000e-05  4.49040555e-01  1.00010000e-05  0.00000000e+00  1.00010000e-05  1.65428181e+00  1.00010000e-05  5.00000000e-01                                 
 1.00010247e-05  6.81205185e-01  1.00010247e-05  6.05670983e-01  1.00010247e-05  4.34483695e-01  1.00010247e-05  0.00000000e+00  1.00010247e-05  1.75103681e+00  1.00010247e-05  5.00000000e-01                                 
