 time            v(vbep)         time            v(vben)         time            v(vout)         time            v(vphi1)        time            v(vphi2)        time            v(vref)         yes             currtemp       
 0.00000000e+00  6.70471347e-01  0.00000000e+00  6.13763241e-01  0.00000000e+00  1.03001127e+00  0.00000000e+00  0.00000000e+00  0.00000000e+00  1.79995069e+00  0.00000000e+00  6.13763241e-01  1.00000000e+00  3.70000000e+01 
 5.00000000e-12  6.70441582e-01  5.00000000e-12  6.13738601e-01  5.00000000e-12  1.03074312e+00  5.00000000e-12  1.80000000e-02  5.00000000e-12  1.80007721e+00  5.00000000e-12  6.13738601e-01                                 
 1.00000000e-11  6.70412632e-01  1.00000000e-11  6.13714617e-01  1.00000000e-11  1.03141008e+00  1.00000000e-11  3.60000000e-02  1.00000000e-11  1.80015276e+00  1.00000000e-11  6.13714617e-01                                 
 2.00000000e-11  6.70355234e-01  2.00000000e-11  6.13666839e-01  2.00000000e-11  1.03264147e+00  2.00000000e-11  7.20000000e-02  2.00000000e-11  1.80023788e+00  2.00000000e-11  6.13666839e-01                                 
 4.00000000e-11  6.70241297e-01  4.00000000e-11  6.13571665e-01  4.00000000e-11  1.03463117e+00  4.00000000e-11  1.44000000e-01  4.00000000e-11  1.80023042e+00  4.00000000e-11  6.13571665e-01                                 
 8.00000000e-11  6.70014560e-01  8.00000000e-11  6.13382187e-01  8.00000000e-11  1.03729883e+00  8.00000000e-11  2.88000000e-01  8.00000000e-11  1.80013332e+00  8.00000000e-11  6.13382187e-01                                 
 1.60000000e-10  6.69566012e-01  1.60000000e-10  6.13006694e-01  1.60000000e-10  1.03954900e+00  1.60000000e-10  5.76000000e-01  1.60000000e-10  1.80002151e+00  1.60000000e-10  6.13006694e-01                                 
 3.20000000e-10  6.68687427e-01  3.20000000e-10  6.12269058e-01  3.20000000e-10  1.03206733e+00  3.20000000e-10  1.15200000e+00  3.20000000e-10  1.80027829e+00  3.20000000e-10  6.12269058e-01                                 
 5.00000000e-10  6.67727497e-01  5.00000000e-10  6.11459731e-01  5.00000000e-10  1.13523736e+00  5.00000000e-10  1.80000000e+00  5.00000000e-10  1.52711273e-01  5.00000000e-10  6.11459731e-01                                 
 5.21388616e-10  6.67615587e-01  5.21388616e-10  6.11365131e-01  5.21388616e-10  1.16141995e+00  5.21388616e-10  1.80000000e+00  5.21388616e-10  3.82295242e-02  5.21388616e-10  6.11365131e-01                                 
 5.64165847e-10  6.67392547e-01  5.64165847e-10  6.11176485e-01  5.64165847e-10  1.21358368e+00  5.64165847e-10  1.80000000e+00  5.64165847e-10 -1.42983604e-02  5.64165847e-10  6.11176485e-01                                 
 6.49720311e-10  6.66951177e-01  6.49720311e-10  6.10802633e-01  6.49720311e-10  1.30785483e+00  6.49720311e-10  1.80000000e+00  6.49720311e-10  1.21778492e-02  6.49720311e-10  6.10802633e-01                                 
 7.69883205e-10  6.66341613e-01  7.69883205e-10  6.10285123e-01  7.69883205e-10  1.42378854e+00  7.69883205e-10  1.80000000e+00  7.69883205e-10 -9.22098451e-03  7.69883205e-10  6.10285123e-01                                 
 9.51709452e-10  6.65441276e-01  9.51709452e-10  6.09518250e-01  9.51709452e-10  1.56636637e+00  9.51709452e-10  1.80000000e+00  9.51709452e-10  9.14168540e-03  9.51709452e-10  6.09518250e-01                                 
 1.31536195e-09  6.63714653e-01  1.31536195e-09  6.08039447e-01  1.31536195e-09  1.74617715e+00  1.31536195e-09  1.80000000e+00  1.31536195e-09 -7.99417491e-03  1.31536195e-09  6.08039447e-01                                 
 1.67100107e-09  6.62114782e-01  1.67100107e-09  6.06659609e-01  1.67100107e-09  1.82752130e+00  1.67100107e-09  1.80000000e+00  1.67100107e-09  7.87705594e-03  1.67100107e-09  6.06659609e-01                                 
 2.05976769e-09  6.60456301e-01  2.05976769e-09  6.05219738e-01  2.05976769e-09  1.86183957e+00  2.05976769e-09  1.80000000e+00  2.05976769e-09 -7.30801931e-03  2.05976769e-09  6.05219738e-01                                 
 2.40975735e-09  6.59036861e-01  2.40975735e-09  6.03979854e-01  2.40975735e-09  1.87272340e+00  2.40975735e-09  1.80000000e+00  2.40975735e-09  6.97219542e-03  2.40975735e-09  6.03979854e-01                                 
 2.92631289e-09  6.57055478e-01  2.92631289e-09  6.02237980e-01  2.92631289e-09  1.87639581e+00  2.92631289e-09  1.80000000e+00  2.92631289e-09 -6.64897602e-03  2.92631289e-09  6.02237980e-01                                 
 3.57753835e-09  6.54729173e-01  3.57753835e-09  6.00176732e-01  3.57753835e-09  1.87585331e+00  3.57753835e-09  1.80000000e+00  3.57753835e-09  6.47629319e-03  3.57753835e-09  6.00176732e-01                                 
 4.69652038e-09  6.51105768e-01  4.69652038e-09  5.96933641e-01  4.69652038e-09  1.87220836e+00  4.69652038e-09  1.80000000e+00  4.69652038e-09 -6.32947763e-03  4.69652038e-09  5.96933641e-01                                 
 6.41968239e-09  6.46261003e-01  6.41968239e-09  5.92539008e-01  6.41968239e-09  1.86788855e+00  6.41968239e-09  1.80000000e+00  6.41968239e-09  6.28063210e-03  6.41968239e-09  5.92539008e-01                                 
 9.86600639e-09  6.38413047e-01  9.86600639e-09  5.85296757e-01  9.86600639e-09  1.85994287e+00  9.86600639e-09  1.80000000e+00  9.86600639e-09 -6.21278851e-03  9.86600639e-09  5.85296757e-01                                 
 1.23915795e-08  6.33804996e-01  1.23915795e-08  5.80972125e-01  1.23915795e-08  1.85528472e+00  1.23915795e-08  1.80000000e+00  1.23915795e-08  6.19124029e-03  1.23915795e-08  5.80972125e-01                                 
 1.41384206e-08  6.31008285e-01  1.41384206e-08  5.78325718e-01  1.41384206e-08  1.85200696e+00  1.41384206e-08  1.80000000e+00  1.41384206e-08 -6.09379527e-03  1.41384206e-08  5.78325718e-01                                 
 1.56105621e-08  6.28846867e-01  1.56105621e-08  5.76270567e-01  1.56105621e-08  1.84982465e+00  1.56105621e-08  1.80000000e+00  1.56105621e-08  6.03316664e-03  1.56105621e-08  5.76270567e-01                                 
 1.73854434e-08  6.26438725e-01  1.73854434e-08  5.73971666e-01  1.73854434e-08  1.84668479e+00  1.73854434e-08  1.80000000e+00  1.73854434e-08 -5.94123926e-03  1.73854434e-08  5.73971666e-01                                 
 1.94113190e-08  6.23913226e-01  1.94113190e-08  5.71551332e-01  1.94113190e-08  1.84374469e+00  1.94113190e-08  1.80000000e+00  1.94113190e-08  5.90338160e-03  1.94113190e-08  5.71551332e-01                                 
 2.18787026e-08  6.21101834e-01  2.18787026e-08  5.68847344e-01  2.18787026e-08  1.83959177e+00  2.18787026e-08  1.80000000e+00  2.18787026e-08 -5.83294974e-03  2.18787026e-08  5.68847344e-01                                 
 2.54483096e-08  6.17436101e-01  2.54483096e-08  5.65310826e-01  2.54483096e-08  1.83438348e+00  2.54483096e-08  1.80000000e+00  2.54483096e-08  5.82114946e-03  2.54483096e-08  5.65310826e-01                                 
 2.95525323e-08  6.13658485e-01  2.95525323e-08  5.61661734e-01  2.95525323e-08  1.82816127e+00  2.95525323e-08  1.80000000e+00  2.95525323e-08 -5.77055076e-03  2.95525323e-08  5.61661734e-01                                 
 3.61744950e-08  6.08176263e-01  3.61744950e-08  5.56385341e-01  3.61744950e-08  1.82000184e+00  3.61744950e-08  1.80000000e+00  3.61744950e-08  5.77483083e-03  3.61744950e-08  5.56385341e-01                                 
 4.73069020e-08  6.00180840e-01  4.73069020e-08  5.48739382e-01  4.73069020e-08  1.80838906e+00  4.73069020e-08  1.80000000e+00  4.73069020e-08 -5.74171252e-03  4.73069020e-08  5.48739382e-01                                 
 5.84089066e-08  5.92961522e-01  5.84089066e-08  5.41947688e-01  5.84089066e-08  1.79788617e+00  5.84089066e-08  1.80000000e+00  5.84089066e-08  5.75398260e-03  5.84089066e-08  5.41947688e-01                                 
 7.05992255e-08  5.84632553e-01  7.05992255e-08  5.34366162e-01  7.05992255e-08  1.77286154e+00  7.05992255e-08  1.80000000e+00  7.05992255e-08 -5.72305197e-03  7.05992255e-08  5.34366162e-01                                 
 8.52826143e-08  5.76723793e-01  8.52826143e-08  5.27103713e-01  8.52826143e-08  1.74444424e+00  8.52826143e-08  1.80000000e+00  8.52826143e-08  5.73709219e-03  8.52826143e-08  5.27103713e-01                                 
 1.00817487e-07  5.69368703e-01  1.00817487e-07  5.20390855e-01  1.00817487e-07  1.71712806e+00  1.00817487e-07  1.80000000e+00  1.00817487e-07 -5.70735457e-03  1.00817487e-07  5.20390855e-01                                 
 1.25289899e-07  5.60956886e-01  1.25289899e-07  5.12566578e-01  1.25289899e-07  1.67700233e+00  1.25289899e-07  1.80000000e+00  1.25289899e-07  5.72538135e-03  1.25289899e-07  5.12566578e-01                                 
 1.52891801e-07  5.64358539e-01  1.52891801e-07  5.14133657e-01  1.52891801e-07  1.67393194e+00  1.52891801e-07  1.80000000e+00  1.52891801e-07 -5.69550432e-03  1.52891801e-07  5.14133657e-01                                 
 1.73558502e-07  5.65609888e-01  1.73558502e-07  5.14376029e-01  1.73558502e-07  1.65696014e+00  1.73558502e-07  1.80000000e+00  1.73558502e-07  5.71455020e-03  1.73558502e-07  5.14376029e-01                                 
 1.94287292e-07  5.60396048e-01  1.94287292e-07  5.09584166e-01  1.94287292e-07  1.62885501e+00  1.94287292e-07  1.80000000e+00  1.94287292e-07 -5.68576530e-03  1.94287292e-07  5.09584166e-01                                 
 2.12605709e-07  5.56079791e-01  2.12605709e-07  5.05636529e-01  2.12605709e-07  1.60534485e+00  2.12605709e-07  1.80000000e+00  2.12605709e-07  5.70281177e-03  2.12605709e-07  5.05636529e-01                                 
 2.32332355e-07  5.50867522e-01  2.32332355e-07  5.00990183e-01  2.32332355e-07  1.58235864e+00  2.32332355e-07  1.80000000e+00  2.32332355e-07 -5.67367323e-03  2.32332355e-07  5.00990183e-01                                 
 2.65710667e-07  5.41680059e-01  2.65710667e-07  4.92942092e-01  2.65710667e-07  1.53861501e+00  2.65710667e-07  1.80000000e+00  2.65710667e-07  5.69336474e-03  2.65710667e-07  4.92942092e-01                                 
 3.10201384e-07  5.30100902e-01  3.10201384e-07  4.82916124e-01  3.10201384e-07  1.48381803e+00  3.10201384e-07  1.80000000e+00  3.10201384e-07 -5.66751252e-03  3.10201384e-07  4.82916124e-01                                 
 3.94045147e-07  5.06057462e-01  3.94045147e-07  4.62681167e-01  3.94045147e-07  1.37346553e+00  3.94045147e-07  1.80000000e+00  3.94045147e-07  5.68930856e-03  3.94045147e-07  4.62681167e-01                                 
 5.18093129e-07  4.72704232e-01  5.18093129e-07  4.35182685e-01  5.18093129e-07  1.21497418e+00  5.18093129e-07  1.80000000e+00  5.18093129e-07 -5.66518341e-03  5.18093129e-07  4.35182685e-01                                 
 6.33365351e-07  4.52287073e-01  6.33365351e-07  4.18601412e-01  6.33365351e-07  1.07316927e+00  6.33365351e-07  1.80000000e+00  6.33365351e-07  5.68775202e-03  6.33365351e-07  4.18601412e-01                                 
 6.48665722e-07  4.65243007e-01  6.48665722e-07  4.28954044e-01  6.48665722e-07  1.07109660e+00  6.48665722e-07  1.80000000e+00  6.48665722e-07  3.59543011e-06  6.48665722e-07  4.28954044e-01                                 
 6.79266464e-07  5.65248913e-01  6.79266464e-07  5.08920694e-01  6.79266464e-07  1.13558321e+00  6.79266464e-07  1.80000000e+00  6.79266464e-07  8.29882608e-06  6.79266464e-07  5.08920694e-01                                 
 6.86916650e-07  6.22997221e-01  6.86916650e-07  5.57069983e-01  6.86916650e-07  1.18291872e+00  6.86916650e-07  1.80000000e+00  6.86916650e-07  1.44436548e-05  6.86916650e-07  5.57069983e-01                                 
 7.02217021e-07  6.97292767e-01  7.02217021e-07  6.34819168e-01  7.02217021e-07  1.23978520e+00  7.02217021e-07  1.80000000e+00  7.02217021e-07  8.47635536e-06  7.02217021e-07  6.34819168e-01                                 
 7.32817763e-07  7.50018471e-01  7.32817763e-07  6.90649565e-01  7.32817763e-07  1.25877902e+00  7.32817763e-07  1.80000000e+00  7.32817763e-07  5.73105756e-07  7.32817763e-07  6.90649565e-01                                 
 7.75282299e-07  7.84494414e-01  7.75282299e-07  7.20692752e-01  7.75282299e-07  1.24732718e+00  7.75282299e-07  1.80000000e+00  7.75282299e-07  3.63622588e-06  7.75282299e-07  7.20692752e-01                                 
 8.19127471e-07  7.86480120e-01  8.19127471e-07  7.22648383e-01  8.19127471e-07  1.20410648e+00  8.19127471e-07  1.80000000e+00  8.19127471e-07 -2.89745316e-06  8.19127471e-07  7.22648383e-01                                 
 8.25189288e-07  7.86198962e-01  8.25189288e-07  7.22290158e-01  8.25189288e-07  1.19733163e+00  8.25189288e-07  1.80000000e+00  8.25189288e-07  8.26405311e-08  8.25189288e-07  7.22290158e-01                                 
 8.37312921e-07  7.86177080e-01  8.37312921e-07  7.22244304e-01  8.37312921e-07  1.18457741e+00  8.37312921e-07  1.80000000e+00  8.37312921e-07  3.87857954e-07  8.37312921e-07  7.22244304e-01                                 
 8.61560187e-07  7.86232718e-01  8.61560187e-07  7.22313711e-01  8.61560187e-07  1.15940038e+00  8.61560187e-07  1.80000000e+00  8.61560187e-07  1.29336037e-07  8.61560187e-07  7.22313711e-01                                 
 8.95663064e-07  7.86172689e-01  8.95663064e-07  7.22243057e-01  8.95663064e-07  1.12370245e+00  8.95663064e-07  1.80000000e+00  8.95663064e-07  3.65032886e-07  8.95663064e-07  7.22243057e-01                                 
 9.01739759e-07  7.86200481e-01  9.01739759e-07  7.22274914e-01  9.01739759e-07  1.11741549e+00  9.01739759e-07  1.80000000e+00  9.01739759e-07  2.71843034e-07  9.01739759e-07  7.22274914e-01                                 
 9.13893148e-07  7.86207685e-01  9.13893148e-07  7.22282963e-01  9.13893148e-07  1.10477351e+00  9.13893148e-07  1.80000000e+00  9.13893148e-07  2.49519109e-07  9.13893148e-07  7.22282963e-01                                 
 9.38199927e-07  7.86219551e-01  9.38199927e-07  7.22291054e-01  9.38199927e-07  1.07956617e+00  9.38199927e-07  1.80000000e+00  9.38199927e-07  2.79859791e-07  9.38199927e-07  7.22291054e-01                                 
 9.71559653e-07  7.78238685e-01  9.71559653e-07  7.15594504e-01  9.71559653e-07  1.03815517e+00  9.71559653e-07  1.80000000e+00  9.71559653e-07 -7.89253509e-07  9.71559653e-07  7.15594504e-01                                 
 1.00785016e-06  7.59291593e-01  1.00785016e-06  6.98877554e-01  1.00785016e-06  9.85737707e-01  1.00785016e-06  1.80000000e+00  1.00785016e-06 -9.39698206e-07  1.00785016e-06  6.98877554e-01                                 
 1.05273897e-06  7.58816351e-01  1.05273897e-06  6.98389451e-01  1.05273897e-06  9.47291621e-01  1.05273897e-06  1.80000000e+00  1.05273897e-06  1.66369613e-06  1.05273897e-06  6.98389451e-01                                 
 1.10509076e-06  7.75089938e-01  1.10509076e-06  7.12846668e-01  1.10509076e-06  9.22624819e-01  1.10509076e-06  1.80000000e+00  1.10509076e-06  6.22375914e-07  1.10509076e-06  7.12846668e-01                                 
 1.16928194e-06  7.73641969e-01  1.16928194e-06  7.11615239e-01  1.16928194e-06  8.78029970e-01  1.16928194e-06  1.80000000e+00  1.16928194e-06  2.64167585e-07  1.16928194e-06  7.11615239e-01                                 
 1.23766970e-06  7.66171934e-01  1.23766970e-06  7.05030652e-01  1.23766970e-06  8.29894387e-01  1.23766970e-06  1.80000000e+00  1.23766970e-06  3.29665932e-07  1.23766970e-06  7.05030652e-01                                 
 1.34947221e-06  7.70243928e-01  1.34947221e-06  7.08630754e-01  1.34947221e-06  7.73933168e-01  1.34947221e-06  1.80000000e+00  1.34947221e-06  1.00012398e-06  1.34947221e-06  7.08630754e-01                                 
 1.47676102e-06  7.72561221e-01  1.47676102e-06  7.10661713e-01  1.47676102e-06  7.31332090e-01  1.47676102e-06  1.80000000e+00  1.47676102e-06  4.27584442e-07  1.47676102e-06  7.10661713e-01                                 
 1.64900463e-06  7.66626229e-01  1.64900463e-06  7.05439765e-01  1.64900463e-06  7.00309913e-01  1.64900463e-06  1.80000000e+00  1.64900463e-06  9.35955630e-07  1.64900463e-06  7.05439765e-01                                 
 1.67032184e-06  7.68545466e-01  1.67032184e-06  7.07131939e-01  1.67032184e-06  7.00656611e-01  1.67032184e-06  1.80000000e+00  1.67032184e-06  9.77087457e-07  1.67032184e-06  7.07131939e-01                                 
 1.71295625e-06  7.71511718e-01  1.71295625e-06  7.09741744e-01  1.71295625e-06  7.00714921e-01  1.71295625e-06  1.80000000e+00  1.71295625e-06  8.93290433e-07  1.71295625e-06  7.09741744e-01                                 
 1.79822507e-06  7.70500184e-01  1.79822507e-06  7.08862424e-01  1.79822507e-06  6.96792562e-01  1.79822507e-06  1.80000000e+00  1.79822507e-06  6.50839337e-07  1.79822507e-06  7.08862424e-01                                 
 1.93436581e-06  7.68846379e-01  1.93436581e-06  7.07399392e-01  1.93436581e-06  7.07078932e-01  1.93436581e-06  1.80000000e+00  1.93436581e-06  9.79779588e-07  1.93436581e-06  7.07399392e-01                                 
 2.05722441e-06  7.71350321e-01  2.05722441e-06  7.09604123e-01  2.05722441e-06  7.12516020e-01  2.05722441e-06  1.80000000e+00  2.05722441e-06  7.38691702e-07  2.05722441e-06  7.09604123e-01                                 
 2.20082064e-06  7.69234435e-01  2.20082064e-06  7.07745632e-01  2.20082064e-06  7.05864036e-01  2.20082064e-06  1.80000000e+00  2.20082064e-06  7.94519522e-07  2.20082064e-06  7.07745632e-01                                 
 2.37397934e-06  7.70325567e-01  2.37397934e-06  7.08703163e-01  2.37397934e-06  7.09597865e-01  2.37397934e-06  1.80000000e+00  2.37397934e-06  8.61107568e-07  2.37397934e-06  7.08703163e-01                                 
 2.55138874e-06  7.70332329e-01  2.55138874e-06  7.08712370e-01  2.55138874e-06  7.08616922e-01  2.55138874e-06  1.80000000e+00  2.55138874e-06  7.52714303e-07  2.55138874e-06  7.08712370e-01                                 
 2.80452246e-06  7.69543345e-01  2.80452246e-06  7.08015550e-01  2.80452246e-06  7.08166188e-01  2.80452246e-06  1.80000000e+00  2.80452246e-06  8.52689304e-07  2.80452246e-06  7.08015550e-01                                 
 3.21170894e-06  7.70703310e-01  3.21170894e-06  7.09037406e-01  3.21170894e-06  7.09172032e-01  3.21170894e-06  1.80000000e+00  3.21170894e-06  7.77019404e-07  3.21170894e-06  7.09037406e-01                                 
 3.98200098e-06  7.69389996e-01  3.98200098e-06  7.07881072e-01  3.98200098e-06  7.07961588e-01  3.98200098e-06  1.80000000e+00  3.98200098e-06  8.33528350e-07  3.98200098e-06  7.07881072e-01                                 
 4.98200098e-06  7.70763500e-01  4.98200098e-06  7.09089887e-01  4.98200098e-06  7.09249499e-01  4.98200098e-06  1.80000000e+00  4.98200098e-06  7.90072809e-07  4.98200098e-06  7.09089887e-01                                 
 5.98200098e-06  7.69353679e-01  5.98200098e-06  7.07849324e-01  5.98200098e-06  7.07915748e-01  5.98200098e-06  1.80000000e+00  5.98200098e-06  8.21697761e-07  5.98200098e-06  7.07849324e-01                                 
 6.98200098e-06  7.70783493e-01  6.98200098e-06  7.09107091e-01  6.98200098e-06  7.09275285e-01  6.98200098e-06  1.80000000e+00  6.98200098e-06  8.02157064e-07  6.98200098e-06  7.09107091e-01                                 
 7.98200098e-06  7.69347457e-01  7.98200098e-06  7.07844166e-01  7.98200098e-06  7.07906636e-01  7.98200098e-06  1.80000000e+00  7.98200098e-06  8.09495301e-07  7.98200098e-06  7.07844166e-01                                 
 8.98200098e-06  7.70775457e-01  8.98200098e-06  7.09099730e-01  8.98200098e-06  7.09267985e-01  8.98200098e-06  1.80000000e+00  8.98200098e-06  8.14352867e-07  8.98200098e-06  7.09099730e-01                                 
