 time            v(vbep)         time            v(vben)         time            v(vout)         time            v(vphi1)        time            v(vphi2)        time            v(vref)         yes             currtemp       
 0.00000000e+00  7.17065372e-01  0.00000000e+00  6.66723938e-01  0.00000000e+00  8.19766241e-02  0.00000000e+00  0.00000000e+00  0.00000000e+00  1.79997822e+00  0.00000000e+00  5.00000000e-01  1.00000000e+00  2.00000000e+00 
 5.00000000e-12  7.17051236e-01  5.00000000e-12  6.66712152e-01  5.00000000e-12  8.24348601e-02  5.00000000e-12  1.80000000e-02  5.00000000e-12  1.80005643e+00  5.00000000e-12  5.00000000e-01                                 
 1.00000000e-11  7.17037279e-01  1.00000000e-11  6.66700597e-01  1.00000000e-11  8.28452287e-02  1.00000000e-11  3.60000000e-02  1.00000000e-11  1.80009416e+00  1.00000000e-11  5.00000000e-01                                 
 2.00000000e-11  7.17009455e-01  2.00000000e-11  6.66677546e-01  2.00000000e-11  8.35973104e-02  2.00000000e-11  7.20000000e-02  2.00000000e-11  1.80012754e+00  2.00000000e-11  5.00000000e-01                                 
 4.00000000e-11  7.16953966e-01  4.00000000e-11  6.66631551e-01  4.00000000e-11  8.47821962e-02  4.00000000e-11  1.44000000e-01  4.00000000e-11  1.80010598e+00  4.00000000e-11  5.00000000e-01                                 
 8.00000000e-11  7.16843293e-01  8.00000000e-11  6.66539777e-01  8.00000000e-11  8.63993866e-02  8.00000000e-11  2.88000000e-01  8.00000000e-11  1.80006368e+00  8.00000000e-11  5.00000000e-01                                 
 1.60000000e-10  7.16623240e-01  1.60000000e-10  6.66357112e-01  1.60000000e-10  8.84500816e-02  1.60000000e-10  5.76000000e-01  1.60000000e-10  1.80002539e+00  1.60000000e-10  5.00000000e-01                                 
 3.20000000e-10  7.16188208e-01  3.20000000e-10  6.65995297e-01  3.20000000e-10  1.24644404e-01  3.20000000e-10  1.15200000e+00  3.20000000e-10  1.79995100e+00  3.20000000e-10  5.00000000e-01                                 
 5.00000000e-10  7.15706871e-01  5.00000000e-10  6.65593872e-01  5.00000000e-10  4.95653572e-01  5.00000000e-10  1.80000000e+00  5.00000000e-10  1.02073290e-01  5.00000000e-10  5.00000000e-01                                 
 5.21199859e-10  7.15650799e-01  5.21199859e-10  6.65547027e-01  5.21199859e-10  5.64457976e-01  5.21199859e-10  1.80000000e+00  5.21199859e-10  1.83070801e-02  5.21199859e-10  5.00000000e-01                                 
 5.63599578e-10  7.15538883e-01  5.63599578e-10  6.65453495e-01  5.63599578e-10  6.87409369e-01  5.63599578e-10  1.80000000e+00  5.63599578e-10 -8.75673923e-03  5.63599578e-10  5.00000000e-01                                 
 6.48399016e-10  7.15316425e-01  6.48399016e-10  6.65267398e-01  6.48399016e-10  8.72847011e-01  6.48399016e-10  1.80000000e+00  6.48399016e-10  7.56581862e-03  6.48399016e-10  5.00000000e-01                                 
 7.71867734e-10  7.14995759e-01  7.71867734e-10  6.64998720e-01  7.71867734e-10  1.07583368e+00  7.71867734e-10  1.80000000e+00  7.71867734e-10 -6.65476877e-03  7.71867734e-10  5.00000000e-01                                 
 9.61833087e-10  7.14509695e-01  9.61833087e-10  6.64590509e-01  9.61833087e-10  1.32738078e+00  9.61833087e-10  1.80000000e+00  9.61833087e-10  6.31530355e-03  9.61833087e-10  5.00000000e-01                                 
 1.32733400e-09  7.13598323e-01  1.32733400e-09  6.63822088e-01  1.32733400e-09  1.66306039e+00  1.32733400e-09  1.80000000e+00  1.32733400e-09 -5.99985759e-03  1.32733400e-09  5.00000000e-01                                 
 1.98218463e-09  7.12038251e-01  1.98218463e-09  6.62497793e-01  1.98218463e-09  1.88768838e+00  1.98218463e-09  1.80000000e+00  1.98218463e-09  5.96285609e-03  1.98218463e-09  5.00000000e-01                                 
 2.23463417e-09  7.11460516e-01  2.23463417e-09  6.62004458e-01  2.23463417e-09  1.90507531e+00  2.23463417e-09  1.80000000e+00  2.23463417e-09 -5.59634886e-03  2.23463417e-09  5.00000000e-01                                 
 2.54715613e-09  7.10762056e-01  2.54715613e-09  6.61406038e-01  2.54715613e-09  1.91222032e+00  2.54715613e-09  1.80000000e+00  2.54715613e-09  5.42352199e-03  2.54715613e-09  5.00000000e-01                                 
 2.89589002e-09  7.10003493e-01  2.89589002e-09  6.60753682e-01  2.89589002e-09  1.91626366e+00  2.89589002e-09  1.80000000e+00  2.89589002e-09 -5.18352948e-03  2.89589002e-09  5.00000000e-01                                 
 3.59335780e-09  7.08547157e-01  3.59335780e-09  6.59494406e-01  3.59335780e-09  1.92071221e+00  3.59335780e-09  1.80000000e+00  3.59335780e-09  5.13005023e-03  3.59335780e-09  5.00000000e-01                                 
 4.64895671e-09  7.06481978e-01  4.64895671e-09  6.57693734e-01  4.64895671e-09  1.91895850e+00  4.64895671e-09  1.80000000e+00  4.64895671e-09 -5.03642269e-03  4.64895671e-09  5.00000000e-01                                 
 6.76015454e-09  7.02765465e-01  6.76015454e-09  6.54412846e-01  6.76015454e-09  1.90736135e+00  6.76015454e-09  1.80000000e+00  6.76015454e-09  5.04162959e-03  6.76015454e-09  5.00000000e-01                                 
 9.05387312e-09  6.99233731e-01  9.05387312e-09  6.51249041e-01  9.05387312e-09  1.89613794e+00  9.05387312e-09  1.80000000e+00  9.05387312e-09 -4.97676572e-03  9.05387312e-09  5.00000000e-01                                 
 1.03358501e-08  6.97446115e-01  1.03358501e-08  6.49631631e-01  1.03358501e-08  1.89109399e+00  1.03358501e-08  1.80000000e+00  1.03358501e-08  4.95753228e-03  1.03358501e-08  5.00000000e-01                                 
 1.25314179e-08  6.94633452e-01  1.25314179e-08  6.47067743e-01  1.25314179e-08  1.88355456e+00  1.25314179e-08  1.80000000e+00  1.25314179e-08 -4.90296432e-03  1.25314179e-08  5.00000000e-01                                 
 1.45840149e-08  6.92253053e-01  1.45840149e-08  6.44879629e-01  1.45840149e-08  1.87736998e+00  1.45840149e-08  1.80000000e+00  1.45840149e-08  4.89576741e-03  1.45840149e-08  5.00000000e-01                                 
 1.84377434e-08  6.88311698e-01  1.84377434e-08  6.41221195e-01  1.84377434e-08  1.86742085e+00  1.84377434e-08  1.80000000e+00  1.84377434e-08 -4.85783402e-03  1.84377434e-08  5.00000000e-01                                 
 2.24646521e-08  6.84806019e-01  2.24646521e-08  6.37926518e-01  2.24646521e-08  1.85858777e+00  2.24646521e-08  1.80000000e+00  2.24646521e-08  4.86376171e-03  2.24646521e-08  5.00000000e-01                                 
 3.04640015e-08  6.79129629e-01  3.04640015e-08  6.32514035e-01  3.04640015e-08  1.84399195e+00  3.04640015e-08  1.80000000e+00  3.04640015e-08 -4.83483646e-03  3.04640015e-08  5.00000000e-01                                 
 4.17034054e-08  6.72948530e-01  4.17034054e-08  6.26533014e-01  4.17034054e-08  1.82680820e+00  4.17034054e-08  1.80000000e+00  4.17034054e-08  4.85065403e-03  4.17034054e-08  5.00000000e-01                                 
 6.41822131e-08  6.63670527e-01  6.41822131e-08  6.17478365e-01  6.41822131e-08  1.79623373e+00  6.41822131e-08  1.80000000e+00  6.41822131e-08 -4.82672392e-03  6.41822131e-08  5.00000000e-01                                 
 1.06284037e-07  6.52038181e-01  1.06284037e-07  6.06006789e-01  1.06284037e-07  1.74616425e+00  1.06284037e-07  1.80000000e+00  1.06284037e-07  4.84659725e-03  1.06284037e-07  5.00000000e-01                                 
 1.64282646e-07  6.38698906e-01  1.64282646e-07  5.93349387e-01  1.64282646e-07  1.67924707e+00  1.64282646e-07  1.80000000e+00  1.64282646e-07 -4.82418404e-03  1.64282646e-07  5.00000000e-01                                 
 2.18984208e-07  6.26964986e-01  2.18984208e-07  5.82643777e-01  2.18984208e-07  1.61541336e+00  2.18984208e-07  1.80000000e+00  2.18984208e-07  4.84444626e-03  2.18984208e-07  5.00000000e-01                                 
 3.23744644e-07  6.08318195e-01  3.23744644e-07  5.65948030e-01  3.23744644e-07  1.49388065e+00  3.23744644e-07  1.80000000e+00  3.23744644e-07 -4.82246816e-03  3.23744644e-07  5.00000000e-01                                 
 4.26646908e-07  5.91006054e-01  4.26646908e-07  5.50979706e-01  4.26646908e-07  1.37306872e+00  4.26646908e-07  1.80000000e+00  4.26646908e-07  4.84328940e-03  4.26646908e-07  5.00000000e-01                                 
 6.32451435e-07  5.56204578e-01  6.32451435e-07  5.21892984e-01  6.32451435e-07  1.12735222e+00  6.32451435e-07  1.80000000e+00  6.32451435e-07 -4.82158957e-03  6.32451435e-07  5.00000000e-01                                 
 6.77324104e-07  5.48152852e-01  6.77324104e-07  5.15328980e-01  6.77324104e-07  1.07159953e+00  6.77324104e-07  1.80000000e+00  6.77324104e-07 -3.18878723e-07  6.77324104e-07  5.00000000e-01                                 
 7.67069440e-07  5.31427789e-01  7.67069440e-07  5.01749975e-01  7.67069440e-07  9.61996302e-01  7.67069440e-07  1.80000000e+00  7.67069440e-07  3.15564927e-07  7.67069440e-07  5.00000000e-01                                 
 7.89505774e-07  5.27275289e-01  7.89505774e-07  4.98394777e-01  7.89505774e-07  9.38837051e-01  7.89505774e-07  1.80000000e+00  7.89505774e-07 -1.33710823e-09  7.89505774e-07  5.00000000e-01                                 
 8.34378443e-07  5.18890466e-01  8.34378443e-07  4.91628496e-01  8.34378443e-07  8.96794773e-01  8.34378443e-07  1.80000000e+00  8.34378443e-07 -1.68336363e-09  8.34378443e-07  5.00000000e-01                                 
 9.07011568e-07  5.08851992e-01  9.07011568e-07  4.83530996e-01  9.07011568e-07  8.36693649e-01  9.07011568e-07  1.80000000e+00  9.07011568e-07  3.65529107e-08  9.07011568e-07  5.00000000e-01                                 
 9.69231295e-07  5.13987477e-01  9.69231295e-07  4.87603125e-01  9.69231295e-07  8.02753112e-01  9.69231295e-07  1.80000000e+00  9.69231295e-07  1.64126960e-07  9.69231295e-07  5.00000000e-01                                 
 1.03377900e-06  6.06249634e-01  1.03377900e-06  5.61283266e-01  1.03377900e-06  8.44719925e-01  1.03377900e-06  1.80000000e+00  1.03377900e-06  1.08524803e-06  1.03377900e-06  5.00000000e-01                                 
 1.03983797e-06  6.25459327e-01  1.03983797e-06  5.76634310e-01  1.03983797e-06  8.57166792e-01  1.03983797e-06  1.80000000e+00  1.03983797e-06  1.36481534e-06  1.03983797e-06  5.00000000e-01                                 
 1.05195592e-06  6.72840554e-01  1.05195592e-06  6.15152354e-01  1.05195592e-06  8.88614298e-01  1.05195592e-06  1.80000000e+00  1.05195592e-06  2.11565545e-06  1.05195592e-06  5.00000000e-01                                 
 1.07619182e-06  7.55062451e-01  1.07619182e-06  7.00300098e-01  1.07619182e-06  9.37119133e-01  1.07619182e-06  1.80000000e+00  1.07619182e-06  1.66388311e-06  1.07619182e-06  5.00000000e-01                                 
 1.10612367e-06  7.92138252e-01  1.10612367e-06  7.40490644e-01  1.10612367e-06  9.42619934e-01  1.10612367e-06  1.80000000e+00  1.10612367e-06  1.30976864e-07  1.10612367e-06  5.00000000e-01                                 
 1.13699874e-06  8.13971681e-01  1.13699874e-06  7.60498291e-01  1.13699874e-06  9.34978164e-01  1.13699874e-06  1.80000000e+00  1.13699874e-06  7.98257574e-07  1.13699874e-06  5.00000000e-01                                 
 1.18767128e-06  8.38474518e-01  1.18767128e-06  7.82280287e-01  1.18767128e-06  9.14326496e-01  1.18767128e-06  1.80000000e+00  1.18767128e-06 -2.06884434e-08  1.18767128e-06  5.00000000e-01                                 
 1.24052211e-06  8.74377277e-01  1.24052211e-06  8.09821763e-01  1.24052211e-06  9.01280454e-01  1.24052211e-06  1.80000000e+00  1.24052211e-06  9.18000897e-07  1.24052211e-06  5.00000000e-01                                 
 1.27998155e-06  8.64483307e-01  1.27998155e-06  8.02943842e-01  1.27998155e-06  8.65601504e-01  1.27998155e-06  1.80000000e+00  1.27998155e-06 -9.22376617e-07  1.27998155e-06  5.00000000e-01                                 
 1.28448620e-06  8.58181269e-01  1.28448620e-06  7.98172420e-01  1.28448620e-06  8.57272937e-01  1.28448620e-06  1.80000000e+00  1.28448620e-06 -7.56594527e-07  1.28448620e-06  5.00000000e-01                                 
 1.29349550e-06  8.46934079e-01  1.29349550e-06  7.89263330e-01  1.29349550e-06  8.41711659e-01  1.29349550e-06  1.80000000e+00  1.29349550e-06 -6.22456880e-07  1.29349550e-06  5.00000000e-01                                 
 1.31151411e-06  8.30898152e-01  1.31151411e-06  7.75845222e-01  1.31151411e-06  8.16509954e-01  1.31151411e-06  1.80000000e+00  1.31151411e-06 -3.71149353e-07  1.31151411e-06  5.00000000e-01                                 
 1.33540473e-06  8.17336800e-01  1.33540473e-06  7.63768874e-01  1.33540473e-06  7.90878262e-01  1.33540473e-06  1.80000000e+00  1.33540473e-06 -2.08124861e-07  1.33540473e-06  5.00000000e-01                                 
 1.36091991e-06  8.14325512e-01  1.36091991e-06  7.61028477e-01  1.36091991e-06  7.74393787e-01  1.36091991e-06  1.80000000e+00  1.36091991e-06  1.66983595e-07  1.36091991e-06  5.00000000e-01                                 
 1.41195028e-06  8.22859485e-01  1.41195028e-06  7.68705822e-01  1.41195028e-06  7.55590353e-01  1.41195028e-06  1.80000000e+00  1.41195028e-06  1.75287622e-07  1.41195028e-06  5.00000000e-01                                 
 1.46376927e-06  8.24871410e-01  1.46376927e-06  7.70533664e-01  1.46376927e-06  7.31722756e-01  1.46376927e-06  1.80000000e+00  1.46376927e-06  2.56878816e-08  1.46376927e-06  5.00000000e-01                                 
 1.54104546e-06  8.18631323e-01  1.54104546e-06  7.64925727e-01  1.54104546e-06  6.90219642e-01  1.54104546e-06  1.80000000e+00  1.54104546e-06  1.40196810e-08  1.54104546e-06  5.00000000e-01                                 
 1.66137277e-06  8.22615163e-01  1.66137277e-06  7.68517041e-01  1.66137277e-06  6.40957561e-01  1.66137277e-06  1.80000000e+00  1.66137277e-06  1.64348836e-07  1.66137277e-06  5.00000000e-01                                 
 1.77854370e-06  8.21848247e-01  1.77854370e-06  7.67822842e-01  1.77854370e-06  5.92352859e-01  1.77854370e-06  1.80000000e+00  1.77854370e-06 -2.83108137e-08  1.77854370e-06  5.00000000e-01                                 
 1.97115878e-06  8.20280354e-01  1.97115878e-06  7.66427197e-01  1.97115878e-06  5.31688024e-01  1.97115878e-06  1.80000000e+00  1.97115878e-06  1.58110233e-07  1.97115878e-06  5.00000000e-01                                 
 2.28224857e-06  8.22961770e-01  2.28224857e-06  7.68814923e-01  2.28224857e-06  4.96860416e-01  2.28224857e-06  1.80000000e+00  2.28224857e-06 -4.78595176e-09  2.28224857e-06  5.00000000e-01                                 
 2.32607020e-06  8.21371673e-01  2.32607020e-06  7.67402761e-01  2.32607020e-06  4.94957290e-01  2.32607020e-06  1.80000000e+00  2.32607020e-06  4.64171086e-08  2.32607020e-06  5.00000000e-01                                 
 2.41371346e-06  8.21020052e-01  2.41371346e-06  7.67084172e-01  2.41371346e-06  4.94062073e-01  2.41371346e-06  1.80000000e+00  2.41371346e-06  8.69653889e-08  2.41371346e-06  5.00000000e-01                                 
 2.58899998e-06  8.21966143e-01  2.58899998e-06  7.67933428e-01  2.58899998e-06  4.98367267e-01  2.58899998e-06  1.80000000e+00  2.58899998e-06  6.04681475e-08  2.58899998e-06  5.00000000e-01                                 
 2.78298718e-06  8.20925782e-01  2.78298718e-06  7.67000913e-01  2.78298718e-06  5.02074259e-01  2.78298718e-06  1.80000000e+00  2.78298718e-06  7.17131881e-08  2.78298718e-06  5.00000000e-01                                 
 3.08268154e-06  8.21912501e-01  3.08268154e-06  7.67884488e-01  3.08268154e-06  4.99712467e-01  3.08268154e-06  1.80000000e+00  3.08268154e-06  7.15315867e-08  3.08268154e-06  5.00000000e-01                                 
 3.11681899e-06  8.21619800e-01  3.11681899e-06  7.67623340e-01  3.11681899e-06  4.98875693e-01  3.11681899e-06  1.80000000e+00  3.11681899e-06  6.52098203e-08  3.11681899e-06  5.00000000e-01                                 
 3.18509391e-06  8.21281747e-01  3.18509391e-06  7.67320301e-01  3.18509391e-06  4.98422481e-01  3.18509391e-06  1.80000000e+00  3.18509391e-06  6.92026049e-08  3.18509391e-06  5.00000000e-01                                 
 3.32164374e-06  8.21529678e-01  3.32164374e-06  7.67541909e-01  3.32164374e-06  5.00457025e-01  3.32164374e-06  1.80000000e+00  3.32164374e-06  7.26072749e-08  3.32164374e-06  5.00000000e-01                                 
 3.59474340e-06  8.21397027e-01  3.59474340e-06  7.67423804e-01  3.59474340e-06  5.00561624e-01  3.59474340e-06  1.80000000e+00  3.59474340e-06  6.60746693e-08  3.59474340e-06  5.00000000e-01                                 
 3.98562497e-06  8.21459620e-01  3.98562497e-06  7.67479128e-01  3.98562497e-06  4.99581581e-01  3.98562497e-06  1.80000000e+00  3.98562497e-06  7.37389739e-08  3.98562497e-06  5.00000000e-01                                 
 4.76738810e-06  8.21438896e-01  4.76738810e-06  7.67461310e-01  4.76738810e-06  5.00615775e-01  4.76738810e-06  1.80000000e+00  4.76738810e-06  6.57356528e-08  4.76738810e-06  5.00000000e-01                                 
 5.74697171e-06  8.21435811e-01  5.74697171e-06  7.67457811e-01  5.74697171e-06  4.99717656e-01  5.74697171e-06  1.80000000e+00  5.74697171e-06  7.37777813e-08  5.74697171e-06  5.00000000e-01                                 
 6.74697171e-06  8.21458927e-01  6.74697171e-06  7.67479239e-01  6.74697171e-06  5.00458410e-01  6.74697171e-06  1.80000000e+00  6.74697171e-06  6.57851985e-08  6.74697171e-06  5.00000000e-01                                 
 7.74697171e-06  8.21416925e-01  7.74697171e-06  7.67440911e-01  7.74697171e-06  4.99886839e-01  7.74697171e-06  1.80000000e+00  7.74697171e-06  7.36630699e-08  7.74697171e-06  5.00000000e-01                                 
 8.74697171e-06  8.21476851e-01  8.74697171e-06  7.67495271e-01  8.74697171e-06  5.00295680e-01  8.74697171e-06  1.80000000e+00  8.74697171e-06  6.59576139e-08  8.74697171e-06  5.00000000e-01                                 
 9.74697171e-06  8.21400081e-01  9.74697171e-06  7.67425846e-01  9.74697171e-06  5.00033094e-01  9.74697171e-06  1.80000000e+00  9.74697171e-06  7.34401373e-08  9.74697171e-06  5.00000000e-01                                 
 1.00005000e-05  8.21511259e-01  1.00005000e-05  7.67526007e-01  1.00005000e-05  5.00093037e-01  1.00005000e-05  1.80000000e+00  1.00005000e-05  6.67266042e-08  1.00005000e-05  5.00000000e-01                                 
 1.00005500e-05  8.21510995e-01  1.00005500e-05  7.67525776e-01  1.00005500e-05  4.92060081e-01  1.00005500e-05  1.62000000e+00  1.00005500e-05 -6.99348235e-05  1.00005500e-05  5.00000000e-01                                 
 1.00006500e-05  8.21510496e-01  1.00006500e-05  7.67525326e-01  1.00006500e-05  4.78400671e-01  1.00006500e-05  1.26000000e+00  1.00006500e-05 -4.92953861e-05  1.00006500e-05  5.00000000e-01                                 
 1.00008500e-05  8.21509545e-01  1.00008500e-05  7.67524465e-01  1.00008500e-05  4.77801720e-01  1.00008500e-05  5.40000000e-01  1.00008500e-05 -8.49428603e-04  1.00008500e-05  5.00000000e-01                                 
 1.00010000e-05  8.21508718e-01  1.00010000e-05  7.67523754e-01  1.00010000e-05  4.41229572e-01  1.00010000e-05  0.00000000e+00  1.00010000e-05  1.55269544e+00  1.00010000e-05  5.00000000e-01                                 
 1.00010154e-05  8.21508574e-01  1.00010154e-05  7.67523649e-01  1.00010154e-05  4.21513820e-01  1.00010154e-05  0.00000000e+00  1.00010154e-05  1.68339520e+00  1.00010154e-05  5.00000000e-01                                 
 1.00010461e-05  8.21508307e-01  1.00010461e-05  7.67523442e-01  1.00010461e-05  3.75511578e-01  1.00010461e-05  0.00000000e+00  1.00010461e-05  1.80360963e+00  1.00010461e-05  5.00000000e-01                                 
