 time            v(vbep)         time            v(vben)         time            v(vout)         time            v(vphi1)        time            v(vphi2)        time            v(vref)         time            v(voutc)        time            v(voutcc)       yes             currtemp       
 0.00000000e+00  7.53407088e-01  0.00000000e+00  6.89754041e-01  0.00000000e+00  1.55696269e+00  0.00000000e+00  0.00000000e+00  0.00000000e+00  1.80000000e+00  0.00000000e+00  6.91569998e-01  0.00000000e+00  1.55696267e+00  0.00000000e+00  1.56390042e+00  1.00000000e+00  4.70000000e+01 
 5.00000000e-12  7.53428912e-01  5.00000000e-12  6.89808052e-01  5.00000000e-12  1.55758629e+00  5.00000000e-12  1.80000000e-02  5.00000000e-12  1.80018520e+00  5.00000000e-12  6.91962117e-01  5.00000000e-12  1.55731095e+00  5.00000000e-12  1.56391353e+00                                 
 1.00000000e-11  7.53438504e-01  1.00000000e-11  6.89843697e-01  1.00000000e-11  1.55803649e+00  1.00000000e-11  3.60000000e-02  1.00000000e-11  1.80026913e+00  1.00000000e-11  6.92270329e-01  1.00000000e-11  1.55758612e+00  1.00000000e-11  1.56392041e+00                                 
 2.00000000e-11  7.53444882e-01  2.00000000e-11  6.89893325e-01  2.00000000e-11  1.55868565e+00  2.00000000e-11  7.20000000e-02  2.00000000e-11  1.80032249e+00  2.00000000e-11  6.92752608e-01  2.00000000e-11  1.55802022e+00  2.00000000e-11  1.56392680e+00                                 
 4.00000000e-11  7.53432730e-01  4.00000000e-11  6.89929548e-01  4.00000000e-11  1.55911725e+00  4.00000000e-11  1.44000000e-01  4.00000000e-11  1.80019214e+00  4.00000000e-11  6.93216000e-01  4.00000000e-11  1.55845278e+00  4.00000000e-11  1.56392064e+00                                 
 8.00000000e-11  7.53419202e-01  8.00000000e-11  6.89935113e-01  8.00000000e-11  1.55898457e+00  8.00000000e-11  2.88000000e-01  8.00000000e-11  1.80003009e+00  8.00000000e-11  6.93350209e-01  8.00000000e-11  1.55861457e+00  8.00000000e-11  1.56390593e+00                                 
 1.60000000e-10  7.53419785e-01  1.60000000e-10  6.89922743e-01  1.60000000e-10  1.55849710e+00  1.60000000e-10  5.76000000e-01  1.60000000e-10  1.80000956e+00  1.60000000e-10  6.93149256e-01  1.60000000e-10  1.55847479e+00  1.60000000e-10  1.56390046e+00                                 
 3.20000000e-10  7.53352743e-01  3.20000000e-10  6.89480114e-01  3.20000000e-10  1.55473652e+00  3.20000000e-10  1.15200000e+00  3.20000000e-10  1.80073129e+00  3.20000000e-10  6.89314876e-01  3.20000000e-10  1.55534194e+00  3.20000000e-10  1.56387048e+00                                 
 5.00000000e-10  7.53439280e-01  5.00000000e-10  6.89951656e-01  5.00000000e-10  1.55102806e+00  5.00000000e-10  1.80000000e+00  5.00000000e-10  1.61909116e-01  5.00000000e-10  6.95657985e-01  5.00000000e-10  1.56074760e+00  5.00000000e-10  1.56395972e+00                                 
 5.21135638e-10  7.53440329e-01  5.21135638e-10  6.89986503e-01  5.21135638e-10  1.55038147e+00  5.21135638e-10  1.80000000e+00  5.21135638e-10  4.32301397e-02  5.21135638e-10  6.97253587e-01  5.21135638e-10  1.56164559e+00  5.21135638e-10  1.56394991e+00                                 
 5.63406914e-10  7.53516686e-01  5.63406914e-10  6.90054971e-01  5.63406914e-10  1.54977896e+00  5.63406914e-10  1.80000000e+00  5.63406914e-10 -1.54194354e-02  5.63406914e-10  6.99423806e-01  5.63406914e-10  1.56351000e+00  5.63406914e-10  1.56394611e+00                                 
 6.47949465e-10  7.53624134e-01  6.47949465e-10  6.89892688e-01  6.47949465e-10  1.54685601e+00  6.47949465e-10  1.80000000e+00  6.47949465e-10  1.20976970e-02  6.47949465e-10  6.98954111e-01  6.47949465e-10  1.56332041e+00  6.47949465e-10  1.56389423e+00                                 
 7.67139249e-10  7.53665932e-01  7.67139249e-10  6.89856375e-01  7.67139249e-10  1.54527048e+00  7.67139249e-10  1.80000000e+00  7.67139249e-10 -9.51635345e-03  7.67139249e-10  7.00180961e-01  7.67139249e-10  1.56422598e+00  7.67139249e-10  1.56391923e+00                                 
 9.44699092e-10  7.53722438e-01  9.44699092e-10  6.89823649e-01  9.44699092e-10  1.54428388e+00  9.44699092e-10  1.80000000e+00  9.44699092e-10  8.70633901e-03  9.44699092e-10  7.00964852e-01  9.44699092e-10  1.56506400e+00  9.44699092e-10  1.56389185e+00                                 
 1.29981878e-09  7.53693436e-01  1.29981878e-09  6.89748285e-01  1.29981878e-09  1.54236968e+00  1.29981878e-09  1.80000000e+00  1.29981878e-09 -7.92088139e-03  1.29981878e-09  7.00622192e-01  1.29981878e-09  1.56463624e+00  1.29981878e-09  1.56391866e+00                                 
 1.71613069e-09  7.53637969e-01  1.71613069e-09  6.89763637e-01  1.71613069e-09  1.54108097e+00  1.71613069e-09  1.80000000e+00  1.71613069e-09  7.60782148e-03  1.71613069e-09  7.00309858e-01  1.71613069e-09  1.56448939e+00  1.71613069e-09  1.56396278e+00                                 
 2.36442873e-09  7.53503439e-01  2.36442873e-09  6.89724524e-01  2.36442873e-09  1.53864259e+00  2.36442873e-09  1.80000000e+00  2.36442873e-09 -7.30532800e-03  2.36442873e-09  6.98792514e-01  2.36442873e-09  1.56303936e+00  2.36442873e-09  1.56408022e+00                                 
 3.03984613e-09  7.53440568e-01  3.03984613e-09  6.89754475e-01  3.03984613e-09  1.53670251e+00  3.03984613e-09  1.80000000e+00  3.03984613e-09  7.06974782e-03  3.03984613e-09  6.98029595e-01  3.03984613e-09  1.56248597e+00  3.03984613e-09  1.56420549e+00                                 
 4.04601303e-09  7.53375049e-01  4.04601303e-09  6.89721269e-01  4.04601303e-09  1.53272253e+00  4.04601303e-09  1.80000000e+00  4.04601303e-09 -6.90734620e-03  4.04601303e-09  6.96062783e-01  4.04601303e-09  1.56065037e+00  4.04601303e-09  1.56438337e+00                                 
 5.52565192e-09  7.53367896e-01  5.52565192e-09  6.89756512e-01  5.52565192e-09  1.52744571e+00  5.52565192e-09  1.80000000e+00  5.52565192e-09  6.80541651e-03  5.52565192e-09  6.94559621e-01  5.52565192e-09  1.55944755e+00  5.52565192e-09  1.56458093e+00                                 
 8.48492968e-09  7.53345635e-01  8.48492968e-09  6.89731757e-01  8.48492968e-09  1.51533850e+00  8.48492968e-09  1.80000000e+00  8.48492968e-09 -6.74328028e-03  8.48492968e-09  6.91681060e-01  8.48492968e-09  1.55682581e+00  8.48492968e-09  1.56474776e+00                                 
 1.18098316e-08  7.53367885e-01  1.18098316e-08  6.89769216e-01  1.18098316e-08  1.50125764e+00  1.18098316e-08  1.80000000e+00  1.18098316e-08  6.71603569e-03  1.18098316e-08  6.90829908e-01  1.18098316e-08  1.55619284e+00  1.18098316e-08  1.56468382e+00                                 
 1.43703534e-08  7.53368344e-01  1.43703534e-08  6.89737570e-01  1.43703534e-08  1.48868207e+00  1.43703534e-08  1.80000000e+00  1.43703534e-08 -6.63397646e-03  1.43703534e-08  6.90076777e-01  1.43703534e-08  1.55542229e+00  1.43703534e-08  1.56454636e+00                                 
 1.73583219e-08  7.53394268e-01  1.73583219e-08  6.89770582e-01  1.73583219e-08  1.47382158e+00  1.73583219e-08  1.80000000e+00  1.73583219e-08  6.60896508e-03  1.73583219e-08  6.90392448e-01  1.73583219e-08  1.55579886e+00  1.73583219e-08  1.56436776e+00                                 
 2.07283030e-08  7.53392470e-01  2.07283030e-08  6.89738007e-01  2.07283030e-08  1.45541887e+00  2.07283030e-08  1.80000000e+00  2.07283030e-08 -6.53860485e-03  2.07283030e-08  6.90071810e-01  2.07283030e-08  1.55540286e+00  2.07283030e-08  1.56417168e+00                                 
 2.55081702e-08  7.53414365e-01  2.55081702e-08  6.89770723e-01  2.55081702e-08  1.42913624e+00  2.55081702e-08  1.80000000e+00  2.55081702e-08  6.53496529e-03  2.55081702e-08  6.90712247e-01  2.55081702e-08  1.55605884e+00  2.55081702e-08  1.56394518e+00                                 
 3.10954867e-08  7.53405190e-01  3.10954867e-08  6.89737983e-01  3.10954867e-08  1.39688853e+00  3.10954867e-08  1.80000000e+00  3.10954867e-08 -6.48114271e-03  3.10954867e-08  6.90581865e-01  3.10954867e-08  1.55583039e+00  3.10954867e-08  1.56375199e+00                                 
 3.94840321e-08  7.53418371e-01  3.94840321e-08  6.89770614e-01  3.94840321e-08  1.34874763e+00  3.94840321e-08  1.80000000e+00  3.94840321e-08  6.49150399e-03  3.94840321e-08  6.91302151e-01  3.94840321e-08  1.55655956e+00  3.94840321e-08  1.56359043e+00                                 
 5.09243408e-08  7.53403524e-01  5.09243408e-08  6.89737773e-01  5.09243408e-08  1.28209277e+00  5.09243408e-08  1.80000000e+00  5.09243408e-08 -6.45101231e-03  5.09243408e-08  6.91140644e-01  5.09243408e-08  1.55631084e+00  5.09243408e-08  1.56350913e+00                                 
 7.15387499e-08  7.53414359e-01  7.15387499e-08  6.89770424e-01  7.15387499e-08  1.16331024e+00  7.15387499e-08  1.80000000e+00  7.15387499e-08  6.47173253e-03  7.15387499e-08  6.91724000e-01  7.15387499e-08  1.55692826e+00  7.15387499e-08  1.56352959e+00                                 
 1.04153529e-07  7.53400613e-01  1.04153529e-07  6.89737652e-01  1.04153529e-07  9.76631464e-01  1.04153529e-07  1.80000000e+00  1.04153529e-07 -6.43930742e-03  1.04153529e-07  6.91365846e-01  1.04153529e-07  1.55651246e+00  1.04153529e-07  1.56361725e+00                                 
 1.34657878e-07  7.53412687e-01  1.34657878e-07  6.89770354e-01  1.34657878e-07  8.13567942e-01  1.34657878e-07  1.80000000e+00  1.34657878e-07  6.46338139e-03  1.34657878e-07  6.91769841e-01  1.34657878e-07  1.55697061e+00  1.34657878e-07  1.56366147e+00                                 
 1.64942180e-07  7.53403931e-01  1.64942180e-07  6.89737807e-01  1.64942180e-07  7.12181632e-01  1.64942180e-07  1.80000000e+00  1.64942180e-07 -6.42717102e-03  1.64942180e-07  6.91367673e-01  1.64942180e-07  1.55651280e+00  1.64942180e-07  1.56367199e+00                                 
 1.86337296e-07  7.53410398e-01  1.86337296e-07  6.89770389e-01  1.86337296e-07  6.95329310e-01  1.86337296e-07  1.80000000e+00  1.86337296e-07  6.45413170e-03  1.86337296e-07  6.91778722e-01  1.86337296e-07  1.55697660e+00  1.86337296e-07  1.56367972e+00                                 
 2.07858107e-07  7.53401779e-01  2.07858107e-07  6.89737536e-01  2.07858107e-07  6.93519732e-01  2.07858107e-07  1.80000000e+00  2.07858107e-07 -6.41371922e-03  2.07858107e-07  6.91366415e-01  2.07858107e-07  1.55651043e+00  2.07858107e-07  1.56367886e+00                                 
 2.29222919e-07  7.53412238e-01  2.29222919e-07  6.89770527e-01  2.29222919e-07  6.93535219e-01  2.29222919e-07  1.80000000e+00  2.29222919e-07  6.44101075e-03  2.29222919e-07  6.91774497e-01  2.29222919e-07  1.55697129e+00  2.29222919e-07  1.56368115e+00                                 
 2.55612981e-07  7.53401577e-01  2.55612981e-07  6.89737532e-01  2.55612981e-07  6.93343772e-01  2.55612981e-07  1.80000000e+00  2.55612981e-07 -6.40187517e-03  2.55612981e-07  6.91365723e-01  2.55612981e-07  1.55650815e+00  2.55612981e-07  1.56367720e+00                                 
 3.08393106e-07  7.53412692e-01  3.08393106e-07  6.89770533e-01  3.08393106e-07  6.93513826e-01  3.08393106e-07  1.80000000e+00  3.08393106e-07  6.43297988e-03  3.08393106e-07  6.91774133e-01  3.08393106e-07  1.55696801e+00  3.08393106e-07  1.56367799e+00                                 
 4.13953355e-07  7.53401438e-01  4.13953355e-07  6.89737535e-01  4.13953355e-07  6.93333703e-01  4.13953355e-07  1.80000000e+00  4.13953355e-07 -6.39775492e-03  4.13953355e-07  6.91365747e-01  4.13953355e-07  1.55650245e+00  4.13953355e-07  1.56367120e+00                                 
 6.25073853e-07  7.53412762e-01  6.25073853e-07  6.89770531e-01  6.25073853e-07  6.93517407e-01  6.25073853e-07  1.80000000e+00  6.25073853e-07  6.43098148e-03  6.25073853e-07  6.91774117e-01  6.25073853e-07  1.55695648e+00  6.25073853e-07  1.56366650e+00                                 
 1.04731485e-06  7.53401404e-01  1.04731485e-06  6.89737535e-01  1.04731485e-06  6.93332048e-01  1.04731485e-06  1.80000000e+00  1.04731485e-06 -6.39676634e-03  1.04731485e-06  6.91365754e-01  1.04731485e-06  1.55647946e+00  1.04731485e-06  1.56364823e+00                                 
 1.89179684e-06  7.53412778e-01  1.89179684e-06  6.89770530e-01  1.89179684e-06  6.93518211e-01  1.89179684e-06  1.80000000e+00  1.89179684e-06  6.43048200e-03  1.89179684e-06  6.91774113e-01  1.89179684e-06  1.55691048e+00  1.89179684e-06  1.56362057e+00                                 
 2.89179684e-06  7.53401394e-01  2.89179684e-06  6.89737536e-01  2.89179684e-06  6.93331564e-01  2.89179684e-06  1.80000000e+00  2.89179684e-06 -6.39663122e-03  2.89179684e-06  6.91365757e-01  2.89179684e-06  1.55641252e+00  2.89179684e-06  1.56358138e+00                                 
 3.89179684e-06  7.53412788e-01  3.89179684e-06  6.89770530e-01  3.89179684e-06  6.93518656e-01  3.89179684e-06  1.80000000e+00  3.89179684e-06  6.43023176e-03  3.89179684e-06  6.91774111e-01  3.89179684e-06  1.55683790e+00  3.89179684e-06  1.56354810e+00                                 
 4.89179684e-06  7.53401384e-01  4.89179684e-06  6.89737536e-01  4.89179684e-06  6.93331125e-01  4.89179684e-06  1.80000000e+00  4.89179684e-06 -6.39637162e-03  4.89179684e-06  6.91365760e-01  4.89179684e-06  1.55633994e+00  4.89179684e-06  1.56350890e+00                                 
 5.89179684e-06  7.53412797e-01  5.89179684e-06  6.89770529e-01  5.89179684e-06  6.93519091e-01  5.89179684e-06  1.80000000e+00  5.89179684e-06  6.42995058e-03  5.89179684e-06  6.91774108e-01  5.89179684e-06  1.55676531e+00  5.89179684e-06  1.56347562e+00                                 
 6.89179684e-06  7.53401375e-01  6.89179684e-06  6.89737537e-01  6.89179684e-06  6.93330692e-01  6.89179684e-06  1.80000000e+00  6.89179684e-06 -6.39609331e-03  6.89179684e-06  6.91365762e-01  6.89179684e-06  1.55626738e+00  6.89179684e-06  1.56343645e+00                                 
 7.89179684e-06  7.53412806e-01  7.89179684e-06  6.89770529e-01  7.89179684e-06  6.93519521e-01  7.89179684e-06  1.80000000e+00  7.89179684e-06  6.42966941e-03  7.89179684e-06  6.91774106e-01  7.89179684e-06  1.55669274e+00  7.89179684e-06  1.56340316e+00                                 
 8.89179684e-06  7.53401366e-01  8.89179684e-06  6.89737537e-01  8.89179684e-06  6.93330265e-01  8.89179684e-06  1.80000000e+00  8.89179684e-06 -6.39581502e-03  8.89179684e-06  6.91365764e-01  8.89179684e-06  1.55619479e+00  8.89179684e-06  1.56336396e+00                                 
 9.89179684e-06  7.53412815e-01  9.89179684e-06  6.89770529e-01  9.89179684e-06  6.93519944e-01  9.89179684e-06  1.80000000e+00  9.89179684e-06  6.42938825e-03  9.89179684e-06  6.91774104e-01  9.89179684e-06  1.55662013e+00  9.89179684e-06  1.56333066e+00                                 
 1.00005000e-05  7.53401322e-01  1.00005000e-05  6.89737539e-01  1.00005000e-05  6.93328168e-01  1.00005000e-05  1.80000000e+00  1.00005000e-05 -6.39443360e-03  1.00005000e-05  6.91365775e-01  1.00005000e-05  1.55615456e+00  1.00005000e-05  1.56332376e+00                                 
 1.00005500e-05  7.53371225e-01  1.00005500e-05  6.89563099e-01  1.00005500e-05  6.91715331e-01  1.00005500e-05  1.62000000e+00  1.00005500e-05 -7.08567959e-04  1.00005500e-05  6.90039499e-01  1.00005500e-05  1.55503981e+00  1.00005500e-05  1.56330974e+00                                 
 1.00006500e-05  7.53398601e-01  1.00006500e-05  6.89542293e-01  1.00006500e-05  6.91744852e-01  1.00006500e-05  1.26000000e+00  1.00006500e-05  5.18824939e-04  1.00006500e-05  6.89731881e-01  1.00006500e-05  1.55478078e+00  1.00006500e-05  1.56332615e+00                                 
 1.00008500e-05  7.53442092e-01  1.00008500e-05  6.89738116e-01  1.00008500e-05  6.93995259e-01  1.00008500e-05  5.40000000e-01  1.00008500e-05 -4.58196816e-03  1.00008500e-05  6.90729721e-01  1.00008500e-05  1.55424938e+00  1.00008500e-05  1.56331977e+00                                 
 1.00010000e-05  7.53395418e-01  1.00010000e-05  6.88837873e-01  1.00010000e-05  7.14645473e-01  1.00010000e-05  0.00000000e+00  1.00010000e-05  1.51240470e+00  1.00010000e-05  6.80307928e-01  1.00010000e-05  1.49711324e+00  1.00010000e-05  1.56282086e+00                                 
 1.00010256e-05  7.53412656e-01  1.00010256e-05  6.88510667e-01  1.00010256e-05  7.20603830e-01  1.00010256e-05  0.00000000e+00  1.00010256e-05  1.69075864e+00  1.00010256e-05  6.76285924e-01  1.00010256e-05  1.47054307e+00  1.00010256e-05  1.56264792e+00                                 
 1.00010767e-05  7.53411559e-01  1.00010767e-05  6.87874137e-01  1.00010767e-05  7.26394816e-01  1.00010767e-05  0.00000000e+00  1.00010767e-05  1.82142308e+00  1.00010767e-05  6.68698779e-01  1.00010767e-05  1.41099767e+00  1.00010767e-05  1.56250485e+00                                 
 1.00011789e-05  7.53404700e-01  1.00011789e-05  6.87744767e-01  1.00011789e-05  7.20478390e-01  1.00011789e-05  0.00000000e+00  1.00011789e-05  1.78666045e+00  1.00011789e-05  6.67804739e-01  1.00011789e-05  1.30657378e+00  1.00011789e-05  1.56303836e+00                                 
 1.00013070e-05  7.53411291e-01  1.00013070e-05  6.88060371e-01  1.00013070e-05  7.16971861e-01  1.00013070e-05  0.00000000e+00  1.00013070e-05  1.80709064e+00  1.00013070e-05  6.72324737e-01  1.00013070e-05  1.20627941e+00  1.00013070e-05  1.56340114e+00                                 
 1.00015243e-05  7.53403845e-01  1.00015243e-05  6.88228068e-01  1.00015243e-05  7.12971991e-01  1.00015243e-05  0.00000000e+00  1.00015243e-05  1.79387578e+00  1.00015243e-05  6.73542340e-01  1.00015243e-05  1.06509068e+00  1.00015243e-05  1.56359934e+00                                 
 1.00018367e-05  7.53410140e-01  1.00018367e-05  6.88776578e-01  1.00018367e-05  7.08247849e-01  1.00018367e-05  0.00000000e+00  1.00018367e-05  1.80449667e+00  1.00018367e-05  6.78498352e-01  1.00018367e-05  9.19439098e-01  1.00018367e-05  1.56355747e+00                                 
 1.00022750e-05  7.53404011e-01  1.00022750e-05  6.89315945e-01  1.00022750e-05  7.03146146e-01  1.00022750e-05  0.00000000e+00  1.00022750e-05  1.79568253e+00  1.00022750e-05  6.82652458e-01  1.00022750e-05  7.82970865e-01  1.00022750e-05  1.56305209e+00                                 
 1.00027495e-05  7.53409891e-01  1.00027495e-05  6.90006103e-01  1.00027495e-05  6.96799933e-01  1.00027495e-05  0.00000000e+00  1.00027495e-05  1.80354663e+00  1.00027495e-05  6.89551505e-01  1.00027495e-05  7.19391441e-01  1.00027495e-05  1.56201049e+00                                 
 1.00031480e-05  7.53404398e-01  1.00031480e-05  6.90136647e-01  1.00031480e-05  6.96386157e-01  1.00031480e-05  0.00000000e+00  1.00031480e-05  1.79692274e+00  1.00031480e-05  6.90615927e-01  1.00031480e-05  7.01500257e-01  1.00031480e-05  1.56069051e+00                                 
 1.00036525e-05  7.53409623e-01  1.00036525e-05  6.90287491e-01  1.00036525e-05  6.95665330e-01  1.00036525e-05  0.00000000e+00  1.00036525e-05  1.80269567e+00  1.00036525e-05  6.92819503e-01  1.00036525e-05  6.97396046e-01  1.00036525e-05  1.55865368e+00                                 
 1.00041989e-05  7.53404706e-01  1.00041989e-05  6.90179343e-01  1.00041989e-05  6.97718323e-01  1.00041989e-05  0.00000000e+00  1.00041989e-05  1.79760946e+00  1.00041989e-05  6.92274973e-01  1.00041989e-05  6.96439900e-01  1.00041989e-05  1.55616530e+00                                 
 1.00050966e-05  7.53409434e-01  1.00050966e-05  6.90155831e-01  1.00050966e-05  6.99246370e-01  1.00050966e-05  0.00000000e+00  1.00050966e-05  1.80222243e+00  1.00050966e-05  6.93297214e-01  1.00050966e-05  6.99293121e-01  1.00050966e-05  1.55182388e+00                                 
 1.00065009e-05  7.53404828e-01  1.00065009e-05  6.89965167e-01  1.00065009e-05  7.03966445e-01  1.00065009e-05  0.00000000e+00  1.00065009e-05  1.79788264e+00  1.00065009e-05  6.92527771e-01  1.00065009e-05  7.02354378e-01  1.00065009e-05  1.54466565e+00                                 
