 time            v(vbep)         time            v(vben)         time            v(vout)         time            v(vphi1)        time            v(vphi2)        time            v(vref)         time            v(voutc)        time            v(voutcc)       yes             currtemp       
 0.00000000e+00  7.58586597e-01  0.00000000e+00  6.98150647e-01  0.00000000e+00  1.57413176e+00  0.00000000e+00  0.00000000e+00  0.00000000e+00  1.80000000e+00  0.00000000e+00  7.00232292e-01  0.00000000e+00  1.57413175e+00  0.00000000e+00  1.58078537e+00  1.00000000e+00  3.70000000e+01 
 1.00000000e-11  7.58611649e-01  1.00000000e-11  6.98221932e-01  1.00000000e-11  1.57491327e+00  1.00000000e-11  1.80000000e-02  1.00000000e-11  1.80025139e+00  1.00000000e-11  7.00763727e-01  1.00000000e-11  1.57460198e+00  1.00000000e-11  1.58079904e+00                                 
 2.00000000e-11  7.58618507e-01  2.00000000e-11  6.98266621e-01  2.00000000e-11  1.57539505e+00  2.00000000e-11  3.60000000e-02  2.00000000e-11  1.80035129e+00  2.00000000e-11  7.01158502e-01  2.00000000e-11  1.57495829e+00  2.00000000e-11  1.58080416e+00                                 
 4.00000000e-11  7.58618452e-01  4.00000000e-11  6.98325533e-01  4.00000000e-11  1.57597742e+00  4.00000000e-11  7.20000000e-02  4.00000000e-11  1.80038992e+00  4.00000000e-11  7.01735969e-01  4.00000000e-11  1.57549023e+00  4.00000000e-11  1.58080581e+00                                 
 8.00000000e-11  7.58606598e-01  8.00000000e-11  6.98363494e-01  8.00000000e-11  1.57610337e+00  8.00000000e-11  1.44000000e-01  8.00000000e-11  1.80018642e+00  8.00000000e-11  7.02182960e-01  8.00000000e-11  1.57592633e+00  8.00000000e-11  1.58079514e+00                                 
 1.60000000e-10  7.58603704e-01  1.60000000e-10  6.98374199e-01  1.60000000e-10  1.57577149e+00  1.60000000e-10  2.88000000e-01  1.60000000e-10  1.80000414e+00  1.60000000e-10  7.02253395e-01  1.60000000e-10  1.57598115e+00  1.60000000e-10  1.58078548e+00                                 
 3.20000000e-10  7.58599874e-01  3.20000000e-10  6.98373076e-01  3.20000000e-10  1.57540568e+00  3.20000000e-10  5.76000000e-01  3.20000000e-10  1.79999109e+00  3.20000000e-10  7.02117580e-01  3.20000000e-10  1.57569158e+00  3.20000000e-10  1.58078140e+00                                 
 6.40000000e-10  7.58517329e-01  6.40000000e-10  6.98004619e-01  6.40000000e-10  1.57306369e+00  6.40000000e-10  1.15200000e+00  6.40000000e-10  1.81168709e+00  6.40000000e-10  7.00015065e-01  6.40000000e-10  1.58045883e+00  6.40000000e-10  1.58081001e+00                                 
 1.00000000e-09  7.59151195e-01  1.00000000e-09  6.98248475e-01  1.00000000e-09  1.54793974e+00  1.00000000e-09  1.80000000e+00  1.00000000e-09  9.22254612e-02  1.00000000e-09  7.10670645e-01  1.00000000e-09  1.58005597e+00  1.00000000e-09  1.58076826e+00                                 
 1.03643865e-09  7.59185132e-01  1.03643865e-09  6.98285810e-01  1.03643865e-09  1.54703090e+00  1.03643865e-09  1.80000000e+00  1.03643865e-09  2.05623554e-02  1.03643865e-09  7.13581120e-01  1.03643865e-09  1.58164176e+00  1.03643865e-09  1.58080731e+00                                 
 1.10931596e-09  7.59283869e-01  1.10931596e-09  6.98355624e-01  1.10931596e-09  1.54637824e+00  1.10931596e-09  1.80000000e+00  1.10931596e-09 -9.85488030e-03  1.10931596e-09  7.17351399e-01  1.10931596e-09  1.58457634e+00  1.10931596e-09  1.58083485e+00                                 
 1.25507057e-09  7.59395648e-01  1.25507057e-09  6.98227896e-01  1.25507057e-09  1.54445467e+00  1.25507057e-09  1.80000000e+00  1.25507057e-09  8.28899746e-03  1.25507057e-09  7.17587511e-01  1.25507057e-09  1.58502901e+00  1.25507057e-09  1.58078824e+00                                 
 1.46808251e-09  7.59387230e-01  1.46808251e-09  6.98202698e-01  1.46808251e-09  1.54355537e+00  1.46808251e-09  1.80000000e+00  1.46808251e-09 -6.45330321e-03  1.46808251e-09  7.17059237e-01  1.46808251e-09  1.58437309e+00  1.46808251e-09  1.58082053e+00                                 
 1.69762817e-09  7.59296795e-01  1.69762817e-09  6.98197482e-01  1.69762817e-09  1.54342183e+00  1.69762817e-09  1.80000000e+00  1.69762817e-09  5.57097345e-03  1.69762817e-09  7.15759426e-01  1.69762817e-09  1.58344459e+00  1.69762817e-09  1.58082607e+00                                 
 2.08402182e-09  7.59040617e-01  2.08402182e-09  6.98151559e-01  2.08402182e-09  1.54367292e+00  2.08402182e-09  1.80000000e+00  2.08402182e-09 -5.06764085e-03  2.08402182e-09  7.13597844e-01  2.08402182e-09  1.58144272e+00  2.08402182e-09  1.58090786e+00                                 
 2.47150893e-09  7.58843690e-01  2.47150893e-09  6.98157304e-01  2.47150893e-09  1.54418367e+00  2.47150893e-09  1.80000000e+00  2.47150893e-09  4.50606500e-03  2.47150893e-09  7.11786166e-01  2.47150893e-09  1.58004025e+00  2.47150893e-09  1.58097605e+00                                 
 3.12704213e-09  7.58621014e-01  3.12704213e-09  6.98114680e-01  3.12704213e-09  1.54390999e+00  3.12704213e-09  1.80000000e+00  3.12704213e-09 -4.34229885e-03  3.12704213e-09  7.08683184e-01  3.12704213e-09  1.57725777e+00  3.12704213e-09  1.58111329e+00                                 
 4.07833789e-09  7.58503326e-01  4.07833789e-09  6.98133019e-01  4.07833789e-09  1.54329353e+00  4.07833789e-09  1.80000000e+00  4.07833789e-09  4.08750337e-03  4.07833789e-09  7.05514562e-01  4.07833789e-09  1.57468287e+00  4.07833789e-09  1.58125014e+00                                 
 5.98092943e-09  7.58409358e-01  5.98092943e-09  6.98114117e-01  5.98092943e-09  1.54101822e+00  5.98092943e-09  1.80000000e+00  5.98092943e-09 -4.06381630e-03  5.98092943e-09  7.01135296e-01  5.98092943e-09  1.57082840e+00  5.98092943e-09  1.58134644e+00                                 
 7.61144534e-09  7.58414444e-01  7.61144534e-09  6.98150769e-01  7.61144534e-09  1.53897781e+00  7.61144534e-09  1.80000000e+00  7.61144534e-09  3.94564287e-03  7.61144534e-09  6.99661925e-01  7.61144534e-09  1.56969767e+00  7.61144534e-09  1.58124023e+00                                 
 9.10202708e-09  7.58433552e-01  9.10202708e-09  6.98129224e-01  9.10202708e-09  1.53541329e+00  9.10202708e-09  1.80000000e+00  9.10202708e-09 -3.86079889e-03  9.10202708e-09  6.98723415e-01  9.10202708e-09  1.56877804e+00  9.10202708e-09  1.58106470e+00                                 
 1.07280441e-08  7.58479631e-01  1.07280441e-08  6.98159541e-01  1.07280441e-08  1.53079013e+00  1.07280441e-08  1.80000000e+00  1.07280441e-08  3.76726467e-03  1.07280441e-08  6.98605949e-01  1.07280441e-08  1.56879064e+00  1.07280441e-08  1.58082057e+00                                 
 1.29495564e-08  7.58519754e-01  1.29495564e-08  6.98134975e-01  1.29495564e-08  1.52221262e+00  1.29495564e-08  1.80000000e+00  1.29495564e-08 -3.70674792e-03  1.29495564e-08  6.98298878e-01  1.29495564e-08  1.56840397e+00  1.29495564e-08  1.58047586e+00                                 
 1.56914190e-08  7.58567119e-01  1.56914190e-08  6.98163358e-01  1.56914190e-08  1.51055971e+00  1.56914190e-08  1.80000000e+00  1.56914190e-08  3.65767002e-03  1.56914190e-08  6.98655691e-01  1.56914190e-08  1.56880534e+00  1.56914190e-08  1.58005733e+00                                 
 1.94046497e-08  7.58585386e-01  1.94046497e-08  6.98137308e-01  1.94046497e-08  1.49275611e+00  1.94046497e-08  1.80000000e+00  1.94046497e-08 -3.61934808e-03  1.94046497e-08  6.98708955e-01  1.94046497e-08  1.56871738e+00  1.94046497e-08  1.57955738e+00                                 
 2.44338395e-08  7.58601168e-01  2.44338395e-08  6.98164600e-01  2.44338395e-08  1.46826172e+00  2.44338395e-08  1.80000000e+00  2.44338395e-08  3.59527807e-03  2.44338395e-08  6.99281979e-01  2.44338395e-08  1.56929282e+00  2.44338395e-08  1.57899040e+00                                 
 3.26340173e-08  7.58591882e-01  3.26340173e-08  6.98137596e-01  3.26340173e-08  1.42706758e+00  3.26340173e-08  1.80000000e+00  3.26340173e-08 -3.57663894e-03  3.26340173e-08  6.99460272e-01  3.26340173e-08  1.56930767e+00  3.26340173e-08  1.57830453e+00                                 
 4.61482824e-08  7.58594218e-01  4.61482824e-08  6.98164277e-01  4.61482824e-08  1.35963142e+00  4.61482824e-08  1.80000000e+00  4.61482824e-08  3.56914612e-03  4.61482824e-08  7.00055700e-01  4.61482824e-08  1.56990230e+00  4.61482824e-08  1.57759052e+00                                 
 7.31768124e-08  7.58583757e-01  7.31768124e-08  6.98137187e-01  7.31768124e-08  1.22443740e+00  7.31768124e-08  1.80000000e+00  7.31768124e-08 -3.56200255e-03  7.31768124e-08  7.00082079e-01  7.31768124e-08  1.56979906e+00  7.31768124e-08  1.57694997e+00                                 
 1.11650309e-07  7.58590172e-01  1.11650309e-07  6.98164102e-01  1.11650309e-07  1.03460327e+00  1.11650309e-07  1.80000000e+00  1.11650309e-07  3.56123829e-03  1.11650309e-07  7.00347495e-01  1.11650309e-07  1.57013042e+00  1.11650309e-07  1.57670481e+00                                 
 1.67810081e-07  7.58582866e-01  1.67810081e-07  6.98137152e-01  1.67810081e-07  7.92139914e-01  1.67810081e-07  1.80000000e+00  1.67810081e-07 -3.55397799e-03  1.67810081e-07  7.00115535e-01  1.67810081e-07  1.56981919e+00  1.67810081e-07  1.57664085e+00                                 
 2.16903705e-07  7.58591874e-01  2.16903705e-07  6.98164229e-01  2.16903705e-07  6.99885600e-01  2.16903705e-07  1.80000000e+00  2.16903705e-07  3.56153553e-03  2.16903705e-07  7.00350122e-01  2.16903705e-07  1.57012681e+00  2.16903705e-07  1.57663252e+00                                 
 2.62639669e-07  7.58579651e-01  2.62639669e-07  6.98137011e-01  2.62639669e-07  7.02585360e-01  2.62639669e-07  1.80000000e+00  2.62639669e-07 -3.54612186e-03  2.62639669e-07  7.00118313e-01  2.62639669e-07  1.56981798e+00  2.62639669e-07  1.57663349e+00                                 
 2.82881615e-07  7.58593365e-01  2.82881615e-07  6.98164194e-01  2.82881615e-07  7.02651820e-01  2.82881615e-07  1.80000000e+00  2.82881615e-07  3.55247480e-03  2.82881615e-07  7.00345800e-01  2.82881615e-07  1.57012064e+00  2.82881615e-07  1.57662987e+00                                 
 3.15597576e-07  7.58580258e-01  3.15597576e-07  6.98137125e-01  3.15597576e-07  7.02163885e-01  3.15597576e-07  1.80000000e+00  3.15597576e-07 -3.53607748e-03  3.15597576e-07  7.00118220e-01  3.15597576e-07  1.56981610e+00  3.15597576e-07  1.57662999e+00                                 
 3.81029499e-07  7.58592773e-01  3.81029499e-07  6.98164153e-01  3.81029499e-07  7.02543703e-01  3.81029499e-07  1.80000000e+00  3.81029499e-07  3.54669288e-03  3.81029499e-07  7.00346438e-01  3.81029499e-07  1.57011756e+00  3.81029499e-07  1.57662558e+00                                 
 4.69769844e-07  7.58580536e-01  4.69769844e-07  6.98137135e-01  4.69769844e-07  7.02169554e-01  4.69769844e-07  1.80000000e+00  4.69769844e-07 -3.53275870e-03  4.69769844e-07  7.00118029e-01  4.69769844e-07  1.56981046e+00  4.69769844e-07  1.57662429e+00                                 
 6.47250535e-07  7.58592600e-01  6.47250535e-07  6.98164148e-01  6.47250535e-07  7.02540053e-01  6.47250535e-07  1.80000000e+00  6.47250535e-07  3.54456177e-03  6.47250535e-07  7.00346544e-01  6.47250535e-07  1.57010808e+00  6.47250535e-07  1.57661605e+00                                 
 1.00221192e-06  7.58580621e-01  1.00221192e-06  6.98137137e-01  1.00221192e-06  7.02171343e-01  1.00221192e-06  1.80000000e+00  1.00221192e-06 -3.53168308e-03  1.00221192e-06  7.00117979e-01  1.00221192e-06  1.56979138e+00  1.00221192e-06  1.57660526e+00                                 
 1.67111526e-06  7.58592557e-01  1.67111526e-06  6.98164148e-01  1.67111526e-06  7.02539117e-01  1.67111526e-06  1.80000000e+00  1.67111526e-06  3.54401850e-03  1.67111526e-06  7.00346568e-01  1.67111526e-06  1.57007144e+00  1.67111526e-06  1.57657946e+00                                 
 2.87111526e-06  7.58580644e-01  2.87111526e-06  6.98137137e-01  2.87111526e-06  7.02171850e-01  2.87111526e-06  1.80000000e+00  2.87111526e-06 -3.53139882e-03  2.87111526e-06  7.00117966e-01  2.87111526e-06  1.56972448e+00  2.87111526e-06  1.57653846e+00                                 
 4.07111526e-06  7.58592541e-01  4.07111526e-06  6.98164147e-01  4.07111526e-06  7.02538767e-01  4.07111526e-06  1.80000000e+00  4.07111526e-06  3.54380958e-03  4.07111526e-06  7.00346578e-01  4.07111526e-06  1.56998552e+00  4.07111526e-06  1.57649365e+00                                 
 5.27111526e-06  7.58580660e-01  5.27111526e-06  6.98137138e-01  5.27111526e-06  7.02172220e-01  5.27111526e-06  1.80000000e+00  5.27111526e-06 -3.53120584e-03  5.27111526e-06  7.00117958e-01  5.27111526e-06  1.56963854e+00  5.27111526e-06  1.57645265e+00                                 
 6.00100000e-06  7.58592520e-01  6.00100000e-06  6.98164147e-01  6.00100000e-06  7.02538286e-01  6.00100000e-06  1.80000000e+00  6.00100000e-06  3.54353196e-03  6.00100000e-06  7.00346589e-01  6.00100000e-06  1.56991642e+00  6.00100000e-06  1.57642464e+00                                 
 6.00110000e-06  7.58544871e-01  6.00110000e-06  6.97910598e-01  6.00110000e-06  7.00591453e-01  6.00110000e-06  1.62000000e+00  6.00110000e-06  1.90979124e-04  6.00110000e-06  6.98608337e-01  6.00110000e-06  1.56838315e+00  6.00110000e-06  1.57641353e+00                                 
 6.00130000e-06  7.58576130e-01  6.00130000e-06  6.97916502e-01  6.00130000e-06  7.00851695e-01  6.00130000e-06  1.26000000e+00  6.00130000e-06 -2.22850741e-04  6.00130000e-06  6.98520111e-01  6.00130000e-06  1.56830227e+00  6.00130000e-06  1.57643178e+00                                 
 6.00170000e-06  7.58634344e-01  6.00170000e-06  6.97418394e-01  6.00170000e-06  7.19693025e-01  6.00170000e-06  5.40000000e-01  6.00170000e-06  1.53248472e+00  6.00170000e-06  6.91199169e-01  6.00170000e-06  1.47300182e+00  6.00170000e-06  1.57608503e+00                                 
 6.00200000e-06  7.58570468e-01  6.00200000e-06  6.95107092e-01  6.00200000e-06  7.48042061e-01  6.00200000e-06  0.00000000e+00  6.00200000e-06  1.87606314e+00  6.00200000e-06  6.66847415e-01  6.00200000e-06  1.13374085e+00  6.00200000e-06  1.57606055e+00                                 
 6.00203671e-06  7.58583575e-01  6.00203671e-06  6.95180089e-01  6.00203671e-06  7.42453520e-01  6.00203671e-06  0.00000000e+00  6.00203671e-06  1.82964298e+00  6.00203671e-06  6.67920234e-01  6.00203671e-06  1.08999735e+00  6.00203671e-06  1.57638667e+00                                 
 6.00211013e-06  7.58590292e-01  6.00211013e-06  6.95431330e-01  6.00211013e-06  7.34514028e-01  6.00211013e-06  0.00000000e+00  6.00211013e-06  1.79210287e+00  6.00211013e-06  6.71295892e-01  6.00211013e-06  1.01606522e+00  6.00211013e-06  1.57665048e+00                                 
 6.00225697e-06  7.58585741e-01  6.00225697e-06  6.95779166e-01  6.00225697e-06  7.30569126e-01  6.00225697e-06  0.00000000e+00  6.00225697e-06  1.80238077e+00  6.00225697e-06  6.75457501e-01  6.00225697e-06  9.01957047e-01  6.00225697e-06  1.57658176e+00                                 
 6.00247015e-06  7.58587108e-01  6.00247015e-06  6.96473480e-01  6.00247015e-06  7.21018214e-01  6.00247015e-06  0.00000000e+00  6.00247015e-06  1.79736740e+00  6.00247015e-06  6.82273444e-01  6.00247015e-06  7.88494838e-01  6.00247015e-06  1.57671769e+00                                 
 6.00269342e-06  7.58585383e-01  6.00269342e-06  6.97462501e-01  6.00269342e-06  7.10763545e-01  6.00269342e-06  0.00000000e+00  6.00269342e-06  1.80112819e+00  6.00269342e-06  6.91741332e-01  6.00269342e-06  7.34453170e-01  6.00269342e-06  1.57665429e+00                                 
 6.00291357e-06  7.58586492e-01  6.00291357e-06  6.98036484e-01  6.00291357e-06  7.06344520e-01  6.00291357e-06  0.00000000e+00  6.00291357e-06  1.79930956e+00  6.00291357e-06  6.96221369e-01  6.00291357e-06  7.13979162e-01  6.00291357e-06  1.57647244e+00                                 
 6.00322692e-06  7.58585815e-01  6.00322692e-06  6.98512947e-01  6.00322692e-06  7.03323372e-01  6.00322692e-06  0.00000000e+00  6.00322692e-06  1.80051027e+00  6.00322692e-06  6.99810789e-01  6.00322692e-06  7.05551234e-01  6.00322692e-06  1.57576275e+00                                 
 6.00351450e-06  7.58586682e-01  6.00351450e-06  6.98628187e-01  6.00351450e-06  7.03522519e-01  6.00351450e-06  0.00000000e+00  6.00351450e-06  1.79971829e+00  6.00351450e-06  7.00440737e-01  6.00351450e-06  7.03578779e-01  6.00351450e-06  1.57491985e+00                                 
 6.00402561e-06  7.58586255e-01  6.00402561e-06  6.98692372e-01  6.00402561e-06  7.03700693e-01  6.00402561e-06  0.00000000e+00  6.00402561e-06  1.80023485e+00  6.00402561e-06  7.01270134e-01  6.00402561e-06  7.03854136e-01  6.00402561e-06  1.57306634e+00                                 
 6.00471203e-06  7.58586936e-01  6.00471203e-06  6.98623475e-01  6.00471203e-06  7.05596486e-01  6.00471203e-06  0.00000000e+00  6.00471203e-06  1.79983676e+00  6.00471203e-06  7.01254066e-01  6.00471203e-06  7.05007509e-01  6.00471203e-06  1.57033644e+00                                 
 6.00608488e-06  7.58586396e-01  6.00608488e-06  6.98527441e-01  6.00608488e-06  7.08457138e-01  6.00608488e-06  0.00000000e+00  6.00608488e-06  1.80016432e+00  6.00608488e-06  7.01596189e-01  6.00608488e-06  7.08446105e-01  6.00608488e-06  1.56440797e+00                                 
 6.00883058e-06  7.58586871e-01  6.00883058e-06  6.98329953e-01  6.00883058e-06  7.15828507e-01  6.00883058e-06  0.00000000e+00  6.00883058e-06  1.79986733e+00  6.00883058e-06  7.01362677e-01  6.00883058e-06  7.15151859e-01  6.00883058e-06  1.55205119e+00                                 
 6.01432197e-06  7.58586319e-01  6.01432197e-06  6.98160535e-01  6.01432197e-06  7.29326372e-01  6.01432197e-06  0.00000000e+00  6.01432197e-06  1.80014869e+00  6.01432197e-06  7.01255863e-01  6.01432197e-06  7.29283395e-01  6.01432197e-06  1.52719267e+00                                 
 6.02530475e-06  7.58586862e-01  6.02530475e-06  6.98117451e-01  6.02530475e-06  7.56458474e-01  6.02530475e-06  0.00000000e+00  6.02530475e-06  1.79987379e+00  6.02530475e-06  7.00632307e-01  6.02530475e-06  7.55678557e-01  6.02530475e-06  1.47978722e+00                                 
 6.04727032e-06  7.58586327e-01  6.04727032e-06  6.98160251e-01  6.04727032e-06  8.05287562e-01  6.04727032e-06  0.00000000e+00  6.04727032e-06  1.80014366e+00  6.04727032e-06  7.00420540e-01  6.04727032e-06  8.05299362e-01  6.04727032e-06  1.39361279e+00                                 
 6.09120145e-06  7.58586864e-01  6.09120145e-06  6.98139171e-01  6.09120145e-06  8.89118679e-01  6.09120145e-06  0.00000000e+00  6.09120145e-06  1.79987223e+00  6.09120145e-06  7.00118078e-01  6.09120145e-06  8.87418309e-01  6.09120145e-06  1.24503369e+00                                 
 6.17906372e-06  7.58586329e-01  6.17906372e-06  6.98161974e-01  6.17906372e-06  1.00796542e+00  6.17906372e-06  0.00000000e+00  6.17906372e-06  1.80013753e+00  6.17906372e-06  7.00321600e-01  6.17906372e-06  1.00881799e+00  6.17906372e-06  1.05651762e+00                                 
 6.32305259e-06  7.58586864e-01  6.32305259e-06  6.98139496e-01  6.32305259e-06  1.11463172e+00  6.32305259e-06  0.00000000e+00  6.32305259e-06  1.79986703e+00  6.32305259e-06  7.00133806e-01  6.32305259e-06  1.11300966e+00  6.32305259e-06  1.07185052e+00                                 
 6.41289477e-06  7.58586329e-01  6.41289477e-06  6.98161556e-01  6.41289477e-06  1.14591399e+00  6.41289477e-06  0.00000000e+00  6.41289477e-06  1.80013448e+00  6.41289477e-06  7.00325174e-01  6.41289477e-06  1.14691090e+00  6.41289477e-06  1.14670797e+00                                 
 6.53035651e-06  7.58586864e-01  6.53035651e-06  6.98139920e-01  6.53035651e-06  1.16975819e+00  6.53035651e-06  0.00000000e+00  6.53035651e-06  1.79986651e+00  6.53035651e-06  7.00136166e-01  6.53035651e-06  1.16863618e+00  6.53035651e-06  1.16981190e+00                                 
