 time            v(vbep)         time            v(vben)         time            v(vout)         time            v(vphi1)        time            v(vphi2)        time            v(vref)         time            v(voutc)        time            v(voutcc)       yes             currtemp       
 0.00000000e+00  7.07337314e-01  0.00000000e+00  6.36590364e-01  0.00000000e+00  1.46593874e+00  0.00000000e+00  0.00000000e+00  0.00000000e+00  1.79999999e+00  0.00000000e+00  6.36711750e-01  0.00000000e+00  1.46593873e+00  0.00000000e+00  1.47382897e+00  1.00000000e+00  7.80000000e+01 
 5.00000000e-12  7.07358884e-01  5.00000000e-12  6.36645259e-01  5.00000000e-12  1.46654868e+00  5.00000000e-12  1.80000000e-02  5.00000000e-12  1.80018666e+00  5.00000000e-12  6.37100997e-01  5.00000000e-12  1.46628450e+00  5.00000000e-12  1.47384201e+00                                 
 1.00000000e-11  7.07368298e-01  1.00000000e-11  6.36681056e-01  1.00000000e-11  1.46698104e+00  1.00000000e-11  3.60000000e-02  1.00000000e-11  1.80027054e+00  1.00000000e-11  6.37405778e-01  1.00000000e-11  1.46655630e+00  1.00000000e-11  1.47384865e+00                                 
 2.00000000e-11  7.07374515e-01  2.00000000e-11  6.36730432e-01  2.00000000e-11  1.46759311e+00  2.00000000e-11  7.20000000e-02  2.00000000e-11  1.80032252e+00  2.00000000e-11  6.37881988e-01  2.00000000e-11  1.46698366e+00  2.00000000e-11  1.47385455e+00                                 
 4.00000000e-11  7.07362570e-01  4.00000000e-11  6.36765234e-01  4.00000000e-11  1.46796652e+00  4.00000000e-11  1.44000000e-01  4.00000000e-11  1.80018853e+00  4.00000000e-11  6.38338212e-01  4.00000000e-11  1.46740442e+00  4.00000000e-11  1.47384809e+00                                 
 8.00000000e-11  7.07349611e-01  8.00000000e-11  6.36770158e-01  8.00000000e-11  1.46780774e+00  8.00000000e-11  2.88000000e-01  8.00000000e-11  1.80003073e+00  8.00000000e-11  6.38486246e-01  8.00000000e-11  1.46756488e+00  8.00000000e-11  1.47383440e+00                                 
 1.60000000e-10  7.07349539e-01  1.60000000e-10  6.36755151e-01  1.60000000e-10  1.46731252e+00  1.60000000e-10  5.76000000e-01  1.60000000e-10  1.80000802e+00  1.60000000e-10  6.38300819e-01  1.60000000e-10  1.46741536e+00  1.60000000e-10  1.47382853e+00                                 
 3.20000000e-10  7.07282420e-01  3.20000000e-10  6.36310525e-01  3.20000000e-10  1.46388144e+00  3.20000000e-10  1.15200000e+00  3.20000000e-10  1.80071600e+00  3.20000000e-10  6.34476508e-01  3.20000000e-10  1.46429961e+00  3.20000000e-10  1.47379954e+00                                 
 5.00000000e-10  7.07317264e-01  5.00000000e-10  6.36844218e-01  5.00000000e-10  1.46220493e+00  5.00000000e-10  1.80000000e+00  5.00000000e-10  1.81604266e-01  5.00000000e-10  6.42554603e-01  5.00000000e-10  1.47143945e+00  5.00000000e-10  1.47390244e+00                                 
 5.21814042e-10  7.07323752e-01  5.21814042e-10  6.36861882e-01  5.21814042e-10  1.46146031e+00  5.21814042e-10  1.80000000e+00  5.21814042e-10  5.08647795e-02  5.21814042e-10  6.44323131e-01  5.21814042e-10  1.47241102e+00  5.21814042e-10  1.47388656e+00                                 
 5.65442127e-10  7.07423390e-01  5.65442127e-10  6.36910901e-01  5.65442127e-10  1.46071708e+00  5.65442127e-10  1.80000000e+00  5.65442127e-10 -1.72091039e-02  5.65442127e-10  6.46826842e-01  5.65442127e-10  1.47451379e+00  5.65442127e-10  1.47387970e+00                                 
 6.52698296e-10  7.07548638e-01  6.52698296e-10  6.36735678e-01  6.52698296e-10  1.45764027e+00  6.52698296e-10  1.80000000e+00  6.52698296e-10  1.31416384e-02  6.52698296e-10  6.47033133e-01  6.52698296e-10  1.47493512e+00  6.52698296e-10  1.47382941e+00                                 
 7.73277948e-10  7.07605227e-01  7.73277948e-10  6.36682908e-01  7.73277948e-10  1.45565749e+00  7.73277948e-10  1.80000000e+00  7.73277948e-10 -1.02346058e-02  7.73277948e-10  6.48482164e-01  7.73277948e-10  1.47602779e+00  7.73277948e-10  1.47384323e+00                                 
 9.53091747e-10  7.07675186e-01  9.53091747e-10  6.36650198e-01  9.53091747e-10  1.45414443e+00  9.53091747e-10  1.80000000e+00  9.53091747e-10  9.14502913e-03  9.53091747e-10  6.49210973e-01  9.53091747e-10  1.47682911e+00  9.53091747e-10  1.47382234e+00                                 
 1.31271935e-09  7.07624205e-01  1.31271935e-09  6.36579423e-01  1.31271935e-09  1.45170805e+00  1.31271935e-09  1.80000000e+00  1.31271935e-09 -8.35093404e-03  1.31271935e-09  6.48444028e-01  1.31271935e-09  1.47602356e+00  1.31271935e-09  1.47387785e+00                                 
 1.67920138e-09  7.07562162e-01  1.67920138e-09  6.36604084e-01  1.67920138e-09  1.45013715e+00  1.67920138e-09  1.80000000e+00  1.67920138e-09  7.87467704e-03  1.67920138e-09  6.47811310e-01  1.67920138e-09  1.47559896e+00  1.67920138e-09  1.47396740e+00                                 
 2.33281861e-09  7.07417447e-01  2.33281861e-09  6.36562628e-01  2.33281861e-09  1.44632566e+00  2.33281861e-09  1.80000000e+00  2.33281861e-09 -7.53527424e-03  2.33281861e-09  6.45703069e-01  2.33281861e-09  1.47362455e+00  2.33281861e-09  1.47417695e+00                                 
 3.14195978e-09  7.07348090e-01  3.14195978e-09  6.36593868e-01  3.14195978e-09  1.44208913e+00  3.14195978e-09  1.80000000e+00  3.14195978e-09  7.32608936e-03  3.14195978e-09  6.44091177e-01  3.14195978e-09  1.47232970e+00  3.14195978e-09  1.47443406e+00                                 
 4.51158822e-09  7.07272817e-01  4.51158822e-09  6.36555711e-01  4.51158822e-09  1.43355811e+00  4.51158822e-09  1.80000000e+00  4.51158822e-09 -7.16897208e-03  4.51158822e-09  6.40867870e-01  4.51158822e-09  1.46939130e+00  4.51158822e-09  1.47478197e+00                                 
 6.53721121e-09  7.07277888e-01  6.53721121e-09  6.36594675e-01  6.53721121e-09  1.42102777e+00  6.53721121e-09  1.80000000e+00  6.53721121e-09  7.10819762e-03  6.53721121e-09  6.38360704e-01  6.53721121e-09  1.46731918e+00  6.53721121e-09  1.47505023e+00                                 
 9.38511178e-09  7.07274840e-01  9.38511178e-09  6.36566254e-01  9.38511178e-09  1.40112080e+00  9.38511178e-09  1.80000000e+00  9.38511178e-09 -7.01363614e-03  9.38511178e-09  6.35789197e-01  9.38511178e-09  1.46495994e+00  9.38511178e-09  1.47505568e+00                                 
 1.19269024e-08  7.07311269e-01  1.19269024e-08  6.36606346e-01  1.19269024e-08  1.38277570e+00  1.19269024e-08  1.80000000e+00  1.19269024e-08  6.97952278e-03  1.19269024e-08  6.35419450e-01  1.19269024e-08  1.46474491e+00  1.19269024e-08  1.47486833e+00                                 
 1.43770099e-08  7.07307819e-01  1.43770099e-08  6.36572157e-01  1.43770099e-08  1.36356910e+00  1.43770099e-08  1.80000000e+00  1.43770099e-08 -6.87273279e-03  1.43770099e-08  6.34777386e-01  1.43770099e-08  1.46406152e+00  1.43770099e-08  1.47463001e+00                                 
 1.69638063e-08  7.07335849e-01  1.69638063e-08  6.36608713e-01  1.69638063e-08  1.34333423e+00  1.69638063e-08  1.80000000e+00  1.69638063e-08  6.84294814e-03  1.69638063e-08  6.35197000e-01  1.69638063e-08  1.46452877e+00  1.69638063e-08  1.47438195e+00                                 
 2.04642084e-08  7.07327547e-01  2.04642084e-08  6.36572823e-01  2.04642084e-08  1.31447435e+00  2.04642084e-08  1.80000000e+00  2.04642084e-08 -6.75753808e-03  2.04642084e-08  6.34979506e-01  2.04642084e-08  1.46421456e+00  2.04642084e-08  1.47408111e+00                                 
 2.47691763e-08  7.07349852e-01  2.47691763e-08  6.36608893e-01  2.47691763e-08  1.27913465e+00  2.47691763e-08  1.80000000e+00  2.47691763e-08  6.75552014e-03  2.47691763e-08  6.35690897e-01  2.47691763e-08  1.46493438e+00  2.47691763e-08  1.47380122e+00                                 
 3.05971833e-08  7.07334403e-01  3.05971833e-08  6.36572774e-01  3.05971833e-08  1.23003433e+00  3.05971833e-08  1.80000000e+00  3.05971833e-08 -6.68948470e-03  3.05971833e-08  6.35648803e-01  3.05971833e-08  1.46477839e+00  3.05971833e-08  1.47355060e+00                                 
 3.86309140e-08  7.07350324e-01  3.86309140e-08  6.36608780e-01  3.86309140e-08  1.16295411e+00  3.86309140e-08  1.80000000e+00  3.86309140e-08  6.70604107e-03  3.86309140e-08  6.36409933e-01  3.86309140e-08  1.46554835e+00  3.86309140e-08  1.47339316e+00                                 
 5.17101733e-08  7.07330821e-01  5.17101733e-08  6.36572469e-01  5.17101733e-08  1.05326482e+00  5.17101733e-08  1.80000000e+00  5.17101733e-08 -6.65587970e-03  5.17101733e-08  6.36305799e-01  5.17101733e-08  1.46534942e+00  5.17101733e-08  1.47335481e+00                                 
 7.24874405e-08  7.07344957e-01  7.24874405e-08  6.36608405e-01  7.24874405e-08  8.82510459e-01  7.24874405e-08  1.80000000e+00  7.24874405e-08  6.68571156e-03  7.24874405e-08  6.36875213e-01  7.24874405e-08  1.46596141e+00  7.24874405e-08  1.47346869e+00                                 
 9.94553110e-08  7.07330837e-01  9.94553110e-08  6.36572260e-01  9.94553110e-08  6.98727308e-01  9.94553110e-08  1.80000000e+00  9.94553110e-08 -6.63914786e-03  9.94553110e-08  6.36498742e-01  9.94553110e-08  1.46552663e+00  9.94553110e-08  1.47358705e+00                                 
 1.22971876e-07  7.07347388e-01  1.22971876e-07  6.36608884e-01  1.22971876e-07  6.37090620e-01  1.22971876e-07  1.80000000e+00  1.22971876e-07  6.67797894e-03  1.22971876e-07  6.36927906e-01  1.22971876e-07  1.46601089e+00  1.22971876e-07  1.47363734e+00                                 
 1.45932522e-07  7.07324487e-01  1.45932522e-07  6.36571588e-01  1.45932522e-07  6.36768427e-01  1.45932522e-07  1.80000000e+00  1.45932522e-07 -6.62365286e-03  1.45932522e-07  6.36505402e-01  1.45932522e-07  1.46553265e+00  1.45932522e-07  1.47365189e+00                                 
 1.58076837e-07  7.07347570e-01  1.58076837e-07  6.36609104e-01  1.58076837e-07  6.36888542e-01  1.58076837e-07  1.80000000e+00  1.58076837e-07  6.65755687e-03  1.58076837e-07  6.36920190e-01  1.58076837e-07  1.46600334e+00  1.58076837e-07  1.47365747e+00                                 
 1.77034802e-07  7.07327527e-01  1.77034802e-07  6.36571597e-01  1.77034802e-07  6.36883665e-01  1.77034802e-07  1.80000000e+00  1.77034802e-07 -6.60188637e-03  1.77034802e-07  6.36504006e-01  1.77034802e-07  1.46553064e+00  1.77034802e-07  1.47365509e+00                                 
 2.14950733e-07  7.07346838e-01  2.14950733e-07  6.36609103e-01  2.14950733e-07  6.36867402e-01  2.14950733e-07  1.80000000e+00  2.14950733e-07  6.64474126e-03  2.14950733e-07  6.36919460e-01  2.14950733e-07  1.46600079e+00  2.14950733e-07  1.47365822e+00                                 
 2.82463001e-07  7.07327914e-01  2.82463001e-07  6.36571614e-01  2.82463001e-07  6.36843966e-01  2.82463001e-07  1.80000000e+00  2.82463001e-07 -6.59526359e-03  2.82463001e-07  6.36503935e-01  2.82463001e-07  1.46552725e+00  2.82463001e-07  1.47365255e+00                                 
 4.17487536e-07  7.07346656e-01  4.17487536e-07  6.36609094e-01  4.17487536e-07  6.36870630e-01  4.17487536e-07  1.80000000e+00  4.17487536e-07  6.64115368e-03  4.17487536e-07  6.36919447e-01  4.17487536e-07  1.46599424e+00  4.17487536e-07  1.47365177e+00                                 
 6.74822681e-07  7.07328001e-01  6.74822681e-07  6.36571619e-01  6.74822681e-07  6.36837305e-01  6.74822681e-07  1.80000000e+00  6.74822681e-07 -6.59343367e-03  6.74822681e-07  6.36503944e-01  6.74822681e-07  1.46551466e+00  6.74822681e-07  1.47363993e+00                                 
 1.17210468e-06  7.07346612e-01  1.17210468e-06  6.36609091e-01  1.17210468e-06  6.36871761e-01  1.17210468e-06  1.80000000e+00  1.17210468e-06  6.64020421e-03  1.17210468e-06  6.36919442e-01  1.17210468e-06  1.46596993e+00  1.17210468e-06  1.47362751e+00                                 
 2.16666869e-06  7.07328024e-01  2.16666869e-06  6.36571621e-01  2.16666869e-06  6.36835617e-01  2.16666869e-06  1.80000000e+00  2.16666869e-06 -6.59292973e-03  2.16666869e-06  6.36503947e-01  2.16666869e-06  1.46546660e+00  2.16666869e-06  1.47359193e+00                                 
 3.16666869e-06  7.07346598e-01  3.16666869e-06  6.36609090e-01  3.16666869e-06  6.36872916e-01  3.16666869e-06  1.80000000e+00  3.16666869e-06  6.63989735e-03  3.16666869e-06  6.36919441e-01  3.16666869e-06  1.46590568e+00  3.16666869e-06  1.47356335e+00                                 
 4.16666869e-06  7.07328038e-01  4.16666869e-06  6.36571621e-01  4.16666869e-06  6.36834648e-01  4.16666869e-06  1.80000000e+00  4.16666869e-06 -6.59275613e-03  4.16666869e-06  6.36503949e-01  4.16666869e-06  1.46540225e+00  4.16666869e-06  1.47352765e+00                                 
 5.16666869e-06  7.07346583e-01  5.16666869e-06  6.36609090e-01  5.16666869e-06  6.36873388e-01  5.16666869e-06  1.80000000e+00  5.16666869e-06  6.63957464e-03  5.16666869e-06  6.36919439e-01  5.16666869e-06  1.46584136e+00  5.16666869e-06  1.47349912e+00                                 
 6.16666869e-06  7.07328052e-01  6.16666869e-06  6.36571622e-01  6.16666869e-06  6.36833661e-01  6.16666869e-06  1.80000000e+00  6.16666869e-06 -6.59243675e-03  6.16666869e-06  6.36503950e-01  6.16666869e-06  1.46533792e+00  6.16666869e-06  1.47346340e+00                                 
 7.16666869e-06  7.07346569e-01  7.16666869e-06  6.36609089e-01  7.16666869e-06  6.36873847e-01  7.16666869e-06  1.80000000e+00  7.16666869e-06  6.63925192e-03  7.16666869e-06  6.36919437e-01  7.16666869e-06  1.46577701e+00  7.16666869e-06  1.47343485e+00                                 
 8.16666869e-06  7.07328066e-01  8.16666869e-06  6.36571623e-01  8.16666869e-06  6.36832692e-01  8.16666869e-06  1.80000000e+00  8.16666869e-06 -6.59211739e-03  8.16666869e-06  6.36503952e-01  8.16666869e-06  1.46527358e+00  8.16666869e-06  1.47339915e+00                                 
 9.16666869e-06  7.07346555e-01  9.16666869e-06  6.36609088e-01  9.16666869e-06  6.36874297e-01  9.16666869e-06  1.80000000e+00  9.16666869e-06  6.63892921e-03  9.16666869e-06  6.36919436e-01  9.16666869e-06  1.46571268e+00  9.16666869e-06  1.47337061e+00                                 
 1.00005000e-05  7.07328082e-01  1.00005000e-05  6.36571624e-01  1.00005000e-05  6.36831656e-01  1.00005000e-05  1.80000000e+00  1.00005000e-05 -6.59177614e-03  1.00005000e-05  6.36503954e-01  1.00005000e-05  1.46521461e+00  1.00005000e-05  1.47334025e+00                                 
 1.00005500e-05  7.07297215e-01  1.00005500e-05  6.36398314e-01  1.00005500e-05  6.35275563e-01  1.00005500e-05  1.62000000e+00  1.00005500e-05 -7.89978617e-04  1.00005500e-05  6.35224106e-01  1.00005500e-05  1.46413993e+00  1.00005500e-05  1.47332737e+00                                 
 1.00006500e-05  7.07323993e-01  1.00006500e-05  6.36368316e-01  1.00006500e-05  6.35119070e-01  1.00006500e-05  1.26000000e+00  1.00006500e-05  5.66200376e-04  1.00006500e-05  6.34781310e-01  1.00006500e-05  1.46376332e+00  1.00006500e-05  1.47334179e+00                                 
 1.00008500e-05  7.07376791e-01  1.00008500e-05  6.36538443e-01  1.00008500e-05  6.37192236e-01  1.00008500e-05  5.40000000e-01  1.00008500e-05  1.85600124e-02  1.00008500e-05  6.35229939e-01  1.00008500e-05  1.46214975e+00  1.00008500e-05  1.47333022e+00                                 
 1.00010000e-05  7.07319516e-01  1.00010000e-05  6.35891992e-01  1.00010000e-05  6.58016577e-01  1.00010000e-05  0.00000000e+00  1.00010000e-05  1.54021528e+00  1.00010000e-05  6.28115785e-01  1.00010000e-05  1.40611790e+00  1.00010000e-05  1.47286737e+00                                 
 1.00010249e-05  7.07337055e-01  1.00010249e-05  6.35490825e-01  1.00010249e-05  6.63853344e-01  1.00010249e-05  0.00000000e+00  1.00010249e-05  1.70036483e+00  1.00010249e-05  6.23285964e-01  1.00010249e-05  1.37745885e+00  1.00010249e-05  1.47264901e+00                                 
 1.00010748e-05  7.07340576e-01  1.00010748e-05  6.34763685e-01  1.00010748e-05  6.69555343e-01  1.00010748e-05  0.00000000e+00  1.00010748e-05  1.81922311e+00  1.00010748e-05  6.14467398e-01  1.00010748e-05  1.31446816e+00  1.00010748e-05  1.47249330e+00                                 
 1.00011745e-05  7.07334348e-01  1.00011745e-05  6.34613950e-01  1.00011745e-05  6.65005650e-01  1.00011745e-05  0.00000000e+00  1.00011745e-05  1.78777255e+00  1.00011745e-05  6.12783753e-01  1.00011745e-05  1.20468505e+00  1.00011745e-05  1.47306093e+00                                 
 1.00013038e-05  7.07339222e-01  1.00013038e-05  6.34884387e-01  1.00013038e-05  6.61998102e-01  1.00013038e-05  0.00000000e+00  1.00013038e-05  1.80652471e+00  1.00013038e-05  6.16493064e-01  1.00013038e-05  1.09335480e+00  1.00013038e-05  1.47344537e+00                                 
 1.00015226e-05  7.07334171e-01  1.00015226e-05  6.35031808e-01  1.00015226e-05  6.58364205e-01  1.00015226e-05  0.00000000e+00  1.00015226e-05  1.79413971e+00  1.00015226e-05  6.17193349e-01  1.00015226e-05  9.36252596e-01  1.00015226e-05  1.47366578e+00                                 
 1.00018001e-05  7.07338702e-01  1.00018001e-05  6.35651907e-01  1.00018001e-05  6.52250640e-01  1.00018001e-05  0.00000000e+00  1.00018001e-05  1.80409791e+00  1.00018001e-05  6.23259905e-01  1.00018001e-05  7.97555332e-01  1.00018001e-05  1.47352012e+00                                 
 1.00022139e-05  7.07334797e-01  1.00022139e-05  6.36374953e-01  1.00022139e-05  6.44070454e-01  1.00022139e-05  0.00000000e+00  1.00022139e-05  1.79600532e+00  1.00022139e-05  6.29915070e-01  1.00022139e-05  6.83291568e-01  1.00022139e-05  1.47257476e+00                                 
 1.00026457e-05  7.07338831e-01  1.00026457e-05  6.36966034e-01  1.00026457e-05  6.39137543e-01  1.00026457e-05  0.00000000e+00  1.00026457e-05  1.80338071e+00  1.00026457e-05  6.36167992e-01  1.00026457e-05  6.48538946e-01  1.00026457e-05  1.47058414e+00                                 
 1.00030413e-05  7.07335299e-01  1.00030413e-05  6.36998888e-01  1.00030413e-05  6.39649066e-01  1.00030413e-05  0.00000000e+00  1.00030413e-05  1.79708065e+00  1.00030413e-05  6.36511031e-01  1.00030413e-05  6.40421859e-01  1.00030413e-05  1.46822069e+00                                 
 1.00034686e-05  7.07338780e-01  1.00034686e-05  6.37086881e-01  1.00034686e-05  6.39688948e-01  1.00034686e-05  0.00000000e+00  1.00034686e-05  1.80255023e+00  1.00034686e-05  6.38169237e-01  1.00034686e-05  6.40516491e-01  1.00034686e-05  1.46539049e+00                                 
 1.00040735e-05  7.07335635e-01  1.00040735e-05  6.36962441e-01  1.00040735e-05  6.42112607e-01  1.00040735e-05  0.00000000e+00  1.00040735e-05  1.79769585e+00  1.00040735e-05  6.37490907e-01  1.00040735e-05  6.40691675e-01  1.00040735e-05  1.46117271e+00                                 
 1.00051656e-05  7.07338792e-01  1.00051656e-05  6.36926639e-01  1.00051656e-05  6.44844327e-01  1.00051656e-05  0.00000000e+00  1.00051656e-05  1.80218997e+00  1.00051656e-05  6.38453155e-01  1.00051656e-05  6.44853215e-01  1.00051656e-05  1.45319560e+00                                 
 1.00071824e-05  7.07335797e-01  1.00071824e-05  6.36709502e-01  1.00071824e-05  6.51889319e-01  1.00071824e-05  0.00000000e+00  1.00071824e-05  1.79788139e+00  1.00071824e-05  6.37545606e-01  1.00071824e-05  6.50349224e-01  1.00071824e-05  1.43782672e+00                                 
 1.00112160e-05  7.07338809e-01  1.00112160e-05  6.36632485e-01  1.00112160e-05  6.63805747e-01  1.00112160e-05  0.00000000e+00  1.00112160e-05  1.80209512e+00  1.00112160e-05  6.38115213e-01  1.00112160e-05  6.63742900e-01  1.00112160e-05  1.40590258e+00                                 
 1.00192832e-05  7.07335823e-01  1.00192832e-05  6.36536833e-01  1.00192832e-05  6.88818614e-01  1.00192832e-05  0.00000000e+00  1.00192832e-05  1.79792753e+00  1.00192832e-05  6.36894822e-01  1.00192832e-05  6.87097957e-01  1.00192832e-05  1.34008738e+00                                 
