 time            v(vbep)         time            v(vben)         time            v(vout)         time            v(vphi1)        time            v(vphi2)        time            v(vref)         time            v(voutc)        time            v(voutcc)       yes             currtemp       
 0.00000000e+00  7.94467440e-01  0.00000000e+00  7.39105510e-01  0.00000000e+00  1.64401643e+00  0.00000000e+00  0.00000000e+00  0.00000000e+00  1.80000000e+00  0.00000000e+00  7.42057182e-01  0.00000000e+00  1.64401642e+00  0.00000000e+00  1.64993463e+00  1.00000000e+00  1.30000000e+01 
 1.00000000e-11  7.94491643e-01  1.00000000e-11  7.39176311e-01  1.00000000e-11  1.64481226e+00  1.00000000e-11  1.80000000e-02  1.00000000e-11  1.80024793e+00  1.00000000e-11  7.42582693e-01  1.00000000e-11  1.64448210e+00  1.00000000e-11  1.64994569e+00                                 
 2.00000000e-11  7.94498278e-01  2.00000000e-11  7.39220845e-01  2.00000000e-11  1.64532002e+00  2.00000000e-11  3.60000000e-02  2.00000000e-11  1.80034832e+00  2.00000000e-11  7.42975301e-01  2.00000000e-11  1.64483915e+00  2.00000000e-11  1.64994965e+00                                 
 4.00000000e-11  7.94498090e-01  4.00000000e-11  7.39279384e-01  4.00000000e-11  1.64595662e+00  4.00000000e-11  7.20000000e-02  4.00000000e-11  1.80038977e+00  4.00000000e-11  7.43551006e-01  4.00000000e-11  1.64537790e+00  4.00000000e-11  1.64995016e+00                                 
 8.00000000e-11  7.94486148e-01  8.00000000e-11  7.39315806e-01  8.00000000e-11  1.64615482e+00  8.00000000e-11  1.44000000e-01  8.00000000e-11  1.80019007e+00  8.00000000e-11  7.43997511e-01  8.00000000e-11  1.64583949e+00  8.00000000e-11  1.64993900e+00                                 
 1.60000000e-10  7.94482931e-01  1.60000000e-10  7.39322536e-01  1.60000000e-10  1.64584728e+00  1.60000000e-10  2.88000000e-01  1.60000000e-10  1.80000551e+00  1.60000000e-10  7.44052995e-01  1.60000000e-10  1.64593119e+00  1.60000000e-10  1.64992853e+00                                 
 3.20000000e-10  7.94479765e-01  3.20000000e-10  7.39325026e-01  3.20000000e-10  1.64551104e+00  3.20000000e-10  5.76000000e-01  3.20000000e-10  1.80000395e+00  3.20000000e-10  7.43964259e-01  3.20000000e-10  1.64573852e+00  3.20000000e-10  1.64992558e+00                                 
 6.40000000e-10  7.94402152e-01  6.40000000e-10  7.39029203e-01  6.40000000e-10  1.64178515e+00  6.40000000e-10  1.15200000e+00  6.40000000e-10  1.81290067e+00  6.40000000e-10  7.42621406e-01  6.40000000e-10  1.65082075e+00  6.40000000e-10  1.64995518e+00                                 
 9.99422039e-10  7.94975306e-01  9.99422039e-10  7.39156703e-01  9.99422039e-10  1.61362788e+00  9.99422039e-10  1.79895967e+00  9.99422039e-10  8.33633740e-02  9.99422039e-10  7.48521034e-01  9.99422039e-10  1.64525966e+00  9.99422039e-10  1.64987667e+00                                 
 1.00000000e-09  7.94976778e-01  1.00000000e-09  7.39157227e-01  1.00000000e-09  1.61357421e+00  1.00000000e-09  1.80000000e+00  1.00000000e-09  7.86359731e-02  1.00000000e-09  7.48555417e-01  1.00000000e-09  1.64522251e+00  1.00000000e-09  1.64987626e+00                                 
 1.00115592e-09  7.94971313e-01  1.00115592e-09  7.39145298e-01  1.00115592e-09  1.61340822e+00  1.00115592e-09  1.80000000e+00  1.00115592e-09  7.03301233e-02  1.00115592e-09  7.48568232e-01  1.00115592e-09  1.64511712e+00  1.00115592e-09  1.64987402e+00                                 
 1.00346776e-09  7.94962594e-01  1.00346776e-09  7.39130836e-01  1.00346776e-09  1.61315460e+00  1.00346776e-09  1.80000000e+00  1.00346776e-09  5.54986654e-02  1.00346776e-09  7.48647041e-01  1.00346776e-09  1.64497940e+00  1.00346776e-09  1.64987362e+00                                 
 1.00809145e-09  7.94948414e-01  1.00809145e-09  7.39128877e-01  1.00809145e-09  1.61296773e+00  1.00809145e-09  1.80000000e+00  1.00809145e-09  3.43461867e-02  1.00809145e-09  7.49026445e-01  1.00809145e-09  1.64502020e+00  1.00809145e-09  1.64988581e+00                                 
 1.01733882e-09  7.94933624e-01  1.01733882e-09  7.39168774e-01  1.01733882e-09  1.61320903e+00  1.01733882e-09  1.80000000e+00  1.01733882e-09  1.27715814e-02  1.01733882e-09  7.50132693e-01  1.01733882e-09  1.64570162e+00  1.01733882e-09  1.64992416e+00                                 
 1.03583357e-09  7.94940699e-01  1.03583357e-09  7.39256673e-01  1.03583357e-09  1.61399475e+00  1.03583357e-09  1.80000000e+00  1.03583357e-09  1.59886307e-03  1.03583357e-09  7.52050379e-01  1.03583357e-09  1.64725474e+00  1.03583357e-09  1.64996761e+00                                 
 1.07282306e-09  7.94993053e-01  1.07282306e-09  7.39295095e-01  1.07282306e-09  1.61429128e+00  1.07282306e-09  1.80000000e+00  1.07282306e-09  8.72568916e-04  1.07282306e-09  7.53623339e-01  1.07282306e-09  1.64865408e+00  1.07282306e-09  1.64995524e+00                                 
 1.14680204e-09  7.95084712e-01  1.14680204e-09  7.39213802e-01  1.14680204e-09  1.61316590e+00  1.14680204e-09  1.80000000e+00  1.14680204e-09  5.19530144e-04  1.14680204e-09  7.54221781e-01  1.14680204e-09  1.64917371e+00  1.14680204e-09  1.64993187e+00                                 
 1.29475999e-09  7.95211721e-01  1.29475999e-09  7.39147845e-01  1.29475999e-09  1.61070931e+00  1.29475999e-09  1.80000000e+00  1.29475999e-09  3.51323825e-04  1.29475999e-09  7.54767823e-01  1.29475999e-09  1.64962917e+00  1.29475999e-09  1.64994335e+00                                 
 1.55795779e-09  7.95224478e-01  1.55795779e-09  7.39126634e-01  1.55795779e-09  1.60855559e+00  1.55795779e-09  1.80000000e+00  1.55795779e-09 -8.52025037e-06  1.55795779e-09  7.54285938e-01  1.55795779e-09  1.64921734e+00  1.55795779e-09  1.64993775e+00                                 
 1.86925371e-09  7.95040956e-01  1.86925371e-09  7.39107347e-01  1.86925371e-09  1.60936918e+00  1.86925371e-09  1.80000000e+00  1.86925371e-09 -1.61937118e-06  1.86925371e-09  7.53168623e-01  1.86925371e-09  1.64826840e+00  1.86925371e-09  1.64995982e+00                                 
 2.17077741e-09  7.94847275e-01  2.17077741e-09  7.39098594e-01  2.17077741e-09  1.61061187e+00  2.17077741e-09  1.80000000e+00  2.17077741e-09 -7.66670393e-05  2.17077741e-09  7.52181135e-01  2.17077741e-09  1.64742895e+00  2.17077741e-09  1.64997522e+00                                 
 2.57290062e-09  7.94645265e-01  2.57290062e-09  7.39085259e-01  2.57290062e-09  1.61210452e+00  2.57290062e-09  1.80000000e+00  2.57290062e-09 -1.54874059e-05  2.57290062e-09  7.50887342e-01  2.57290062e-09  1.64632925e+00  2.57290062e-09  1.65001071e+00                                 
 3.29986921e-09  7.94449541e-01  3.29986921e-09  7.39078859e-01  3.29986921e-09  1.61394051e+00  3.29986921e-09  1.80000000e+00  3.29986921e-09 -7.10091589e-05  3.29986921e-09  7.48814995e-01  3.29986921e-09  1.64456617e+00  3.29986921e-09  1.65005945e+00                                 
 4.75380640e-09  7.94350214e-01  4.75380640e-09  7.39078590e-01  4.75380640e-09  1.61538074e+00  4.75380640e-09  1.80000000e+00  4.75380640e-09 -1.28976460e-05  4.75380640e-09  7.45609872e-01  4.75380640e-09  1.64184108e+00  4.75380640e-09  1.65012445e+00                                 
 6.86527328e-09  7.94377234e-01  6.86527328e-09  7.39093875e-01  6.86527328e-09  1.61424764e+00  6.86527328e-09  1.80000000e+00  6.86527328e-09 -5.98393459e-05  6.86527328e-09  7.42884435e-01  6.86527328e-09  1.63952443e+00  6.86527328e-09  1.65008455e+00                                 
 8.64561931e-09  7.94371316e-01  8.64561931e-09  7.39099409e-01  8.64561931e-09  1.61295338e+00  8.64561931e-09  1.80000000e+00  8.64561931e-09  6.23596984e-06  8.64561931e-09  7.41758108e-01  8.64561931e-09  1.63856786e+00  8.64561931e-09  1.64995980e+00                                 
 1.06944540e-08  7.94367409e-01  1.06944540e-08  7.39104583e-01  1.06944540e-08  1.61173286e+00  1.06944540e-08  1.80000000e+00  1.06944540e-08 -3.67367989e-05  1.06944540e-08  7.41150818e-01  1.06944540e-08  1.63804888e+00  1.06944540e-08  1.64974534e+00                                 
 1.26680659e-08  7.94385937e-01  1.26680659e-08  7.39103873e-01  1.26680659e-08  1.60960104e+00  1.26680659e-08  1.80000000e+00  1.26680659e-08  1.80872477e-05  1.26680659e-08  7.40920282e-01  1.26680659e-08  1.63784825e+00  1.26680659e-08  1.64951522e+00                                 
 1.56773342e-08  7.94422983e-01  1.56773342e-08  7.39105879e-01  1.56773342e-08  1.60419006e+00  1.56773342e-08  1.80000000e+00  1.56773342e-08 -2.91486901e-05  1.56773342e-08  7.40864795e-01  1.56773342e-08  1.63778892e+00  1.56773342e-08  1.64914715e+00                                 
 1.90846833e-08  7.94450366e-01  1.90846833e-08  7.39104607e-01  1.90846833e-08  1.59594719e+00  1.90846833e-08  1.80000000e+00  1.90846833e-08  2.13846195e-05  1.90846833e-08  7.40956069e-01  1.90846833e-08  1.63785146e+00  1.90846833e-08  1.64875415e+00                                 
 2.43803591e-08  7.94470761e-01  2.43803591e-08  7.39106459e-01  2.43803591e-08  1.58117912e+00  2.43803591e-08  1.80000000e+00  2.43803591e-08 -2.72482310e-05  2.43803591e-08  7.41160229e-01  2.43803591e-08  1.63800130e+00  2.43803591e-08  1.64819870e+00                                 
 3.12491591e-08  7.94472881e-01  3.12491591e-08  7.39105017e-01  3.12491591e-08  1.56086772e+00  3.12491591e-08  1.80000000e+00  3.12491591e-08  2.16740458e-05  3.12491591e-08  7.41385116e-01  3.12491591e-08  1.63816830e+00  3.12491591e-08  1.64759671e+00                                 
 4.35906894e-08  7.94472515e-01  4.35906894e-08  7.39106355e-01  4.35906894e-08  1.52345322e+00  4.35906894e-08  1.80000000e+00  4.35906894e-08 -2.70842898e-05  4.35906894e-08  7.41666859e-01  4.35906894e-08  1.63837682e+00  4.35906894e-08  1.64675805e+00                                 
 6.37590177e-08  7.94468499e-01  6.37590177e-08  7.39104796e-01  6.37590177e-08  1.46166733e+00  6.37590177e-08  1.80000000e+00  6.37590177e-08  2.14477748e-05  6.37590177e-08  7.41898883e-01  6.37590177e-08  1.63854744e+00  6.37590177e-08  1.64587449e+00                                 
 1.04095674e-07  7.94468602e-01  1.04095674e-07  7.39106239e-01  1.04095674e-07  1.33789447e+00  1.04095674e-07  1.80000000e+00  1.04095674e-07 -2.70450286e-05  1.04095674e-07  7.42046289e-01  1.04095674e-07  1.63865113e+00  1.04095674e-07  1.64502187e+00                                 
 1.69390043e-07  7.94466604e-01  1.69390043e-07  7.39104785e-01  1.69390043e-07  1.13970076e+00  1.69390043e-07  1.80000000e+00  1.69390043e-07  2.15862686e-05  1.69390043e-07  7.42057388e-01  1.69390043e-07  1.63865190e+00  1.69390043e-07  1.64464443e+00                                 
 2.65099196e-07  7.94468233e-01  2.65099196e-07  7.39106233e-01  2.65099196e-07  8.67870455e-01  2.65099196e-07  1.80000000e+00  2.65099196e-07 -2.60740395e-05  2.65099196e-07  7.42056953e-01  2.65099196e-07  1.63864547e+00  2.65099196e-07  1.64457135e+00                                 
 3.61302496e-07  7.94466998e-01  3.61302496e-07  7.39104806e-01  3.61302496e-07  7.41368289e-01  3.61302496e-07  1.80000000e+00  3.61302496e-07  2.47238308e-05  3.61302496e-07  7.42057092e-01  3.61302496e-07  1.63864219e+00  3.61302496e-07  1.64457326e+00                                 
 4.54748402e-07  7.94467493e-01  4.54748402e-07  7.39106213e-01  4.54748402e-07  7.46162070e-01  4.54748402e-07  1.80000000e+00  4.54748402e-07 -2.43355947e-05  4.54748402e-07  7.42059327e-01  4.54748402e-07  1.63863994e+00  4.54748402e-07  1.64456760e+00                                 
 4.89184589e-07  7.94467281e-01  4.89184589e-07  7.39104751e-01  4.89184589e-07  7.45435390e-01  4.89184589e-07  1.80000000e+00  4.89184589e-07  2.45926415e-05  4.89184589e-07  7.42054109e-01  4.89184589e-07  1.63863465e+00  4.89184589e-07  1.64456851e+00                                 
 5.47764953e-07  7.94467805e-01  5.47764953e-07  7.39106302e-01  5.47764953e-07  7.44883327e-01  5.47764953e-07  1.80000000e+00  5.47764953e-07 -2.42613280e-05  5.47764953e-07  7.42059837e-01  5.47764953e-07  1.63863669e+00  5.47764953e-07  1.64456290e+00                                 
 6.64925682e-07  7.94467009e-01  6.64925682e-07  7.39104707e-01  6.64925682e-07  7.45218832e-01  6.64925682e-07  1.80000000e+00  6.64925682e-07  2.45766161e-05  6.64925682e-07  7.42054662e-01  6.64925682e-07  1.63862823e+00  6.64925682e-07  1.64456149e+00                                 
 8.25401219e-07  7.94467911e-01  8.25401219e-07  7.39106319e-01  8.25401219e-07  7.44911937e-01  8.25401219e-07  1.80000000e+00  8.25401219e-07 -2.42495487e-05  8.25401219e-07  7.42059620e-01  8.25401219e-07  1.63862563e+00  8.25401219e-07  1.64455209e+00                                 
 1.05070369e-06  7.94466943e-01  1.05070369e-06  7.39104698e-01  1.05070369e-06  7.45189440e-01  1.05070369e-06  1.80000000e+00  1.05070369e-06  2.45605472e-05  1.05070369e-06  7.42054800e-01  1.05070369e-06  1.63861323e+00  1.05070369e-06  1.64454638e+00                                 
 1.47644764e-06  7.94467949e-01  1.47644764e-06  7.39106327e-01  1.47644764e-06  7.44905238e-01  1.47644764e-06  1.80000000e+00  1.47644764e-06 -2.42774313e-05  1.47644764e-06  7.42059542e-01  1.47644764e-06  1.63860007e+00  1.47644764e-06  1.64452665e+00                                 
 2.07996843e-06  7.94466923e-01  2.07996843e-06  7.39104695e-01  2.07996843e-06  7.45184396e-01  2.07996843e-06  1.80000000e+00  2.07996843e-06  2.45574046e-05  2.07996843e-06  7.42054844e-01  2.07996843e-06  1.63857293e+00  2.07996843e-06  1.64450611e+00                                 
 3.14188680e-06  7.94467961e-01  3.14188680e-06  7.39106328e-01  3.14188680e-06  7.44911473e-01  3.14188680e-06  1.80000000e+00  3.14188680e-06 -2.42725164e-05  3.14188680e-06  7.42059513e-01  3.14188680e-06  1.63853471e+00  3.14188680e-06  1.64446144e+00                                 
 4.34188680e-06  7.94466914e-01  4.34188680e-06  7.39104694e-01  4.34188680e-06  7.45185240e-01  4.34188680e-06  1.80000000e+00  4.34188680e-06  2.45576486e-05  4.34188680e-06  7.42054862e-01  4.34188680e-06  1.63848425e+00  4.34188680e-06  1.64441757e+00                                 
 5.54188680e-06  7.94467969e-01  5.54188680e-06  7.39106328e-01  5.54188680e-06  7.44920453e-01  5.54188680e-06  1.80000000e+00  5.54188680e-06 -2.42565779e-05  5.54188680e-06  7.42059496e-01  5.54188680e-06  1.63844063e+00  5.54188680e-06  1.64436755e+00                                 
 6.00100000e-06  7.94466901e-01  6.00100000e-06  7.39104692e-01  6.00100000e-06  7.45186300e-01  6.00100000e-06  1.80000000e+00  6.00100000e-06  2.45585938e-05  6.00100000e-06  7.42054892e-01  6.00100000e-06  1.63841924e+00  6.00100000e-06  1.64435264e+00                                 
 6.00110000e-06  7.94429887e-01  6.00110000e-06  7.38866229e-01  6.00110000e-06  7.43230533e-01  6.00110000e-06  1.62000000e+00  6.00110000e-06 -9.88699113e-05  6.00110000e-06  7.40336829e-01  6.00110000e-06  1.63695781e+00  6.00110000e-06  1.64433893e+00                                 
 6.00130000e-06  7.94461598e-01  6.00130000e-06  7.38895271e-01  6.00130000e-06  7.43711414e-01  6.00130000e-06  1.26000000e+00  6.00130000e-06  3.28812120e-05  6.00130000e-06  7.40443119e-01  6.00130000e-06  1.63705070e+00  6.00130000e-06  1.64435787e+00                                 
 6.00170000e-06  7.94504788e-01  6.00170000e-06  7.38813437e-01  6.00170000e-06  7.54565905e-01  6.00170000e-06  5.40000000e-01  6.00170000e-06  1.23657684e+00  6.00170000e-06  7.37928635e-01  6.00170000e-06  1.59842748e+00  6.00170000e-06  1.64417584e+00                                 
 6.00200000e-06  7.94456297e-01  6.00200000e-06  7.36446541e-01  6.00200000e-06  7.88131169e-01  6.00200000e-06  0.00000000e+00  6.00200000e-06  1.82219036e+00  6.00200000e-06  7.11942720e-01  6.00200000e-06  1.31818568e+00  6.00200000e-06  1.64364527e+00                                 
 6.00204158e-06  7.94466947e-01  6.00204158e-06  7.36382253e-01  6.00204158e-06  7.85245092e-01  6.00204158e-06  0.00000000e+00  6.00204158e-06  1.80712827e+00  6.00204158e-06  7.11420937e-01  6.00204158e-06  1.26717953e+00  6.00204158e-06  1.64403975e+00                                 
 6.00212473e-06  7.94469136e-01  6.00212473e-06  7.36458586e-01  6.00212473e-06  7.78875568e-01  6.00212473e-06  0.00000000e+00  6.00212473e-06  1.79602274e+00  6.00212473e-06  7.12907024e-01  6.00212473e-06  1.17953566e+00  6.00212473e-06  1.64446865e+00                                 
 6.00229104e-06  7.94465965e-01  6.00229104e-06  7.36798854e-01  6.00229104e-06  7.72234611e-01  6.00229104e-06  0.00000000e+00  6.00229104e-06  1.80064541e+00  6.00229104e-06  7.17419991e-01  6.00229104e-06  1.05030165e+00  6.00229104e-06  1.64446990e+00                                 
 6.00249188e-06  7.94467529e-01  6.00249188e-06  7.37170829e-01  6.00249188e-06  7.67520736e-01  6.00249188e-06  0.00000000e+00  6.00249188e-06  1.79876335e+00  6.00249188e-06  7.21123693e-01  6.00249188e-06  9.33233681e-01  6.00249188e-06  1.64461787e+00                                 
 6.00273276e-06  7.94465695e-01  6.00273276e-06  7.37849837e-01  6.00273276e-06  7.60511388e-01  6.00273276e-06  0.00000000e+00  6.00273276e-06  1.79998035e+00  6.00273276e-06  7.27577194e-01  6.00273276e-06  8.35641255e-01  6.00273276e-06  1.64462842e+00                                 
 6.00312239e-06  7.94467435e-01  6.00312239e-06  7.38899983e-01  6.00312239e-06  7.50240904e-01  6.00312239e-06  0.00000000e+00  6.00312239e-06  1.79961061e+00  6.00312239e-06  7.36876932e-01  6.00312239e-06  7.62845848e-01  6.00312239e-06  1.64460773e+00                                 
 6.00341192e-06  7.94466130e-01  6.00341192e-06  7.39382057e-01  6.00341192e-06  7.46687714e-01  6.00341192e-06  0.00000000e+00  6.00341192e-06  1.80027996e+00  6.00341192e-06  7.40671593e-01  6.00341192e-06  7.51287234e-01  6.00341192e-06  1.64434215e+00                                 
 6.00374739e-06  7.94467679e-01  6.00374739e-06  7.39578821e-01  6.00374739e-06  7.46202158e-01  6.00374739e-06  0.00000000e+00  6.00374739e-06  1.79983771e+00  6.00374739e-06  7.41850160e-01  6.00374739e-06  7.46866934e-01  6.00374739e-06  1.64388645e+00                                 
 6.00412949e-06  7.94466604e-01  6.00412949e-06  7.39663783e-01  6.00412949e-06  7.45791581e-01  6.00412949e-06  0.00000000e+00  6.00412949e-06  1.80013229e+00  6.00412949e-06  7.42687787e-01  6.00412949e-06  7.46248995e-01  6.00412949e-06  1.64314112e+00                                 
 6.00487168e-06  7.94467965e-01  6.00487168e-06  7.39607864e-01  6.00487168e-06  7.47104298e-01  6.00487168e-06  0.00000000e+00  6.00487168e-06  1.79990954e+00  6.00487168e-06  7.42820297e-01  6.00487168e-06  7.46566372e-01  6.00487168e-06  1.64149482e+00                                 
 6.00594505e-06  7.94466903e-01  6.00594505e-06  7.39509615e-01  6.00594505e-06  7.48447339e-01  6.00594505e-06  0.00000000e+00  6.00594505e-06  1.80009210e+00  6.00594505e-06  7.43157874e-01  6.00594505e-06  7.48501384e-01  6.00594505e-06  1.63879676e+00                                 
 6.00809178e-06  7.94468020e-01  6.00809178e-06  7.39338308e-01  6.00809178e-06  7.52626792e-01  6.00809178e-06  0.00000000e+00  6.00809178e-06  1.79993063e+00  6.00809178e-06  7.43059968e-01  6.00809178e-06  7.52027199e-01  6.00809178e-06  1.63319751e+00                                 
 6.01238526e-06  7.94466889e-01  6.01238526e-06  7.39179985e-01  6.01238526e-06  7.60268587e-01  6.01238526e-06  0.00000000e+00  6.01238526e-06  1.80008175e+00  6.01238526e-06  7.43131773e-01  6.01238526e-06  7.60247101e-01  6.01238526e-06  1.62187949e+00                                 
 6.02097220e-06  7.94467994e-01  6.02097220e-06  7.39073474e-01  6.02097220e-06  7.76577476e-01  6.02097220e-06  0.00000000e+00  6.02097220e-06  1.79993513e+00  6.02097220e-06  7.42659547e-01  6.02097220e-06  7.75891633e-01  6.02097220e-06  1.59971886e+00                                 
