 time            v(vbep)         time            v(vben)         time            v(vout)         time            v(vphi1)        time            v(vphi2)        time            v(vref)         yes             currtemp       
 0.00000000e+00  7.99721838e-01  0.00000000e+00  7.54342404e-01  0.00000000e+00  1.00554845e+00  0.00000000e+00  0.00000000e+00  0.00000000e+00  1.79990482e+00  0.00000000e+00  5.00000000e-01  1.00000000e+00 -2.50000000e+01 
 5.00000000e-12  7.99670503e-01  5.00000000e-12  7.54301070e-01  5.00000000e-12  1.00625524e+00  5.00000000e-12  1.80000000e-02  5.00000000e-12  1.80001435e+00  5.00000000e-12  5.00000000e-01                                 
 1.00000000e-11  7.99622463e-01  1.00000000e-11  7.54261549e-01  1.00000000e-11  1.00688965e+00  1.00000000e-11  3.60000000e-02  1.00000000e-11  1.80007427e+00  1.00000000e-11  5.00000000e-01                                 
 2.00000000e-11  7.99528938e-01  2.00000000e-11  7.54183073e-01  2.00000000e-11  1.00804595e+00  2.00000000e-11  7.20000000e-02  2.00000000e-11  1.80013267e+00  2.00000000e-11  5.00000000e-01                                 
 4.00000000e-11  7.99346555e-01  4.00000000e-11  7.54027241e-01  4.00000000e-11  1.00986214e+00  4.00000000e-11  1.44000000e-01  4.00000000e-11  1.80010636e+00  4.00000000e-11  5.00000000e-01                                 
 8.00000000e-11  7.98984930e-01  8.00000000e-11  7.53718130e-01  8.00000000e-11  1.01230498e+00  8.00000000e-11  2.88000000e-01  8.00000000e-11  1.80003530e+00  8.00000000e-11  5.00000000e-01                                 
 1.60000000e-10  7.98275386e-01  1.60000000e-10  7.53110127e-01  1.60000000e-10  1.01536009e+00  1.60000000e-10  5.76000000e-01  1.60000000e-10  1.79999780e+00  1.60000000e-10  5.00000000e-01                                 
 3.20000000e-10  7.96906362e-01  3.20000000e-10  7.51932739e-01  3.20000000e-10  1.00848498e+00  3.20000000e-10  1.15200000e+00  3.20000000e-10  1.80024025e+00  3.20000000e-10  5.00000000e-01                                 
 5.00000000e-10  7.95441904e-01  5.00000000e-10  7.50666330e-01  5.00000000e-10  1.16505380e+00  5.00000000e-10  1.80000000e+00  5.00000000e-10  8.98607677e-02  5.00000000e-10  5.00000000e-01                                 
 5.20474012e-10  7.95280703e-01  5.20474012e-10  7.50526469e-01  5.20474012e-10  1.19946920e+00  5.20474012e-10  1.80000000e+00  5.20474012e-10  1.54131716e-02  5.20474012e-10  5.00000000e-01                                 
 5.61422037e-10  7.94960066e-01  5.61422037e-10  7.50248051e-01  5.61422037e-10  1.26113524e+00  5.61422037e-10  1.80000000e+00  5.61422037e-10 -7.17263109e-03  5.61422037e-10  5.00000000e-01                                 
 6.43318086e-10  7.94329630e-01  6.43318086e-10  7.49699681e-01  6.43318086e-10  1.35950413e+00  6.43318086e-10  1.80000000e+00  6.43318086e-10  6.43991872e-03  6.43318086e-10  5.00000000e-01                                 
 7.67503074e-10  7.93400267e-01  7.67503074e-10  7.48888934e-01  7.67503074e-10  1.47716644e+00  7.67503074e-10  1.80000000e+00  7.67503074e-10 -5.66195542e-03  7.67503074e-10  5.00000000e-01                                 
 9.53915566e-10  7.92061618e-01  9.53915566e-10  7.47716259e-01  9.53915566e-10  1.60764481e+00  9.53915566e-10  1.80000000e+00  9.53915566e-10  5.45330144e-03  9.53915566e-10  5.00000000e-01                                 
 1.32674055e-09  7.89565277e-01  1.32674055e-09  7.45514474e-01  1.32674055e-09  1.76018223e+00  1.32674055e-09  1.80000000e+00  1.32674055e-09 -5.19356584e-03  1.32674055e-09  5.00000000e-01                                 
 1.63579769e-09  7.87661407e-01  1.63579769e-09  7.43821525e-01  1.63579769e-09  1.81474636e+00  1.63579769e-09  1.80000000e+00  1.63579769e-09  5.07245326e-03  1.63579769e-09  5.00000000e-01                                 
 1.98901053e-09  7.85642273e-01  1.98901053e-09  7.42013613e-01  1.98901053e-09  1.84069202e+00  1.98901053e-09  1.80000000e+00  1.98901053e-09 -4.83424507e-03  1.98901053e-09  5.00000000e-01                                 
 2.32332390e-09  7.83866629e-01  2.32332390e-09  7.40413260e-01  2.32332390e-09  1.84932756e+00  2.32332390e-09  1.80000000e+00  2.32332390e-09  4.74905676e-03  2.32332390e-09  5.00000000e-01                                 
 2.63494519e-09  7.82315914e-01  2.63494519e-09  7.39007773e-01  2.63494519e-09  1.85188189e+00  2.63494519e-09  1.80000000e+00  2.63494519e-09 -4.52459038e-03  2.63494519e-09  5.00000000e-01                                 
 3.02727665e-09  7.80488864e-01  3.02727665e-09  7.37342865e-01  3.02727665e-09  1.85234405e+00  3.02727665e-09  1.80000000e+00  3.02727665e-09  4.42801183e-03  3.02727665e-09  5.00000000e-01                                 
 3.48667119e-09  7.78505450e-01  3.48667119e-09  7.35524708e-01  3.48667119e-09  1.85153703e+00  3.48667119e-09  1.80000000e+00  3.48667119e-09 -4.29850147e-03  3.48667119e-09  5.00000000e-01                                 
 4.26076856e-09  7.75479685e-01  4.26076856e-09  7.32730927e-01  4.26076856e-09  1.84960175e+00  4.26076856e-09  1.80000000e+00  4.26076856e-09  4.25069458e-03  4.26076856e-09  5.00000000e-01                                 
 5.35809148e-09  7.71738334e-01  5.35809148e-09  7.29244186e-01  5.35809148e-09  1.84698105e+00  5.35809148e-09  1.80000000e+00  5.35809148e-09 -4.19373401e-03  5.35809148e-09  5.00000000e-01                                 
 7.31013801e-09  7.66220213e-01  7.31013801e-09  7.24043699e-01  7.31013801e-09  1.84317998e+00  7.31013801e-09  1.80000000e+00  7.31013801e-09  4.18275800e-03  7.31013801e-09  5.00000000e-01                                 
 1.09426525e-08  7.58405363e-01  1.09426525e-08  7.16575818e-01  1.09426525e-08  1.83784412e+00  1.09426525e-08  1.80000000e+00  1.09426525e-08 -4.15584006e-03  1.09426525e-08  5.00000000e-01                                 
 1.82076816e-08  7.47758393e-01  1.82076816e-08  7.06242079e-01  1.82076816e-08  1.83083483e+00  1.82076816e-08  1.80000000e+00  1.82076816e-08  4.16389102e-03  1.82076816e-08  5.00000000e-01                                 
 3.27377398e-08  7.34965134e-01  3.27377398e-08  6.93617959e-01  3.27377398e-08  1.82425162e+00  3.27377398e-08  1.80000000e+00  3.27377398e-08 -4.14574447e-03  3.27377398e-08  5.00000000e-01                                 
 5.57308241e-08  7.23613165e-01  5.57308241e-08  6.82223897e-01  5.57308241e-08  1.82451199e+00  5.57308241e-08  1.80000000e+00  5.57308241e-08  4.15900724e-03  5.57308241e-08  5.00000000e-01                                 
 7.63653802e-08  7.17247584e-01  7.63653802e-08  6.75746848e-01  7.63653802e-08  1.82869773e+00  7.63653802e-08  1.80000000e+00  7.63653802e-08 -4.14132380e-03  7.63653802e-08  5.00000000e-01                                 
 9.84921434e-08  7.12044686e-01  9.84921434e-08  6.70447256e-01  9.84921434e-08  1.83267449e+00  9.84921434e-08  1.80000000e+00  9.84921434e-08  4.15471468e-03  9.84921434e-08  5.00000000e-01                                 
 1.26499102e-07  7.06774683e-01  1.26499102e-07  6.65094939e-01  1.26499102e-07  1.82121972e+00  1.26499102e-07  1.80000000e+00  1.26499102e-07 -4.13756136e-03  1.26499102e-07  5.00000000e-01                                 
 1.51734691e-07  7.01983783e-01  1.51734691e-07  6.60435300e-01  1.51734691e-07  1.74389436e+00  1.51734691e-07  1.80000000e+00  1.51734691e-07  4.15121199e-03  1.51734691e-07  5.00000000e-01                                 
 1.83405998e-07  6.93182364e-01  1.83405998e-07  6.52550609e-01  1.83405998e-07  1.60616985e+00  1.83405998e-07  1.80000000e+00  1.83405998e-07 -4.13433935e-03  1.83405998e-07  5.00000000e-01                                 
 2.08921206e-07  6.84722303e-01  2.08921206e-07  6.45228125e-01  2.08921206e-07  1.48427189e+00  2.08921206e-07  1.80000000e+00  2.08921206e-07  4.14789435e-03  2.08921206e-07  5.00000000e-01                                 
 2.36458733e-07  6.76758671e-01  2.36458733e-07  6.38350904e-01  2.36458733e-07  1.31979397e+00  2.36458733e-07  1.80000000e+00  2.36458733e-07 -4.13084871e-03  2.36458733e-07  5.00000000e-01                                 
 2.63685985e-07  6.77703611e-01  2.63685985e-07  6.38608275e-01  2.63685985e-07  1.21447049e+00  2.63685985e-07  1.80000000e+00  2.63685985e-07  4.14478334e-03  2.63685985e-07  5.00000000e-01                                 
 2.95979921e-07  6.82018332e-01  2.95979921e-07  6.41478095e-01  2.95979921e-07  1.05304446e+00  2.95979921e-07  1.80000000e+00  2.95979921e-07 -4.12771117e-03  2.95979921e-07  5.00000000e-01                                 
 3.20576669e-07  6.77965090e-01  3.20576669e-07  6.37867947e-01  3.20576669e-07  9.11458845e-01  3.20576669e-07  1.80000000e+00  3.20576669e-07  4.14128891e-03  3.20576669e-07  5.00000000e-01                                 
 3.46411081e-07  6.72810629e-01  3.46411081e-07  6.33401753e-01  3.46411081e-07  7.97570097e-01  3.46411081e-07  1.80000000e+00  3.46411081e-07 -4.12413490e-03  3.46411081e-07  5.00000000e-01                                 
 3.82923182e-07  6.66649159e-01  3.82923182e-07  6.28040425e-01  3.82923182e-07  6.91964895e-01  3.82923182e-07  1.80000000e+00  3.82923182e-07  4.13828967e-03  3.82923182e-07  5.00000000e-01                                 
 4.18554589e-07  6.60293039e-01  4.18554589e-07  6.22594696e-01  4.18554589e-07  6.33293504e-01  4.18554589e-07  1.80000000e+00  4.18554589e-07 -4.12163649e-03  4.18554589e-07  5.00000000e-01                                 
 4.79647160e-07  6.49506495e-01  4.79647160e-07  6.13461941e-01  4.79647160e-07  5.52235027e-01  4.79647160e-07  1.80000000e+00  4.79647160e-07  4.13626464e-03  4.79647160e-07  5.00000000e-01                                 
 5.48178318e-07  6.37220567e-01  5.48178318e-07  6.03214618e-01  5.48178318e-07  4.91733881e-01  5.48178318e-07  1.80000000e+00  5.48178318e-07 -4.12021084e-03  5.48178318e-07  5.00000000e-01                                 
 6.38706964e-07  6.19132835e-01  6.38706964e-07  5.88384654e-01  6.38706964e-07  4.61180976e-01  6.38706964e-07  1.80000000e+00  6.38706964e-07  4.13508682e-03  6.38706964e-07  5.00000000e-01                                 
 7.02150135e-07  6.06236006e-01  7.02150135e-07  5.77912999e-01  7.02150135e-07  4.50273909e-01  7.02150135e-07  1.80000000e+00  7.02150135e-07 -4.11903469e-03  7.02150135e-07  5.00000000e-01                                 
 7.10764286e-07  6.04456796e-01  7.10764286e-07  5.76474075e-01  7.10764286e-07  4.51096093e-01  7.10764286e-07  1.80000000e+00  7.10764286e-07 -1.30635855e-06  7.10764286e-07  5.00000000e-01                                 
 7.27992587e-07  6.00857564e-01  7.27992587e-07  5.73565424e-01  7.27992587e-07  4.49493007e-01  7.27992587e-07  1.80000000e+00  7.27992587e-07  1.17783753e-06  7.27992587e-07  5.00000000e-01                                 
 7.62449191e-07  5.93534148e-01  7.62449191e-07  5.67658410e-01  7.62449191e-07  4.46397521e-01  7.62449191e-07  1.80000000e+00  7.62449191e-07 -1.30538665e-06  7.62449191e-07  5.00000000e-01                                 
 8.21974651e-07  5.80385760e-01  8.21974651e-07  5.57082671e-01  8.21974651e-07  4.79415123e-01  8.21974651e-07  1.80000000e+00  8.21974651e-07  1.17324227e-06  8.21974651e-07  5.00000000e-01                                 
 8.76054338e-07  5.67907866e-01  8.76054338e-07  5.47071201e-01  8.76054338e-07  5.34764252e-01  8.76054338e-07  1.80000000e+00  8.76054338e-07 -1.31086713e-06  8.76054338e-07  5.00000000e-01                                 
 9.15924579e-07  5.59019248e-01  9.15924579e-07  5.39949034e-01  9.15924579e-07  5.42940740e-01  9.15924579e-07  1.80000000e+00  9.15924579e-07  1.17707649e-06  9.15924579e-07  5.00000000e-01                                 
 9.65851048e-07  5.52690609e-01  9.65851048e-07  5.34880895e-01  9.65851048e-07  5.05372982e-01  9.65851048e-07  1.80000000e+00  9.65851048e-07 -1.24416721e-06  9.65851048e-07  5.00000000e-01                                 
 1.01585152e-06  5.67746920e-01  1.01585152e-06  5.46931558e-01  1.01585152e-06  4.87785569e-01  1.01585152e-06  1.80000000e+00  1.01585152e-06  1.46159949e-06  1.01585152e-06  5.00000000e-01                                 
 1.06115055e-06  6.68465751e-01  1.06115055e-06  6.27493849e-01  1.06115055e-06  5.56834227e-01  1.06115055e-06  1.80000000e+00  1.06115055e-06  1.03980449e-07  1.06115055e-06  5.00000000e-01                                 
 1.10961889e-06  8.23273924e-01  1.10961889e-06  7.76055079e-01  1.10961889e-06  5.57941136e-01  1.10961889e-06  1.80000000e+00  1.10961889e-06  2.79588513e-06  1.10961889e-06  5.00000000e-01                                 
 1.16044882e-06  8.85821120e-01  1.16044882e-06  8.33889335e-01  1.16044882e-06  4.90821305e-01  1.16044882e-06  1.80000000e+00  1.16044882e-06 -1.35356871e-06  1.16044882e-06  5.00000000e-01                                 
 1.20997431e-06  9.53771639e-01  1.20997431e-06  8.78988793e-01  1.20997431e-06  5.37487477e-01  1.20997431e-06  1.80000000e+00  1.20997431e-06  2.75984415e-06  1.20997431e-06  5.00000000e-01                                 
 1.25576455e-06  9.79332980e-01  1.25576455e-06  8.92198456e-01  1.25576455e-06  5.23663102e-01  1.25576455e-06  1.80000000e+00  1.25576455e-06 -2.08165444e-06  1.25576455e-06  5.00000000e-01                                 
 1.30149618e-06  9.69548816e-01  1.30149618e-06  8.87486471e-01  1.30149618e-06  4.80627733e-01  1.30149618e-06  1.80000000e+00  1.30149618e-06  1.83422510e-06  1.30149618e-06  5.00000000e-01                                 
 1.33963622e-06  9.76084837e-01  1.33963622e-06  8.90541386e-01  1.33963622e-06  4.90075973e-01  1.33963622e-06  1.80000000e+00  1.33963622e-06 -1.49598119e-06  1.33963622e-06  5.00000000e-01                                 
 1.38017472e-06  9.73354991e-01  1.38017472e-06  8.89424187e-01  1.38017472e-06  4.87030159e-01  1.38017472e-06  1.80000000e+00  1.38017472e-06  1.34667258e-06  1.38017472e-06  5.00000000e-01                                 
 1.43102302e-06  9.74256493e-01  1.43102302e-06  8.89640293e-01  1.43102302e-06  4.90418783e-01  1.43102302e-06  1.80000000e+00  1.43102302e-06 -1.25241059e-06  1.43102302e-06  5.00000000e-01                                 
 1.49630471e-06  9.73761910e-01  1.49630471e-06  8.89621941e-01  1.49630471e-06  4.89777605e-01  1.49630471e-06  1.80000000e+00  1.49630471e-06  1.22276320e-06  1.49630471e-06  5.00000000e-01                                 
 1.59858245e-06  9.72297861e-01  1.59858245e-06  8.88690660e-01  1.59858245e-06  4.93314463e-01  1.59858245e-06  1.80000000e+00  1.59858245e-06 -1.19659229e-06  1.59858245e-06  5.00000000e-01                                 
 1.72706109e-06  9.71903784e-01  1.72706109e-06  8.88709244e-01  1.72706109e-06  5.02565499e-01  1.72706109e-06  1.80000000e+00  1.72706109e-06  1.19538818e-06  1.72706109e-06  5.00000000e-01                                 
 1.90840454e-06  9.69002848e-01  1.90840454e-06  8.87063178e-01  1.90840454e-06  5.06980237e-01  1.90840454e-06  1.80000000e+00  1.90840454e-06 -1.18593073e-06  1.90840454e-06  5.00000000e-01                                 
 2.16188242e-06  9.67619653e-01  2.16188242e-06  8.86578644e-01  2.16188242e-06  4.97035092e-01  2.16188242e-06  1.80000000e+00  2.16188242e-06  1.18999177e-06  2.16188242e-06  5.00000000e-01                                 
 2.20793988e-06  9.66388052e-01  2.20793988e-06  8.85856275e-01  2.20793988e-06  4.97710832e-01  2.20793988e-06  1.80000000e+00  2.20793988e-06  6.64552461e-09  2.20793988e-06  5.00000000e-01                                 
 2.30005480e-06  9.65418639e-01  2.30005480e-06  8.85356200e-01  2.30005480e-06  4.98834897e-01  2.30005480e-06  1.80000000e+00  2.30005480e-06  1.13909564e-11  2.30005480e-06  5.00000000e-01                                 
 2.48428463e-06  9.63368541e-01  2.48428463e-06  8.84312668e-01  2.48428463e-06  5.00233309e-01  2.48428463e-06  1.80000000e+00  2.48428463e-06  5.47220576e-09  2.48428463e-06  5.00000000e-01                                 
 2.73822830e-06  9.60657469e-01  2.73822830e-06  8.82895911e-01  2.73822830e-06  5.00649003e-01  2.73822830e-06  1.80000000e+00  2.73822830e-06  7.21900977e-10  2.73822830e-06  5.00000000e-01                                 
 3.18534895e-06  9.55876660e-01  3.18534895e-06  8.80365807e-01  3.18534895e-06  4.99772608e-01  3.18534895e-06  1.80000000e+00  3.18534895e-06  5.36582406e-09  3.18534895e-06  5.00000000e-01                                 
 4.07959025e-06  9.45323154e-01  4.07959025e-06  8.74502877e-01  4.07959025e-06  4.98176557e-01  4.07959025e-06  1.80000000e+00  4.07959025e-06 -4.35986846e-10  4.07959025e-06  5.00000000e-01                                 
 5.07959025e-06  8.71243218e-01  5.07959025e-06  8.21776683e-01  5.07959025e-06  4.92383841e-01  5.07959025e-06  1.80000000e+00  5.07959025e-06 -6.30164337e-08  5.07959025e-06  5.00000000e-01                                 
 5.16090672e-06  8.64783860e-01  5.16090672e-06  8.16057492e-01  5.16090672e-06  4.95387860e-01  5.16090672e-06  1.80000000e+00  5.16090672e-06 -3.60112093e-08  5.16090672e-06  5.00000000e-01                                 
 5.32353967e-06  8.59173113e-01  5.32353967e-06  8.11004191e-01  5.32353967e-06  5.05314903e-01  5.32353967e-06  1.80000000e+00  5.32353967e-06  1.44824199e-08  5.32353967e-06  5.00000000e-01                                 
 5.36419790e-06  8.59505442e-01  5.36419790e-06  8.11307291e-01  5.36419790e-06  5.06999147e-01  5.36419790e-06  1.80000000e+00  5.36419790e-06  1.29777840e-08  5.36419790e-06  5.00000000e-01                                 
 5.44551438e-06  8.59891396e-01  5.44551438e-06  8.11657687e-01  5.44551438e-06  5.05541586e-01  5.44551438e-06  1.80000000e+00  5.44551438e-06  8.93330843e-09  5.44551438e-06  5.00000000e-01                                 
 5.60814732e-06  8.59943771e-01  5.60814732e-06  8.11705245e-01  5.60814732e-06  5.00353224e-01  5.60814732e-06  1.80000000e+00  5.60814732e-06  9.16602788e-09  5.60814732e-06  5.00000000e-01                                 
 5.84413351e-06  8.59921139e-01  5.84413351e-06  8.11684688e-01  5.84413351e-06  5.03498173e-01  5.84413351e-06  1.80000000e+00  5.84413351e-06  8.14775265e-09  5.84413351e-06  5.00000000e-01                                 
 6.08797995e-06  8.59935649e-01  6.08797995e-06  8.11697869e-01  6.08797995e-06  5.01809043e-01  6.08797995e-06  1.80000000e+00  6.08797995e-06  9.21600435e-09  6.08797995e-06  5.00000000e-01                                 
 6.57567283e-06  8.59924589e-01  6.57567283e-06  8.11687823e-01  6.57567283e-06  4.98855657e-01  6.57567283e-06  1.80000000e+00  6.57567283e-06  8.22572959e-09  6.57567283e-06  5.00000000e-01                                 
 7.19018229e-06  8.59934312e-01  7.19018229e-06  8.11696652e-01  7.19018229e-06  5.01125739e-01  7.19018229e-06  1.80000000e+00  7.19018229e-06  9.17498727e-09  7.19018229e-06  5.00000000e-01                                 
 7.93186696e-06  8.59925477e-01  7.93186696e-06  8.11688631e-01  7.93186696e-06  5.00405827e-01  7.93186696e-06  1.80000000e+00  7.93186696e-06  8.23518044e-09  7.93186696e-06  5.00000000e-01                                 
 8.93186696e-06  8.59933709e-01  8.93186696e-06  8.11696103e-01  8.93186696e-06  5.00333698e-01  8.93186696e-06  1.80000000e+00  8.93186696e-06  9.17402158e-09  8.93186696e-06  5.00000000e-01                                 
 9.93186696e-06  8.59925935e-01  9.93186696e-06  8.11689049e-01  9.93186696e-06  5.00091874e-01  9.93186696e-06  1.80000000e+00  9.93186696e-06  8.23579773e-09  9.93186696e-06  5.00000000e-01                                 
 1.00005000e-05  8.59931673e-01  1.00005000e-05  8.11694248e-01  1.00005000e-05  5.00045873e-01  1.00005000e-05  1.80000000e+00  1.00005000e-05  9.12865947e-09  1.00005000e-05  5.00000000e-01                                 
