 time            v(vbep)         time            v(vben)         time            v(vout)         time            v(vphi1)        time            v(vphi2)        time            v(vref)         yes             currtemp       
 0.00000000e+00  7.63495710e-01  0.00000000e+00  7.14034258e-01  0.00000000e+00  1.00611148e+00  0.00000000e+00  0.00000000e+00  0.00000000e+00  1.79989732e+00  0.00000000e+00  5.00000000e-01  1.00000000e+00 -3.00000000e+00 
 5.00000000e-12  7.63438599e-01  5.00000000e-12  7.13988442e-01  5.00000000e-12  1.00683275e+00  5.00000000e-12  1.80000000e-02  5.00000000e-12  1.80000744e+00  5.00000000e-12  5.00000000e-01                                 
 1.00000000e-11  7.63385308e-01  1.00000000e-11  7.13944727e-01  1.00000000e-11  1.00748057e+00  1.00000000e-11  3.60000000e-02  1.00000000e-11  1.80007073e+00  1.00000000e-11  5.00000000e-01                                 
 2.00000000e-11  7.63281715e-01  2.00000000e-11  7.13857948e-01  2.00000000e-11  1.00866042e+00  2.00000000e-11  7.20000000e-02  2.00000000e-11  1.80013726e+00  2.00000000e-11  5.00000000e-01                                 
 4.00000000e-11  7.63080013e-01  4.00000000e-11  7.13685663e-01  4.00000000e-11  1.01048600e+00  4.00000000e-11  1.44000000e-01  4.00000000e-11  1.80012547e+00  4.00000000e-11  5.00000000e-01                                 
 8.00000000e-11  7.62680138e-01  8.00000000e-11  7.13343936e-01  8.00000000e-11  1.01274371e+00  8.00000000e-11  2.88000000e-01  8.00000000e-11  1.80006261e+00  8.00000000e-11  5.00000000e-01                                 
 1.60000000e-10  7.61895613e-01  1.60000000e-10  7.12671845e-01  1.60000000e-10  1.01465439e+00  1.60000000e-10  5.76000000e-01  1.60000000e-10  1.80000936e+00  1.60000000e-10  5.00000000e-01                                 
 3.20000000e-10  7.60382111e-01  3.20000000e-10  7.11370592e-01  3.20000000e-10  1.00620624e+00  3.20000000e-10  1.15200000e+00  3.20000000e-10  1.80030714e+00  3.20000000e-10  5.00000000e-01                                 
 5.00000000e-10  7.58763470e-01  5.00000000e-10  7.09971340e-01  5.00000000e-10  1.18536677e+00  5.00000000e-10  1.80000000e+00  5.00000000e-10  9.90541101e-02  5.00000000e-10  5.00000000e-01                                 
 5.20805169e-10  7.58582467e-01  5.20805169e-10  7.09814355e-01  5.20805169e-10  1.22562026e+00  5.20805169e-10  1.80000000e+00  5.20805169e-10  1.77616772e-02  5.20805169e-10  5.00000000e-01                                 
 5.62415506e-10  7.58222475e-01  5.62415506e-10  7.09501879e-01  5.62415506e-10  1.29898965e+00  5.62415506e-10  1.80000000e+00  5.62415506e-10 -8.45517452e-03  5.62415506e-10  5.00000000e-01                                 
 6.45636181e-10  7.57514907e-01  6.45636181e-10  7.08886636e-01  6.45636181e-10  1.41987180e+00  6.45636181e-10  1.80000000e+00  6.45636181e-10  7.29091364e-03  6.45636181e-10  5.00000000e-01                                 
 7.68685281e-10  7.56498002e-01  7.68685281e-10  7.07999851e-01  7.68685281e-10  1.56352602e+00  7.68685281e-10  1.80000000e+00  7.68685281e-10 -6.44963218e-03  7.68685281e-10  5.00000000e-01                                 
 9.56978452e-10  7.55005222e-01  9.56978452e-10  7.06692679e-01  9.56978452e-10  1.72678890e+00  9.56978452e-10  1.80000000e+00  9.56978452e-10  6.13410546e-03  9.56978452e-10  5.00000000e-01                                 
 1.33356480e-09  7.52224243e-01  1.33356480e-09  7.04240790e-01  1.33356480e-09  1.91394246e+00  1.33356480e-09  1.80000000e+00  1.33356480e-09 -5.82748131e-03  1.33356480e-09  5.00000000e-01                                 
 1.61385638e-09  7.50315673e-01  1.61385638e-09  7.02544767e-01  1.61385638e-09  1.97319841e+00  1.61385638e-09  1.80000000e+00  1.61385638e-09  5.65838396e-03  1.61385638e-09  5.00000000e-01                                 
 1.92300698e-09  7.48347672e-01  1.92300698e-09  7.00785050e-01  1.92300698e-09  2.00220488e+00  1.92300698e-09  1.80000000e+00  1.92300698e-09 -5.36653252e-03  1.92300698e-09  5.00000000e-01                                 
 2.24827950e-09  7.46414321e-01  2.24827950e-09  6.99045786e-01  2.24827950e-09  2.01374561e+00  2.24827950e-09  1.80000000e+00  2.24827950e-09  5.21713593e-03  2.24827950e-09  5.00000000e-01                                 
 2.74384265e-09  7.43700684e-01  2.74384265e-09  6.96587701e-01  2.74384265e-09  2.01790778e+00  2.74384265e-09  1.80000000e+00  2.74384265e-09 -5.04520860e-03  2.74384265e-09  5.00000000e-01                                 
 3.36674286e-09  7.40626643e-01  3.36674286e-09  6.93779881e-01  3.36674286e-09  2.01637111e+00  3.36674286e-09  1.80000000e+00  3.36674286e-09  4.98063157e-03  3.36674286e-09  5.00000000e-01                                 
 4.42462242e-09  7.36076477e-01  4.42462242e-09  6.89581851e-01  4.42462242e-09  2.01202135e+00  4.42462242e-09  1.80000000e+00  4.42462242e-09 -4.89361186e-03  4.42462242e-09  5.00000000e-01                                 
 6.06870730e-09  7.30235757e-01  6.06870730e-09  6.84124585e-01  6.06870730e-09  2.00629453e+00  6.06870730e-09  1.80000000e+00  6.06870730e-09  4.88697955e-03  6.06870730e-09  5.00000000e-01                                 
 9.03085459e-09  7.22117105e-01  9.03085459e-09  6.76427861e-01  9.03085459e-09  1.99855052e+00  9.03085459e-09  1.80000000e+00  9.03085459e-09 -4.83124204e-03  9.03085459e-09  5.00000000e-01                                 
 1.04343329e-08  7.19056036e-01  1.04343329e-08  6.73490692e-01  1.04343329e-08  1.99563753e+00  1.04343329e-08  1.80000000e+00  1.04343329e-08  4.81680922e-03  1.04343329e-08  5.00000000e-01                                 
 1.23034878e-08  7.15474001e-01  1.23034878e-08  6.70035614e-01  1.23034878e-08  1.99224495e+00  1.23034878e-08  1.80000000e+00  1.23034878e-08 -4.76170775e-03  1.23034878e-08  5.00000000e-01                                 
 1.42707996e-08  7.12182984e-01  1.42707996e-08  6.66845269e-01  1.42707996e-08  1.98915433e+00  1.42707996e-08  1.80000000e+00  1.42707996e-08  4.75301894e-03  1.42707996e-08  5.00000000e-01                                 
 1.77788735e-08  7.07190530e-01  1.77788735e-08  6.61980365e-01  1.77788735e-08  1.98446259e+00  1.77788735e-08  1.80000000e+00  1.77788735e-08 -4.71666881e-03  1.77788735e-08  5.00000000e-01                                 
 2.13802642e-08  7.02939649e-01  2.13802642e-08  6.57814917e-01  2.13802642e-08  1.98052082e+00  2.13802642e-08  1.80000000e+00  2.13802642e-08  4.71969967e-03  2.13802642e-08  5.00000000e-01                                 
 2.85830455e-08  6.96123906e-01  2.85830455e-08  6.51096716e-01  2.85830455e-08  1.97428273e+00  2.85830455e-08  1.80000000e+00  2.85830455e-08 -4.69243109e-03  2.85830455e-08  5.00000000e-01                                 
 3.67010641e-08  6.90268184e-01  3.67010641e-08  6.45281071e-01  3.67010641e-08  1.96913999e+00  3.67010641e-08  1.80000000e+00  3.67010641e-08  4.70468390e-03  3.67010641e-08  5.00000000e-01                                 
 5.29371014e-08  6.81677820e-01  5.29371014e-08  6.36677308e-01  5.29371014e-08  1.96215116e+00  5.29371014e-08  1.80000000e+00  5.29371014e-08 -4.68176426e-03  5.29371014e-08  5.00000000e-01                                 
 6.87411039e-08  6.75772848e-01  6.87411039e-08  6.30697995e-01  6.87411039e-08  1.95801629e+00  6.87411039e-08  1.80000000e+00  6.87411039e-08  4.69762265e-03  6.87411039e-08  5.00000000e-01                                 
 8.63202508e-08  6.70658323e-01  8.63202508e-08  6.25496949e-01  8.63202508e-08  1.95436290e+00  8.63202508e-08  1.80000000e+00  8.63202508e-08 -4.67483180e-03  8.63202508e-08  5.00000000e-01                                 
 1.05598073e-07  6.65980621e-01  1.05598073e-07  6.20763857e-01  1.05598073e-07  1.95131280e+00  1.05598073e-07  1.80000000e+00  1.05598073e-07  4.69143206e-03  1.05598073e-07  5.00000000e-01                                 
 1.39793338e-07  6.59267633e-01  1.39793338e-07  6.13991342e-01  1.39793338e-07  1.93539850e+00  1.39793338e-07  1.80000000e+00  1.39793338e-07 -4.67020522e-03  1.39793338e-07  5.00000000e-01                                 
 1.67552421e-07  6.52858352e-01  1.67552421e-07  6.07972523e-01  1.67552421e-07  1.91550725e+00  1.67552421e-07  1.80000000e+00  1.67552421e-07  4.68769507e-03  1.67552421e-07  5.00000000e-01                                 
 1.91106632e-07  6.43861812e-01  1.91106632e-07  6.00164234e-01  1.91106632e-07  1.89200710e+00  1.91106632e-07  1.80000000e+00  1.91106632e-07 -4.66590744e-03  1.91106632e-07  5.00000000e-01                                 
 2.11671791e-07  6.37379136e-01  2.11671791e-07  5.94507855e-01  2.11671791e-07  1.86346653e+00  2.11671791e-07  1.80000000e+00  2.11671791e-07  4.68254556e-03  2.11671791e-07  5.00000000e-01                                 
 2.29222640e-07  6.31846802e-01  2.29222640e-07  5.89729582e-01  2.29222640e-07  1.83121828e+00  2.29222640e-07  1.80000000e+00  2.29222640e-07 -4.65994876e-03  2.29222640e-07  5.00000000e-01                                 
 2.47442305e-07  6.27219775e-01  2.47442305e-07  5.85694442e-01  2.47442305e-07  1.80770509e+00  2.47442305e-07  1.80000000e+00  2.47442305e-07  4.67627363e-03  2.47442305e-07  5.00000000e-01                                 
 2.69909724e-07  6.33599210e-01  2.69909724e-07  5.90317830e-01  2.69909724e-07  1.81036235e+00  2.69909724e-07  1.80000000e+00  2.69909724e-07 -4.65393343e-03  2.69909724e-07  5.00000000e-01                                 
 2.88568534e-07  6.37369891e-01  2.88568534e-07  5.92951305e-01  2.88568534e-07  1.80306351e+00  2.88568534e-07  1.80000000e+00  2.88568534e-07  4.67060659e-03  2.88568534e-07  5.00000000e-01                                 
 3.08901620e-07  6.31842675e-01  3.08901620e-07  5.88204866e-01  3.08901620e-07  1.77524331e+00  3.08901620e-07  1.80000000e+00  3.08901620e-07 -4.64854222e-03  3.08901620e-07  5.00000000e-01                                 
 3.28087768e-07  6.27788386e-01  3.28087768e-07  5.84673064e-01  3.28087768e-07  1.75551824e+00  3.28087768e-07  1.80000000e+00  3.28087768e-07  4.66492391e-03  3.28087768e-07  5.00000000e-01                                 
 3.45544955e-07  6.24716611e-01  3.45544955e-07  5.81968474e-01  3.45544955e-07  1.73567623e+00  3.45544955e-07  1.80000000e+00  3.45544955e-07 -4.64240453e-03  3.45544955e-07  5.00000000e-01                                 
 3.80459330e-07  6.16859690e-01  3.80459330e-07  5.75253334e-01  3.80459330e-07  1.69495104e+00  3.80459330e-07  1.80000000e+00  3.80459330e-07  4.66003776e-03  3.80459330e-07  5.00000000e-01                                 
 4.25360716e-07  6.07735761e-01  4.25360716e-07  5.67489507e-01  4.25360716e-07  1.64379256e+00  4.25360716e-07  1.80000000e+00  4.25360716e-07 -4.63954469e-03  4.25360716e-07  5.00000000e-01                                 
 4.86580080e-07  5.92444222e-01  4.86580080e-07  5.54792000e-01  4.86580080e-07  1.56737306e+00  4.86580080e-07  1.80000000e+00  4.86580080e-07  4.65782891e-03  4.86580080e-07  5.00000000e-01                                 
 5.74447588e-07  5.74215239e-01  5.74447588e-07  5.39752812e-01  5.74447588e-07  1.46469351e+00  5.74447588e-07  1.80000000e+00  5.74447588e-07 -4.63796411e-03  5.74447588e-07  5.00000000e-01                                 
 6.63235775e-07  5.45769770e-01  6.63235775e-07  5.16789725e-01  6.63235775e-07  1.34609575e+00  6.63235775e-07  1.80000000e+00  6.63235775e-07  4.65647528e-03  6.63235775e-07  5.00000000e-01                                 
 7.64623486e-07  5.11247753e-01  7.64623486e-07  4.89126948e-01  7.64623486e-07  1.20982896e+00  7.64623486e-07  1.80000000e+00  7.64623486e-07 -4.63676879e-03  7.64623486e-07  5.00000000e-01                                 
 8.44503966e-07  7.60511393e-01  8.44503966e-07  7.08947859e-01  8.44503966e-07  1.36417377e+00  8.44503966e-07  1.80000000e+00  8.44503966e-07  4.65813131e-03  8.44503966e-07  5.00000000e-01                                 
 9.07351978e-07  8.39335101e-01  9.07351978e-07  7.85111526e-01  9.07351978e-07  1.37811437e+00  9.07351978e-07  1.80000000e+00  9.07351978e-07 -4.63622841e-03  9.07351978e-07  5.00000000e-01                                 
 9.15437987e-07  8.44399416e-01  9.15437987e-07  7.89432995e-01  9.15437987e-07  1.37215613e+00  9.15437987e-07  1.80000000e+00  9.15437987e-07 -1.59387100e-06  9.15437987e-07  5.00000000e-01                                 
 9.31610005e-07  8.54780041e-01  9.31610005e-07  7.97975424e-01  9.31610005e-07  1.36473942e+00  9.31610005e-07  1.80000000e+00  9.31610005e-07  2.29996451e-06  9.31610005e-07  5.00000000e-01                                 
 9.63954041e-07  8.83587996e-01  9.63954041e-07  8.19508119e-01  9.63954041e-07  1.35714226e+00  9.63954041e-07  1.80000000e+00  9.63954041e-07 -1.18238829e-06  9.63954041e-07  5.00000000e-01                                 
 9.93130642e-07  9.24365524e-01  9.93130642e-07  8.45144538e-01  9.93130642e-07  1.36064388e+00  9.93130642e-07  1.80000000e+00  9.93130642e-07  2.70533959e-06  9.93130642e-07  5.00000000e-01                                 
 1.01898974e-06  9.37626711e-01  1.01898974e-06  8.52812620e-01  1.01898974e-06  1.34690595e+00  1.01898974e-06  1.80000000e+00  1.01898974e-06 -1.88920172e-06  1.01898974e-06  5.00000000e-01                                 
 1.04982433e-06  9.30521569e-01  1.04982433e-06  8.48890245e-01  1.04982433e-06  1.30886893e+00  1.04982433e-06  1.80000000e+00  1.04982433e-06  1.76300737e-06  1.04982433e-06  5.00000000e-01                                 
 1.07627538e-06  9.33368621e-01  1.07627538e-06  8.50392353e-01  1.07627538e-06  1.28418189e+00  1.07627538e-06  1.80000000e+00  1.07627538e-06 -1.60928622e-06  1.07627538e-06  5.00000000e-01                                 
 1.10584656e-06  9.31267610e-01  1.10584656e-06  8.49356035e-01  1.10584656e-06  1.25223603e+00  1.10584656e-06  1.80000000e+00  1.10584656e-06  1.66995921e-06  1.10584656e-06  5.00000000e-01                                 
 1.14778961e-06  9.30942163e-01  1.14778961e-06  8.49037599e-01  1.14778961e-06  1.20842617e+00  1.14778961e-06  1.80000000e+00  1.14778961e-06 -1.60402449e-06  1.14778961e-06  5.00000000e-01                                 
 1.20440823e-06  9.29640207e-01  1.20440823e-06  8.48451205e-01  1.20440823e-06  1.14859765e+00  1.20440823e-06  1.80000000e+00  1.20440823e-06  1.68500852e-06  1.20440823e-06  5.00000000e-01                                 
 1.31764547e-06  9.26638971e-01  1.31764547e-06  8.46624959e-01  1.31764547e-06  1.02420787e+00  1.31764547e-06  1.80000000e+00  1.31764547e-06 -1.62153394e-06  1.31764547e-06  5.00000000e-01                                 
 1.46784857e-06  9.21679595e-01  1.46784857e-06  8.43925630e-01  1.46784857e-06  8.89411112e-01  1.46784857e-06  1.80000000e+00  1.46784857e-06  1.69045731e-06  1.46784857e-06  5.00000000e-01                                 
 1.62232192e-06  9.11702523e-01  1.62232192e-06  8.37852153e-01  1.62232192e-06  7.81728041e-01  1.62232192e-06  1.80000000e+00  1.62232192e-06 -1.64920340e-06  1.62232192e-06  5.00000000e-01                                 
 1.83060950e-06  8.42942901e-01  1.83060950e-06  7.88649139e-01  1.83060950e-06  6.26008087e-01  1.83060950e-06  1.80000000e+00  1.83060950e-06  1.36680881e-06  1.83060950e-06  5.00000000e-01                                 
 1.84819274e-06  8.34146508e-01  1.84819274e-06  7.80677275e-01  1.84819274e-06  6.11472922e-01  1.84819274e-06  1.80000000e+00  1.84819274e-06 -2.63958662e-07  1.84819274e-06  5.00000000e-01                                 
 1.88335923e-06  8.24841980e-01  1.88335923e-06  7.72280286e-01  1.88335923e-06  5.89897611e-01  1.88335923e-06  1.80000000e+00  1.88335923e-06  1.32066347e-08  1.88335923e-06  5.00000000e-01                                 
 1.94212225e-06  8.27987968e-01  1.94212225e-06  7.75163407e-01  1.94212225e-06  5.71019221e-01  1.94212225e-06  1.80000000e+00  1.94212225e-06  1.37135706e-07  1.94212225e-06  5.00000000e-01                                 
 2.00564580e-06  8.30928617e-01  2.00564580e-06  7.77761744e-01  2.00564580e-06  5.51375010e-01  2.00564580e-06  1.80000000e+00  2.00564580e-06  2.16706934e-08  2.00564580e-06  5.00000000e-01                                 
 2.09205199e-06  8.27173063e-01  2.09205199e-06  7.74439380e-01  2.09205199e-06  5.26230334e-01  2.09205199e-06  1.80000000e+00  2.09205199e-06  2.44078892e-08  2.09205199e-06  5.00000000e-01                                 
 2.24425581e-06  8.29342353e-01  2.24425581e-06  7.76338945e-01  2.24425581e-06  5.09837557e-01  2.24425581e-06  1.80000000e+00  2.24425581e-06  8.83846860e-08  2.24425581e-06  5.00000000e-01                                 
 2.40103492e-06  8.28643445e-01  2.40103492e-06  7.75762591e-01  2.40103492e-06  5.01373407e-01  2.40103492e-06  1.80000000e+00  2.40103492e-06  2.25680925e-09  2.40103492e-06  5.00000000e-01                                 
 2.62861996e-06  8.28273928e-01  2.62861996e-06  7.75380292e-01  2.62861996e-06  4.96145890e-01  2.62861996e-06  1.80000000e+00  2.62861996e-06  8.92300028e-08  2.62861996e-06  5.00000000e-01                                 
 2.68551622e-06  8.28903545e-01  2.68551622e-06  7.75969681e-01  2.68551622e-06  4.96345060e-01  2.68551622e-06  1.80000000e+00  2.68551622e-06  5.45547607e-08  2.68551622e-06  5.00000000e-01                                 
 2.79930874e-06  8.28608159e-01  2.79930874e-06  7.75706763e-01  2.79930874e-06  4.95343451e-01  2.79930874e-06  1.80000000e+00  2.79930874e-06  3.68517689e-08  2.79930874e-06  5.00000000e-01                                 
 3.02689377e-06  8.28607231e-01  3.02689377e-06  7.75703590e-01  3.02689377e-06  4.94917206e-01  3.02689377e-06  1.80000000e+00  3.02689377e-06  5.70492245e-08  3.02689377e-06  5.00000000e-01                                 
 3.08279404e-06  8.28707944e-01  3.08279404e-06  7.75795015e-01  3.08279404e-06  4.96159444e-01  3.08279404e-06  1.80000000e+00  3.08279404e-06  4.88388436e-08  3.08279404e-06  5.00000000e-01                                 
 3.19459458e-06  8.28641091e-01  3.19459458e-06  7.75735323e-01  3.19459458e-06  4.99656446e-01  3.19459458e-06  1.80000000e+00  3.19459458e-06  4.52600038e-08  3.19459458e-06  5.00000000e-01                                 
 3.41819566e-06  8.28643324e-01  3.41819566e-06  7.75736964e-01  3.41819566e-06  5.01919790e-01  3.41819566e-06  1.80000000e+00  3.41819566e-06  4.78982208e-08  3.41819566e-06  5.00000000e-01                                 
 3.76834538e-06  8.28670234e-01  3.76834538e-06  7.75761465e-01  3.76834538e-06  4.98887582e-01  3.76834538e-06  1.80000000e+00  3.76834538e-06  4.64781533e-08  3.76834538e-06  5.00000000e-01                                 
 4.18040258e-06  8.28626685e-01  4.18040258e-06  7.75722055e-01  4.18040258e-06  5.00482505e-01  4.18040258e-06  1.80000000e+00  4.18040258e-06  4.74770288e-08  4.18040258e-06  5.00000000e-01                                 
 4.93408474e-06  8.28680009e-01  4.93408474e-06  7.75770214e-01  4.93408474e-06  5.00157238e-01  4.93408474e-06  1.80000000e+00  4.93408474e-06  4.66308826e-08  4.93408474e-06  5.00000000e-01                                 
 5.93408474e-06  8.28621695e-01  5.93408474e-06  7.75717592e-01  5.93408474e-06  4.99892411e-01  5.93408474e-06  1.80000000e+00  5.93408474e-06  4.74013065e-08  5.93408474e-06  5.00000000e-01                                 
 6.93408474e-06  8.28683670e-01  6.93408474e-06  7.75773485e-01  6.93408474e-06  5.00483330e-01  6.93408474e-06  1.80000000e+00  6.93408474e-06  4.67110384e-08  6.93408474e-06  5.00000000e-01                                 
 7.93408474e-06  8.28618559e-01  7.93408474e-06  7.75714793e-01  7.93408474e-06  4.99722348e-01  7.93408474e-06  1.80000000e+00  7.93408474e-06  4.72998301e-08  7.93408474e-06  5.00000000e-01                                 
