 time            v(vbep)         time            v(vben)         time            v(vout)         time            v(vphi1)        time            v(vphi2)        time            v(vref)         yes             currtemp       
 0.00000000e+00  5.20616723e-01  0.00000000e+00  4.52762125e-01  0.00000000e+00  2.49494985e-01  0.00000000e+00  0.00000000e+00  0.00000000e+00  1.79998095e+00  0.00000000e+00  5.00000000e-01  1.00000000e+00  1.00000000e+02 
 5.00000000e-12  5.20601964e-01  5.00000000e-12  4.52749863e-01  5.00000000e-12  2.50130294e-01  5.00000000e-12  1.80000000e-02  5.00000000e-12  1.80007899e+00  5.00000000e-12  5.00000000e-01                                 
 1.00000000e-11  5.20587354e-01  1.00000000e-11  4.52737837e-01  1.00000000e-11  2.50700502e-01  1.00000000e-11  3.60000000e-02  1.00000000e-11  1.80012727e+00  1.00000000e-11  5.00000000e-01                                 
 2.00000000e-11  5.20558206e-01  2.00000000e-11  4.52713842e-01  2.00000000e-11  2.51739578e-01  2.00000000e-11  7.20000000e-02  2.00000000e-11  1.80016898e+00  2.00000000e-11  5.00000000e-01                                 
 4.00000000e-11  5.20500046e-01  4.00000000e-11  4.52665957e-01  4.00000000e-11  2.53362769e-01  4.00000000e-11  1.44000000e-01  4.00000000e-11  1.80013501e+00  4.00000000e-11  5.00000000e-01                                 
 8.00000000e-11  5.20384014e-01  8.00000000e-11  4.52570392e-01  8.00000000e-11  2.55522801e-01  8.00000000e-11  2.88000000e-01  8.00000000e-11  1.80007768e+00  8.00000000e-11  5.00000000e-01                                 
 1.60000000e-10  5.20153111e-01  1.60000000e-10  4.52380053e-01  1.60000000e-10  2.57992034e-01  1.60000000e-10  5.76000000e-01  1.60000000e-10  1.80003120e+00  1.60000000e-10  5.00000000e-01                                 
 3.20000000e-10  5.19695747e-01  3.20000000e-10  4.52002432e-01  3.20000000e-10  2.66173185e-01  3.20000000e-10  1.15200000e+00  3.20000000e-10  1.80037368e+00  3.20000000e-10  5.00000000e-01                                 
 5.00000000e-10  5.19188056e-01  5.00000000e-10  4.51582305e-01  5.00000000e-10  4.97599594e-01  5.00000000e-10  1.80000000e+00  5.00000000e-10  1.46435787e-01  5.00000000e-10  5.00000000e-01                                 
 5.23078600e-10  5.19123540e-01  5.23078600e-10  4.51528837e-01  5.23078600e-10  5.52178766e-01  5.23078600e-10  1.80000000e+00  5.23078600e-10  3.20520010e-02  5.23078600e-10  5.00000000e-01                                 
 5.69235800e-10  5.18994749e-01  5.69235800e-10  4.51422069e-01  5.69235800e-10  6.55244624e-01  5.69235800e-10  1.80000000e+00  5.69235800e-10 -1.43865295e-02  5.69235800e-10  5.00000000e-01                                 
 6.61550201e-10  5.18738605e-01  6.61550201e-10  4.51209533e-01  6.61550201e-10  8.25045616e-01  6.61550201e-10  1.80000000e+00  6.61550201e-10  1.15204770e-02  6.61550201e-10  5.00000000e-01                                 
 7.84922487e-10  5.18399176e-01  7.84922487e-10  4.50927502e-01  7.84922487e-10  9.97729482e-01  7.84922487e-10  1.80000000e+00  7.84922487e-10 -9.64007071e-03  7.84922487e-10  5.00000000e-01                                 
 9.84602126e-10  5.17856536e-01  9.84602126e-10  4.50475717e-01  9.84602126e-10  1.21155967e+00  9.84602126e-10  1.80000000e+00  9.84602126e-10  8.92769265e-03  9.84602126e-10  5.00000000e-01                                 
 1.29882399e-09  5.17018844e-01  1.29882399e-09  4.49776118e-01  1.29882399e-09  1.45282862e+00  1.29882399e-09  1.80000000e+00  1.29882399e-09 -8.23905885e-03  1.29882399e-09  5.00000000e-01                                 
 1.87732428e-09  5.15525594e-01  1.87732428e-09  4.48522662e-01  1.87732428e-09  1.67385093e+00  1.87732428e-09  1.80000000e+00  1.87732428e-09  8.12573131e-03  1.87732428e-09  5.00000000e-01                                 
 2.18933579e-09  5.14745466e-01  2.18933579e-09  4.47864538e-01  2.18933579e-09  1.70967769e+00  2.18933579e-09  1.80000000e+00  2.18933579e-09 -7.52562531e-03  2.18933579e-09  5.00000000e-01                                 
 2.53472398e-09  5.13901230e-01  2.53472398e-09  4.47149881e-01  2.53472398e-09  1.72897937e+00  2.53472398e-09  1.80000000e+00  2.53472398e-09  7.24160784e-03  2.53472398e-09  5.00000000e-01                                 
 2.92445192e-09  5.12971903e-01  2.92445192e-09  4.46360291e-01  2.92445192e-09  1.73748980e+00  2.92445192e-09  1.80000000e+00  2.92445192e-09 -6.80392396e-03  2.92445192e-09  5.00000000e-01                                 
 3.59093260e-09  5.11436247e-01  3.59093260e-09  4.45049062e-01  3.59093260e-09  1.74091216e+00  3.59093260e-09  1.80000000e+00  3.59093260e-09  6.70927331e-03  3.59093260e-09  5.00000000e-01                                 
 4.42572144e-09  5.09601077e-01  4.42572144e-09  4.43471716e-01  4.42572144e-09  1.74064748e+00  4.42572144e-09  1.80000000e+00  4.42572144e-09 -6.47393305e-03  4.42572144e-09  5.00000000e-01                                 
 5.71348157e-09  5.06939933e-01  5.71348157e-09  4.41165406e-01  5.71348157e-09  1.73778588e+00  5.71348157e-09  1.80000000e+00  5.71348157e-09  6.47112595e-03  5.71348157e-09  5.00000000e-01                                 
 8.21074225e-09  5.02268090e-01  8.21074225e-09  4.37066411e-01  8.21074225e-09  1.73273059e+00  8.21074225e-09  1.80000000e+00  8.21074225e-09 -6.33529805e-03  8.21074225e-09  5.00000000e-01                                 
 9.93918712e-09  4.99359987e-01  9.93918712e-09  4.34482641e-01  9.93918712e-09  1.72948044e+00  9.93918712e-09  1.80000000e+00  9.93918712e-09  6.34673032e-03  9.93918712e-09  5.00000000e-01                                 
 1.21490864e-08  4.95954298e-01  1.21490864e-08  4.31428708e-01  1.21490864e-08  1.72520092e+00  1.21490864e-08  1.80000000e+00  1.21490864e-08 -6.21963777e-03  1.21490864e-08  5.00000000e-01                                 
 1.43318257e-08  4.92886041e-01  1.43318257e-08  4.28652300e-01  1.43318257e-08  1.72098397e+00  1.43318257e-08  1.80000000e+00  1.43318257e-08  6.23779589e-03  1.43318257e-08  5.00000000e-01                                 
 1.72078132e-08  4.89218692e-01  1.72078132e-08  4.25304295e-01  1.72078132e-08  1.71545136e+00  1.72078132e-08  1.80000000e+00  1.72078132e-08 -6.12828014e-03  1.72078132e-08  5.00000000e-01                                 
 2.06694253e-08  4.85279394e-01  2.06694253e-08  4.21672902e-01  2.06694253e-08  1.70898607e+00  2.06694253e-08  1.80000000e+00  2.06694253e-08  6.16433585e-03  2.06694253e-08  5.00000000e-01                                 
 2.64229875e-08  4.79628651e-01  2.64229875e-08  4.16403118e-01  2.64229875e-08  1.69864104e+00  2.64229875e-08  1.80000000e+00  2.64229875e-08 -6.07585664e-03  2.64229875e-08  5.00000000e-01                                 
 3.55922403e-08  4.72285741e-01  3.55922403e-08  4.09454470e-01  3.55922403e-08  1.68308785e+00  3.55922403e-08  1.80000000e+00  3.55922403e-08  6.13239652e-03  3.55922403e-08  5.00000000e-01                                 
 5.39307459e-08  4.61175096e-01  5.39307459e-08  3.98771856e-01  5.39307459e-08  1.65409297e+00  5.39307459e-08  1.80000000e+00  5.39307459e-08 -6.05730856e-03  5.39307459e-08  5.00000000e-01                                 
 9.06077571e-08  4.43684515e-01  9.06077571e-08  3.82130652e-01  9.06077571e-08  1.59984448e+00  9.06077571e-08  1.80000000e+00  9.06077571e-08  6.12335217e-03  9.06077571e-08  5.00000000e-01                                 
 1.37169853e-07  4.24965969e-01  1.37169853e-07  3.64845789e-01  1.37169853e-07  1.53313698e+00  1.37169853e-07  1.80000000e+00  1.37169853e-07 -6.05176351e-03  1.37169853e-07  5.00000000e-01                                 
 1.93156901e-07  4.06542972e-01  1.93156901e-07  3.48145264e-01  1.93156901e-07  1.45562100e+00  1.93156901e-07  1.80000000e+00  1.93156901e-07  6.11904251e-03  1.93156901e-07  5.00000000e-01                                 
 2.73064352e-07  3.82263169e-01  2.73064352e-07  3.26807220e-01  2.73064352e-07  1.34573573e+00  2.73064352e-07  1.80000000e+00  2.73064352e-07 -6.04835694e-03  2.73064352e-07  5.00000000e-01                                 
 3.87691521e-07  3.44736464e-01  3.87691521e-07  2.95154565e-01  3.87691521e-07  1.18672226e+00  3.87691521e-07  1.80000000e+00  3.87691521e-07  6.11666037e-03  3.87691521e-07  5.00000000e-01                                 
 5.34810683e-07  5.45819249e-01  5.34810683e-07  4.74962427e-01  5.34810683e-07  1.22136023e+00  5.34810683e-07  1.80000000e+00  5.34810683e-07 -6.04445277e-03  5.34810683e-07  5.00000000e-01                                 
 6.67256993e-07  6.81165626e-01  6.67256993e-07  6.04121478e-01  6.67256993e-07  1.20896480e+00  6.67256993e-07  1.80000000e+00  6.67256993e-07  6.11498755e-03  6.67256993e-07  5.00000000e-01                                 
 7.90246261e-07  6.94400671e-01  7.90246261e-07  6.14905366e-01  7.90246261e-07  1.09658871e+00  7.90246261e-07  1.80000000e+00  7.90246261e-07 -6.04422043e-03  7.90246261e-07  5.00000000e-01                                 
 8.05633999e-07  6.88484170e-01  8.05633999e-07  6.10164374e-01  8.05633999e-07  1.07754436e+00  8.05633999e-07  1.80000000e+00  8.05633999e-07  1.76515195e-05  8.05633999e-07  5.00000000e-01                                 
 8.36409476e-07  6.71431287e-01  8.36409476e-07  5.96022268e-01  8.36409476e-07  1.03556933e+00  8.36409476e-07  1.80000000e+00  8.36409476e-07  2.09472276e-05  8.36409476e-07  5.00000000e-01                                 
 8.78774184e-07  6.59724104e-01  8.78774184e-07  5.85845795e-01  8.78774184e-07  9.92548248e-01  8.78774184e-07  1.80000000e+00  8.78774184e-07  1.80839480e-05  8.78774184e-07  5.00000000e-01                                 
 9.27414027e-07  6.75162173e-01  9.27414027e-07  5.99126272e-01  9.27414027e-07  9.71979943e-01  9.27414027e-07  1.80000000e+00  9.27414027e-07  2.19905024e-05  9.27414027e-07  5.00000000e-01                                 
 9.80892299e-07  6.82943889e-01  9.80892299e-07  6.05628837e-01  9.80892299e-07  9.42433235e-01  9.80892299e-07  1.80000000e+00  9.80892299e-07  1.78135754e-05  9.80892299e-07  5.00000000e-01                                 
 1.03952210e-06  6.72728717e-01  1.03952210e-06  5.97102552e-01  1.03952210e-06  8.95466706e-01  1.03952210e-06  1.80000000e+00  1.03952210e-06  2.14194632e-05  1.03952210e-06  5.00000000e-01                                 
 1.10947063e-06  6.70383973e-01  1.10947063e-06  5.95085076e-01  1.10947063e-06  8.49824810e-01  1.10947063e-06  1.80000000e+00  1.10947063e-06  1.80508620e-05  1.10947063e-06  5.00000000e-01                                 
 1.18855543e-06  6.79570087e-01  1.18855543e-06  6.02832997e-01  1.18855543e-06  8.09759901e-01  1.18855543e-06  1.80000000e+00  1.18855543e-06  2.16845091e-05  1.18855543e-06  5.00000000e-01                                 
 1.29732449e-06  6.72900101e-01  1.29732449e-06  5.97243729e-01  1.29732449e-06  7.39626207e-01  1.29732449e-06  1.80000000e+00  1.29732449e-06  1.77477968e-05  1.29732449e-06  5.00000000e-01                                 
 1.40799167e-06  6.73880188e-01  1.40799167e-06  5.98056126e-01  1.40799167e-06  6.78056640e-01  1.40799167e-06  1.80000000e+00  1.40799167e-06  2.17958728e-05  1.40799167e-06  5.00000000e-01                                 
 1.55912539e-06  6.77413215e-01  1.55912539e-06  6.01042143e-01  1.55912539e-06  5.99955276e-01  1.55912539e-06  1.80000000e+00  1.55912539e-06  1.77826552e-05  1.55912539e-06  5.00000000e-01                                 
 1.80481300e-06  6.72092366e-01  1.80481300e-06  5.96545219e-01  1.80481300e-06  5.09536446e-01  1.80481300e-06  1.80000000e+00  1.80481300e-06  2.17142416e-05  1.80481300e-06  5.00000000e-01                                 
 1.83412070e-06  6.74102097e-01  1.83412070e-06  5.98249186e-01  1.83412070e-06  5.06656054e-01  1.83412070e-06  1.80000000e+00  1.83412070e-06  1.98284945e-05  1.83412070e-06  5.00000000e-01                                 
 1.89273611e-06  6.76268915e-01  1.89273611e-06  6.00076982e-01  1.89273611e-06  4.99980889e-01  1.89273611e-06  1.80000000e+00  1.89273611e-06  1.97720764e-05  1.89273611e-06  5.00000000e-01                                 
 2.00996692e-06  6.74361395e-01  2.00996692e-06  5.98473428e-01  2.00996692e-06  4.89680500e-01  2.00996692e-06  1.80000000e+00  2.00996692e-06  1.97356562e-05  2.00996692e-06  5.00000000e-01                                 
 2.14769752e-06  6.74854575e-01  2.14769752e-06  5.98885357e-01  2.14769752e-06  5.00212707e-01  2.14769752e-06  1.80000000e+00  2.14769752e-06  1.98058588e-05  2.14769752e-06  5.00000000e-01                                 
 2.27598613e-06  6.75606095e-01  2.27598613e-06  5.99521948e-01  2.27598613e-06  5.03104318e-01  2.27598613e-06  1.80000000e+00  2.27598613e-06  1.97349736e-05  2.27598613e-06  5.00000000e-01                                 
 2.30647800e-06  6.74967497e-01  2.30647800e-06  5.98983762e-01  2.30647800e-06  5.00673276e-01  2.30647800e-06  1.80000000e+00  2.30647800e-06  1.97497835e-05  2.30647800e-06  5.00000000e-01                                 
 2.36746174e-06  6.74589219e-01  2.36746174e-06  5.98663386e-01  2.36746174e-06  4.99017007e-01  2.36746174e-06  1.80000000e+00  2.36746174e-06  1.97748971e-05  2.36746174e-06  5.00000000e-01                                 
 2.48942922e-06  6.75275595e-01  2.48942922e-06  5.99242098e-01  2.48942922e-06  5.00781345e-01  2.48942922e-06  1.80000000e+00  2.48942922e-06  1.97685247e-05  2.48942922e-06  5.00000000e-01                                 
 2.73336419e-06  6.74744416e-01  2.73336419e-06  5.98795046e-01  2.73336419e-06  4.99947784e-01  2.73336419e-06  1.80000000e+00  2.73336419e-06  1.97613686e-05  2.73336419e-06  5.00000000e-01                                 
 3.00642348e-06  6.75097058e-01  3.00642348e-06  5.99091416e-01  3.00642348e-06  5.00443763e-01  3.00642348e-06  1.80000000e+00  3.00642348e-06  1.97746125e-05  3.00642348e-06  5.00000000e-01                                 
 3.55254205e-06  6.74883552e-01  3.55254205e-06  5.98912500e-01  3.55254205e-06  5.00157766e-01  3.55254205e-06  1.80000000e+00  3.55254205e-06  1.97584180e-05  3.55254205e-06  5.00000000e-01                                 
 4.55254205e-06  6.75024904e-01  4.55254205e-06  5.99030581e-01  4.55254205e-06  5.00344169e-01  4.55254205e-06  1.80000000e+00  4.55254205e-06  1.97755448e-05  4.55254205e-06  5.00000000e-01                                 
 5.55254205e-06  6.74933656e-01  5.55254205e-06  5.98954749e-01  5.55254205e-06  5.00224428e-01  5.55254205e-06  1.80000000e+00  5.55254205e-06  1.97580110e-05  5.55254205e-06  5.00000000e-01                                 
 6.55254205e-06  6.74976179e-01  6.55254205e-06  5.98989515e-01  6.55254205e-06  5.00280253e-01  6.55254205e-06  1.80000000e+00  6.55254205e-06  1.97757788e-05  6.55254205e-06  5.00000000e-01                                 
 7.55254205e-06  6.74980808e-01  7.55254205e-06  5.98994485e-01  7.55254205e-06  5.00285439e-01  7.55254205e-06  1.80000000e+00  7.55254205e-06  1.97579447e-05  7.55254205e-06  5.00000000e-01                                 
 8.55254205e-06  6.74930994e-01  8.55254205e-06  5.98951444e-01  8.55254205e-06  5.00222273e-01  8.55254205e-06  1.80000000e+00  8.55254205e-06  1.97756839e-05  8.55254205e-06  5.00000000e-01                                 
 9.55254205e-06  6.75023715e-01  9.55254205e-06  5.99030622e-01  9.55254205e-06  5.00340161e-01  9.55254205e-06  1.80000000e+00  9.55254205e-06  1.97581932e-05  9.55254205e-06  5.00000000e-01                                 
 1.00005000e-05  6.74868468e-01  1.00005000e-05  5.98898790e-01  1.00005000e-05  5.00142932e-01  1.00005000e-05  1.80000000e+00  1.00005000e-05  1.97749190e-05  1.00005000e-05  5.00000000e-01                                 
 1.00005500e-05  6.74868952e-01  1.00005500e-05  5.98899201e-01  1.00005500e-05  4.92922275e-01  1.00005500e-05  1.62000000e+00  1.00005500e-05 -6.86329468e-05  1.00005500e-05  5.00000000e-01                                 
 1.00006500e-05  6.74869937e-01  1.00006500e-05  5.98900029e-01  1.00006500e-05  4.79461130e-01  1.00006500e-05  1.26000000e+00  1.00006500e-05 -5.75669796e-05  1.00006500e-05  5.00000000e-01                                 
 1.00008500e-05  6.74871950e-01  1.00008500e-05  5.98901719e-01  1.00008500e-05  4.80640121e-01  1.00008500e-05  5.40000000e-01  1.00008500e-05  3.33165243e-01  1.00008500e-05  5.00000000e-01                                 
 1.00010000e-05  6.74873387e-01  1.00010000e-05  5.98902948e-01  1.00010000e-05  4.44912972e-01  1.00010000e-05  0.00000000e+00  1.00010000e-05  1.66851884e+00  1.00010000e-05  5.00000000e-01                                 
 1.00010246e-05  6.74873614e-01  1.00010246e-05  5.98903142e-01  1.00010246e-05  4.27823834e-01  1.00010246e-05  0.00000000e+00  1.00010246e-05  1.75594818e+00  1.00010246e-05  5.00000000e-01                                 
 1.00010738e-05  6.74874097e-01  1.00010738e-05  5.98903542e-01  1.00010738e-05  3.98543886e-01  1.00010738e-05  0.00000000e+00  1.00010738e-05  1.81281639e+00  1.00010738e-05  5.00000000e-01                                 
 1.00011722e-05  6.74875139e-01  1.00011722e-05  5.98904398e-01  1.00011722e-05  3.69667334e-01  1.00011722e-05  0.00000000e+00  1.00011722e-05  1.79077875e+00  1.00011722e-05  5.00000000e-01                                 
 1.00013561e-05  6.74877069e-01  1.00013561e-05  5.98906025e-01  1.00013561e-05  3.61726787e-01  1.00013561e-05  0.00000000e+00  1.00013561e-05  1.80677514e+00  1.00013561e-05  5.00000000e-01                                 
 1.00015889e-05  6.74879399e-01  1.00015889e-05  5.98908002e-01  1.00015889e-05  3.62709136e-01  1.00015889e-05  0.00000000e+00  1.00015889e-05  1.79434803e+00  1.00015889e-05  5.00000000e-01                                 
 1.00018690e-05  6.74882066e-01  1.00018690e-05  5.98910264e-01  1.00018690e-05  3.62630704e-01  1.00018690e-05  0.00000000e+00  1.00018690e-05  1.80476982e+00  1.00018690e-05  5.00000000e-01                                 
 1.00023005e-05  6.74886066e-01  1.00023005e-05  5.98913647e-01  1.00023005e-05  3.62560916e-01  1.00023005e-05  0.00000000e+00  1.00023005e-05  1.79569117e+00  1.00023005e-05  5.00000000e-01                                 
 1.00029762e-05  6.74892377e-01  1.00029762e-05  5.98918967e-01  1.00029762e-05  3.62784488e-01  1.00029762e-05  0.00000000e+00  1.00029762e-05  1.80401747e+00  1.00029762e-05  5.00000000e-01                                 
 1.00043274e-05  6.74905466e-01  1.00043274e-05  5.98929984e-01  1.00043274e-05  3.63298623e-01  1.00043274e-05  0.00000000e+00  1.00043274e-05  1.79610291e+00  1.00043274e-05  5.00000000e-01                                 
 1.00070300e-05  6.74931329e-01  1.00070300e-05  5.98951796e-01  1.00070300e-05  3.65205398e-01  1.00070300e-05  0.00000000e+00  1.00070300e-05  1.80382122e+00  1.00070300e-05  5.00000000e-01                                 
 1.00124351e-05  6.74976230e-01  1.00124351e-05  5.98989728e-01  1.00124351e-05  3.69775815e-01  1.00124351e-05  0.00000000e+00  1.00124351e-05  1.79619935e+00  1.00124351e-05  5.00000000e-01                                 
 1.00232453e-05  6.75049039e-01  1.00232453e-05  5.99051144e-01  1.00232453e-05  3.88597560e-01  1.00232453e-05  0.00000000e+00  1.00232453e-05  1.80377381e+00  1.00232453e-05  5.00000000e-01                                 
 1.00448657e-05  6.75129787e-01  1.00448657e-05  5.99119382e-01  1.00448657e-05  4.76457929e-01  1.00448657e-05  0.00000000e+00  1.00448657e-05  1.79622309e+00  1.00448657e-05  5.00000000e-01                                 
 1.00732538e-05  6.75066839e-01  1.00732538e-05  5.99066714e-01  1.00732538e-05  6.04001568e-01  1.00732538e-05  0.00000000e+00  1.00732538e-05  1.80375992e+00  1.00732538e-05  5.00000000e-01                                 
