 time            v(vbep)         time            v(vben)         time            v(vout)         time            v(vphi1)        time            v(vphi2)        time            v(vref)         time            v(voutc)        time            v(voutcc)       yes             currtemp       
 0.00000000e+00  7.69125447e-01  0.00000000e+00  7.10176921e-01  0.00000000e+00  1.59491189e+00  0.00000000e+00  0.00000000e+00  0.00000000e+00  1.80000000e+00  0.00000000e+00  7.12542147e-01  0.00000000e+00  1.59491188e+00  0.00000000e+00  1.60135340e+00  1.00000000e+00  3.00000000e+01 
 1.00000000e-11  7.69150370e-01  1.00000000e-11  7.10248092e-01  1.00000000e-11  1.59569793e+00  1.00000000e-11  1.80000000e-02  1.00000000e-11  1.80025051e+00  1.00000000e-11  7.13072188e-01  1.00000000e-11  1.59538113e+00  1.00000000e-11  1.60136731e+00                                 
 2.00000000e-11  7.69157188e-01  2.00000000e-11  7.10292804e-01  2.00000000e-11  1.59618683e+00  2.00000000e-11  3.60000000e-02  2.00000000e-11  1.80035054e+00  2.00000000e-11  7.13466497e-01  2.00000000e-11  1.59573780e+00  2.00000000e-11  1.60137266e+00                                 
 4.00000000e-11  7.69157080e-01  4.00000000e-11  7.10351784e-01  4.00000000e-11  1.59678339e+00  4.00000000e-11  7.20000000e-02  4.00000000e-11  1.80038986e+00  4.00000000e-11  7.14043538e-01  4.00000000e-11  1.59627166e+00  4.00000000e-11  1.60137465e+00                                 
 8.00000000e-11  7.69145140e-01  8.00000000e-11  7.10389736e-01  8.00000000e-11  1.59692683e+00  8.00000000e-11  1.44000000e-01  8.00000000e-11  1.80018722e+00  8.00000000e-11  7.14489796e-01  8.00000000e-11  1.59671381e+00  8.00000000e-11  1.60136402e+00                                 
 1.60000000e-10  7.69142153e-01  1.60000000e-10  7.10400087e-01  1.60000000e-10  1.59659910e+00  1.60000000e-10  2.88000000e-01  1.60000000e-10  1.80000421e+00  1.60000000e-10  7.14554531e-01  1.60000000e-10  1.59677597e+00  1.60000000e-10  1.60135414e+00                                 
 3.20000000e-10  7.69138520e-01  3.20000000e-10  7.10401094e-01  3.20000000e-10  1.59624092e+00  3.20000000e-10  5.76000000e-01  3.20000000e-10  1.79999461e+00  3.20000000e-10  7.14431617e-01  3.20000000e-10  1.59651096e+00  3.20000000e-10  1.60135041e+00                                 
 6.40000000e-10  7.69057064e-01  6.40000000e-10  7.10051891e-01  6.40000000e-10  1.59357924e+00  6.40000000e-10  1.15200000e+00  6.40000000e-10  1.81209531e+00  6.40000000e-10  7.12542266e-01  6.40000000e-10  1.60143456e+00  6.40000000e-10  1.60137951e+00                                 
 1.00000000e-09  7.69689412e-01  1.00000000e-09  7.10258454e-01  1.00000000e-09  1.56733388e+00  1.00000000e-09  1.80000000e+00  1.00000000e-09  8.94758504e-02  1.00000000e-09  7.21831498e-01  1.00000000e-09  1.59953986e+00  1.00000000e-09  1.60132694e+00                                 
 1.03627692e-09  7.69706909e-01  1.03627692e-09  7.10300035e-01  1.03627692e-09  1.56665060e+00  1.03627692e-09  1.80000000e+00  1.03627692e-09  1.96779097e-02  1.03627692e-09  7.24637139e-01  1.03627692e-09  1.60105602e+00  1.03627692e-09  1.60136937e+00                                 
 1.10883075e-09  7.69782591e-01  1.10883075e-09  7.10373438e-01  1.10883075e-09  1.56645608e+00  1.10883075e-09  1.80000000e+00  1.10883075e-09 -9.44867291e-03  1.10883075e-09  7.28278064e-01  1.10883075e-09  1.60389082e+00  1.10883075e-09  1.60139993e+00                                 
 1.25393842e-09  7.69904570e-01  1.25393842e-09  7.10246882e-01  1.25393842e-09  1.56465065e+00  1.25393842e-09  1.80000000e+00  1.25393842e-09  8.09389381e-03  1.25393842e-09  7.28548611e-01  1.25393842e-09  1.60436184e+00  1.25393842e-09  1.60135414e+00                                 
 1.47826386e-09  7.69911535e-01  1.47826386e-09  7.10220416e-01  1.47826386e-09  1.56331056e+00  1.47826386e-09  1.80000000e+00  1.47826386e-09 -6.35923676e-03  1.47826386e-09  7.28193832e-01  1.47826386e-09  1.60385683e+00  1.47826386e-09  1.60138623e+00                                 
 1.71597887e-09  7.69820810e-01  1.71597887e-09  7.10215011e-01  1.71597887e-09  1.56321058e+00  1.71597887e-09  1.80000000e+00  1.71597887e-09  5.53769672e-03  1.71597887e-09  7.27008740e-01  1.71597887e-09  1.60302459e+00  1.71597887e-09  1.60138562e+00                                 
 2.07025309e-09  7.69583403e-01  2.07025309e-09  7.10173846e-01  2.07025309e-09  1.56363729e+00  2.07025309e-09  1.80000000e+00  2.07025309e-09 -5.00555816e-03  2.07025309e-09  7.25279534e-01  2.07025309e-09  1.60139463e+00  2.07025309e-09  1.60144956e+00                                 
 2.44180164e-09  7.69391334e-01  2.44180164e-09  7.10180530e-01  2.44180164e-09  1.56443761e+00  2.44180164e-09  1.80000000e+00  2.44180164e-09  4.45055816e-03  2.44180164e-09  7.23763816e-01  2.44180164e-09  1.60024437e+00  2.44180164e-09  1.60149825e+00                                 
 3.07111712e-09  7.69169795e-01  3.07111712e-09  7.10140421e-01  3.07111712e-09  1.56463166e+00  3.07111712e-09  1.80000000e+00  3.07111712e-09 -4.27845076e-03  3.07111712e-09  7.21065765e-01  3.07111712e-09  1.59781138e+00  3.07111712e-09  1.60160761e+00                                 
 4.05644152e-09  7.69049536e-01  4.05644152e-09  7.10158946e-01  4.05644152e-09  1.56450007e+00  4.05644152e-09  1.80000000e+00  4.05644152e-09  4.03847891e-03  4.05644152e-09  7.18042910e-01  4.05644152e-09  1.59536068e+00  4.05644152e-09  1.60172534e+00                                 
 6.02709033e-09  7.68984235e-01  6.02709033e-09  7.10142574e-01  6.02709033e-09  1.56211649e+00  6.02709033e-09  1.80000000e+00  6.02709033e-09 -4.02872723e-03  6.02709033e-09  7.13753732e-01  6.02709033e-09  1.59158578e+00  6.02709033e-09  1.60181129e+00                                 
 7.79614564e-09  7.68971762e-01  7.79614564e-09  7.10179456e-01  7.79614564e-09  1.56062271e+00  7.79614564e-09  1.80000000e+00  7.79614564e-09  3.91333485e-03  7.79614564e-09  7.12185575e-01  7.79614564e-09  1.59037363e+00  7.79614564e-09  1.60170615e+00                                 
 9.33416019e-09  7.68981632e-01  9.33416019e-09  7.10158128e-01  9.33416019e-09  1.55796693e+00  9.33416019e-09  1.80000000e+00  9.33416019e-09 -3.83687898e-03  9.33416019e-09  7.11240825e-01  9.33416019e-09  1.58945007e+00  9.33416019e-09  1.60153992e+00                                 
 1.10576575e-08  7.69018376e-01  1.10576575e-08  7.10186987e-01  1.10576575e-08  1.55436917e+00  1.10576575e-08  1.80000000e+00  1.10576575e-08  3.74969138e-03  1.10576575e-08  7.11084508e-01  1.10576575e-08  1.58942912e+00  1.10576575e-08  1.60130027e+00                                 
 1.33202562e-08  7.69056282e-01  1.33202562e-08  7.10162317e-01  1.33202562e-08  1.54729370e+00  1.33202562e-08  1.80000000e+00  1.33202562e-08 -3.69202833e-03  1.33202562e-08  7.10752139e-01  1.33202562e-08  1.58902240e+00  1.33202562e-08  1.60097336e+00                                 
 1.61915510e-08  7.69100568e-01  1.61915510e-08  7.10189431e-01  1.61915510e-08  1.53714017e+00  1.61915510e-08  1.80000000e+00  1.61915510e-08  3.64707039e-03  1.61915510e-08  7.11069344e-01  1.61915510e-08  1.58938989e+00  1.61915510e-08  1.60056058e+00                                 
 1.99456522e-08  7.69122154e-01  1.99456522e-08  7.10163874e-01  1.99456522e-08  1.52165766e+00  1.99456522e-08  1.80000000e+00  1.99456522e-08 -3.60930577e-03  1.99456522e-08  7.11090212e-01  1.99456522e-08  1.58927571e+00  1.99456522e-08  1.60007912e+00                                 
 2.51054246e-08  7.69137067e-01  2.51054246e-08  7.10190369e-01  2.51054246e-08  1.49988976e+00  2.51054246e-08  1.80000000e+00  2.51054246e-08  3.58757246e-03  2.51054246e-08  7.11627965e-01  2.51054246e-08  1.58982060e+00  2.51054246e-08  1.59951449e+00                                 
 3.31503349e-08  7.69131613e-01  3.31503349e-08  7.10164115e-01  3.31503349e-08  1.46454452e+00  3.31503349e-08  1.80000000e+00  3.31503349e-08 -3.56806846e-03  3.31503349e-08  7.11771916e-01  3.31503349e-08  1.58980674e+00  3.31503349e-08  1.59884215e+00                                 
 4.62166880e-08  7.69132004e-01  4.62166880e-08  7.10190120e-01  4.62166880e-08  1.40748284e+00  4.62166880e-08  1.80000000e+00  4.62166880e-08  3.56151977e-03  4.62166880e-08  7.12337647e-01  4.62166880e-08  1.59037417e+00  4.62166880e-08  1.59810986e+00                                 
 7.23493943e-08  7.69124208e-01  7.23493943e-08  7.10163826e-01  7.23493943e-08  1.29265737e+00  7.23493943e-08  1.80000000e+00  7.23493943e-08 -3.55339586e-03  7.23493943e-08  7.12376598e-01  7.23493943e-08  1.59027867e+00  7.23493943e-08  1.59738090e+00                                 
 1.13898565e-07  7.69127728e-01  1.13898565e-07  7.10190011e-01  1.13898565e-07  1.11223812e+00  1.13898565e-07  1.80000000e+00  1.13898565e-07  3.55372606e-03  1.13898565e-07  7.12656198e-01  1.13898565e-07  1.59061895e+00  1.13898565e-07  1.59701785e+00                                 
 1.69575924e-07  7.69123012e-01  1.69575924e-07  7.10163802e-01  1.69575924e-07  8.79179668e-01  1.69575924e-07  1.80000000e+00  1.69575924e-07 -3.54706656e-03  1.69575924e-07  7.12428817e-01  1.69575924e-07  1.59031172e+00  1.69575924e-07  1.59692723e+00                                 
 2.29613405e-07  7.69128723e-01  2.29613405e-07  7.10190054e-01  2.29613405e-07  7.30061078e-01  2.29613405e-07  1.80000000e+00  2.29613405e-07  3.55351488e-03  2.29613405e-07  7.12653845e-01  2.29613405e-07  1.59060993e+00  2.29613405e-07  1.59690935e+00                                 
 2.76613440e-07  7.69121758e-01  2.76613440e-07  7.10163839e-01  2.76613440e-07  7.12849124e-01  2.76613440e-07  1.80000000e+00  2.76613440e-07 -3.53921808e-03  2.76613440e-07  7.12434445e-01  2.76613440e-07  1.59031200e+00  2.76613440e-07  1.59691073e+00                                 
 3.09342683e-07  7.69128212e-01  3.09342683e-07  7.10189860e-01  3.09342683e-07  7.15161642e-01  3.09342683e-07  1.80000000e+00  3.09342683e-07  3.54757689e-03  3.09342683e-07  7.12651066e-01  3.09342683e-07  1.59060455e+00  3.09342683e-07  1.59690674e+00                                 
 3.46782691e-07  7.69122905e-01  3.46782691e-07  7.10164025e-01  3.46782691e-07  7.14716617e-01  3.46782691e-07  1.80000000e+00  3.46782691e-07 -3.53224294e-03  3.46782691e-07  7.12432600e-01  3.46782691e-07  1.59030791e+00  3.46782691e-07  1.59690673e+00                                 
 3.89907418e-07  7.69127889e-01  3.89907418e-07  7.10189785e-01  3.89907418e-07  7.15162573e-01  3.89907418e-07  1.80000000e+00  3.89907418e-07  3.54142445e-03  3.89907418e-07  7.12651951e-01  3.89907418e-07  1.59060221e+00  3.89907418e-07  1.59690292e+00                                 
 4.70949556e-07  7.69123041e-01  4.70949556e-07  7.10164055e-01  4.70949556e-07  7.14750272e-01  4.70949556e-07  1.80000000e+00  4.70949556e-07 -3.52788129e-03  4.70949556e-07  7.12432175e-01  4.70949556e-07  1.59030305e+00  4.70949556e-07  1.59690198e+00                                 
 6.16497624e-07  7.69127839e-01  6.16497624e-07  7.10189776e-01  6.16497624e-07  7.15147209e-01  6.16497624e-07  1.80000000e+00  6.16497624e-07  3.53905995e-03  6.16497624e-07  7.12652143e-01  6.16497624e-07  1.59059400e+00  6.16497624e-07  1.59689453e+00                                 
 8.62035550e-07  7.69123063e-01  8.62035550e-07  7.10164058e-01  8.62035550e-07  7.14758283e-01  8.62035550e-07  1.80000000e+00  8.62035550e-07 -3.52655143e-03  8.62035550e-07  7.12432075e-01  8.62035550e-07  1.59028859e+00  8.62035550e-07  1.59688762e+00                                 
 1.35311140e-06  7.69127829e-01  1.35311140e-06  7.10189774e-01  1.35311140e-06  7.15142950e-01  1.35311140e-06  1.80000000e+00  1.35311140e-06  3.53830817e-03  1.35311140e-06  7.12652197e-01  1.35311140e-06  1.59056695e+00  1.35311140e-06  1.59686747e+00                                 
 2.26962499e-06  7.69123067e-01  2.26962499e-06  7.10164059e-01  2.26962499e-06  7.14760403e-01  2.26962499e-06  1.80000000e+00  2.26962499e-06 -3.52616369e-03  2.26962499e-06  7.12432048e-01  2.26962499e-06  1.59023679e+00  2.26962499e-06  1.59683591e+00                                 
 3.46962499e-06  7.69127826e-01  3.46962499e-06  7.10189774e-01  3.46962499e-06  7.15141666e-01  3.46962499e-06  1.80000000e+00  3.46962499e-06  3.53807302e-03  3.46962499e-06  7.12652213e-01  3.46962499e-06  1.59048899e+00  3.46962499e-06  1.59678963e+00                                 
 4.66962499e-06  7.69123070e-01  4.66962499e-06  7.10164059e-01  4.66962499e-06  7.14761505e-01  4.66962499e-06  1.80000000e+00  4.66962499e-06 -3.52597990e-03  4.66962499e-06  7.12432035e-01  4.66962499e-06  1.59014833e+00  4.66962499e-06  1.59674759e+00                                 
 5.86962499e-06  7.69127823e-01  5.86962499e-06  7.10189773e-01  5.86962499e-06  7.15140574e-01  5.86962499e-06  1.80000000e+00  5.86962499e-06  3.53786839e-03  5.86962499e-06  7.12652226e-01  5.86962499e-06  1.59040061e+00  5.86962499e-06  1.59670137e+00                                 
 6.00100000e-06  7.69123081e-01  6.00100000e-06  7.10164061e-01  6.00100000e-06  7.14766793e-01  6.00100000e-06  1.80000000e+00  6.00100000e-06 -3.52495431e-03  6.00100000e-06  7.12431969e-01  6.00100000e-06  1.59009930e+00  6.00100000e-06  1.59669867e+00                                 
 6.00110000e-06  7.69082662e-01  6.00110000e-06  7.09935596e-01  6.00110000e-06  7.13012006e-01  6.00110000e-06  1.62000000e+00  6.00110000e-06 -3.77064692e-04  6.00110000e-06  7.10899252e-01  6.00110000e-06  1.58884280e+00  6.00110000e-06  1.59668714e+00                                 
 6.00130000e-06  7.69115573e-01  6.00130000e-06  7.09947495e-01  6.00130000e-06  7.13374370e-01  6.00130000e-06  1.26000000e+00  6.00130000e-06  2.56158869e-04  6.00130000e-06  7.10859677e-01  6.00130000e-06  1.58881894e+00  6.00130000e-06  1.59670268e+00                                 
 6.00170000e-06  7.69168999e-01  6.00170000e-06  7.09533017e-01  6.00170000e-06  7.30478094e-01  6.00170000e-06  5.40000000e-01  6.00170000e-06  1.50193190e+00  6.00170000e-06  7.04557888e-01  6.00170000e-06  1.50946308e+00  6.00170000e-06  1.59639681e+00                                 
 6.00200000e-06  7.69110363e-01  6.00200000e-06  7.07198050e-01  6.00200000e-06  7.59943274e-01  6.00200000e-06  0.00000000e+00  6.00200000e-06  1.86988497e+00  6.00200000e-06  6.79852543e-01  6.00200000e-06  1.18238734e+00  6.00200000e-06  1.59623944e+00                                 
 6.00203685e-06  7.69122535e-01  6.00203685e-06  7.07248470e-01  6.00203685e-06  7.54748012e-01  6.00203685e-06  0.00000000e+00  6.00203685e-06  1.82696392e+00  6.00203685e-06  6.80700627e-01  6.00203685e-06  1.13816066e+00  6.00203685e-06  1.59659678e+00                                 
 6.00211056e-06  7.69128068e-01  6.00211056e-06  7.07475742e-01  6.00211056e-06  7.46989720e-01  6.00211056e-06  0.00000000e+00  6.00211056e-06  1.79251658e+00  6.00211056e-06  6.83891820e-01  6.00211056e-06  1.06360083e+00  6.00211056e-06  1.59690517e+00                                 
 6.00225797e-06  7.69123917e-01  6.00225797e-06  7.07782720e-01  6.00225797e-06  7.43033796e-01  6.00225797e-06  0.00000000e+00  6.00225797e-06  1.80224093e+00  6.00225797e-06  6.87749743e-01  6.00225797e-06  9.48445415e-01  6.00225797e-06  1.59684333e+00                                 
 6.00246381e-06  7.69125383e-01  6.00246381e-06  7.08298322e-01  6.00246381e-06  7.35896636e-01  6.00246381e-06  0.00000000e+00  6.00246381e-06  1.79750421e+00  6.00246381e-06  6.92735823e-01  6.00246381e-06  8.29500655e-01  6.00246381e-06  1.59697815e+00                                 
 6.00268130e-06  7.69123719e-01  6.00268130e-06  7.09220103e-01  6.00268130e-06  7.26011844e-01  6.00268130e-06  0.00000000e+00  6.00268130e-06  1.80081290e+00  6.00268130e-06  7.01663056e-01  6.00268130e-06  7.61936504e-01  6.00268130e-06  1.59695380e+00                                 
 6.00294510e-06  7.69124996e-01  6.00294510e-06  7.09986411e-01  6.00294510e-06  7.19385523e-01  6.00294510e-06  0.00000000e+00  6.00294510e-06  1.79933771e+00  6.00294510e-06  7.07952637e-01  6.00294510e-06  7.28878677e-01  6.00294510e-06  1.59684261e+00                                 
 6.00322630e-06  7.69124214e-01  6.00322630e-06  7.10471984e-01  6.00322630e-06  7.16250997e-01  6.00322630e-06  0.00000000e+00  6.00322630e-06  1.80046960e+00  6.00322630e-06  7.11578008e-01  6.00322630e-06  7.19457800e-01  6.00322630e-06  1.59636103e+00                                 
 6.00353943e-06  7.69125298e-01  6.00353943e-06  7.10650343e-01  6.00353943e-06  7.16003490e-01  6.00353943e-06  0.00000000e+00  6.00353943e-06  1.79972951e+00  6.00353943e-06  7.12596627e-01  6.00353943e-06  7.16333075e-01  6.00353943e-06  1.59562566e+00                                 
 6.00395587e-06  7.69124764e-01  6.00395587e-06  7.10730568e-01  6.00395587e-06  7.15951323e-01  6.00395587e-06  0.00000000e+00  6.00395587e-06  1.80021497e+00  6.00395587e-06  7.13409197e-01  6.00395587e-06  7.16172301e-01  6.00395587e-06  1.59435590e+00                                 
 6.00466220e-06  7.69125680e-01  6.00466220e-06  7.10675048e-01  6.00466220e-06  7.17601162e-01  6.00466220e-06  0.00000000e+00  6.00466220e-06  1.79984952e+00  6.00466220e-06  7.13508820e-01  6.00466220e-06  7.17070362e-01  6.00466220e-06  1.59196425e+00                                 
 6.00586291e-06  7.69125098e-01  6.00586291e-06  7.10581140e-01  6.00586291e-06  7.19883215e-01  6.00586291e-06  0.00000000e+00  6.00586291e-06  1.80014984e+00  6.00586291e-06  7.13834050e-01  6.00586291e-06  7.19843377e-01  6.00586291e-06  1.58748105e+00                                 
 6.00826434e-06  7.69125775e-01  6.00826434e-06  7.10398658e-01  6.00826434e-06  7.25875361e-01  6.00826434e-06  0.00000000e+00  6.00826434e-06  1.79988078e+00  6.00826434e-06  7.13692054e-01  6.00826434e-06  7.25260597e-01  6.00826434e-06  1.57813899e+00                                 
 6.01306719e-06  7.69125109e-01  6.01306719e-06  7.10216586e-01  6.01306719e-06  7.37057305e-01  6.01306719e-06  0.00000000e+00  6.01306719e-06  1.80013417e+00  6.01306719e-06  7.13623036e-01  6.01306719e-06  7.36963200e-01  6.01306719e-06  1.55928230e+00                                 
 6.02267290e-06  7.69125775e-01  6.02267290e-06  7.10138641e-01  6.02267290e-06  7.59754909e-01  6.02267290e-06  0.00000000e+00  6.02267290e-06  1.79988743e+00  6.02267290e-06  7.13066021e-01  6.02267290e-06  7.59054497e-01  6.02267290e-06  1.52290183e+00                                 
 6.04188431e-06  7.69125115e-01  6.04188431e-06  7.10184652e-01  6.04188431e-06  8.01173359e-01  6.04188431e-06  0.00000000e+00  6.04188431e-06  1.80012942e+00  6.04188431e-06  7.12799342e-01  6.04188431e-06  8.01097447e-01  6.04188431e-06  1.45526573e+00                                 
 6.08030714e-06  7.69125778e-01  6.08030714e-06  7.10165354e-01  6.08030714e-06  8.74283389e-01  6.08030714e-06  0.00000000e+00  6.08030714e-06  1.79988656e+00  6.08030714e-06  7.12449911e-01  6.08030714e-06  8.72903284e-01  6.08030714e-06  1.33565348e+00                                 
 6.15715280e-06  7.69125117e-01  6.15715280e-06  7.10187998e-01  6.15715280e-06  9.84257113e-01  6.15715280e-06  0.00000000e+00  6.15715280e-06  1.80012405e+00  6.15715280e-06  7.12613316e-01  6.15715280e-06  9.84657984e-01  6.15715280e-06  1.13296513e+00                                 
 6.25654393e-06  7.69125778e-01  6.25654393e-06  7.10166259e-01  6.25654393e-06  1.07607536e+00  6.25654393e-06  0.00000000e+00  6.25654393e-06  1.79988204e+00  6.25654393e-06  7.12457549e-01  6.25654393e-06  1.07415193e+00  6.25654393e-06  1.05169768e+00                                 
 6.34954920e-06  7.69125118e-01  6.34954920e-06  7.10187230e-01  6.34954920e-06  1.12699819e+00  6.34954920e-06  0.00000000e+00  6.34954920e-06  1.80012080e+00  6.34954920e-06  7.12619819e-01  6.34954920e-06  1.12778949e+00  6.34954920e-06  1.11539002e+00                                 
