 time            v(vbep)         time            v(vben)         time            v(vout)         time            v(vphi1)        time            v(vphi2)        time            v(vref)         yes             currtemp       
 0.00000000e+00  5.44263343e-01  0.00000000e+00  4.77795679e-01  0.00000000e+00  1.82846248e-01  0.00000000e+00  0.00000000e+00  0.00000000e+00  1.79997594e+00  0.00000000e+00  5.00000000e-01  1.00000000e+00  9.20000000e+01 
 5.00000000e-12  5.44245229e-01  5.00000000e-12  4.77780636e-01  5.00000000e-12  1.83451919e-01  5.00000000e-12  1.80000000e-02  5.00000000e-12  1.80007211e+00  5.00000000e-12  5.00000000e-01                                 
 1.00000000e-11  5.44227351e-01  1.00000000e-11  4.77765903e-01  1.00000000e-11  1.83995942e-01  1.00000000e-11  3.60000000e-02  1.00000000e-11  1.80011998e+00  1.00000000e-11  5.00000000e-01                                 
 2.00000000e-11  5.44191712e-01  2.00000000e-11  4.77736517e-01  2.00000000e-11  1.84989362e-01  2.00000000e-11  7.20000000e-02  2.00000000e-11  1.80016216e+00  2.00000000e-11  5.00000000e-01                                 
 4.00000000e-11  5.44120653e-01  4.00000000e-11  4.77677894e-01  4.00000000e-11  1.86548605e-01  4.00000000e-11  1.44000000e-01  4.00000000e-11  1.80013125e+00  4.00000000e-11  5.00000000e-01                                 
 8.00000000e-11  5.43978951e-01  8.00000000e-11  4.77560945e-01  8.00000000e-11  1.88648447e-01  8.00000000e-11  2.88000000e-01  8.00000000e-11  1.80007696e+00  8.00000000e-11  5.00000000e-01                                 
 1.60000000e-10  5.43697270e-01  1.60000000e-10  4.77328228e-01  1.60000000e-10  1.91151734e-01  1.60000000e-10  5.76000000e-01  1.60000000e-10  1.80003199e+00  1.60000000e-10  5.00000000e-01                                 
 3.20000000e-10  5.43140521e-01  3.20000000e-10  4.76867376e-01  3.20000000e-10  2.09882323e-01  3.20000000e-10  1.15200000e+00  3.20000000e-10  1.80030422e+00  3.20000000e-10  5.00000000e-01                                 
 5.00000000e-10  5.42524410e-01  5.00000000e-10  4.76356004e-01  5.00000000e-10  4.76647511e-01  5.00000000e-10  1.80000000e+00  5.00000000e-10  1.42642435e-01  5.00000000e-10  5.00000000e-01                                 
 5.22907136e-10  5.42446855e-01  5.22907136e-10  4.76291521e-01  5.22907136e-10  5.35895355e-01  5.22907136e-10  1.80000000e+00  5.22907136e-10  3.07993429e-02  5.22907136e-10  5.00000000e-01                                 
 5.68721407e-10  5.42292087e-01  5.68721407e-10  4.76162790e-01  5.68721407e-10  6.46574322e-01  5.68721407e-10  1.80000000e+00  5.68721407e-10 -1.39097188e-02  5.68721407e-10  5.00000000e-01                                 
 6.60349950e-10  5.41984599e-01  6.60349950e-10  4.75906765e-01  6.60349950e-10  8.25245622e-01  6.60349950e-10  1.80000000e+00  6.60349950e-10  1.12178993e-02  6.60349950e-10  5.00000000e-01                                 
 7.83548946e-10  5.41575360e-01  7.83548946e-10  4.75565468e-01  7.83548946e-10  1.00595411e+00  7.83548946e-10  1.80000000e+00  7.83548946e-10 -9.42500909e-03  7.83548946e-10  5.00000000e-01                                 
 9.82313125e-10  5.40924888e-01  9.82313125e-10  4.75021711e-01  9.82313125e-10  1.22932743e+00  9.82313125e-10  1.80000000e+00  9.82313125e-10  8.74127044e-03  9.82313125e-10  5.00000000e-01                                 
 1.29439870e-09  5.39926926e-01  1.29439870e-09  4.74184464e-01  1.29439870e-09  1.48072351e+00  1.29439870e-09  1.80000000e+00  1.29439870e-09 -8.08551795e-03  1.29439870e-09  5.00000000e-01                                 
 1.88810787e-09  5.38101904e-01  1.88810787e-09  4.72644186e-01  1.88810787e-09  1.71046745e+00  1.88810787e-09  1.80000000e+00  1.88810787e-09  7.97768426e-03  1.88810787e-09  5.00000000e-01                                 
 2.17558850e-09  5.37251166e-01  2.17558850e-09  4.71922070e-01  2.17558850e-09  1.74483648e+00  2.17558850e-09  1.80000000e+00  2.17558850e-09 -7.36841939e-03  2.17558850e-09  5.00000000e-01                                 
 2.51211588e-09  5.36280520e-01  2.51211588e-09  4.71095113e-01  2.51211588e-09  1.76275563e+00  2.51211588e-09  1.80000000e+00  2.51211588e-09  7.07827865e-03  2.51211588e-09  5.00000000e-01                                 
 2.89314019e-09  5.35212677e-01  2.89314019e-09  4.70181638e-01  2.89314019e-09  1.77050579e+00  2.89314019e-09  1.80000000e+00  2.89314019e-09 -6.66195562e-03  2.89314019e-09  5.00000000e-01                                 
 3.57326905e-09  5.33382566e-01  3.57326905e-09  4.68607365e-01  3.57326905e-09  1.77329725e+00  3.57326905e-09  1.80000000e+00  3.57326905e-09  6.56689604e-03  3.57326905e-09  5.00000000e-01                                 
 4.33373617e-09  5.31442368e-01  4.33373617e-09  4.66926552e-01  4.33373617e-09  1.77175602e+00  4.33373617e-09  1.80000000e+00  4.33373617e-09 -6.33897197e-03  4.33373617e-09  5.00000000e-01                                 
 5.73901690e-09  5.28110281e-01  5.73901690e-09  4.64013514e-01  5.73901690e-09  1.76838557e+00  5.73901690e-09  1.80000000e+00  5.73901690e-09  6.33414635e-03  5.73901690e-09  5.00000000e-01                                 
 7.90247172e-09  5.23512811e-01  7.90247172e-09  4.59942983e-01  7.90247172e-09  1.76351626e+00  7.90247172e-09  1.80000000e+00  7.90247172e-09 -6.20563271e-03  7.90247172e-09  5.00000000e-01                                 
 9.35234255e-09  5.20736265e-01  9.35234255e-09  4.57456540e-01  9.35234255e-09  1.76032917e+00  9.35234255e-09  1.80000000e+00  9.35234255e-09  6.19708675e-03  9.35234255e-09  5.00000000e-01                                 
 1.13467188e-08  5.17234892e-01  1.13467188e-08  4.54294611e-01  1.13467188e-08  1.75616977e+00  1.13467188e-08  1.80000000e+00  1.13467188e-08 -6.07852960e-03  1.13467188e-08  5.00000000e-01                                 
 1.34711246e-08  5.13848630e-01  1.34711246e-08  4.51210017e-01  1.34711246e-08  1.75190394e+00  1.34711246e-08  1.80000000e+00  1.34711246e-08  6.08588560e-03  1.34711246e-08  5.00000000e-01                                 
 1.58200918e-08  5.10449075e-01  1.58200918e-08  4.48088519e-01  1.58200918e-08  1.74722333e+00  1.58200918e-08  1.80000000e+00  1.58200918e-08 -5.98253805e-03  1.58200918e-08  5.00000000e-01                                 
 1.85521296e-08  5.06877984e-01  1.85521296e-08  4.44783653e-01  1.85521296e-08  1.74194209e+00  1.85521296e-08  1.80000000e+00  1.85521296e-08  5.99901650e-03  1.85521296e-08  5.00000000e-01                                 
 2.25021802e-08  5.02314616e-01  2.25021802e-08  4.40522280e-01  2.25021802e-08  1.73444680e+00  2.25021802e-08  1.80000000e+00  2.25021802e-08 -5.91624257e-03  2.25021802e-08  5.00000000e-01                                 
 2.86507595e-08  4.96316067e-01  2.86507595e-08  4.34853968e-01  2.86507595e-08  1.72353458e+00  2.86507595e-08  1.80000000e+00  2.86507595e-08  5.95442636e-03  2.86507595e-08  5.00000000e-01                                 
 3.98837195e-08  4.87681672e-01  3.98837195e-08  4.26571101e-01  3.98837195e-08  1.70493329e+00  3.98837195e-08  1.80000000e+00  3.98837195e-08 -5.88923344e-03  3.98837195e-08  5.00000000e-01                                 
 6.23496394e-08  4.75168363e-01  6.23496394e-08  4.14392493e-01  6.23496394e-08  1.67079882e+00  6.23496394e-08  1.80000000e+00  6.23496394e-08  5.94046089e-03  6.23496394e-08  5.00000000e-01                                 
 9.47965315e-08  4.62764073e-01  9.47965315e-08  4.02185945e-01  9.47965315e-08  1.62585238e+00  9.47965315e-08  1.80000000e+00  9.47965315e-08 -5.88113930e-03  9.47965315e-08  5.00000000e-01                                 
 1.42704685e-07  4.46429063e-01  1.42704685e-07  3.86750245e-01  1.42704685e-07  1.56066697e+00  1.42704685e-07  1.80000000e+00  1.42704685e-07  5.93504452e-03  1.42704685e-07  5.00000000e-01                                 
 2.09294424e-07  4.24516975e-01  2.09294424e-07  3.66978457e-01  2.09294424e-07  1.46905840e+00  2.09294424e-07  1.80000000e+00  2.09294424e-07 -5.87735050e-03  2.09294424e-07  5.00000000e-01                                 
 2.84579755e-07  4.02725465e-01  2.84579755e-07  3.47829512e-01  2.84579755e-07  1.36701825e+00  2.84579755e-07  1.80000000e+00  2.84579755e-07  5.93211819e-03  2.84579755e-07  5.00000000e-01                                 
 3.74782232e-07  3.74746285e-01  3.74782232e-07  3.24122354e-01  3.74782232e-07  1.24254122e+00  3.74782232e-07  1.80000000e+00  3.74782232e-07 -5.87482630e-03  3.74782232e-07  5.00000000e-01                                 
 3.97192930e-07  3.67412068e-01  3.97192930e-07  3.18039007e-01  3.97192930e-07  1.21146264e+00  3.97192930e-07  1.80000000e+00  3.97192930e-07  1.27351745e-05  3.97192930e-07  5.00000000e-01                                 
 4.42014324e-07  3.50855836e-01  4.42014324e-07  3.04417482e-01  4.42014324e-07  1.14826659e+00  4.42014324e-07  1.80000000e+00  4.42014324e-07  1.49124622e-05  4.42014324e-07  5.00000000e-01                                 
 5.31657113e-07  3.22724541e-01  5.31657113e-07  2.81436914e-01  5.31657113e-07  1.03738580e+00  5.31657113e-07  1.80000000e+00  5.31657113e-07  1.28030076e-05  5.31657113e-07  5.00000000e-01                                 
 5.54067810e-07  3.25632025e-01  5.54067810e-07  2.83716173e-01  5.54067810e-07  1.02201921e+00  5.54067810e-07  1.80000000e+00  5.54067810e-07  1.40940072e-05  5.54067810e-07  5.00000000e-01                                 
 5.98889205e-07  3.93761601e-01  5.98889205e-07  3.38131190e-01  5.98889205e-07  1.04760050e+00  5.98889205e-07  1.80000000e+00  5.98889205e-07  1.56024001e-05  5.98889205e-07  5.00000000e-01                                 
 6.70384754e-07  6.32282289e-01  6.70384754e-07  5.62477409e-01  6.70384754e-07  1.20474143e+00  6.70384754e-07  1.80000000e+00  6.70384754e-07  1.70732851e-05  6.70384754e-07  5.00000000e-01                                 
 7.12694475e-07  6.76587969e-01  7.12694475e-07  6.04086065e-01  7.12694475e-07  1.20305075e+00  7.12694475e-07  1.80000000e+00  7.12694475e-07  1.29144330e-05  7.12694475e-07  5.00000000e-01                                 
 7.53254490e-07  6.94683870e-01  7.53254490e-07  6.19279032e-01  7.53254490e-07  1.17587720e+00  7.53254490e-07  1.80000000e+00  7.53254490e-07  1.57821018e-05  7.53254490e-07  5.00000000e-01                                 
 7.63394493e-07  6.96742469e-01  7.63394493e-07  6.21060312e-01  7.63394493e-07  1.16772283e+00  7.63394493e-07  1.80000000e+00  7.63394493e-07  1.42992067e-05  7.63394493e-07  5.00000000e-01                                 
 7.83674500e-07  6.99679627e-01  7.83674500e-07  6.23482823e-01  7.83674500e-07  1.14937142e+00  7.83674500e-07  1.80000000e+00  7.83674500e-07  1.40458932e-05  7.83674500e-07  5.00000000e-01                                 
 8.24234514e-07  7.02525323e-01  8.24234514e-07  6.25787181e-01  8.24234514e-07  1.11080136e+00  8.24234514e-07  1.80000000e+00  8.24234514e-07  1.41221855e-05  8.24234514e-07  5.00000000e-01                                 
 8.75835849e-07  6.99473223e-01  8.75835849e-07  6.23327379e-01  8.75835849e-07  1.05945537e+00  8.75835849e-07  1.80000000e+00  8.75835849e-07  1.38486496e-05  8.75835849e-07  5.00000000e-01                                 
 8.83975153e-07  6.96536599e-01  8.83975153e-07  6.20925265e-01  8.83975153e-07  1.04965734e+00  8.83975153e-07  1.80000000e+00  8.83975153e-07  1.37300781e-05  8.83975153e-07  5.00000000e-01                                 
 9.00253760e-07  6.88361703e-01  9.00253760e-07  6.14117642e-01  9.00253760e-07  1.02843831e+00  9.00253760e-07  1.80000000e+00  9.00253760e-07  1.34977403e-05  9.00253760e-07  5.00000000e-01                                 
 9.32810975e-07  6.76638001e-01  9.32810975e-07  6.04013857e-01  9.32810975e-07  9.92409094e-01  9.32810975e-07  1.80000000e+00  9.32810975e-07  1.39352569e-05  9.32810975e-07  5.00000000e-01                                 
 9.77929498e-07  6.83782986e-01  9.77929498e-07  6.10173654e-01  9.77929498e-07  9.66399901e-01  9.77929498e-07  1.80000000e+00  9.77929498e-07  1.43728353e-05  9.77929498e-07  5.00000000e-01                                 
 1.04188462e-06  6.93148209e-01  1.04188462e-06  6.18102022e-01  1.04188462e-06  9.31239540e-01  1.04188462e-06  1.80000000e+00  1.04188462e-06  1.39446011e-05  1.04188462e-06  5.00000000e-01                                 
 1.10581366e-06  6.85913139e-01  1.10581366e-06  6.12019734e-01  1.10581366e-06  8.83652399e-01  1.10581366e-06  1.80000000e+00  1.10581366e-06  1.39206863e-05  1.10581366e-06  5.00000000e-01                                 
 1.19878428e-06  6.84398905e-01  1.19878428e-06  6.10710474e-01  1.19878428e-06  8.24930629e-01  1.19878428e-06  1.80000000e+00  1.19878428e-06  1.41053992e-05  1.19878428e-06  5.00000000e-01                                 
 1.29546609e-06  6.90647229e-01  1.29546609e-06  6.16011933e-01  1.29546609e-06  7.72570045e-01  1.29546609e-06  1.80000000e+00  1.29546609e-06  1.40613155e-05  1.29546609e-06  5.00000000e-01                                 
 1.46695240e-06  6.84283933e-01  1.46695240e-06  6.10622663e-01  1.46695240e-06  6.69186903e-01  1.46695240e-06  1.80000000e+00  1.46695240e-06  1.39336348e-05  1.46695240e-06  5.00000000e-01                                 
 1.63450371e-06  6.88437835e-01  1.63450371e-06  6.14146085e-01  1.63450371e-06  5.84427164e-01  1.63450371e-06  1.80000000e+00  1.63450371e-06  1.41627825e-05  1.63450371e-06  5.00000000e-01                                 
 1.85757651e-06  6.86937570e-01  1.85757651e-06  6.12885716e-01  1.85757651e-06  5.07602774e-01  1.85757651e-06  1.80000000e+00  1.85757651e-06  1.38867822e-05  1.85757651e-06  5.00000000e-01                                 
 1.88934075e-06  6.86069509e-01  1.88934075e-06  6.12144535e-01  1.88934075e-06  5.02454532e-01  1.88934075e-06  1.80000000e+00  1.88934075e-06  1.40029564e-05  1.88934075e-06  5.00000000e-01                                 
 1.95286924e-06  6.86736477e-01  1.95286924e-06  6.12707421e-01  1.95286924e-06  4.95523531e-01  1.95286924e-06  1.80000000e+00  1.95286924e-06  1.40703509e-05  1.95286924e-06  5.00000000e-01                                 
 2.07992622e-06  6.87965729e-01  2.07992622e-06  6.13752886e-01  2.07992622e-06  4.92352900e-01  2.07992622e-06  1.80000000e+00  2.07992622e-06  1.40050577e-05  2.07992622e-06  5.00000000e-01                                 
 2.21168972e-06  6.86300424e-01  2.21168972e-06  6.12339265e-01  2.21168972e-06  5.00195208e-01  2.21168972e-06  1.80000000e+00  2.21168972e-06  1.40303853e-05  2.21168972e-06  5.00000000e-01                                 
 2.35918879e-06  6.87683443e-01  2.35918879e-06  6.13511857e-01  2.35918879e-06  5.01927151e-01  2.35918879e-06  1.80000000e+00  2.35918879e-06  1.40390030e-05  2.35918879e-06  5.00000000e-01                                 
 2.38702944e-06  6.87553195e-01  2.38702944e-06  6.13402553e-01  2.38702944e-06  5.00672983e-01  2.38702944e-06  1.80000000e+00  2.38702944e-06  1.40262227e-05  2.38702944e-06  5.00000000e-01                                 
 2.44271074e-06  6.87063367e-01  2.44271074e-06  6.12987865e-01  2.44271074e-06  4.99616332e-01  2.44271074e-06  1.80000000e+00  2.44271074e-06  1.40173202e-05  2.44271074e-06  5.00000000e-01                                 
 2.55407333e-06  6.86987805e-01  2.55407333e-06  6.12922552e-01  2.55407333e-06  5.00277807e-01  2.55407333e-06  1.80000000e+00  2.55407333e-06  1.40370206e-05  2.55407333e-06  5.00000000e-01                                 
 2.77679853e-06  6.87346121e-01  2.77679853e-06  6.13227326e-01  2.77679853e-06  5.00393469e-01  2.77679853e-06  1.80000000e+00  2.77679853e-06  1.40220198e-05  2.77679853e-06  5.00000000e-01                                 
 3.09514308e-06  6.86907484e-01  3.09514308e-06  6.12854711e-01  3.09514308e-06  5.00063472e-01  3.09514308e-06  1.80000000e+00  3.09514308e-06  1.40317132e-05  3.09514308e-06  5.00000000e-01                                 
 3.73183220e-06  6.87365267e-01  3.73183220e-06  6.13243342e-01  3.73183220e-06  5.00466641e-01  3.73183220e-06  1.80000000e+00  3.73183220e-06  1.40256792e-05  3.73183220e-06  5.00000000e-01                                 
 4.73183220e-06  6.86907813e-01  4.73183220e-06  6.12855109e-01  4.73183220e-06  5.00042678e-01  4.73183220e-06  1.80000000e+00  4.73183220e-06  1.40296769e-05  4.73183220e-06  5.00000000e-01                                 
 5.73183220e-06  6.87360115e-01  5.73183220e-06  6.13238884e-01  5.73183220e-06  5.00474589e-01  5.73183220e-06  1.80000000e+00  5.73183220e-06  1.40272474e-05  5.73183220e-06  5.00000000e-01                                 
 6.73183220e-06  6.86916580e-01  6.73183220e-06  6.12862636e-01  6.73183220e-06  5.00040554e-01  6.73183220e-06  1.80000000e+00  6.73183220e-06  1.40281373e-05  6.73183220e-06  5.00000000e-01                                 
 7.73183220e-06  6.87348088e-01  7.73183220e-06  6.13228607e-01  7.73183220e-06  5.00471263e-01  7.73183220e-06  1.80000000e+00  7.73183220e-06  1.40287470e-05  7.73183220e-06  5.00000000e-01                                 
 8.73183220e-06  6.86931821e-01  8.73183220e-06  6.12875651e-01  8.73183220e-06  5.00048813e-01  8.73183220e-06  1.80000000e+00  8.73183220e-06  1.40266885e-05  8.73183220e-06  5.00000000e-01                                 
 9.73183220e-06  6.87330124e-01  9.73183220e-06  6.13213303e-01  9.73183220e-06  5.00458416e-01  9.73183220e-06  1.80000000e+00  9.73183220e-06  1.40301352e-05  9.73183220e-06  5.00000000e-01                                 
 1.00005000e-05  6.86986814e-01  1.00005000e-05  6.12922471e-01  1.00005000e-05  5.00098757e-01  1.00005000e-05  1.80000000e+00  1.00005000e-05  1.40238507e-05  1.00005000e-05  5.00000000e-01                                 
 1.00005500e-05  6.86986625e-01  1.00005500e-05  6.12922312e-01  1.00005500e-05  4.92787686e-01  1.00005500e-05  1.62000000e+00  1.00005500e-05 -7.34156138e-05  1.00005500e-05  5.00000000e-01                                 
 1.00006500e-05  6.86986264e-01  1.00006500e-05  6.12922003e-01  1.00006500e-05  4.79239386e-01  1.00006500e-05  1.26000000e+00  1.00006500e-05 -6.20012252e-05  1.00006500e-05  5.00000000e-01                                 
 1.00008500e-05  6.86985593e-01  1.00008500e-05  6.12921423e-01  1.00008500e-05  4.78733390e-01  1.00008500e-05  5.40000000e-01  1.00008500e-05  1.54220285e-01  1.00008500e-05  5.00000000e-01                                 
 1.00010000e-05  6.86985026e-01  1.00010000e-05  6.12920956e-01  1.00010000e-05  4.44314172e-01  1.00010000e-05  0.00000000e+00  1.00010000e-05  1.63627829e+00  1.00010000e-05  5.00000000e-01                                 
 1.00010247e-05  6.86984918e-01  1.00010247e-05  6.12920869e-01  1.00010247e-05  4.25773079e-01  1.00010247e-05  0.00000000e+00  1.00010247e-05  1.74522253e+00  1.00010247e-05  5.00000000e-01                                 
 1.00010741e-05  6.86984737e-01  1.00010741e-05  6.12920710e-01  1.00010741e-05  3.93261537e-01  1.00010741e-05  0.00000000e+00  1.00010741e-05  1.81590257e+00  1.00010741e-05  5.00000000e-01                                 
 1.00011730e-05  6.86984473e-01  1.00011730e-05  6.12920456e-01  1.00011730e-05  3.60405090e-01  1.00011730e-05  0.00000000e+00  1.00011730e-05  1.78865680e+00  1.00011730e-05  5.00000000e-01                                 
 1.00013336e-05  6.86984043e-01  1.00013336e-05  6.12920087e-01  1.00013336e-05  3.52349392e-01  1.00013336e-05  0.00000000e+00  1.00013336e-05  1.80799111e+00  1.00013336e-05  5.00000000e-01                                 
 1.00015782e-05  6.86983273e-01  1.00015782e-05  6.12919446e-01  1.00015782e-05  3.52866605e-01  1.00015782e-05  0.00000000e+00  1.00015782e-05  1.79325384e+00  1.00015782e-05  5.00000000e-01                                 
