 time            v(vbep)         time            v(vben)         time            v(vout)         time            v(vphi1)        time            v(vphi2)        time            v(vref)         time            v(voutc)        time            v(voutcc)       yes             currtemp       
 0.00000000e+00  8.19440595e-01  0.00000000e+00  7.67629485e-01  0.00000000e+00  1.69342735e+00  0.00000000e+00  0.00000000e+00  0.00000000e+00  1.80000000e+00  0.00000000e+00  7.71114785e-01  0.00000000e+00  1.69342734e+00  0.00000000e+00  1.69878973e+00  1.00000000e+00 -4.00000000e+00 
 1.00000000e-11  8.19463525e-01  1.00000000e-11  7.67698468e-01  1.00000000e-11  1.69423954e+00  1.00000000e-11  1.80000000e-02  1.00000000e-11  1.80024543e+00  1.00000000e-11  7.71635115e-01  1.00000000e-11  1.69388906e+00  1.00000000e-11  1.69880380e+00                                 
 2.00000000e-11  8.19469882e-01  2.00000000e-11  7.67741891e-01  2.00000000e-11  1.69477544e+00  2.00000000e-11  3.60000000e-02  2.00000000e-11  1.80034673e+00  2.00000000e-11  7.72026430e-01  2.00000000e-11  1.69424759e+00  2.00000000e-11  1.69881005e+00                                 
 4.00000000e-11  8.19469747e-01  4.00000000e-11  7.67798726e-01  4.00000000e-11  1.69547223e+00  4.00000000e-11  7.20000000e-02  4.00000000e-11  1.80039168e+00  4.00000000e-11  7.72603133e-01  4.00000000e-11  1.69479580e+00  4.00000000e-11  1.69881379e+00                                 
 8.00000000e-11  8.19458208e-01  8.00000000e-11  7.67832529e-01  8.00000000e-11  1.69575843e+00  8.00000000e-11  1.44000000e-01  8.00000000e-11  1.80019648e+00  8.00000000e-11  7.73058114e-01  8.00000000e-11  1.69529338e+00  8.00000000e-11  1.69880386e+00                                 
 1.60000000e-10  8.19454846e-01  1.60000000e-10  7.67834134e-01  1.60000000e-10  1.69549652e+00  1.60000000e-10  2.88000000e-01  1.60000000e-10  1.80000990e+00  1.60000000e-10  7.73115861e-01  1.60000000e-10  1.69544657e+00  1.60000000e-10  1.69879210e+00                                 
 3.20000000e-10  8.19452147e-01  3.20000000e-10  7.67834173e-01  3.20000000e-10  1.69518431e+00  3.20000000e-10  5.76000000e-01  3.20000000e-10  1.80001444e+00  3.20000000e-10  7.73060709e-01  3.20000000e-10  1.69535401e+00  3.20000000e-10  1.69878981e+00                                 
 6.40000000e-10  8.19379140e-01  6.40000000e-10  7.67596753e-01  6.40000000e-10  1.68985432e+00  6.40000000e-10  1.15200000e+00  6.40000000e-10  1.81339732e+00  6.40000000e-10  7.72301075e-01  6.40000000e-10  1.70022907e+00  6.40000000e-10  1.69881864e+00                                 
 9.96766581e-10  8.19839504e-01  9.96766581e-10  7.67652293e-01  9.96766581e-10  1.66052901e+00  9.96766581e-10  1.79417985e+00  9.96766581e-10  7.82843342e-02  9.96766581e-10  7.74804842e-01  9.96766581e-10  1.69092771e+00  9.96766581e-10  1.69871370e+00                                 
 1.00000000e-09  8.19850803e-01  1.00000000e-09  7.67667274e-01  1.00000000e-09  1.66030017e+00  1.00000000e-09  1.80000000e+00  1.00000000e-09  5.51107965e-02  1.00000000e-09  7.75048573e-01  1.00000000e-09  1.69081333e+00  1.00000000e-09  1.69871828e+00                                 
 1.00646684e-09  8.19834254e-01  1.00646684e-09  7.67665493e-01  1.00646684e-09  1.66012210e+00  1.00646684e-09  1.80000000e+00  1.00646684e-09  3.23669676e-02  1.00646684e-09  7.75588532e-01  1.00646684e-09  1.69097844e+00  1.00646684e-09  1.69873721e+00                                 
 1.01940051e-09  8.19815293e-01  1.01940051e-09  7.67702086e-01  1.01940051e-09  1.66031323e+00  1.01940051e-09  1.80000000e+00  1.01940051e-09  6.43759916e-03  1.01940051e-09  7.76867310e-01  1.01940051e-09  1.69176014e+00  1.01940051e-09  1.69878151e+00                                 
 1.04526786e-09  8.19838004e-01  1.04526786e-09  7.67788464e-01  1.04526786e-09  1.66109990e+00  1.04526786e-09  1.80000000e+00  1.04526786e-09  5.01180464e-04  1.04526786e-09  7.78838022e-01  1.04526786e-09  1.69344293e+00  1.04526786e-09  1.69882235e+00                                 
 1.09700256e-09  8.19944524e-01  1.09700256e-09  7.67768049e-01  1.09700256e-09  1.66032868e+00  1.09700256e-09  1.80000000e+00  1.09700256e-09  1.10067489e-03  1.09700256e-09  7.79716156e-01  1.09700256e-09  1.69424698e+00  1.09700256e-09  1.69879215e+00                                 
 1.20047195e-09  8.20101928e-01  1.20047195e-09  7.67675168e-01  1.20047195e-09  1.65690501e+00  1.20047195e-09  1.80000000e+00  1.20047195e-09  1.62275203e-04  1.20047195e-09  7.80133804e-01  1.20047195e-09  1.69458182e+00  1.20047195e-09  1.69879144e+00                                 
 1.40741074e-09  8.20231291e-01  1.40741074e-09  7.67644650e-01  1.40741074e-09  1.65217452e+00  1.40741074e-09  1.80000000e+00  1.40741074e-09  3.63564608e-04  1.40741074e-09  7.80700448e-01  1.40741074e-09  1.69506053e+00  1.40741074e-09  1.69879977e+00                                 
 1.64477387e-09  8.20147667e-01  1.64477387e-09  7.67629918e-01  1.64477387e-09  1.65155700e+00  1.64477387e-09  1.80000000e+00  1.64477387e-09 -2.29213736e-04  1.64477387e-09  7.80222323e-01  1.64477387e-09  1.69464597e+00  1.64477387e-09  1.69879610e+00                                 
 1.92476380e-09  8.19964576e-01  1.92476380e-09  7.67625729e-01  1.92476380e-09  1.65325767e+00  1.92476380e-09  1.80000000e+00  1.92476380e-09  1.62422731e-04  1.92476380e-09  7.79673571e-01  1.92476380e-09  1.69418748e+00  1.92476380e-09  1.69880616e+00                                 
 2.21737072e-09  8.19780547e-01  2.21737072e-09  7.67618465e-01  2.21737072e-09  1.65515895e+00  2.21737072e-09  1.80000000e+00  2.21737072e-09 -2.16591348e-04  2.21737072e-09  7.78997121e-01  2.21737072e-09  1.69360849e+00  2.21737072e-09  1.69880751e+00                                 
 2.72121817e-09  8.19551724e-01  2.72121817e-09  7.67612352e-01  2.72121817e-09  1.65818460e+00  2.72121817e-09  1.80000000e+00  2.72121817e-09  1.31838820e-04  2.72121817e-09  7.77994776e-01  2.72121817e-09  1.69276464e+00  2.72121817e-09  1.69882173e+00                                 
 3.66075563e-09  8.19355158e-01  3.66075563e-09  7.67606294e-01  3.66075563e-09  1.66232968e+00  3.66075563e-09  1.80000000e+00  3.66075563e-09 -1.97612091e-04  3.66075563e-09  7.76229844e-01  3.66075563e-09  1.69126347e+00  3.66075563e-09  1.69883006e+00                                 
 5.53983056e-09  8.19316194e-01  5.53983056e-09  7.67610899e-01  5.53983056e-09  1.66681223e+00  5.53983056e-09  1.80000000e+00  5.53983056e-09  1.29999707e-04  5.53983056e-09  7.73691585e-01  5.53983056e-09  1.68911717e+00  5.53983056e-09  1.69881400e+00                                 
 7.93653528e-09  8.19374816e-01  7.93653528e-09  7.67620393e-01  7.93653528e-09  1.66766370e+00  7.93653528e-09  1.80000000e+00  7.93653528e-09 -1.83926301e-04  7.93653528e-09  7.71791160e-01  7.93653528e-09  1.68750100e+00  7.93653528e-09  1.69869836e+00                                 
 9.96749489e-09  8.19389732e-01  9.96749489e-09  7.67625887e-01  9.96749489e-09  1.66660978e+00  9.96749489e-09  1.80000000e+00  9.96749489e-09  1.35038724e-04  9.96749489e-09  7.71039335e-01  9.96749489e-09  1.68686733e+00  9.96749489e-09  1.69854751e+00                                 
 1.23126587e-08  8.19389145e-01  1.23126587e-08  7.67627990e-01  1.23126587e-08  1.66546585e+00  1.23126587e-08  1.80000000e+00  1.23126587e-08 -1.66664758e-04  1.23126587e-08  7.70564084e-01  1.23126587e-08  1.68645585e+00  1.23126587e-08  1.69832846e+00                                 
 1.49062715e-08  8.19386933e-01  1.49062715e-08  7.67629429e-01  1.49062715e-08  1.66462973e+00  1.49062715e-08  1.80000000e+00  1.49062715e-08  1.45785705e-04  1.49062715e-08  7.70402193e-01  1.49062715e-08  1.68631674e+00  1.49062715e-08  1.69807337e+00                                 
 1.86081879e-08  8.19409338e-01  1.86081879e-08  7.67629204e-01  1.86081879e-08  1.66166375e+00  1.86081879e-08  1.80000000e+00  1.86081879e-08 -1.54420215e-04  1.86081879e-08  7.70318432e-01  1.86081879e-08  1.68622803e+00  1.86081879e-08  1.69769834e+00                                 
 2.31052178e-08  8.19430164e-01  2.31052178e-08  7.67629761e-01  2.31052178e-08  1.65548055e+00  2.31052178e-08  1.80000000e+00  2.31052178e-08  1.48047551e-04  2.31052178e-08  7.70406472e-01  2.31052178e-08  1.68629006e+00  2.31052178e-08  1.69727026e+00                                 
 2.98522565e-08  8.19442508e-01  2.98522565e-08  7.67629443e-01  2.98522565e-08  1.64372875e+00  2.98522565e-08  1.80000000e+00  2.98522565e-08 -1.51085684e-04  2.98522565e-08  7.70499602e-01  2.98522565e-08  1.68633963e+00  2.98522565e-08  1.69667845e+00                                 
 3.95371371e-08  8.19444176e-01  3.95371371e-08  7.67629867e-01  3.95371371e-08  1.62540848e+00  3.95371371e-08  1.80000000e+00  3.95371371e-08  1.47402755e-04  3.95371371e-08  7.70681527e-01  3.95371371e-08  1.68646981e+00  3.95371371e-08  1.69595322e+00                                 
 5.47699173e-08  8.19442860e-01  5.47699173e-08  7.67629359e-01  5.47699173e-08  1.59535451e+00  5.47699173e-08  1.80000000e+00  5.47699173e-08 -1.50964892e-04  5.47699173e-08  7.70818018e-01  5.47699173e-08  1.68654844e+00  5.47699173e-08  1.69503355e+00                                 
 8.22743572e-08  8.19441531e-01  8.22743572e-08  7.67629725e-01  8.22743572e-08  1.53954343e+00  8.22743572e-08  1.80000000e+00  8.22743572e-08  1.46860401e-04  8.22743572e-08  7.71011856e-01  8.22743572e-08  1.68668319e+00  8.22743572e-08  1.69389647e+00                                 
 1.37283237e-07  8.19440912e-01  1.37283237e-07  7.67629281e-01  1.37283237e-07  1.42660912e+00  1.37283237e-07  1.80000000e+00  1.37283237e-07 -1.50974021e-04  1.37283237e-07  7.71088310e-01  1.37283237e-07  1.68671410e+00  1.37283237e-07  1.69274111e+00                                 
 2.39442648e-07  8.19440436e-01  2.39442648e-07  7.67629701e-01  2.39442648e-07  1.21927426e+00  2.39442648e-07  1.80000000e+00  2.39442648e-07  1.46833371e-04  2.39442648e-07  7.71131785e-01  2.39442648e-07  1.68674054e+00  2.39442648e-07  1.69215238e+00                                 
 3.65724738e-07  8.19440762e-01  3.65724738e-07  7.67629275e-01  3.65724738e-07  9.70813555e-01  3.65724738e-07  1.80000000e+00  3.65724738e-07 -1.49782193e-04  3.65724738e-07  7.71098957e-01  3.65724738e-07  1.68670143e+00  3.65724738e-07  1.69209318e+00                                 
 5.25691728e-07  8.19440467e-01  5.25691728e-07  7.67629695e-01  5.25691728e-07  7.86487831e-01  5.25691728e-07  1.80000000e+00  5.25691728e-07  1.48355986e-04  5.25691728e-07  7.71129639e-01  5.25691728e-07  1.68672540e+00  5.25691728e-07  1.69209341e+00                                 
 6.24249410e-07  8.19440787e-01  6.24249410e-07  7.67629290e-01  6.24249410e-07  7.72370513e-01  6.24249410e-07  1.80000000e+00  6.24249410e-07 -1.48337597e-04  6.24249410e-07  7.71101800e-01  6.24249410e-07  1.68669291e+00  6.24249410e-07  1.69208671e+00                                 
 6.97375281e-07  8.19440093e-01  6.97375281e-07  7.67629647e-01  6.97375281e-07  7.74994654e-01  6.97375281e-07  1.80000000e+00  6.97375281e-07  1.48394439e-04  6.97375281e-07  7.71127914e-01  6.97375281e-07  1.68671676e+00  6.97375281e-07  1.69208641e+00                                 
 7.78886547e-07  8.19441268e-01  7.78886547e-07  7.67629349e-01  7.78886547e-07  7.74413626e-01  7.78886547e-07  1.80000000e+00  7.78886547e-07 -1.48595498e-04  7.78886547e-07  7.71101418e-01  7.78886547e-07  1.68668614e+00  7.78886547e-07  1.69207948e+00                                 
 8.57422514e-07  8.19439808e-01  8.57422514e-07  7.67629610e-01  8.57422514e-07  7.74733629e-01  8.57422514e-07  1.80000000e+00  8.57422514e-07  1.48335332e-04  8.57422514e-07  7.71128330e-01  8.57422514e-07  1.68671047e+00  8.57422514e-07  1.69207955e+00                                 
 9.71439660e-07  8.19441438e-01  9.71439660e-07  7.67629375e-01  9.71439660e-07  7.74523322e-01  9.71439660e-07  1.80000000e+00  9.71439660e-07 -1.48624861e-04  9.71439660e-07  7.71101179e-01  9.71439660e-07  1.68667796e+00  9.71439660e-07  1.69207153e+00                                 
 1.11367887e-06  8.19439720e-01  1.11367887e-06  7.67629595e-01  1.11367887e-06  7.74757115e-01  1.11367887e-06  1.80000000e+00  1.11367887e-06  1.48286653e-04  1.11367887e-06  7.71128468e-01  1.11367887e-06  1.68669995e+00  1.11367887e-06  1.69206892e+00                                 
 1.30957350e-06  8.19441490e-01  1.30957350e-06  7.67629385e-01  1.30957350e-06  7.74550103e-01  1.30957350e-06  1.80000000e+00  1.30957350e-06 -1.48535514e-04  1.30957350e-06  7.71101089e-01  1.30957350e-06  1.68666386e+00  1.30957350e-06  1.69205755e+00                                 
 1.59024772e-06  8.19439691e-01  1.59024772e-06  7.67629590e-01  1.59024772e-06  7.74750258e-01  1.59024772e-06  1.80000000e+00  1.59024772e-06  1.48266059e-04  1.59024772e-06  7.71128527e-01  1.59024772e-06  1.68668024e+00  1.59024772e-06  1.69204920e+00                                 
 1.97658854e-06  8.19441508e-01  1.97658854e-06  7.67629389e-01  1.97658854e-06  7.74560388e-01  1.97658854e-06  1.80000000e+00  1.97658854e-06 -1.48506328e-04  1.97658854e-06  7.71101052e-01  1.97658854e-06  1.68663618e+00  1.97658854e-06  1.69202997e+00                                 
 2.54615720e-06  8.19439680e-01  2.54615720e-06  7.67629587e-01  2.54615720e-06  7.74746968e-01  2.54615720e-06  1.80000000e+00  2.54615720e-06  1.48250474e-04  2.54615720e-06  7.71128551e-01  2.54615720e-06  1.68664060e+00  2.54615720e-06  1.69200963e+00                                 
 3.48184818e-06  8.19441514e-01  3.48184818e-06  7.67629391e-01  3.48184818e-06  7.74562851e-01  3.48184818e-06  1.80000000e+00  3.48184818e-06 -1.48610853e-04  3.48184818e-06  7.71101039e-01  3.48184818e-06  1.68657371e+00  3.48184818e-06  1.69196765e+00                                 
 4.68184818e-06  8.19439676e-01  4.68184818e-06  7.67629586e-01  4.68184818e-06  7.74746526e-01  4.68184818e-06  1.80000000e+00  4.68184818e-06  1.48219928e-04  4.68184818e-06  7.71128561e-01  4.68184818e-06  1.68655202e+00  4.68184818e-06  1.69192124e+00                                 
 5.88184818e-06  8.19441517e-01  5.88184818e-06  7.67629390e-01  5.88184818e-06  7.74570036e-01  5.88184818e-06  1.80000000e+00  5.88184818e-06 -1.48340590e-04  5.88184818e-06  7.71101024e-01  5.88184818e-06  1.68647407e+00  5.88184818e-06  1.69186827e+00                                 
 6.00100000e-06  8.19439662e-01  6.00100000e-06  7.67629579e-01  6.00100000e-06  7.74740798e-01  6.00100000e-06  1.80000000e+00  6.00100000e-06  1.48082735e-04  6.00100000e-06  7.71128598e-01  6.00100000e-06  1.68649725e+00  6.00100000e-06  1.69186657e+00                                 
 6.00110000e-06  8.19407008e-01  6.00110000e-06  7.67399525e-01  6.00110000e-06  7.72699783e-01  6.00110000e-06  1.62000000e+00  6.00110000e-06 -8.85903650e-05  6.00110000e-06  7.69312185e-01  6.00110000e-06  1.68495524e+00  6.00110000e-06  1.69185129e+00                                 
 6.00130000e-06  8.19437309e-01  6.00130000e-06  7.67449946e-01  6.00130000e-06  7.73339560e-01  6.00130000e-06  1.26000000e+00  6.00130000e-06  3.44325188e-05  6.00130000e-06  7.69559809e-01  6.00130000e-06  1.68516755e+00  6.00130000e-06  1.69187279e+00                                 
 6.00170000e-06  8.19471106e-01  6.00170000e-06  7.67537919e-01  6.00170000e-06  7.77531501e-01  6.00170000e-06  5.40000000e-01  6.00170000e-06  5.18012218e-01  6.00170000e-06  7.69147405e-01  6.00170000e-06  1.67366349e+00  6.00170000e-06  1.69180046e+00                                 
 6.00200000e-06  8.19433273e-01  6.00200000e-06  7.65309258e-01  6.00200000e-06  8.17914961e-01  6.00200000e-06  0.00000000e+00  6.00200000e-06  1.70024740e+00  6.00200000e-06  7.42889739e-01  6.00200000e-06  1.45584035e+00  6.00200000e-06  1.69101925e+00                                 
 6.00204630e-06  8.19441764e-01  6.00204630e-06  7.65217289e-01  6.00204630e-06  8.17404398e-01  6.00204630e-06  0.00000000e+00  6.00204630e-06  1.76441462e+00  6.00204630e-06  7.41762577e-01  6.00204630e-06  1.39896828e+00  6.00204630e-06  1.69130198e+00                                 
 6.00213891e-06  8.19440508e-01  6.00213891e-06  7.65164371e-01  6.00213891e-06  8.11793313e-01  6.00213891e-06  0.00000000e+00  6.00213891e-06  1.80801009e+00  6.00213891e-06  7.41333629e-01  6.00213891e-06  1.29344439e+00  6.00213891e-06  1.69179955e+00                                 
 6.00232413e-06  8.19439218e-01  6.00232413e-06  7.65661280e-01  6.00232413e-06  8.00282665e-01  6.00232413e-06  0.00000000e+00  6.00232413e-06  1.79333451e+00  6.00232413e-06  7.47393450e-01  6.00232413e-06  1.14352883e+00  6.00232413e-06  1.69196605e+00                                 
 6.00254488e-06  8.19440250e-01  6.00254488e-06  7.66095756e-01  6.00254488e-06  7.95606474e-01  6.00254488e-06  0.00000000e+00  6.00254488e-06  1.80348374e+00  6.00254488e-06  7.51988972e-01  6.00254488e-06  1.02729911e+00  6.00254488e-06  1.69206440e+00                                 
 6.00280084e-06  8.19438767e-01  6.00280084e-06  7.66506171e-01  6.00280084e-06  7.90654279e-01  6.00280084e-06  0.00000000e+00  6.00280084e-06  1.79698413e+00  6.00280084e-06  7.55735267e-01  6.00280084e-06  9.25084669e-01  6.00280084e-06  1.69214703e+00                                 
 6.00309515e-06  8.19440536e-01  6.00309515e-06  7.67062412e-01  6.00309515e-06  7.85833008e-01  6.00309515e-06  0.00000000e+00  6.00309515e-06  1.80159193e+00  6.00309515e-06  7.61047180e-01  6.00309515e-06  8.44098902e-01  6.00309515e-06  1.69219549e+00                                 
 6.00368378e-06  8.19439203e-01  6.00368378e-06  7.67905154e-01  6.00368378e-06  7.76338237e-01  6.00368378e-06  0.00000000e+00  6.00368378e-06  1.79837152e+00  6.00368378e-06  7.69069755e-01  6.00368378e-06  7.79243209e-01  6.00368378e-06  1.69204648e+00                                 
 6.00406536e-06  8.19441026e-01  6.00406536e-06  7.68133780e-01  6.00406536e-06  7.75338456e-01  6.00406536e-06  0.00000000e+00  6.00406536e-06  1.80133899e+00  6.00406536e-06  7.71218044e-01  6.00406536e-06  7.76902816e-01  6.00406536e-06  1.69176334e+00                                 
 6.00451799e-06  8.19439545e-01  6.00451799e-06  7.68126898e-01  6.00451799e-06  7.75265469e-01  6.00451799e-06  0.00000000e+00  6.00451799e-06  1.79891524e+00  6.00451799e-06  7.71226644e-01  6.00451799e-06  7.75183762e-01  6.00451799e-06  1.69125351e+00                                 
 6.00501719e-06  8.19441273e-01  6.00501719e-06  7.68125012e-01  6.00501719e-06  7.75578612e-01  6.00501719e-06  0.00000000e+00  6.00501719e-06  1.80091590e+00  6.00501719e-06  7.71889175e-01  6.00501719e-06  7.75724256e-01  6.00501719e-06  1.69058962e+00                                 
 6.00601558e-06  8.19439765e-01  6.00601558e-06  7.67984595e-01  6.00601558e-06  7.76562821e-01  6.00601558e-06  0.00000000e+00  6.00601558e-06  1.79917274e+00  6.00601558e-06  7.71638904e-01  6.00601558e-06  7.76160463e-01  6.00601558e-06  1.68908754e+00                                 
 6.00801238e-06  8.19441390e-01  6.00801238e-06  7.67859507e-01  6.00801238e-06  7.78801330e-01  6.00801238e-06  0.00000000e+00  6.00801238e-06  1.80080089e+00  6.00801238e-06  7.72151640e-01  6.00801238e-06  7.78790301e-01  6.00801238e-06  1.68587235e+00                                 
 6.01200596e-06  8.19439802e-01  6.01200596e-06  7.67691083e-01  6.01200596e-06  7.83820105e-01  6.01200596e-06  0.00000000e+00  6.01200596e-06  1.79922700e+00  6.01200596e-06  7.71773303e-01  6.01200596e-06  7.83338775e-01  6.01200596e-06  1.67931958e+00                                 
 6.01999314e-06  8.19441390e-01  6.01999314e-06  7.67638329e-01  6.01999314e-06  7.94156728e-01  6.01999314e-06  0.00000000e+00  6.01999314e-06  1.80077456e+00  6.01999314e-06  7.71982644e-01  6.01999314e-06  7.94099734e-01  6.01999314e-06  1.66636694e+00                                 
