 time            v(vbep)         time            v(vben)         time            v(vout)         time            v(vphi1)        time            v(vphi2)        time            v(vref)         yes             currtemp       
 0.00000000e+00  7.41700229e-01  0.00000000e+00  6.90029309e-01  0.00000000e+00  1.00652189e+00  0.00000000e+00  0.00000000e+00  0.00000000e+00  1.79990035e+00  0.00000000e+00  5.00000000e-01  1.00000000e+00  9.00000000e+00 
 5.00000000e-12  7.41643426e-01  5.00000000e-12  6.89983621e-01  5.00000000e-12  1.00725094e+00  5.00000000e-12  1.80000000e-02  5.00000000e-12  1.80001110e+00  5.00000000e-12  5.00000000e-01                                 
 1.00000000e-11  7.41590262e-01  1.00000000e-11  6.89939968e-01  1.00000000e-11  1.00790758e+00  1.00000000e-11  3.60000000e-02  1.00000000e-11  1.80007454e+00  1.00000000e-11  5.00000000e-01                                 
 2.00000000e-11  7.41486737e-01  2.00000000e-11  6.89853289e-01  2.00000000e-11  1.00910715e+00  2.00000000e-11  7.20000000e-02  2.00000000e-11  1.80014104e+00  2.00000000e-11  5.00000000e-01                                 
 4.00000000e-11  7.41284778e-01  4.00000000e-11  6.89681157e-01  4.00000000e-11  1.01098096e+00  4.00000000e-11  1.44000000e-01  4.00000000e-11  1.80012879e+00  4.00000000e-11  5.00000000e-01                                 
 8.00000000e-11  7.40884261e-01  8.00000000e-11  6.89339640e-01  8.00000000e-11  1.01334921e+00  8.00000000e-11  2.88000000e-01  8.00000000e-11  1.80006620e+00  8.00000000e-11  5.00000000e-01                                 
 1.60000000e-10  7.40098003e-01  1.60000000e-10  6.88667565e-01  1.60000000e-10  1.01538495e+00  1.60000000e-10  5.76000000e-01  1.60000000e-10  1.80001049e+00  1.60000000e-10  5.00000000e-01                                 
 3.20000000e-10  7.38579440e-01  3.20000000e-10  6.87364893e-01  3.20000000e-10  1.00740966e+00  3.20000000e-10  1.15200000e+00  3.20000000e-10  1.80033817e+00  3.20000000e-10  5.00000000e-01                                 
 5.00000000e-10  7.36952812e-01  5.00000000e-10  6.85961950e-01  5.00000000e-10  1.18418409e+00  5.00000000e-10  1.80000000e+00  5.00000000e-10  1.04231369e-01  5.00000000e-10  5.00000000e-01                                 
 5.20999052e-10  7.36769034e-01  5.20999052e-10  6.85802927e-01  5.20999052e-10  1.22432448e+00  5.20999052e-10  1.80000000e+00  5.20999052e-10  1.92348560e-02  5.20999052e-10  5.00000000e-01                                 
 5.62997155e-10  7.36403485e-01  5.62997155e-10  6.85486362e-01  5.62997155e-10  1.29768397e+00  5.62997155e-10  1.80000000e+00  5.62997155e-10 -9.10936205e-03  5.62997155e-10  5.00000000e-01                                 
 6.46993361e-10  7.35684731e-01  6.46993361e-10  6.84862835e-01  6.46993361e-10  1.41879396e+00  6.46993361e-10  1.80000000e+00  6.46993361e-10  7.78292261e-03  6.46993361e-10  5.00000000e-01                                 
 7.69625535e-10  7.34663935e-01  7.69625535e-10  6.83974726e-01  7.69625535e-10  1.56112905e+00  7.69625535e-10  1.80000000e+00  7.69625535e-10 -6.84948899e-03  7.69625535e-10  5.00000000e-01                                 
 9.58899048e-10  7.33150766e-01  9.58899048e-10  6.82652805e-01  9.58899048e-10  1.72438594e+00  9.58899048e-10  1.80000000e+00  9.58899048e-10  6.48999160e-03  9.58899048e-10  5.00000000e-01                                 
 1.33744607e-09  7.30327115e-01  1.33744607e-09  6.80169134e-01  1.33744607e-09  1.91056795e+00  1.33744607e-09  1.80000000e+00  1.33744607e-09 -6.15646951e-03  1.33744607e-09  5.00000000e-01                                 
 1.61485570e-09  7.28414570e-01  1.61485570e-09  6.78473668e-01  1.61485570e-09  1.96800755e+00  1.61485570e-09  1.80000000e+00  1.61485570e-09  5.95919888e-03  1.61485570e-09  5.00000000e-01                                 
 1.92370068e-09  7.26419630e-01  1.92370068e-09  6.76694273e-01  1.92370068e-09  1.99611879e+00  1.92370068e-09  1.80000000e+00  1.92370068e-09 -5.64034710e-03  1.92370068e-09  5.00000000e-01                                 
 2.24843263e-09  7.24457564e-01  2.24843263e-09  6.74933582e-01  2.24843263e-09  2.00707116e+00  2.24843263e-09  1.80000000e+00  2.24843263e-09  5.47130887e-03  2.24843263e-09  5.00000000e-01                                 
 2.74687952e-09  7.21678151e-01  2.74687952e-09  6.72422164e-01  2.74687952e-09  2.01079261e+00  2.74687952e-09  1.80000000e+00  2.74687952e-09 -5.28448795e-03  2.74687952e-09  5.00000000e-01                                 
 3.36595429e-09  7.18559725e-01  3.36595429e-09  6.69580827e-01  3.36595429e-09  2.00907007e+00  3.36595429e-09  1.80000000e+00  3.36595429e-09  5.21132736e-03  3.36595429e-09  5.00000000e-01                                 
 4.42113833e-09  7.13911999e-01  4.42113833e-09  6.65303301e-01  4.42113833e-09  2.00461670e+00  4.42113833e-09  1.80000000e+00  4.42113833e-09 -5.11590462e-03  4.42113833e-09  5.00000000e-01                                 
 6.05022956e-09  7.07959710e-01  6.05022956e-09  6.59755083e-01  6.05022956e-09  1.99880882e+00  6.05022956e-09  1.80000000e+00  6.05022956e-09  5.10717556e-03  6.05022956e-09  5.00000000e-01                                 
 9.22610424e-09  6.99039812e-01  9.22610424e-09  6.51314927e-01  9.22610424e-09  1.99029085e+00  9.22610424e-09  1.80000000e+00  9.22610424e-09 -5.04929268e-03  9.22610424e-09  5.00000000e-01                                 
 1.06198776e-08  6.95949348e-01  1.06198776e-08  6.48352700e-01  1.06198776e-08  1.98735752e+00  1.06198776e-08  1.80000000e+00  1.06198776e-08  5.03118473e-03  1.06198776e-08  5.00000000e-01                                 
 1.25026456e-08  6.92270175e-01  1.25026456e-08  6.44807743e-01  1.25026456e-08  1.98386823e+00  1.25026456e-08  1.80000000e+00  1.25026456e-08 -4.97208904e-03  1.25026456e-08  5.00000000e-01                                 
 1.45103894e-08  6.88841558e-01  1.45103894e-08  6.41487303e-01  1.45103894e-08  1.98065810e+00  1.45103894e-08  1.80000000e+00  1.45103894e-08  4.96234195e-03  1.45103894e-08  5.00000000e-01                                 
 1.83128170e-08  6.83346621e-01  1.83128170e-08  6.36136321e-01  1.83128170e-08  1.97550498e+00  1.83128170e-08  1.80000000e+00  1.83128170e-08 -4.92432801e-03  1.83128170e-08  5.00000000e-01                                 
 2.19323027e-08  6.79030930e-01  2.19323027e-08  6.31908308e-01  2.19323027e-08  1.97153461e+00  2.19323027e-08  1.80000000e+00  2.19323027e-08  4.92738414e-03  2.19323027e-08  5.00000000e-01                                 
 2.91712740e-08  6.72087731e-01  2.91712740e-08  6.25064397e-01  2.91712740e-08  1.96523413e+00  2.91712740e-08  1.80000000e+00  2.91712740e-08 -4.89795397e-03  2.91712740e-08  5.00000000e-01                                 
 3.76483484e-08  6.65879181e-01  3.76483484e-08  6.18898577e-01  3.76483484e-08  1.95985562e+00  3.76483484e-08  1.80000000e+00  3.76483484e-08  4.91125556e-03  3.76483484e-08  5.00000000e-01                                 
 5.46024973e-08  6.56818671e-01  5.46024973e-08  6.09821940e-01  5.46024973e-08  1.95263313e+00  5.46024973e-08  1.80000000e+00  5.46024973e-08 -4.88656185e-03  5.46024973e-08  5.00000000e-01                                 
 7.82873605e-08  6.48241178e-01  7.82873605e-08  6.01138467e-01  7.82873605e-08  1.94640678e+00  7.82873605e-08  1.80000000e+00  7.82873605e-08  4.90499635e-03  7.82873605e-08  5.00000000e-01                                 
 1.00698664e-07  6.42177847e-01  1.00698664e-07  5.95006608e-01  1.00698664e-07  1.94222470e+00  1.00698664e-07  1.80000000e+00  1.00698664e-07 -4.88100456e-03  1.00698664e-07  5.00000000e-01                                 
 1.34384831e-07  6.34938974e-01  1.34384831e-07  5.87723826e-01  1.34384831e-07  1.92674821e+00  1.34384831e-07  1.80000000e+00  1.34384831e-07  4.90033411e-03  1.34384831e-07  5.00000000e-01                                 
 1.62952261e-07  6.27987338e-01  1.62952261e-07  5.81180259e-01  1.62952261e-07  1.90586273e+00  1.62952261e-07  1.80000000e+00  1.62952261e-07 -4.87696666e-03  1.62952261e-07  5.00000000e-01                                 
 1.86785785e-07  6.18198887e-01  1.86785785e-07  5.72697645e-01  1.86785785e-07  1.88127574e+00  1.86785785e-07  1.80000000e+00  1.86785785e-07  4.89533661e-03  1.86785785e-07  5.00000000e-01                                 
 2.07726054e-07  6.11318973e-01  2.07726054e-07  5.66689924e-01  2.07726054e-07  1.85156491e+00  2.07726054e-07  1.80000000e+00  2.07726054e-07 -4.87133110e-03  2.07726054e-07  5.00000000e-01                                 
 2.25853059e-07  6.05548875e-01  2.25853059e-07  5.61691314e-01  2.25853059e-07  1.81844092e+00  2.25853059e-07  1.80000000e+00  2.25853059e-07  4.88890600e-03  2.25853059e-07  5.00000000e-01                                 
 2.44585078e-07  6.01599355e-01  2.44585078e-07  5.58163628e-01  2.44585078e-07  1.79600644e+00  2.44585078e-07  1.80000000e+00  2.44585078e-07 -4.86447942e-03  2.44585078e-07  5.00000000e-01                                 
 2.68089940e-07  6.08641214e-01  2.68089940e-07  5.63263537e-01  2.68089940e-07  1.79982654e+00  2.68089940e-07  1.80000000e+00  2.68089940e-07  4.88332467e-03  2.68089940e-07  5.00000000e-01                                 
 2.85670164e-07  6.11732783e-01  2.85670164e-07  5.65360533e-01  2.85670164e-07  1.78997453e+00  2.85670164e-07  1.80000000e+00  2.85670164e-07 -4.85847299e-03  2.85670164e-07  5.00000000e-01                                 
 3.04931322e-07  6.06517754e-01  3.04931322e-07  5.60864596e-01  3.04931322e-07  1.76337239e+00  3.04931322e-07  1.80000000e+00  3.04931322e-07  4.87616625e-03  3.04931322e-07  5.00000000e-01                                 
 3.20869028e-07  6.03026183e-01  3.20869028e-07  5.57817408e-01  3.20869028e-07  1.74657271e+00  3.20869028e-07  1.80000000e+00  3.20869028e-07 -4.85133904e-03  3.20869028e-07  5.00000000e-01                                 
 3.38049384e-07  5.99853134e-01  3.38049384e-07  5.55019197e-01  3.38049384e-07  1.72711746e+00  3.38049384e-07  1.80000000e+00  3.38049384e-07  4.86863043e-03  3.38049384e-07  5.00000000e-01                                 
 3.69617453e-07  5.92552432e-01  3.69617453e-07  5.48759240e-01  3.69617453e-07  1.68944835e+00  3.69617453e-07  1.80000000e+00  3.69617453e-07 -4.84582519e-03  3.69617453e-07  5.00000000e-01                                 
 4.13119137e-07  5.83266306e-01  4.13119137e-07  5.40838732e-01  4.13119137e-07  1.63897830e+00  4.13119137e-07  1.80000000e+00  4.13119137e-07  4.86524037e-03  4.13119137e-07  5.00000000e-01                                 
 4.70313095e-07  5.69091931e-01  4.70313095e-07  5.29009392e-01  4.70313095e-07  1.56738875e+00  4.70313095e-07  1.80000000e+00  4.70313095e-07 -4.84336128e-03  4.70313095e-07  5.00000000e-01                                 
 5.57999103e-07  5.51864661e-01  5.57999103e-07  5.14684934e-01  5.57999103e-07  1.46440159e+00  5.57999103e-07  1.80000000e+00  5.57999103e-07  4.86349312e-03  5.57999103e-07  5.00000000e-01                                 
 6.46600065e-07  5.22395101e-01  6.46600065e-07  4.90850612e-01  6.46600065e-07  1.34425406e+00  6.46600065e-07  1.80000000e+00  6.46600065e-07 -4.84205159e-03  6.46600065e-07  5.00000000e-01                                 
 7.37000353e-07  4.87170883e-01  7.37000353e-07  4.62604042e-01  7.37000353e-07  1.21780313e+00  7.37000353e-07  1.80000000e+00  7.37000353e-07  4.86207326e-03  7.37000353e-07  5.00000000e-01                                 
 7.53260541e-07  4.81929293e-01  7.53260541e-07  4.58416012e-01  7.53260541e-07  1.19516936e+00  7.53260541e-07  1.80000000e+00  7.53260541e-07  9.70827818e-07  7.53260541e-07  5.00000000e-01                                 
 7.85780918e-07  4.84162389e-01  7.85780918e-07  4.60224531e-01  7.85780918e-07  1.16302593e+00  7.85780918e-07  1.80000000e+00  7.85780918e-07 -6.84994978e-07  7.85780918e-07  5.00000000e-01                                 
 8.21340214e-07  5.76231592e-01  8.21340214e-07  5.33867966e-01  8.21340214e-07  1.21450334e+00  8.21340214e-07  1.80000000e+00  8.21340214e-07  2.95231480e-06  8.21340214e-07  5.00000000e-01                                 
 8.55013738e-07  7.54141501e-01  8.55013738e-07  6.99382303e-01  8.55013738e-07  1.34981323e+00  8.55013738e-07  1.80000000e+00  8.55013738e-07  2.51439054e-06  8.55013738e-07  5.00000000e-01                                 
 8.85028414e-07  8.02441073e-01  8.85028414e-07  7.47913478e-01  8.85028414e-07  1.36673829e+00  8.85028414e-07  1.80000000e+00  8.85028414e-07  5.60409496e-08  8.85028414e-07  5.00000000e-01                                 
 9.15194257e-07  8.22685632e-01  9.15194257e-07  7.65670901e-01  9.15194257e-07  1.35249942e+00  9.15194257e-07  1.80000000e+00  9.15194257e-07  8.30009532e-07  9.15194257e-07  5.00000000e-01                                 
 9.53733281e-07  8.29166315e-01  9.53733281e-07  7.71302375e-01  9.53733281e-07  1.32123084e+00  9.53733281e-07  1.80000000e+00  9.53733281e-07 -2.20368451e-07  9.53733281e-07  5.00000000e-01                                 
 9.94323555e-07  8.35988391e-01  9.94323555e-07  7.76779518e-01  9.94323555e-07  1.28307328e+00  9.94323555e-07  1.80000000e+00  9.94323555e-07  5.49237906e-07  9.94323555e-07  5.00000000e-01                                 
 1.03484832e-06  8.44771439e-01  1.03484832e-06  7.83826490e-01  1.03484832e-06  1.25169019e+00  1.03484832e-06  1.80000000e+00  1.03484832e-06  5.28453377e-08  1.03484832e-06  5.00000000e-01                                 
 1.03978672e-06  8.43075585e-01  1.03978672e-06  7.82514999e-01  1.03978672e-06  1.24410151e+00  1.03978672e-06  1.80000000e+00  1.03978672e-06 -1.58046989e-07  1.03978672e-06  5.00000000e-01                                 
 1.04966353e-06  8.34954566e-01  1.04966353e-06  7.76102447e-01  1.04966353e-06  1.22646801e+00  1.04966353e-06  1.80000000e+00  1.04966353e-06 -5.34555653e-07  1.04966353e-06  5.00000000e-01                                 
 1.06653235e-06  8.15461031e-01  1.06653235e-06  7.59552340e-01  1.06653235e-06  1.19067357e+00  1.06653235e-06  1.80000000e+00  1.06653235e-06 -6.54108948e-07  1.06653235e-06  5.00000000e-01                                 
 1.08458267e-06  8.03886026e-01  1.08458267e-06  7.49141784e-01  1.08458267e-06  1.16016715e+00  1.08458267e-06  1.80000000e+00  1.08458267e-06 -4.07503422e-09  1.08458267e-06  5.00000000e-01                                 
 1.11265149e-06  8.00761986e-01  1.11265149e-06  7.46250641e-01  1.11265149e-06  1.12750937e+00  1.11265149e-06  1.80000000e+00  1.11265149e-06  8.03096962e-08  1.11265149e-06  5.00000000e-01                                 
 1.14669077e-06  8.09265927e-01  1.14669077e-06  7.53973636e-01  1.14669077e-06  1.09922186e+00  1.14669077e-06  1.80000000e+00  1.14669077e-06  4.57015641e-07  1.14669077e-06  5.00000000e-01                                 
 1.20503047e-06  8.17460991e-01  1.20503047e-06  7.61254463e-01  1.20503047e-06  1.04523213e+00  1.20503047e-06  1.80000000e+00  1.20503047e-06 -2.67997599e-08  1.20503047e-06  5.00000000e-01                                 
 1.26905796e-06  8.10252051e-01  1.26905796e-06  7.54889678e-01  1.26905796e-06  9.72376320e-01  1.26905796e-06  1.80000000e+00  1.26905796e-06  1.25463555e-07  1.26905796e-06  5.00000000e-01                                 
 1.36496050e-06  8.07686549e-01  1.36496050e-06  7.52562820e-01  1.36496050e-06  8.92467317e-01  1.36496050e-06  1.80000000e+00  1.36496050e-06  7.92943478e-08  1.36496050e-06  5.00000000e-01                                 
 1.45657232e-06  8.16138688e-01  1.45657232e-06  7.60094931e-01  1.45657232e-06  8.36868550e-01  1.45657232e-06  1.80000000e+00  1.45657232e-06  2.80611743e-07  1.45657232e-06  5.00000000e-01                                 
 1.59531468e-06  8.07645851e-01  1.59531468e-06  7.52544882e-01  1.59531468e-06  7.50303705e-01  1.59531468e-06  1.80000000e+00  1.59531468e-06 -1.13111051e-07  1.59531468e-06  5.00000000e-01                                 
 1.73259970e-06  8.12235396e-01  1.73259970e-06  7.56635596e-01  1.73259970e-06  6.87224287e-01  1.73259970e-06  1.80000000e+00  1.73259970e-06  3.89065773e-07  1.73259970e-06  5.00000000e-01                                 
 1.89888554e-06  8.12213742e-01  1.89888554e-06  7.56640526e-01  1.89888554e-06  6.12747825e-01  1.89888554e-06  1.80000000e+00  1.89888554e-06 -1.44574260e-07  1.89888554e-06  5.00000000e-01                                 
 2.14918859e-06  8.09333780e-01  2.14918859e-06  7.54042983e-01  2.14918859e-06  5.29531422e-01  2.14918859e-06  1.80000000e+00  2.14918859e-06  3.67367526e-07  2.14918859e-06  5.00000000e-01                                 
 2.43837060e-06  8.13811410e-01  2.43837060e-06  7.58054120e-01  2.43837060e-06  4.97408812e-01  2.43837060e-06  1.80000000e+00  2.43837060e-06 -1.04759481e-07  2.43837060e-06  5.00000000e-01                                 
 2.48632897e-06  8.11249217e-01  2.48632897e-06  7.55772406e-01  2.48632897e-06  4.94171954e-01  2.48632897e-06  1.80000000e+00  2.48632897e-06  8.30550724e-08  2.48632897e-06  5.00000000e-01                                 
 2.58224572e-06  8.10535623e-01  2.58224572e-06  7.55129281e-01  2.58224572e-06  4.92385570e-01  2.58224572e-06  1.80000000e+00  2.58224572e-06  1.44490584e-07  2.58224572e-06  5.00000000e-01                                 
 2.77407921e-06  8.12197270e-01  2.77407921e-06  7.56615152e-01  2.77407921e-06  4.93585542e-01  2.77407921e-06  1.80000000e+00  2.77407921e-06  1.05872561e-07  2.77407921e-06  5.00000000e-01                                 
 2.97399632e-06  8.10403166e-01  2.97399632e-06  7.55012851e-01  2.97399632e-06  4.99492985e-01  2.97399632e-06  1.80000000e+00  2.97399632e-06  1.21837203e-07  2.97399632e-06  5.00000000e-01                                 
 3.24495355e-06  8.12047631e-01  3.24495355e-06  7.56480303e-01  3.24495355e-06  5.03334120e-01  3.24495355e-06  1.80000000e+00  3.24495355e-06  1.23282113e-07  3.24495355e-06  5.00000000e-01                                 
 3.63003936e-06  8.10645843e-01  3.63003936e-06  7.55231049e-01  3.63003936e-06  4.96879182e-01  3.63003936e-06  1.80000000e+00  3.63003936e-06  1.11189238e-07  3.63003936e-06  5.00000000e-01                                 
 3.99439382e-06  8.11775628e-01  3.99439382e-06  7.56237350e-01  3.99439382e-06  5.02366803e-01  3.99439382e-06  1.80000000e+00  3.99439382e-06  1.31045865e-07  3.99439382e-06  5.00000000e-01                                 
 4.58604911e-06  8.10902315e-01  4.58604911e-06  7.55460791e-01  4.58604911e-06  4.98690200e-01  4.58604911e-06  1.80000000e+00  4.58604911e-06  1.05657497e-07  4.58604911e-06  5.00000000e-01                                 
 5.47972571e-06  8.11606100e-01  5.47972571e-06  7.56086036e-01  5.47972571e-06  5.01132510e-01  5.47972571e-06  1.80000000e+00  5.47972571e-06  1.33899491e-07  5.47972571e-06  5.00000000e-01                                 
 6.47972571e-06  8.11034557e-01  6.47972571e-06  7.55579058e-01  6.47972571e-06  4.99530535e-01  6.47972571e-06  1.80000000e+00  6.47972571e-06  1.03905814e-07  6.47972571e-06  5.00000000e-01                                 
 7.47972571e-06  8.11482217e-01  7.47972571e-06  7.55975481e-01  7.47972571e-06  5.00422631e-01  7.47972571e-06  1.80000000e+00  7.47972571e-06  1.35228719e-07  7.47972571e-06  5.00000000e-01                                 
 8.47972571e-06  8.11159053e-01  8.47972571e-06  7.55690290e-01  8.47972571e-06  5.00131245e-01  8.47972571e-06  1.80000000e+00  8.47972571e-06  1.02894039e-07  8.47972571e-06  5.00000000e-01                                 
 9.47972571e-06  8.11360139e-01  9.47972571e-06  7.55866546e-01  9.47972571e-06  4.99928006e-01  9.47972571e-06  1.80000000e+00  9.47972571e-06  1.35916451e-07  9.47972571e-06  5.00000000e-01                                 
