 time            v(vbep)         time            v(vben)         time            v(vout)         time            v(vphi1)        time            v(vphi2)        time            v(vref)         time            v(voutc)        time            v(voutcc)       yes             currtemp       
 0.00000000e+00  8.29630067e-01  0.00000000e+00  7.79269569e-01  0.00000000e+00  1.71405125e+00  0.00000000e+00  0.00000000e+00  0.00000000e+00  1.80000000e+00  0.00000000e+00  7.82965803e-01  0.00000000e+00  1.71405124e+00  0.00000000e+00  1.71916810e+00  1.00000000e+00 -1.10000000e+01 
 1.00000000e-11  8.29652340e-01  1.00000000e-11  7.79337148e-01  1.00000000e-11  1.71487092e+00  1.00000000e-11  1.80000000e-02  1.00000000e-11  1.80024432e+00  1.00000000e-11  7.83483706e-01  1.00000000e-11  1.71451100e+00  1.00000000e-11  1.71918191e+00                                 
 2.00000000e-11  8.29658562e-01  2.00000000e-11  7.79379755e-01  2.00000000e-11  1.71542091e+00  2.00000000e-11  3.60000000e-02  2.00000000e-11  1.80034623e+00  2.00000000e-11  7.83874657e-01  2.00000000e-11  1.71487040e+00  2.00000000e-11  1.71918826e+00                                 
 4.00000000e-11  8.29658491e-01  4.00000000e-11  7.79435527e-01  4.00000000e-11  1.71614927e+00  4.00000000e-11  7.20000000e-02  4.00000000e-11  1.80039328e+00  4.00000000e-11  7.84452811e-01  4.00000000e-11  1.71542407e+00  4.00000000e-11  1.71919235e+00                                 
 8.00000000e-11  8.29647240e-01  8.00000000e-11  7.79468413e-01  8.00000000e-11  1.71648593e+00  8.00000000e-11  1.44000000e-01  8.00000000e-11  1.80020083e+00  8.00000000e-11  7.84915135e-01  8.00000000e-11  1.71594299e+00  8.00000000e-11  1.71918275e+00                                 
 1.60000000e-10  8.29643859e-01  1.60000000e-10  7.79468486e-01  1.60000000e-10  1.71625555e+00  1.60000000e-10  2.88000000e-01  1.60000000e-10  1.80001291e+00  1.60000000e-10  7.84978920e-01  1.60000000e-10  1.71613448e+00  1.60000000e-10  1.71917030e+00                                 
 3.20000000e-10  8.29641360e-01  3.20000000e-10  7.79467235e-01  3.20000000e-10  1.71595446e+00  3.20000000e-10  5.76000000e-01  3.20000000e-10  1.80001882e+00  3.20000000e-10  7.84934770e-01  3.20000000e-10  1.71609274e+00  3.20000000e-10  1.71916805e+00                                 
 6.40000000e-10  8.29570270e-01  6.40000000e-10  7.79252001e-01  6.40000000e-10  1.70976318e+00  6.40000000e-10  1.15200000e+00  6.40000000e-10  1.81350312e+00  6.40000000e-10  7.84404682e-01  6.40000000e-10  1.72074933e+00  6.40000000e-10  1.71919613e+00                                 
 9.95830053e-10  8.29989298e-01  9.95830053e-10  7.79281065e-01  9.95830053e-10  1.67960545e+00  9.95830053e-10  1.79249409e+00  9.95830053e-10  7.61970723e-02  9.95830053e-10  7.85627116e-01  9.95830053e-10  1.70995165e+00  9.95830053e-10  1.71908007e+00                                 
 1.00000000e-09  8.30003602e-01  1.00000000e-09  7.79303801e-01  1.00000000e-09  1.67933343e+00  1.00000000e-09  1.80000000e+00  1.00000000e-09  4.77287939e-02  1.00000000e-09  7.85955701e-01  1.00000000e-09  1.70983850e+00  1.00000000e-09  1.71908815e+00                                 
 1.00833989e-09  8.29986116e-01  1.00833989e-09  7.79310968e-01  1.00833989e-09  1.67923852e+00  1.00833989e-09  1.80000000e+00  1.00833989e-09  2.48563282e-02  1.00833989e-09  7.86696219e-01  1.00833989e-09  1.71018368e+00  1.00833989e-09  1.71911580e+00                                 
 1.02501968e-09  8.29974488e-01  1.02501968e-09  7.79360924e-01  1.02501968e-09  1.67955763e+00  1.02501968e-09  1.80000000e+00  1.02501968e-09  2.00153240e-03  1.02501968e-09  7.88237000e-01  1.02501968e-09  1.71124723e+00  1.02501968e-09  1.71916796e+00                                 
 1.05837926e-09  8.30033081e-01  1.05837926e-09  7.79428144e-01  1.05837926e-09  1.67993664e+00  1.05837926e-09  1.80000000e+00  1.05837926e-09  1.07119664e-03  1.05837926e-09  7.89981732e-01  1.05837926e-09  1.71280578e+00  1.05837926e-09  1.71919196e+00                                 
 1.12509842e-09  8.30182056e-01  1.12509842e-09  7.79363052e-01  1.12509842e-09  1.67765280e+00  1.12509842e-09  1.80000000e+00  1.12509842e-09  5.49913295e-04  1.12509842e-09  7.90343906e-01  1.12509842e-09  1.71313050e+00  1.12509842e-09  1.71915638e+00                                 
 1.25853673e-09  8.30357619e-01  1.25853673e-09  7.79292518e-01  1.25853673e-09  1.67241231e+00  1.25853673e-09  1.80000000e+00  1.25853673e-09  3.58598007e-04  1.25853673e-09  7.90938898e-01  1.25853673e-09  1.71362058e+00  1.25853673e-09  1.71917459e+00                                 
 1.52541336e-09  8.30407611e-01  1.52541336e-09  7.79273180e-01  1.52541336e-09  1.66806003e+00  1.52541336e-09  1.80000000e+00  1.52541336e-09 -3.48702557e-05  1.52541336e-09  7.91206932e-01  1.52541336e-09  1.71383893e+00  1.52541336e-09  1.71917031e+00                                 
 1.78290609e-09  8.30243759e-01  1.78290609e-09  7.79262751e-01  1.78290609e-09  1.66948247e+00  1.78290609e-09  1.80000000e+00  1.78290609e-09  9.48265735e-06  1.78290609e-09  7.90705479e-01  1.78290609e-09  1.71341380e+00  1.78290609e-09  1.71917755e+00                                 
 2.05190448e-09  8.30067286e-01  2.05190448e-09  7.79262298e-01  2.05190448e-09  1.67165703e+00  2.05190448e-09  1.80000000e+00  2.05190448e-09 -7.13474360e-05  2.05190448e-09  7.90257235e-01  2.05190448e-09  1.71303410e+00  2.05190448e-09  1.71917705e+00                                 
 2.39251144e-09  8.29872243e-01  2.39251144e-09  7.79256401e-01  2.39251144e-09  1.67433814e+00  2.39251144e-09  1.80000000e+00  2.39251144e-09 -3.97116934e-06  2.39251144e-09  7.89636278e-01  2.39251144e-09  1.71250921e+00  2.39251144e-09  1.71918201e+00                                 
 3.07372538e-09  8.29635877e-01  3.07372538e-09  7.79252007e-01  3.07372538e-09  1.67881088e+00  3.07372538e-09  1.80000000e+00  3.07372538e-09 -6.41953024e-05  3.07372538e-09  7.88523550e-01  3.07372538e-09  1.71156716e+00  3.07372538e-09  1.71918280e+00                                 
 4.43615325e-09  8.29488383e-01  4.43615325e-09  7.79249179e-01  4.43615325e-09  1.68506479e+00  4.43615325e-09  1.80000000e+00  4.43615325e-09 -1.14132045e-06  4.43615325e-09  7.86616464e-01  4.43615325e-09  1.70995409e+00  4.43615325e-09  1.71917223e+00                                 
 7.16100899e-09  8.29545207e-01  7.16100899e-09  7.79257974e-01  7.16100899e-09  1.69023163e+00  7.16100899e-09  1.80000000e+00  7.16100899e-09 -5.38418161e-05  7.16100899e-09  7.84199507e-01  7.16100899e-09  1.70790814e+00  7.16100899e-09  1.71907214e+00                                 
 9.50009404e-09  8.29582583e-01  9.50009404e-09  7.79264174e-01  9.50009404e-09  1.69030523e+00  9.50009404e-09  1.80000000e+00  9.50009404e-09  8.13380745e-06  9.50009404e-09  7.83180600e-01  9.50009404e-09  1.70704532e+00  9.50009404e-09  1.71892133e+00                                 
 1.18852713e-08  8.29594497e-01  1.18852713e-08  7.79267545e-01  1.18852713e-08  1.68914447e+00  1.18852713e-08  1.80000000e+00  1.18852713e-08 -4.44160102e-05  1.18852713e-08  7.82691889e-01  1.18852713e-08  1.70662809e+00  1.18852713e-08  1.71872523e+00                                 
 1.43934144e-08  8.29588432e-01  1.43934144e-08  7.79268775e-01  1.43934144e-08  1.68837333e+00  1.43934144e-08  1.80000000e+00  1.43934144e-08  1.89360147e-05  1.43934144e-08  7.82447669e-01  1.43934144e-08  1.70641672e+00  1.43934144e-08  1.71850131e+00                                 
 1.80233950e-08  8.29595074e-01  1.80233950e-08  7.79269583e-01  1.80233950e-08  1.68725189e+00  1.80233950e-08  1.80000000e+00  1.80233950e-08 -3.16981143e-05  1.80233950e-08  7.82350667e-01  1.80233950e-08  1.70632324e+00  1.80233950e-08  1.71816550e+00                                 
 2.24687072e-08  8.29614235e-01  2.24687072e-08  7.79269536e-01  2.24687072e-08  1.68361126e+00  2.24687072e-08  1.80000000e+00  2.24687072e-08  2.53263917e-05  2.24687072e-08  7.82353915e-01  2.24687072e-08  1.70631094e+00  2.24687072e-08  1.71776679e+00                                 
 2.90067096e-08  8.29630007e-01  2.90067096e-08  7.79269766e-01  2.90067096e-08  1.67525989e+00  2.90067096e-08  1.80000000e+00  2.90067096e-08 -2.86174491e-05  2.90067096e-08  7.82441233e-01  2.90067096e-08  1.70636118e+00  2.90067096e-08  1.71721716e+00                                 
 3.81349616e-08  8.29631958e-01  3.81349616e-08  7.79269670e-01  3.81349616e-08  1.66164445e+00  3.81349616e-08  1.80000000e+00  3.81349616e-08  2.58476610e-05  3.81349616e-08  7.82541511e-01  3.81349616e-08  1.70641870e+00  3.81349616e-08  1.71653433e+00                                 
 5.22749844e-08  8.29633279e-01  5.22749844e-08  7.79269726e-01  5.22749844e-08  1.63927844e+00  5.22749844e-08  1.80000000e+00  5.22749844e-08 -2.85212159e-05  5.22749844e-08  7.82676756e-01  5.22749844e-08  1.70649942e+00  5.22749844e-08  1.71563804e+00                                 
 7.54839839e-08  8.29630002e-01  7.54839839e-08  7.79269575e-01  7.54839839e-08  1.60076651e+00  7.54839839e-08  1.80000000e+00  7.54839839e-08  2.55771790e-05  7.54839839e-08  7.82800999e-01  7.54839839e-08  1.70656895e+00  7.54839839e-08  1.71451628e+00                                 
 1.21901983e-07  8.29631637e-01  1.21901983e-07  7.79269634e-01  1.21901983e-07  1.52110128e+00  1.21901983e-07  1.80000000e+00  1.21901983e-07 -2.85767709e-05  1.21901983e-07  7.82927440e-01  1.21901983e-07  1.70663761e+00  1.21901983e-07  1.71313111e+00                                 
 2.14737981e-07  8.29628863e-01  2.14737981e-07  7.79269535e-01  2.14737981e-07  1.36139619e+00  2.14737981e-07  1.80000000e+00  2.14737981e-07  2.55556744e-05  2.14737981e-07  7.82964871e-01  2.14737981e-07  1.70664345e+00  2.14737981e-07  1.71204748e+00                                 
 3.51816013e-07  8.29631281e-01  3.51816013e-07  7.79269621e-01  3.51816013e-07  1.13063090e+00  3.51816013e-07  1.80000000e+00  3.51816013e-07 -2.83999119e-05  3.51816013e-07  7.82968856e-01  3.51816013e-07  1.70663550e+00  3.51816013e-07  1.71177453e+00                                 
 5.57107428e-07  8.29628864e-01  5.57107428e-07  7.79269524e-01  5.57107428e-07  8.47618769e-01  5.57107428e-07  1.80000000e+00  5.57107428e-07  2.64151979e-05  5.57107428e-07  7.82961684e-01  5.57107428e-07  1.70662084e+00  5.57107428e-07  1.71176345e+00                                 
 7.39900313e-07  8.29631323e-01  7.39900313e-07  7.79269619e-01  7.39900313e-07  7.73852243e-01  7.39900313e-07  1.80000000e+00  7.39900313e-07 -2.67804642e-05  7.39900313e-07  7.82970823e-01  7.39900313e-07  1.70662031e+00  7.39900313e-07  1.71175775e+00                                 
 8.55958362e-07  8.29628663e-01  8.55958362e-07  7.79269509e-01  8.55958362e-07  7.89429522e-01  8.55958362e-07  1.80000000e+00  8.55958362e-07  2.69525731e-05  8.55958362e-07  7.82961222e-01  8.55958362e-07  1.70660780e+00  8.55958362e-07  1.71175349e+00                                 
 9.15843066e-07  8.29631524e-01  9.15843066e-07  7.79269632e-01  9.15843066e-07  7.87181599e-01  9.15843066e-07  1.80000000e+00  9.15843066e-07 -2.69243803e-05  9.15843066e-07  7.82969865e-01  9.15843066e-07  1.70661199e+00  9.15843066e-07  1.71174952e+00                                 
 9.93143689e-07  8.29628653e-01  9.93143689e-07  7.79269513e-01  9.93143689e-07  7.86657066e-01  9.93143689e-07  1.80000000e+00  9.93143689e-07  2.69504738e-05  9.93143689e-07  7.82961724e-01  9.93143689e-07  1.70660241e+00  9.93143689e-07  1.71174739e+00                                 
 1.08053474e-06  8.29631454e-01  1.08053474e-06  7.79269635e-01  1.08053474e-06  7.86783849e-01  1.08053474e-06  1.80000000e+00  1.08053474e-06 -2.69196376e-05  1.08053474e-06  7.82969917e-01  1.08053474e-06  1.70660504e+00  1.08053474e-06  1.71174258e+00                                 
 1.25531685e-06  8.29628691e-01  1.25531685e-06  7.79269519e-01  1.25531685e-06  7.86659673e-01  1.25531685e-06  1.80000000e+00  1.25531685e-06  2.69288366e-05  1.25531685e-06  7.82961699e-01  1.25531685e-06  1.70659126e+00  1.25531685e-06  1.71173631e+00                                 
 1.56241311e-06  8.29631438e-01  1.56241311e-06  7.79269639e-01  1.56241311e-06  7.86786844e-01  1.56241311e-06  1.80000000e+00  1.56241311e-06 -2.69270692e-05  1.56241311e-06  7.82969930e-01  1.56241311e-06  1.70658460e+00  1.56241311e-06  1.71172219e+00                                 
 2.17660562e-06  8.29628699e-01  2.17660562e-06  7.79269519e-01  2.17660562e-06  7.86670633e-01  2.17660562e-06  1.80000000e+00  2.17660562e-06  2.69240841e-05  2.17660562e-06  7.82961697e-01  2.17660562e-06  1.70655216e+00  2.17660562e-06  1.71169732e+00                                 
 3.37660562e-06  8.29631434e-01  3.37660562e-06  7.79269640e-01  3.37660562e-06  7.86788505e-01  3.37660562e-06  1.80000000e+00  3.37660562e-06 -2.69305935e-05  3.37660562e-06  7.82969932e-01  3.37660562e-06  1.70650760e+00  3.37660562e-06  1.71164540e+00                                 
 4.57660562e-06  8.29628702e-01  4.57660562e-06  7.79269513e-01  4.57660562e-06  7.86674055e-01  4.57660562e-06  1.80000000e+00  4.57660562e-06  2.69296797e-05  4.57660562e-06  7.82961690e-01  4.57660562e-06  1.70645022e+00  4.57660562e-06  1.71159567e+00                                 
 5.77660562e-06  8.29631431e-01  5.77660562e-06  7.79269634e-01  5.77660562e-06  7.86789249e-01  5.77660562e-06  1.80000000e+00  5.77660562e-06 -2.69042962e-05  5.77660562e-06  7.82969925e-01  5.77660562e-06  1.70640559e+00  5.77660562e-06  1.71154367e+00                                 
 6.00100000e-06  8.29628710e-01  6.00100000e-06  7.79269510e-01  6.00100000e-06  7.86677506e-01  6.00100000e-06  1.80000000e+00  6.00100000e-06  2.69283555e-05  6.00100000e-06  7.82961687e-01  6.00100000e-06  1.70638969e+00  6.00100000e-06  1.71153530e+00                                 
 6.00110000e-06  8.29597510e-01  6.00110000e-06  7.79044651e-01  6.00110000e-06  7.84637458e-01  6.00110000e-06  1.62000000e+00  6.00110000e-06 -9.51802201e-05  6.00110000e-06  7.81122924e-01  6.00110000e-06  1.70483325e+00  6.00110000e-06  1.71152023e+00                                 
 6.00130000e-06  8.29627424e-01  6.00130000e-06  7.79103137e-01  6.00130000e-06  7.85355192e-01  6.00130000e-06  1.26000000e+00  6.00130000e-06  4.45526909e-05  6.00130000e-06  7.81431598e-01  6.00130000e-06  1.70509728e+00  6.00130000e-06  1.71154306e+00                                 
 6.00170000e-06  8.29657735e-01  6.00170000e-06  7.79149152e-01  6.00170000e-06  7.87453202e-01  6.00170000e-06  5.40000000e-01  6.00170000e-06  1.65020835e-01  6.00170000e-06  7.80581955e-01  6.00170000e-06  1.69642048e+00  6.00170000e-06  1.71148186e+00                                 
 6.00200000e-06  8.29624330e-01  6.00200000e-06  7.76895400e-01  6.00200000e-06  8.33658687e-01  6.00200000e-06  0.00000000e+00  6.00200000e-06  1.62715826e+00  6.00200000e-06  7.52972389e-01  6.00200000e-06  1.49122979e+00  6.00200000e-06  1.71066335e+00                                 
 6.00204935e-06  8.29631843e-01  6.00204935e-06  7.76886245e-01  6.00204935e-06  8.31731767e-01  6.00204935e-06  0.00000000e+00  6.00204935e-06  1.74226360e+00  6.00204935e-06  7.52707132e-01  6.00204935e-06  1.43337460e+00  6.00204935e-06  1.71093140e+00                                 
 6.00214804e-06  8.29629211e-01  6.00214804e-06  7.76945810e-01  6.00214804e-06  8.23954406e-01  6.00214804e-06  0.00000000e+00  6.00214804e-06  1.81572336e+00  6.00214804e-06  7.53452048e-01  6.00214804e-06  1.32233668e+00  6.00214804e-06  1.71142790e+00                                 
 6.00231166e-06  8.29628712e-01  6.00231166e-06  7.77509155e-01  6.00231166e-06  8.11947757e-01  6.00231166e-06  0.00000000e+00  6.00231166e-06  1.78925134e+00  6.00231166e-06  7.60209435e-01  6.00231166e-06  1.18847432e+00  6.00231166e-06  1.71160054e+00                                 
 6.00248397e-06  8.29629651e-01  6.00248397e-06  7.77840898e-01  6.00248397e-06  8.08237220e-01  6.00248397e-06  0.00000000e+00  6.00248397e-06  1.80508228e+00  6.00248397e-06  7.63824357e-01  6.00248397e-06  1.09538482e+00  6.00248397e-06  1.71167264e+00                                 
 6.00270886e-06  8.29628132e-01  6.00270886e-06  7.78157799e-01  6.00270886e-06  8.03269404e-01  6.00270886e-06  0.00000000e+00  6.00270886e-06  1.79604630e+00  6.00270886e-06  7.66839624e-01  6.00270886e-06  1.00198754e+00  6.00270886e-06  1.71175474e+00                                 
 6.00296929e-06  8.29629968e-01  6.00296929e-06  7.78543945e-01  6.00296929e-06  8.00514529e-01  6.00296929e-06  0.00000000e+00  6.00296929e-06  1.80223889e+00  6.00296929e-06  7.70586108e-01  6.00296929e-06  9.19180625e-01  6.00296929e-06  1.71183174e+00                                 
 6.00349016e-06  8.29628512e-01  6.00349016e-06  7.79189376e-01  6.00349016e-06  7.92692929e-01  6.00349016e-06  0.00000000e+00  6.00349016e-06  1.79763569e+00  6.00349016e-06  7.76858879e-01  6.00349016e-06  8.18095890e-01  6.00349016e-06  1.71183633e+00                                 
 6.00408656e-06  8.29630570e-01  6.00408656e-06  7.79738254e-01  6.00408656e-06  7.87324956e-01  6.00408656e-06  0.00000000e+00  6.00408656e-06  1.80193163e+00  6.00408656e-06  7.82756804e-01  6.00408656e-06  7.89471849e-01  6.00408656e-06  1.71161619e+00                                 
 6.00454495e-06  8.29628938e-01  6.00454495e-06  7.79736377e-01  6.00454495e-06  7.87242279e-01  6.00454495e-06  0.00000000e+00  6.00454495e-06  1.79844629e+00  6.00454495e-06  7.82769013e-01  6.00454495e-06  7.87220150e-01  6.00454495e-06  1.71125367e+00                                 
 6.00513662e-06  8.29630837e-01  6.00513662e-06  7.79753638e-01  6.00513662e-06  7.87167282e-01  6.00513662e-06  0.00000000e+00  6.00513662e-06  1.80133567e+00  6.00513662e-06  7.83751181e-01  6.00513662e-06  7.87585256e-01  6.00513662e-06  1.71066109e+00                                 
 6.00584574e-06  8.29629148e-01  6.00584574e-06  7.79625901e-01  6.00584574e-06  7.87932900e-01  6.00584574e-06  0.00000000e+00  6.00584574e-06  1.79883414e+00  6.00584574e-06  7.83245195e-01  6.00584574e-06  7.87367386e-01  6.00584574e-06  1.70982920e+00                                 
 6.00726399e-06  8.29630929e-01  6.00726399e-06  7.79541836e-01  6.00726399e-06  7.88909362e-01  6.00726399e-06  0.00000000e+00  6.00726399e-06  1.80109948e+00  6.00726399e-06  7.83942049e-01  6.00726399e-06  7.89137798e-01  6.00726399e-06  1.70804949e+00                                 
 6.01010048e-06  8.29629200e-01  6.01010048e-06  7.79362501e-01  6.01010048e-06  7.91918411e-01  6.01010048e-06  0.00000000e+00  6.01010048e-06  1.79894310e+00  6.01010048e-06  7.83455657e-01  6.01010048e-06  7.91287246e-01  6.01010048e-06  1.70432699e+00                                 
 6.01577346e-06  8.29630926e-01  6.01577346e-06  7.79315423e-01  6.01577346e-06  7.97706860e-01  6.01577346e-06  0.00000000e+00  6.01577346e-06  1.80104751e+00  6.01577346e-06  7.83952458e-01  6.01577346e-06  7.97876351e-01  6.01577346e-06  1.69692220e+00                                 
 6.02711942e-06  8.29629207e-01  6.02711942e-06  7.79236995e-01  6.02711942e-06  8.10157042e-01  6.02711942e-06  0.00000000e+00  6.02711942e-06  1.79896859e+00  6.02711942e-06  7.83225321e-01  6.02711942e-06  8.09419099e-01  6.02711942e-06  1.68205177e+00                                 
 6.04757314e-06  8.29630926e-01  6.04757314e-06  7.79289402e-01  6.04757314e-06  8.30975674e-01  6.04757314e-06  0.00000000e+00  6.04757314e-06  1.80103412e+00  6.04757314e-06  7.83550614e-01  6.04757314e-06  8.31220929e-01  6.04757314e-06  1.65403666e+00                                 
 6.08848057e-06  8.29629208e-01  6.08848057e-06  7.79246289e-01  6.08848057e-06  8.69639708e-01  6.08848057e-06  0.00000000e+00  6.08848057e-06  1.79897463e+00  6.08848057e-06  7.82788191e-01  6.08848057e-06  8.68352974e-01  6.08848057e-06  1.59484242e+00                                 
