 time            v(vbep)         time            v(vben)         time            v(vout)         time            v(vphi1)        time            v(vphi2)        time            v(vref)         yes             currtemp       
 0.00000000e+00  6.55246436e-01  0.00000000e+00  5.96157969e-01  0.00000000e+00  1.03567361e+00  0.00000000e+00  0.00000000e+00  0.00000000e+00  1.79993116e+00  0.00000000e+00  5.96157969e-01  1.00000000e+00  5.00000000e+01 
 5.00000000e-12  6.55205467e-01  5.00000000e-12  5.96124327e-01  5.00000000e-12  1.03640897e+00  5.00000000e-12  1.80000000e-02  5.00000000e-12  1.80006072e+00  5.00000000e-12  5.96124327e-01                                 
 1.00000000e-11  6.55166090e-01  1.00000000e-11  5.96091771e-01  1.00000000e-11  1.03707768e+00  1.00000000e-11  3.60000000e-02  1.00000000e-11  1.80013950e+00  1.00000000e-11  5.96091771e-01                                 
 2.00000000e-11  6.55088392e-01  2.00000000e-11  5.96026978e-01  2.00000000e-11  1.03830975e+00  2.00000000e-11  7.20000000e-02  2.00000000e-11  1.80022912e+00  2.00000000e-11  5.96026978e-01                                 
 4.00000000e-11  6.54934806e-01  4.00000000e-11  5.95898036e-01  4.00000000e-11  1.04028670e+00  4.00000000e-11  1.44000000e-01  4.00000000e-11  1.80022329e+00  4.00000000e-11  5.95898036e-01                                 
 8.00000000e-11  6.54629496e-01  8.00000000e-11  5.95641623e-01  8.00000000e-11  1.04290712e+00  8.00000000e-11  2.88000000e-01  8.00000000e-11  1.80012428e+00  8.00000000e-11  5.95641623e-01                                 
 1.60000000e-10  6.54027079e-01  1.60000000e-10  5.95134639e-01  1.60000000e-10  1.04503049e+00  1.60000000e-10  5.76000000e-01  1.60000000e-10  1.80001099e+00  1.60000000e-10  5.95134639e-01                                 
 3.20000000e-10  6.52852745e-01  3.20000000e-10  5.94143099e-01  3.20000000e-10  1.03782997e+00  3.20000000e-10  1.15200000e+00  3.20000000e-10  1.80028871e+00  3.20000000e-10  5.94143099e-01                                 
 5.00000000e-10  6.51578321e-01  5.00000000e-10  5.93061876e-01  5.00000000e-10  1.14430660e+00  5.00000000e-10  1.80000000e+00  5.00000000e-10  1.61152624e-01  5.00000000e-10  5.93061876e-01                                 
 5.21657160e-10  6.51428552e-01  5.21657160e-10  5.92934436e-01  5.21657160e-10  1.17124198e+00  5.21657160e-10  1.80000000e+00  5.21657160e-10  4.13925473e-02  5.21657160e-10  5.92934436e-01                                 
 5.64971480e-10  6.51130291e-01  5.64971480e-10  5.92680476e-01  5.64971480e-10  1.22496420e+00  5.64971480e-10  1.80000000e+00  5.64971480e-10 -1.51177094e-02  5.64971480e-10  5.92680476e-01                                 
 6.51600120e-10  6.50541529e-01  6.51600120e-10  5.92178330e-01  6.51600120e-10  1.32182262e+00  6.51600120e-10  1.80000000e+00  6.51600120e-10  1.27694163e-02  6.51600120e-10  5.92178330e-01                                 
 7.72043964e-10  6.49739655e-01  7.72043964e-10  5.91492642e-01  7.72043964e-10  1.43882004e+00  7.72043964e-10  1.80000000e+00  7.72043964e-10 -9.56414539e-03  7.72043964e-10  5.91492642e-01                                 
 9.54597371e-10  6.48559525e-01  9.54597371e-10  5.90479814e-01  9.54597371e-10  1.58179443e+00  9.54597371e-10  1.80000000e+00  9.54597371e-10  9.44729718e-03  9.54597371e-10  5.90479814e-01                                 
 1.31970419e-09  6.46316203e-01  1.31970419e-09  5.88542730e-01  1.31970419e-09  1.75961981e+00  1.31970419e-09  1.80000000e+00  1.31970419e-09 -8.23542882e-03  1.31970419e-09  5.88542730e-01                                 
 1.66411111e-09  6.44331401e-01  1.66411111e-09  5.86815800e-01  1.66411111e-09  1.83637754e+00  1.66411111e-09  1.80000000e+00  1.66411111e-09  8.07428871e-03  1.66411111e-09  5.86815800e-01                                 
 2.04439349e-09  6.42270895e-01  2.04439349e-09  5.85010399e-01  2.04439349e-09  1.86939869e+00  2.04439349e-09  1.80000000e+00  2.04439349e-09 -7.46038521e-03  2.04439349e-09  5.85010399e-01                                 
 2.39249882e-09  6.40493078e-01  2.39249882e-09  5.83442529e-01  2.39249882e-09  1.88003180e+00  2.39249882e-09  1.80000000e+00  2.39249882e-09  7.09454803e-03  2.39249882e-09  5.83442529e-01                                 
 2.90998091e-09  6.38017735e-01  2.90998091e-09  5.81244577e-01  2.90998091e-09  1.88329377e+00  2.90998091e-09  1.80000000e+00  2.90998091e-09 -6.75353760e-03  2.90998091e-09  5.81244577e-01                                 
 3.55771469e-09  6.35166028e-01  3.55771469e-09  5.78691416e-01  3.55771469e-09  1.88226589e+00  3.55771469e-09  1.80000000e+00  3.55771469e-09  6.56548670e-03  3.55771469e-09  5.78691416e-01                                 
 4.66815588e-09  6.30797407e-01  4.66815588e-09  5.74739499e-01  4.66815588e-09  1.87791815e+00  4.66815588e-09  1.80000000e+00  4.66815588e-09 -6.41087223e-03  4.66815588e-09  5.74739499e-01                                 
 6.37337970e-09  6.25078713e-01  6.37337970e-09  5.69496223e-01  6.37337970e-09  1.87271302e+00  6.37337970e-09  1.80000000e+00  6.37337970e-09  6.35714385e-03  6.37337970e-09  5.69496223e-01                                 
 9.78382733e-09  6.16025746e-01  9.78382733e-09  5.61055031e-01  9.78382733e-09  1.86389621e+00  9.78382733e-09  1.80000000e+00  9.78382733e-09 -6.28452491e-03  9.78382733e-09  5.61055031e-01                                 
 1.18923420e-08  6.11592983e-01  1.18923420e-08  5.56855711e-01  1.18923420e-08  1.86006154e+00  1.18923420e-08  1.80000000e+00  1.18923420e-08  6.25043772e-03  1.18923420e-08  5.56855711e-01                                 
 1.34255729e-08  6.08746043e-01  1.34255729e-08  5.54139982e-01  1.34255729e-08  1.85715492e+00  1.34255729e-08  1.80000000e+00  1.34255729e-08 -6.13712537e-03  1.34255729e-08  5.54139982e-01                                 
 1.49761001e-08  6.06122096e-01  1.49761001e-08  5.51625317e-01  1.49761001e-08  1.85505294e+00  1.49761001e-08  1.80000000e+00  1.49761001e-08  6.07758364e-03  1.49761001e-08  5.51625317e-01                                 
 1.67237348e-08  6.03420497e-01  1.67237348e-08  5.49025303e-01  1.67237348e-08  1.85231363e+00  1.67237348e-08  1.80000000e+00  1.67237348e-08 -5.97940160e-03  1.67237348e-08  5.49025303e-01                                 
 1.87016063e-08  6.00636000e-01  1.87016063e-08  5.46334664e-01  1.87016063e-08  1.85009716e+00  1.87016063e-08  1.80000000e+00  1.87016063e-08  5.93821861e-03  1.87016063e-08  5.46334664e-01                                 
 2.10187781e-08  5.97678462e-01  2.10187781e-08  5.43465629e-01  2.10187781e-08  1.84716731e+00  2.10187781e-08  1.80000000e+00  2.10187781e-08 -5.86023059e-03  2.10187781e-08  5.43465629e-01                                 
 2.45015609e-08  5.93723968e-01  2.45015609e-08  5.39613529e-01  2.45015609e-08  1.84395691e+00  2.45015609e-08  1.80000000e+00  2.45015609e-08  5.84762293e-03  2.45015609e-08  5.39613529e-01                                 
 2.85050052e-08  5.89751132e-01  2.85050052e-08  5.35727249e-01  2.85050052e-08  1.84025941e+00  2.85050052e-08  1.80000000e+00  2.85050052e-08 -5.79276006e-03  2.85050052e-08  5.35727249e-01                                 
 3.48288719e-08  5.84387059e-01  3.48288719e-08  5.30457896e-01  3.48288719e-08  1.83600605e+00  3.48288719e-08  1.80000000e+00  3.48288719e-08  5.79731818e-03  3.48288719e-08  5.30457896e-01                                 
 4.43752297e-08  5.77793159e-01  4.43752297e-08  5.23945752e-01  4.43752297e-08  1.83031885e+00  4.43752297e-08  1.80000000e+00  4.43752297e-08 -5.75969932e-03  4.43752297e-08  5.23945752e-01                                 
 6.34679454e-08  5.67857017e-01  6.34679454e-08  5.14068580e-01  6.34679454e-08  1.82067358e+00  6.34679454e-08  1.80000000e+00  6.34679454e-08  5.77853220e-03  6.34679454e-08  5.14068580e-01                                 
 8.52123822e-08  5.59070720e-01  8.52123822e-08  5.05409473e-01  8.52123822e-08  1.80001378e+00  8.52123822e-08  1.80000000e+00  8.52123822e-08 -5.74779261e-03  8.52123822e-08  5.05409473e-01                                 
 1.13160631e-07  5.45991022e-01  1.13160631e-07  4.93391194e-01  1.13160631e-07  1.76964239e+00  1.13160631e-07  1.80000000e+00  1.13160631e-07  5.76823564e-03  1.13160631e-07  4.93391194e-01                                 
 1.32965176e-07  5.36369699e-01  1.32965176e-07  4.84836493e-01  1.32965176e-07  1.74301991e+00  1.32965176e-07  1.80000000e+00  1.32965176e-07 -5.73764861e-03  1.32965176e-07  4.84836493e-01                                 
 1.56568446e-07  5.26918533e-01  1.56568446e-07  4.76415820e-01  1.56568446e-07  1.70302018e+00  1.56568446e-07  1.80000000e+00  1.56568446e-07  5.75675566e-03  1.56568446e-07  4.76415820e-01                                 
 1.79924150e-07  5.21294929e-01  1.79924150e-07  4.71171434e-01  1.79924150e-07  1.67015091e+00  1.79924150e-07  1.80000000e+00  1.79924150e-07 -5.72655197e-03  1.79924150e-07  4.71171434e-01                                 
 2.04760701e-07  5.25805469e-01  2.04760701e-07  4.73970312e-01  2.04760701e-07  1.66854992e+00  2.04760701e-07  1.80000000e+00  2.04760701e-07  5.74941706e-03  2.04760701e-07  4.73970312e-01                                 
 2.23589040e-07  5.27375722e-01  2.23589040e-07  4.74665512e-01  2.23589040e-07  1.65278681e+00  2.23589040e-07  1.80000000e+00  2.23589040e-07 -5.71658268e-03  2.23589040e-07  4.74665512e-01                                 
 2.43101894e-07  5.23995041e-01  2.43101894e-07  4.71466871e-01  2.43101894e-07  1.62789452e+00  2.43101894e-07  1.80000000e+00  2.43101894e-07  5.73564308e-03  2.43101894e-07  4.71466871e-01                                 
 2.61150055e-07  5.21393720e-01  2.61150055e-07  4.68960357e-01  2.61150055e-07  1.60597387e+00  2.61150055e-07  1.80000000e+00  2.61150055e-07 -5.70365347e-03  2.61150055e-07  4.68960357e-01                                 
 2.80603639e-07  5.17077285e-01  2.80603639e-07  4.65096483e-01  2.80603639e-07  1.58371519e+00  2.80603639e-07  1.80000000e+00  2.80603639e-07  5.72265286e-03  2.80603639e-07  4.65096483e-01                                 
 3.15803611e-07  5.08217354e-01  3.15803611e-07  4.57358269e-01  3.15803611e-07  1.53824767e+00  3.15803611e-07  1.80000000e+00  3.15803611e-07 -5.69437834e-03  3.15803611e-07  4.57358269e-01                                 
 3.63428273e-07  4.96686813e-01  3.63428273e-07  4.47401351e-01  3.63428273e-07  1.47972850e+00  3.63428273e-07  1.80000000e+00  3.63428273e-07  5.71684200e-03  3.63428273e-07  4.47401351e-01                                 
 4.58677598e-07  4.71947923e-01  4.58677598e-07  4.26568703e-01  4.58677598e-07  1.35610920e+00  4.58677598e-07  1.80000000e+00  4.58677598e-07 -5.69060999e-03  4.58677598e-07  4.26568703e-01                                 
 6.25178803e-07  4.20195348e-01  6.25178803e-07  3.84289158e-01  6.25178803e-07  1.13472164e+00  6.25178803e-07  1.80000000e+00  6.25178803e-07  5.71477141e-03  6.25178803e-07  3.84289158e-01                                 
 6.54776032e-07  4.06942017e-01  6.54776032e-07  3.73647962e-01  6.54776032e-07  1.09057865e+00  6.54776032e-07  1.80000000e+00  6.54776032e-07  1.37398388e-06  6.54776032e-07  3.73647962e-01                                 
 7.13970492e-07  4.02375133e-01  7.13970492e-07  3.69975404e-01  7.13970492e-07  1.02709825e+00  7.13970492e-07  1.80000000e+00  7.13970492e-07  7.50248969e-07  7.13970492e-07  3.69975404e-01                                 
 7.28769107e-07  4.21554071e-01  7.28769107e-07  3.85344039e-01  7.28769107e-07  1.03102116e+00  7.28769107e-07  1.80000000e+00  7.28769107e-07  3.47783729e-06  7.28769107e-07  3.85344039e-01                                 
 7.58366336e-07  5.34755279e-01  7.58366336e-07  4.75955397e-01  7.58366336e-07  1.10937655e+00  7.58366336e-07  1.80000000e+00  7.58366336e-07  1.27704128e-05  7.58366336e-07  4.75955397e-01                                 
 7.65765644e-07  5.95622964e-01  7.65765644e-07  5.26598941e-01  7.65765644e-07  1.15996378e+00  7.65765644e-07  1.80000000e+00  7.65765644e-07  1.73361003e-05  7.65765644e-07  5.26598941e-01                                 
 7.80564259e-07  6.73775630e-01  7.80564259e-07  6.08311877e-01  7.80564259e-07  1.22115183e+00  7.80564259e-07  1.80000000e+00  7.80564259e-07  1.05164047e-05  7.80564259e-07  6.08311877e-01                                 
 8.10161488e-07  7.29543229e-01  8.10161488e-07  6.67532402e-01  8.10161488e-07  1.24396929e+00  8.10161488e-07  1.80000000e+00  8.10161488e-07  1.62094968e-06  8.10161488e-07  6.67532402e-01                                 
 8.51436236e-07  7.69192980e-01  8.51436236e-07  7.01690845e-01  8.51436236e-07  1.23833493e+00  8.51436236e-07  1.80000000e+00  8.51436236e-07  5.27207812e-06  8.51436236e-07  7.01690845e-01                                 
 8.92585731e-07  7.72332936e-01  8.92585731e-07  7.04552368e-01  8.92585731e-07  1.19876871e+00  8.92585731e-07  1.80000000e+00  8.92585731e-07 -2.56555768e-06  8.92585731e-07  7.04552368e-01                                 
 8.97798215e-07  7.72019023e-01  8.97798215e-07  7.04176608e-01  8.97798215e-07  1.19279475e+00  8.97798215e-07  1.80000000e+00  8.97798215e-07  9.33559215e-07  8.97798215e-07  7.04176608e-01                                 
 9.08223182e-07  7.71996743e-01  9.08223182e-07  7.04127620e-01  9.08223182e-07  1.18172514e+00  9.08223182e-07  1.80000000e+00  9.08223182e-07  1.33343621e-06  9.08223182e-07  7.04127620e-01                                 
 9.29073117e-07  7.72069622e-01  9.29073117e-07  7.04211960e-01  9.29073117e-07  1.16001779e+00  9.29073117e-07  1.80000000e+00  9.29073117e-07  9.99905707e-07  9.29073117e-07  7.04211960e-01                                 
 9.58626503e-07  7.71996399e-01  9.58626503e-07  7.04130369e-01  9.58626503e-07  1.12900560e+00  9.58626503e-07  1.80000000e+00  9.58626503e-07  1.29960230e-06  9.58626503e-07  7.04130369e-01                                 
 1.00082661e-06  7.70953388e-01  1.00082661e-06  7.03307965e-01  1.00082661e-06  1.08448540e+00  1.00082661e-06  1.80000000e+00  1.00082661e-06  9.29833222e-07  1.00082661e-06  7.03307965e-01                                 
 1.00688273e-06  7.69112361e-01  1.00688273e-06  7.01811728e-01  1.00688273e-06  1.07663949e+00  1.00688273e-06  1.80000000e+00  1.00688273e-06  4.81298563e-07  1.00688273e-06  7.01811728e-01                                 
 1.01899498e-06  7.61425173e-01  1.01899498e-06  6.95466335e-01  1.01899498e-06  1.05735415e+00  1.01899498e-06  1.80000000e+00  1.01899498e-06 -1.05042250e-06  1.01899498e-06  6.95466335e-01                                 
 1.04321947e-06  7.42373049e-01  1.04321947e-06  6.78894152e-01  1.04321947e-06  1.01573251e+00  1.04321947e-06  1.80000000e+00  1.04321947e-06 -2.76685717e-07  1.04321947e-06  6.78894152e-01                                 
 1.07014946e-06  7.32111515e-01  1.07014946e-06  6.69572764e-01  1.07014946e-06  9.82061055e-01  1.07014946e-06  1.80000000e+00  1.07014946e-06  9.75947185e-07  1.07014946e-06  6.69572764e-01                                 
 1.11098662e-06  7.38693144e-01  1.11098662e-06  6.75526584e-01  1.11098662e-06  9.55197261e-01  1.11098662e-06  1.80000000e+00  1.11098662e-06  2.43197934e-06  1.11098662e-06  6.75526584e-01                                 
 1.15386543e-06  7.55454429e-01  1.15386543e-06  6.90319438e-01  1.15386543e-06  9.38330612e-01  1.15386543e-06  1.80000000e+00  1.15386543e-06  2.12441899e-06  1.15386543e-06  6.90319438e-01                                 
 1.21352620e-06  7.56607872e-01  1.21352620e-06  6.91337207e-01  1.21352620e-06  8.98788473e-01  1.21352620e-06  1.80000000e+00  1.21352620e-06  7.66903468e-07  1.21352620e-06  6.91337207e-01                                 
 1.27710180e-06  7.47167285e-01  1.27710180e-06  6.83123011e-01  1.27710180e-06  8.50612719e-01  1.27710180e-06  1.80000000e+00  1.27710180e-06  1.42215391e-06  1.27710180e-06  6.83123011e-01                                 
 1.37624023e-06  7.48532286e-01  1.37624023e-06  6.84318364e-01  1.37624023e-06  7.94204695e-01  1.37624023e-06  1.80000000e+00  1.37624023e-06  1.59084818e-06  1.37624023e-06  6.84318364e-01                                 
 1.47523531e-06  7.55517819e-01  1.47523531e-06  6.90385936e-01  1.47523531e-06  7.49959546e-01  1.47523531e-06  1.80000000e+00  1.47523531e-06  1.77629873e-06  1.47523531e-06  6.90385936e-01                                 
 1.61659515e-06  7.46151936e-01  1.61659515e-06  6.82235977e-01  1.61659515e-06  6.95800796e-01  1.61659515e-06  1.80000000e+00  1.61659515e-06  1.15950202e-06  1.61659515e-06  6.82235977e-01                                 
 1.77057648e-06  7.52700459e-01  1.77057648e-06  6.87943878e-01  1.77057648e-06  6.81471945e-01  1.77057648e-06  1.80000000e+00  1.77057648e-06  2.41887280e-06  1.77057648e-06  6.87943878e-01                                 
 1.94041881e-06  7.50592229e-01  1.94041881e-06  6.86142094e-01  1.94041881e-06  6.76202765e-01  1.94041881e-06  1.80000000e+00  1.94041881e-06  1.00238262e-06  1.94041881e-06  6.86142094e-01                                 
 2.13041636e-06  7.49140204e-01  2.13041636e-06  6.84839350e-01  2.13041636e-06  6.87334200e-01  2.13041636e-06  1.80000000e+00  2.13041636e-06  2.50086183e-06  2.13041636e-06  6.84839350e-01                                 
 2.31722677e-06  7.53078849e-01  2.31722677e-06  6.88299512e-01  2.31722677e-06  6.89415841e-01  2.31722677e-06  1.80000000e+00  2.31722677e-06  1.07419200e-06  2.31722677e-06  6.88299512e-01                                 
 2.34090764e-06  7.51121151e-01  2.34090764e-06  6.86591244e-01  2.34090764e-06  6.86286061e-01  2.34090764e-06  1.80000000e+00  2.34090764e-06  1.53946800e-06  2.34090764e-06  6.86591244e-01                                 
 2.38826938e-06  7.49250730e-01  2.38826938e-06  6.84951899e-01  2.38826938e-06  6.83817036e-01  2.38826938e-06  1.80000000e+00  2.38826938e-06  1.76364994e-06  2.38826938e-06  6.84951899e-01                                 
 2.48299287e-06  7.51093632e-01  2.48299287e-06  6.86560911e-01  2.48299287e-06  6.86779272e-01  2.48299287e-06  1.80000000e+00  2.48299287e-06  1.82148776e-06  2.48299287e-06  6.86560911e-01                                 
 2.66355077e-06  7.50789061e-01  2.66355077e-06  6.86299136e-01  2.66355077e-06  6.86495234e-01  2.66355077e-06  1.80000000e+00  2.66355077e-06  1.65937860e-06  2.66355077e-06  6.86299136e-01                                 
 2.85390453e-06  7.50109086e-01  2.85390453e-06  6.85702021e-01  2.85390453e-06  6.85738876e-01  2.85390453e-06  1.80000000e+00  2.85390453e-06  1.81267677e-06  2.85390453e-06  6.85702021e-01                                 
 3.23461204e-06  7.51321893e-01  3.23461204e-06  6.86762460e-01  3.23461204e-06  6.87005781e-01  3.23461204e-06  1.80000000e+00  3.23461204e-06  1.69029223e-06  3.23461204e-06  6.86762460e-01                                 
 3.87655414e-06  7.49923347e-01  3.87655414e-06  6.85540309e-01  3.87655414e-06  6.85571962e-01  3.87655414e-06  1.80000000e+00  3.87655414e-06  1.78830281e-06  3.87655414e-06  6.85540309e-01                                 
 4.87655414e-06  7.51396075e-01  4.87655414e-06  6.86826773e-01  4.87655414e-06  6.87069267e-01  4.87655414e-06  1.80000000e+00  4.87655414e-06  1.70684223e-06  4.87655414e-06  6.86826773e-01                                 
 5.87655414e-06  7.49884779e-01  5.87655414e-06  6.85506871e-01  5.87655414e-06  6.85540927e-01  5.87655414e-06  1.80000000e+00  5.87655414e-06  1.77479582e-06  5.87655414e-06  6.85506871e-01                                 
 6.87655414e-06  7.51417276e-01  6.87655414e-06  6.86844828e-01  6.87655414e-06  6.87083674e-01  6.87655414e-06  1.80000000e+00  6.87655414e-06  1.72060686e-06  6.87655414e-06  6.86844828e-01                                 
