 time            v(vbep)         time            v(vben)         time            v(vout)         time            v(vphi1)        time            v(vphi2)        time            v(vref)         time            v(voutc)        time            v(voutcc)       yes             currtemp       
 0.00000000e+00  7.35621403e-01  0.00000000e+00  6.69257694e-01  0.00000000e+00  1.52303580e+00  0.00000000e+00  0.00000000e+00  0.00000000e+00  1.79999999e+00  0.00000000e+00  6.70472685e-01  0.00000000e+00  1.52303579e+00  0.00000000e+00  1.53033621e+00  1.00000000e+00  5.90000000e+01 
 5.00000000e-12  7.35643106e-01  5.00000000e-12  6.69311916e-01  5.00000000e-12  1.52365405e+00  5.00000000e-12  1.80000000e-02  5.00000000e-12  1.80018580e+00  5.00000000e-12  6.70864010e-01  5.00000000e-12  1.52338347e+00  5.00000000e-12  1.53034893e+00                                 
 1.00000000e-11  7.35652635e-01  1.00000000e-11  6.69347549e-01  1.00000000e-11  1.52409688e+00  1.00000000e-11  3.60000000e-02  1.00000000e-11  1.80026972e+00  1.00000000e-11  6.71171125e-01  1.00000000e-11  1.52365761e+00  1.00000000e-11  1.53035546e+00                                 
 2.00000000e-11  7.35658983e-01  2.00000000e-11  6.69397005e-01  2.00000000e-11  1.52473042e+00  2.00000000e-11  7.20000000e-02  2.00000000e-11  1.80032256e+00  2.00000000e-11  6.71651451e-01  2.00000000e-11  1.52408952e+00  2.00000000e-11  1.53036127e+00                                 
 4.00000000e-11  7.35646989e-01  4.00000000e-11  6.69432684e-01  4.00000000e-11  1.52513671e+00  4.00000000e-11  1.44000000e-01  4.00000000e-11  1.80019084e+00  4.00000000e-11  6.72112523e-01  4.00000000e-11  1.52451780e+00  4.00000000e-11  1.53035469e+00                                 
 8.00000000e-11  7.35633735e-01  8.00000000e-11  6.69438117e-01  8.00000000e-11  1.52499183e+00  8.00000000e-11  2.88000000e-01  8.00000000e-11  1.80003061e+00  8.00000000e-11  6.72252729e-01  8.00000000e-11  1.52467892e+00  8.00000000e-11  1.53034037e+00                                 
 1.60000000e-10  7.35634059e-01  1.60000000e-10  6.69424638e-01  1.60000000e-10  1.52449894e+00  1.60000000e-10  5.76000000e-01  1.60000000e-10  1.80000860e+00  1.60000000e-10  6.72055911e-01  1.60000000e-10  1.52453198e+00  1.60000000e-10  1.53033476e+00                                 
 3.20000000e-10  7.35566635e-01  3.20000000e-10  6.68981737e-01  3.20000000e-10  1.52088379e+00  3.20000000e-10  1.15200000e+00  3.20000000e-10  1.80073124e+00  3.20000000e-10  6.68225420e-01  3.20000000e-10  1.52140704e+00  3.20000000e-10  1.53030526e+00                                 
 5.00000000e-10  7.35633932e-01  5.00000000e-10  6.69477843e-01  5.00000000e-10  1.51799975e+00  5.00000000e-10  1.80000000e+00  5.00000000e-10  1.69395255e-01  5.00000000e-10  6.75270233e-01  5.00000000e-10  1.52751387e+00  5.00000000e-10  1.53039992e+00                                 
 5.21379312e-10  7.35637490e-01  5.21379312e-10  6.69506386e-01  5.21379312e-10  1.51731940e+00  5.21379312e-10  1.80000000e+00  5.21379312e-10  4.61335194e-02  5.21379312e-10  6.76938225e-01  5.21379312e-10  1.52844478e+00  5.21379312e-10  1.53038777e+00                                 
 5.64137937e-10  7.35723982e-01  5.64137937e-10  6.69567046e-01  5.64137937e-10  1.51664545e+00  5.64137937e-10  1.80000000e+00  5.64137937e-10 -1.61215460e-02  5.64137937e-10  6.79239928e-01  5.64137937e-10  1.53040291e+00  5.64137937e-10  1.53038269e+00                                 
 6.49655185e-10  7.35841088e-01  6.49655185e-10  6.69400538e-01  6.49655185e-10  1.51361031e+00  6.49655185e-10  1.80000000e+00  6.49655185e-10  1.25053857e-02  6.49655185e-10  6.79057734e-01  6.49655185e-10  1.53047271e+00  6.49655185e-10  1.53033195e+00                                 
 7.69332026e-10  7.35892509e-01  7.69332026e-10  6.69357585e-01  7.69332026e-10  1.51179520e+00  7.69332026e-10  1.80000000e+00  7.69332026e-10 -9.80753371e-03  7.69332026e-10  6.80407859e-01  7.69332026e-10  1.53148334e+00  7.69332026e-10  1.53035230e+00                                 
 9.47643043e-10  7.35956376e-01  9.47643043e-10  6.69324651e-01  9.47643043e-10  1.51055336e+00  9.47643043e-10  1.80000000e+00  9.47643043e-10  8.88078170e-03  9.47643043e-10  6.81200708e-01  9.47643043e-10  1.53233438e+00  9.47643043e-10  1.53032674e+00                                 
 1.30426508e-09  7.35913909e-01  1.30426508e-09  6.69250412e-01  1.30426508e-09  1.50857124e+00  1.30426508e-09  1.80000000e+00  1.30426508e-09 -8.09574401e-03  1.30426508e-09  6.80708325e-01  1.30426508e-09  1.53177320e+00  1.30426508e-09  1.53036281e+00                                 
 1.69785709e-09  7.35852939e-01  1.69785709e-09  6.69269243e-01  1.69785709e-09  1.50726940e+00  1.69785709e-09  1.80000000e+00  1.69785709e-09  7.71945317e-03  1.69785709e-09  6.80260741e-01  1.69785709e-09  1.53150923e+00  1.69785709e-09  1.53042411e+00                                 
 2.34706255e-09  7.35715038e-01  2.34706255e-09  6.69228792e-01  2.34706255e-09  1.50429788e+00  2.34706255e-09  1.80000000e+00  2.34706255e-09 -7.40267458e-03  2.34706255e-09  6.78509278e-01  2.34706255e-09  1.52985089e+00  2.34706255e-09  1.53057595e+00                                 
 3.09099780e-09  7.35648733e-01  3.09099780e-09  6.69258983e-01  3.09099780e-09  1.50144039e+00  3.09099780e-09  1.80000000e+00  3.09099780e-09  7.17926645e-03  3.09099780e-09  6.77387863e-01  3.09099780e-09  1.52898421e+00  3.09099780e-09  1.53075293e+00                                 
 4.21109409e-09  7.35578487e-01  4.21109409e-09  6.69223867e-01  4.21109409e-09  1.49604264e+00  4.21109409e-09  1.80000000e+00  4.21109409e-09 -7.02199114e-03  4.21109409e-09  6.74977366e-01  4.21109409e-09  1.52675788e+00  4.21109409e-09  1.53099084e+00                                 
 5.80698902e-09  7.35569937e-01  5.80698902e-09  6.69260483e-01  5.80698902e-09  1.48900263e+00  5.80698902e-09  1.80000000e+00  5.80698902e-09  6.92848440e-03  5.80698902e-09  6.73127545e-01  5.80698902e-09  1.52525468e+00  5.80698902e-09  1.53122191e+00                                 
 8.99877888e-09  7.35552492e-01  8.99877888e-09  6.69234952e-01  8.99877888e-09  1.47277528e+00  8.99877888e-09  1.80000000e+00  8.99877888e-09 -6.85892684e-03  8.99877888e-09  6.70040560e-01  8.99877888e-09  1.52244871e+00  8.99877888e-09  1.53135334e+00                                 
 1.19829228e-08  7.35586984e-01  1.19829228e-08  6.69273275e-01  1.19829228e-08  1.45653519e+00  1.19829228e-08  1.80000000e+00  1.19829228e-08  6.82940638e-03  1.19829228e-08  6.69434330e-01  1.19829228e-08  1.52202868e+00  1.19829228e-08  1.53122522e+00                                 
 1.43890098e-08  7.35585852e-01  1.43890098e-08  6.69240527e-01  1.43890098e-08  1.44178858e+00  1.43890098e-08  1.80000000e+00  1.43890098e-08 -6.73620960e-03  1.43890098e-08  6.68753784e-01  1.43890098e-08  1.52131732e+00  1.43890098e-08  1.53105124e+00                                 
 1.71340978e-08  7.35613799e-01  1.71340978e-08  6.69275020e-01  1.71340978e-08  1.42489222e+00  1.71340978e-08  1.80000000e+00  1.71340978e-08  6.70664149e-03  1.71340978e-08  6.69121593e-01  1.71340978e-08  1.52173960e+00  1.71340978e-08  1.53084520e+00                                 
 2.05673531e-08  7.35609348e-01  2.05673531e-08  6.69241081e-01  2.05673531e-08  1.40214339e+00  2.05673531e-08  1.80000000e+00  2.05673531e-08 -6.63226171e-03  2.05673531e-08  6.68849993e-01  2.05673531e-08  1.52138267e+00  2.05673531e-08  1.53060442e+00                                 
 2.51233024e-08  7.35631595e-01  2.51233024e-08  6.69275159e-01  2.51233024e-08  1.37184242e+00  2.51233024e-08  1.80000000e+00  2.51233024e-08  6.62741768e-03  2.51233024e-08  6.69531094e-01  2.51233024e-08  1.52207501e+00  2.51233024e-08  1.53035262e+00                                 
 3.07701851e-08  7.35619407e-01  3.07701851e-08  6.69241026e-01  3.07701851e-08  1.33279529e+00  3.07701851e-08  1.80000000e+00  3.07701851e-08 -6.57050422e-03  3.07701851e-08  6.69444607e-01  3.07701851e-08  1.52188270e+00  3.07701851e-08  1.53013480e+00                                 
 3.88917605e-08  7.35633697e-01  3.88917605e-08  6.69275030e-01  3.88917605e-08  1.27694839e+00  3.88917605e-08  1.80000000e+00  3.88917605e-08  6.58112892e-03  3.88917605e-08  6.70187352e-01  3.88917605e-08  1.52263380e+00  3.88917605e-08  1.52997310e+00                                 
 5.08232957e-08  7.35616651e-01  5.08232957e-08  6.69240767e-01  5.08232957e-08  1.19397358e+00  5.08232957e-08  1.80000000e+00  5.08232957e-08 -6.53865038e-03  5.08232957e-08  6.70052134e-01  5.08232957e-08  1.52240758e+00  5.08232957e-08  1.52990500e+00                                 
 7.18364352e-08  7.35629342e-01  7.18364352e-08  6.69274770e-01  7.18364352e-08  1.04956367e+00  7.18364352e-08  1.80000000e+00  7.18364352e-08  6.56107094e-03  7.18364352e-08  6.70635436e-01  7.18364352e-08  1.52302819e+00  7.18364352e-08  1.52996435e+00                                 
 1.03717109e-07  7.35613164e-01  1.03717109e-07  6.69240574e-01  1.03717109e-07  8.36680118e-01  1.03717109e-07  1.80000000e+00  1.03717109e-07 -6.52614875e-03  1.03717109e-07  6.70266266e-01  1.03717109e-07  1.52260149e+00  1.03717109e-07  1.53007394e+00                                 
 1.34842796e-07  7.35631621e-01  1.34842796e-07  6.69274828e-01  1.34842796e-07  6.98786927e-01  1.34842796e-07  1.80000000e+00  1.34842796e-07  6.55498565e-03  1.34842796e-07  6.70675299e-01  1.34842796e-07  1.52306569e+00  1.34842796e-07  1.53012026e+00                                 
 1.59258101e-07  7.35612044e-01  1.59258101e-07  6.69240768e-01  1.59258101e-07  6.71148747e-01  1.59258101e-07  1.80000000e+00  1.59258101e-07 -6.51209278e-03  1.59258101e-07  6.70276665e-01  1.59258101e-07  1.52260978e+00  1.59258101e-07  1.53012945e+00                                 
 1.81360190e-07  7.35628365e-01  1.81360190e-07  6.69274392e-01  1.81360190e-07  6.71999512e-01  1.81360190e-07  1.80000000e+00  1.81360190e-07  6.54268538e-03  1.81360190e-07  6.70674825e-01  1.81360190e-07  1.52306392e+00  1.81360190e-07  1.53013665e+00                                 
 2.01102335e-07  7.35614007e-01  2.01102335e-07  6.69241004e-01  2.01102335e-07  6.71501281e-01  2.01102335e-07  1.80000000e+00  2.01102335e-07 -6.49791735e-03  2.01102335e-07  6.70271149e-01  2.01102335e-07  1.52260372e+00  2.01102335e-07  1.53013334e+00                                 
 2.22525407e-07  7.35628760e-01  2.22525407e-07  6.69274351e-01  2.22525407e-07  6.71946401e-01  2.22525407e-07  1.80000000e+00  2.22525407e-07  6.52820438e-03  2.22525407e-07  6.70674379e-01  2.22525407e-07  1.52306196e+00  2.22525407e-07  1.53013582e+00                                 
 2.65371553e-07  7.35614028e-01  2.65371553e-07  6.69241021e-01  2.65371553e-07  6.71498568e-01  2.65371553e-07  1.80000000e+00  2.65371553e-07 -6.48743516e-03  2.65371553e-07  6.70270883e-01  2.65371553e-07  1.52260133e+00  2.65371553e-07  1.53013113e+00                                 
 3.51063844e-07  7.35628781e-01  3.51063844e-07  6.69274352e-01  3.51063844e-07  6.71934739e-01  3.51063844e-07  1.80000000e+00  3.51063844e-07  6.52297772e-03  3.51063844e-07  6.70674371e-01  3.51063844e-07  1.52305745e+00  3.51063844e-07  1.53013131e+00                                 
 5.22448426e-07  7.35614023e-01  5.22448426e-07  6.69241020e-01  5.22448426e-07  6.71502598e-01  5.22448426e-07  1.80000000e+00  5.22448426e-07 -6.48486262e-03  5.22448426e-07  6.70270880e-01  5.22448426e-07  1.52259245e+00  5.22448426e-07  1.53012222e+00                                 
 8.65217590e-07  7.35628783e-01  8.65217590e-07  6.69274353e-01  8.65217590e-07  6.71932816e-01  8.65217590e-07  1.80000000e+00  8.65217590e-07  6.52167789e-03  8.65217590e-07  6.70674372e-01  8.65217590e-07  1.52303964e+00  8.65217590e-07  1.53011354e+00                                 
 1.55075592e-06  7.35614022e-01  1.55075592e-06  6.69241019e-01  1.55075592e-06  6.71503505e-01  1.55075592e-06  1.80000000e+00  1.55075592e-06 -6.48421962e-03  1.55075592e-06  6.70270880e-01  1.55075592e-06  1.52255686e+00  1.55075592e-06  1.53008668e+00                                 
 2.55075592e-06  7.35628784e-01  2.55075592e-06  6.69274353e-01  2.55075592e-06  6.71932297e-01  2.55075592e-06  1.80000000e+00  2.55075592e-06  6.52133134e-03  2.55075592e-06  6.70674372e-01  2.55075592e-06  1.52298128e+00  2.55075592e-06  1.53005526e+00                                 
 3.55075592e-06  7.35614022e-01  3.55075592e-06  6.69241019e-01  3.55075592e-06  6.71503906e-01  3.55075592e-06  1.80000000e+00  3.55075592e-06 -6.48409616e-03  3.55075592e-06  6.70270880e-01  3.55075592e-06  1.52248762e+00  3.55075592e-06  1.53001753e+00                                 
 4.55075592e-06  7.35628784e-01  4.55075592e-06  6.69274353e-01  4.55075592e-06  6.71931881e-01  4.55075592e-06  1.80000000e+00  4.55075592e-06  6.52104172e-03  4.55075592e-06  6.70674372e-01  4.55075592e-06  1.52291205e+00  4.55075592e-06  1.52998612e+00                                 
 5.55075592e-06  7.35614022e-01  5.55075592e-06  6.69241019e-01  5.55075592e-06  6.71504306e-01  5.55075592e-06  1.80000000e+00  5.55075592e-06 -6.48380223e-03  5.55075592e-06  6.70270880e-01  5.55075592e-06  1.52241838e+00  5.55075592e-06  1.52994838e+00                                 
 6.55075592e-06  7.35628784e-01  6.55075592e-06  6.69274353e-01  6.55075592e-06  6.71931473e-01  6.55075592e-06  1.80000000e+00  6.55075592e-06  6.52074474e-03  6.55075592e-06  6.70674373e-01  6.55075592e-06  1.52284281e+00  6.55075592e-06  1.52991699e+00                                 
 7.55075592e-06  7.35614021e-01  7.55075592e-06  6.69241019e-01  7.55075592e-06  6.71504700e-01  7.55075592e-06  1.80000000e+00  7.55075592e-06 -6.48350831e-03  7.55075592e-06  6.70270880e-01  7.55075592e-06  1.52234915e+00  7.55075592e-06  1.52987924e+00                                 
 8.55075592e-06  7.35628785e-01  8.55075592e-06  6.69274353e-01  8.55075592e-06  6.71931069e-01  8.55075592e-06  1.80000000e+00  8.55075592e-06  6.52044777e-03  8.55075592e-06  6.70674373e-01  8.55075592e-06  1.52277356e+00  8.55075592e-06  1.52984783e+00                                 
 9.55075592e-06  7.35614021e-01  9.55075592e-06  6.69241019e-01  9.55075592e-06  6.71505089e-01  9.55075592e-06  1.80000000e+00  9.55075592e-06 -6.48321441e-03  9.55075592e-06  6.70270880e-01  9.55075592e-06  1.52227991e+00  9.55075592e-06  1.52981010e+00                                 
 1.00005000e-05  7.35628785e-01  1.00005000e-05  6.69274354e-01  1.00005000e-05  6.71930427e-01  1.00005000e-05  1.80000000e+00  1.00005000e-05  6.51997189e-03  1.00005000e-05  6.70674373e-01  1.00005000e-05  1.52272339e+00  1.00005000e-05  1.52979774e+00                                 
 1.00005500e-05  7.35585730e-01  1.00005500e-05  6.69068181e-01  1.00005500e-05  6.70041410e-01  1.00005500e-05  1.62000000e+00  1.00005500e-05  5.76312181e-04  1.00005500e-05  6.68976254e-01  1.00005500e-05  1.52118730e+00  1.00005500e-05  1.52977748e+00                                 
 1.00006500e-05  7.35609049e-01  1.00006500e-05  6.69039938e-01  1.00006500e-05  6.69972084e-01  1.00006500e-05  1.26000000e+00  1.00006500e-05 -5.11263061e-04  1.00006500e-05  6.68569494e-01  1.00006500e-05  1.52082284e+00  1.00006500e-05  1.52979810e+00                                 
 1.00008500e-05  7.35659623e-01  1.00008500e-05  6.69225869e-01  1.00008500e-05  6.72180335e-01  1.00008500e-05  5.40000000e-01  1.00008500e-05 -6.00671213e-04  1.00008500e-05  6.69363168e-01  1.00008500e-05  1.51986214e+00  1.00008500e-05  1.52978678e+00                                 
 1.00010000e-05  7.35606326e-01  1.00010000e-05  6.68435000e-01  1.00010000e-05  6.92790212e-01  1.00010000e-05  0.00000000e+00  1.00010000e-05  1.51951322e+00  1.00010000e-05  6.60342245e-01  1.00010000e-05  1.46391755e+00  1.00010000e-05  1.52931227e+00                                 
 1.00010252e-05  7.35624467e-01  1.00010252e-05  6.68087174e-01  1.00010252e-05  6.98661388e-01  1.00010252e-05  0.00000000e+00  1.00010252e-05  1.69276374e+00  1.00010252e-05  6.56094514e-01  1.00010252e-05  1.43682048e+00  1.00010252e-05  1.52912035e+00                                 
 1.00010756e-05  7.35625627e-01  1.00010756e-05  6.67413403e-01  1.00010756e-05  7.04495815e-01  1.00010756e-05  0.00000000e+00  1.00010756e-05  1.82065510e+00  1.00010756e-05  6.47986705e-01  1.00010756e-05  1.37609794e+00  1.00010756e-05  1.52896356e+00                                 
 1.00011765e-05  7.35618696e-01  1.00011765e-05  6.67266155e-01  1.00011765e-05  6.99201772e-01  1.00011765e-05  0.00000000e+00  1.00011765e-05  1.78706838e+00  1.00011765e-05  6.46648460e-01  1.00011765e-05  1.26949608e+00  1.00011765e-05  1.52950940e+00                                 
 1.00013033e-05  7.35624752e-01  1.00013033e-05  6.67564647e-01  1.00013033e-05  6.95856391e-01  1.00013033e-05  0.00000000e+00  1.00013033e-05  1.80683205e+00  1.00013033e-05  6.50871618e-01  1.00013033e-05  1.16602074e+00  1.00013033e-05  1.52988071e+00                                 
 1.00015229e-05  7.35618109e-01  1.00015229e-05  6.67718416e-01  1.00015229e-05  6.92072720e-01  1.00015229e-05  0.00000000e+00  1.00015229e-05  1.79399231e+00  1.00015229e-05  6.51819148e-01  1.00015229e-05  1.01674822e+00  1.00015229e-05  1.53008933e+00                                 
 1.00018163e-05  7.35623808e-01  1.00018163e-05  6.68267297e-01  1.00018163e-05  6.87172453e-01  1.00018163e-05  0.00000000e+00  1.00018163e-05  1.80432315e+00  1.00018163e-05  6.56925559e-01  1.00018163e-05  8.73455394e-01  1.00018163e-05  1.53000625e+00                                 
 1.00022432e-05  7.35618504e-01  1.00022432e-05  6.68889709e-01  1.00022432e-05  6.80661634e-01  1.00022432e-05  0.00000000e+00  1.00022432e-05  1.79580201e+00  1.00022432e-05  6.62202724e-01  1.00022432e-05  7.42517448e-01  1.00022432e-05  1.52938466e+00                                 
 1.00027007e-05  7.35623714e-01  1.00027007e-05  6.69565805e-01  1.00027007e-05  6.74525361e-01  1.00027007e-05  0.00000000e+00  1.00027007e-05  1.80348619e+00  1.00027007e-05  6.69118188e-01  1.00027007e-05  6.90513431e-01  1.00027007e-05  1.52802469e+00                                 
 1.00030869e-05  7.35618956e-01  1.00030869e-05  6.69653279e-01  1.00030869e-05  6.74580745e-01  1.00030869e-05  0.00000000e+00  1.00030869e-05  1.79699848e+00  1.00030869e-05  6.69836808e-01  1.00030869e-05  6.77467928e-01  1.00030869e-05  1.52636188e+00                                 
 1.00036004e-05  7.35623535e-01  1.00036004e-05  6.69779418e-01  1.00036004e-05  6.74220010e-01  1.00036004e-05  0.00000000e+00  1.00036004e-05  1.80265723e+00  1.00036004e-05  6.71899190e-01  1.00036004e-05  6.75372165e-01  1.00036004e-05  1.52376557e+00                                 
 1.00041281e-05  7.35619281e-01  1.00041281e-05  6.69662278e-01  1.00041281e-05  6.76424736e-01  1.00041281e-05  0.00000000e+00  1.00041281e-05  1.79764553e+00  1.00041281e-05  6.71221487e-01  1.00041281e-05  6.75014357e-01  1.00041281e-05  1.52084959e+00                                 
 1.00051384e-05  7.35623414e-01  1.00051384e-05  6.69632397e-01  1.00051384e-05  6.78511269e-01  1.00051384e-05  0.00000000e+00  1.00051384e-05  1.80221609e+00  1.00051384e-05  6.72250795e-01  1.00051384e-05  6.78557487e-01  1.00051384e-05  1.51495773e+00                                 
 1.00066844e-05  7.35619415e-01  1.00066844e-05  6.69435335e-01  1.00066844e-05  6.83934493e-01  1.00066844e-05  0.00000000e+00  1.00066844e-05  1.79787780e+00  1.00066844e-05  6.71396957e-01  1.00066844e-05  6.82298519e-01  1.00066844e-05  1.50549105e+00                                 
 1.00097765e-05  7.35623367e-01  1.00097765e-05  6.69346313e-01  1.00097765e-05  6.92338620e-01  1.00097765e-05  0.00000000e+00  1.00097765e-05  1.80208370e+00  1.00097765e-05  6.72028151e-01  1.00097765e-05  6.92289844e-01  1.00097765e-05  1.48585839e+00                                 
