 time            v(vbep)         time            v(vben)         time            v(vout)         time            v(vphi1)        time            v(vphi2)        time            v(vref)         yes             currtemp       
 0.00000000e+00  5.99089928e-01  0.00000000e+00  5.36842943e-01  0.00000000e+00  2.53268069e-01  0.00000000e+00  0.00000000e+00  0.00000000e+00  1.79996079e+00  0.00000000e+00  5.36842943e-01  1.00000000e+00  6.80000000e+01 
 5.00000000e-12  5.99068252e-01  5.00000000e-12  5.36824943e-01  5.00000000e-12  2.53781264e-01  5.00000000e-12  1.80000000e-02  5.00000000e-12  1.80006770e+00  5.00000000e-12  5.36824943e-01                                 
 1.00000000e-11  5.99046946e-01  1.00000000e-11  5.36807346e-01  1.00000000e-11  2.54199467e-01  1.00000000e-11  3.60000000e-02  1.00000000e-11  1.80012712e+00  1.00000000e-11  5.36807346e-01                                 
 2.00000000e-11  5.99004531e-01  2.00000000e-11  5.36772259e-01  2.00000000e-11  2.54892755e-01  2.00000000e-11  7.20000000e-02  2.00000000e-11  1.80018688e+00  2.00000000e-11  5.36772259e-01                                 
 4.00000000e-11  5.98920051e-01  4.00000000e-11  5.36702290e-01  4.00000000e-11  2.55708338e-01  4.00000000e-11  1.44000000e-01  4.00000000e-11  1.80015811e+00  4.00000000e-11  5.36702290e-01                                 
 8.00000000e-11  5.98751689e-01  8.00000000e-11  5.36562788e-01  8.00000000e-11  2.56400758e-01  8.00000000e-11  2.88000000e-01  8.00000000e-11  1.80008018e+00  8.00000000e-11  5.36562788e-01                                 
 1.60000000e-10  5.98417480e-01  1.60000000e-10  5.36285518e-01  1.60000000e-10  2.57020226e-01  1.60000000e-10  5.76000000e-01  1.60000000e-10  1.80003878e+00  1.60000000e-10  5.36285518e-01                                 
 3.20000000e-10  5.97758678e-01  3.20000000e-10  5.35737716e-01  3.20000000e-10  2.61578655e-01  3.20000000e-10  1.15200000e+00  3.20000000e-10  1.80030193e+00  3.20000000e-10  5.35737716e-01                                 
 5.00000000e-10  5.97032453e-01  5.00000000e-10  5.35131904e-01  5.00000000e-10  5.05690280e-01  5.00000000e-10  1.80000000e+00  5.00000000e-10  1.81223436e-01  5.00000000e-10  5.35131904e-01                                 
 5.22337250e-10  5.96943537e-01  5.22337250e-10  5.35057577e-01  5.22337250e-10  5.63127740e-01  5.22337250e-10  1.80000000e+00  5.22337250e-10  4.42087729e-02  5.22337250e-10  5.35057577e-01                                 
 5.67011750e-10  5.96766166e-01  5.67011750e-10  5.34909246e-01  5.67011750e-10  6.69243784e-01  5.67011750e-10  1.80000000e+00  5.67011750e-10 -1.64273837e-02  5.67011750e-10  5.34909246e-01                                 
 6.56360749e-10  5.96414209e-01  6.56360749e-10  5.34614561e-01  6.56360749e-10  8.38472243e-01  6.56360749e-10  1.80000000e+00  6.56360749e-10  1.45167323e-02  6.56360749e-10  5.34614561e-01                                 
 7.73693101e-10  5.95957539e-01  7.73693101e-10  5.34231504e-01  7.73693101e-10  1.00997674e+00  7.73693101e-10  1.80000000e+00  7.73693101e-10 -1.04574401e-02  7.73693101e-10  5.34231504e-01                                 
 9.60973245e-10  5.95241156e-01  9.60973245e-10  5.33629030e-01  9.60973245e-10  1.22902023e+00  9.60973245e-10  1.80000000e+00  9.60973245e-10  1.07712531e-02  9.60973245e-10  5.33629030e-01                                 
 1.28893819e-09  5.94021951e-01  1.28893819e-09  5.32599358e-01  1.28893819e-09  1.50701784e+00  1.28893819e-09  1.80000000e+00  1.28893819e-09 -8.93440436e-03  1.28893819e-09  5.32599358e-01                                 
 1.86582395e-09  5.91978063e-01  1.86582395e-09  5.30861305e-01  1.86582395e-09  1.74456045e+00  1.86582395e-09  1.80000000e+00  1.86582395e-09  9.22568586e-03  1.86582395e-09  5.30861305e-01                                 
 2.16206440e-09  5.90975382e-01  2.16206440e-09  5.30003119e-01  2.16206440e-09  1.78380974e+00  2.16206440e-09  1.80000000e+00  2.16206440e-09 -8.31546754e-03  2.16206440e-09  5.30003119e-01                                 
 2.49609473e-09  5.89879532e-01  2.49609473e-09  5.29061217e-01  2.49609473e-09  1.80399073e+00  2.49609473e-09  1.80000000e+00  2.49609473e-09  7.93732505e-03  2.49609473e-09  5.29061217e-01                                 
 2.87096749e-09  5.88690796e-01  2.87096749e-09  5.28034880e-01  2.87096749e-09  1.81228685e+00  2.87096749e-09  1.80000000e+00  2.87096749e-09 -7.39864545e-03  2.87096749e-09  5.28034880e-01                                 
 3.53143428e-09  5.86692881e-01  3.53143428e-09  5.26299565e-01  3.53143428e-09  1.81541351e+00  3.53143428e-09  1.80000000e+00  3.53143428e-09  7.21910274e-03  3.53143428e-09  5.26299565e-01                                 
 4.26501859e-09  5.84604800e-01  4.26501859e-09  5.24472325e-01  4.26501859e-09  1.81328102e+00  4.26501859e-09  1.80000000e+00  4.26501859e-09 -6.96286041e-03  4.26501859e-09  5.24472325e-01                                 
 5.59921731e-09  5.81106521e-01  5.59921731e-09  5.21382282e-01  5.59921731e-09  1.81012522e+00  5.59921731e-09  1.80000000e+00  5.59921731e-09  6.89431602e-03  5.59921731e-09  5.21382282e-01                                 
 7.57600414e-09  5.76502435e-01  7.57600414e-09  5.17264431e-01  7.57600414e-09  1.80475020e+00  7.57600414e-09  1.80000000e+00  7.57600414e-09 -6.77101996e-03  7.57600414e-09  5.17264431e-01                                 
 9.38172176e-09  5.72780934e-01  9.38172176e-09  5.13896344e-01  9.38172176e-09  1.80061187e+00  9.38172176e-09  1.80000000e+00  9.38172176e-09  6.73485532e-03  9.38172176e-09  5.13896344e-01                                 
 1.12957129e-08  5.69228590e-01  1.12957129e-08  5.10652700e-01  1.12957129e-08  1.79606402e+00  1.12957129e-08  1.80000000e+00  1.12957129e-08 -6.61998989e-03  1.12957129e-08  5.10652700e-01                                 
 1.28268206e-08  5.66626944e-01  1.28268206e-08  5.08261019e-01  1.28268206e-08  1.79300329e+00  1.28268206e-08  1.80000000e+00  1.28268206e-08  6.56208670e-03  1.28268206e-08  5.08261019e-01                                 
 1.43677199e-08  5.64189028e-01  1.43677199e-08  5.06008832e-01  1.43677199e-08  1.78951574e+00  1.43677199e-08  1.80000000e+00  1.43677199e-08 -6.43713705e-03  1.43677199e-08  5.06008832e-01                                 
 1.60159541e-08  5.61755072e-01  1.60159541e-08  5.03750451e-01  1.60159541e-08  1.78642000e+00  1.60159541e-08  1.80000000e+00  1.60159541e-08  6.38479631e-03  1.60159541e-08  5.03750451e-01                                 
 1.78537553e-08  5.59226826e-01  1.78537553e-08  5.01394688e-01  1.78537553e-08  1.78250350e+00  1.78537553e-08  1.80000000e+00  1.78537553e-08 -6.27886984e-03  1.78537553e-08  5.01394688e-01                                 
 2.04525656e-08  5.55942579e-01  2.04525656e-08  4.98319723e-01  2.04525656e-08  1.77765244e+00  2.04525656e-08  1.80000000e+00  2.04525656e-08  6.25727198e-03  2.04525656e-08  4.98319723e-01                                 
 2.34400581e-08  5.52538929e-01  2.34400581e-08  4.95113800e-01  2.34400581e-08  1.77167084e+00  2.34400581e-08  1.80000000e+00  2.34400581e-08 -6.18162481e-03  2.34400581e-08  4.95113800e-01                                 
 2.83722678e-08  5.47673206e-01  2.83722678e-08  4.90487947e-01  2.83722678e-08  1.76301665e+00  2.83722678e-08  1.80000000e+00  2.83722678e-08  6.18528029e-03  2.83722678e-08  4.90487947e-01                                 
 3.44533515e-08  5.42780936e-01  3.44533515e-08  4.85763139e-01  3.44533515e-08  1.75321129e+00  3.44533515e-08  1.80000000e+00  3.44533515e-08 -6.13199598e-03  3.44533515e-08  4.85763139e-01                                 
 4.66155188e-08  5.35238236e-01  4.66155188e-08  4.78343486e-01  4.66155188e-08  1.73619251e+00  4.66155188e-08  1.80000000e+00  4.66155188e-08  6.15309342e-03  4.66155188e-08  4.78343486e-01                                 
 7.09398535e-08  5.23850869e-01  7.09398535e-08  4.67103311e-01  7.09398535e-08  1.70203234e+00  7.09398535e-08  1.80000000e+00  7.09398535e-08 -6.11528919e-03  7.09398535e-08  4.67103311e-01                                 
 9.28879432e-08  5.16030867e-01  9.28879432e-08  4.59403414e-01  9.28879432e-08  1.67329796e+00  9.28879432e-08  1.80000000e+00  9.28879432e-08  6.14207199e-03  9.28879432e-08  4.59403414e-01                                 
 1.36784122e-07  5.04737628e-01  1.36784122e-07  4.48166416e-01  1.36784122e-07  1.61883501e+00  1.36784122e-07  1.80000000e+00  1.36784122e-07 -6.10594529e-03  1.36784122e-07  4.48166416e-01                                 
 1.88367259e-07  4.88754239e-01  1.88367259e-07  4.33571947e-01  1.88367259e-07  1.55211092e+00  1.88367259e-07  1.80000000e+00  1.88367259e-07  6.13637279e-03  1.88367259e-07  4.33571947e-01                                 
 2.37496893e-07  4.71531256e-01  2.37496893e-07  4.18550643e-01  2.37496893e-07  1.48486427e+00  2.37496893e-07  1.80000000e+00  2.37496893e-07 -6.10092963e-03  2.37496893e-07  4.18550643e-01                                 
 3.12248421e-07  4.47300972e-01  3.12248421e-07  3.97837978e-01  3.12248421e-07  1.38424309e+00  3.12248421e-07  1.80000000e+00  3.12248421e-07  6.13209561e-03  3.12248421e-07  3.97837978e-01                                 
 3.91942093e-07  4.14954580e-01  3.91942093e-07  3.71157108e-01  3.91942093e-07  1.26935391e+00  3.91942093e-07  1.80000000e+00  3.91942093e-07 -6.09785193e-03  3.91942093e-07  3.71157108e-01                                 
 5.51329437e-07  6.54884903e-01  5.51329437e-07  5.90531742e-01  5.51329437e-07  1.32974885e+00  5.51329437e-07  1.80000000e+00  5.51329437e-07  6.13709708e-03  5.51329437e-07  5.90531742e-01                                 
 5.71481814e-07  6.81381227e-01  5.71481814e-07  6.16439486e-01  5.71481814e-07  1.33388636e+00  5.71481814e-07  1.80000000e+00  5.71481814e-07  8.72212294e-06  5.71481814e-07  6.16439486e-01                                 
 6.11786568e-07  7.13843432e-01  6.11786568e-07  6.46505816e-01  6.11786568e-07  1.32239755e+00  6.11786568e-07  1.80000000e+00  6.11786568e-07  2.85220390e-06  6.11786568e-07  6.46505816e-01                                 
 6.92396076e-07  7.36087219e-01  6.92396076e-07  6.65606502e-01  6.92396076e-07  1.25832983e+00  6.92396076e-07  1.80000000e+00  6.92396076e-07  6.22493969e-06  6.92396076e-07  6.65606502e-01                                 
 7.01942542e-07  7.36573018e-01  7.01942542e-07  6.66014736e-01  7.01942542e-07  1.24877290e+00  7.01942542e-07  1.80000000e+00  7.01942542e-07  4.03212391e-06  7.01942542e-07  6.66014736e-01                                 
 7.21035472e-07  7.37336678e-01  7.21035472e-07  6.66647292e-01  7.21035472e-07  1.22934848e+00  7.21035472e-07  1.80000000e+00  7.21035472e-07  3.97023960e-06  7.21035472e-07  6.66647292e-01                                 
 7.59221333e-07  7.38085494e-01  7.59221333e-07  6.67264169e-01  7.59221333e-07  1.18980970e+00  7.59221333e-07  1.80000000e+00  7.59221333e-07  3.94583019e-06  7.59221333e-07  6.67264169e-01                                 
 8.14398196e-07  7.33941299e-01  8.14398196e-07  6.63842000e-01  8.14398196e-07  1.12842796e+00  8.14398196e-07  1.80000000e+00  8.14398196e-07  3.56881111e-06  8.14398196e-07  6.63842000e-01                                 
 8.73037582e-07  7.15482759e-01  8.73037582e-07  6.48000038e-01  8.73037582e-07  1.05284844e+00  8.73037582e-07  1.80000000e+00  8.73037582e-07  2.93358971e-06  8.73037582e-07  6.48000038e-01                                 
 9.48669825e-07  7.17210192e-01  9.48669825e-07  6.49469417e-01  9.48669825e-07  9.88569681e-01  9.48669825e-07  1.80000000e+00  9.48669825e-07  5.26446926e-06  9.48669825e-07  6.49469417e-01                                 
 1.02567901e-06  7.34031096e-01  1.02567901e-06  6.63908172e-01  1.02567901e-06  9.46974140e-01  1.02567901e-06  1.80000000e+00  1.02567901e-06  3.98196792e-06  1.02567901e-06  6.63908172e-01                                 
 1.03760539e-06  7.31186540e-01  1.03760539e-06  6.61537152e-01  1.03760539e-06  9.36338364e-01  1.03760539e-06  1.80000000e+00  1.03760539e-06  3.65259752e-06  1.03760539e-06  6.61537152e-01                                 
 1.06145816e-06  7.24228741e-01  1.06145816e-06  6.55619827e-01  1.06145816e-06  9.14307497e-01  1.06145816e-06  1.80000000e+00  1.06145816e-06  3.43704797e-06  1.06145816e-06  6.55619827e-01                                 
 1.10916369e-06  7.17473326e-01  1.10916369e-06  6.49723471e-01  1.10916369e-06  8.77961155e-01  1.10916369e-06  1.80000000e+00  1.10916369e-06  4.35336303e-06  1.10916369e-06  6.49723471e-01                                 
 1.18258938e-06  7.25213392e-01  1.18258938e-06  6.56440956e-01  1.18258938e-06  8.40190217e-01  1.18258938e-06  1.80000000e+00  1.18258938e-06  4.57409589e-06  1.18258938e-06  6.56440956e-01                                 
 1.28247308e-06  7.25201735e-01  1.28247308e-06  6.56444691e-01  1.28247308e-06  7.81803273e-01  1.28247308e-06  1.80000000e+00  1.28247308e-06  3.94647960e-06  1.28247308e-06  6.56444691e-01                                 
 1.37992128e-06  7.20605314e-01  1.37992128e-06  6.52463475e-01  1.37992128e-06  7.24800983e-01  1.37992128e-06  1.80000000e+00  1.37992128e-06  4.45066854e-06  1.37992128e-06  6.52463475e-01                                 
 1.57481769e-06  7.25972492e-01  1.57481769e-06  6.57097598e-01  1.57481769e-06  6.64448946e-01  1.57481769e-06  1.80000000e+00  1.57481769e-06  4.48767121e-06  1.57481769e-06  6.57097598e-01                                 
 1.59960154e-06  7.25015446e-01  1.59960154e-06  6.56279967e-01  1.59960154e-06  6.60101132e-01  1.59960154e-06  1.80000000e+00  1.59960154e-06  4.41626606e-06  1.59960154e-06  6.56279967e-01                                 
 1.64916925e-06  7.22943714e-01  1.64916925e-06  6.54495842e-01  1.64916925e-06  6.51976037e-01  1.64916925e-06  1.80000000e+00  1.64916925e-06  4.41469594e-06  1.64916925e-06  6.54495842e-01                                 
 1.74830465e-06  7.23106483e-01  1.74830465e-06  6.54631593e-01  1.74830465e-06  6.44672645e-01  1.74830465e-06  1.80000000e+00  1.74830465e-06  4.63892616e-06  1.74830465e-06  6.54631593e-01                                 
 1.85465054e-06  7.24439159e-01  1.85465054e-06  6.55783864e-01  1.85465054e-06  6.53616266e-01  1.85465054e-06  1.80000000e+00  1.85465054e-06  4.58116375e-06  1.85465054e-06  6.55783864e-01                                 
 1.96948450e-06  7.22789065e-01  1.96948450e-06  6.54360175e-01  1.96948450e-06  6.56972182e-01  1.96948450e-06  1.80000000e+00  1.96948450e-06  4.49423832e-06  1.96948450e-06  6.54360175e-01                                 
 2.12012064e-06  7.23933906e-01  2.12012064e-06  6.55346669e-01  2.12012064e-06  6.53778634e-01  2.12012064e-06  1.80000000e+00  2.12012064e-06  4.62146007e-06  2.12012064e-06  6.55346669e-01                                 
 2.27547161e-06  7.23543970e-01  2.27547161e-06  6.55013083e-01  2.27547161e-06  6.55850299e-01  2.27547161e-06  1.80000000e+00  2.27547161e-06  4.48647974e-06  2.27547161e-06  6.55013083e-01                                 
 2.46116959e-06  7.23287126e-01  2.46116959e-06  6.54788818e-01  2.46116959e-06  6.54633882e-01  2.46116959e-06  1.80000000e+00  2.46116959e-06  4.60846245e-06  2.46116959e-06  6.54788818e-01                                 
 2.73166437e-06  7.23923344e-01  2.73166437e-06  6.55339697e-01  2.73166437e-06  6.55716953e-01  2.73166437e-06  1.80000000e+00  2.73166437e-06  4.50896158e-06  2.73166437e-06  6.55339697e-01                                 
 3.17093234e-06  7.23122737e-01  3.17093234e-06  6.54647326e-01  3.17093234e-06  6.54670025e-01  3.17093234e-06  1.80000000e+00  3.17093234e-06  4.58814141e-06  3.17093234e-06  6.54647326e-01                                 
 4.04871198e-06  7.23980124e-01  4.04871198e-06  6.55388314e-01  4.04871198e-06  6.55692362e-01  4.04871198e-06  1.80000000e+00  4.04871198e-06  4.52191810e-06  4.04871198e-06  6.55388314e-01                                 
 5.04871198e-06  7.23101701e-01  5.04871198e-06  6.54629360e-01  5.04871198e-06  6.54685367e-01  5.04871198e-06  1.80000000e+00  5.04871198e-06  4.57972022e-06  5.04871198e-06  6.54629360e-01                                 
 6.04871198e-06  7.23990418e-01  6.04871198e-06  6.55397000e-01  6.04871198e-06  6.55667018e-01  6.04871198e-06  1.80000000e+00  6.04871198e-06  4.52986667e-06  6.04871198e-06  6.55397000e-01                                 
 7.04871198e-06  7.23099401e-01  7.04871198e-06  6.54627562e-01  7.04871198e-06  6.54712069e-01  7.04871198e-06  1.80000000e+00  7.04871198e-06  4.57177404e-06  7.04871198e-06  6.54627562e-01                                 
 8.04871198e-06  7.23984843e-01  8.04871198e-06  6.55392013e-01  8.04871198e-06  6.55636305e-01  8.04871198e-06  1.80000000e+00  8.04871198e-06  4.53775103e-06  8.04871198e-06  6.55392013e-01                                 
 9.04871198e-06  7.23112559e-01  9.04871198e-06  6.54639112e-01  9.04871198e-06  6.54747013e-01  9.04871198e-06  1.80000000e+00  9.04871198e-06  4.56401175e-06  9.04871198e-06  6.54639112e-01                                 
 1.00005000e-05  7.23964233e-01  1.00005000e-05  6.55374075e-01  1.00005000e-05  6.55596225e-01  1.00005000e-05  1.80000000e+00  1.00005000e-05  4.54552092e-06  1.00005000e-05  6.55374075e-01                                 
 1.00005500e-05  7.23964081e-01  1.00005500e-05  6.55373945e-01  1.00005500e-05  6.48722251e-01  1.00005500e-05  1.62000000e+00  1.00005500e-05 -1.24853326e-04  1.00005500e-05  6.55373945e-01                                 
 1.00006500e-05  7.23963792e-01  1.00006500e-05  6.55373695e-01  1.00006500e-05  6.37395548e-01  1.00006500e-05  1.26000000e+00  1.00006500e-05 -9.32259805e-05  1.00006500e-05  6.55373695e-01                                 
 1.00008500e-05  7.23963246e-01  1.00008500e-05  6.55373222e-01  1.00008500e-05  6.29294348e-01  1.00008500e-05  5.40000000e-01  1.00008500e-05  3.96681949e-03  1.00008500e-05  6.55373222e-01                                 
 1.00010000e-05  7.23962788e-01  1.00010000e-05  6.55372841e-01  1.00010000e-05  5.69271815e-01  1.00010000e-05  0.00000000e+00  1.00010000e-05  1.53307659e+00  1.00010000e-05  6.55372841e-01                                 
 1.00010251e-05  7.23962700e-01  1.00010251e-05  6.55372770e-01  1.00010251e-05  5.43260339e-01  1.00010251e-05  0.00000000e+00  1.00010251e-05  1.69598785e+00  1.00010251e-05  6.55372770e-01                                 
 1.00010752e-05  7.23962569e-01  1.00010752e-05  6.55372647e-01  1.00010752e-05  5.05487224e-01  1.00010752e-05  0.00000000e+00  1.00010752e-05  1.81964241e+00  1.00010752e-05  6.55372647e-01                                 
 1.00011754e-05  7.23962356e-01  1.00011754e-05  6.55372444e-01  1.00011754e-05  4.87180589e-01  1.00011754e-05  0.00000000e+00  1.00011754e-05  1.78938479e+00  1.00011754e-05  6.55372444e-01                                 
 1.00013196e-05  7.23961967e-01  1.00013196e-05  6.55372127e-01  1.00013196e-05  4.94315563e-01  1.00013196e-05  0.00000000e+00  1.00013196e-05  1.80722326e+00  1.00013196e-05  6.55372127e-01                                 
 1.00014740e-05  7.23961496e-01  1.00014740e-05  6.55371729e-01  1.00014740e-05  4.94607920e-01  1.00014740e-05  0.00000000e+00  1.00014740e-05  1.79531477e+00  1.00014740e-05  6.55371729e-01                                 
 1.00017438e-05  7.23960599e-01  1.00017438e-05  6.55370970e-01  1.00017438e-05  4.96359536e-01  1.00017438e-05  0.00000000e+00  1.00017438e-05  1.80376504e+00  1.00017438e-05  6.55370970e-01                                 
 1.00022275e-05  7.23958884e-01  1.00022275e-05  6.55369507e-01  1.00022275e-05  4.96339100e-01  1.00022275e-05  0.00000000e+00  1.00022275e-05  1.79669015e+00  1.00022275e-05  6.55369507e-01                                 
