 time            v(vbep)         time            v(vben)         time            v(vout)         time            v(vphi1)        time            v(vphi2)        time            v(vref)         yes             currtemp       
 0.00000000e+00  7.68623307e-01  0.00000000e+00  7.23055672e-01  0.00000000e+00  6.36858386e-02  0.00000000e+00  0.00000000e+00  0.00000000e+00  1.79997500e+00  0.00000000e+00  5.00000000e-01  1.00000000e+00 -2.40000000e+01 
 5.00000000e-12  7.68607959e-01  5.00000000e-12  7.23042873e-01  5.00000000e-12  6.41139954e-02  5.00000000e-12  1.80000000e-02  5.00000000e-12  1.80005484e+00  5.00000000e-12  5.00000000e-01                                 
 1.00000000e-11  7.68592847e-01  1.00000000e-11  7.23030337e-01  1.00000000e-11  6.44973056e-02  1.00000000e-11  3.60000000e-02  1.00000000e-11  1.80009206e+00  1.00000000e-11  5.00000000e-01                                 
 2.00000000e-11  7.68562745e-01  2.00000000e-11  7.23005334e-01  2.00000000e-11  6.52020535e-02  2.00000000e-11  7.20000000e-02  2.00000000e-11  1.80012239e+00  2.00000000e-11  5.00000000e-01                                 
 4.00000000e-11  7.68502756e-01  4.00000000e-11  7.22955459e-01  4.00000000e-11  6.63357659e-02  4.00000000e-11  1.44000000e-01  4.00000000e-11  1.80009156e+00  4.00000000e-11  5.00000000e-01                                 
 8.00000000e-11  7.68383165e-01  8.00000000e-11  7.22855988e-01  8.00000000e-11  6.80341864e-02  8.00000000e-11  2.88000000e-01  8.00000000e-11  1.80004001e+00  8.00000000e-11  5.00000000e-01                                 
 1.60000000e-10  7.68145638e-01  1.60000000e-10  7.22658182e-01  1.60000000e-10  7.07968498e-02  1.60000000e-10  5.76000000e-01  1.60000000e-10  1.80000841e+00  1.60000000e-10  5.00000000e-01                                 
 3.20000000e-10  7.67677023e-01  3.20000000e-10  7.22267068e-01  3.20000000e-10  1.07770900e-01  3.20000000e-10  1.15200000e+00  3.20000000e-10  1.79988238e+00  3.20000000e-10  5.00000000e-01                                 
 5.00000000e-10  7.67159988e-01  5.00000000e-10  7.21834185e-01  5.00000000e-10  4.60247076e-01  5.00000000e-10  1.80000000e+00  5.00000000e-10  9.11478968e-02  5.00000000e-10  5.00000000e-01                                 
 5.20794584e-10  7.67101013e-01  5.20794584e-10  7.21784710e-01  5.20794584e-10  5.22649410e-01  5.20794584e-10  1.80000000e+00  5.20794584e-10  1.54951541e-02  5.20794584e-10  5.00000000e-01                                 
 5.62383753e-10  7.66983335e-01  5.62383753e-10  7.21685951e-01  5.62383753e-10  6.32244643e-01  5.62383753e-10  1.80000000e+00  5.62383753e-10 -7.25977527e-03  5.62383753e-10  5.00000000e-01                                 
 6.45562090e-10  7.66749636e-01  6.45562090e-10  7.21489608e-01  6.45562090e-10  7.89019957e-01  6.45562090e-10  1.80000000e+00  6.45562090e-10  6.53714629e-03  6.45562090e-10  5.00000000e-01                                 
 7.70239229e-10  7.66403428e-01  7.70239229e-10  7.21198216e-01  7.70239229e-10  9.49309913e-01  7.70239229e-10  1.80000000e+00  7.70239229e-10 -5.72236607e-03  7.70239229e-10  5.00000000e-01                                 
 9.57885472e-10  7.65891340e-01  9.57885472e-10  7.20766076e-01  9.57885472e-10  1.12891461e+00  9.57885472e-10  1.80000000e+00  9.57885472e-10  5.50836623e-03  9.57885472e-10  5.00000000e-01                                 
 1.25917779e-09  7.65090645e-01  1.25917779e-09  7.20087715e-01  1.25917779e-09  1.34635140e+00  1.25917779e-09  1.80000000e+00  1.25917779e-09 -5.21621223e-03  1.25917779e-09  5.00000000e-01                                 
 1.82419515e-09  7.63655555e-01  1.82419515e-09  7.18863972e-01  1.82419515e-09  1.57280262e+00  1.82419515e-09  1.80000000e+00  1.82419515e-09  5.18458032e-03  1.82419515e-09  5.00000000e-01                                 
 2.24685498e-09  7.62635422e-01  2.24685498e-09  7.17987826e-01  2.24685498e-09  1.63497999e+00  2.24685498e-09  1.80000000e+00  2.24685498e-09 -4.96255073e-03  2.24685498e-09  5.00000000e-01                                 
 2.62676208e-09  7.61753385e-01  2.62676208e-09  7.17226280e-01  2.62676208e-09  1.65515652e+00  2.62676208e-09  1.80000000e+00  2.62676208e-09  4.88251826e-03  2.62676208e-09  5.00000000e-01                                 
 2.99321503e-09  7.60931462e-01  2.99321503e-09  7.16513394e-01  2.99321503e-09  1.66173883e+00  2.99321503e-09  1.80000000e+00  2.99321503e-09 -4.69359353e-03  2.99321503e-09  5.00000000e-01                                 
 3.37832690e-09  7.60096105e-01  3.37832690e-09  7.15785737e-01  3.37832690e-09  1.66331327e+00  3.37832690e-09  1.80000000e+00  3.37832690e-09  4.58325718e-03  3.37832690e-09  5.00000000e-01                                 
 4.12732302e-09  7.58547014e-01  4.12732302e-09  7.14428475e-01  4.12732302e-09  1.66172865e+00  4.12732302e-09  1.80000000e+00  4.12732302e-09 -4.49327717e-03  4.12732302e-09  5.00000000e-01                                 
 5.01113165e-09  7.56834830e-01  5.01113165e-09  7.12916687e-01  5.01113165e-09  1.65807455e+00  5.01113165e-09  1.80000000e+00  5.01113165e-09  4.45350472e-03  5.01113165e-09  5.00000000e-01                                 
 6.77874890e-09  7.53720757e-01  6.77874890e-09  7.10138893e-01  6.77874890e-09  1.65175493e+00  6.77874890e-09  1.80000000e+00  6.77874890e-09 -4.40748602e-03  6.77874890e-09  5.00000000e-01                                 
 9.78533153e-09  7.49163226e-01  9.78533153e-09  7.06014276e-01  9.78533153e-09  1.64367833e+00  9.78533153e-09  1.80000000e+00  9.78533153e-09  4.40814959e-03  9.78533153e-09  5.00000000e-01                                 
 1.57984968e-08  7.41937318e-01  1.57984968e-08  6.99352044e-01  1.57984968e-08  1.62837654e+00  1.57984968e-08  1.80000000e+00  1.57984968e-08 -4.38258119e-03  1.57984968e-08  5.00000000e-01                                 
 2.78248273e-08  7.32153162e-01  2.78248273e-08  6.90068488e-01  2.78248273e-08  1.58164187e+00  2.78248273e-08  1.80000000e+00  2.78248273e-08  4.39598483e-03  2.78248273e-08  5.00000000e-01                                 
 5.12027239e-08  7.20927659e-01  5.12027239e-08  6.79049141e-01  5.12027239e-08  1.45122722e+00  5.12027239e-08  1.80000000e+00  5.12027239e-08 -4.37603291e-03  5.12027239e-08  5.00000000e-01                                 
 7.61600686e-08  7.12951710e-01  7.61600686e-08  6.71169948e-01  7.61600686e-08  1.30467903e+00  7.61600686e-08  1.80000000e+00  7.61600686e-08  4.39201975e-03  7.61600686e-08  5.00000000e-01                                 
 1.14805626e-07  7.04056063e-01  1.14805626e-07  6.62374632e-01  1.14805626e-07  1.07902866e+00  1.14805626e-07  1.80000000e+00  1.14805626e-07 -4.37271843e-03  1.14805626e-07  5.00000000e-01                                 
 1.58127769e-07  6.95436710e-01  1.58127769e-07  6.54118899e-01  1.58127769e-07  8.53063589e-01  1.58127769e-07  1.80000000e+00  1.58127769e-07  4.38963038e-03  1.58127769e-07  5.00000000e-01                                 
 2.10590330e-07  6.85865911e-01  2.10590330e-07  6.45221045e-01  2.10590330e-07  6.88282388e-01  2.10590330e-07  1.80000000e+00  2.10590330e-07 -4.37063814e-03  2.10590330e-07  5.00000000e-01                                 
 2.63451611e-07  6.78089367e-01  2.63451611e-07  6.38023520e-01  2.63451611e-07  6.09565965e-01  2.63451611e-07  1.80000000e+00  2.63451611e-07  4.38778271e-03  2.63451611e-07  5.00000000e-01                                 
 3.34247326e-07  6.68677324e-01  3.34247326e-07  6.29466965e-01  3.34247326e-07  5.27866813e-01  3.34247326e-07  1.80000000e+00  3.34247326e-07 -4.36901682e-03  3.34247326e-07  5.00000000e-01                                 
 4.00649817e-07  6.60998750e-01  4.00649817e-07  6.22563902e-01  4.00649817e-07  4.95594149e-01  4.00649817e-07  1.80000000e+00  4.00649817e-07  4.38636483e-03  4.00649817e-07  5.00000000e-01                                 
 5.33454799e-07  6.46710404e-01  5.33454799e-07  6.09991732e-01  5.33454799e-07  4.90808649e-01  5.33454799e-07  1.80000000e+00  5.33454799e-07 -4.36791452e-03  5.33454799e-07  5.00000000e-01                                 
 6.64664025e-07  6.33820579e-01  6.64664025e-07  5.98900548e-01  6.64664025e-07  4.85788069e-01  6.64664025e-07  1.80000000e+00  6.64664025e-07  4.38563252e-03  6.64664025e-07  5.00000000e-01                                 
 8.53501040e-07  6.16123172e-01  8.53501040e-07  5.83992089e-01  8.53501040e-07  5.02309408e-01  8.53501040e-07  1.80000000e+00  8.53501040e-07 -4.36728584e-03  8.53501040e-07  5.00000000e-01                                 
 1.11309014e-06  5.94435403e-01  1.11309014e-06  5.66026407e-01  1.11309014e-06  5.07064727e-01  1.11309014e-06  1.80000000e+00  1.11309014e-06  4.38519556e-03  1.11309014e-06  5.00000000e-01                                 
 1.14878755e-06  5.91695268e-01  1.14878755e-06  5.63778270e-01  1.14878755e-06  5.03829787e-01  1.14878755e-06  1.80000000e+00  1.14878755e-06  3.33432408e-07  1.14878755e-06  5.00000000e-01                                 
 1.22018237e-06  5.86288468e-01  1.22018237e-06  5.59347963e-01  1.22018237e-06  4.98594282e-01  1.22018237e-06  1.80000000e+00  1.22018237e-06 -3.67019030e-07  1.22018237e-06  5.00000000e-01                                 
 1.36297202e-06  5.76286963e-01  1.36297202e-06  5.51174235e-01  1.36297202e-06  4.93985355e-01  1.36297202e-06  1.80000000e+00  1.36297202e-06  3.37586745e-07  1.36297202e-06  5.00000000e-01                                 
 1.64855130e-06  5.68085878e-01  1.64855130e-06  5.44358543e-01  1.64855130e-06  4.94688364e-01  1.64855130e-06  1.80000000e+00  1.64855130e-06 -3.38679909e-07  1.64855130e-06  5.00000000e-01                                 
 1.68416948e-06  5.69461882e-01  1.68416948e-06  5.45434441e-01  1.68416948e-06  4.96784197e-01  1.68416948e-06  1.80000000e+00  1.68416948e-06  2.21425236e-08  1.68416948e-06  5.00000000e-01                                 
 1.75540585e-06  5.75656484e-01  1.75540585e-06  5.50342202e-01  1.75540585e-06  5.04076646e-01  1.75540585e-06  1.80000000e+00  1.75540585e-06  5.48503268e-08  1.75540585e-06  5.00000000e-01                                 
 1.77321494e-06  5.78817776e-01  1.77321494e-06  5.52859607e-01  1.77321494e-06  5.07310709e-01  1.77321494e-06  1.80000000e+00  1.77321494e-06  6.92250763e-08  1.77321494e-06  5.00000000e-01                                 
 1.80883312e-06  5.87120227e-01  1.80883312e-06  5.59477979e-01  1.80883312e-06  5.13075236e-01  1.80883312e-06  1.80000000e+00  1.80883312e-06  1.07284524e-07  1.80883312e-06  5.00000000e-01                                 
 1.88006949e-06  6.33661191e-01  1.88006949e-06  5.96640490e-01  1.88006949e-06  5.17492226e-01  1.88006949e-06  1.80000000e+00  1.88006949e-06  3.64314077e-07  1.88006949e-06  5.00000000e-01                                 
 1.95030682e-06  7.94008063e-01  1.95030682e-06  7.46042849e-01  1.95030682e-06  5.44898352e-01  1.95030682e-06  1.80000000e+00  1.95030682e-06  1.60581893e-06  1.95030682e-06  5.00000000e-01                                 
 1.96029806e-06  8.10229625e-01  1.96029806e-06  7.63237253e-01  1.96029806e-06  5.39391136e-01  1.96029806e-06  1.80000000e+00  1.96029806e-06  8.93855475e-07  1.96029806e-06  5.00000000e-01                                 
 1.98028053e-06  8.33833693e-01  1.98028053e-06  7.86873867e-01  1.98028053e-06  5.26784924e-01  1.98028053e-06  1.80000000e+00  1.98028053e-06  4.25972365e-07  1.98028053e-06  5.00000000e-01                                 
 1.98527615e-06  8.39263153e-01  1.98527615e-06  7.92047988e-01  1.98527615e-06  5.25233998e-01  1.98527615e-06  1.80000000e+00  1.98527615e-06  5.93553300e-07  1.98527615e-06  5.00000000e-01                                 
 1.99526738e-06  8.49896178e-01  1.99526738e-06  8.02082498e-01  1.99526738e-06  5.23195649e-01  1.99526738e-06  1.80000000e+00  1.99526738e-06  6.05803195e-07  1.99526738e-06  5.00000000e-01                                 
 2.01524985e-06  8.71853779e-01  2.01524985e-06  8.21773897e-01  2.01524985e-06  5.22988870e-01  2.01524985e-06  1.80000000e+00  2.01524985e-06  6.32591435e-07  2.01524985e-06  5.00000000e-01                                 
 2.01964824e-06  8.77116946e-01  2.01964824e-06  8.26222502e-01  2.01964824e-06  5.23440770e-01  2.01964824e-06  1.80000000e+00  2.01964824e-06  6.64457618e-07  2.01964824e-06  5.00000000e-01                                 
 2.02844501e-06  8.88188903e-01  2.02844501e-06  8.35187625e-01  2.02844501e-06  5.24517059e-01  2.02844501e-06  1.80000000e+00  2.02844501e-06  7.22388353e-07  2.02844501e-06  5.00000000e-01                                 
 2.04603855e-06  9.13068596e-01  2.04603855e-06  8.53430256e-01  2.04603855e-06  5.26864718e-01  2.04603855e-06  1.80000000e+00  2.04603855e-06  7.97919573e-07  2.04603855e-06  5.00000000e-01                                 
 2.07109411e-06  9.40301319e-01  2.07109411e-06  8.70702112e-01  2.07109411e-06  5.23848287e-01  2.07109411e-06  1.80000000e+00  2.07109411e-06  3.90512846e-07  2.07109411e-06  5.00000000e-01                                 
 2.09295846e-06  9.38181864e-01  2.09295846e-06  8.69751810e-01  2.09295846e-06  5.10396687e-01  2.09295846e-06  1.80000000e+00  2.09295846e-06 -3.44812953e-07  2.09295846e-06  5.00000000e-01                                 
 2.11558254e-06  9.36098525e-01  2.11558254e-06  8.68227098e-01  2.11558254e-06  5.02885753e-01  2.11558254e-06  1.80000000e+00  2.11558254e-06  2.32611615e-07  2.11558254e-06  5.00000000e-01                                 
 2.14047191e-06  9.39154833e-01  2.14047191e-06  8.70243509e-01  2.14047191e-06  5.04496318e-01  2.14047191e-06  1.80000000e+00  2.14047191e-06 -4.52101883e-08  2.14047191e-06  5.00000000e-01                                 
 2.17180412e-06  9.35278725e-01  2.17180412e-06  8.67821499e-01  2.17180412e-06  5.01817489e-01  2.17180412e-06  1.80000000e+00  2.17180412e-06 -6.79142264e-08  2.17180412e-06  5.00000000e-01                                 
 2.20383443e-06  9.36950038e-01  2.20383443e-06  8.68880771e-01  2.20383443e-06  5.03120327e-01  2.20383443e-06  1.80000000e+00  2.20383443e-06  1.29149070e-07  2.20383443e-06  5.00000000e-01                                 
 2.24166098e-06  9.34274686e-01  2.24166098e-06  8.67255098e-01  2.24166098e-06  5.02223677e-01  2.24166098e-06  1.80000000e+00  2.24166098e-06 -1.68285485e-07  2.24166098e-06  5.00000000e-01                                 
 2.28931607e-06  9.34529882e-01  2.28931607e-06  8.67404678e-01  2.28931607e-06  5.02464625e-01  2.28931607e-06  1.80000000e+00  2.28931607e-06  1.75542996e-07  2.28931607e-06  5.00000000e-01                                 
 2.34855661e-06  9.32065687e-01  2.34855661e-06  8.65923714e-01  2.34855661e-06  5.01703736e-01  2.34855661e-06  1.80000000e+00  2.34855661e-06 -1.87624777e-07  2.34855661e-06  5.00000000e-01                                 
 2.43321666e-06  9.30645817e-01  2.43321666e-06  8.65023231e-01  2.43321666e-06  5.00594882e-01  2.43321666e-06  1.80000000e+00  2.43321666e-06  1.78228321e-07  2.43321666e-06  5.00000000e-01                                 
 2.55235056e-06  9.26106838e-01  2.55235056e-06  8.62215453e-01  2.55235056e-06  4.98778192e-01  2.55235056e-06  1.80000000e+00  2.55235056e-06 -1.93849078e-07  2.55235056e-06  5.00000000e-01                                 
 2.72907085e-06  9.18593525e-01  2.72907085e-06  8.57310284e-01  2.72907085e-06  4.94957870e-01  2.72907085e-06  1.80000000e+00  2.72907085e-06  1.62139090e-07  2.72907085e-06  5.00000000e-01                                 
 3.01768841e-06  8.80915965e-01  3.01768841e-06  8.29523424e-01  3.01768841e-06  4.87961820e-01  3.01768841e-06  1.80000000e+00  3.01768841e-06 -2.85156555e-07  3.01768841e-06  5.00000000e-01                                 
 3.05924065e-06  8.73634919e-01  3.05924065e-06  8.23378592e-01  3.05924065e-06  4.90138515e-01  3.05924065e-06  1.80000000e+00  3.05924065e-06 -9.15159578e-08  3.05924065e-06  5.00000000e-01                                 
 3.14234513e-06  8.62834439e-01  3.14234513e-06  8.13950621e-01  3.14234513e-06  4.99343546e-01  3.14234513e-06  1.80000000e+00  3.14234513e-06 -3.65127357e-08  3.14234513e-06  5.00000000e-01                                 
 3.30855409e-06  8.57541210e-01  3.30855409e-06  8.09187463e-01  3.30855409e-06  5.10137256e-01  3.30855409e-06  1.80000000e+00  3.30855409e-06  1.80443823e-08  3.30855409e-06  5.00000000e-01                                 
 3.33172610e-06  8.57846767e-01  3.33172610e-06  8.09461308e-01  3.33172610e-06  5.08021117e-01  3.33172610e-06  1.80000000e+00  3.33172610e-06  1.60765468e-08  3.33172610e-06  5.00000000e-01                                 
 3.37807013e-06  8.58294588e-01  3.37807013e-06  8.09867750e-01  3.37807013e-06  5.04426398e-01  3.37807013e-06  1.80000000e+00  3.37807013e-06  1.37799309e-08  3.37807013e-06  5.00000000e-01                                 
 3.47075819e-06  8.58542728e-01  3.47075819e-06  8.10093154e-01  3.47075819e-06  5.02044112e-01  3.47075819e-06  1.80000000e+00  3.47075819e-06  8.43629483e-09  3.47075819e-06  5.00000000e-01                                 
 3.65613431e-06  8.58514422e-01  3.65613431e-06  8.10067274e-01  3.65613431e-06  5.03128342e-01  3.65613431e-06  1.80000000e+00  3.65613431e-06  9.95240980e-09  3.65613431e-06  5.00000000e-01                                 
 3.88624880e-06  8.58529682e-01  3.88624880e-06  8.10081312e-01  3.88624880e-06  5.01595301e-01  3.88624880e-06  1.80000000e+00  3.88624880e-06  8.72160502e-09  3.88624880e-06  5.00000000e-01                                 
 4.29494690e-06  8.58519639e-01  4.29494690e-06  8.10072011e-01  4.29494690e-06  5.00157391e-01  4.29494690e-06  1.80000000e+00  4.29494690e-06  9.89000578e-09  4.29494690e-06  5.00000000e-01                                 
 5.01724529e-06  8.58527559e-01  5.01724529e-06  8.10079383e-01  5.01724529e-06  5.00786737e-01  5.01724529e-06  1.80000000e+00  5.01724529e-06  8.73702617e-09  5.01724529e-06  5.00000000e-01                                 
 6.00688144e-06  8.58520752e-01  6.00688144e-06  8.10073022e-01  6.00688144e-06  4.99600630e-01  6.00688144e-06  1.80000000e+00  6.00688144e-06  9.87483576e-09  6.00688144e-06  5.00000000e-01                                 
 7.00688144e-06  8.58526717e-01  7.00688144e-06  8.10078619e-01  7.00688144e-06  5.00298068e-01  7.00688144e-06  1.80000000e+00  7.00688144e-06  8.75242987e-09  7.00688144e-06  5.00000000e-01                                 
 8.00688144e-06  8.58521523e-01  8.00688144e-06  8.10073722e-01  8.00688144e-06  5.00038075e-01  8.00688144e-06  1.80000000e+00  8.00688144e-06  9.85797854e-09  8.00688144e-06  5.00000000e-01                                 
 9.00688144e-06  8.58525853e-01  9.00688144e-06  8.10077835e-01  9.00688144e-06  5.00162189e-01  9.00688144e-06  1.80000000e+00  9.00688144e-06  8.76898421e-09  9.00688144e-06  5.00000000e-01                                 
 1.00005000e-05  8.58522142e-01  1.00005000e-05  8.10074284e-01  1.00005000e-05  5.00093843e-01  1.00005000e-05  1.80000000e+00  1.00005000e-05  9.84241532e-09  1.00005000e-05  5.00000000e-01                                 
 1.00005500e-05  8.58522137e-01  1.00005500e-05  8.10074291e-01  1.00005500e-05  4.92175703e-01  1.00005500e-05  1.62000000e+00  1.00005500e-05 -6.90363264e-05  1.00005500e-05  5.00000000e-01                                 
 1.00006500e-05  8.58522150e-01  1.00006500e-05  8.10074313e-01  1.00006500e-05  4.78794688e-01  1.00006500e-05  1.26000000e+00  1.00006500e-05 -4.22862127e-05  1.00006500e-05  5.00000000e-01                                 
 1.00008500e-05  8.58522200e-01  1.00008500e-05  8.10074368e-01  1.00008500e-05  4.78747964e-01  1.00008500e-05  5.40000000e-01  1.00008500e-05 -2.57180007e-05  1.00008500e-05  5.00000000e-01                                 
