 time            v(vbep)         time            v(vben)         time            v(vout)         time            v(vphi1)        time            v(vphi2)        time            v(vref)         time            v(voutc)        time            v(voutcc)       yes             currtemp       
 0.00000000e+00  6.86849114e-01  0.00000000e+00  6.16195926e-01  0.00000000e+00  1.42292472e+00  0.00000000e+00  0.00000000e+00  0.00000000e+00  1.79999999e+00  0.00000000e+00  6.15672712e-01  0.00000000e+00  1.42292471e+00  0.00000000e+00  1.43103624e+00  1.00000000e+00  8.40000000e+01 
 1.00000000e-11  6.86874332e-01  1.00000000e-11  6.16269006e-01  1.00000000e-11  1.42366811e+00  1.00000000e-11  1.80000000e-02  1.00000000e-11  1.80025121e+00  1.00000000e-11  6.16197952e-01  1.00000000e-11  1.42338693e+00  1.00000000e-11  1.43105005e+00                                 
 2.00000000e-11  6.86881054e-01  2.00000000e-11  6.16313604e-01  2.00000000e-11  1.42410714e+00  2.00000000e-11  3.60000000e-02  2.00000000e-11  1.80034793e+00  2.00000000e-11  6.16584360e-01  2.00000000e-11  1.42373117e+00  2.00000000e-11  1.43105487e+00                                 
 4.00000000e-11  6.86880848e-01  4.00000000e-11  6.16371161e-01  4.00000000e-11  1.42461258e+00  4.00000000e-11  7.20000000e-02  4.00000000e-11  1.80038024e+00  4.00000000e-11  6.17146434e-01  4.00000000e-11  1.42423748e+00  4.00000000e-11  1.43105608e+00                                 
 8.00000000e-11  6.86869148e-01  8.00000000e-11  6.16405486e-01  8.00000000e-11  1.42465942e+00  8.00000000e-11  1.44000000e-01  8.00000000e-11  1.80017414e+00  8.00000000e-11  6.17579870e-01  8.00000000e-11  1.42463317e+00  8.00000000e-11  1.43104590e+00                                 
 1.60000000e-10  6.86866414e-01  1.60000000e-10  6.16412700e-01  1.60000000e-10  1.42432654e+00  1.60000000e-10  2.88000000e-01  1.60000000e-10  1.80000479e+00  1.60000000e-10  6.17675962e-01  1.60000000e-10  1.42466939e+00  1.60000000e-10  1.43103704e+00                                 
 3.20000000e-10  6.86861190e-01  3.20000000e-10  6.16399356e-01  3.20000000e-10  1.42395857e+00  3.20000000e-10  5.76000000e-01  3.20000000e-10  1.79998071e+00  3.20000000e-10  6.17516302e-01  3.20000000e-10  1.42432644e+00  3.20000000e-10  1.43103172e+00                                 
 6.40000000e-10  6.86779909e-01  6.40000000e-10  6.15920853e-01  6.40000000e-10  1.42233494e+00  6.40000000e-10  1.15200000e+00  6.40000000e-10  1.80745894e+00  6.40000000e-10  6.14130585e-01  6.40000000e-10  1.42666279e+00  6.40000000e-10  1.43105073e+00                                 
 1.00000000e-09  6.87302778e-01  1.00000000e-09  6.16435197e-01  1.00000000e-09  1.40432897e+00  1.00000000e-09  1.80000000e+00  1.00000000e-09  1.14264338e-01  1.00000000e-09  6.31036758e-01  1.00000000e-09  1.43431305e+00  1.00000000e-09  1.43107822e+00                                 
 1.03803747e-09  6.87387826e-01  1.03803747e-09  6.16416056e-01  1.03803747e-09  1.40253535e+00  1.03803747e-09  1.80000000e+00  1.03803747e-09  2.79608143e-02  1.03803747e-09  6.33932634e-01  1.03803747e-09  1.43579172e+00  1.03803747e-09  1.43108752e+00                                 
 1.11411240e-09  6.87576491e-01  1.11411240e-09  6.16412703e-01  1.11411240e-09  1.40028745e+00  1.11411240e-09  1.80000000e+00  1.11411240e-09 -1.25848782e-02  1.11411240e-09  6.37383214e-01  1.11411240e-09  1.43841459e+00  1.11411240e-09  1.43109256e+00                                 
 1.26626227e-09  6.87700963e-01  1.26626227e-09  6.16244129e-01  1.26626227e-09  1.39693448e+00  1.26626227e-09  1.80000000e+00  1.26626227e-09  9.70496089e-03  1.26626227e-09  6.36608314e-01  1.26626227e-09  1.43805595e+00  1.26626227e-09  1.43105207e+00                                 
 1.45067409e-09  6.87655556e-01  1.45067409e-09  6.16237323e-01  1.45067409e-09  1.39587232e+00  1.45067409e-09  1.80000000e+00  1.45067409e-09 -7.34469937e-03  1.45067409e-09  6.35275052e-01  1.45067409e-09  1.43668696e+00  1.45067409e-09  1.43109806e+00                                 
 1.65625240e-09  6.87537299e-01  1.65625240e-09  6.16236961e-01  1.65625240e-09  1.39542898e+00  1.65625240e-09  1.80000000e+00  1.65625240e-09  5.92945204e-03  1.65625240e-09  6.33439928e-01  1.65625240e-09  1.43531217e+00  1.65625240e-09  1.43114798e+00                                 
 2.02363584e-09  6.87268565e-01  2.02363584e-09  6.16201331e-01  2.02363584e-09  1.39462486e+00  2.02363584e-09  1.80000000e+00  2.02363584e-09 -5.26512463e-03  2.02363584e-09  6.30343256e-01  2.02363584e-09  1.43249910e+00  2.02363584e-09  1.43130556e+00                                 
 2.62109990e-09  6.86974551e-01  2.62109990e-09  6.16211158e-01  2.62109990e-09  1.39329043e+00  2.62109990e-09  1.80000000e+00  2.62109990e-09  4.84493326e-03  2.62109990e-09  6.26352612e-01  2.62109990e-09  1.42923628e+00  2.62109990e-09  1.43155125e+00                                 
 3.61408414e-09  6.86722417e-01  3.61408414e-09  6.16167174e-01  3.61408414e-09  1.38941936e+00  3.61408414e-09  1.80000000e+00  3.61408414e-09 -4.66524926e-03  3.61408414e-09  6.21107297e-01  3.61408414e-09  1.42461444e+00  3.61408414e-09  1.43187848e+00                                 
 5.04638475e-09  6.86646268e-01  5.04638475e-09  6.16186752e-01  5.04638475e-09  1.38290766e+00  5.04638475e-09  1.80000000e+00  5.04638475e-09  4.50476864e-03  5.04638475e-09  6.17031384e-01  5.04638475e-09  1.42127957e+00  5.04638475e-09  1.43205618e+00                                 
 6.30554154e-09  6.86645821e-01  6.30554154e-09  6.16159023e-01  6.30554154e-09  1.37568601e+00  6.30554154e-09  1.80000000e+00  6.30554154e-09 -4.35629612e-03  6.30554154e-09  6.14985960e-01  6.30554154e-09  1.41940668e+00  6.30554154e-09  1.43199541e+00                                 
 7.54591046e-09  6.86693627e-01  7.54591046e-09  6.16192205e-01  7.54591046e-09  1.36797966e+00  7.54591046e-09  1.80000000e+00  7.54591046e-09  4.20362600e-03  7.54591046e-09  6.14308391e-01  7.54591046e-09  1.41895828e+00  7.54591046e-09  1.43181142e+00                                 
 8.86488129e-09  6.86723890e-01  8.86488129e-09  6.16167679e-01  8.86488129e-09  1.35834931e+00  8.86488129e-09  1.80000000e+00  8.86488129e-09 -4.06316818e-03  8.86488129e-09  6.13673820e-01  8.86488129e-09  1.41828746e+00  8.86488129e-09  1.43156307e+00                                 
 1.06784262e-08  6.86786187e-01  1.06784262e-08  6.16203078e-01  1.06784262e-08  1.34443427e+00  1.06784262e-08  1.80000000e+00  1.06784262e-08  3.97173566e-03  1.06784262e-08  6.13757096e-01  1.06784262e-08  1.41846870e+00  1.06784262e-08  1.43118929e+00                                 
 1.28578117e-08  6.86814952e-01  1.28578117e-08  6.16177334e-01  1.28578117e-08  1.32607902e+00  1.28578117e-08  1.80000000e+00  1.28578117e-08 -3.88510947e-03  1.28578117e-08  6.13632488e-01  1.28578117e-08  1.41822589e+00  1.28578117e-08  1.43075790e+00                                 
 1.58825142e-08  6.86856155e-01  1.58825142e-08  6.16210147e-01  1.58825142e-08  1.30005278e+00  1.58825142e-08  1.80000000e+00  1.58825142e-08  3.83846824e-03  1.58825142e-08  6.14136490e-01  1.58825142e-08  1.41875042e+00  1.58825142e-08  1.43022673e+00                                 
 1.98827125e-08  6.86855726e-01  1.98827125e-08  6.16181326e-01  1.98827125e-08  1.26432657e+00  1.98827125e-08  1.80000000e+00  1.98827125e-08 -3.78705840e-03  1.98827125e-08  6.14257265e-01  1.98827125e-08  1.41871326e+00  1.98827125e-08  1.42966258e+00                                 
 2.65357065e-08  6.86867458e-01  2.65357065e-08  6.16211922e-01  2.65357065e-08  1.20509683e+00  2.65357065e-08  1.80000000e+00  2.65357065e-08  3.77233603e-03  2.65357065e-08  6.14936991e-01  2.65357065e-08  1.41938289e+00  2.65357065e-08  1.42899901e+00                                 
 3.67935090e-08  6.86848946e-01  3.67935090e-08  6.16181526e-01  3.67935090e-08  1.11362424e+00  3.67935090e-08  1.80000000e+00  3.67935090e-08 -3.74616398e-03  3.67935090e-08  6.15116221e-01  3.67935090e-08  1.41940310e+00  3.67935090e-08  1.42842672e+00                                 
 5.27406246e-08  6.86856048e-01  5.27406246e-08  6.16211256e-01  5.27406246e-08  9.73845034e-01  5.27406246e-08  1.80000000e+00  5.27406246e-08  3.74674113e-03  5.27406246e-08  6.15643026e-01  5.27406246e-08  1.41995952e+00  5.27406246e-08  1.42808252e+00                                 
 8.46348556e-08  6.86843596e-01  8.46348556e-08  6.16180720e-01  8.46348556e-08  7.20319092e-01  8.46348556e-08  1.80000000e+00  8.46348556e-08 -3.72690567e-03  8.46348556e-08  6.15546488e-01  8.46348556e-08  1.41976269e+00  8.46348556e-08  1.42798923e+00                                 
 1.10356088e-07  6.86859328e-01  1.10356088e-07  6.16211656e-01  1.10356088e-07  6.23055855e-01  1.10356088e-07  1.80000000e+00  1.10356088e-07  3.74635197e-03  1.10356088e-07  6.15804814e-01  1.10356088e-07  1.42009761e+00  1.10356088e-07  1.42802930e+00                                 
 1.36502882e-07  6.86835299e-01  1.36502882e-07  6.16179946e-01  1.36502882e-07  6.15816906e-01  1.36502882e-07  1.80000000e+00  1.36502882e-07 -3.70939842e-03  1.36502882e-07  6.15550712e-01  1.36502882e-07  1.41976646e+00  1.36502882e-07  1.42804336e+00                                 
 1.49179464e-07  6.86860268e-01  1.49179464e-07  6.16211833e-01  1.49179464e-07  6.15311808e-01  1.49179464e-07  1.80000000e+00  1.49179464e-07  3.72840487e-03  1.49179464e-07  6.15796487e-01  1.49179464e-07  1.42008932e+00  1.49179464e-07  1.42804277e+00                                 
 1.69166642e-07  6.86838898e-01  1.69166642e-07  6.16179995e-01  1.69166642e-07  6.15252729e-01  1.69166642e-07  1.80000000e+00  1.69166642e-07 -3.68927519e-03  1.69166642e-07  6.15549927e-01  1.69166642e-07  1.41976501e+00  1.69166642e-07  1.42804297e+00                                 
 2.09140999e-07  6.86858794e-01  2.09140999e-07  6.16211833e-01  2.09140999e-07  6.15110646e-01  2.09140999e-07  1.80000000e+00  2.09140999e-07  3.71665499e-03  2.09140999e-07  6.15795536e-01  2.09140999e-07  1.42008641e+00  2.09140999e-07  1.42804081e+00                                 
 2.63656527e-07  6.86839780e-01  2.63656527e-07  6.16180016e-01  2.63656527e-07  6.15163868e-01  2.63656527e-07  1.80000000e+00  2.63656527e-07 -3.68253596e-03  2.63656527e-07  6.15549872e-01  2.63656527e-07  1.41976206e+00  2.63656527e-07  1.42803958e+00                                 
 3.72687582e-07  6.86858283e-01  3.72687582e-07  6.16211821e-01  3.72687582e-07  6.15118332e-01  3.72687582e-07  1.80000000e+00  3.72687582e-07  3.71235050e-03  3.72687582e-07  6.15795499e-01  3.72687582e-07  1.42008115e+00  3.72687582e-07  1.42803560e+00                                 
 5.90749693e-07  6.86840024e-01  5.90749693e-07  6.16180022e-01  5.90749693e-07  6.15153384e-01  5.90749693e-07  1.80000000e+00  5.90749693e-07 -3.68038811e-03  5.90749693e-07  6.15549891e-01  5.90749693e-07  1.41975177e+00  5.90749693e-07  1.42802925e+00                                 
 9.86020984e-07  6.86858160e-01  9.86020984e-07  6.16211818e-01  9.86020984e-07  6.15116574e-01  9.86020984e-07  1.80000000e+00  9.86020984e-07  3.71123793e-03  9.86020984e-07  6.15795490e-01  9.86020984e-07  1.42006174e+00  9.86020984e-07  1.42801623e+00                                 
 1.77656357e-06  6.86840088e-01  1.77656357e-06  6.16180023e-01  1.77656357e-06  6.15151025e-01  1.77656357e-06  1.80000000e+00  1.77656357e-06 -3.67979915e-03  1.77656357e-06  6.15549895e-01  1.77656357e-06  1.41971430e+00  1.77656357e-06  1.42799181e+00                                 
 2.97656357e-06  6.86858125e-01  2.97656357e-06  6.16211817e-01  2.97656357e-06  6.15118193e-01  2.97656357e-06  1.80000000e+00  2.97656357e-06  3.71091009e-03  2.97656357e-06  6.15795487e-01  2.97656357e-06  1.41999876e+00  2.97656357e-06  1.42795335e+00                                 
 4.17656357e-06  6.86840116e-01  4.17656357e-06  6.16180024e-01  4.17656357e-06  6.15151654e-01  4.17656357e-06  1.80000000e+00  4.17656357e-06 -3.67955590e-03  4.17656357e-06  6.15549897e-01  4.17656357e-06  1.41963833e+00  4.17656357e-06  1.42791592e+00                                 
 5.37656357e-06  6.86858097e-01  5.37656357e-06  6.16211817e-01  5.37656357e-06  6.15119804e-01  5.37656357e-06  1.80000000e+00  5.37656357e-06  3.71064969e-03  5.37656357e-06  6.15795486e-01  5.37656357e-06  1.41992280e+00  5.37656357e-06  1.42787748e+00                                 
 6.00100000e-06  6.86840157e-01  6.00100000e-06  6.16180025e-01  6.00100000e-06  6.15150661e-01  6.00100000e-06  1.80000000e+00  6.00100000e-06 -3.67918047e-03  6.00100000e-06  6.15549901e-01  6.00100000e-06  1.41958063e+00  6.00100000e-06  1.42785828e+00                                 
 6.00110000e-06  6.86795743e-01  6.00110000e-06  6.15957770e-01  6.00110000e-06  6.13530136e-01  6.00110000e-06  1.62000000e+00  6.00110000e-06 -4.40175755e-04  6.00110000e-06  6.14163405e-01  6.00110000e-06  1.41844672e+00  6.00110000e-06  1.42784924e+00                                 
 6.00130000e-06  6.86830782e-01  6.00130000e-06  6.15951414e-01  6.00130000e-06  6.13430931e-01  6.00130000e-06  1.26000000e+00  6.00130000e-06  2.83070883e-04  6.00130000e-06  6.13818719e-01  6.00130000e-06  1.41816395e+00  6.00130000e-06  1.42786143e+00                                 
 6.00164505e-06  6.86899437e-01  6.00164505e-06  6.16167640e-01  6.00164505e-06  6.15507599e-01  6.00164505e-06  6.38909392e-01  6.00164505e-06  6.04952357e-03  6.00164505e-06  6.14257879e-01  6.00164505e-06  1.41543523e+00  6.00164505e-06  1.42784175e+00                                 
 6.00200000e-06  6.86831094e-01  6.00200000e-06  6.14852026e-01  6.00200000e-06  6.47201384e-01  6.00200000e-06  0.00000000e+00  6.00200000e-06  1.60768993e+00  6.00200000e-06  6.00474203e-01  6.00200000e-06  1.20911381e+00  6.00200000e-06  1.42726734e+00                                 
 6.00204193e-06  6.86847558e-01  6.00204193e-06  6.14249732e-01  6.00204193e-06  6.55474033e-01  6.00204193e-06  0.00000000e+00  6.00204193e-06  1.72560553e+00  6.00204193e-06  5.93649849e-01  6.00204193e-06  1.14096189e+00  6.00204193e-06  1.42725268e+00                                 
 6.00212580e-06  6.86850597e-01  6.00212580e-06  6.13301620e-01  6.00212580e-06  6.61858201e-01  6.00212580e-06  0.00000000e+00  6.00212580e-06  1.81313627e+00  6.00212580e-06  5.83014236e-01  6.00212580e-06  1.00292418e+00  6.00212580e-06  1.42763725e+00                                 
 6.00229354e-06  6.86846165e-01  6.00229354e-06  6.13369414e-01  6.00229354e-06  6.50259795e-01  6.00229354e-06  0.00000000e+00  6.00229354e-06  1.78913913e+00  6.00229354e-06  5.84174781e-01  6.00229354e-06  7.95280854e-01  6.00229354e-06  1.42815741e+00                                 
 6.00246280e-06  6.86849010e-01  6.00246280e-06  6.14449471e-01  6.00246280e-06  6.36029537e-01  6.00246280e-06  0.00000000e+00  6.00246280e-06  1.80432319e+00  6.00246280e-06  5.95969557e-01  6.00246280e-06  6.91124243e-01  6.00246280e-06  1.42822405e+00                                 
 6.00263944e-06  6.86846006e-01  6.00263944e-06  6.15369020e-01  6.00263944e-06  6.24755177e-01  6.00263944e-06  0.00000000e+00  6.00263944e-06  1.79718813e+00  6.00263944e-06  6.04959817e-01  6.00263944e-06  6.43805386e-01  6.00263944e-06  1.42825790e+00                                 
 6.00284082e-06  6.86848950e-01  6.00284082e-06  6.16107023e-01  6.00284082e-06  6.19089746e-01  6.00284082e-06  0.00000000e+00  6.00284082e-06  1.80178544e+00  6.00284082e-06  6.11876331e-01  6.00284082e-06  6.25919618e-01  6.00284082e-06  1.42754305e+00                                 
 6.00304618e-06  6.86846709e-01  6.00304618e-06  6.16401309e-01  6.00304618e-06  6.16961770e-01  6.00304618e-06  0.00000000e+00  6.00304618e-06  1.79899286e+00  6.00304618e-06  6.14164545e-01  6.00304618e-06  6.19058895e-01  6.00304618e-06  1.42659041e+00                                 
 6.00331747e-06  6.86849253e-01  6.00331747e-06  6.16611286e-01  6.00331747e-06  6.16323510e-01  6.00331747e-06  0.00000000e+00  6.00331747e-06  1.80075739e+00  6.00331747e-06  6.16052073e-01  6.00331747e-06  6.17019985e-01  6.00331747e-06  1.42490005e+00                                 
 6.00371906e-06  6.86847473e-01  6.00371906e-06  6.16635956e-01  6.00371906e-06  6.16940286e-01  6.00371906e-06  0.00000000e+00  6.00371906e-06  1.79944408e+00  6.00371906e-06  6.16376563e-01  6.00371906e-06  6.16614764e-01  6.00371906e-06  1.42223273e+00                                 
 6.00436307e-06  6.86849733e-01  6.00436307e-06  6.16628244e-01  6.00436307e-06  6.18585966e-01  6.00436307e-06  0.00000000e+00  6.00436307e-06  1.80050318e+00  6.00436307e-06  6.16901576e-01  6.00436307e-06  6.18491956e-01  6.00436307e-06  1.41750346e+00                                 
 6.00543092e-06  6.86848019e-01  6.00543092e-06  6.16530278e-01  6.00543092e-06  6.21805192e-01  6.00543092e-06  0.00000000e+00  6.00543092e-06  1.79956803e+00  6.00543092e-06  6.16734921e-01  6.00543092e-06  6.21349016e-01  6.00543092e-06  1.40931252e+00                                 
 6.00756661e-06  6.86850009e-01  6.00756661e-06  6.16410057e-01  6.00756661e-06  6.28208831e-01  6.00756661e-06  0.00000000e+00  6.00756661e-06  1.80043752e+00  6.00756661e-06  6.16944935e-01  6.00756661e-06  6.28053886e-01  6.00756661e-06  1.39191578e+00                                 
 6.01183800e-06  6.86848185e-01  6.01183800e-06  6.16215879e-01  6.01183800e-06  6.41044521e-01  6.01183800e-06  0.00000000e+00  6.01183800e-06  1.79959737e+00  6.01183800e-06  6.16470734e-01  6.01183800e-06  6.40548492e-01  6.01183800e-06  1.35590107e+00                                 
 6.01894645e-06  6.86850029e-01  6.01894645e-06  6.16184291e-01  6.01894645e-06  6.61603676e-01  6.01894645e-06  0.00000000e+00  6.01894645e-06  1.80042113e+00  6.01894645e-06  6.16391371e-01  6.01894645e-06  6.61415350e-01  6.01894645e-06  1.29460759e+00                                 
 6.03278367e-06  6.86848192e-01  6.03278367e-06  6.16179909e-01  6.03278367e-06  6.99875976e-01  6.03278367e-06  0.00000000e+00  6.03278367e-06  1.79960510e+00  6.03278367e-06  6.15777035e-01  6.03278367e-06  6.99297004e-01  6.03278367e-06  1.17419939e+00                                 
 6.04699259e-06  6.86850031e-01  6.04699259e-06  6.16202013e-01  6.04699259e-06  7.36410609e-01  6.04699259e-06  0.00000000e+00  6.04699259e-06  1.80041383e+00  6.04699259e-06  6.15872885e-01  6.04699259e-06  7.36215442e-01  6.04699259e-06  1.06045085e+00                                 
 6.06577187e-06  6.86848197e-01  6.06577187e-06  6.16185834e-01  6.06577187e-06  7.81055820e-01  6.06577187e-06  0.00000000e+00  6.06577187e-06  1.79960815e+00  6.06577187e-06  6.15562778e-01  6.06577187e-06  7.80290981e-01  6.06577187e-06  9.33606480e-01                                 
 6.09635248e-06  6.86850030e-01  6.09635248e-06  6.16205510e-01  6.09635248e-06  8.45024935e-01  6.09635248e-06  0.00000000e+00  6.09635248e-06  1.80040774e+00  6.09635248e-06  6.15784557e-01  6.09635248e-06  8.44861335e-01  6.09635248e-06  8.42779529e-01                                 
 6.12522797e-06  6.86848199e-01  6.12522797e-06  6.16186201e-01  6.12522797e-06  8.96692086e-01  6.12522797e-06  0.00000000e+00  6.12522797e-06  1.79960770e+00  6.12522797e-06  6.15541082e-01  6.12522797e-06  8.95635391e-01  6.12522797e-06  8.71520236e-01                                 
 6.14088230e-06  6.86850028e-01  6.14088230e-06  6.16206002e-01  6.14088230e-06  9.21306785e-01  6.14088230e-06  0.00000000e+00  6.14088230e-06  1.80040374e+00  6.14088230e-06  6.15788423e-01  6.14088230e-06  9.21239668e-01  6.14088230e-06  8.97329985e-01                                 
 6.15679151e-06  6.86848202e-01  6.15679151e-06  6.16185563e-01  6.15679151e-06  9.44373581e-01  6.15679151e-06  0.00000000e+00  6.15679151e-06  1.79961109e+00  6.15679151e-06  6.15538186e-01  6.15679151e-06  9.43188730e-01  6.15679151e-06  9.21524337e-01                                 
