 time            v(vbep)         time            v(vben)         time            v(vout)         time            v(vphi1)        time            v(vphi2)        time            v(vref)         yes             currtemp       
 0.00000000e+00  5.42365484e-01  0.00000000e+00  4.75899284e-01  0.00000000e+00  1.90390580e-01  0.00000000e+00  0.00000000e+00  0.00000000e+00  1.79997732e+00  0.00000000e+00  5.00000000e-01  1.00000000e+00  9.20000000e+01 
 5.00000000e-12  5.42348341e-01  5.00000000e-12  4.75885045e-01  5.00000000e-12  1.91000328e-01  5.00000000e-12  1.80000000e-02  5.00000000e-12  1.80007349e+00  5.00000000e-12  5.00000000e-01                                 
 1.00000000e-11  5.42331408e-01  1.00000000e-11  4.75871093e-01  1.00000000e-11  1.91547844e-01  1.00000000e-11  3.60000000e-02  1.00000000e-11  1.80012119e+00  1.00000000e-11  5.00000000e-01                                 
 2.00000000e-11  5.42297644e-01  2.00000000e-11  4.75843263e-01  2.00000000e-11  1.92547218e-01  2.00000000e-11  7.20000000e-02  2.00000000e-11  1.80016302e+00  2.00000000e-11  5.00000000e-01                                 
 4.00000000e-11  5.42230310e-01  4.00000000e-11  4.75787737e-01  4.00000000e-11  1.94114097e-01  4.00000000e-11  1.44000000e-01  4.00000000e-11  1.80013161e+00  4.00000000e-11  5.00000000e-01                                 
 8.00000000e-11  5.42096018e-01  8.00000000e-11  4.75676956e-01  8.00000000e-11  1.96219425e-01  8.00000000e-11  2.88000000e-01  8.00000000e-11  1.80007696e+00  8.00000000e-11  5.00000000e-01                                 
 1.60000000e-10  5.41828989e-01  1.60000000e-10  4.75456457e-01  1.60000000e-10  1.98712330e-01  1.60000000e-10  5.76000000e-01  1.60000000e-10  1.80003176e+00  1.60000000e-10  5.00000000e-01                                 
 3.20000000e-10  5.41300892e-01  3.20000000e-10  4.75019579e-01  3.20000000e-10  2.16134611e-01  3.20000000e-10  1.15200000e+00  3.20000000e-10  1.80031065e+00  3.20000000e-10  5.00000000e-01                                 
 5.00000000e-10  5.40716012e-01  5.00000000e-10  4.74534472e-01  5.00000000e-10  4.79295326e-01  5.00000000e-10  1.80000000e+00  5.00000000e-10  1.42627035e-01  5.00000000e-10  5.00000000e-01                                 
 5.22904782e-10  5.40642358e-01  5.22904782e-10  4.74473278e-01  5.22904782e-10  5.38050376e-01  5.22904782e-10  1.80000000e+00  5.22904782e-10  3.07938536e-02  5.22904782e-10  5.00000000e-01                                 
 5.68714346e-10  5.40495358e-01  5.68714346e-10  4.74351106e-01  5.68714346e-10  6.47889556e-01  5.68714346e-10  1.80000000e+00  5.68714346e-10 -1.39126037e-02  5.68714346e-10  5.00000000e-01                                 
 6.60333475e-10  5.40203219e-01  6.60333475e-10  4.74108062e-01  6.60333475e-10  8.25498341e-01  6.60333475e-10  1.80000000e+00  6.60333475e-10  1.12163186e-02  6.60333475e-10  5.00000000e-01                                 
 7.83527804e-10  5.39814201e-01  7.83527804e-10  4.73783919e-01  7.83527804e-10  1.00538716e+00  7.83527804e-10  1.80000000e+00  7.83527804e-10 -9.42591661e-03  7.83527804e-10  5.00000000e-01                                 
 9.82283035e-10  5.39195449e-01  9.82283035e-10  4.73267185e-01  9.82283035e-10  1.22785245e+00  9.82283035e-10  1.80000000e+00  9.82283035e-10  8.74124646e-03  9.82283035e-10  5.00000000e-01                                 
 1.29485213e-09  5.38243656e-01  1.29485213e-09  4.72469556e-01  1.29485213e-09  1.47872606e+00  1.29485213e-09  1.80000000e+00  1.29485213e-09 -8.08697812e-03  1.29485213e-09  5.00000000e-01                                 
 1.88694922e-09  5.36507383e-01  1.88694922e-09  4.71006110e-01  1.88694922e-09  1.70782592e+00  1.88694922e-09  1.80000000e+00  1.88694922e-09  7.97819145e-03  1.88694922e-09  5.00000000e-01                                 
 2.17549086e-09  5.35691443e-01  2.17549086e-09  4.70314578e-01  2.17549086e-09  1.74193581e+00  2.17549086e-09  1.80000000e+00  2.17549086e-09 -7.37193450e-03  2.17549086e-09  5.00000000e-01                                 
 2.51088879e-09  5.34766049e-01  2.51088879e-09  4.69527453e-01  2.51088879e-09  1.76023927e+00  2.51088879e-09  1.80000000e+00  2.51088879e-09  7.08108537e-03  2.51088879e-09  5.00000000e-01                                 
 2.89180801e-09  5.33743605e-01  2.89180801e-09  4.68654339e-01  2.89180801e-09  1.76807210e+00  2.89180801e-09  1.80000000e+00  2.89180801e-09 -6.66492394e-03  2.89180801e-09  5.00000000e-01                                 
 3.57659380e-09  5.31976314e-01  3.57659380e-09  4.67136933e-01  3.57659380e-09  1.77109449e+00  3.57659380e-09  1.80000000e+00  3.57659380e-09  6.57114898e-03  3.57659380e-09  5.00000000e-01                                 
 4.33887290e-09  5.30107732e-01  4.33887290e-09  4.65521387e-01  4.33887290e-09  1.76965622e+00  4.33887290e-09  1.80000000e+00  4.33887290e-09 -6.34359651e-03  4.33887290e-09  5.00000000e-01                                 
 5.72946478e-09  5.26930429e-01  5.72946478e-09  4.62749773e-01  5.72946478e-09  1.76673319e+00  5.72946478e-09  1.80000000e+00  5.72946478e-09  6.33767426e-03  5.72946478e-09  5.00000000e-01                                 
 7.89551936e-09  5.22477528e-01  7.89551936e-09  4.58816729e-01  7.89551936e-09  1.76181534e+00  7.89551936e-09  1.80000000e+00  7.89551936e-09 -6.20924119e-03  7.89551936e-09  5.00000000e-01                                 
 9.37292066e-09  5.19734273e-01  9.37292066e-09  4.56366024e-01  9.37292066e-09  1.75875834e+00  9.37292066e-09  1.80000000e+00  9.37292066e-09  6.20244819e-03  9.37292066e-09  5.00000000e-01                                 
 1.14306632e-08  5.16231504e-01  1.14306632e-08  4.53209781e-01  1.14306632e-08  1.75450223e+00  1.14306632e-08  1.80000000e+00  1.14306632e-08 -6.08542103e-03  1.14306632e-08  5.00000000e-01                                 
 1.35993452e-08  5.12880781e-01  1.35993452e-08  4.50163429e-01  1.35993452e-08  1.75026197e+00  1.35993452e-08  1.80000000e+00  1.35993452e-08  6.09394491e-03  1.35993452e-08  5.00000000e-01                                 
 1.59744290e-08  5.09547492e-01  1.59744290e-08  4.47108025e-01  1.59744290e-08  1.74555271e+00  1.59744290e-08  1.80000000e+00  1.59744290e-08 -5.99096565e-03  1.59744290e-08  5.00000000e-01                                 
 1.87384284e-08  5.06041374e-01  1.87384284e-08  4.43868223e-01  1.87384284e-08  1.74030683e+00  1.87384284e-08  1.80000000e+00  1.87384284e-08  6.00799564e-03  1.87384284e-08  5.00000000e-01                                 
 2.27398043e-08  5.01550898e-01  2.27398043e-08  4.39680490e-01  2.27398043e-08  1.73280266e+00  2.27398043e-08  1.80000000e+00  2.27398043e-08 -5.92542946e-03  2.27398043e-08  5.00000000e-01                                 
 2.89844275e-08  4.95619213e-01  2.89844275e-08  4.34082633e-01  2.89844275e-08  1.72190425e+00  2.89844275e-08  1.80000000e+00  2.89844275e-08  5.96397497e-03  2.89844275e-08  5.00000000e-01                                 
 4.03252058e-08  4.87084178e-01  4.03252058e-08  4.25908907e-01  4.03252058e-08  1.70328289e+00  4.03252058e-08  1.80000000e+00  4.03252058e-08 -5.89876685e-03  4.03252058e-08  5.00000000e-01                                 
 6.30067624e-08  4.74658813e-01  6.30067624e-08  4.13836079e-01  6.30067624e-08  1.66922579e+00  6.30067624e-08  1.80000000e+00  6.30067624e-08  5.95012037e-03  6.30067624e-08  5.00000000e-01                                 
 9.84138630e-08  4.61050116e-01  9.84138630e-08  4.00535882e-01  9.84138630e-08  1.62054419e+00  9.84138630e-08  1.80000000e+00  9.84138630e-08 -5.89099338e-03  9.84138630e-08  5.00000000e-01                                 
 1.46952777e-07  4.43556881e-01  1.46952777e-07  3.84248734e-01  1.46952777e-07  1.55421287e+00  1.46952777e-07  1.80000000e+00  1.46952777e-07  5.94498099e-03  1.46952777e-07  5.00000000e-01                                 
 2.14065980e-07  4.21577140e-01  2.14065980e-07  3.64489441e-01  2.14065980e-07  1.46278613e+00  2.14065980e-07  1.80000000e+00  2.14065980e-07 -5.88721765e-03  2.14065980e-07  5.00000000e-01                                 
 2.84982073e-07  4.01289653e-01  2.84982073e-07  3.46689668e-01  2.84982073e-07  1.36791211e+00  2.84982073e-07  1.80000000e+00  2.84982073e-07  5.94197968e-03  2.84982073e-07  5.00000000e-01                                 
 4.01780862e-07  3.63637590e-01  4.01780862e-07  3.14988553e-01  4.01780862e-07  1.20755785e+00  4.01780862e-07  1.80000000e+00  4.01780862e-07 -5.88488496e-03  4.01780862e-07  5.00000000e-01                                 
 5.06697234e-07  3.27326184e-01  5.06697234e-07  2.85235995e-01  5.06697234e-07  1.06949668e+00  5.06697234e-07  1.80000000e+00  5.06697234e-07  5.94006918e-03  5.06697234e-07  5.00000000e-01                                 
 5.32926327e-07  3.23908684e-01  5.32926327e-07  2.82423206e-01  5.32926327e-07  1.04397135e+00  5.32926327e-07  1.80000000e+00  5.32926327e-07  1.49832881e-05  5.32926327e-07  5.00000000e-01                                 
 5.85384513e-07  3.75791323e-01  5.85384513e-07  3.23825593e-01  5.85384513e-07  1.04762433e+00  5.85384513e-07  1.80000000e+00  5.85384513e-07  1.41324327e-05  5.85384513e-07  5.00000000e-01                                 
 6.67655610e-07  6.33254786e-01  6.67655610e-07  5.63522861e-01  6.67655610e-07  1.21363362e+00  6.67655610e-07  1.80000000e+00  6.67655610e-07  1.81949607e-05  6.67655610e-07  5.00000000e-01                                 
 7.16108831e-07  6.80733564e-01  7.16108831e-07  6.07667622e-01  7.16108831e-07  1.20910143e+00  7.16108831e-07  1.80000000e+00  7.16108831e-07  1.16731467e-05  7.16108831e-07  5.00000000e-01                                 
 7.63606712e-07  6.98167391e-01  7.63606712e-07  6.22171307e-01  7.63606712e-07  1.17438745e+00  7.63606712e-07  1.80000000e+00  7.63606712e-07  1.68894238e-05  7.63606712e-07  5.00000000e-01                                 
 7.75114944e-07  6.99695901e-01  7.75114944e-07  6.23485437e-01  7.75114944e-07  1.16456241e+00  7.75114944e-07  1.80000000e+00  7.75114944e-07  1.42442222e-05  7.75114944e-07  5.00000000e-01                                 
 7.98131407e-07  7.01693805e-01  7.98131407e-07  6.25121773e-01  7.98131407e-07  1.14286466e+00  7.98131407e-07  1.80000000e+00  7.98131407e-07  1.39992785e-05  7.98131407e-07  5.00000000e-01                                 
 8.44164335e-07  7.03552979e-01  8.44164335e-07  6.26618017e-01  8.44164335e-07  1.09901244e+00  8.44164335e-07  1.80000000e+00  8.44164335e-07  1.41171507e-05  8.44164335e-07  5.00000000e-01                                 
 8.96556112e-07  6.89809165e-01  8.96556112e-07  6.15340669e-01  8.96556112e-07  1.03943167e+00  8.96556112e-07  1.80000000e+00  8.96556112e-07  1.35187034e-05  8.96556112e-07  5.00000000e-01                                 
 9.04608357e-07  6.84987375e-01  9.04608357e-07  6.11252144e-01  9.04608357e-07  1.02844935e+00  9.04608357e-07  1.80000000e+00  9.04608357e-07  1.35196599e-05  9.04608357e-07  5.00000000e-01                                 
 9.20712845e-07  6.77490213e-01  9.20712845e-07  6.04770306e-01  9.20712845e-07  1.00890422e+00  9.20712845e-07  1.80000000e+00  9.20712845e-07  1.37331224e-05  9.20712845e-07  5.00000000e-01                                 
 9.52921821e-07  6.78054598e-01  9.52921821e-07  6.05228520e-01  9.52921821e-07  9.85549128e-01  9.52921821e-07  1.80000000e+00  9.52921821e-07  1.43264731e-05  9.52921821e-07  5.00000000e-01                                 
 1.01062850e-06  6.91659298e-01  1.01062850e-06  6.16850196e-01  1.01062850e-06  9.57435269e-01  1.01062850e-06  1.80000000e+00  1.01062850e-06  1.41345625e-05  1.01062850e-06  5.00000000e-01                                 
 1.06596644e-06  6.90347200e-01  1.06596644e-06  6.15768669e-01  1.06596644e-06  9.19737187e-01  1.06596644e-06  1.80000000e+00  1.06596644e-06  1.38913542e-05  1.06596644e-06  5.00000000e-01                                 
 1.14069609e-06  6.83084440e-01  1.14069609e-06  6.09592030e-01  1.14069609e-06  8.66474516e-01  1.14069609e-06  1.80000000e+00  1.14069609e-06  1.39976704e-05  1.14069609e-06  5.00000000e-01                                 
 1.26864240e-06  6.88953790e-01  1.26864240e-06  6.14582399e-01  1.26864240e-06  7.94662818e-01  1.26864240e-06  1.80000000e+00  1.26864240e-06  1.41353000e-05  1.26864240e-06  5.00000000e-01                                 
 1.39304458e-06  6.87639802e-01  1.39304458e-06  6.13480324e-01  1.39304458e-06  7.21733644e-01  1.39304458e-06  1.80000000e+00  1.39304458e-06  1.39060848e-05  1.39304458e-06  5.00000000e-01                                 
 1.56922126e-06  6.85345722e-01  1.56922126e-06  6.11523324e-01  1.56922126e-06  6.23994995e-01  1.56922126e-06  1.80000000e+00  1.56922126e-06  1.41266012e-05  1.56922126e-06  5.00000000e-01                                 
 1.84825615e-06  6.89342881e-01  1.84825615e-06  6.14915645e-01  1.84825615e-06  5.20562456e-01  1.84825615e-06  1.80000000e+00  1.84825615e-06  1.39566003e-05  1.84825615e-06  5.00000000e-01                                 
 1.88612477e-06  6.87250481e-01  1.88612477e-06  6.13148644e-01  1.88612477e-06  5.11389859e-01  1.88612477e-06  1.80000000e+00  1.88612477e-06  1.39821735e-05  1.88612477e-06  5.00000000e-01                                 
 1.96186201e-06  6.86187873e-01  1.96186201e-06  6.12242380e-01  1.96186201e-06  4.98606885e-01  1.96186201e-06  1.80000000e+00  1.96186201e-06  1.40505005e-05  1.96186201e-06  5.00000000e-01                                 
 2.11333650e-06  6.88030493e-01  2.11333650e-06  6.13806381e-01  2.11333650e-06  4.92516680e-01  2.11333650e-06  1.80000000e+00  2.11333650e-06  1.40282782e-05  2.11333650e-06  5.00000000e-01                                 
 2.25037750e-06  6.86561355e-01  2.25037750e-06  6.12562074e-01  2.25037750e-06  5.00195679e-01  2.25037750e-06  1.80000000e+00  2.25037750e-06  1.40112181e-05  2.25037750e-06  5.00000000e-01                                 
 2.41449925e-06  6.87323979e-01  2.41449925e-06  6.13206786e-01  2.41449925e-06  5.01944519e-01  2.41449925e-06  1.80000000e+00  2.41449925e-06  1.40500128e-05  2.41449925e-06  5.00000000e-01                                 
 2.67946312e-06  6.87175744e-01  2.67946312e-06  6.13083926e-01  2.67946312e-06  4.98676573e-01  2.67946312e-06  1.80000000e+00  2.67946312e-06  1.40066350e-05  2.67946312e-06  5.00000000e-01                                 
 2.95675601e-06  6.86913625e-01  2.95675601e-06  6.12858872e-01  2.95675601e-06  5.01391792e-01  2.95675601e-06  1.80000000e+00  2.95675601e-06  1.40468734e-05  2.95675601e-06  5.00000000e-01                                 
 3.32004925e-06  6.87465488e-01  3.32004925e-06  6.13329205e-01  3.32004925e-06  4.99459966e-01  3.32004925e-06  1.80000000e+00  3.32004925e-06  1.40124199e-05  3.32004925e-06  5.00000000e-01                                 
 3.81858817e-06  6.86745906e-01  3.81858817e-06  6.12716832e-01  3.81858817e-06  5.00838384e-01  3.81858817e-06  1.80000000e+00  3.81858817e-06  1.40409672e-05  3.81858817e-06  5.00000000e-01                                 
 4.47277750e-06  6.87556387e-01  4.47277750e-06  6.13405921e-01  4.47277750e-06  4.99849029e-01  4.47277750e-06  1.80000000e+00  4.47277750e-06  1.40174634e-05  4.47277750e-06  5.00000000e-01                                 
 5.44213205e-06  6.86695991e-01  5.44213205e-06  6.12674671e-01  5.44213205e-06  5.00591939e-01  5.44213205e-06  1.80000000e+00  5.44213205e-06  1.40370768e-05  5.44213205e-06  5.00000000e-01                                 
 6.44213205e-06  6.87584121e-01  6.44213205e-06  6.13429228e-01  6.44213205e-06  5.00025842e-01  6.44213205e-06  1.80000000e+00  6.44213205e-06  1.40206557e-05  6.44213205e-06  5.00000000e-01                                 
 7.44213205e-06  6.86676939e-01  7.44213205e-06  6.12658677e-01  7.44213205e-06  5.00432695e-01  7.44213205e-06  1.80000000e+00  7.44213205e-06  1.40338866e-05  7.44213205e-06  5.00000000e-01                                 
 8.44213205e-06  6.87594470e-01  8.44213205e-06  6.13437810e-01  8.44213205e-06  5.00165811e-01  8.44213205e-06  1.80000000e+00  8.44213205e-06  1.40238658e-05  8.44213205e-06  5.00000000e-01                                 
 9.44213205e-06  6.86674532e-01  9.44213205e-06  6.12656818e-01  9.44213205e-06  5.00308734e-01  9.44213205e-06  1.80000000e+00  9.44213205e-06  1.40306826e-05  9.44213205e-06  5.00000000e-01                                 
 1.00005000e-05  6.87582950e-01  1.00005000e-05  6.13427802e-01  1.00005000e-05  5.00302177e-01  1.00005000e-05  1.80000000e+00  1.00005000e-05  1.40282587e-05  1.00005000e-05  5.00000000e-01                                 
 1.00005500e-05  6.87582675e-01  1.00005500e-05  6.13427576e-01  1.00005500e-05  4.92988509e-01  1.00005500e-05  1.62000000e+00  1.00005500e-05 -7.35063801e-05  1.00005500e-05  5.00000000e-01                                 
 1.00006500e-05  6.87582151e-01  1.00006500e-05  6.13427131e-01  1.00006500e-05  4.79442243e-01  1.00006500e-05  1.26000000e+00  1.00006500e-05 -6.20036890e-05  1.00006500e-05  5.00000000e-01                                 
 1.00008500e-05  6.87581138e-01  1.00008500e-05  6.13426263e-01  1.00008500e-05  4.78953295e-01  1.00008500e-05  5.40000000e-01  1.00008500e-05  1.54198192e-01  1.00008500e-05  5.00000000e-01                                 
 1.00010000e-05  6.87580294e-01  1.00010000e-05  6.13425566e-01  1.00010000e-05  4.44358494e-01  1.00010000e-05  0.00000000e+00  1.00010000e-05  1.63627672e+00  1.00010000e-05  5.00000000e-01                                 
 1.00010247e-05  6.87580139e-01  1.00010247e-05  6.13425440e-01  1.00010247e-05  4.25747572e-01  1.00010247e-05  0.00000000e+00  1.00010247e-05  1.74522082e+00  1.00010247e-05  5.00000000e-01                                 
 1.00010741e-05  6.87579863e-01  1.00010741e-05  6.13425201e-01  1.00010741e-05  3.93109285e-01  1.00010741e-05  0.00000000e+00  1.00010741e-05  1.81589805e+00  1.00010741e-05  5.00000000e-01                                 
 1.00011730e-05  6.87579401e-01  1.00011730e-05  6.13424782e-01  1.00011730e-05  3.60101008e-01  1.00011730e-05  0.00000000e+00  1.00011730e-05  1.78865458e+00  1.00011730e-05  5.00000000e-01                                 
 1.00013333e-05  6.87578633e-01  1.00013333e-05  6.13424132e-01  1.00013333e-05  3.51997004e-01  1.00013333e-05  0.00000000e+00  1.00013333e-05  1.80798573e+00  1.00013333e-05  5.00000000e-01                                 
 1.00015779e-05  6.87577303e-01  1.00015779e-05  6.13423025e-01  1.00015779e-05  3.52521117e-01  1.00015779e-05  0.00000000e+00  1.00015779e-05  1.79325761e+00  1.00015779e-05  5.00000000e-01                                 
 1.00018175e-05  6.87575841e-01  1.00018175e-05  6.13421804e-01  1.00018175e-05  3.52626399e-01  1.00018175e-05  0.00000000e+00  1.00018175e-05  1.80551765e+00  1.00018175e-05  5.00000000e-01                                 
 1.00022443e-05  6.87573024e-01  1.00022443e-05  6.13419443e-01  1.00022443e-05  3.52487866e-01  1.00022443e-05  0.00000000e+00  1.00022443e-05  1.79502098e+00  1.00022443e-05  5.00000000e-01                                 
 1.00027883e-05  6.87569289e-01  1.00027883e-05  6.13416296e-01  1.00027883e-05  3.52720205e-01  1.00027883e-05  0.00000000e+00  1.00027883e-05  1.80456060e+00  1.00027883e-05  5.00000000e-01                                 
 1.00038761e-05  6.87561713e-01  1.00038761e-05  6.13409894e-01  1.00038761e-05  3.53047765e-01  1.00038761e-05  0.00000000e+00  1.00038761e-05  1.79561066e+00  1.00038761e-05  5.00000000e-01                                 
 1.00060518e-05  6.87545064e-01  1.00060518e-05  6.13395845e-01  1.00060518e-05  3.54603173e-01  1.00060518e-05  0.00000000e+00  1.00060518e-05  1.80428317e+00  1.00060518e-05  5.00000000e-01                                 
