 time            v(vbep)         time            v(vben)         time            v(vout)         time            v(vphi1)        time            v(vphi2)        time            v(vref)         time            v(voutc)        time            v(voutcc)       yes             currtemp       
 0.00000000e+00  7.25160396e-01  0.00000000e+00  6.60000191e-01  0.00000000e+00  1.50670504e+00  0.00000000e+00  0.00000000e+00  0.00000000e+00  1.79999999e+00  0.00000000e+00  6.60991459e-01  0.00000000e+00  1.50670503e+00  0.00000000e+00  1.51402719e+00  1.00000000e+00  5.90000000e+01 
 1.00000000e-11  7.25185504e-01  1.00000000e-11  6.60072471e-01  1.00000000e-11  1.50747255e+00  1.00000000e-11  1.80000000e-02  1.00000000e-11  1.80025354e+00  1.00000000e-11  6.61525650e-01  1.00000000e-11  1.50717669e+00  1.00000000e-11  1.51403942e+00                                 
 2.00000000e-11  7.25192348e-01  2.00000000e-11  6.60117310e-01  2.00000000e-11  1.50793490e+00  2.00000000e-11  3.60000000e-02  2.00000000e-11  1.80035295e+00  2.00000000e-11  6.61920871e-01  2.00000000e-11  1.50753113e+00  2.00000000e-11  1.51404350e+00                                 
 4.00000000e-11  7.25192353e-01  4.00000000e-11  6.60176019e-01  4.00000000e-11  1.50848015e+00  4.00000000e-11  7.20000000e-02  4.00000000e-11  1.80038959e+00  4.00000000e-11  6.62498402e-01  4.00000000e-11  1.50805682e+00  4.00000000e-11  1.51404389e+00                                 
 8.00000000e-11  7.25180747e-01  8.00000000e-11  6.60213068e-01  8.00000000e-11  1.50856388e+00  8.00000000e-11  1.44000000e-01  8.00000000e-11  1.80018414e+00  8.00000000e-11  6.62947785e-01  8.00000000e-11  1.50847825e+00  8.00000000e-11  1.51403322e+00                                 
 1.60000000e-10  7.25178011e-01  1.60000000e-10  6.60223102e-01  1.60000000e-10  1.50822677e+00  1.60000000e-10  2.88000000e-01  1.60000000e-10  1.80000537e+00  1.60000000e-10  6.63038790e-01  1.60000000e-10  1.50852239e+00  1.60000000e-10  1.51402400e+00                                 
 3.20000000e-10  7.25173508e-01  3.20000000e-10  6.60214679e-01  3.20000000e-10  1.50784187e+00  3.20000000e-10  5.76000000e-01  3.20000000e-10  1.79998242e+00  3.20000000e-10  6.62874150e-01  3.20000000e-10  1.50817725e+00  3.20000000e-10  1.51401897e+00                                 
 6.40000000e-10  7.25090268e-01  6.40000000e-10  6.59794670e-01  6.40000000e-10  1.50610491e+00  6.40000000e-10  1.15200000e+00  6.40000000e-10  1.81011046e+00  6.40000000e-10  6.60172086e-01  6.40000000e-10  1.51214083e+00  6.40000000e-10  1.51404488e+00                                 
 1.00000000e-09  7.25670733e-01  1.00000000e-09  6.60162139e-01  1.00000000e-09  1.48493668e+00  1.00000000e-09  1.80000000e+00  1.00000000e-09  1.01609846e-01  1.00000000e-09  6.75053845e-01  1.00000000e-09  1.51645168e+00  1.00000000e-09  1.51403846e+00                                 
 1.03705457e-09  7.25739049e-01  1.03705457e-09  6.60179224e-01  1.03705457e-09  1.48358204e+00  1.03705457e-09  1.80000000e+00  1.03705457e-09  2.36702407e-02  1.03705457e-09  6.78236342e-01  1.03705457e-09  1.51821602e+00  1.03705457e-09  1.51406555e+00                                 
 1.11116370e-09  7.25900495e-01  1.11116370e-09  6.60223508e-01  1.11116370e-09  1.48186297e+00  1.11116370e-09  1.80000000e+00  1.11116370e-09 -1.11283139e-02  1.11116370e-09  6.82280166e-01  1.11116370e-09  1.52135768e+00  1.11116370e-09  1.51408254e+00                                 
 1.25938198e-09  7.26031048e-01  1.25938198e-09  6.60079166e-01  1.25938198e-09  1.47883761e+00  1.25938198e-09  1.80000000e+00  1.25938198e-09  8.88595523e-03  1.25938198e-09  6.82292210e-01  1.25938198e-09  1.52164966e+00  1.25938198e-09  1.51403459e+00                                 
 1.44773493e-09  7.26002418e-01  1.44773493e-09  6.60060477e-01  1.44773493e-09  1.47804200e+00  1.44773493e-09  1.80000000e+00  1.44773493e-09 -6.80009555e-03  1.44773493e-09  6.81319921e-01  1.44773493e-09  1.52060474e+00  1.44773493e-09  1.51407062e+00                                 
 1.65853446e-09  7.25901679e-01  1.65853446e-09  6.60057016e-01  1.65853446e-09  1.47781848e+00  1.65853446e-09  1.80000000e+00  1.65853446e-09  5.65680800e-03  1.65853446e-09  6.79677586e-01  1.65853446e-09  1.51938816e+00  1.65853446e-09  1.51409804e+00                                 
 2.01054296e-09  7.25651811e-01  2.01054296e-09  6.60011069e-01  2.01054296e-09  1.47755811e+00  2.01054296e-09  1.80000000e+00  2.01054296e-09 -5.05704478e-03  2.01054296e-09  6.76935084e-01  2.01054296e-09  1.51688412e+00  2.01054296e-09  1.51421721e+00                                 
 2.51280486e-09  7.25382381e-01  2.51280486e-09  6.60013911e-01  2.51280486e-09  1.47749143e+00  2.51280486e-09  1.80000000e+00  2.51280486e-09  4.58122587e-03  2.51280486e-09  6.73689389e-01  2.51280486e-09  1.51425257e+00  2.51280486e-09  1.51438358e+00                                 
 3.23450654e-09  7.25130449e-01  3.23450654e-09  6.59967666e-01  3.23450654e-09  1.47655717e+00  3.23450654e-09  1.80000000e+00  3.23450654e-09 -4.40018078e-03  3.23450654e-09  6.69416600e-01  3.23450654e-09  1.51046371e+00  3.23450654e-09  1.51461992e+00                                 
 4.35836515e-09  7.24988285e-01  4.35836515e-09  6.59985321e-01  4.35836515e-09  1.47490909e+00  4.35836515e-09  1.80000000e+00  4.35836515e-09  4.19288357e-03  4.35836515e-09  6.65068190e-01  4.35836515e-09  1.50688187e+00  4.35836515e-09  1.51485070e+00                                 
 5.89160781e-09  7.24938591e-01  5.89160781e-09  6.59959861e-01  5.89160781e-09  1.47077565e+00  5.89160781e-09  1.80000000e+00  5.89160781e-09 -4.11221834e-03  5.89160781e-09  6.61287470e-01  5.89160781e-09  1.50353427e+00  5.89160781e-09  1.51492995e+00                                 
 7.23884264e-09  7.24976069e-01  7.23884264e-09  6.59994625e-01  7.23884264e-09  1.46618765e+00  7.23884264e-09  1.80000000e+00  7.23884264e-09  3.97517763e-03  7.23884264e-09  6.59986950e-01  7.23884264e-09  1.50255144e+00  7.23884264e-09  1.51481286e+00                                 
 8.72222781e-09  7.25011145e-01  8.72222781e-09  6.59972204e-01  8.72222781e-09  1.45930629e+00  8.72222781e-09  1.80000000e+00  8.72222781e-09 -3.87695311e-03  8.72222781e-09  6.58986603e-01  8.72222781e-09  1.50157681e+00  8.72222781e-09  1.51458807e+00                                 
 1.01726549e-08  7.25066600e-01  1.01726549e-08  6.60005800e-01  1.01726549e-08  1.45193031e+00  1.01726549e-08  1.80000000e+00  1.01726549e-08  3.76654441e-03  1.01726549e-08  6.58945719e-01  1.01726549e-08  1.50165340e+00  1.01726549e-08  1.51431661e+00                                 
 1.22980360e-08  7.25106242e-01  1.22980360e-08  6.59981493e-01  1.22980360e-08  1.43922549e+00  1.22980360e-08  1.80000000e+00  1.22980360e-08 -3.69781116e-03  1.22980360e-08  6.58689989e-01  1.22980360e-08  1.50130725e+00  1.22980360e-08  1.51391219e+00                                 
 1.47333352e-08  7.25151897e-01  1.47333352e-08  6.60013153e-01  1.47333352e-08  1.42392367e+00  1.47333352e-08  1.80000000e+00  1.47333352e-08  3.63736022e-03  1.47333352e-08  6.59121869e-01  1.47333352e-08  1.50177072e+00  1.47333352e-08  1.51347050e+00                                 
 1.83518982e-08  7.25163351e-01  1.83518982e-08  6.59985969e-01  1.83518982e-08  1.39944229e+00  1.83518982e-08  1.80000000e+00  1.83518982e-08 -3.59657244e-03  1.83518982e-08  6.59245761e-01  1.83518982e-08  1.50174048e+00  1.83518982e-08  1.51290612e+00                                 
 2.30235832e-08  7.25179134e-01  2.30235832e-08  6.60015481e-01  2.30235832e-08  1.36748926e+00  2.30235832e-08  1.80000000e+00  2.30235832e-08  3.56684929e-03  2.30235832e-08  6.59895201e-01  2.30235832e-08  1.50238049e+00  2.30235832e-08  1.51232523e+00                                 
 3.14329306e-08  7.25164462e-01  3.14329306e-08  6.59986580e-01  3.14329306e-08  1.30874036e+00  3.14329306e-08  1.80000000e+00  3.14329306e-08 -3.54906064e-03  3.14329306e-08  6.60164087e-01  3.14329306e-08  1.50247319e+00  3.14329306e-08  1.51160720e+00                                 
 4.43958001e-08  7.25169351e-01  4.43958001e-08  6.60015056e-01  4.43958001e-08  1.21863837e+00  4.43958001e-08  1.80000000e+00  4.43958001e-08  3.53885450e-03  4.43958001e-08  6.60815127e-01  4.43958001e-08  1.50312038e+00  4.43958001e-08  1.51100930e+00                                 
 7.03215392e-08  7.25155444e-01  7.03215392e-08  6.59985765e-01  7.03215392e-08  1.03898854e+00  7.03215392e-08  1.80000000e+00  7.03215392e-08 -3.53238633e-03  7.03215392e-08  6.60841689e-01  7.03215392e-08  1.50302584e+00  7.03215392e-08  1.51060024e+00                                 
 1.04007014e-07  7.25164859e-01  1.04007014e-07  6.60014567e-01  1.04007014e-07  8.15678338e-01  1.04007014e-07  1.80000000e+00  1.04007014e-07  3.53114454e-03  1.04007014e-07  6.61108554e-01  1.04007014e-07  1.50336184e+00  1.04007014e-07  1.51053618e+00                                 
 1.34325756e-07  7.25159371e-01  1.34325756e-07  6.59985929e-01  1.34325756e-07  6.88553225e-01  1.34325756e-07  1.80000000e+00  1.34325756e-07 -3.51690612e-03  1.34325756e-07  6.60873216e-01  1.34325756e-07  1.50305087e+00  1.34325756e-07  1.51053439e+00                                 
 1.60678180e-07  7.25160170e-01  1.60678180e-07  6.60014588e-01  1.60678180e-07  6.63782626e-01  1.60678180e-07  1.80000000e+00  1.60678180e-07  3.52665387e-03  1.60678180e-07  6.61117110e-01  1.60678180e-07  1.50336689e+00  1.60678180e-07  1.51053443e+00                                 
 1.80267408e-07  7.25158280e-01  1.80267408e-07  6.59985564e-01  1.80267408e-07  6.62320547e-01  1.80267408e-07  1.80000000e+00  1.80267408e-07 -3.50362064e-03  1.80267408e-07  6.60870027e-01  1.80267408e-07  1.50304686e+00  1.80267408e-07  1.51053479e+00                                 
 2.01857000e-07  7.25162684e-01  2.01857000e-07  6.60014812e-01  2.01857000e-07  6.62116304e-01  2.01857000e-07  1.80000000e+00  2.01857000e-07  3.51346710e-03  2.01857000e-07  6.61113402e-01  2.01857000e-07  1.50336213e+00  2.01857000e-07  1.51053208e+00                                 
 2.32740443e-07  7.25157652e-01  2.32740443e-07  6.59985556e-01  2.32740443e-07  6.61956858e-01  2.32740443e-07  1.80000000e+00  2.32740443e-07 -3.49296419e-03  2.32740443e-07  6.60869821e-01  2.32740443e-07  1.50304506e+00  2.32740443e-07  1.51053130e+00                                 
 2.94507328e-07  7.25163316e-01  2.94507328e-07  6.60014813e-01  2.94507328e-07  6.62057519e-01  2.94507328e-07  1.80000000e+00  2.94507328e-07  3.50687770e-03  2.94507328e-07  6.61112996e-01  2.94507328e-07  1.50335862e+00  2.94507328e-07  1.51052796e+00                                 
 4.18041098e-07  7.25157392e-01  4.18041098e-07  6.59985562e-01  4.18041098e-07  6.61953859e-01  4.18041098e-07  1.80000000e+00  4.18041098e-07 -3.48968209e-03  4.18041098e-07  6.60869902e-01  4.18041098e-07  1.50303910e+00  4.18041098e-07  1.51052484e+00                                 
 6.59151166e-07  7.25163443e-01  6.59151166e-07  6.60014810e-01  6.59151166e-07  6.62058939e-01  6.59151166e-07  1.80000000e+00  6.59151166e-07  3.50521891e-03  6.59151166e-07  6.61112960e-01  6.59151166e-07  1.50334662e+00  6.59151166e-07  1.51051606e+00                                 
 1.14137130e-06  7.25157329e-01  1.14137130e-06  6.59985564e-01  1.14137130e-06  6.61953081e-01  1.14137130e-06  1.80000000e+00  1.14137130e-06 -3.48884498e-03  1.14137130e-06  6.60869919e-01  1.14137130e-06  1.50301541e+00  1.14137130e-06  1.51050115e+00                                 
 2.10581157e-06  7.25163475e-01  2.10581157e-06  6.60014809e-01  2.10581157e-06  6.62059308e-01  2.10581157e-06  1.80000000e+00  2.10581157e-06  3.50479751e-03  2.10581157e-06  6.61112952e-01  2.10581157e-06  1.50329919e+00  2.10581157e-06  1.51046871e+00                                 
 3.30581157e-06  7.25157310e-01  3.30581157e-06  6.59985565e-01  3.30581157e-06  6.61952844e-01  3.30581157e-06  1.80000000e+00  3.30581157e-06 -3.48860733e-03  3.30581157e-06  6.60869923e-01  3.30581157e-06  1.50294459e+00  3.30581157e-06  1.51043040e+00                                 
 4.50581157e-06  7.25163491e-01  4.50581157e-06  6.60014808e-01  4.50581157e-06  6.62059503e-01  4.50581157e-06  1.80000000e+00  4.50581157e-06  3.50457260e-03  4.50581157e-06  6.61112948e-01  4.50581157e-06  1.50322068e+00  4.50581157e-06  1.51039031e+00                                 
 5.70581157e-06  7.25157293e-01  5.70581157e-06  6.59985565e-01  5.70581157e-06  6.61952634e-01  5.70581157e-06  1.80000000e+00  5.70581157e-06 -3.48838540e-03  5.70581157e-06  6.60869927e-01  5.70581157e-06  1.50286605e+00  5.70581157e-06  1.51035195e+00                                 
 6.00100000e-06  7.25163533e-01  6.00100000e-06  6.60014806e-01  6.00100000e-06  6.62060009e-01  6.00100000e-06  1.80000000e+00  6.00100000e-06  3.50400105e-03  6.00100000e-06  6.61112938e-01  6.00100000e-06  1.50317173e+00  6.00100000e-06  1.51034144e+00                                 
 6.00110000e-06  7.25110998e-01  6.00110000e-06  6.59762531e-01  6.00110000e-06  6.60196740e-01  6.00110000e-06  1.62000000e+00  6.00110000e-06  2.09753523e-04  6.00110000e-06  6.59432677e-01  6.00110000e-06  1.50168637e+00  6.00110000e-06  1.51033066e+00                                 
 6.00130000e-06  7.25143740e-01  6.00130000e-06  6.59759737e-01  6.00130000e-06  6.60292197e-01  6.00130000e-06  1.26000000e+00  6.00130000e-06 -2.44659663e-04  6.00130000e-06  6.59198524e-01  6.00130000e-06  1.50148023e+00  6.00130000e-06  1.51034700e+00                                 
 6.00165591e-06  7.25208091e-01  6.00165591e-06  6.59957189e-01  6.00165591e-06  6.62288247e-01  6.00165591e-06  6.19368370e-01  6.00165591e-06  4.56651347e-03  6.00165591e-06  6.59535591e-01  6.00165591e-06  1.49848333e+00  6.00165591e-06  1.51032341e+00                                 
 6.00200000e-06  7.25146079e-01  6.00200000e-06  6.58528651e-01  6.00200000e-06  6.94614922e-01  6.00200000e-06  0.00000000e+00  6.00200000e-06  1.60187982e+00  6.00200000e-06  6.44452667e-01  6.00200000e-06  1.30502739e+00  6.00200000e-06  1.50974707e+00                                 
 6.00204126e-06  7.25161458e-01  6.00204126e-06  6.58061805e-01  6.00204126e-06  7.01357796e-01  6.00204126e-06  0.00000000e+00  6.00204126e-06  1.72304105e+00  6.00204126e-06  6.39155779e-01  6.00204126e-06  1.24287056e+00  6.00204126e-06  1.50974905e+00                                 
 6.00212377e-06  7.25162482e-01  6.00212377e-06  6.57237415e-01  6.00212377e-06  7.06286575e-01  6.00212377e-06  0.00000000e+00  6.00212377e-06  1.81336661e+00  6.00212377e-06  6.30042742e-01  6.00212377e-06  1.11473148e+00  6.00212377e-06  1.51012083e+00                                 
 6.00228879e-06  7.25158087e-01  6.00228879e-06  6.57117318e-01  6.00228879e-06  6.97186418e-01  6.00228879e-06  0.00000000e+00  6.00228879e-06  1.78943005e+00  6.00228879e-06  6.29521211e-01  6.00228879e-06  9.11766570e-01  6.00228879e-06  1.51060519e+00                                 
 6.00244639e-06  7.25160642e-01  6.00244639e-06  6.57773688e-01  6.00244639e-06  6.88842174e-01  6.00244639e-06  0.00000000e+00  6.00244639e-06  1.80382483e+00  6.00244639e-06  6.36979775e-01  6.00244639e-06  7.93044240e-01  6.00244639e-06  1.51058153e+00                                 
 6.00263046e-06  7.25157407e-01  6.00263046e-06  6.58664043e-01  6.00263046e-06  6.76696598e-01  6.00263046e-06  0.00000000e+00  6.00263046e-06  1.79681694e+00  6.00263046e-06  6.45854073e-01  6.00263046e-06  7.14618307e-01  6.00263046e-06  1.51079279e+00                                 
 6.00285534e-06  7.25160493e-01  6.00285534e-06  6.59665727e-01  6.00285534e-06  6.67473047e-01  6.00285534e-06  0.00000000e+00  6.00285534e-06  1.80190557e+00  6.00285534e-06  6.55371747e-01  6.00285534e-06  6.79618105e-01  6.00285534e-06  1.51053049e+00                                 
 6.00308240e-06  7.25157910e-01  6.00308240e-06  6.60103372e-01  6.00308240e-06  6.64406405e-01  6.00308240e-06  0.00000000e+00  6.00308240e-06  1.79884247e+00  6.00308240e-06  6.58627381e-01  6.00308240e-06  6.67648638e-01  6.00308240e-06  1.50997927e+00                                 
 6.00332930e-06  7.25160753e-01  6.00332930e-06  6.60392615e-01  6.00332930e-06  6.62961657e-01  6.00332930e-06  0.00000000e+00  6.00332930e-06  1.80083539e+00  6.00332930e-06  6.61023279e-01  6.00332930e-06  6.64538879e-01  6.00332930e-06  1.50896025e+00                                 
 6.00367826e-06  7.25158628e-01  6.00367826e-06  6.60460648e-01  6.00367826e-06  6.63368719e-01  6.00367826e-06  0.00000000e+00  6.00367826e-06  1.79941055e+00  6.00367826e-06  6.61447040e-01  6.00367826e-06  6.63015416e-01  6.00367826e-06  1.50734767e+00                                 
 6.00422458e-06  7.25161157e-01  6.00422458e-06  6.60494951e-01  6.00422458e-06  6.64184418e-01  6.00422458e-06  0.00000000e+00  6.00422458e-06  1.80051772e+00  6.00422458e-06  6.62247977e-01  6.00422458e-06  6.64298897e-01  6.00422458e-06  1.50439965e+00                                 
 6.00514258e-06  7.25159179e-01  6.00514258e-06  6.60397271e-01  6.00514258e-06  6.66931489e-01  6.00514258e-06  0.00000000e+00  6.00514258e-06  1.79956138e+00  6.00514258e-06  6.62045332e-01  6.00514258e-06  6.66283753e-01  6.00514258e-06  1.49912589e+00                                 
 6.00677912e-06  7.25161404e-01  6.00677912e-06  6.60309374e-01  6.00677912e-06  6.71256657e-01  6.00677912e-06  0.00000000e+00  6.00677912e-06  1.80043626e+00  6.00677912e-06  6.62450654e-01  6.00677912e-06  6.71257101e-01  6.00677912e-06  1.48906263e+00                                 
 6.01005221e-06  7.25159342e-01  6.01005221e-06  6.60094084e-01  6.01005221e-06  6.80935780e-01  6.01005221e-06  0.00000000e+00  6.01005221e-06  1.79960071e+00  6.01005221e-06  6.61944242e-01  6.01005221e-06  6.80232407e-01  6.01005221e-06  1.46814145e+00                                 
 6.01659838e-06  7.25161437e-01  6.01659838e-06  6.59990120e-01  6.01659838e-06  6.98923834e-01  6.01659838e-06  0.00000000e+00  6.01659838e-06  1.80041604e+00  6.01659838e-06  6.61930958e-01  6.01659838e-06  6.98914838e-01  6.01659838e-06  1.42488572e+00                                 
 6.02969073e-06  7.25159354e-01  6.02969073e-06  6.59974779e-01  6.02969073e-06  7.34031156e-01  6.02969073e-06  0.00000000e+00  6.02969073e-06  1.79960922e+00  6.02969073e-06  6.61135339e-01  6.02969073e-06  7.33215544e-01  6.02969073e-06  1.34272504e+00                                 
 6.04410662e-06  7.25161435e-01  6.04410662e-06  6.60009866e-01  6.04410662e-06  7.69408142e-01  6.04410662e-06  0.00000000e+00  6.04410662e-06  1.80040869e+00  6.04410662e-06  6.61268682e-01  6.04410662e-06  7.69451767e-01  6.04410662e-06  1.26139325e+00                                 
 6.07293838e-06  7.25159359e-01  6.07293838e-06  6.59986129e-01  6.07293838e-06  8.33454959e-01  6.07293838e-06  0.00000000e+00  6.07293838e-06  1.79961087e+00  6.07293838e-06  6.60814770e-01  6.07293838e-06  8.32195596e-01  6.07293838e-06  1.11877949e+00                                 
 6.11501736e-06  7.25161433e-01  6.11501736e-06  6.60014252e-01  6.11501736e-06  9.09918551e-01  6.11501736e-06  0.00000000e+00  6.11501736e-06  1.80040268e+00  6.11501736e-06  6.61151731e-01  6.11501736e-06  9.10262287e-01  6.11501736e-06  9.76807503e-01                                 
 6.19917531e-06  7.25159360e-01  6.19917531e-06  6.59986124e-01  6.19917531e-06  1.01877561e+00  6.19917531e-06  0.00000000e+00  6.19917531e-06  1.79960692e+00  6.19917531e-06  6.60813304e-01  6.19917531e-06  1.01631875e+00  6.19917531e-06  9.68544756e-01                                 
 6.25197975e-06  7.25161432e-01  6.25197975e-06  6.60014385e-01  6.25197975e-06  1.06254811e+00  6.25197975e-06  0.00000000e+00  6.25197975e-06  1.80039772e+00  6.25197975e-06  6.61161004e-01  6.25197975e-06  1.06368020e+00  6.25197975e-06  1.04725668e+00                                 
