 time            v(vbep)         time            v(vben)         time            v(vout)         time            v(vphi1)        time            v(vphi2)        time            v(vref)         time            v(voutc)        time            v(voutcc)       yes             currtemp       
 0.00000000e+00  8.48436540e-01  0.00000000e+00  8.00750477e-01  0.00000000e+00  1.75247844e+00  0.00000000e+00  0.00000000e+00  0.00000000e+00  1.80000000e+00  0.00000000e+00  8.04778374e-01  0.00000000e+00  1.75247843e+00  0.00000000e+00  1.75709391e+00  1.00000000e+00 -2.40000000e+01 
 1.00000000e-11  8.48457445e-01  1.00000000e-11  8.00814549e-01  1.00000000e-11  1.75331609e+00  1.00000000e-11  1.80000000e-02  1.00000000e-11  1.80024208e+00  1.00000000e-11  8.05291205e-01  1.00000000e-11  1.75293408e+00  1.00000000e-11  1.75710844e+00                                 
 2.00000000e-11  8.48463396e-01  2.00000000e-11  8.00855179e-01  2.00000000e-11  1.75389923e+00  2.00000000e-11  3.60000000e-02  2.00000000e-11  1.80034549e+00  2.00000000e-11  8.05681805e-01  2.00000000e-11  1.75329586e+00  2.00000000e-11  1.75711587e+00                                 
 4.00000000e-11  8.48463503e-01  4.00000000e-11  8.00908622e-01  4.00000000e-11  1.75470343e+00  4.00000000e-11  7.20000000e-02  4.00000000e-11  1.80039776e+00  4.00000000e-11  8.06264831e-01  4.00000000e-11  1.75386346e+00  4.00000000e-11  1.75712208e+00                                 
 8.00000000e-11  8.48452939e-01  8.00000000e-11  8.00940531e-01  8.00000000e-11  1.75516981e+00  8.00000000e-11  1.44000000e-01  8.00000000e-11  1.80021257e+00  8.00000000e-11  8.06749305e-01  8.00000000e-11  1.75443782e+00  8.00000000e-11  1.75711426e+00                                 
 1.60000000e-10  8.48449585e-01  1.60000000e-10  8.00939509e-01  1.60000000e-10  1.75503545e+00  1.60000000e-10  2.88000000e-01  1.60000000e-10  1.80002151e+00  1.60000000e-10  8.06836211e-01  1.60000000e-10  1.75473407e+00  1.60000000e-10  1.75710027e+00                                 
 3.20000000e-10  8.48447469e-01  3.20000000e-10  8.00936325e-01  3.20000000e-10  1.75476582e+00  3.20000000e-10  5.76000000e-01  3.20000000e-10  1.80002754e+00  3.20000000e-10  8.06807326e-01  3.20000000e-10  1.75481945e+00  3.20000000e-10  1.75709740e+00                                 
 6.40000000e-10  8.48379808e-01  6.40000000e-10  8.00754266e-01  6.40000000e-10  1.74654629e+00  6.40000000e-10  1.15200000e+00  6.40000000e-10  1.81355032e+00  6.40000000e-10  8.06634190e-01  6.40000000e-10  1.75880892e+00  6.40000000e-10  1.75712287e+00                                 
 9.92155977e-10  8.48734541e-01  9.92155977e-10  8.00735240e-01  9.92155977e-10  1.71381090e+00  9.92155977e-10  1.78588076e+00  9.92155977e-10  7.28405463e-02  9.92155977e-10  8.05524057e-01  9.92155977e-10  1.74517487e+00  9.92155977e-10  1.75698358e+00                                 
 1.00000000e-09  8.48758520e-01  1.00000000e-09  8.00791952e-01  1.00000000e-09  1.71344193e+00  1.00000000e-09  1.80000000e+00  1.00000000e-09  2.76560676e-02  1.00000000e-09  8.06275934e-01  1.00000000e-09  1.74520486e+00  1.00000000e-09  1.75700914e+00                                 
 1.01568805e-09  8.48751486e-01  1.01568805e-09  8.00821512e-01  1.01568805e-09  1.71345630e+00  1.01568805e-09  1.80000000e+00  1.01568805e-09  1.03671449e-02  1.01568805e-09  8.07617187e-01  1.01568805e-09  1.74617422e+00  1.01568805e-09  1.75705830e+00                                 
 1.04706414e-09  8.48796257e-01  1.04706414e-09  8.00874372e-01  1.04706414e-09  1.71324935e+00  1.04706414e-09  1.80000000e+00  1.04706414e-09 -1.46494818e-03  1.04706414e-09  8.09440634e-01  1.04706414e-09  1.74766146e+00  1.04706414e-09  1.75710852e+00                                 
 1.10981633e-09  8.48972336e-01  1.10981633e-09  8.00850239e-01  1.10981633e-09  1.71030510e+00  1.10981633e-09  1.80000000e+00  1.10981633e-09  2.20475824e-03  1.10981633e-09  8.09992595e-01  1.10981633e-09  1.74822880e+00  1.10981633e-09  1.75708532e+00                                 
 1.23532070e-09  8.49171415e-01  1.23532070e-09  8.00763410e-01  1.23532070e-09  1.70283755e+00  1.23532070e-09  1.80000000e+00  1.23532070e-09 -9.62566750e-04  1.23532070e-09  8.10198382e-01  1.23532070e-09  1.74834077e+00  1.23532070e-09  1.75708617e+00                                 
 1.48632945e-09  8.49240402e-01  1.48632945e-09  8.00755136e-01  1.48632945e-09  1.69677031e+00  1.48632945e-09  1.80000000e+00  1.48632945e-09  1.14148015e-03  1.48632945e-09  8.10969555e-01  1.48632945e-09  1.74902027e+00  1.48632945e-09  1.75710196e+00                                 
 1.72705733e-09  8.49096171e-01  1.72705733e-09  8.00732789e-01  1.72705733e-09  1.69800440e+00  1.72705733e-09  1.80000000e+00  1.72705733e-09 -1.02565758e-03  1.72705733e-09  8.10611430e-01  1.72705733e-09  1.74868052e+00  1.72705733e-09  1.75709458e+00                                 
 1.97991128e-09  8.48928519e-01  1.97991128e-09  8.00744139e-01  1.97991128e-09  1.70068511e+00  1.97991128e-09  1.80000000e+00  1.97991128e-09  8.63429337e-04  1.97991128e-09  8.10529137e-01  1.97991128e-09  1.74864122e+00  1.97991128e-09  1.75710588e+00                                 
 2.29924225e-09  8.48742599e-01  2.29924225e-09  8.00732585e-01  2.29924225e-09  1.70381023e+00  2.29924225e-09  1.80000000e+00  2.29924225e-09 -8.48012721e-04  2.29924225e-09  8.10046018e-01  2.29924225e-09  1.74820543e+00  2.29924225e-09  1.75709739e+00                                 
 2.93790418e-09  8.48489043e-01  2.93790418e-09  8.00740041e-01  2.93790418e-09  1.70965726e+00  2.93790418e-09  1.80000000e+00  2.93790418e-09  7.53337666e-04  2.93790418e-09  8.09509529e-01  2.93790418e-09  1.74777854e+00  2.93790418e-09  1.75710177e+00                                 
 4.21522805e-09  8.48297620e-01  4.21522805e-09  8.00730735e-01  4.21522805e-09  1.71839952e+00  4.21522805e-09  1.80000000e+00  4.21522805e-09 -7.90512577e-04  4.21522805e-09  8.08200728e-01  4.21522805e-09  1.74665011e+00  4.21522805e-09  1.75707285e+00                                 
 6.76987578e-09  8.48323828e-01  6.76987578e-09  8.00743563e-01  6.76987578e-09  1.72852776e+00  6.76987578e-09  1.80000000e+00  6.76987578e-09  7.36041636e-04  6.76987578e-09  8.06574491e-01  6.76987578e-09  1.74530440e+00  6.76987578e-09  1.75699801e+00                                 
 9.78245774e-09  8.48395329e-01  9.78245774e-09  8.00741526e-01  9.78245774e-09  1.73233871e+00  9.78245774e-09  1.80000000e+00  9.78245774e-09 -7.64912671e-04  9.78245774e-09  8.05298519e-01  9.78245774e-09  1.74420415e+00  9.78245774e-09  1.75684016e+00                                 
 1.25315191e-08  8.48406556e-01  1.25315191e-08  8.00752276e-01  1.25315191e-08  1.73269600e+00  1.25315191e-08  1.80000000e+00  1.25315191e-08  7.28518346e-04  1.25315191e-08  8.04889302e-01  1.25315191e-08  1.74388116e+00  1.25315191e-08  1.75667803e+00                                 
 1.56538180e-08  8.48418548e-01  1.56538180e-08  8.00745704e-01  1.56538180e-08  1.73165633e+00  1.56538180e-08  1.80000000e+00  1.56538180e-08 -7.45443929e-04  1.56538180e-08  8.04482461e-01  1.56538180e-08  1.74350944e+00  1.56538180e-08  1.75645906e+00                                 
 1.94634123e-08  8.48415651e-01  1.94634123e-08  8.00754239e-01  1.94634123e-08  1.73086834e+00  1.94634123e-08  1.80000000e+00  1.94634123e-08  7.23714724e-04  1.94634123e-08  8.04458996e-01  1.94634123e-08  1.74350472e+00  1.94634123e-08  1.75619915e+00                                 
 2.46264592e-08  8.48419411e-01  2.46264592e-08  8.00746644e-01  2.46264592e-08  1.72975382e+00  2.46264592e-08  1.80000000e+00  2.46264592e-08 -7.27885985e-04  2.46264592e-08  8.04307475e-01  2.46264592e-08  1.74333905e+00  2.46264592e-08  1.75583156e+00                                 
 3.14222906e-08  8.48431835e-01  3.14222906e-08  8.00754427e-01  3.14222906e-08  1.72610802e+00  3.14222906e-08  1.80000000e+00  3.14222906e-08  7.21747042e-04  3.14222906e-08  8.04448147e-01  3.14222906e-08  1.74346106e+00  3.14222906e-08  1.75538267e+00                                 
 4.14271713e-08  8.48438330e-01  4.14271713e-08  8.00746728e-01  4.14271713e-08  1.71734432e+00  4.14271713e-08  1.80000000e+00  4.14271713e-08 -7.21273807e-04  4.14271713e-08  8.04397122e-01  4.14271713e-08  1.74336757e+00  4.14271713e-08  1.75474783e+00                                 
 5.76010149e-08  8.48437766e-01  5.76010149e-08  8.00754392e-01  5.76010149e-08  1.70137829e+00  5.76010149e-08  1.80000000e+00  5.76010149e-08  7.18774405e-04  5.76010149e-08  8.04591175e-01  5.76010149e-08  1.74351871e+00  5.76010149e-08  1.75384587e+00                                 
 7.88073418e-08  8.48438012e-01  7.88073418e-08  8.00746688e-01  7.88073418e-08  1.67843668e+00  7.88073418e-08  1.80000000e+00  7.88073418e-08 -7.19263493e-04  7.88073418e-08  8.04556953e-01  7.88073418e-08  1.74343150e+00  7.88073418e-08  1.75282360e+00                                 
 1.21219996e-07  8.48436384e-01  1.21219996e-07  8.00754323e-01  1.21219996e-07  1.62863684e+00  1.21219996e-07  1.80000000e+00  1.21219996e-07  7.17203027e-04  1.21219996e-07  8.04759002e-01  1.21219996e-07  1.74357916e+00  1.21219996e-07  1.75128695e+00                                 
 2.06045303e-07  8.48437220e-01  2.06045303e-07  8.00746650e-01  2.06045303e-07  1.52316730e+00  2.06045303e-07  1.80000000e+00  2.06045303e-07 -7.18664418e-04  2.06045303e-07  8.04712247e-01  2.06045303e-07  1.74347077e+00  2.06045303e-07  1.74949459e+00                                 
 3.75695919e-07  8.48435912e-01  3.75695919e-07  8.00754303e-01  3.75695919e-07  1.31389141e+00  3.75695919e-07  1.80000000e+00  3.75695919e-07  7.16893526e-04  3.75695919e-07  8.04836005e-01  3.75695919e-07  1.74356674e+00  3.75695919e-07  1.74830983e+00                                 
 7.04000420e-07  8.48437170e-01  7.04000420e-07  8.00746650e-01  7.04000420e-07  9.34498958e-01  7.04000420e-07  1.80000000e+00  7.04000420e-07 -7.18195850e-04  7.04000420e-07  8.04721631e-01  7.04000420e-07  1.74342824e+00  7.04000420e-07  1.74811627e+00                                 
 9.46613090e-07  8.48435933e-01  9.46613090e-07  8.00754303e-01  9.46613090e-07  8.05473363e-01  9.46613090e-07  1.80000000e+00  9.46613090e-07  7.17912346e-04  9.46613090e-07  8.04834348e-01  9.46613090e-07  1.74353651e+00  9.46613090e-07  1.74814479e+00                                 
 1.15556001e-06  8.48437122e-01  1.15556001e-06  8.00746652e-01  1.15556001e-06  8.09723907e-01  1.15556001e-06  1.80000000e+00  1.15556001e-06 -7.17424097e-04  1.15556001e-06  8.04723402e-01  1.15556001e-06  1.74341035e+00  1.15556001e-06  1.74812702e+00                                 
 1.25009627e-06  8.48435897e-01  1.25009627e-06  8.00754291e-01  1.25009627e-06  8.09064991e-01  1.25009627e-06  1.80000000e+00  1.25009627e-06  7.18357161e-04  1.25009627e-06  8.04832899e-01  1.25009627e-06  1.74352185e+00  1.25009627e-06  1.74812962e+00                                 
 1.35112834e-06  8.48437263e-01  1.35112834e-06  8.00746675e-01  1.35112834e-06  8.08686297e-01  1.35112834e-06  1.80000000e+00  1.35112834e-06 -7.17012399e-04  1.35112834e-06  8.04723791e-01  1.35112834e-06  1.74340206e+00  1.35112834e-06  1.74811793e+00                                 
 1.55319250e-06  8.48435787e-01  1.55319250e-06  8.00754273e-01  1.55319250e-06  8.09038945e-01  1.55319250e-06  1.80000000e+00  1.55319250e-06  7.17290054e-04  1.55319250e-06  8.04832994e-01  1.55319250e-06  1.74350854e+00  1.55319250e-06  1.74811629e+00                                 
 1.75334357e-06  8.48437320e-01  1.75334357e-06  8.00746684e-01  1.75334357e-06  8.08732302e-01  1.75334357e-06  1.80000000e+00  1.75334357e-06 -7.16819941e-04  1.75334357e-06  8.04723699e-01  1.75334357e-06  1.74338422e+00  1.75334357e-06  1.74810027e+00                                 
 2.06121442e-06  8.48435744e-01  2.06121442e-06  8.00754266e-01  2.06121442e-06  8.09015098e-01  2.06121442e-06  1.80000000e+00  2.06121442e-06  7.17130695e-04  2.06121442e-06  8.04833052e-01  2.06121442e-06  1.74348614e+00  2.06121442e-06  1.74809393e+00                                 
 2.49478492e-06  8.48437345e-01  2.49478492e-06  8.00746688e-01  2.49478492e-06  8.08743954e-01  2.49478492e-06  1.80000000e+00  2.49478492e-06 -7.16712824e-04  2.49478492e-06  8.04723665e-01  2.49478492e-06  1.74335145e+00  2.49478492e-06  1.74806766e+00                                 
 3.07541729e-06  8.48435728e-01  3.07541729e-06  8.00754264e-01  3.07541729e-06  8.09007127e-01  3.07541729e-06  1.80000000e+00  3.07541729e-06  7.17053058e-04  3.07541729e-06  8.04833073e-01  3.07541729e-06  1.74344137e+00  3.07541729e-06  1.74804932e+00                                 
 3.96895631e-06  8.48437356e-01  3.96895631e-06  8.00746690e-01  3.96895631e-06  8.08748945e-01  3.96895631e-06  1.80000000e+00  3.96895631e-06 -7.16658143e-04  3.96895631e-06  8.04723651e-01  3.96895631e-06  1.74328638e+00  3.96895631e-06  1.74800286e+00                                 
 5.16895631e-06  8.48435720e-01  5.16895631e-06  8.00754262e-01  5.16895631e-06  8.09003657e-01  5.16895631e-06  1.80000000e+00  5.16895631e-06  7.17015483e-04  5.16895631e-06  8.04833083e-01  5.16895631e-06  1.74334900e+00  5.16895631e-06  1.74795733e+00                                 
 6.00100000e-06  8.48437363e-01  6.00100000e-06  8.00746692e-01  6.00100000e-06  8.08752274e-01  6.00100000e-06  1.80000000e+00  6.00100000e-06 -7.16619060e-04  6.00100000e-06  8.04723643e-01  6.00100000e-06  1.74319674e+00  6.00100000e-06  1.74791360e+00                                 
 6.00110000e-06  8.48406460e-01  6.00110000e-06  8.00536182e-01  6.00110000e-06  8.06697662e-01  6.00110000e-06  1.62000000e+00  6.00110000e-06 -1.37616771e-04  6.00110000e-06  8.02859623e-01  6.00110000e-06  1.74163606e+00  6.00110000e-06  1.74790057e+00                                 
 6.00130000e-06  8.48434582e-01  6.00130000e-06  8.00605306e-01  6.00130000e-06  8.07522490e-01  6.00130000e-06  1.26000000e+00  6.00130000e-06  8.92938109e-05  6.00130000e-06  8.03265707e-01  6.00130000e-06  1.74198284e+00  6.00130000e-06  1.74792662e+00                                 
 6.00170000e-06  8.48459915e-01  6.00170000e-06  8.00654609e-01  6.00170000e-06  8.08627467e-01  6.00170000e-06  5.40000000e-01  6.00170000e-06  2.61399301e-03  6.00170000e-06  8.02584272e-01  6.00170000e-06  1.73658940e+00  6.00170000e-06  1.74787737e+00                                 
 6.00200000e-06  8.48433439e-01  6.00200000e-06  7.98290144e-01  6.00200000e-06  8.59541151e-01  6.00200000e-06  0.00000000e+00  6.00200000e-06  1.58000871e+00  6.00200000e-06  7.71085595e-01  6.00200000e-06  1.52881115e+00  6.00200000e-06  1.74692308e+00                                 
 6.00205144e-06  8.48439697e-01  6.00205144e-06  7.98264219e-01  6.00205144e-06  8.57836432e-01  6.00205144e-06  0.00000000e+00  6.00205144e-06  1.72959371e+00  6.00205144e-06  7.70308507e-01  6.00205144e-06  1.46932572e+00  6.00205144e-06  1.74723245e+00                                 
 6.00215432e-06  8.48434870e-01  6.00215432e-06  7.98526649e-01  6.00215432e-06  8.47258113e-01  6.00215432e-06  0.00000000e+00  6.00215432e-06  1.82087042e+00  6.00215432e-06  7.73290805e-01  6.00215432e-06  1.35898379e+00  6.00215432e-06  1.74778982e+00                                 
 6.00231010e-06  8.48434999e-01  6.00231010e-06  7.99300823e-01  6.00231010e-06  8.33053309e-01  6.00231010e-06  0.00000000e+00  6.00231010e-06  1.78692074e+00  6.00231010e-06  7.82939001e-01  6.00231010e-06  1.23993672e+00  6.00231010e-06  1.74792263e+00                                 
 6.00248158e-06  8.48436142e-01  6.00248158e-06  7.99625745e-01  6.00248158e-06  8.29744954e-01  6.00248158e-06  0.00000000e+00  6.00248158e-06  1.80631031e+00  6.00248158e-06  7.86666764e-01  6.00248158e-06  1.15314552e+00  6.00248158e-06  1.74798602e+00                                 
 6.00275153e-06  8.48434447e-01  6.00275153e-06  7.99991429e-01  6.00275153e-06  8.22991656e-01  6.00275153e-06  0.00000000e+00  6.00275153e-06  1.79496981e+00  6.00275153e-06  7.90647727e-01  6.00275153e-06  1.05532205e+00  6.00275153e-06  1.74805760e+00                                 
 6.00300905e-06  8.48436649e-01  6.00300905e-06  8.00278780e-01  6.00300905e-06  8.21314122e-01  6.00300905e-06  0.00000000e+00  6.00300905e-06  1.80309608e+00  6.00300905e-06  7.93728455e-01  6.00300905e-06  9.87568960e-01  6.00300905e-06  1.74814383e+00                                 
 6.00352410e-06  8.48434811e-01  6.00352410e-06  8.00589401e-01  6.00352410e-06  8.16950811e-01  6.00352410e-06  0.00000000e+00  6.00352410e-06  1.79699862e+00  6.00352410e-06  7.96775228e-01  6.00352410e-06  8.81710406e-01  6.00352410e-06  1.74820647e+00                                 
 6.00406859e-06  8.48437241e-01  6.00406859e-06  8.01028110e-01  6.00406859e-06  8.12077401e-01  6.00406859e-06  0.00000000e+00  6.00406859e-06  1.80222933e+00  6.00406859e-06  8.02110762e-01  6.00406859e-06  8.27421258e-01  6.00406859e-06  1.74818884e+00                                 
 6.00468976e-06  8.48435224e-01  6.00468976e-06  8.01161025e-01  6.00468976e-06  8.09353112e-01  6.00468976e-06  0.00000000e+00  6.00468976e-06  1.79803695e+00  6.00468976e-06  8.04086924e-01  6.00468976e-06  8.10506088e-01  6.00468976e-06  1.74799008e+00                                 
 6.00531381e-06  8.48437515e-01  6.00531381e-06  8.01197019e-01  6.00531381e-06  8.09191953e-01  6.00531381e-06  0.00000000e+00  6.00531381e-06  1.80168991e+00  6.00531381e-06  8.05300386e-01  6.00531381e-06  8.09610148e-01  6.00531381e-06  1.74768257e+00                                 
 6.00603636e-06  8.48435422e-01  6.00603636e-06  8.01083078e-01  6.00603636e-06  8.09349582e-01  6.00603636e-06  0.00000000e+00  6.00603636e-06  1.79852194e+00  6.00603636e-06  8.04904348e-01  6.00603636e-06  8.09068703e-01  6.00603636e-06  1.74720241e+00                                 
 6.00712372e-06  8.48437591e-01  6.00712372e-06  8.01017585e-01  6.00712372e-06  8.09976855e-01  6.00712372e-06  0.00000000e+00  6.00712372e-06  1.80135513e+00  6.00712372e-06  8.05493124e-01  6.00712372e-06  8.10048806e-01  6.00712372e-06  1.74641968e+00                                 
 6.00929843e-06  8.48435480e-01  6.00929843e-06  8.00853168e-01  6.00929843e-06  8.11205591e-01  6.00929843e-06  0.00000000e+00  6.00929843e-06  1.79870628e+00  6.00929843e-06  8.05108656e-01  6.00929843e-06  8.10851397e-01  6.00929843e-06  1.74470384e+00                                 
 6.01364786e-06  8.48437587e-01  6.01364786e-06  8.00803214e-01  6.01364786e-06  8.14214757e-01  6.01364786e-06  0.00000000e+00  6.01364786e-06  1.80126846e+00  6.01364786e-06  8.05600835e-01  6.01364786e-06  8.14217180e-01  6.01364786e-06  1.74121831e+00                                 
 6.02234672e-06  8.48435486e-01  6.02234672e-06  8.00736923e-01  6.02234672e-06  8.20499125e-01  6.02234672e-06  0.00000000e+00  6.02234672e-06  1.79874885e+00  6.02234672e-06  8.05082529e-01  6.02234672e-06  8.20074521e-01  6.02234672e-06  1.73421258e+00                                 
 6.03974443e-06  8.48437590e-01  6.03974443e-06  8.00761518e-01  6.03974443e-06  8.33276582e-01  6.03974443e-06  0.00000000e+00  6.03974443e-06  1.80124760e+00  6.03974443e-06  8.05380279e-01  6.03974443e-06  8.33268299e-01  6.03974443e-06  1.71950518e+00                                 
 6.07041959e-06  8.48435489e-01  6.07041959e-06  8.00734024e-01  6.07041959e-06  8.54503811e-01  6.07041959e-06  0.00000000e+00  6.07041959e-06  1.79875934e+00  6.07041959e-06  8.04772808e-01  6.07041959e-06  8.53914606e-01  6.07041959e-06  1.69043374e+00                                 
 6.13176990e-06  8.48437590e-01  6.13176990e-06  8.00765701e-01  6.13176990e-06  8.93280073e-01  6.13176990e-06  0.00000000e+00  6.13176990e-06  1.80124121e+00  6.13176990e-06  8.05059770e-01  6.13176990e-06  8.93339788e-01  6.13176990e-06  1.62450278e+00                                 
