 time            v(vbep)         time            v(vben)         time            v(vout)         time            v(vphi1)        time            v(vphi2)        time            v(vref)         yes             currtemp       
 0.00000000e+00  7.34803086e-01  0.00000000e+00  6.84294070e-01  0.00000000e+00  1.08865361e+00  0.00000000e+00  0.00000000e+00  0.00000000e+00  1.79994990e+00  0.00000000e+00  6.84294070e-01  1.00000000e+00  3.00000000e+00 
 5.00000000e-12  7.34773633e-01  5.00000000e-12  6.84269694e-01  5.00000000e-12  1.08939215e+00  5.00000000e-12  1.80000000e-02  5.00000000e-12  1.80007195e+00  5.00000000e-12  6.84269694e-01                                 
 1.00000000e-11  7.34745074e-01  1.00000000e-11  6.84245986e-01  1.00000000e-11  1.09007137e+00  1.00000000e-11  3.60000000e-02  1.00000000e-11  1.80014501e+00  1.00000000e-11  6.84245986e-01                                 
 2.00000000e-11  7.34688521e-01  2.00000000e-11  6.84198768e-01  2.00000000e-11  1.09133721e+00  2.00000000e-11  7.20000000e-02  2.00000000e-11  1.80022821e+00  2.00000000e-11  6.84198768e-01                                 
 4.00000000e-11  7.34576387e-01  4.00000000e-11  6.84104734e-01  4.00000000e-11  1.09344050e+00  4.00000000e-11  1.44000000e-01  4.00000000e-11  1.80022724e+00  4.00000000e-11  6.84104734e-01                                 
 8.00000000e-11  7.34353326e-01  8.00000000e-11  6.83917605e-01  8.00000000e-11  1.09640298e+00  8.00000000e-11  2.88000000e-01  8.00000000e-11  1.80014258e+00  8.00000000e-11  6.83917605e-01                                 
 1.60000000e-10  7.33912493e-01  1.60000000e-10  6.83547094e-01  1.60000000e-10  1.09912584e+00  1.60000000e-10  5.76000000e-01  1.60000000e-10  1.80003457e+00  1.60000000e-10  6.83547094e-01                                 
 3.20000000e-10  7.33050664e-01  3.20000000e-10  6.82820512e-01  3.20000000e-10  1.08974314e+00  3.20000000e-10  1.15200000e+00  3.20000000e-10  1.80028237e+00  3.20000000e-10  6.82820512e-01                                 
 5.00000000e-10  7.32111555e-01  5.00000000e-10  6.82025244e-01  5.00000000e-10  1.17197660e+00  5.00000000e-10  1.80000000e+00  5.00000000e-10  1.31313798e-01  5.00000000e-10  6.82025244e-01                                 
 5.20701248e-10  7.32005762e-01  5.20701248e-10  6.81935409e-01  5.20701248e-10  1.19390290e+00  5.20701248e-10  1.80000000e+00  5.20701248e-10  3.07300711e-02  5.20701248e-10  6.81935409e-01                                 
 5.62103744e-10  7.31794950e-01  5.62103744e-10  6.81756293e-01  5.62103744e-10  1.23762895e+00  5.62103744e-10  1.80000000e+00  5.62103744e-10 -1.21911701e-02  5.62103744e-10  6.81756293e-01                                 
 6.44908737e-10  7.31378010e-01  6.44908737e-10  6.81401513e-01  6.44908737e-10  1.31680879e+00  6.44908737e-10  1.80000000e+00  6.44908737e-10  1.05081389e-02  6.44908737e-10  6.81401513e-01                                 
 7.64927546e-10  7.30784492e-01  7.64927546e-10  6.80895270e-01  7.64927546e-10  1.41868815e+00  7.64927546e-10  1.80000000e+00  7.64927546e-10 -8.25892759e-03  7.64927546e-10  6.80895270e-01                                 
 9.44416463e-10  7.29919695e-01  9.44416463e-10  6.80155127e-01  9.44416463e-10  1.54446207e+00  9.44416463e-10  1.80000000e+00  9.44416463e-10  8.17342007e-03  9.44416463e-10  6.80155127e-01                                 
 1.30339430e-09  7.28266042e-01  1.30339430e-09  6.78731757e-01  1.30339430e-09  1.70813546e+00  1.30339430e-09  1.80000000e+00  1.30339430e-09 -7.25516002e-03  1.30339430e-09  6.78731757e-01                                 
 1.68126238e-09  7.26626107e-01  1.68126238e-09  6.77309675e-01  1.68126238e-09  1.79074431e+00  1.68126238e-09  1.80000000e+00  1.68126238e-09  7.19422714e-03  1.68126238e-09  6.77309675e-01                                 
 2.08901028e-09  7.24959958e-01  2.08901028e-09  6.75854404e-01  2.08901028e-09  1.82512610e+00  2.08901028e-09  1.80000000e+00  2.08901028e-09 -6.74644954e-03  2.08901028e-09  6.75854404e-01                                 
 2.46571310e-09  7.23506489e-01  2.46571310e-09  6.74576447e-01  2.46571310e-09  1.83607900e+00  2.46571310e-09  1.80000000e+00  2.46571310e-09  6.49792946e-03  2.46571310e-09  6.74576447e-01                                 
 3.00170783e-09  7.21563496e-01  3.00170783e-09  6.72856352e-01  3.00170783e-09  1.83954181e+00  3.00170783e-09  1.80000000e+00  3.00170783e-09 -6.23995851e-03  3.00170783e-09  6.72856352e-01                                 
 3.70171076e-09  7.19219608e-01  3.70171076e-09  6.70764042e-01  3.70171076e-09  1.83892915e+00  3.70171076e-09  1.80000000e+00  3.70171076e-09  6.10986867e-03  3.70171076e-09  6.70764042e-01                                 
 4.88820909e-09  7.15658277e-01  4.88820909e-09  6.67551153e-01  4.88820909e-09  1.83540166e+00  4.88820909e-09  1.80000000e+00  4.88820909e-09 -5.99207912e-03  4.88820909e-09  6.67551153e-01                                 
 6.79256044e-09  7.10777423e-01  6.79256044e-09  6.63086097e-01  6.79256044e-09  1.83103954e+00  6.79256044e-09  1.80000000e+00  6.79256044e-09  5.95840387e-03  6.79256044e-09  6.63086097e-01                                 
 1.06012631e-08  7.03063289e-01  1.06012631e-08  6.55903117e-01  1.06012631e-08  1.82367224e+00  1.06012631e-08  1.80000000e+00  1.06012631e-08 -5.90633925e-03  1.06012631e-08  6.55903117e-01                                 
 1.66742941e-08  6.94149225e-01  1.66742941e-08  6.47430491e-01  1.66742941e-08  1.81593384e+00  1.66742941e-08  1.80000000e+00  1.66742941e-08  5.91464100e-03  1.66742941e-08  6.47430491e-01                                 
 1.83182924e-08  6.92233642e-01  1.83182924e-08  6.45585298e-01  1.83182924e-08  1.81398952e+00  1.83182924e-08  1.80000000e+00  1.83182924e-08 -5.82686536e-03  1.83182924e-08  6.45585298e-01                                 
 1.95071996e-08  6.90935124e-01  1.95071996e-08  6.44330886e-01  1.95071996e-08  1.81309472e+00  1.95071996e-08  1.80000000e+00  1.95071996e-08  5.76030715e-03  1.95071996e-08  6.44330886e-01                                 
 2.13257350e-08  6.89070227e-01  2.13257350e-08  6.42524625e-01  2.13257350e-08  1.81117763e+00  2.13257350e-08  1.80000000e+00  2.13257350e-08 -5.68165009e-03  2.13257350e-08  6.42524625e-01                                 
 2.47184223e-08  6.85919712e-01  2.47184223e-08  6.39461569e-01  2.47184223e-08  1.80841804e+00  2.47184223e-08  1.80000000e+00  2.47184223e-08  5.67272283e-03  2.47184223e-08  6.39461569e-01                                 
 3.03902073e-08  6.81390791e-01  3.03902073e-08  6.35036058e-01  3.03902073e-08  1.80267486e+00  3.03902073e-08  1.80000000e+00  3.03902073e-08 -5.63347962e-03  3.03902073e-08  6.35036058e-01                                 
 3.55197784e-08  6.77893821e-01  3.55197784e-08  6.31604513e-01  3.55197784e-08  1.79669728e+00  3.55197784e-08  1.80000000e+00  3.55197784e-08  5.63471485e-03  3.55197784e-08  6.31604513e-01                                 
 4.34744151e-08  6.73164763e-01  4.34744151e-08  6.26965920e-01  4.34744151e-08  1.78575528e+00  4.34744151e-08  1.80000000e+00  4.34744151e-08 -5.60085149e-03  4.34744151e-08  6.26965920e-01                                 
 5.93836884e-08  6.64565617e-01  5.93836884e-08  6.18703804e-01  5.93836884e-08  1.76980556e+00  5.93836884e-08  1.80000000e+00  5.93836884e-08  5.61611298e-03  5.93836884e-08  6.18703804e-01                                 
 7.19990617e-08  6.59056736e-01  7.19990617e-08  6.13417194e-01  7.19990617e-08  1.76188728e+00  7.19990617e-08  1.80000000e+00  7.19990617e-08 -5.58590044e-03  7.19990617e-08  6.13417194e-01                                 
 8.52479083e-08  6.52222776e-01  8.52479083e-08  6.07183620e-01  8.52479083e-08  1.73966980e+00  8.52479083e-08  1.80000000e+00  8.52479083e-08  5.59920807e-03  8.52479083e-08  6.07183620e-01                                 
 1.01034411e-07  6.44824137e-01  1.01034411e-07  6.00492134e-01  1.01034411e-07  1.71171322e+00  1.01034411e-07  1.80000000e+00  1.01034411e-07 -5.57190889e-03  1.01034411e-07  6.00492134e-01                                 
 1.16113871e-07  6.38652690e-01  1.16113871e-07  5.94926068e-01  1.16113871e-07  1.68630957e+00  1.16113871e-07  1.80000000e+00  1.16113871e-07  5.58644627e-03  1.16113871e-07  5.94926068e-01                                 
 1.44584904e-07  6.29229121e-01  1.44584904e-07  5.86399265e-01  1.44584904e-07  1.63951009e+00  1.44584904e-07  1.80000000e+00  1.44584904e-07 -5.56160085e-03  1.44584904e-07  5.86399265e-01                                 
 1.71932753e-07  6.33555671e-01  1.71932753e-07  5.88952892e-01  1.71932753e-07  1.63967487e+00  1.71932753e-07  1.80000000e+00  1.71932753e-07  5.58207695e-03  1.71932753e-07  5.88952892e-01                                 
 1.94130802e-07  6.35067912e-01  1.94130802e-07  5.89504662e-01  1.94130802e-07  1.62267681e+00  1.94130802e-07  1.80000000e+00  1.94130802e-07 -5.55459674e-03  1.94130802e-07  5.89504662e-01                                 
 2.16104307e-07  6.27628033e-01  2.16104307e-07  5.83041278e-01  2.16104307e-07  1.59366167e+00  2.16104307e-07  1.80000000e+00  2.16104307e-07  5.57169606e-03  2.16104307e-07  5.83041278e-01                                 
 2.35226269e-07  6.23131426e-01  2.35226269e-07  5.79034032e-01  2.35226269e-07  1.56780313e+00  2.35226269e-07  1.80000000e+00  2.35226269e-07 -5.54479203e-03  2.35226269e-07  5.79034032e-01                                 
 2.55420055e-07  6.18836288e-01  2.55420055e-07  5.75204241e-01  2.55420055e-07  1.54526256e+00  2.55420055e-07  1.80000000e+00  2.55420055e-07  5.56194056e-03  2.55420055e-07  5.75204241e-01                                 
 2.87118322e-07  6.10707002e-01  2.87118322e-07  5.68172856e-01  2.87118322e-07  1.50402390e+00  2.87118322e-07  1.80000000e+00  2.87118322e-07 -5.53714659e-03  2.87118322e-07  5.68172856e-01                                 
 3.29008666e-07  6.01399654e-01  3.29008666e-07  5.60145472e-01  3.29008666e-07  1.45522519e+00  3.29008666e-07  1.80000000e+00  3.29008666e-07  5.55672262e-03  3.29008666e-07  5.60145472e-01                                 
 3.90723919e-07  5.84096687e-01  3.90723919e-07  5.45692261e-01  3.90723919e-07  1.37492717e+00  3.90723919e-07  1.80000000e+00  3.90723919e-07 -5.53349845e-03  3.90723919e-07  5.45692261e-01                                 
 4.69906546e-07  5.66586063e-01  4.69906546e-07  5.31154460e-01  4.69906546e-07  1.28049591e+00  4.69906546e-07  1.80000000e+00  4.69906546e-07  5.55417122e-03  4.69906546e-07  5.31154460e-01                                 
 5.48236144e-07  5.39320866e-01  5.48236144e-07  5.09096638e-01  5.48236144e-07  1.17201343e+00  5.48236144e-07  1.80000000e+00  5.48236144e-07 -5.53144384e-03  5.48236144e-07  5.09096638e-01                                 
 6.39429046e-07  5.05968670e-01  6.39429046e-07  4.82346699e-01  6.39429046e-07  1.04717525e+00  6.39429046e-07  1.80000000e+00  6.39429046e-07  5.55191859e-03  6.39429046e-07  4.82346699e-01                                 
 6.55555854e-07  5.03964262e-01  6.55555854e-07  4.80749258e-01  6.55555854e-07  1.02600533e+00  6.55555854e-07  1.80000000e+00  6.55555854e-07  8.72587415e-07  6.55555854e-07  4.80749258e-01                                 
 6.87809471e-07  5.25120144e-01  6.87809471e-07  4.97682932e-01  6.87809471e-07  1.01203345e+00  6.87809471e-07  1.80000000e+00  6.87809471e-07  2.39826597e-07  6.87809471e-07  4.97682932e-01                                 
 7.52316705e-07  7.77560021e-01  7.52316705e-07  7.25095357e-01  7.52316705e-07  1.19429946e+00  7.52316705e-07  1.80000000e+00  7.52316705e-07  1.25853687e-05  7.52316705e-07  7.25095357e-01                                 
 8.14110488e-07  8.40370549e-01  8.14110488e-07  7.83348315e-01  8.14110488e-07  1.19608573e+00  8.14110488e-07  1.80000000e+00  8.14110488e-07 -9.11707231e-06  8.14110488e-07  7.83348315e-01                                 
 8.74810406e-07  8.90655708e-01  8.74810406e-07  8.20163517e-01  8.74810406e-07  1.17408760e+00  8.74810406e-07  1.80000000e+00  8.74810406e-07  1.12192979e-05  8.74810406e-07  8.20163517e-01                                 
 8.80974466e-07  8.99029798e-01  8.80974466e-07  8.25440717e-01  8.80974466e-07  1.17811177e+00  8.80974466e-07  1.80000000e+00  8.80974466e-07  2.28928201e-06  8.80974466e-07  8.25440717e-01                                 
 8.93302587e-07  9.17566820e-01  8.93302587e-07  8.36488670e-01  8.93302587e-07  1.18259689e+00  8.93302587e-07  1.80000000e+00  8.93302587e-07  1.98541980e-06  8.93302587e-07  8.36488670e-01                                 
 9.07624954e-07  9.24512229e-01  9.07624954e-07  8.40767555e-01  9.07624954e-07  1.17542873e+00  9.07624954e-07  1.80000000e+00  9.07624954e-07 -9.94440860e-07  9.07624954e-07  8.40767555e-01                                 
 9.23915526e-07  9.19784327e-01  9.23915526e-07  8.38044197e-01  9.23915526e-07  1.15552196e+00  9.23915526e-07  1.80000000e+00  9.23915526e-07 -7.01338669e-07  9.23915526e-07  8.38044197e-01                                 
 9.41812777e-07  9.20817543e-01  9.41812777e-07  8.38576335e-01  9.41812777e-07  1.13752037e+00  9.41812777e-07  1.80000000e+00  9.41812777e-07  2.65665601e-08  9.41812777e-07  8.38576335e-01                                 
 9.61020017e-07  9.18894120e-01  9.61020017e-07  8.37579215e-01  9.61020017e-07  1.11722259e+00  9.61020017e-07  1.80000000e+00  9.61020017e-07 -1.05071169e-06  9.61020017e-07  8.37579215e-01                                 
 9.92641975e-07  9.17877873e-01  9.92641975e-07  8.36881135e-01  9.92641975e-07  1.08291900e+00  9.92641975e-07  1.80000000e+00  9.92641975e-07  1.06516353e-07  9.92641975e-07  8.36881135e-01                                 
 1.03892827e-06  9.15104937e-01  1.03892827e-06  8.35396723e-01  1.03892827e-06  1.03308412e+00  1.03892827e-06  1.80000000e+00  1.03892827e-06 -1.04782804e-06  1.03892827e-06  8.35396723e-01                                 
 1.12640797e-06  9.08245466e-01  1.12640797e-06  8.31221997e-01  1.12640797e-06  9.44657526e-01  1.12640797e-06  1.80000000e+00  1.12640797e-06  1.31582572e-07  1.12640797e-06  8.31221997e-01                                 
 1.14469837e-06  9.06102314e-01  1.14469837e-06  8.29993625e-01  1.14469837e-06  9.29647501e-01  1.14469837e-06  1.80000000e+00  1.14469837e-06 -3.92866835e-07  1.14469837e-06  8.29993625e-01                                 
 1.18127918e-06  9.00941139e-01  1.18127918e-06  8.26836979e-01  1.18127918e-06  9.00557754e-01  1.18127918e-06  1.80000000e+00  1.18127918e-06 -4.36132232e-07  1.18127918e-06  8.26836979e-01                                 
 1.25444079e-06  8.72002501e-01  1.25444079e-06  8.07693681e-01  1.25444079e-06  8.37547489e-01  1.25444079e-06  1.80000000e+00  1.25444079e-06 -1.10090980e-06  1.25444079e-06  8.07693681e-01                                 
 1.31416508e-06  8.30804701e-01  1.31416508e-06  7.75294011e-01  1.31416508e-06  7.82045765e-01  1.31416508e-06  1.80000000e+00  1.31416508e-06 -1.42831011e-06  1.31416508e-06  7.75294011e-01                                 
 1.32194179e-06  8.25941336e-01  1.32194179e-06  7.71104588e-01  1.32194179e-06  7.76193775e-01  1.32194179e-06  1.80000000e+00  1.32194179e-06 -1.14431144e-06  1.32194179e-06  7.71104588e-01                                 
 1.33749522e-06  8.17941684e-01  1.33749522e-06  7.63982629e-01  1.33749522e-06  7.66301886e-01  1.33749522e-06  1.80000000e+00  1.33749522e-06 -7.45196891e-07  1.33749522e-06  7.63982629e-01                                 
 1.36860208e-06  8.13470445e-01  1.36860208e-06  7.59894313e-01  1.36860208e-06  7.58331832e-01  1.36860208e-06  1.80000000e+00  1.36860208e-06  2.72085684e-07  1.36860208e-06  7.59894313e-01                                 
 1.42228661e-06  8.21199423e-01  1.42228661e-06  7.66868390e-01  1.42228661e-06  7.61084773e-01  1.42228661e-06  1.80000000e+00  1.42228661e-06  3.73175430e-07  1.42228661e-06  7.66868390e-01                                 
 1.47929249e-06  8.23247828e-01  1.47929249e-06  7.68701656e-01  1.47929249e-06  7.59887378e-01  1.47929249e-06  1.80000000e+00  1.47929249e-06 -1.17996390e-07  1.47929249e-06  7.68701656e-01                                 
 1.56128369e-06  8.17024274e-01  1.56128369e-06  7.63134963e-01  1.56128369e-06  7.60074992e-01  1.56128369e-06  1.80000000e+00  1.56128369e-06  3.48838498e-08  1.56128369e-06  7.63134963e-01                                 
 1.67858910e-06  8.21412670e-01  1.67858910e-06  7.67060003e-01  1.67858910e-06  7.69478172e-01  1.67858910e-06  1.80000000e+00  1.67858910e-06  2.80378155e-07  1.67858910e-06  7.67060003e-01                                 
 1.78665796e-06  8.20292001e-01  1.78665796e-06  7.66076668e-01  1.78665796e-06  7.65095326e-01  1.78665796e-06  1.80000000e+00  1.78665796e-06 -1.86667179e-07  1.78665796e-06  7.66076668e-01                                 
 1.92854777e-06  8.18682945e-01  1.92854777e-06  7.64617647e-01  1.92854777e-06  7.64828179e-01  1.92854777e-06  1.80000000e+00  1.92854777e-06  3.00407198e-07  1.92854777e-06  7.64617647e-01                                 
 2.07595307e-06  8.21796356e-01  2.07595307e-06  7.67413928e-01  2.07595307e-06  7.67607214e-01  2.07595307e-06  1.80000000e+00  2.07595307e-06 -7.09788743e-08  2.07595307e-06  7.67413928e-01                                 
 2.33333541e-06  8.18186704e-01  2.33333541e-06  7.64175556e-01  2.33333541e-06  7.64090780e-01  2.33333541e-06  1.80000000e+00  2.33333541e-06  1.68798490e-07  2.33333541e-06  7.64175556e-01                                 
 2.66740411e-06  8.21684973e-01  2.66740411e-06  7.67312034e-01  2.66740411e-06  7.67519890e-01  2.66740411e-06  1.80000000e+00  2.66740411e-06  2.15985514e-08  2.66740411e-06  7.67312034e-01                                 
 3.09255768e-06  8.18428583e-01  3.09255768e-06  7.64395429e-01  3.09255768e-06  7.64336130e-01  3.09255768e-06  1.80000000e+00  3.09255768e-06  1.00277288e-07  3.09255768e-06  7.64395429e-01                                 
 3.71380893e-06  8.21413991e-01  3.71380893e-06  7.67070404e-01  3.71380893e-06  7.67249918e-01  3.71380893e-06  1.80000000e+00  3.71380893e-06  6.86592718e-08  3.71380893e-06  7.67070404e-01                                 
 4.52304414e-06  8.18643991e-01  4.52304414e-06  7.64590621e-01  4.52304414e-06  7.64555669e-01  4.52304414e-06  1.80000000e+00  4.52304414e-06  6.92447045e-08  4.52304414e-06  7.64590621e-01                                 
 5.52304414e-06  8.21227236e-01  5.52304414e-06  7.66902823e-01  5.52304414e-06  7.67062769e-01  5.52304414e-06  1.80000000e+00  5.52304414e-06  9.12790615e-08  5.52304414e-06  7.66902823e-01                                 
 6.52304414e-06  8.18835923e-01  6.52304414e-06  7.64763382e-01  6.52304414e-06  7.64746626e-01  6.52304414e-06  1.80000000e+00  6.52304414e-06  5.05348313e-08  6.52304414e-06  7.64763382e-01                                 
 7.52304414e-06  8.21038178e-01  7.52304414e-06  7.66733508e-01  7.52304414e-06  7.66875305e-01  7.52304414e-06  1.80000000e+00  7.52304414e-06  1.08533447e-07  7.52304414e-06  7.66733508e-01                                 
 8.52304414e-06  8.19037599e-01  8.52304414e-06  7.64944923e-01  8.52304414e-06  7.64946589e-01  8.52304414e-06  1.80000000e+00  8.52304414e-06  3.47734733e-08  8.52304414e-06  7.64944923e-01                                 
 9.52304414e-06  8.20836420e-01  9.52304414e-06  7.66553033e-01  9.52304414e-06  7.66676679e-01  9.52304414e-06  1.80000000e+00  9.52304414e-06  1.22755033e-07  9.52304414e-06  7.66553033e-01                                 
 1.00005000e-05  8.19362748e-01  1.00005000e-05  7.65237133e-01  1.00005000e-05  7.65266716e-01  1.00005000e-05  1.80000000e+00  1.00005000e-05  1.65577947e-08  1.00005000e-05  7.65237133e-01                                 
