 time            v(vbep)         time            v(vben)         time            v(vout)         time            v(vphi1)        time            v(vphi2)        time            v(vref)         yes             currtemp       
 0.00000000e+00  6.32110261e-01  0.00000000e+00  5.70864910e-01  0.00000000e+00  1.04624881e+00  0.00000000e+00  0.00000000e+00  0.00000000e+00  1.79993205e+00  0.00000000e+00  5.70864910e-01  1.00000000e+00  6.20000000e+01 
 5.00000000e-12  6.32069242e-01  5.00000000e-12  5.70831216e-01  5.00000000e-12  1.04698636e+00  5.00000000e-12  1.80000000e-02  5.00000000e-12  1.80006253e+00  5.00000000e-12  5.70831216e-01                                 
 1.00000000e-11  6.32029762e-01  1.00000000e-11  5.70798596e-01  1.00000000e-11  1.04765554e+00  1.00000000e-11  3.60000000e-02  1.00000000e-11  1.80014147e+00  1.00000000e-11  5.70798596e-01                                 
 2.00000000e-11  6.31951813e-01  2.00000000e-11  5.70733669e-01  2.00000000e-11  1.04888599e+00  2.00000000e-11  7.20000000e-02  2.00000000e-11  1.80023058e+00  2.00000000e-11  5.70733669e-01                                 
 4.00000000e-11  6.31797639e-01  4.00000000e-11  5.70604445e-01  4.00000000e-11  1.05084769e+00  4.00000000e-11  1.44000000e-01  4.00000000e-11  1.80022185e+00  4.00000000e-11  5.70604445e-01                                 
 8.00000000e-11  6.31491119e-01  8.00000000e-11  5.70347432e-01  8.00000000e-11  1.05342782e+00  8.00000000e-11  2.88000000e-01  8.00000000e-11  1.80012074e+00  8.00000000e-11  5.70347432e-01                                 
 1.60000000e-10  6.30886107e-01  1.60000000e-10  5.69839105e-01  1.60000000e-10  1.05549305e+00  1.60000000e-10  5.76000000e-01  1.60000000e-10  1.80000848e+00  1.60000000e-10  5.69839105e-01                                 
 3.20000000e-10  6.29705937e-01  3.20000000e-10  5.68844321e-01  3.20000000e-10  1.04879291e+00  3.20000000e-10  1.15200000e+00  3.20000000e-10  1.80030042e+00  3.20000000e-10  5.68844321e-01                                 
 5.00000000e-10  6.28423980e-01  5.00000000e-10  5.67758609e-01  5.00000000e-10  1.15871056e+00  5.00000000e-10  1.80000000e+00  5.00000000e-10  1.69399723e-01  5.00000000e-10  5.67758609e-01                                 
 5.21933876e-10  6.28271315e-01  5.21933876e-10  5.67628936e-01  5.21933876e-10  1.18641238e+00  5.21933876e-10  1.80000000e+00  5.21933876e-10  4.44408957e-02  5.21933876e-10  5.67628936e-01                                 
 5.65801629e-10  6.27967271e-01  5.65801629e-10  5.67370511e-01  5.65801629e-10  1.24165213e+00  5.65801629e-10  1.80000000e+00  5.65801629e-10 -1.58891048e-02  5.65801629e-10  5.67370511e-01                                 
 6.53537135e-10  6.27366989e-01  6.53537135e-10  5.66859452e-01  6.53537135e-10  1.34081120e+00  6.53537135e-10  1.80000000e+00  6.53537135e-10  1.33361470e-02  6.53537135e-10  5.66859452e-01                                 
 7.74283382e-10  6.26557405e-01  7.74283382e-10  5.66168408e-01  7.74283382e-10  1.45828726e+00  7.74283382e-10  1.80000000e+00  7.74283382e-10 -9.89083056e-03  7.74283382e-10  5.66168408e-01                                 
 9.57570126e-10  6.25363375e-01  9.57570126e-10  5.65145509e-01  9.57570126e-10  1.60073355e+00  9.57570126e-10  1.80000000e+00  9.57570126e-10  9.73771001e-03  9.57570126e-10  5.65145509e-01                                 
 1.32414361e-09  6.23091289e-01  1.32414361e-09  5.63187211e-01  1.32414361e-09  1.77517892e+00  1.32414361e-09  1.80000000e+00  1.32414361e-09 -8.46687658e-03  1.32414361e-09  5.63187211e-01                                 
 1.65643268e-09  6.21154959e-01  1.65643268e-09  5.61505836e-01  1.65643268e-09  1.84673469e+00  1.65643268e-09  1.80000000e+00  1.65643268e-09  8.25916052e-03  1.65643268e-09  5.61505836e-01                                 
 2.02743846e-09  6.19115974e-01  2.02743846e-09  5.59723309e-01  2.02743846e-09  1.87835301e+00  2.02743846e-09  1.80000000e+00  2.02743846e-09 -7.59632095e-03  2.02743846e-09  5.59723309e-01                                 
 2.37458164e-09  6.17314137e-01  2.37458164e-09  5.58138003e-01  2.37458164e-09  1.88891146e+00  2.37458164e-09  1.80000000e+00  2.37458164e-09  7.20821600e-03  2.37458164e-09  5.58138003e-01                                 
 2.89400981e-09  6.14786182e-01  2.89400981e-09  5.55898594e-01  2.89400981e-09  1.89207753e+00  2.89400981e-09  1.80000000e+00  2.89400981e-09 -6.84690425e-03  2.89400981e-09  5.55898594e-01                                 
 3.54079854e-09  6.11885258e-01  3.54079854e-09  5.53307362e-01  3.54079854e-09  1.89096774e+00  3.54079854e-09  1.80000000e+00  3.54079854e-09  6.64967579e-03  3.54079854e-09  5.53307362e-01                                 
 4.64687240e-09  6.07443397e-01  4.64687240e-09  5.49298323e-01  4.64687240e-09  1.88652544e+00  4.64687240e-09  1.80000000e+00  4.64687240e-09 -6.48424878e-03  4.64687240e-09  5.49298323e-01                                 
 6.34747905e-09  6.01606482e-01  6.34747905e-09  5.43958405e-01  6.34747905e-09  1.88122028e+00  6.34747905e-09  1.80000000e+00  6.34747905e-09  6.43072323e-03  6.34747905e-09  5.43958405e-01                                 
 9.74869235e-09  5.92337479e-01  9.74869235e-09  5.35333227e-01  9.74869235e-09  1.87219592e+00  9.74869235e-09  1.80000000e+00  9.74869235e-09 -6.35138898e-03  9.74869235e-09  5.35333227e-01                                 
 1.14382512e-08  5.88633389e-01  1.14382512e-08  5.31832981e-01  1.14382512e-08  1.86904364e+00  1.14382512e-08  1.80000000e+00  1.14382512e-08  6.29970532e-03  1.14382512e-08  5.31832981e-01                                 
 1.28008649e-08  5.85942199e-01  1.28008649e-08  5.29274589e-01  1.28008649e-08  1.86626694e+00  1.28008649e-08  1.80000000e+00  1.28008649e-08 -6.16789140e-03  1.28008649e-08  5.29274589e-01                                 
 1.44419276e-08  5.82985052e-01  1.44419276e-08  5.26449873e-01  1.44419276e-08  1.86386052e+00  1.44419276e-08  1.80000000e+00  1.44419276e-08  6.11163046e-03  1.44419276e-08  5.26449873e-01                                 
 1.61691500e-08  5.80153959e-01  1.61691500e-08  5.23732993e-01  1.61691500e-08  1.86099075e+00  1.61691500e-08  1.80000000e+00  1.61691500e-08 -6.00639602e-03  1.61691500e-08  5.23732993e-01                                 
 1.81094517e-08  5.77258558e-01  1.81094517e-08  5.20942598e-01  1.81094517e-08  1.85867232e+00  1.81094517e-08  1.80000000e+00  1.81094517e-08  5.96331392e-03  1.81094517e-08  5.20942598e-01                                 
 2.03614894e-08  5.74210208e-01  2.03614894e-08  5.17992867e-01  2.03614894e-08  1.85564331e+00  2.03614894e-08  1.80000000e+00  2.03614894e-08 -5.87854031e-03  2.03614894e-08  5.17992867e-01                                 
 2.38223691e-08  5.70043404e-01  2.38223691e-08  5.13943437e-01  2.38223691e-08  1.85226642e+00  2.38223691e-08  1.80000000e+00  2.38223691e-08  5.86655632e-03  2.38223691e-08  5.13943437e-01                                 
 2.75334957e-08  5.66129757e-01  2.75334957e-08  5.10123324e-01  2.75334957e-08  1.84859435e+00  2.75334957e-08  1.80000000e+00  2.75334957e-08 -5.80507375e-03  2.75334957e-08  5.10123324e-01                                 
 3.42950449e-08  5.60062544e-01  3.42950449e-08  5.04173347e-01  3.42950449e-08  1.84375092e+00  3.42950449e-08  1.80000000e+00  3.42950449e-08  5.81273207e-03  3.42950449e-08  5.04173347e-01                                 
 4.48150073e-08  5.52529248e-01  4.48150073e-08  4.96739622e-01  4.48150073e-08  1.83724508e+00  4.48150073e-08  1.80000000e+00  4.48150073e-08 -5.77294113e-03  4.48150073e-08  4.96739622e-01                                 
 6.58549319e-08  5.41377211e-01  6.58549319e-08  4.85670208e-01  6.58549319e-08  1.82273092e+00  6.58549319e-08  1.80000000e+00  6.58549319e-08  5.79481458e-03  6.58549319e-08  4.85670208e-01                                 
 8.80571095e-08  5.31656015e-01  8.80571095e-08  4.76239571e-01  8.80571095e-08  1.80152831e+00  8.80571095e-08  1.80000000e+00  8.80571095e-08 -5.76104710e-03  8.80571095e-08  4.76239571e-01                                 
 1.10673738e-07  5.19410486e-01  1.10673738e-07  4.65173508e-01  1.10673738e-07  1.77500577e+00  1.10673738e-07  1.80000000e+00  1.10673738e-07  5.78284197e-03  1.10673738e-07  4.65173508e-01                                 
 1.34693944e-07  5.07977313e-01  1.34693944e-07  4.54946244e-01  1.34693944e-07  1.72937146e+00  1.34693944e-07  1.80000000e+00  1.34693944e-07 -5.75084184e-03  1.34693944e-07  4.54946244e-01                                 
 1.59129895e-07  4.98451603e-01  1.59129895e-07  4.46422532e-01  1.59129895e-07  1.68838368e+00  1.59129895e-07  1.80000000e+00  1.59129895e-07  5.77292891e-03  1.59129895e-07  4.46422532e-01                                 
 1.87157356e-07  4.99323508e-01  1.87157356e-07  4.46126175e-01  1.87157356e-07  1.67301077e+00  1.87157356e-07  1.80000000e+00  1.87157356e-07 -5.73857601e-03  1.87157356e-07  4.46126175e-01                                 
 2.12859719e-07  5.01358957e-01  2.12859719e-07  4.46918118e-01  2.12859719e-07  1.65302565e+00  2.12859719e-07  1.80000000e+00  2.12859719e-07  5.76327915e-03  2.12859719e-07  4.46918118e-01                                 
 2.37300710e-07  4.97293946e-01  2.37300710e-07  4.43001691e-01  2.37300710e-07  1.62335131e+00  2.37300710e-07  1.80000000e+00  2.37300710e-07 -5.72973179e-03  2.37300710e-07  4.43001691e-01                                 
 2.61285774e-07  4.94702730e-01  2.61285774e-07  4.40329695e-01  2.61285774e-07  1.59703512e+00  2.61285774e-07  1.80000000e+00  2.61285774e-07  5.75312741e-03  2.61285774e-07  4.40329695e-01                                 
 2.86029894e-07  4.89672946e-01  2.86029894e-07  4.35765958e-01  2.86029894e-07  1.56715208e+00  2.86029894e-07  1.80000000e+00  2.86029894e-07 -5.71982975e-03  2.86029894e-07  4.35765958e-01                                 
 3.29073317e-07  4.78705011e-01  3.29073317e-07  4.26195613e-01  3.29073317e-07  1.51237948e+00  3.29073317e-07  1.80000000e+00  3.29073317e-07  5.74488847e-03  3.29073317e-07  4.26195613e-01                                 
 3.85290959e-07  4.65201363e-01  3.85290959e-07  4.14550526e-01  3.85290959e-07  1.44116526e+00  3.85290959e-07  1.80000000e+00  3.85290959e-07 -5.71464044e-03  3.85290959e-07  4.14550526e-01                                 
 4.65230172e-07  4.45451001e-01  4.65230172e-07  3.97868757e-01  4.65230172e-07  1.33845693e+00  4.65230172e-07  1.80000000e+00  4.65230172e-07  5.74107917e-03  4.65230172e-07  3.97868757e-01                                 
 4.85214975e-07  4.39178577e-01  4.85214975e-07  3.92699835e-01  4.85214975e-07  1.31152982e+00  4.85214975e-07  1.80000000e+00  4.85214975e-07  3.69836046e-06  4.85214975e-07  3.92699835e-01                                 
 5.25184581e-07  4.26800884e-01  5.25184581e-07  3.82525326e-01  5.25184581e-07  1.25760991e+00  5.25184581e-07  1.80000000e+00  5.25184581e-07  5.37781967e-07  5.25184581e-07  3.82525326e-01                                 
 6.05123794e-07  3.97857925e-01  6.05123794e-07  3.59012482e-01  6.05123794e-07  1.14596679e+00  6.05123794e-07  1.80000000e+00  6.05123794e-07  3.53849796e-06  6.05123794e-07  3.59012482e-01                                 
 7.15019268e-07  4.32779104e-01  7.15019268e-07  3.86684252e-01  7.15019268e-07  1.06765098e+00  7.15019268e-07  1.80000000e+00  7.15019268e-07  3.15717539e-06  7.15019268e-07  3.86684252e-01                                 
 7.31746377e-07  4.82893054e-01  7.31746377e-07  4.26682128e-01  7.31746377e-07  1.09841835e+00  7.31746377e-07  1.80000000e+00  7.31746377e-07  8.46359982e-06  7.31746377e-07  4.26682128e-01                                 
 7.65200597e-07  6.41953771e-01  7.65200597e-07  5.75481526e-01  7.65200597e-07  1.21580729e+00  7.65200597e-07  1.80000000e+00  7.65200597e-07  1.84736454e-05  7.65200597e-07  5.75481526e-01                                 
 7.73564152e-07  6.67945021e-01  7.73564152e-07  6.03875526e-01  7.73564152e-07  1.23271930e+00  7.73564152e-07  1.80000000e+00  7.73564152e-07  1.11964571e-05  7.73564152e-07  6.03875526e-01                                 
 7.90291262e-07  7.04229618e-01  7.90291262e-07  6.39849601e-01  7.90291262e-07  1.25030861e+00  7.90291262e-07  1.80000000e+00  7.90291262e-07  5.66796551e-06  7.90291262e-07  6.39849601e-01                                 
 8.13800330e-07  7.38174955e-01  8.13800330e-07  6.70120146e-01  8.13800330e-07  1.25759199e+00  8.13800330e-07  1.80000000e+00  8.13800330e-07  7.07478705e-06  8.13800330e-07  6.70120146e-01                                 
 8.39010028e-07  7.50189994e-01  8.39010028e-07  6.80255059e-01  8.39010028e-07  1.24311738e+00  8.39010028e-07  1.80000000e+00  8.39010028e-07  7.94971476e-07  8.39010028e-07  6.80255059e-01                                 
 8.74910314e-07  7.51623294e-01  8.74910314e-07  6.81371388e-01  8.74910314e-07  1.20616554e+00  8.74910314e-07  1.80000000e+00  8.74910314e-07  4.81417589e-06  8.74910314e-07  6.81371388e-01                                 
 9.14784492e-07  7.51838993e-01  9.14784492e-07  6.81597023e-01  9.14784492e-07  1.16485247e+00  9.14784492e-07  1.80000000e+00  9.14784492e-07  6.88415359e-07  9.14784492e-07  6.81597023e-01                                 
 9.62685842e-07  7.51547664e-01  9.62685842e-07  6.81314509e-01  9.62685842e-07  1.11432486e+00  9.62685842e-07  1.80000000e+00  9.62685842e-07  4.73806318e-06  9.62685842e-07  6.81314509e-01                                 
 1.01490255e-06  7.36714931e-01  1.01490255e-06  6.69033593e-01  1.01490255e-06  1.04883200e+00  1.01490255e-06  1.80000000e+00  1.01490255e-06 -5.67712537e-07  1.01490255e-06  6.69033593e-01                                 
 1.07699772e-06  7.12448258e-01  1.07699772e-06  6.47421667e-01  1.07699772e-06  9.72007689e-01  1.07699772e-06  1.80000000e+00  1.07699772e-06  4.32232747e-06  1.07699772e-06  6.47421667e-01                                 
 1.14313860e-06  7.29638146e-01  1.14313860e-06  6.62857221e-01  1.14313860e-06  9.39256079e-01  1.14313860e-06  1.80000000e+00  1.14313860e-06  2.86145002e-06  1.14313860e-06  6.62857221e-01                                 
 1.21156252e-06  7.49582597e-01  1.21156252e-06  6.79706201e-01  1.21156252e-06  9.10891107e-01  1.21156252e-06  1.80000000e+00  1.21156252e-06  4.51006986e-06  1.21156252e-06  6.79706201e-01                                 
 1.28752014e-06  7.22289825e-01  1.28752014e-06  6.56451924e-01  1.28752014e-06  8.39366713e-01  1.28752014e-06  1.80000000e+00  1.28752014e-06 -1.76138947e-07  1.28752014e-06  6.56451924e-01                                 
 1.35691888e-06  7.18639987e-01  1.35691888e-06  6.53004492e-01  1.35691888e-06  7.95143314e-01  1.35691888e-06  1.80000000e+00  1.35691888e-06  6.02433131e-06  1.35691888e-06  6.53004492e-01                                 
 1.42330448e-06  7.44891817e-01  1.42330448e-06  6.75886100e-01  1.42330448e-06  7.81410165e-01  1.42330448e-06  1.80000000e+00  1.42330448e-06  2.02783740e-06  1.42330448e-06  6.75886100e-01                                 
 1.48618034e-06  7.34514049e-01  1.48618034e-06  6.67077589e-01  1.48618034e-06  7.37859468e-01  1.48618034e-06  1.80000000e+00  1.48618034e-06  3.39661832e-06  1.48618034e-06  6.67077589e-01                                 
 1.55175134e-06  7.23792535e-01  1.55175134e-06  6.57725940e-01  1.55175134e-06  6.99658578e-01  1.55175134e-06  1.80000000e+00  1.55175134e-06  2.16307148e-06  1.55175134e-06  6.57725940e-01                                 
 1.63150883e-06  7.33966218e-01  1.63150883e-06  6.66577736e-01  1.63150883e-06  6.85961464e-01  1.63150883e-06  1.80000000e+00  1.63150883e-06  4.88966359e-06  1.63150883e-06  6.66577736e-01                                 
 1.64446233e-06  7.36310927e-01  1.64446233e-06  6.68614485e-01  1.64446233e-06  6.85476502e-01  1.64446233e-06  1.80000000e+00  1.64446233e-06  3.69158504e-06  1.64446233e-06  6.68614485e-01                                 
 1.67036933e-06  7.38126989e-01  1.67036933e-06  6.70176531e-01  1.67036933e-06  6.82058268e-01  1.67036933e-06  1.80000000e+00  1.67036933e-06  3.17331629e-06  1.67036933e-06  6.70176531e-01                                 
 1.72218333e-06  7.31864482e-01  1.72218333e-06  6.64803040e-01  1.72218333e-06  6.67680470e-01  1.72218333e-06  1.80000000e+00  1.72218333e-06  2.83115853e-06  1.72218333e-06  6.64803040e-01                                 
 1.79626344e-06  7.29091422e-01  1.79626344e-06  6.62368429e-01  1.79626344e-06  6.56250068e-01  1.79626344e-06  1.80000000e+00  1.79626344e-06  3.59576258e-06  1.79626344e-06  6.62368429e-01                                 
 1.87595613e-06  7.35702207e-01  1.87595613e-06  6.68101161e-01  1.87595613e-06  6.56096171e-01  1.87595613e-06  1.80000000e+00  1.87595613e-06  3.42323512e-06  1.87595613e-06  6.68101161e-01                                 
 1.88972687e-06  7.35234616e-01  1.88972687e-06  6.67703609e-01  1.88972687e-06  6.54825450e-01  1.88972687e-06  1.80000000e+00  1.88972687e-06  3.24679604e-06  1.88972687e-06  6.67703609e-01                                 
 1.91726833e-06  7.33537042e-01  1.91726833e-06  6.66244949e-01  1.91726833e-06  6.52185365e-01  1.91726833e-06  1.80000000e+00  1.91726833e-06  3.13706944e-06  1.91726833e-06  6.66244949e-01                                 
 1.97235127e-06  7.30933642e-01  1.97235127e-06  6.63983448e-01  1.97235127e-06  6.57334852e-01  1.97235127e-06  1.80000000e+00  1.97235127e-06  3.45527140e-06  1.97235127e-06  6.63983448e-01                                 
 2.03028993e-06  7.32472375e-01  2.03028993e-06  6.65316472e-01  2.03028993e-06  6.65098896e-01  2.03028993e-06  1.80000000e+00  2.03028993e-06  3.43924194e-06  2.03028993e-06  6.65316472e-01                                 
 2.11990217e-06  7.33597902e-01  2.11990217e-06  6.66294233e-01  2.11990217e-06  6.66207876e-01  2.11990217e-06  1.80000000e+00  2.11990217e-06  3.31516295e-06  2.11990217e-06  6.66294233e-01                                 
 2.22031699e-06  7.31705058e-01  2.22031699e-06  6.64654355e-01  2.22031699e-06  6.64979428e-01  2.22031699e-06  1.80000000e+00  2.22031699e-06  3.29638608e-06  2.22031699e-06  6.64654355e-01                                 
 2.34517962e-06  7.32988899e-01  2.34517962e-06  6.65764975e-01  2.34517962e-06  6.65789925e-01  2.34517962e-06  1.80000000e+00  2.34517962e-06  3.44357086e-06  2.34517962e-06  6.65764975e-01                                 
 2.59490486e-06  7.32516884e-01  2.59490486e-06  6.65359728e-01  2.59490486e-06  6.65646976e-01  2.59490486e-06  1.80000000e+00  2.59490486e-06  3.24384208e-06  2.59490486e-06  6.65359728e-01                                 
 2.95078859e-06  7.32508258e-01  2.95078859e-06  6.65348775e-01  2.95078859e-06  6.65375407e-01  2.95078859e-06  1.80000000e+00  2.95078859e-06  3.45023461e-06  2.95078859e-06  6.65348775e-01                                 
 3.66255605e-06  7.32791601e-01  3.66255605e-06  6.65597454e-01  3.66255605e-06  6.65888098e-01  3.66255605e-06  1.80000000e+00  3.66255605e-06  3.24697943e-06  3.66255605e-06  6.65597454e-01                                 
 4.66255605e-06  7.32365693e-01  4.66255605e-06  6.65225349e-01  4.66255605e-06  6.65249614e-01  4.66255605e-06  1.80000000e+00  4.66255605e-06  3.44575675e-06  4.66255605e-06  6.65225349e-01                                 
 5.66255605e-06  7.32898524e-01  5.66255605e-06  6.65689863e-01  5.66255605e-06  6.65982412e-01  5.66255605e-06  1.80000000e+00  5.66255605e-06  3.25196407e-06  5.66255605e-06  6.65689863e-01                                 
 6.66255605e-06  7.32267252e-01  6.66255605e-06  6.65140158e-01  6.66255605e-06  6.65162857e-01  6.66255605e-06  1.80000000e+00  6.66255605e-06  3.43982596e-06  6.66255605e-06  6.65140158e-01                                 
