 time            v(vbep)         time            v(vben)         time            v(vout)         time            v(vphi1)        time            v(vphi2)        time            v(vref)         yes             currtemp       
 0.00000000e+00  6.76781799e-01  0.00000000e+00  6.20616226e-01  0.00000000e+00  1.07342919e+00  0.00000000e+00  0.00000000e+00  0.00000000e+00  1.79994992e+00  0.00000000e+00  6.20616226e-01  1.00000000e+00  3.40000000e+01 
 5.00000000e-12  6.76751506e-01  5.00000000e-12  6.20591159e-01  5.00000000e-12  1.07416443e+00  5.00000000e-12  1.80000000e-02  5.00000000e-12  1.80007538e+00  5.00000000e-12  6.20591159e-01                                 
 1.00000000e-11  6.76722070e-01  1.00000000e-11  6.20566767e-01  1.00000000e-11  1.07483526e+00  1.00000000e-11  3.60000000e-02  1.00000000e-11  1.80015007e+00  1.00000000e-11  6.20566767e-01                                 
 2.00000000e-11  6.76663728e-01  2.00000000e-11  6.20518180e-01  2.00000000e-11  1.07607602e+00  2.00000000e-11  7.20000000e-02  2.00000000e-11  1.80023393e+00  2.00000000e-11  6.20518180e-01                                 
 4.00000000e-11  6.76547952e-01  4.00000000e-11  6.20421402e-01  4.00000000e-11  1.07809028e+00  4.00000000e-11  1.44000000e-01  4.00000000e-11  1.80022631e+00  4.00000000e-11  6.20421402e-01                                 
 8.00000000e-11  6.76317579e-01  8.00000000e-11  6.20228752e-01  8.00000000e-11  1.08082491e+00  8.00000000e-11  2.88000000e-01  8.00000000e-11  1.80013223e+00  8.00000000e-11  6.20228752e-01                                 
 1.60000000e-10  6.75861951e-01  1.60000000e-10  6.19847056e-01  1.60000000e-10  1.08316245e+00  1.60000000e-10  5.76000000e-01  1.60000000e-10  1.80002222e+00  1.60000000e-10  6.19847056e-01                                 
 3.20000000e-10  6.74969909e-01  3.20000000e-10  6.19097549e-01  3.20000000e-10  1.07547350e+00  3.20000000e-10  1.15200000e+00  3.20000000e-10  1.80028741e+00  3.20000000e-10  6.19097549e-01                                 
 5.00000000e-10  6.73995904e-01  5.00000000e-10  6.18275676e-01  5.00000000e-10  1.17445386e+00  5.00000000e-10  1.80000000e+00  5.00000000e-10  1.51017184e-01  5.00000000e-10  6.18275676e-01                                 
 5.21313935e-10  6.73882795e-01  5.21313935e-10  6.18179981e-01  5.21313935e-10  1.19965234e+00  5.21313935e-10  1.80000000e+00  5.21313935e-10  3.76990712e-02  5.21313935e-10  6.18179981e-01                                 
 5.63941804e-10  6.73657379e-01  5.63941804e-10  6.17989161e-01  5.63941804e-10  1.24982766e+00  5.63941804e-10  1.80000000e+00  5.63941804e-10 -1.41686240e-02  5.63941804e-10  6.17989161e-01                                 
 6.49197542e-10  6.73211391e-01  6.49197542e-10  6.17611064e-01  6.49197542e-10  1.34008500e+00  6.49197542e-10  1.80000000e+00  6.49197542e-10  1.20423220e-02  6.49197542e-10  6.17611064e-01                                 
 7.69325117e-10  6.72593673e-01  7.69325117e-10  6.17086156e-01  7.69325117e-10  1.45074789e+00  7.69325117e-10  1.80000000e+00  7.69325117e-10 -9.17466835e-03  7.69325117e-10  6.17086156e-01                                 
 9.50496073e-10  6.71684716e-01  9.50496073e-10  6.16311213e-01  9.50496073e-10  1.58551901e+00  9.50496073e-10  1.80000000e+00  9.50496073e-10  9.05354031e-03  9.50496073e-10  6.16311213e-01                                 
 1.31283799e-09  6.69942768e-01  1.31283799e-09  6.14817818e-01  1.31283799e-09  1.75420424e+00  1.31283799e-09  1.80000000e+00  1.31283799e-09 -7.95275234e-03  1.31283799e-09  6.14817818e-01                                 
 1.65858609e-09  6.68368335e-01  1.65858609e-09  6.13458609e-01  1.65858609e-09  1.82868693e+00  1.65858609e-09  1.80000000e+00  1.65858609e-09  7.80998016e-03  1.65858609e-09  6.13458609e-01                                 
 2.04038266e-09  6.66719355e-01  2.04038266e-09  6.12025716e-01  2.04038266e-09  1.86107338e+00  2.04038266e-09  1.80000000e+00  2.04038266e-09 -7.24718875e-03  2.04038266e-09  6.12025716e-01                                 
 2.39829213e-09  6.65251264e-01  2.39829213e-09  6.10742111e-01  2.39829213e-09  1.87185447e+00  2.39829213e-09  1.80000000e+00  2.39829213e-09  6.92492322e-03  2.39829213e-09  6.10742111e-01                                 
 2.92294932e-09  6.63220123e-01  2.92294932e-09  6.08954468e-01  2.92294932e-09  1.87529863e+00  2.92294932e-09  1.80000000e+00  2.92294932e-09 -6.61159237e-03  2.92294932e-09  6.08954468e-01                                 
 3.58888119e-09  6.60825362e-01  3.58888119e-09  6.06829739e-01  3.58888119e-09  1.87461946e+00  3.58888119e-09  1.80000000e+00  3.58888119e-09  6.44546996e-03  3.58888119e-09  6.06829739e-01                                 
 4.72147509e-09  6.57144345e-01  4.72147509e-09  6.03530098e-01  4.72147509e-09  1.87092983e+00  4.72147509e-09  1.80000000e+00  4.72147509e-09 -6.30219984e-03  4.72147509e-09  6.03530098e-01                                 
 6.50123873e-09  6.52145870e-01  6.50123873e-09  5.98988122e-01  6.50123873e-09  1.86648909e+00  6.50123873e-09  1.80000000e+00  6.50123873e-09  6.25614339e-03  6.50123873e-09  5.98988122e-01                                 
 1.00607660e-08  6.44112212e-01  1.00607660e-08  5.91559215e-01  1.00607660e-08  1.85861531e+00  1.00607660e-08  1.80000000e+00  1.00607660e-08 -6.19055110e-03  1.00607660e-08  5.91559215e-01                                 
 1.26699521e-08  6.39430359e-01  1.26699521e-08  5.87155160e-01  1.26699521e-08  1.85421387e+00  1.26699521e-08  1.80000000e+00  1.26699521e-08  6.17091118e-03  1.26699521e-08  5.87155160e-01                                 
 1.44326244e-08  6.36663044e-01  1.44326244e-08  5.84530507e-01  1.44326244e-08  1.85113496e+00  1.44326244e-08  1.80000000e+00  1.44326244e-08 -6.07518120e-03  1.44326244e-08  5.84530507e-01                                 
 1.59013098e-08  6.34548989e-01  1.59013098e-08  5.82515886e-01  1.59013098e-08  1.84917095e+00  1.59013098e-08  1.80000000e+00  1.59013098e-08  6.01524688e-03  1.59013098e-08  5.82515886e-01                                 
 1.76830458e-08  6.32179482e-01  1.76830458e-08  5.80248840e-01  1.76830458e-08  1.84625878e+00  1.76830458e-08  1.80000000e+00  1.76830458e-08 -5.92446071e-03  1.76830458e-08  5.80248840e-01                                 
 1.97783556e-08  6.29624790e-01  1.97783556e-08  5.77794757e-01  1.97783556e-08  1.84347399e+00  1.97783556e-08  1.80000000e+00  1.97783556e-08  5.88921546e-03  1.97783556e-08  5.77794757e-01                                 
 2.22989197e-08  6.26826797e-01  2.22989197e-08  5.75096392e-01  2.22989197e-08  1.83951991e+00  2.22989197e-08  1.80000000e+00  2.22989197e-08 -5.82040078e-03  2.22989197e-08  5.75096392e-01                                 
 2.60463724e-08  6.23104463e-01  2.60463724e-08  5.71492827e-01  2.60463724e-08  1.83433227e+00  2.60463724e-08  1.80000000e+00  2.60463724e-08  5.81040845e-03  2.60463724e-08  5.71492827e-01                                 
 2.99741607e-08  6.19635566e-01  2.99741607e-08  5.68125484e-01  2.99741607e-08  1.82827975e+00  2.99741607e-08  1.80000000e+00  2.99741607e-08 -5.75896493e-03  2.99741607e-08  5.68125484e-01                                 
 3.75663593e-08  6.13695797e-01  3.75663593e-08  5.62372192e-01  3.75663593e-08  1.81822270e+00  3.75663593e-08  1.80000000e+00  3.75663593e-08  5.76547532e-03  3.75663593e-08  5.62372192e-01                                 
 4.98226599e-08  6.05239479e-01  4.98226599e-08  5.54284543e-01  4.98226599e-08  1.80458724e+00  4.98226599e-08  1.80000000e+00  4.98226599e-08 -5.73360843e-03  4.98226599e-08  5.54284543e-01                                 
 5.98030924e-08  5.99518443e-01  5.98030924e-08  5.48821071e-01  5.98030924e-08  1.79779563e+00  5.98030924e-08  1.80000000e+00  5.98030924e-08  5.74514109e-03  5.98030924e-08  5.48821071e-01                                 
 7.16881869e-08  5.91573349e-01  7.16881869e-08  5.41587803e-01  7.16881869e-08  1.77589658e+00  7.16881869e-08  1.80000000e+00  7.16881869e-08 -5.71398252e-03  7.16881869e-08  5.41587803e-01                                 
 8.58216601e-08  5.83784324e-01  8.58216601e-08  5.34470350e-01  8.58216601e-08  1.74853619e+00  8.58216601e-08  1.80000000e+00  8.58216601e-08  5.72754234e-03  8.58216601e-08  5.34470350e-01                                 
 9.91582405e-08  5.77385722e-01  9.91582405e-08  5.28638962e-01  9.91582405e-08  1.72511314e+00  9.91582405e-08  1.80000000e+00  9.91582405e-08 -5.69688342e-03  9.91582405e-08  5.28638962e-01                                 
 1.25551513e-07  5.67138365e-01  1.25551513e-07  5.19269544e-01  1.25551513e-07  1.67908594e+00  1.25551513e-07  1.80000000e+00  1.25551513e-07  5.71483873e-03  1.25551513e-07  5.19269544e-01                                 
 1.51342783e-07  5.69256836e-01  1.51342783e-07  5.19908595e-01  1.51342783e-07  1.67298389e+00  1.51342783e-07  1.80000000e+00  1.51342783e-07 -5.68519668e-03  1.51342783e-07  5.19908595e-01                                 
 1.73738002e-07  5.71230359e-01  1.73738002e-07  5.20666745e-01  1.73738002e-07  1.65717399e+00  1.73738002e-07  1.80000000e+00  1.73738002e-07  5.70470168e-03  1.73738002e-07  5.20666745e-01                                 
 1.97846317e-07  5.65856772e-01  1.97846317e-07  5.15652593e-01  1.97846317e-07  1.62577901e+00  1.97846317e-07  1.80000000e+00  1.97846317e-07 -5.67682952e-03  1.97846317e-07  5.15652593e-01                                 
 2.20509569e-07  5.60459743e-01  2.20509569e-07  5.10746940e-01  2.20509569e-07  1.59817013e+00  2.20509569e-07  1.80000000e+00  2.20509569e-07  5.69498863e-03  2.20509569e-07  5.10746940e-01                                 
 2.41825020e-07  5.54930375e-01  2.41825020e-07  5.05835223e-01  2.41825020e-07  1.57221219e+00  2.41825020e-07  1.80000000e+00  2.41825020e-07 -5.66658670e-03  2.41825020e-07  5.05835223e-01                                 
 2.83330484e-07  5.43687015e-01  2.83330484e-07  4.96037414e-01  2.83330484e-07  1.51930939e+00  2.83330484e-07  1.80000000e+00  2.83330484e-07  5.68684012e-03  2.83330484e-07  4.96037414e-01                                 
 3.34119077e-07  5.31056186e-01  3.34119077e-07  4.85154251e-01  3.34119077e-07  1.45605829e+00  3.34119077e-07  1.80000000e+00  3.34119077e-07 -5.66155542e-03  3.34119077e-07  4.85154251e-01                                 
 4.18153434e-07  5.04585744e-01  4.18153434e-07  4.63140172e-01  4.18153434e-07  1.34418553e+00  4.18153434e-07  1.80000000e+00  4.18153434e-07  5.68305016e-03  4.18153434e-07  4.63140172e-01                                 
 4.96776912e-07  4.89146503e-01  4.96776912e-07  4.50268329e-01  4.96776912e-07  1.24868900e+00  4.96776912e-07  1.80000000e+00  4.96776912e-07 -5.65836416e-03  4.96776912e-07  4.50268329e-01                                 
 5.77090408e-07  4.54535723e-01  5.77090408e-07  4.22349544e-01  5.77090408e-07  1.13140602e+00  5.77090408e-07  1.80000000e+00  5.77090408e-07  5.67945972e-03  5.77090408e-07  4.22349544e-01                                 
 6.52081325e-07  4.57777211e-01  6.52081325e-07  4.24892409e-01  6.52081325e-07  1.05720778e+00  6.52081325e-07  1.80000000e+00  6.52081325e-07 -5.65383264e-03  6.52081325e-07  4.24892409e-01                                 
 7.57859508e-07  7.47414692e-01  7.57859508e-07  6.88532792e-01  7.57859508e-07  1.22680615e+00  7.57859508e-07  1.80000000e+00  7.57859508e-07  5.68773616e-03  7.57859508e-07  6.88532792e-01                                 
 7.69779889e-07  7.58237171e-01  7.69779889e-07  6.98833766e-01  7.69779889e-07  1.22620443e+00  7.69779889e-07  1.80000000e+00  7.69779889e-07  4.92569676e-06  7.69779889e-07  6.98833766e-01                                 
 7.93620651e-07  7.71818709e-01  7.93620651e-07  7.11191410e-01  7.93620651e-07  1.21474035e+00  7.93620651e-07  1.80000000e+00  7.93620651e-07 -2.03322512e-06  7.93620651e-07  7.11191410e-01                                 
 8.41302175e-07  7.81614146e-01  8.41302175e-07  7.19756625e-01  8.41302175e-07  1.17428665e+00  8.41302175e-07  1.80000000e+00  8.41302175e-07  3.20051023e-06  8.41302175e-07  7.19756625e-01                                 
 9.07167608e-07  7.85727027e-01  9.07167608e-07  7.23278409e-01  9.07167608e-07  1.10985850e+00  9.07167608e-07  1.80000000e+00  9.07167608e-07 -2.66673987e-06  9.07167608e-07  7.23278409e-01                                 
 9.79524087e-07  7.87462586e-01  9.79524087e-07  7.24738357e-01  9.79524087e-07  1.03694526e+00  9.79524087e-07  1.80000000e+00  9.79524087e-07  3.05109389e-06  9.79524087e-07  7.24738357e-01                                 
 9.95188002e-07  7.87731893e-01  9.95188002e-07  7.24967698e-01  9.95188002e-07  1.02184229e+00  9.95188002e-07  1.80000000e+00  9.95188002e-07  2.14291630e-07  9.95188002e-07  7.24967698e-01                                 
 1.02651583e-06  7.82668692e-01  1.02651583e-06  7.20691485e-01  1.02651583e-06  9.87559951e-01  1.02651583e-06  1.80000000e+00  1.02651583e-06 -5.29990807e-07  1.02651583e-06  7.20691485e-01                                 
 1.07915141e-06  7.64150299e-01  1.07915141e-06  7.04334316e-01  1.07915141e-06  9.28001916e-01  1.07915141e-06  1.80000000e+00  1.07915141e-06 -4.82150736e-07  1.07915141e-06  7.04334316e-01                                 
 1.13249743e-06  7.68229161e-01  1.13249743e-06  7.07971513e-01  1.13249743e-06  8.94020799e-01  1.13249743e-06  1.80000000e+00  1.13249743e-06  1.49919973e-06  1.13249743e-06  7.07971513e-01                                 
 1.20352645e-06  7.82952474e-01  1.20352645e-06  7.20913462e-01  1.20352645e-06  8.61676441e-01  1.20352645e-06  1.80000000e+00  1.20352645e-06  1.70938585e-07  1.20352645e-06  7.20913462e-01                                 
 1.29647207e-06  7.70680080e-01  1.29647207e-06  7.10206425e-01  1.29647207e-06  7.96898290e-01  1.29647207e-06  1.80000000e+00  1.29647207e-06  1.05834488e-07  1.29647207e-06  7.10206425e-01                                 
 1.38203109e-06  7.70993230e-01  1.38203109e-06  7.10452284e-01  1.38203109e-06  7.57916787e-01  1.38203109e-06  1.80000000e+00  1.38203109e-06  8.88059672e-07  1.38203109e-06  7.10452284e-01                                 
 1.48431608e-06  7.79440905e-01  1.48431608e-06  7.17896996e-01  1.48431608e-06  7.36023653e-01  1.48431608e-06  1.80000000e+00  1.48431608e-06  5.91157023e-07  1.48431608e-06  7.17896996e-01                                 
 1.63073904e-06  7.70776365e-01  1.63073904e-06  7.10276109e-01  1.63073904e-06  7.06776742e-01  1.63073904e-06  1.80000000e+00  1.63073904e-06  3.95815669e-07  1.63073904e-06  7.10276109e-01                                 
 1.65003585e-06  7.71139500e-01  1.65003585e-06  7.10598100e-01  1.65003585e-06  7.05603423e-01  1.65003585e-06  1.80000000e+00  1.65003585e-06  6.82713891e-07  1.65003585e-06  7.10598100e-01                                 
 1.68862946e-06  7.73428678e-01  1.68862946e-06  7.12623874e-01  1.68862946e-06  7.04987383e-01  1.68862946e-06  1.80000000e+00  1.68862946e-06  8.60161638e-07  1.68862946e-06  7.12623874e-01                                 
 1.76581668e-06  7.76707498e-01  1.76581668e-06  7.15512166e-01  1.76581668e-06  7.03896035e-01  1.76581668e-06  1.80000000e+00  1.76581668e-06  6.24205597e-07  1.76581668e-06  7.15512166e-01                                 
 1.88608468e-06  7.73135567e-01  1.88608468e-06  7.12372978e-01  1.88608468e-06  7.06647019e-01  1.88608468e-06  1.80000000e+00  1.88608468e-06  6.30280281e-07  1.88608468e-06  7.12372978e-01                                 
 1.90192048e-06  7.73069583e-01  1.90192048e-06  7.12312090e-01  1.90192048e-06  7.08816476e-01  1.90192048e-06  1.80000000e+00  1.90192048e-06  7.11568569e-07  1.90192048e-06  7.12312090e-01                                 
 1.93359207e-06  7.73694246e-01  1.93359207e-06  7.12861501e-01  1.93359207e-06  7.12392920e-01  1.93359207e-06  1.80000000e+00  1.93359207e-06  7.75267163e-07  1.93359207e-06  7.12861501e-01                                 
 1.99693525e-06  7.75406396e-01  1.99693525e-06  7.14370912e-01  1.99693525e-06  7.15132108e-01  1.99693525e-06  1.80000000e+00  1.99693525e-06  6.90525808e-07  1.99693525e-06  7.14370912e-01                                 
 2.11080744e-06  7.74297739e-01  2.11080744e-06  7.13397978e-01  2.11080744e-06  7.13366684e-01  2.11080744e-06  1.80000000e+00  2.11080744e-06  6.05445664e-07  2.11080744e-06  7.13397978e-01                                 
 2.22855907e-06  7.74160646e-01  2.22855907e-06  7.13273846e-01  2.22855907e-06  7.13363075e-01  2.22855907e-06  1.80000000e+00  2.22855907e-06  7.31248996e-07  2.22855907e-06  7.13273846e-01                                 
 2.46406232e-06  7.75077314e-01  2.46406232e-06  7.14083555e-01  2.46406232e-06  7.14234213e-01  2.46406232e-06  1.80000000e+00  2.46406232e-06  6.26683210e-07  2.46406232e-06  7.14083555e-01                                 
 2.92560910e-06  7.73926993e-01  2.92560910e-06  7.13068531e-01  2.92560910e-06  7.13137319e-01  2.92560910e-06  1.80000000e+00  2.92560910e-06  7.03874356e-07  2.92560910e-06  7.13068531e-01                                 
 3.60533739e-06  7.75138125e-01  3.60533739e-06  7.14136562e-01  3.60533739e-06  7.14289549e-01  3.60533739e-06  1.80000000e+00  3.60533739e-06  6.44976708e-07  3.60533739e-06  7.14136562e-01                                 
 4.60533739e-06  7.73910537e-01  4.60533739e-06  7.13054346e-01  4.60533739e-06  7.13123876e-01  4.60533739e-06  1.80000000e+00  4.60533739e-06  6.91007799e-07  4.60533739e-06  7.13054346e-01                                 
 5.60533739e-06  7.75135644e-01  5.60533739e-06  7.14134082e-01  5.60533739e-06  7.14285252e-01  5.60533739e-06  1.80000000e+00  5.60533739e-06  6.55454975e-07  5.60533739e-06  7.14134082e-01                                 
 6.60533739e-06  7.73924449e-01  6.60533739e-06  7.13066867e-01  6.60533739e-06  7.13139054e-01  6.60533739e-06  1.80000000e+00  6.60533739e-06  6.80606065e-07  6.60533739e-06  7.13066867e-01                                 
 7.60533739e-06  7.75110925e-01  7.60533739e-06  7.14112090e-01  7.60533739e-06  7.14259853e-01  7.60533739e-06  1.80000000e+00  7.60533739e-06  6.65685701e-07  7.60533739e-06  7.14112090e-01                                 
 8.60533739e-06  7.73960346e-01  8.60533739e-06  7.13098796e-01  8.60533739e-06  7.13175026e-01  8.60533739e-06  1.80000000e+00  8.60533739e-06  6.70639972e-07  8.60533739e-06  7.13098796e-01                                 
 9.60533739e-06  7.75066360e-01  9.60533739e-06  7.14072663e-01  9.60533739e-06  7.14215790e-01  9.60533739e-06  1.80000000e+00  9.60533739e-06  6.75302895e-07  9.60533739e-06  7.14072663e-01                                 
 1.00005000e-05  7.74066532e-01  1.00005000e-05  7.13192849e-01  1.00005000e-05  7.13278634e-01  1.00005000e-05  1.80000000e+00  1.00005000e-05  6.55160229e-07  1.00005000e-05  7.13192849e-01                                 
 1.00005500e-05  7.74066168e-01  1.00005500e-05  7.13192533e-01  1.00005500e-05  7.06259407e-01  1.00005500e-05  1.62000000e+00  1.00005500e-05 -1.17515391e-04  1.00005500e-05  7.13192533e-01                                 
 1.00006500e-05  7.74065480e-01  1.00006500e-05  7.13191918e-01  1.00006500e-05  6.95728352e-01  1.00006500e-05  1.26000000e+00  1.00006500e-05 -7.11352448e-05  1.00006500e-05  7.13191918e-01                                 
 1.00008500e-05  7.74064151e-01  1.00008500e-05  7.13190726e-01  1.00008500e-05  6.91408737e-01  1.00008500e-05  5.40000000e-01  1.00008500e-05 -3.08146271e-03  1.00008500e-05  7.13190726e-01                                 
 1.00010000e-05  7.74063175e-01  1.00010000e-05  7.13189856e-01  1.00010000e-05  7.23518531e-01  1.00010000e-05  0.00000000e+00  1.00010000e-05  1.50905973e+00  1.00010000e-05  7.13189856e-01                                 
