 time            v(vbep)         time            v(vben)         time            v(vout)         time            v(vphi1)        time            v(vphi2)        time            v(vref)         yes             currtemp       
 0.00000000e+00  7.12845606e-01  0.00000000e+00  6.60692816e-01  0.00000000e+00  8.05957591e-01  0.00000000e+00  0.00000000e+00  0.00000000e+00  1.79995711e+00  0.00000000e+00  6.60692816e-01  1.00000000e+00  1.20000000e+01 
 5.00000000e-12  7.12821048e-01  5.00000000e-12  6.60672423e-01  5.00000000e-12  8.06617755e-01  5.00000000e-12  1.80000000e-02  5.00000000e-12  1.80007572e+00  5.00000000e-12  6.60672423e-01                                 
 1.00000000e-11  7.12797067e-01  1.00000000e-11  6.60652529e-01  1.00000000e-11  8.07204528e-01  1.00000000e-11  3.60000000e-02  1.00000000e-11  1.80014615e+00  1.00000000e-11  6.60652529e-01                                 
 2.00000000e-11  7.12749447e-01  2.00000000e-11  6.60612882e-01  2.00000000e-11  8.08255516e-01  2.00000000e-11  7.20000000e-02  2.00000000e-11  1.80022452e+00  2.00000000e-11  6.60612882e-01                                 
 4.00000000e-11  7.12654801e-01  4.00000000e-11  6.60533878e-01  4.00000000e-11  8.09824000e-01  4.00000000e-11  1.44000000e-01  4.00000000e-11  1.80021444e+00  4.00000000e-11  6.60533878e-01                                 
 8.00000000e-11  7.12466376e-01  8.00000000e-11  6.60376526e-01  8.00000000e-11  8.11643754e-01  8.00000000e-11  2.88000000e-01  8.00000000e-11  1.80012005e+00  8.00000000e-11  6.60376526e-01                                 
 1.60000000e-10  7.12093270e-01  1.60000000e-10  6.60064447e-01  1.60000000e-10  8.13057566e-01  1.60000000e-10  5.76000000e-01  1.60000000e-10  1.80003541e+00  1.60000000e-10  6.60064447e-01                                 
 3.20000000e-10  7.11361215e-01  3.20000000e-10  6.59450441e-01  3.20000000e-10  8.03644267e-01  3.20000000e-10  1.15200000e+00  3.20000000e-10  1.80021786e+00  3.20000000e-10  6.59450441e-01                                 
 5.00000000e-10  7.10559471e-01  5.00000000e-10  6.58775321e-01  5.00000000e-10  9.08529068e-01  5.00000000e-10  1.80000000e+00  5.00000000e-10  1.36698993e-01  5.00000000e-10  6.58775321e-01                                 
 5.20945396e-10  7.10467791e-01  5.20945396e-10  6.58697930e-01  5.20945396e-10  9.35431123e-01  5.20945396e-10  1.80000000e+00  5.20945396e-10  3.14474546e-02  5.20945396e-10  6.58697930e-01                                 
 5.62836189e-10  7.10285009e-01  5.62836189e-10  6.58543557e-01  5.62836189e-10  9.88225068e-01  5.62836189e-10  1.80000000e+00  5.62836189e-10 -1.24486812e-02  5.62836189e-10  6.58543557e-01                                 
 6.46617774e-10  7.09922930e-01  6.46617774e-10  6.58237342e-01  6.46617774e-10  1.08438428e+00  6.46617774e-10  1.80000000e+00  6.46617774e-10  1.08730276e-02  6.46617774e-10  6.58237342e-01                                 
 7.65893452e-10  7.09415295e-01  7.65893452e-10  6.57807101e-01  7.65893452e-10  1.21081109e+00  7.65893452e-10  1.80000000e+00  7.65893452e-10 -8.37174002e-03  7.65893452e-10  6.57807101e-01                                 
 9.48955511e-10  7.08653391e-01  9.48955511e-10  6.57159354e-01  9.48955511e-10  1.37965318e+00  9.48955511e-10  1.80000000e+00  9.48955511e-10  8.50902039e-03  9.48955511e-10  6.57159354e-01                                 
 1.31507963e-09  7.07187992e-01  1.31507963e-09  6.55906921e-01  1.31507963e-09  1.61525518e+00  1.31507963e-09  1.80000000e+00  1.31507963e-09 -7.37742136e-03  1.31507963e-09  6.55906921e-01                                 
 1.86328746e-09  7.05126237e-01  1.86328746e-09  6.54130373e-01  1.86328746e-09  1.77816517e+00  1.86328746e-09  1.80000000e+00  1.86328746e-09  7.50801704e-03  1.86328746e-09  6.54130373e-01                                 
 2.20517174e-09  7.03914080e-01  2.20517174e-09  6.53077933e-01  2.20517174e-09  1.80909057e+00  2.20517174e-09  1.80000000e+00  2.20517174e-09 -6.96866347e-03  2.20517174e-09  6.53077933e-01                                 
 2.63365115e-09  7.02465517e-01  2.63365115e-09  6.51812928e-01  2.63365115e-09  1.82383466e+00  2.63365115e-09  1.80000000e+00  2.63365115e-09  6.75502913e-03  2.63365115e-09  6.51812928e-01                                 
 3.04430735e-09  7.01144797e-01  3.04430735e-09  6.50652737e-01  3.04430735e-09  1.82717542e+00  3.04430735e-09  1.80000000e+00  3.04430735e-09 -6.41352057e-03  3.04430735e-09  6.50652737e-01                                 
 3.85217550e-09  6.98714943e-01  3.85217550e-09  6.48502283e-01  3.85217550e-09  1.82747689e+00  3.85217550e-09  1.80000000e+00  3.85217550e-09  6.30267891e-03  3.85217550e-09  6.48502283e-01                                 
 4.78685868e-09  6.96147100e-01  4.78685868e-09  6.46207637e-01  4.78685868e-09  1.82463885e+00  4.78685868e-09  1.80000000e+00  4.78685868e-09 -6.15345731e-03  4.78685868e-09  6.46207637e-01                                 
 6.65622503e-09  6.91622459e-01  6.65622503e-09  6.42115201e-01  6.65622503e-09  1.82037440e+00  6.65622503e-09  1.80000000e+00  6.65622503e-09  6.11803173e-03  6.65622503e-09  6.42115201e-01                                 
 9.97257526e-09  6.85040743e-01  9.97257526e-09  6.36061697e-01  9.97257526e-09  1.81335742e+00  9.97257526e-09  1.80000000e+00  9.97257526e-09 -6.05841115e-03  9.97257526e-09  6.36061697e-01                                 
 1.54071241e-08  6.76748362e-01  1.54071241e-08  6.28295271e-01  1.54071241e-08  1.80388794e+00  1.54071241e-08  1.80000000e+00  1.54071241e-08  6.06487420e-03  1.54071241e-08  6.28295271e-01                                 
 1.69308247e-08  6.74824967e-01  1.69308247e-08  6.26473427e-01  1.69308247e-08  1.80133407e+00  1.69308247e-08  1.80000000e+00  1.69308247e-08 -5.96935045e-03  1.69308247e-08  6.26473427e-01                                 
 1.80913468e-08  6.73438623e-01  1.80913468e-08  6.25157469e-01  1.80913468e-08  1.79986122e+00  1.80913468e-08  1.80000000e+00  1.80913468e-08  5.89777227e-03  1.80913468e-08  6.25157469e-01                                 
 1.97428399e-08  6.71565539e-01  1.97428399e-08  6.23376665e-01  1.97428399e-08  1.79722165e+00  1.97428399e-08  1.80000000e+00  1.97428399e-08 -5.81130611e-03  1.97428399e-08  6.23376665e-01                                 
 2.30458261e-08  6.68095062e-01  2.30458261e-08  6.20073812e-01  2.30458261e-08  1.79269200e+00  2.30458261e-08  1.80000000e+00  2.30458261e-08  5.80032473e-03  2.30458261e-08  6.20073812e-01                                 
 2.70717505e-08  6.64180479e-01  2.70717505e-08  6.16361422e-01  2.70717505e-08  1.78607858e+00  2.70717505e-08  1.80000000e+00  2.70717505e-08 -5.75332393e-03  2.70717505e-08  6.16361422e-01                                 
 3.21926878e-08  6.59228977e-01  3.21926878e-08  6.11744646e-01  3.21926878e-08  1.77700551e+00  3.21926878e-08  1.80000000e+00  3.21926878e-08  5.75333015e-03  3.21926878e-08  6.11744646e-01                                 
 3.96924625e-08  6.52722914e-01  3.96924625e-08  6.05703809e-01  3.96924625e-08  1.76227975e+00  3.96924625e-08  1.80000000e+00  3.96924625e-08 -5.71901040e-03  3.96924625e-08  6.05703809e-01                                 
 5.33263046e-08  6.43464785e-01  5.33263046e-08  5.97041083e-01  5.33263046e-08  1.73350753e+00  5.33263046e-08  1.80000000e+00  5.33263046e-08  5.73206322e-03  5.33263046e-08  5.97041083e-01                                 
 7.62567169e-08  6.30899839e-01  7.62567169e-08  5.85396191e-01  7.62567169e-08  1.68980839e+00  7.62567169e-08  1.80000000e+00  7.62567169e-08 -5.70631634e-03  7.62567169e-08  5.85396191e-01                                 
 1.01627208e-07  6.22143011e-01  1.01627208e-07  5.77067196e-01  1.01627208e-07  1.64994202e+00  1.01627208e-07  1.80000000e+00  1.01627208e-07  5.72430815e-03  1.01627208e-07  5.77067196e-01                                 
 1.32035936e-07  6.25367713e-01  1.32035936e-07  5.78275387e-01  1.32035936e-07  1.64728962e+00  1.32035936e-07  1.80000000e+00  1.32035936e-07 -5.69635612e-03  1.32035936e-07  5.78275387e-01                                 
 1.52895170e-07  6.25591510e-01  1.52895170e-07  5.77674670e-01  1.52895170e-07  1.62995230e+00  1.52895170e-07  1.80000000e+00  1.52895170e-07  5.71494020e-03  1.52895170e-07  5.77674670e-01                                 
 1.73015282e-07  6.19080166e-01  1.73015282e-07  5.71863319e-01  1.73015282e-07  1.60273476e+00  1.73015282e-07  1.80000000e+00  1.73015282e-07 -5.68756589e-03  1.73015282e-07  5.71863319e-01                                 
 1.91337294e-07  6.14043045e-01  1.91337294e-07  5.67336089e-01  1.91337294e-07  1.57770105e+00  1.91337294e-07  1.80000000e+00  1.91337294e-07  5.70431616e-03  1.91337294e-07  5.67336089e-01                                 
 2.10958564e-07  6.08817296e-01  2.10958564e-07  5.62676072e-01  2.10958564e-07  1.55382486e+00  2.10958564e-07  1.80000000e+00  2.10958564e-07 -5.67664877e-03  2.10958564e-07  5.62676072e-01                                 
 2.43124059e-07  5.99851651e-01  2.43124059e-07  5.54827241e-01  2.43124059e-07  1.51182044e+00  2.43124059e-07  1.80000000e+00  2.43124059e-07  5.69579674e-03  2.43124059e-07  5.54827241e-01                                 
 2.86043349e-07  5.88554964e-01  2.86043349e-07  5.45056238e-01  2.86043349e-07  1.45899106e+00  2.86043349e-07  1.80000000e+00  2.86043349e-07 -5.67095018e-03  2.86043349e-07  5.45056238e-01                                 
 3.61032272e-07  5.68010539e-01  3.61032272e-07  5.27714852e-01  3.61032272e-07  1.36255155e+00  3.61032272e-07  1.80000000e+00  3.61032272e-07  5.69202589e-03  3.61032272e-07  5.27714852e-01                                 
 5.02893678e-07  5.17184757e-01  5.02893678e-07  4.86299760e-01  5.02893678e-07  1.17054511e+00  5.02893678e-07  1.80000000e+00  5.02893678e-07 -5.66917308e-03  5.02893678e-07  4.86299760e-01                                 
 5.36330419e-07  5.02216480e-01  5.36330419e-07  4.74306235e-01  5.36330419e-07  1.12048779e+00  5.36330419e-07  1.80000000e+00  5.36330419e-07 -1.70992716e-06  5.36330419e-07  4.74306235e-01                                 
 6.03203902e-07  5.02733659e-01  6.03203902e-07  4.74697775e-01  6.03203902e-07  1.05053208e+00  6.03203902e-07  1.80000000e+00  6.03203902e-07  1.03759314e-06  6.03203902e-07  4.74697775e-01                                 
 6.19922272e-07  5.37030659e-01  6.19922272e-07  5.02095180e-01  6.19922272e-07  1.06659234e+00  6.19922272e-07  1.80000000e+00  6.19922272e-07  2.57482303e-06  6.19922272e-07  5.02095180e-01                                 
 6.53359013e-07  7.10833885e-01  6.53359013e-07  6.52900947e-01  6.53359013e-07  1.20047738e+00  6.53359013e-07  1.80000000e+00  6.53359013e-07  1.36066902e-05  6.53359013e-07  6.52900947e-01                                 
 6.95409295e-07  7.89730658e-01  6.95409295e-07  7.34972694e-01  6.95409295e-07  1.23744632e+00  6.95409295e-07  1.80000000e+00  6.95409295e-07 -6.32464039e-06  6.95409295e-07  7.34972694e-01                                 
 7.01252247e-07  7.93676416e-01  7.01252247e-07  7.38699866e-01  7.01252247e-07  1.23345181e+00  7.01252247e-07  1.80000000e+00  7.01252247e-07  8.36624026e-07  7.01252247e-07  7.38699866e-01                                 
 7.12938151e-07  8.01316750e-01  7.12938151e-07  7.45716273e-01  7.12938151e-07  1.22832663e+00  7.12938151e-07  1.80000000e+00  7.12938151e-07  1.11307404e-06  7.12938151e-07  7.45716273e-01                                 
 7.36309959e-07  8.09467653e-01  7.36309959e-07  7.53039539e-01  7.36309959e-07  1.21263931e+00  7.36309959e-07  1.80000000e+00  7.36309959e-07 -3.56167256e-07  7.36309959e-07  7.53039539e-01                                 
 7.83053575e-07  8.17694652e-01  7.83053575e-07  7.60195166e-01  7.83053575e-07  1.17196703e+00  7.83053575e-07  1.80000000e+00  7.83053575e-07  3.57840661e-07  7.83053575e-07  7.60195166e-01                                 
 8.48681896e-07  8.27328760e-01  8.48681896e-07  7.68297392e-01  8.48681896e-07  1.11352846e+00  8.48681896e-07  1.80000000e+00  8.48681896e-07 -4.59397283e-07  8.48681896e-07  7.68297392e-01                                 
 9.09927361e-07  8.13461856e-01  9.09927361e-07  7.56589438e-01  9.09927361e-07  1.03591877e+00  9.09927361e-07  1.80000000e+00  9.09927361e-07 -1.13045606e-06  9.09927361e-07  7.56589438e-01                                 
 9.19652163e-07  8.07447745e-01  9.19652163e-07  7.51294803e-01  9.19652163e-07  1.02019273e+00  9.19652163e-07  1.80000000e+00  9.19652163e-07 -1.56388451e-06  9.19652163e-07  7.51294803e-01                                 
 9.39101768e-07  7.98771368e-01  9.39101768e-07  7.43448162e-01  9.39101768e-07  9.91961131e-01  9.39101768e-07  1.80000000e+00  9.39101768e-07 -8.75509153e-07  9.39101768e-07  7.43448162e-01                                 
 9.78000978e-07  8.00309599e-01  9.78000978e-07  7.44819134e-01  9.78000978e-07  9.56812831e-01  9.78000978e-07  1.80000000e+00  9.78000978e-07  4.93714527e-07  9.78000978e-07  7.44819134e-01                                 
 1.03450903e-06  8.11747231e-01  1.03450903e-06  7.55045086e-01  1.03450903e-06  9.20984336e-01  1.03450903e-06  1.80000000e+00  1.03450903e-06 -9.77405321e-08  1.03450903e-06  7.55045086e-01                                 
 1.09561774e-06  8.08873356e-01  1.09561774e-06  7.52535842e-01  1.09561774e-06  8.74525243e-01  1.09561774e-06  1.80000000e+00  1.09561774e-06 -3.73503203e-07  1.09561774e-06  7.52535842e-01                                 
 1.17934982e-06  8.02413793e-01  1.17934982e-06  7.46738574e-01  1.17934982e-06  8.17880095e-01  1.17934982e-06  1.80000000e+00  1.17934982e-06 -8.93971180e-08  1.17934982e-06  7.46738574e-01                                 
 1.29326976e-06  8.10043384e-01  1.29326976e-06  7.53553703e-01  1.29326976e-06  7.80429007e-01  1.29326976e-06  1.80000000e+00  1.29326976e-06  3.71397688e-07  1.29326976e-06  7.53553703e-01                                 
 1.42779757e-06  8.05821101e-01  1.42779757e-06  7.49813000e-01  1.42779757e-06  7.52557226e-01  1.42779757e-06  1.80000000e+00  1.42779757e-06 -3.08669530e-07  1.42779757e-06  7.49813000e-01                                 
 1.58083507e-06  8.05863374e-01  1.58083507e-06  7.49838548e-01  1.58083507e-06  7.41069047e-01  1.58083507e-06  1.80000000e+00  1.58083507e-06  5.59165927e-07  1.58083507e-06  7.49838548e-01                                 
 1.73299954e-06  8.09391949e-01  1.73299954e-06  7.52983652e-01  1.73299954e-06  7.47737332e-01  1.73299954e-06  1.80000000e+00  1.73299954e-06 -1.55912071e-07  1.73299954e-06  7.52983652e-01                                 
 1.94553044e-06  8.03937785e-01  1.94553044e-06  7.48117402e-01  1.94553044e-06  7.51492929e-01  1.94553044e-06  1.80000000e+00  1.94553044e-06  3.82725761e-07  1.94553044e-06  7.48117402e-01                                 
 2.16311026e-06  8.09622089e-01  2.16311026e-06  7.53181198e-01  2.16311026e-06  7.51460776e-01  2.16311026e-06  1.80000000e+00  2.16311026e-06 -2.14959283e-09  2.16311026e-06  7.53181198e-01                                 
 2.37489573e-06  8.04646777e-01  2.37489573e-06  7.48760388e-01  2.37489573e-06  7.49190155e-01  2.37489573e-06  1.80000000e+00  2.37489573e-06  2.20222508e-07  2.37489573e-06  7.48760388e-01                                 
 2.62067578e-06  8.08359424e-01  2.62067578e-06  7.52059851e-01  2.62067578e-06  7.52476166e-01  2.62067578e-06  1.80000000e+00  2.62067578e-06  1.33175333e-07  2.62067578e-06  7.52059851e-01                                 
 2.98729317e-06  8.05985350e-01  2.98729317e-06  7.49961607e-01  2.98729317e-06  7.49527974e-01  2.98729317e-06  1.80000000e+00  2.98729317e-06  1.40212509e-07  2.98729317e-06  7.49961607e-01                                 
 3.42916522e-06  8.07356650e-01  3.42916522e-06  7.51168161e-01  3.42916522e-06  7.51825705e-01  3.42916522e-06  1.80000000e+00  3.42916522e-06  1.70460532e-07  3.42916522e-06  7.51168161e-01                                 
 3.50709258e-06  8.07537384e-01  3.50709258e-06  7.51336942e-01  3.50709258e-06  7.51428665e-01  3.50709258e-06  1.80000000e+00  3.50709258e-06  1.52029309e-07  3.50709258e-06  7.51336942e-01                                 
 3.66294731e-06  8.06509776e-01  3.66294731e-06  7.50422823e-01  3.66294731e-06  7.50413368e-01  3.66294731e-06  1.80000000e+00  3.66294731e-06  1.21265970e-07  3.66294731e-06  7.50422823e-01                                 
 3.97465677e-06  8.07178483e-01  3.97465677e-06  7.51016701e-01  3.97465677e-06  7.51178642e-01  3.97465677e-06  1.80000000e+00  3.97465677e-06  1.85199508e-07  3.97465677e-06  7.51016701e-01                                 
 4.43180609e-06  8.06763837e-01  4.43180609e-06  7.50649721e-01  4.43180609e-06  7.50654123e-01  4.43180609e-06  1.80000000e+00  4.43180609e-06  1.09460357e-07  4.43180609e-06  7.50649721e-01                                 
 5.34610473e-06  8.07021564e-01  5.34610473e-06  7.50876822e-01  5.34610473e-06  7.51022961e-01  5.34610473e-06  1.80000000e+00  5.34610473e-06  1.89846451e-07  5.34610473e-06  7.50876822e-01                                 
 6.34610473e-06  8.06874564e-01  6.34610473e-06  7.50748676e-01  6.34610473e-06  7.50762722e-01  6.34610473e-06  1.80000000e+00  6.34610473e-06  1.07752911e-07  6.34610473e-06  7.50748676e-01                                 
 7.34610473e-06  8.06916917e-01  7.34610473e-06  7.50783584e-01  7.34610473e-06  7.50918992e-01  7.34610473e-06  1.80000000e+00  7.34610473e-06  1.90635852e-07  7.34610473e-06  7.50783584e-01                                 
 8.34610473e-06  8.06966027e-01  8.34610473e-06  7.50829919e-01  8.34610473e-06  7.50857098e-01  8.34610473e-06  1.80000000e+00  8.34610473e-06  1.07713757e-07  8.34610473e-06  7.50829919e-01                                 
 9.34610473e-06  8.06829579e-01  9.34610473e-06  7.50705784e-01  9.34610473e-06  7.50829102e-01  9.34610473e-06  1.80000000e+00  9.34610473e-06  1.89990344e-07  9.34610473e-06  7.50705784e-01                                 
 1.00005000e-05  8.07069877e-01  1.00005000e-05  7.50922346e-01  1.00005000e-05  7.50964523e-01  1.00005000e-05  1.80000000e+00  1.00005000e-05  1.09562377e-07  1.00005000e-05  7.50922346e-01                                 
 1.00005500e-05  8.07068778e-01  1.00005500e-05  7.50921375e-01  1.00005500e-05  7.44014186e-01  1.00005500e-05  1.62000000e+00  1.00005500e-05 -1.08488343e-04  1.00005500e-05  7.50921375e-01                                 
 1.00006500e-05  8.07066647e-01  1.00006500e-05  7.50919466e-01  1.00006500e-05  7.34287858e-01  1.00006500e-05  1.26000000e+00  1.00006500e-05 -5.38204155e-05  1.00006500e-05  7.50919466e-01                                 
 1.00008500e-05  8.07062474e-01  1.00008500e-05  7.50915731e-01  1.00008500e-05  7.33465390e-01  1.00008500e-05  5.40000000e-01  1.00008500e-05 -1.18025663e-03  1.00008500e-05  7.50915731e-01                                 
 1.00010000e-05  8.07059332e-01  1.00010000e-05  7.50912939e-01  1.00010000e-05  7.42813433e-01  1.00010000e-05  0.00000000e+00  1.00010000e-05  1.49674970e+00  1.00010000e-05  7.50912939e-01                                 
 1.00010266e-05  8.07058792e-01  1.00010266e-05  7.50912451e-01  1.00010266e-05  7.49292132e-01  1.00010266e-05  0.00000000e+00  1.00010266e-05  1.68805981e+00  1.00010266e-05  7.50912451e-01                                 
 1.00010797e-05  8.07057670e-01  1.00010797e-05  7.50911457e-01  1.00010797e-05  7.63415743e-01  1.00010797e-05  0.00000000e+00  1.00010797e-05  1.82454864e+00  1.00010797e-05  7.50911457e-01                                 
 1.00011860e-05  8.07055372e-01  1.00011860e-05  7.50909429e-01  1.00011860e-05  7.81127110e-01  1.00011860e-05  0.00000000e+00  1.00011860e-05  1.78621994e+00  1.00011860e-05  7.50909429e-01                                 
