 time            v(vbep)         time            v(vben)         time            v(vout)         time            v(vphi1)        time            v(vphi2)        time            v(vref)         yes             currtemp       
 0.00000000e+00  8.13032633e-01  0.00000000e+00  7.69519196e-01  0.00000000e+00  9.84773176e-01  0.00000000e+00  0.00000000e+00  0.00000000e+00  1.79991920e+00  0.00000000e+00  7.69519196e-01  1.00000000e+00 -3.50000000e+01 
 5.00000000e-12  8.12989470e-01  5.00000000e-12  7.69484106e-01  5.00000000e-12  9.85501435e-01  5.00000000e-12  1.80000000e-02  5.00000000e-12  1.80004338e+00  5.00000000e-12  7.69484106e-01                                 
 1.00000000e-11  8.12948682e-01  1.00000000e-11  7.69450377e-01  1.00000000e-11  9.86177840e-01  1.00000000e-11  3.60000000e-02  1.00000000e-11  1.80012227e+00  1.00000000e-11  7.69450377e-01                                 
 2.00000000e-11  8.12868861e-01  2.00000000e-11  7.69383340e-01  2.00000000e-11  9.87444982e-01  2.00000000e-11  7.20000000e-02  2.00000000e-11  1.80021766e+00  2.00000000e-11  7.69383340e-01                                 
 4.00000000e-11  8.12712359e-01  4.00000000e-11  7.69250121e-01  4.00000000e-11  9.89602843e-01  4.00000000e-11  1.44000000e-01  4.00000000e-11  1.80023694e+00  4.00000000e-11  7.69250121e-01                                 
 8.00000000e-11  8.12401806e-01  8.00000000e-11  7.68985689e-01  8.00000000e-11  9.92807564e-01  8.00000000e-11  2.88000000e-01  8.00000000e-11  1.80016660e+00  8.00000000e-11  7.68985689e-01                                 
 1.60000000e-10  8.11791600e-01  1.60000000e-10  7.68464849e-01  1.60000000e-10  9.96801361e-01  1.60000000e-10  5.76000000e-01  1.60000000e-10  1.80007900e+00  1.60000000e-10  7.68464849e-01                                 
 3.20000000e-10  8.10611176e-01  3.20000000e-10  7.67453617e-01  3.20000000e-10  9.85914336e-01  3.20000000e-10  1.15200000e+00  3.20000000e-10  1.80021339e+00  3.20000000e-10  7.67453617e-01                                 
 5.00000000e-10  8.09343787e-01  5.00000000e-10  7.66361965e-01  5.00000000e-10  1.04711299e+00  5.00000000e-10  1.80000000e+00  5.00000000e-10  1.07900157e-01  5.00000000e-10  7.66361965e-01                                 
 5.20048386e-10  8.09206821e-01  5.20048386e-10  7.66243606e-01  5.20048386e-10  1.06536755e+00  5.20048386e-10  1.80000000e+00  5.20048386e-10  2.26988483e-02  5.20048386e-10  7.66243606e-01                                 
 5.60145159e-10  8.08934268e-01  5.60145159e-10  7.66007900e-01  5.60145159e-10  1.10196750e+00  5.60145159e-10  1.80000000e+00  5.60145159e-10 -9.66699986e-03  5.60145159e-10  7.66007900e-01                                 
 6.40338703e-10  8.08397566e-01  6.40338703e-10  7.65542970e-01  6.40338703e-10  1.16992953e+00  6.40338703e-10  1.80000000e+00  6.40338703e-10  8.48072710e-03  6.40338703e-10  7.65542970e-01                                 
 7.60671971e-10  8.07612561e-01  7.60671971e-10  7.64861026e-01  7.60671971e-10  1.26626340e+00  7.60671971e-10  1.80000000e+00  7.60671971e-10 -6.91725673e-03  7.60671971e-10  7.64861026e-01                                 
 9.40057380e-10  8.06485005e-01  9.40057380e-10  7.63877575e-01  9.40057380e-10  1.39375852e+00  9.40057380e-10  1.80000000e+00  9.40057380e-10  6.92968407e-03  9.40057380e-10  7.63877575e-01                                 
 1.29882820e-09  8.04367828e-01  1.29882820e-09  7.62018828e-01  1.29882820e-09  1.57884980e+00  1.29882820e-09  1.80000000e+00  1.29882820e-09 -6.17785256e-03  1.29882820e-09  7.62018828e-01                                 
 1.83952567e-09  8.01478101e-01  1.83952567e-09  7.59456472e-01  1.83952567e-09  1.71987677e+00  1.83952567e-09  1.80000000e+00  1.83952567e-09  6.27231845e-03  1.83952567e-09  7.59456472e-01                                 
 2.23208185e-09  7.99577054e-01  2.23208185e-09  7.57754277e-01  2.23208185e-09  1.75638064e+00  2.23208185e-09  1.80000000e+00  2.23208185e-09 -5.91578461e-03  2.23208185e-09  7.57754277e-01                                 
 2.70008047e-09  7.97488940e-01  2.70008047e-09  7.55870565e-01  2.70008047e-09  1.77292708e+00  2.70008047e-09  1.80000000e+00  2.70008047e-09  5.78708543e-03  2.70008047e-09  7.55870565e-01                                 
 3.17164280e-09  7.95554227e-01  3.17164280e-09  7.54112431e-01  3.17164280e-09  1.77697651e+00  3.17164280e-09  1.80000000e+00  3.17164280e-09 -5.56930951e-03  3.17164280e-09  7.54112431e-01                                 
 4.02255888e-09  7.92411942e-01  4.02255888e-09  7.51232858e-01  4.02255888e-09  1.77690679e+00  4.02255888e-09  1.80000000e+00  4.02255888e-09  5.49321717e-03  4.02255888e-09  7.51232858e-01                                 
 5.10358002e-09  7.88943147e-01  5.10358002e-09  7.48020346e-01  5.10358002e-09  1.77334712e+00  5.10358002e-09  1.80000000e+00  5.10358002e-09 -5.39760061e-03  5.10358002e-09  7.48020346e-01                                 
 7.26562231e-09  7.83227025e-01  7.26562231e-09  7.42659808e-01  7.26562231e-09  1.76797120e+00  7.26562231e-09  1.80000000e+00  7.26562231e-09  5.37810344e-03  7.26562231e-09  7.42659808e-01                                 
 1.11217690e-08  7.75588585e-01  1.11217690e-08  7.35379926e-01  1.11217690e-08  1.76043055e+00  1.11217690e-08  1.80000000e+00  1.11217690e-08 -5.33882334e-03  1.11217690e-08  7.35379926e-01                                 
 1.73464909e-08  7.67019599e-01  1.73464909e-08  7.27074966e-01  1.73464909e-08  1.75258839e+00  1.73464909e-08  1.80000000e+00  1.73464909e-08  5.34562965e-03  1.73464909e-08  7.27074966e-01                                 
 2.49999153e-08  7.59774173e-01  2.49999153e-08  7.19953344e-01  2.49999153e-08  1.74588551e+00  2.49999153e-08  1.80000000e+00  2.49999153e-08 -5.31404546e-03  2.49999153e-08  7.19953344e-01                                 
 2.83701364e-08  7.57280336e-01  2.83701364e-08  7.17482020e-01  2.83701364e-08  1.74392861e+00  2.83701364e-08  1.80000000e+00  2.83701364e-08  5.31034485e-03  2.83701364e-08  7.17482020e-01                                 
 3.04991944e-08  7.55852074e-01  3.04991944e-08  7.16062319e-01  3.04991944e-08  1.74252602e+00  3.04991944e-08  1.80000000e+00  3.04991944e-08 -5.25317857e-03  3.04991944e-08  7.16062319e-01                                 
 3.33851189e-08  7.54065188e-01  3.33851189e-08  7.14281762e-01  3.33851189e-08  1.74125054e+00  3.33851189e-08  1.80000000e+00  3.33851189e-08  5.24546291e-03  3.33851189e-08  7.14281762e-01                                 
 3.87547051e-08  7.51111141e-01  3.87547051e-08  7.11327784e-01  3.87547051e-08  1.73867324e+00  3.87547051e-08  1.80000000e+00  3.87547051e-08 -5.21093053e-03  3.87547051e-08  7.11327784e-01                                 
 4.75040737e-08  7.47073406e-01  4.75040737e-08  7.07270232e-01  4.75040737e-08  1.73575788e+00  4.75040737e-08  1.80000000e+00  4.75040737e-08  5.22206860e-03  4.75040737e-08  7.07270232e-01                                 
 5.70874400e-08  7.43421877e-01  5.70874400e-08  7.03586653e-01  5.70874400e-08  1.73274674e+00  5.70874400e-08  1.80000000e+00  5.70874400e-08 -5.19393479e-03  5.70874400e-08  7.03586653e-01                                 
 7.32206944e-08  7.38412399e-01  7.32206944e-08  6.98521685e-01  7.32206944e-08  1.72918798e+00  7.32206944e-08  1.80000000e+00  7.32206944e-08  5.20927168e-03  7.32206944e-08  6.98521685e-01                                 
 8.99500958e-08  7.34271030e-01  8.99500958e-08  6.94321424e-01  8.99500958e-08  1.72625737e+00  8.99500958e-08  1.80000000e+00  8.99500958e-08 -5.18429447e-03  8.99500958e-08  6.94321424e-01                                 
 1.18595573e-07  7.28503083e-01  1.18595573e-07  6.88491045e-01  1.18595573e-07  1.71176097e+00  1.18595573e-07  1.80000000e+00  1.18595573e-07  5.20169774e-03  1.18595573e-07  6.88491045e-01                                 
 1.43132678e-07  7.22996429e-01  1.43132678e-07  6.83262386e-01  1.43132678e-07  1.69392995e+00  1.43132678e-07  1.80000000e+00  1.43132678e-07 -5.17863859e-03  1.43132678e-07  6.83262386e-01                                 
 1.67350706e-07  7.16128589e-01  1.67350706e-07  6.77093997e-01  1.67350706e-07  1.68241709e+00  1.67350706e-07  1.80000000e+00  1.67350706e-07  5.19546320e-03  1.67350706e-07  6.77093997e-01                                 
 1.89602588e-07  7.09109193e-01  1.89602588e-07  6.70955605e-01  1.89602588e-07  1.64664323e+00  1.89602588e-07  1.80000000e+00  1.89602588e-07 -5.17307982e-03  1.89602588e-07  6.70955605e-01                                 
 2.12334394e-07  7.02024264e-01  2.12334394e-07  6.64833284e-01  2.12334394e-07  1.61186362e+00  2.12334394e-07  1.80000000e+00  2.12334394e-07  5.18878633e-03  2.12334394e-07  6.64833284e-01                                 
 2.33042910e-07  6.96805202e-01  2.33042910e-07  6.60296011e-01  2.33042910e-07  1.58141699e+00  2.33042910e-07  1.80000000e+00  2.33042910e-07 -5.16592115e-03  2.33042910e-07  6.60296011e-01                                 
 2.57210027e-07  7.03678110e-01  2.57210027e-07  6.65315383e-01  2.57210027e-07  1.59099753e+00  2.57210027e-07  1.80000000e+00  2.57210027e-07  5.18446849e-03  2.57210027e-07  6.65315383e-01                                 
 2.75644967e-07  7.07757090e-01  2.75644967e-07  6.68223738e-01  2.75644967e-07  1.57833983e+00  2.75644967e-07  1.80000000e+00  2.75644967e-07 -5.15979533e-03  2.75644967e-07  6.68223738e-01                                 
 2.93686244e-07  7.04088211e-01  2.93686244e-07  6.65005201e-01  2.93686244e-07  1.55937301e+00  2.93686244e-07  1.80000000e+00  2.93686244e-07  5.17512856e-03  2.93686244e-07  6.65005201e-01                                 
 3.10103801e-07  7.01925459e-01  3.10103801e-07  6.63026884e-01  3.10103801e-07  1.53943100e+00  3.10103801e-07  1.80000000e+00  3.10103801e-07 -5.15102294e-03  3.10103801e-07  6.63026884e-01                                 
 3.27322023e-07  6.99893921e-01  3.27322023e-07  6.61155233e-01  3.27322023e-07  1.52276031e+00  3.27322023e-07  1.80000000e+00  3.27322023e-07  5.16632318e-03  3.27322023e-07  6.61155233e-01                                 
 3.54998151e-07  6.95911225e-01  3.54998151e-07  6.57607080e-01  3.54998151e-07  1.49016591e+00  3.54998151e-07  1.80000000e+00  3.54998151e-07 -5.14398214e-03  3.54998151e-07  6.57607080e-01                                 
 3.95062538e-07  6.90712424e-01  3.95062538e-07  6.52978833e-01  3.95062538e-07  1.44828839e+00  3.95062538e-07  1.80000000e+00  3.95062538e-07  5.16180664e-03  3.95062538e-07  6.52978833e-01                                 
 4.58399788e-07  6.82551058e-01  4.58399788e-07  6.45824136e-01  4.58399788e-07  1.37687080e+00  4.58399788e-07  1.80000000e+00  4.58399788e-07 -5.14099317e-03  4.58399788e-07  6.45824136e-01                                 
 5.85074287e-07  6.67363791e-01  5.85074287e-07  6.32737241e-01  5.85074287e-07  1.24007980e+00  5.85074287e-07  1.80000000e+00  5.85074287e-07  5.16004422e-03  5.85074287e-07  6.32737241e-01                                 
 8.33698227e-07  6.35884607e-01  8.33698227e-07  6.06524024e-01  8.33698227e-07  9.38036923e-01  8.33698227e-07  1.80000000e+00  8.33698227e-07 -5.14031295e-03  8.33698227e-07  6.06524024e-01                                 
 1.14552210e-06  6.03260950e-01  1.14552210e-06  5.79891275e-01  1.14552210e-06  7.27515697e-01  1.14552210e-06  1.80000000e+00  1.14552210e-06  5.16019473e-03  1.14552210e-06  5.79891275e-01                                 
 1.18422354e-06  5.99122697e-01  1.18422354e-06  5.76548993e-01  1.18422354e-06  7.07701530e-01  1.18422354e-06  1.80000000e+00  1.18422354e-06  2.74224765e-07  1.18422354e-06  5.76548993e-01                                 
 1.26162642e-06  5.90853144e-01  1.26162642e-06  5.69876534e-01  1.26162642e-06  6.71644368e-01  1.26162642e-06  1.80000000e+00  1.26162642e-06 -6.21897737e-07  1.26162642e-06  5.69876534e-01                                 
 1.41643219e-06  5.78802470e-01  1.41643219e-06  5.60153749e-01  1.41643219e-06  6.14339456e-01  1.41643219e-06  1.80000000e+00  1.41643219e-06  3.68587033e-07  1.41643219e-06  5.60153749e-01                                 
 1.45513363e-06  5.78488085e-01  1.45513363e-06  5.59888408e-01  1.45513363e-06  6.04575473e-01  1.45513363e-06  1.80000000e+00  1.45513363e-06 -4.72064699e-08  1.45513363e-06  5.59888408e-01                                 
 1.53253652e-06  5.84721994e-01  1.53253652e-06  5.64854096e-01  1.53253652e-06  5.94969208e-01  1.53253652e-06  1.80000000e+00  1.53253652e-06  1.38554699e-07  1.53253652e-06  5.64854096e-01                                 
 1.55188724e-06  5.89825247e-01  1.55188724e-06  5.68933675e-01  1.55188724e-06  5.97081023e-01  1.55188724e-06  1.80000000e+00  1.55188724e-06  2.31837438e-07  1.55188724e-06  5.68933675e-01                                 
 1.59058868e-06  6.05730758e-01  1.59058868e-06  5.81654498e-01  1.59058868e-06  6.07040575e-01  1.59058868e-06  1.80000000e+00  1.59058868e-06  5.22767650e-07  1.59058868e-06  5.81654498e-01                                 
 1.64967766e-06  7.05004573e-01  1.64967766e-06  6.61236072e-01  1.64967766e-06  6.91021810e-01  1.64967766e-06  1.80000000e+00  1.64967766e-06  2.85923869e-06  1.64967766e-06  6.61236072e-01                                 
 1.70820709e-06  8.42766545e-01  1.70820709e-06  7.97633981e-01  1.70820709e-06  7.98831949e-01  1.70820709e-06  1.80000000e+00  1.70820709e-06  3.55936987e-06  1.70820709e-06  7.97633981e-01                                 
 1.71789318e-06  8.55080977e-01  1.71789318e-06  8.10020788e-01  1.71789318e-06  8.05182668e-01  1.71789318e-06  1.80000000e+00  1.71789318e-06  1.90989037e-06  1.71789318e-06  8.10020788e-01                                 
 1.73726534e-06  8.78420409e-01  1.73726534e-06  8.31778794e-01  1.73726534e-06  8.15130605e-01  1.73726534e-06  1.80000000e+00  1.73726534e-06  1.53197604e-06  1.73726534e-06  8.31778794e-01                                 
 1.76298902e-06  9.12619060e-01  1.76298902e-06  8.59830495e-01  1.76298902e-06  8.25136492e-01  1.76298902e-06  1.80000000e+00  1.76298902e-06  1.90016918e-06  1.76298902e-06  8.59830495e-01                                 
 1.78967129e-06  9.51442673e-01  1.78967129e-06  8.85379850e-01  1.78967129e-06  8.34069219e-01  1.78967129e-06  1.80000000e+00  1.78967129e-06  1.33016697e-06  1.78967129e-06  8.85379850e-01                                 
 1.81165994e-06  9.61748603e-01  1.81165994e-06  8.91483279e-01  1.81165994e-06  8.70127674e-01  1.81165994e-06  1.80000000e+00  1.81165994e-06  1.42400912e-06  1.81165994e-06  8.91483279e-01                                 
 1.83776591e-06  9.56302393e-01  1.83776591e-06  8.88411377e-01  1.83776591e-06  8.76036161e-01  1.83776591e-06  1.80000000e+00  1.83776591e-06 -1.57158573e-06  1.83776591e-06  8.88411377e-01                                 
 1.86072522e-06  9.58333123e-01  1.86072522e-06  8.89503955e-01  1.86072522e-06  8.59282195e-01  1.86072522e-06  1.80000000e+00  1.86072522e-06  8.64246829e-07  1.86072522e-06  8.89503955e-01                                 
 1.88650366e-06  9.57444039e-01  1.88650366e-06  8.89087982e-01  1.88650366e-06  8.77146050e-01  1.88650366e-06  1.80000000e+00  1.88650366e-06 -1.30006024e-07  1.88650366e-06  8.89087982e-01                                 
 1.92526796e-06  9.57117813e-01  1.92526796e-06  8.88818563e-01  1.92526796e-06  8.65656981e-01  1.92526796e-06  1.80000000e+00  1.92526796e-06 -2.51878962e-07  1.92526796e-06  8.88818563e-01                                 
 1.97232000e-06  9.56905717e-01  1.97232000e-06  8.88780479e-01  1.97232000e-06  8.75452210e-01  1.97232000e-06  1.80000000e+00  1.97232000e-06  4.82067931e-07  1.97232000e-06  8.88780479e-01                                 
 2.04167458e-06  9.55949424e-01  2.04167458e-06  8.88163389e-01  2.04167458e-06  8.71264667e-01  2.04167458e-06  1.80000000e+00  2.04167458e-06 -5.91498147e-07  2.04167458e-06  8.88163389e-01                                 
 2.14963632e-06  9.55232864e-01  2.14963632e-06  8.87829751e-01  2.14963632e-06  8.77246405e-01  2.14963632e-06  1.80000000e+00  2.14963632e-06  6.42762785e-07  2.14963632e-06  8.87829751e-01                                 
 2.32406551e-06  9.53163997e-01  2.32406551e-06  8.86571365e-01  2.32406551e-06  8.76104379e-01  2.32406551e-06  1.80000000e+00  2.32406551e-06 -6.74971343e-07  2.32406551e-06  8.86571365e-01                                 
 2.63767624e-06  9.50219160e-01  2.63767624e-06  8.84930899e-01  2.63767624e-06  8.79891289e-01  2.63767624e-06  1.80000000e+00  2.63767624e-06  6.76909947e-07  2.63767624e-06  8.84930899e-01                                 
 3.11814730e-06  9.44059459e-01  3.11814730e-06  8.81162247e-01  3.11814730e-06  8.76356147e-01  3.11814730e-06  1.80000000e+00  3.11814730e-06 -7.02463436e-07  3.11814730e-06  8.81162247e-01                                 
 3.84750380e-06  9.29431780e-01  3.84750380e-06  8.71904219e-01  3.84750380e-06  8.69137143e-01  3.84750380e-06  1.80000000e+00  3.84750380e-06  6.63442249e-07  3.84750380e-06  8.71904219e-01                                 
 3.97250380e-06  9.24857440e-01  3.97250380e-06  8.68742480e-01  3.97250380e-06  8.65424557e-01  3.97250380e-06  1.80000000e+00  3.97250380e-06 -4.80738934e-08  3.97250380e-06  8.68742480e-01                                 
 4.22250380e-06  9.13252170e-01  4.22250380e-06  8.60442070e-01  4.22250380e-06  8.56903028e-01  4.22250380e-06  1.80000000e+00  4.22250380e-06 -7.19586903e-08  4.22250380e-06  8.60442070e-01                                 
 4.72250380e-06  8.83785822e-01  4.72250380e-06  8.36587566e-01  4.72250380e-06  8.34704089e-01  4.72250380e-06  1.80000000e+00  4.72250380e-06 -9.20411051e-08  4.72250380e-06  8.36587566e-01                                 
 5.19433606e-06  8.72346239e-01  5.19433606e-06  8.26342616e-01  5.19433606e-06  8.26181901e-01  5.19433606e-06  1.80000000e+00  5.19433606e-06  2.76868011e-08  5.19433606e-06  8.26342616e-01                                 
 5.76418005e-06  8.74628822e-01  5.76418005e-06  8.28424882e-01  5.76418005e-06  8.28279878e-01  5.76418005e-06  1.80000000e+00  5.76418005e-06 -5.01059530e-09  5.76418005e-06  8.28424882e-01                                 
 6.37228492e-06  8.73592372e-01  6.37228492e-06  8.27480472e-01  6.37228492e-06  8.27289044e-01  6.37228492e-06  1.80000000e+00  6.37228492e-06  9.51502728e-09  6.37228492e-06  8.27480472e-01                                 
 7.26211272e-06  8.74090526e-01  7.26211272e-06  8.27935799e-01  7.26211272e-06  8.27793536e-01  7.26211272e-06  1.80000000e+00  7.26211272e-06  2.27073924e-09  7.26211272e-06  8.27935799e-01                                 
 8.26211272e-06  8.73792248e-01  8.26211272e-06  8.27662596e-01  8.26211272e-06  8.27473275e-01  8.26211272e-06  1.80000000e+00  8.26211272e-06  6.70370373e-09  8.26211272e-06  8.27662596e-01                                 
 9.26211272e-06  8.73980420e-01  9.26211272e-06  8.27835631e-01  9.26211272e-06  8.27691417e-01  9.26211272e-06  1.80000000e+00  9.26211272e-06  3.90011818e-09  9.26211272e-06  8.27835631e-01                                 
 1.00005000e-05  8.73861758e-01  1.00005000e-05  8.27726012e-01  1.00005000e-05  8.27538239e-01  1.00005000e-05  1.80000000e+00  1.00005000e-05  5.49482693e-09  1.00005000e-05  8.27726012e-01                                 
 1.00005500e-05  8.73862110e-01  1.00005500e-05  8.27726417e-01  1.00005500e-05  8.21082064e-01  1.00005500e-05  1.62000000e+00  1.00005500e-05 -8.22200917e-05  1.00005500e-05  8.27726417e-01                                 
 1.00006500e-05  8.73863059e-01  1.00006500e-05  8.27727303e-01  1.00006500e-05  8.13172500e-01  1.00006500e-05  1.26000000e+00  1.00006500e-05 -2.45485331e-05  1.00006500e-05  8.27727303e-01                                 
