 time            v(vbep)         time            v(vben)         time            v(vout)         time            v(vphi1)        time            v(vphi2)        time            v(vref)         yes             currtemp       
 0.00000000e+00  7.77986358e-01  0.00000000e+00  7.24110474e-01  0.00000000e+00  1.00766233e+00  0.00000000e+00  0.00000000e+00  0.00000000e+00  1.79939355e+00  0.00000000e+00  5.00000000e-01  1.00000000e+00  1.50000000e+01 
 5.00000000e-12  7.77696518e-01  5.00000000e-12  7.23936741e-01  5.00000000e-12  1.00838796e+00  5.00000000e-12  1.80000000e-02  5.00000000e-12  1.79962651e+00  5.00000000e-12  5.00000000e-01                                 
 1.00000000e-11  7.77464590e-01  1.00000000e-11  7.23796530e-01  1.00000000e-11  1.00904224e+00  1.00000000e-11  3.60000000e-02  1.00000000e-11  1.79978561e+00  1.00000000e-11  5.00000000e-01                                 
 2.00000000e-11  7.77067534e-01  2.00000000e-11  7.23528549e-01  2.00000000e-11  1.01023845e+00  2.00000000e-11  7.20000000e-02  2.00000000e-11  1.80000291e+00  2.00000000e-11  5.00000000e-01                                 
 4.00000000e-11  7.76447958e-01  4.00000000e-11  7.23008141e-01  4.00000000e-11  1.01211155e+00  4.00000000e-11  1.44000000e-01  4.00000000e-11  1.80011790e+00  4.00000000e-11  5.00000000e-01                                 
 8.00000000e-11  7.75306303e-01  8.00000000e-11  7.21978486e-01  8.00000000e-11  1.01449814e+00  8.00000000e-11  2.88000000e-01  8.00000000e-11  1.80006809e+00  8.00000000e-11  5.00000000e-01                                 
 1.60000000e-10  7.73081241e-01  1.60000000e-10  7.19972831e-01  1.60000000e-10  1.01657019e+00  1.60000000e-10  5.76000000e-01  1.60000000e-10  1.80000905e+00  1.60000000e-10  5.00000000e-01                                 
 3.20000000e-10  7.68851631e-01  3.20000000e-10  7.16155753e-01  3.20000000e-10  1.00892428e+00  3.20000000e-10  1.15200000e+00  3.20000000e-10  1.80037434e+00  3.20000000e-10  5.00000000e-01                                 
 5.00000000e-10  7.64441147e-01  5.00000000e-10  7.12169029e-01  5.00000000e-10  1.19272847e+00  5.00000000e-10  1.80000000e+00  5.00000000e-10  1.06717396e-01  5.00000000e-10  5.00000000e-01                                 
 5.21078367e-10  7.63952888e-01  5.21078367e-10  7.11727006e-01  5.21078367e-10  1.23436503e+00  5.21078367e-10  1.80000000e+00  5.21078367e-10  2.00168763e-02  5.21078367e-10  5.00000000e-01                                 
 5.63235102e-10  7.62983365e-01  5.63235102e-10  7.10848208e-01  5.63235102e-10  1.31053549e+00  5.63235102e-10  1.80000000e+00  5.63235102e-10 -9.40557448e-03  5.63235102e-10  5.00000000e-01                                 
 6.47548571e-10  7.61095825e-01  6.47548571e-10  7.09136948e-01  6.47548571e-10  1.43620788e+00  6.47548571e-10  1.80000000e+00  6.47548571e-10  8.02690871e-03  6.47548571e-10  5.00000000e-01                                 
 7.70033443e-10  7.58475657e-01  7.70033443e-10  7.06757640e-01  7.70033443e-10  1.58225500e+00  7.70033443e-10  1.80000000e+00  7.70033443e-10 -7.02717872e-03  7.70033443e-10  5.00000000e-01                                 
 9.59736060e-10  7.54679841e-01  9.59736060e-10  7.03303031e-01  9.59736060e-10  1.74863214e+00  9.59736060e-10  1.80000000e+00  9.59736060e-10  6.65250717e-03  9.59736060e-10  5.00000000e-01                                 
 1.33914129e-09  7.47911762e-01  1.33914129e-09  6.97117333e-01  1.33914129e-09  1.93506570e+00  1.33914129e-09  1.80000000e+00  1.33914129e-09 -6.30114795e-03  1.33914129e-09  5.00000000e-01                                 
 1.60816519e-09  7.43730974e-01  1.60816519e-09  6.93272145e-01  1.60816519e-09  1.98957137e+00  1.60816519e-09  1.80000000e+00  1.60816519e-09  6.08243945e-03  1.60816519e-09  5.00000000e-01                                 
 1.91128521e-09  7.39509349e-01  1.91128521e-09  6.89368362e-01  1.91128521e-09  2.01618890e+00  1.91128521e-09  1.80000000e+00  1.91128521e-09 -5.74537889e-03  1.91128521e-09  5.00000000e-01                                 
 2.23177126e-09  7.35518248e-01  2.23177126e-09  6.85659418e-01  2.23177126e-09  2.02574127e+00  2.23177126e-09  1.80000000e+00  2.23177126e-09  5.56157880e-03  2.23177126e-09  5.00000000e-01                                 
 2.73134493e-09  7.30070178e-01  2.73134493e-09  6.80564750e-01  2.73134493e-09  2.02720171e+00  2.73134493e-09  1.80000000e+00  2.73134493e-09 -5.37037370e-03  2.73134493e-09  5.00000000e-01                                 
 3.34634754e-09  7.24387649e-01  3.34634754e-09  6.75211638e-01  3.34634754e-09  2.02287313e+00  3.34634754e-09  1.80000000e+00  3.34634754e-09  5.28962895e-03  3.34634754e-09  5.00000000e-01                                 
 4.39843581e-09  7.16491536e-01  4.39843581e-09  6.67708035e-01  4.39843581e-09  2.01504871e+00  4.39843581e-09  1.80000000e+00  4.39843581e-09 -5.19254734e-03  4.39843581e-09  5.00000000e-01                                 
 6.00299026e-09  7.07356767e-01  6.00299026e-09  6.58935865e-01  6.00299026e-09  2.00601659e+00  6.00299026e-09  1.80000000e+00  6.00299026e-09  5.18031166e-03  6.00299026e-09  5.00000000e-01                                 
 9.21209915e-09  6.94642448e-01  9.21209915e-09  6.46587030e-01  9.21209915e-09  1.99376467e+00  9.21209915e-09  1.80000000e+00  9.21209915e-09 -5.12182793e-03  9.21209915e-09  5.00000000e-01                                 
 1.06419941e-08  6.90550980e-01  1.06419941e-08  6.42575125e-01  1.06419941e-08  1.98986181e+00  1.06419941e-08  1.80000000e+00  1.06419941e-08  5.10318859e-03  1.06419941e-08  5.00000000e-01                                 
 1.25210682e-08  6.85954477e-01  1.25210682e-08  6.38053374e-01  1.25210682e-08  1.98547990e+00  1.25210682e-08  1.80000000e+00  1.25210682e-08 -5.04259397e-03  1.25210682e-08  5.00000000e-01                                 
 1.45245262e-08  6.81782230e-01  1.45245262e-08  6.33937209e-01  1.45245262e-08  1.98154964e+00  1.45245262e-08  1.80000000e+00  1.45245262e-08  5.03156923e-03  1.45245262e-08  5.00000000e-01                                 
 1.82026455e-08  6.75446347e-01  1.82026455e-08  6.27667810e-01  1.82026455e-08  1.97554971e+00  1.82026455e-08  1.80000000e+00  1.82026455e-08 -4.99214594e-03  1.82026455e-08  5.00000000e-01                                 
 2.17478823e-08  6.70508335e-01  2.17478823e-08  6.22767117e-01  2.17478823e-08  1.97092482e+00  2.17478823e-08  1.80000000e+00  2.17478823e-08  4.99434441e-03  2.17478823e-08  5.00000000e-01                                 
 2.88383561e-08  6.62679564e-01  2.88383561e-08  6.14976847e-01  2.88383561e-08  1.96355162e+00  2.88383561e-08  1.80000000e+00  2.88383561e-08 -4.96392246e-03  2.88383561e-08  5.00000000e-01                                 
 3.69225212e-08  6.55918253e-01  3.69225212e-08  6.08230100e-01  3.69225212e-08  1.95723318e+00  3.69225212e-08  1.80000000e+00  3.69225212e-08  4.97706333e-03  3.69225212e-08  5.00000000e-01                                 
 5.30908514e-08  6.45966904e-01  5.30908514e-08  5.98276209e-01  5.30908514e-08  1.94788875e+00  5.30908514e-08  1.80000000e+00  5.30908514e-08 -4.95149925e-03  5.30908514e-08  5.00000000e-01                                 
 7.87932606e-08  6.35255018e-01  7.87932606e-08  5.87534025e-01  7.87932606e-08  1.93786386e+00  7.87932606e-08  1.80000000e+00  7.87932606e-08  4.97062530e-03  7.87932606e-08  5.00000000e-01                                 
 1.21207629e-07  6.24180839e-01  1.21207629e-07  5.76291786e-01  1.21207629e-07  1.92890540e+00  1.21207629e-07  1.80000000e+00  1.21207629e-07 -4.94739744e-03  1.21207629e-07  5.00000000e-01                                 
 1.65125267e-07  6.17181575e-01  1.65125267e-07  5.69000312e-01  1.65125267e-07  1.92544588e+00  1.65125267e-07  1.80000000e+00  1.65125267e-07  4.96768876e-03  1.65125267e-07  5.00000000e-01                                 
 2.05604706e-07  6.11988909e-01  2.05604706e-07  5.63654499e-01  2.05604706e-07  1.91486144e+00  2.05604706e-07  1.80000000e+00  2.05604706e-07 -4.94428771e-03  2.05604706e-07  5.00000000e-01                                 
 2.40340299e-07  6.05407504e-01  2.40340299e-07  5.57563587e-01  2.40340299e-07  1.89226620e+00  2.40340299e-07  1.80000000e+00  2.40340299e-07  4.96413516e-03  2.40340299e-07  5.00000000e-01                                 
 2.67909047e-07  5.94986794e-01  2.67909047e-07  5.48704578e-01  2.67909047e-07  1.86141929e+00  2.67909047e-07  1.80000000e+00  2.67909047e-07 -4.94024776e-03  2.67909047e-07  5.00000000e-01                                 
 2.96590304e-07  5.86488161e-01  2.96590304e-07  5.41422464e-01  2.96590304e-07  1.82102478e+00  2.96590304e-07  1.80000000e+00  2.96590304e-07  4.95955855e-03  2.96590304e-07  5.00000000e-01                                 
 3.18865939e-07  5.81671280e-01  3.18865939e-07  5.37228442e-01  3.18865939e-07  1.78812505e+00  3.18865939e-07  1.80000000e+00  3.18865939e-07 -4.93502158e-03  3.18865939e-07  5.00000000e-01                                 
 3.41940300e-07  5.88283590e-01  3.41940300e-07  5.42095538e-01  3.41940300e-07  1.79633704e+00  3.41940300e-07  1.80000000e+00  3.41940300e-07  4.95428879e-03  3.41940300e-07  5.00000000e-01                                 
 3.60863415e-07  5.90887645e-01  3.60863415e-07  5.43854586e-01  3.60863415e-07  1.78188218e+00  3.60863415e-07  1.80000000e+00  3.60863415e-07 -4.92906536e-03  3.60863415e-07  5.00000000e-01                                 
 3.80904160e-07  5.84521029e-01  3.80904160e-07  5.38502307e-01  3.80904160e-07  1.75529837e+00  3.80904160e-07  1.80000000e+00  3.80904160e-07  4.94730565e-03  3.80904160e-07  5.00000000e-01                                 
 3.97465091e-07  5.81312210e-01  3.97465091e-07  5.35723052e-01  3.97465091e-07  1.73661533e+00  3.97465091e-07  1.80000000e+00  3.97465091e-07 -4.92193400e-03  3.97465091e-07  5.00000000e-01                                 
 4.15320975e-07  5.77813883e-01  4.15320975e-07  5.32710506e-01  4.15320975e-07  1.71655701e+00  4.15320975e-07  1.80000000e+00  4.15320975e-07  4.93979580e-03  4.15320975e-07  5.00000000e-01                                 
 4.46590833e-07  5.70934851e-01  4.46590833e-07  5.26873590e-01  4.46590833e-07  1.67956655e+00  4.46590833e-07  1.80000000e+00  4.46590833e-07 -4.91624405e-03  4.46590833e-07  5.00000000e-01                                 
 4.92002767e-07  5.60557384e-01  4.92002767e-07  5.18166813e-01  4.92002767e-07  1.62463842e+00  4.92002767e-07  1.80000000e+00  4.92002767e-07  4.93630460e-03  4.92002767e-07  5.00000000e-01                                 
 5.64781258e-07  5.46487858e-01  5.64781258e-07  5.06399681e-01  5.64781258e-07  1.54068299e+00  5.64781258e-07  1.80000000e+00  5.64781258e-07 -4.91402930e-03  5.64781258e-07  5.00000000e-01                                 
 6.42536519e-07  5.20378387e-01  6.42536519e-07  4.85216012e-01  6.42536519e-07  1.43477590e+00  6.42536519e-07  1.80000000e+00  6.42536519e-07  4.93448509e-03  6.42536519e-07  5.00000000e-01                                 
 7.22304048e-07  4.90833690e-01  7.22304048e-07  4.61451264e-01  7.22304048e-07  1.32489879e+00  7.22304048e-07  1.80000000e+00  7.22304048e-07 -4.91244017e-03  7.22304048e-07  5.00000000e-01                                 
 8.18922423e-07  4.92628952e-01  8.18922423e-07  4.62881040e-01  8.18922423e-07  1.22494221e+00  8.18922423e-07  1.80000000e+00  8.18922423e-07  4.93332946e-03  8.18922423e-07  5.00000000e-01                                 
 9.23321321e-07  7.75443814e-01  9.23321321e-07  7.20446090e-01  9.23321321e-07  1.38683791e+00  9.23321321e-07  1.80000000e+00  9.23321321e-07 -4.90843762e-03  9.23321321e-07  5.00000000e-01                                 
 1.01221966e-06  8.26831446e-01  1.01221966e-06  7.66427693e-01  1.01221966e-06  1.34509516e+00  1.01221966e-06  1.80000000e+00  1.01221966e-06  4.93015014e-03  1.01221966e-06  5.00000000e-01                                 
 1.02274265e-06  8.26929833e-01  1.02274265e-06  7.66500927e-01  1.02274265e-06  1.33325221e+00  1.02274265e-06  1.80000000e+00  1.02274265e-06  1.61258169e-06  1.02274265e-06  5.00000000e-01                                 
 1.04378865e-06  8.27012048e-01  1.04378865e-06  7.66565355e-01  1.04378865e-06  1.31137992e+00  1.04378865e-06  1.80000000e+00  1.04378865e-06 -1.34614990e-06  1.04378865e-06  5.00000000e-01                                 
 1.08057694e-06  8.22867273e-01  1.08057694e-06  7.63202184e-01  1.08057694e-06  1.26945754e+00  1.08057694e-06  1.80000000e+00  1.08057694e-06  1.61514496e-06  1.08057694e-06  5.00000000e-01                                 
 1.11883217e-06  7.98933185e-01  1.11883217e-06  7.42594950e-01  1.11883217e-06  1.20718549e+00  1.11883217e-06  1.80000000e+00  1.11883217e-06 -2.04661184e-06  1.11883217e-06  5.00000000e-01                                 
 1.16332345e-06  7.82634281e-01  1.16332345e-06  7.27504056e-01  1.16332345e-06  1.14437323e+00  1.16332345e-06  1.80000000e+00  1.16332345e-06  1.92028097e-06  1.16332345e-06  5.00000000e-01                                 
 1.20758649e-06  8.02142271e-01  1.20758649e-06  7.45383853e-01  1.20758649e-06  1.11599244e+00  1.20758649e-06  1.80000000e+00  1.20758649e-06 -1.01050955e-06  1.20758649e-06  5.00000000e-01                                 
 1.26758140e-06  8.10558352e-01  1.26758140e-06  7.52793246e-01  1.26758140e-06  1.06089760e+00  1.26758140e-06  1.80000000e+00  1.26758140e-06  1.59899068e-06  1.26758140e-06  5.00000000e-01                                 
 1.32361885e-06  8.01823471e-01  1.32361885e-06  7.45136876e-01  1.32361885e-06  9.93699923e-01  1.32361885e-06  1.80000000e+00  1.32361885e-06 -1.44452423e-06  1.32361885e-06  5.00000000e-01                                 
 1.40155649e-06  7.96354856e-01  1.40155649e-06  7.40193774e-01  1.40155649e-06  9.20917282e-01  1.40155649e-06  1.80000000e+00  1.40155649e-06  1.73268250e-06  1.40155649e-06  5.00000000e-01                                 
 1.48658862e-06  8.08069005e-01  1.48658862e-06  7.50626946e-01  1.48658862e-06  8.69002248e-01  1.48658862e-06  1.80000000e+00  1.48658862e-06 -1.18926362e-06  1.48658862e-06  5.00000000e-01                                 
 1.58606495e-06  8.01116190e-01  1.58606495e-06  7.44503153e-01  1.58606495e-06  8.01179262e-01  1.58606495e-06  1.80000000e+00  1.58606495e-06  1.48825826e-06  1.58606495e-06  5.00000000e-01                                 
 1.69405884e-06  7.99339127e-01  1.69405884e-06  7.42882541e-01  1.69405884e-06  7.41373829e-01  1.69405884e-06  1.80000000e+00  1.69405884e-06 -1.15080244e-06  1.69405884e-06  5.00000000e-01                                 
 1.83529440e-06  8.06920651e-01  1.83529440e-06  7.49629654e-01  1.83529440e-06  6.78327868e-01  1.83529440e-06  1.80000000e+00  1.83529440e-06  1.60086246e-06  1.83529440e-06  5.00000000e-01                                 
 2.00038258e-06  7.98206857e-01  2.00038258e-06  7.41876099e-01  2.00038258e-06  5.95617419e-01  2.00038258e-06  1.80000000e+00  2.00038258e-06 -1.30237778e-06  2.00038258e-06  5.00000000e-01                                 
 2.20563237e-06  8.05267122e-01  2.20563237e-06  7.48167315e-01  2.20563237e-06  5.32708995e-01  2.20563237e-06  1.80000000e+00  2.20563237e-06  1.72264586e-06  2.20563237e-06  5.00000000e-01                                 
 2.41830688e-06  8.01137854e-01  2.41830688e-06  7.44514916e-01  2.41830688e-06  4.97743014e-01  2.41830688e-06  1.80000000e+00  2.41830688e-06 -1.37540839e-06  2.41830688e-06  5.00000000e-01                                 
 2.45379575e-06  8.00769050e-01  2.45379575e-06  7.44178644e-01  2.45379575e-06  4.96479317e-01  2.45379575e-06  1.80000000e+00  2.45379575e-06  1.80249381e-07  2.45379575e-06  5.00000000e-01                                 
 2.52477351e-06  8.02674349e-01  2.52477351e-06  7.45874084e-01  2.52477351e-06  4.96364955e-01  2.52477351e-06  1.80000000e+00  2.52477351e-06  2.25074545e-07  2.52477351e-06  5.00000000e-01                                 
 2.66672902e-06  8.03224570e-01  2.66672902e-06  7.46369297e-01  2.66672902e-06  4.93500174e-01  2.66672902e-06  1.80000000e+00  2.66672902e-06  1.52386348e-07  2.66672902e-06  5.00000000e-01                                 
 2.82859711e-06  8.01445234e-01  2.82859711e-06  7.44780701e-01  2.82859711e-06  4.92216467e-01  2.82859711e-06  1.80000000e+00  2.82859711e-06  2.04341252e-07  2.82859711e-06  5.00000000e-01                                 
 3.04557061e-06  8.03650198e-01  3.04557061e-06  7.46744386e-01  3.04557061e-06  5.03773651e-01  3.04557061e-06  1.80000000e+00  3.04557061e-06  1.80827643e-07  3.04557061e-06  5.00000000e-01                                 
 3.31569193e-06  8.01509032e-01  3.31569193e-06  7.44839756e-01  3.31569193e-06  5.00080327e-01  3.31569193e-06  1.80000000e+00  3.31569193e-06  1.78706319e-07  3.31569193e-06  5.00000000e-01                                 
 3.35398136e-06  8.02097784e-01  3.35398136e-06  7.45363538e-01  3.35398136e-06  4.98869458e-01  3.35398136e-06  1.80000000e+00  3.35398136e-06  1.95797217e-07  3.35398136e-06  5.00000000e-01                                 
 3.43056023e-06  8.02928289e-01  3.43056023e-06  7.46102862e-01  3.43056023e-06  4.98267085e-01  3.43056023e-06  1.80000000e+00  3.43056023e-06  1.91600796e-07  3.43056023e-06  5.00000000e-01                                 
 3.58371796e-06  8.02349760e-01  3.58371796e-06  7.45589591e-01  3.58371796e-06  5.00231542e-01  3.58371796e-06  1.80000000e+00  3.58371796e-06  1.75140385e-07  3.58371796e-06  5.00000000e-01                                 
 3.89003343e-06  8.02602545e-01  3.89003343e-06  7.45812793e-01  3.89003343e-06  5.00624351e-01  3.89003343e-06  1.80000000e+00  3.89003343e-06  1.96523640e-07  3.89003343e-06  5.00000000e-01                                 
 4.17885666e-06  8.02590458e-01  4.17885666e-06  7.45803842e-01  4.17885666e-06  4.99569991e-01  4.17885666e-06  1.80000000e+00  4.17885666e-06  1.75090898e-07  4.17885666e-06  5.00000000e-01                                 
 4.75650311e-06  8.02428122e-01  4.75650311e-06  7.45657651e-01  4.75650311e-06  5.00630687e-01  4.75650311e-06  1.80000000e+00  4.75650311e-06  1.95490317e-07  4.75650311e-06  5.00000000e-01                                 
 5.62270674e-06  8.02677762e-01  5.62270674e-06  7.45881410e-01  5.62270674e-06  4.99760078e-01  5.62270674e-06  1.80000000e+00  5.62270674e-06  1.76148362e-07  5.62270674e-06  5.00000000e-01                                 
 6.62270674e-06  8.02368397e-01  6.62270674e-06  7.45604568e-01  6.62270674e-06  5.00451728e-01  6.62270674e-06  1.80000000e+00  6.62270674e-06  1.94515235e-07  6.62270674e-06  5.00000000e-01                                 
 7.62270674e-06  8.02728082e-01  7.62270674e-06  7.45926071e-01  7.62270674e-06  4.99941824e-01  7.62270674e-06  1.80000000e+00  7.62270674e-06  1.77176182e-07  7.62270674e-06  5.00000000e-01                                 
 8.62270674e-06  8.02322481e-01  8.62270674e-06  7.45563786e-01  8.62270674e-06  5.00266645e-01  8.62270674e-06  1.80000000e+00  8.62270674e-06  1.93384005e-07  8.62270674e-06  5.00000000e-01                                 
 9.62270674e-06  8.02768667e-01  9.62270674e-06  7.45962049e-01  9.62270674e-06  5.00122059e-01  9.62270674e-06  1.80000000e+00  9.62270674e-06  1.78400600e-07  9.62270674e-06  5.00000000e-01                                 
 1.00005000e-05  8.02265434e-01  1.00005000e-05  7.45513204e-01  1.00005000e-05  4.99984668e-01  1.00005000e-05  1.80000000e+00  1.00005000e-05  1.90908778e-07  1.00005000e-05  5.00000000e-01                                 
 1.00005500e-05  8.02265872e-01  1.00005500e-05  7.45513598e-01  1.00005500e-05  4.91970749e-01  1.00005500e-05  1.62000000e+00  1.00005500e-05 -7.34724864e-05  1.00005500e-05  5.00000000e-01                                 
