 time            v(vbep)         time            v(vben)         time            v(vout)         time            v(vphi1)        time            v(vphi2)        time            v(vref)         time            v(voutc)        time            v(voutcc)       yes             currtemp       
 0.00000000e+00  7.72547329e-01  0.00000000e+00  7.11791197e-01  0.00000000e+00  1.59402581e+00  0.00000000e+00  0.00000000e+00  0.00000000e+00  1.80000000e+00  0.00000000e+00  7.14159500e-01  0.00000000e+00  1.59402579e+00  0.00000000e+00  1.60057154e+00  1.00000000e+00  3.40000000e+01 
 5.00000000e-12  7.72569160e-01  5.00000000e-12  7.11845317e-01  5.00000000e-12  1.59465524e+00  5.00000000e-12  1.80000000e-02  5.00000000e-12  1.80018454e+00  5.00000000e-12  7.14552439e-01  5.00000000e-12  1.59437453e+00  5.00000000e-12  1.60058472e+00                                 
 1.00000000e-11  7.72578757e-01  1.00000000e-11  7.11881156e-01  1.00000000e-11  1.59511428e+00  1.00000000e-11  3.60000000e-02  1.00000000e-11  1.80026853e+00  1.00000000e-11  7.14861865e-01  1.00000000e-11  1.59465076e+00  1.00000000e-11  1.60059178e+00                                 
 2.00000000e-11  7.72585099e-01  2.00000000e-11  7.11931156e-01  2.00000000e-11  1.59578295e+00  2.00000000e-11  7.20000000e-02  2.00000000e-11  1.80032256e+00  2.00000000e-11  7.15346340e-01  2.00000000e-11  1.59508721e+00  2.00000000e-11  1.60059853e+00                                 
 4.00000000e-11  7.72572777e-01  4.00000000e-11  7.11967902e-01  4.00000000e-11  1.59624820e+00  4.00000000e-11  1.44000000e-01  4.00000000e-11  1.80019382e+00  4.00000000e-11  7.15812664e-01  4.00000000e-11  1.59552506e+00  4.00000000e-11  1.60059271e+00                                 
 8.00000000e-11  7.72558959e-01  8.00000000e-11  7.11973172e-01  8.00000000e-11  1.59613495e+00  8.00000000e-11  2.88000000e-01  8.00000000e-11  1.80002962e+00  8.00000000e-11  7.15941330e-01  8.00000000e-11  1.59568981e+00  8.00000000e-11  1.60057750e+00                                 
 1.60000000e-10  7.72559790e-01  1.60000000e-10  7.11961591e-01  1.60000000e-10  1.59565664e+00  1.60000000e-10  5.76000000e-01  1.60000000e-10  1.80001109e+00  1.60000000e-10  7.15739023e-01  1.60000000e-10  1.59556360e+00  1.60000000e-10  1.60057209e+00                                 
 3.20000000e-10  7.72493955e-01  3.20000000e-10  7.11518356e-01  3.20000000e-10  1.59169877e+00  3.20000000e-10  1.15200000e+00  3.20000000e-10  1.80072085e+00  3.20000000e-10  7.11895129e-01  3.20000000e-10  1.59241348e+00  3.20000000e-10  1.60054137e+00                                 
 5.00000000e-10  7.72598147e-01  5.00000000e-10  7.11965349e-01  5.00000000e-10  1.58703802e+00  5.00000000e-10  1.80000000e+00  5.00000000e-10  1.53987463e-01  5.00000000e-10  7.17491382e-01  5.00000000e-10  1.59706705e+00  5.00000000e-10  1.60062507e+00                                 
 5.20896092e-10  7.72595585e-01  5.20896092e-10  7.12006278e-01  5.20896092e-10  1.58642659e+00  5.20896092e-10  1.80000000e+00  5.20896092e-10  4.01714655e-02  5.20896092e-10  7.19013293e-01  5.20896092e-10  1.59793409e+00  5.20896092e-10  1.60061782e+00                                 
 5.62688276e-10  7.72658731e-01  5.62688276e-10  7.12083015e-01  5.62688276e-10  1.58593453e+00  5.62688276e-10  1.80000000e+00  5.62688276e-10 -1.46438102e-02  5.62688276e-10  7.21061111e-01  5.62688276e-10  1.59971485e+00  5.62688276e-10  1.60061561e+00                                 
 6.46272643e-10  7.72750884e-01  6.46272643e-10  7.11922944e-01  6.46272643e-10  1.58323751e+00  6.46272643e-10  1.80000000e+00  6.46272643e-10  1.16482333e-02  6.46272643e-10  7.20276704e-01  6.46272643e-10  1.59924159e+00  6.46272643e-10  1.60056153e+00                                 
 7.65005149e-10  7.72778162e-01  7.65005149e-10  7.11893358e-01  7.65005149e-10  1.58201948e+00  7.65005149e-10  1.80000000e+00  7.65005149e-10 -9.18005898e-03  7.65005149e-10  7.21337106e-01  7.65005149e-10  1.60000497e+00  7.65005149e-10  1.60059167e+00                                 
 9.41886128e-10  7.72832247e-01  9.41886128e-10  7.11860655e-01  9.41886128e-10  1.58119758e+00  9.41886128e-10  1.80000000e+00  9.41886128e-10  8.50195084e-03  9.41886128e-10  7.22077892e-01  9.41886128e-10  1.60079890e+00  9.41886128e-10  1.60056323e+00                                 
 1.29564809e-09  7.72826816e-01  1.29564809e-09  7.11785791e-01  1.29564809e-09  1.57893810e+00  1.29564809e-09  1.80000000e+00  1.29564809e-09 -7.72162544e-03  1.29564809e-09  7.21881052e-01  1.29564809e-09  1.60050120e+00  1.29564809e-09  1.60058289e+00                                 
 1.74821534e-09  7.72775921e-01  1.74821534e-09  7.11797554e-01  1.74821534e-09  1.57754172e+00  1.74821534e-09  1.80000000e+00  1.74821534e-09  7.47203859e-03  1.74821534e-09  7.21715343e-01  1.74821534e-09  1.60048077e+00  1.74821534e-09  1.60061089e+00                                 
 2.33929964e-09  7.72650421e-01  2.33929964e-09  7.11761013e-01  2.33929964e-09  1.57584538e+00  2.33929964e-09  1.80000000e+00  2.33929964e-09 -7.16520321e-03  2.33929964e-09  7.20518410e-01  2.33929964e-09  1.59931543e+00  2.33929964e-09  1.60068842e+00                                 
 2.96013190e-09  7.72586192e-01  2.96013190e-09  7.11790695e-01  2.96013190e-09  1.57475821e+00  2.96013190e-09  1.80000000e+00  2.96013190e-09  6.92534519e-03  2.96013190e-09  7.20067995e-01  2.96013190e-09  1.59903426e+00  2.96013190e-09  1.60077063e+00                                 
 3.85272205e-09  7.72522895e-01  3.85272205e-09  7.11759896e-01  3.85272205e-09  1.57214954e+00  3.85272205e-09  1.80000000e+00  3.85272205e-09 -6.75357631e-03  3.85272205e-09  7.18529986e-01  3.85272205e-09  1.59757767e+00  3.85272205e-09  1.60089219e+00                                 
 5.33110809e-09  7.72513208e-01  5.33110809e-09  7.11794148e-01  5.33110809e-09  1.56835822e+00  5.33110809e-09  1.80000000e+00  5.33110809e-09  6.65805439e-03  5.33110809e-09  7.17304622e-01  5.33110809e-09  1.59661512e+00  5.33110809e-09  1.60105775e+00                                 
 8.28788017e-09  7.72499249e-01  8.28788017e-09  7.11770439e-01  8.28788017e-09  1.55903049e+00  8.28788017e-09  1.80000000e+00  8.28788017e-09 -6.60315755e-03  8.28788017e-09  7.14663862e-01  8.28788017e-09  1.59420407e+00  8.28788017e-09  1.60123094e+00                                 
 1.20124339e-08  7.72514438e-01  1.20124339e-08  7.11806204e-01  1.20124339e-08  1.54711037e+00  1.20124339e-08  1.80000000e+00  1.20124339e-08  6.57762228e-03  1.20124339e-08  7.13709549e-01  1.20124339e-08  1.59348081e+00  1.20124339e-08  1.60121888e+00                                 
 1.49032182e-08  7.72509999e-01  1.49032182e-08  7.11775584e-01  1.49032182e-08  1.53644618e+00  1.49032182e-08  1.80000000e+00  1.49032182e-08 -6.50919671e-03  1.49032182e-08  7.12916201e-01  1.49032182e-08  1.59267973e+00  1.49032182e-08  1.60111244e+00                                 
 1.82540097e-08  7.72532501e-01  1.82540097e-08  7.11806869e-01  1.82540097e-08  1.52387332e+00  1.82540097e-08  1.80000000e+00  1.82540097e-08  6.49031331e-03  1.82540097e-08  7.13202582e-01  1.82540097e-08  1.59303002e+00  1.82540097e-08  1.60096457e+00                                 
 2.17862085e-08  7.72531187e-01  2.17862085e-08  7.11775767e-01  2.17862085e-08  1.50897303e+00  2.17862085e-08  1.80000000e+00  2.17862085e-08 -6.42598551e-03  2.17862085e-08  7.12849470e-01  2.17862085e-08  1.59260971e+00  2.17862085e-08  1.60080755e+00                                 
 2.70124032e-08  7.72551935e-01  2.70124032e-08  7.11807027e-01  2.70124032e-08  1.48662488e+00  2.70124032e-08  1.80000000e+00  2.70124032e-08  6.42569424e-03  2.70124032e-08  7.13444930e-01  2.70124032e-08  1.59322541e+00  2.70124032e-08  1.60061461e+00                                 
 3.29858681e-08  7.72545089e-01  3.29858681e-08  7.11775789e-01  3.29858681e-08  1.45941076e+00  3.29858681e-08  1.80000000e+00  3.29858681e-08 -6.37588088e-03  3.29858681e-08  7.13269602e-01  3.29858681e-08  1.59296066e+00  3.29858681e-08  1.60044864e+00                                 
 4.22427326e-08  7.72557015e-01  4.22427326e-08  7.11806943e-01  4.22427326e-08  1.41734585e+00  4.22427326e-08  1.80000000e+00  4.22427326e-08  6.38810222e-03  4.22427326e-08  7.13949377e-01  4.22427326e-08  1.59365223e+00  4.22427326e-08  1.60029946e+00                                 
 5.44943832e-08  7.72544389e-01  5.44943832e-08  7.11775626e-01  5.44943832e-08  1.36052867e+00  5.44943832e-08  1.80000000e+00  5.44943832e-08 -6.34988953e-03  5.44943832e-08  7.13753880e-01  5.44943832e-08  1.59337529e+00  5.44943832e-08  1.60021707e+00                                 
 7.68384810e-08  7.72553670e-01  7.68384810e-08  7.11806825e-01  7.68384810e-08  1.25799228e+00  7.68384810e-08  1.80000000e+00  7.68384810e-08  6.37078777e-03  7.68384810e-08  7.14316173e-01  7.68384810e-08  1.59397089e+00  7.68384810e-08  1.60021473e+00                                 
 1.11855930e-07  7.72541874e-01  1.11855930e-07  7.11775559e-01  1.11855930e-07  1.09772748e+00  1.11855930e-07  1.80000000e+00  1.11855930e-07 -6.33979625e-03  1.11855930e-07  7.13955706e-01  1.11855930e-07  1.59355414e+00  1.11855930e-07  1.60027518e+00                                 
 1.55154934e-07  7.72552674e-01  1.55154934e-07  7.11806805e-01  1.55154934e-07  9.04785017e-01  1.55154934e-07  1.80000000e+00  1.55154934e-07  6.36412730e-03  1.55154934e-07  7.14361369e-01  1.55154934e-07  1.59401120e+00  1.55154934e-07  1.60031852e+00                                 
 2.18234763e-07  7.72542327e-01  2.18234763e-07  7.11775575e-01  2.18234763e-07  7.30536050e-01  2.18234763e-07  1.80000000e+00  2.18234763e-07 -6.33249181e-03  2.18234763e-07  7.13955481e-01  2.18234763e-07  1.59355059e+00  2.18234763e-07  1.60032554e+00                                 
 2.74014715e-07  7.72552612e-01  2.74014715e-07  7.11806866e-01  2.74014715e-07  7.11711653e-01  2.74014715e-07  1.80000000e+00  2.74014715e-07  6.36177891e-03  2.74014715e-07  7.14367258e-01  2.74014715e-07  1.59401164e+00  2.74014715e-07  1.60032864e+00                                 
 3.13227638e-07  7.72540846e-01  3.13227638e-07  7.11775388e-01  3.13227638e-07  7.17748578e-01  3.13227638e-07  1.80000000e+00  3.13227638e-07 -6.32663405e-03  3.13227638e-07  7.13953082e-01  3.13227638e-07  1.59354496e+00  3.13227638e-07  1.60032422e+00                                 
 3.44275888e-07  7.72554226e-01  3.44275888e-07  7.11807067e-01  3.44275888e-07  7.16397210e-01  3.44275888e-07  1.80000000e+00  3.44275888e-07  6.35409492e-03  3.44275888e-07  7.14364366e-01  3.44275888e-07  1.59400632e+00  3.44275888e-07  1.60032464e+00                                 
 3.77911730e-07  7.72540549e-01  3.77911730e-07  7.11775285e-01  3.77911730e-07  7.16533866e-01  3.77911730e-07  1.80000000e+00  3.77911730e-07 -6.31846213e-03  3.77911730e-07  7.13954868e-01  3.77911730e-07  1.59354408e+00  3.77911730e-07  1.60032081e+00                                 
 4.17748586e-07  7.72553946e-01  4.17748586e-07  7.11807100e-01  4.17748586e-07  7.16667997e-01  4.17748586e-07  1.80000000e+00  4.17748586e-07  6.34681123e-03  4.17748586e-07  7.14363885e-01  4.17748586e-07  1.59400305e+00  4.17748586e-07  1.60032193e+00                                 
 4.81228588e-07  7.72540817e-01  4.81228588e-07  7.11775277e-01  4.81228588e-07  7.16460466e-01  4.81228588e-07  1.80000000e+00  4.81228588e-07 -6.31301151e-03  4.81228588e-07  7.13955028e-01  4.81228588e-07  1.59354032e+00  4.81228588e-07  1.60031677e+00                                 
 6.04014179e-07  7.72553789e-01  6.04014179e-07  7.11807100e-01  6.04014179e-07  7.16690475e-01  6.04014179e-07  1.80000000e+00  6.04014179e-07  6.34361124e-03  6.04014179e-07  7.14363825e-01  6.04014179e-07  1.59399586e+00  6.04014179e-07  1.60031484e+00                                 
 8.49585362e-07  7.72540894e-01  8.49585362e-07  7.11775277e-01  8.49585362e-07  7.16452086e-01  8.49585362e-07  1.80000000e+00  8.49585362e-07 -6.31129026e-03  8.49585362e-07  7.13955053e-01  8.49585362e-07  1.59352629e+00  8.49585362e-07  1.60030272e+00                                 
 1.34072773e-06  7.72553751e-01  1.34072773e-06  7.11807100e-01  1.34072773e-06  7.16694018e-01  1.34072773e-06  1.80000000e+00  1.34072773e-06  6.34279703e-03  1.34072773e-06  7.14363813e-01  1.34072773e-06  1.59396771e+00  1.34072773e-06  1.60028676e+00                                 
 2.32301246e-06  7.72540913e-01  2.32301246e-06  7.11775277e-01  2.32301246e-06  7.16450422e-01  2.32301246e-06  1.80000000e+00  2.32301246e-06 -6.31088952e-03  2.32301246e-06  7.13955059e-01  2.32301246e-06  1.59347002e+00  2.32301246e-06  1.60024653e+00                                 
 3.32301246e-06  7.72553739e-01  3.32301246e-06  7.11807100e-01  3.32301246e-06  7.16695062e-01  3.32301246e-06  1.80000000e+00  3.32301246e-06  6.34256688e-03  3.32301246e-06  7.14363809e-01  3.32301246e-06  1.59389202e+00  3.32301246e-06  1.60021119e+00                                 
 4.32301246e-06  7.72540926e-01  4.32301246e-06  7.11775278e-01  4.32301246e-06  7.16449412e-01  4.32301246e-06  1.80000000e+00  4.32301246e-06 -6.31083749e-03  4.32301246e-06  7.13955064e-01  4.32301246e-06  1.59339368e+00  4.32301246e-06  1.60017031e+00                                 
 5.32301246e-06  7.72553727e-01  5.32301246e-06  7.11807100e-01  5.32301246e-06  7.16696037e-01  5.32301246e-06  1.80000000e+00  5.32301246e-06  6.34230197e-03  5.32301246e-06  7.14363805e-01  5.32301246e-06  1.59381564e+00  5.32301246e-06  1.60013495e+00                                 
 6.32301246e-06  7.72540938e-01  6.32301246e-06  7.11775278e-01  6.32301246e-06  7.16448453e-01  6.32301246e-06  1.80000000e+00  6.32301246e-06 -6.31057498e-03  6.32301246e-06  7.13955067e-01  6.32301246e-06  1.59331731e+00  6.32301246e-06  1.60009405e+00                                 
 7.32301246e-06  7.72553715e-01  7.32301246e-06  7.11807100e-01  7.32301246e-06  7.16696959e-01  7.32301246e-06  1.80000000e+00  7.32301246e-06  6.34203681e-03  7.32301246e-06  7.14363802e-01  7.32301246e-06  1.59373929e+00  7.32301246e-06  1.60005872e+00                                 
 8.32301246e-06  7.72540950e-01  8.32301246e-06  7.11775278e-01  8.32301246e-06  7.16447546e-01  8.32301246e-06  1.80000000e+00  8.32301246e-06 -6.31031249e-03  8.32301246e-06  7.13955071e-01  8.32301246e-06  1.59324099e+00  8.32301246e-06  1.60001785e+00                                 
 9.32301246e-06  7.72553703e-01  9.32301246e-06  7.11807099e-01  9.32301246e-06  7.16697832e-01  9.32301246e-06  1.80000000e+00  9.32301246e-06  6.34177165e-03  9.32301246e-06  7.14363799e-01  9.32301246e-06  1.59366297e+00  9.32301246e-06  1.59998253e+00                                 
 1.00005000e-05  7.72540964e-01  1.00005000e-05  7.11775278e-01  1.00005000e-05  7.16446488e-01  1.00005000e-05  1.80000000e+00  1.00005000e-05 -6.31001191e-03  1.00005000e-05  7.13955075e-01  1.00005000e-05  1.59317698e+00  1.00005000e-05  1.59995394e+00                                 
 1.00005500e-05  7.72510883e-01  1.00005500e-05  7.11599257e-01  1.00005500e-05  7.14814644e-01  1.00005500e-05  1.62000000e+00  1.00005500e-05 -6.73605306e-04  1.00005500e-05  7.12603363e-01  1.00005500e-05  1.59204105e+00  1.00005500e-05  1.59993933e+00                                 
 1.00006500e-05  7.72538861e-01  1.00006500e-05  7.11584881e-01  1.00006500e-05  7.14933168e-01  1.00006500e-05  1.26000000e+00  1.00006500e-05  5.00914984e-04  1.00006500e-05  7.12365261e-01  1.00006500e-05  1.59184272e+00  1.00006500e-05  1.59995689e+00                                 
 1.00008500e-05  7.72577574e-01  1.00008500e-05  7.11801921e-01  1.00008500e-05  7.17304327e-01  1.00008500e-05  5.40000000e-01  1.00008500e-05 -3.69161540e-03  1.00008500e-05  7.13716555e-01  1.00008500e-05  1.59194199e+00  1.00008500e-05  1.59995405e+00                                 
 1.00010000e-05  7.72536051e-01  1.00010000e-05  7.10753137e-01  1.00010000e-05  7.38011434e-01  1.00010000e-05  0.00000000e+00  1.00010000e-05  1.50275216e+00  1.00010000e-05  7.01408728e-01  1.00010000e-05  1.53262697e+00  1.00010000e-05  1.59941817e+00                                 
 1.00010259e-05  7.72553089e-01  1.00010259e-05  7.10444837e-01  1.00010259e-05  7.44254898e-01  1.00010259e-05  0.00000000e+00  1.00010259e-05  1.68795764e+00  1.00010259e-05  6.97599484e-01  1.00010259e-05  1.50647444e+00  1.00010259e-05  1.59926680e+00                                 
 1.00010777e-05  7.72550029e-01  1.00010777e-05  7.09852261e-01  1.00010777e-05  7.50029408e-01  1.00010777e-05  0.00000000e+00  1.00010777e-05  1.82233417e+00  1.00010777e-05  6.90632448e-01  1.00010777e-05  1.44816955e+00  1.00010777e-05  1.59914376e+00                                 
 1.00011814e-05  7.72543299e-01  1.00011814e-05  7.09751790e-01  1.00011814e-05  7.43288184e-01  1.00011814e-05  0.00000000e+00  1.00011814e-05  1.78616423e+00  1.00011814e-05  6.90291314e-01  1.00011814e-05  1.34621551e+00  1.00011814e-05  1.59966384e+00                                 
 1.00013118e-05  7.72550915e-01  1.00013118e-05  7.10093341e-01  1.00013118e-05  7.39639093e-01  1.00013118e-05  0.00000000e+00  1.00013118e-05  1.80744201e+00  1.00013118e-05  6.95186795e-01  1.00013118e-05  1.24854863e+00  1.00013118e-05  1.60001953e+00                                 
 1.00015278e-05  7.72542801e-01  1.00015278e-05  7.10282742e-01  1.00015278e-05  7.35277651e-01  1.00015278e-05  0.00000000e+00  1.00015278e-05  1.79368708e+00  1.00015278e-05  6.96783716e-01  1.00015278e-05  1.11536720e+00  1.00015278e-05  1.60020422e+00                                 
 1.00018664e-05  7.72550255e-01  1.00018664e-05  7.10857958e-01  1.00018664e-05  7.30419345e-01  1.00018664e-05  0.00000000e+00  1.00018664e-05  1.80473821e+00  1.00018664e-05  7.01863816e-01  1.00018664e-05  9.67946876e-01  1.00018664e-05  1.60021439e+00                                 
 1.00023237e-05  7.72543376e-01  1.00023237e-05  7.11315076e-01  1.00023237e-05  7.26669341e-01  1.00023237e-05  0.00000000e+00  1.00023237e-05  1.79551360e+00  1.00023237e-05  7.04889596e-01  1.00023237e-05  8.28818627e-01  1.00023237e-05  1.59980345e+00                                 
 1.00028170e-05  7.72550320e-01  1.00028170e-05  7.11978306e-01  1.00028170e-05  7.20701803e-01  1.00028170e-05  0.00000000e+00  1.00028170e-05  1.80366215e+00  1.00028170e-05  7.11341541e-01  1.00028170e-05  7.53790879e-01  1.00028170e-05  1.59902311e+00                                 
 1.00033003e-05  7.72543963e-01  1.00033003e-05  7.12173099e-01  1.00033003e-05  7.19573514e-01  1.00033003e-05  0.00000000e+00  1.00033003e-05  1.79671564e+00  1.00033003e-05  7.13014666e-01  1.00033003e-05  7.26397790e-01  1.00033003e-05  1.59784768e+00                                 
 1.00038338e-05  7.72550179e-01  1.00038338e-05  7.12335448e-01  1.00038338e-05  7.18648177e-01  1.00038338e-05  0.00000000e+00  1.00038338e-05  1.80287374e+00  1.00038338e-05  7.15307082e-01  1.00038338e-05  7.20813460e-01  1.00038338e-05  1.59620637e+00                                 
 1.00044486e-05  7.72544371e-01  1.00044486e-05  7.12219439e-01  1.00044486e-05  7.20652677e-01  1.00044486e-05  0.00000000e+00  1.00044486e-05  1.79742163e+00  1.00044486e-05  7.14797372e-01  1.00044486e-05  7.19401379e-01  1.00044486e-05  1.59400055e+00                                 
 1.00052698e-05  7.72550042e-01  1.00052698e-05  7.12200806e-01  1.00052698e-05  7.21704969e-01  1.00052698e-05  0.00000000e+00  1.00052698e-05  1.80236696e+00  1.00052698e-05  7.15815505e-01  1.00052698e-05  7.21805399e-01  1.00052698e-05  1.59087178e+00                                 
 1.00067353e-05  7.72544593e-01  1.00067353e-05  7.12001867e-01  1.00067353e-05  7.26156558e-01  1.00067353e-05  0.00000000e+00  1.00067353e-05  1.79774023e+00  1.00067353e-05  7.15068516e-01  1.00067353e-05  7.24552669e-01  1.00067353e-05  1.58499500e+00                                 
