 time            v(vbep)         time            v(vben)         time            v(vout)         time            v(vphi1)        time            v(vphi2)        time            v(vref)         yes             currtemp       
 0.00000000e+00  7.47382689e-01  0.00000000e+00  6.99969696e-01  0.00000000e+00  7.33479813e-02  0.00000000e+00  0.00000000e+00  0.00000000e+00  1.79997793e+00  0.00000000e+00  5.00000000e-01  1.00000000e+00 -1.40000000e+01 
 5.00000000e-12  7.47368783e-01  5.00000000e-12  6.99958097e-01  5.00000000e-12  7.37932891e-02  5.00000000e-12  1.80000000e-02  5.00000000e-12  1.80005433e+00  5.00000000e-12  5.00000000e-01                                 
 1.00000000e-11  7.47355059e-01  1.00000000e-11  6.99946726e-01  1.00000000e-11  7.41911717e-02  1.00000000e-11  3.60000000e-02  1.00000000e-11  1.80009101e+00  1.00000000e-11  5.00000000e-01                                 
 2.00000000e-11  7.47327704e-01  2.00000000e-11  6.99924041e-01  2.00000000e-11  7.49192268e-02  2.00000000e-11  7.20000000e-02  2.00000000e-11  1.80012350e+00  2.00000000e-11  5.00000000e-01                                 
 4.00000000e-11  7.47273157e-01  4.00000000e-11  6.99878780e-01  4.00000000e-11  7.60598363e-02  4.00000000e-11  1.44000000e-01  4.00000000e-11  1.80010271e+00  4.00000000e-11  5.00000000e-01                                 
 8.00000000e-11  7.47164375e-01  8.00000000e-11  6.99788479e-01  8.00000000e-11  7.76023670e-02  8.00000000e-11  2.88000000e-01  8.00000000e-11  1.80006069e+00  8.00000000e-11  5.00000000e-01                                 
 1.60000000e-10  7.46948132e-01  1.60000000e-10  6.99608779e-01  1.60000000e-10  7.95413747e-02  1.60000000e-10  5.76000000e-01  1.60000000e-10  1.80002303e+00  1.60000000e-10  5.00000000e-01                                 
 3.20000000e-10  7.46520821e-01  3.20000000e-10  6.99252969e-01  3.20000000e-10  1.16865598e-01  3.20000000e-10  1.15200000e+00  3.20000000e-10  1.79988698e+00  3.20000000e-10  5.00000000e-01                                 
 5.00000000e-10  7.46048324e-01  5.00000000e-10  6.98858417e-01  5.00000000e-10  4.96236996e-01  5.00000000e-10  1.80000000e+00  5.00000000e-10  9.52463560e-02  5.00000000e-10  5.00000000e-01                                 
 5.20949723e-10  7.45993953e-01  5.20949723e-10  6.98812932e-01  5.20949723e-10  5.65170652e-01  5.20949723e-10  1.80000000e+00  5.20949723e-10  1.64358796e-02  5.20949723e-10  5.00000000e-01                                 
 5.62849168e-10  7.45885434e-01  5.62849168e-10  6.98722119e-01  5.62849168e-10  6.87801918e-01  5.62849168e-10  1.80000000e+00  5.62849168e-10 -7.89404862e-03  5.62849168e-10  5.00000000e-01                                 
 6.46648058e-10  7.45669758e-01  6.46648058e-10  6.98541451e-01  6.46648058e-10  8.71353082e-01  6.46648058e-10  1.80000000e+00  6.46648058e-10  6.90289518e-03  6.46648058e-10  5.00000000e-01                                 
 7.70789492e-10  7.45353552e-01  7.70789492e-10  6.98276138e-01  7.70789492e-10  1.07514097e+00  7.70789492e-10  1.80000000e+00  7.70789492e-10 -6.11353482e-03  7.70789492e-10  5.00000000e-01                                 
 9.59372431e-10  7.44880562e-01  9.59372431e-10  6.97878322e-01  9.59372431e-10  1.32560024e+00  9.59372431e-10  1.80000000e+00  9.59372431e-10  5.82849373e-03  9.59372431e-10  5.00000000e-01                                 
 1.32837471e-09  7.43979604e-01  1.32837471e-09  6.97117458e-01  1.32837471e-09  1.66725245e+00  1.32837471e-09  1.80000000e+00  1.32837471e-09 -5.55328203e-03  1.32837471e-09  5.00000000e-01                                 
 1.99691025e-09  7.42423847e-01  1.99691025e-09  6.95794303e-01  1.99691025e-09  1.89555211e+00  1.99691025e-09  1.80000000e+00  1.99691025e-09  5.52754495e-03  1.99691025e-09  5.00000000e-01                                 
 2.24289035e-09  7.41874955e-01  2.24289035e-09  6.95324600e-01  2.24289035e-09  1.91152195e+00  2.24289035e-09  1.80000000e+00  2.24289035e-09 -5.19962119e-03  2.24289035e-09  5.00000000e-01                                 
 2.54901055e-09  7.41208023e-01  2.54901055e-09  6.94751974e-01  2.54901055e-09  1.91850014e+00  2.54901055e-09  1.80000000e+00  2.54901055e-09  5.04935894e-03  2.54901055e-09  5.00000000e-01                                 
 2.89635567e-09  7.40471909e-01  2.89635567e-09  6.94117553e-01  2.89635567e-09  1.92329594e+00  2.89635567e-09  1.80000000e+00  2.89635567e-09 -4.83752025e-03  2.89635567e-09  5.00000000e-01                                 
 3.59104590e-09  7.39060258e-01  3.59104590e-09  6.92894166e-01  3.59104590e-09  1.92868471e+00  3.59104590e-09  1.80000000e+00  3.59104590e-09  4.79263639e-03  3.59104590e-09  5.00000000e-01                                 
 4.81796309e-09  7.36742123e-01  4.81796309e-09  6.90866777e-01  4.81796309e-09  1.92584497e+00  4.81796309e-09  1.80000000e+00  4.81796309e-09 -4.71764444e-03  4.81796309e-09  5.00000000e-01                                 
 7.07885349e-09  7.32947176e-01  7.07885349e-09  6.87502379e-01  7.07885349e-09  1.91208594e+00  7.07885349e-09  1.80000000e+00  7.07885349e-09  4.72645977e-03  7.07885349e-09  5.00000000e-01                                 
 9.16095389e-09  7.29893416e-01  9.16095389e-09  6.84755621e-01  9.16095389e-09  1.90160701e+00  9.16095389e-09  1.80000000e+00  9.16095389e-09 -4.66572491e-03  9.16095389e-09  5.00000000e-01                                 
 1.06054926e-08  7.27972149e-01  1.06054926e-08  6.83011159e-01  1.06054926e-08  1.89559055e+00  1.06054926e-08  1.80000000e+00  1.06054926e-08  4.65451122e-03  1.06054926e-08  5.00000000e-01                                 
 1.25688219e-08  7.25573726e-01  1.25688219e-08  6.80817463e-01  1.25688219e-08  1.88862844e+00  1.25688219e-08  1.80000000e+00  1.25688219e-08 -4.60283202e-03  1.25688219e-08  5.00000000e-01                                 
 1.50768192e-08  7.22815548e-01  1.50768192e-08  6.78273158e-01  1.50768192e-08  1.88084854e+00  1.50768192e-08  1.80000000e+00  1.50768192e-08  4.60192810e-03  1.50768192e-08  5.00000000e-01                                 
 1.88518692e-08  7.19198123e-01  1.88518692e-08  6.74900663e-01  1.88518692e-08  1.87112749e+00  1.88518692e-08  1.80000000e+00  1.88518692e-08 -4.56782325e-03  1.88518692e-08  5.00000000e-01                                 
 2.38305695e-08  7.15210865e-01  2.38305695e-08  6.71132241e-01  2.38305695e-08  1.86046467e+00  2.38305695e-08  1.80000000e+00  2.38305695e-08  4.57603779e-03  2.38305695e-08  5.00000000e-01                                 
 3.20492567e-08  7.09951047e-01  3.20492567e-08  6.66082233e-01  3.20492567e-08  1.84622281e+00  3.20492567e-08  1.80000000e+00  3.20492567e-08 -4.55032625e-03  3.20492567e-08  5.00000000e-01                                 
 4.64072379e-08  7.02906376e-01  4.64072379e-08  6.59232321e-01  4.64072379e-08  1.82505516e+00  4.64072379e-08  1.80000000e+00  4.64072379e-08  4.56571722e-03  4.64072379e-08  5.00000000e-01                                 
 7.51232001e-08  6.92790653e-01  7.51232001e-08  6.49319163e-01  7.51232001e-08  1.78833192e+00  7.51232001e-08  1.80000000e+00  7.51232001e-08 -4.54468207e-03  7.51232001e-08  5.00000000e-01                                 
 1.21617783e-07  6.81973392e-01  1.21617783e-07  6.38640500e-01  1.21617783e-07  1.73577080e+00  1.21617783e-07  1.80000000e+00  1.21617783e-07  4.56278731e-03  1.21617783e-07  5.00000000e-01                                 
 1.65778357e-07  6.72983232e-01  1.65778357e-07  6.30101869e-01  1.65778357e-07  1.68642896e+00  1.65778357e-07  1.80000000e+00  1.65778357e-07 -4.54229097e-03  1.65778357e-07  5.00000000e-01                                 
 2.50153646e-07  6.57556755e-01  2.50153646e-07  6.15917950e-01  2.50153646e-07  1.59120523e+00  2.50153646e-07  1.80000000e+00  2.50153646e-07  4.56095088e-03  2.50153646e-07  5.00000000e-01                                 
 3.31221076e-07  6.45635049e-01  3.31221076e-07  6.05154216e-01  3.31221076e-07  1.50037881e+00  3.31221076e-07  1.80000000e+00  3.31221076e-07 -4.54097213e-03  3.31221076e-07  5.00000000e-01                                 
 4.86103526e-07  6.24753060e-01  4.86103526e-07  5.86882912e-01  4.86103526e-07  1.32527857e+00  4.86103526e-07  1.80000000e+00  4.86103526e-07  4.55995780e-03  4.86103526e-07  5.00000000e-01                                 
 7.95868426e-07  5.85772042e-01  7.95868426e-07  5.54138420e-01  7.95868426e-07  9.63247190e-01  7.95868426e-07  1.80000000e+00  7.95868426e-07 -4.54044855e-03  7.95868426e-07  5.00000000e-01                                 
 8.50843422e-07  5.78970568e-01  8.50843422e-07  5.48579884e-01  8.50843422e-07  9.13811265e-01  8.50843422e-07  1.80000000e+00  8.50843422e-07 -2.54003281e-07  8.50843422e-07  5.00000000e-01                                 
 9.60793416e-07  5.65305086e-01  9.60793416e-07  5.37448974e-01  9.60793416e-07  8.22054211e-01  9.60793416e-07  1.80000000e+00  9.60793416e-07  2.06003643e-07  9.60793416e-07  5.00000000e-01                                 
 1.16136137e-06  5.45313150e-01  1.16136137e-06  5.21230371e-01  1.16136137e-06  6.93273177e-01  1.16136137e-06  1.80000000e+00  1.16136137e-06 -2.35379819e-07  1.16136137e-06  5.00000000e-01                                 
 1.19763714e-06  5.44063712e-01  1.19763714e-06  5.20206022e-01  1.19763714e-06  6.77676094e-01  1.19763714e-06  1.80000000e+00  1.19763714e-06  7.13261687e-09  1.19763714e-06  5.00000000e-01                                 
 1.27018867e-06  5.48008718e-01  1.27018867e-06  5.23318438e-01  1.27018867e-06  6.52693730e-01  1.27018867e-06  1.80000000e+00  1.27018867e-06  6.93757041e-08  1.27018867e-06  5.00000000e-01                                 
 1.34968243e-06  5.96771455e-01  1.34968243e-06  5.62264041e-01  1.34968243e-06  6.65186765e-01  1.34968243e-06  1.80000000e+00  1.34968243e-06  4.05965489e-07  1.34968243e-06  5.00000000e-01                                 
 1.35935872e-06  6.10045159e-01  1.35935872e-06  5.72864601e-01  1.35935872e-06  6.73149230e-01  1.35935872e-06  1.80000000e+00  1.35935872e-06  5.18325598e-07  1.35935872e-06  5.00000000e-01                                 
 1.37871131e-06  6.45753175e-01  1.37871131e-06  6.01389634e-01  1.37871131e-06  6.97041708e-01  1.37871131e-06  1.80000000e+00  1.37871131e-06  8.91767037e-07  1.37871131e-06  5.00000000e-01                                 
 1.41741649e-06  7.67617114e-01  1.41741649e-06  7.15644342e-01  1.41741649e-06  7.86115046e-01  1.41741649e-06  1.80000000e+00  1.41741649e-06  1.94018292e-06  1.41741649e-06  5.00000000e-01                                 
 1.45453115e-06  8.18408422e-01  1.45453115e-06  7.69557832e-01  1.45453115e-06  8.08403563e-01  1.45453115e-06  1.80000000e+00  1.45453115e-06 -2.35120643e-07  1.45453115e-06  5.00000000e-01                                 
 1.49421719e-06  8.54186078e-01  1.49421719e-06  8.02427336e-01  1.49421719e-06  8.12333130e-01  1.49421719e-06  1.80000000e+00  1.49421719e-06  1.18488334e-06  1.49421719e-06  5.00000000e-01                                 
 1.53112459e-06  8.95326795e-01  1.53112459e-06  8.34767849e-01  1.53112459e-06  8.22936943e-01  1.53112459e-06  1.80000000e+00  1.53112459e-06  1.54809526e-07  1.53112459e-06  5.00000000e-01                                 
 1.57441648e-06  9.32316690e-01  1.57441648e-06  8.58425088e-01  1.57441648e-06  8.20007754e-01  1.57441648e-06  1.80000000e+00  1.57441648e-06  7.04585610e-07  1.57441648e-06  5.00000000e-01                                 
 1.60729613e-06  9.29750884e-01  1.60729613e-06  8.57187788e-01  1.60729613e-06  8.01068842e-01  1.60729613e-06  1.80000000e+00  1.60729613e-06 -5.17333435e-07  1.60729613e-06  5.00000000e-01                                 
 1.64211525e-06  9.29189708e-01  1.64211525e-06  8.56605160e-01  1.64211525e-06  7.77789899e-01  1.64211525e-06  1.80000000e+00  1.64211525e-06  4.44154153e-07  1.64211525e-06  5.00000000e-01                                 
 1.67850033e-06  9.29277873e-01  1.67850033e-06  8.56892864e-01  1.67850033e-06  7.62009482e-01  1.67850033e-06  1.80000000e+00  1.67850033e-06 -3.07271361e-07  1.67850033e-06  5.00000000e-01                                 
 1.75127050e-06  9.25661254e-01  1.75127050e-06  8.54526834e-01  1.75127050e-06  7.22365028e-01  1.75127050e-06  1.80000000e+00  1.75127050e-06  2.77163391e-07  1.75127050e-06  5.00000000e-01                                 
 1.82768130e-06  9.24583833e-01  1.82768130e-06  8.54083756e-01  1.82768130e-06  6.91464211e-01  1.82768130e-06  1.80000000e+00  1.82768130e-06 -2.24517388e-07  1.82768130e-06  5.00000000e-01                                 
 1.92526379e-06  9.18165197e-01  1.92526379e-06  8.49950151e-01  1.92526379e-06  6.45569733e-01  1.92526379e-06  1.80000000e+00  1.92526379e-06  1.83366872e-07  1.92526379e-06  5.00000000e-01                                 
 2.05410954e-06  9.10131204e-01  2.05410954e-06  8.45035100e-01  2.05410954e-06  5.94506768e-01  2.05410954e-06  1.80000000e+00  2.05410954e-06 -1.98972627e-07  2.05410954e-06  5.00000000e-01                                 
 2.07620249e-06  9.06499667e-01  2.07620249e-06  8.42556528e-01  2.07620249e-06  5.83194446e-01  2.07620249e-06  1.80000000e+00  2.07620249e-06 -7.70566843e-08  2.07620249e-06  5.00000000e-01                                 
 2.12038838e-06  9.00221062e-01  2.12038838e-06  8.38306180e-01  2.12038838e-06  5.63518852e-01  2.12038838e-06  1.80000000e+00  2.12038838e-06 -3.65997841e-08  2.12038838e-06  5.00000000e-01                                 
 2.19270244e-06  8.83746745e-01  2.19270244e-06  8.26509615e-01  2.19270244e-06  5.31413291e-01  2.19270244e-06  1.80000000e+00  2.19270244e-06 -1.63714495e-07  2.19270244e-06  5.00000000e-01                                 
 2.26848445e-06  8.59184193e-01  2.26848445e-06  8.06800642e-01  2.26848445e-06  5.01621244e-01  2.26848445e-06  1.80000000e+00  2.26848445e-06 -1.59450419e-07  2.26848445e-06  5.00000000e-01                                 
 2.36847848e-06  8.41995840e-01  2.36847848e-06  7.91686086e-01  2.36847848e-06  4.84708607e-01  2.36847848e-06  1.80000000e+00  2.36847848e-06 -9.24787625e-09  2.36847848e-06  5.00000000e-01                                 
 2.47015823e-06  8.44735130e-01  2.47015823e-06  7.94109271e-01  2.47015823e-06  4.87407838e-01  2.47015823e-06  1.80000000e+00  2.47015823e-06  7.73069753e-08  2.47015823e-06  5.00000000e-01                                 
 2.59210559e-06  8.44870477e-01  2.59210559e-06  7.94285999e-01  2.59210559e-06  4.92064659e-01  2.59210559e-06  1.80000000e+00  2.59210559e-06 -3.21565784e-08  2.59210559e-06  5.00000000e-01                                 
 2.73909936e-06  8.43657999e-01  2.73909936e-06  7.93138513e-01  2.73909936e-06  5.00462913e-01  2.73909936e-06  1.80000000e+00  2.73909936e-06  5.98429206e-08  2.73909936e-06  5.00000000e-01                                 
 2.90726802e-06  8.45139628e-01  2.90726802e-06  7.94525173e-01  2.90726802e-06  5.04237560e-01  2.90726802e-06  1.80000000e+00  2.90726802e-06 -1.14838086e-08  2.90726802e-06  5.00000000e-01                                 
 3.10780678e-06  8.43708418e-01  3.10780678e-06  7.93186761e-01  3.10780678e-06  4.98806198e-01  3.10780678e-06  1.80000000e+00  3.10780678e-06  4.21614383e-08  3.10780678e-06  5.00000000e-01                                 
 3.38363062e-06  8.44984467e-01  3.38363062e-06  7.94383802e-01  3.38363062e-06  4.99760932e-01  3.38363062e-06  1.80000000e+00  3.38363062e-06  2.80745732e-09  3.38363062e-06  5.00000000e-01                                 
 3.70546370e-06  8.43852783e-01  3.70546370e-06  7.93318714e-01  3.70546370e-06  4.99724624e-01  3.70546370e-06  1.80000000e+00  3.70546370e-06  3.20883042e-08  3.70546370e-06  5.00000000e-01                                 
 4.34912986e-06  8.44874406e-01  4.34912986e-06  7.94283948e-01  4.34912986e-06  5.01103116e-01  4.34912986e-06  1.80000000e+00  4.34912986e-06  8.91083724e-09  4.34912986e-06  5.00000000e-01                                 
 5.13206749e-06  8.43918164e-01  5.13206749e-06  7.93378326e-01  5.13206749e-06  4.99049324e-01  5.13206749e-06  1.80000000e+00  5.13206749e-06  2.87991338e-08  5.13206749e-06  5.00000000e-01                                 
 6.13206749e-06  8.44821428e-01  6.13206749e-06  7.94235908e-01  6.13206749e-06  5.00927199e-01  6.13206749e-06  1.80000000e+00  6.13206749e-06  1.14121164e-08  6.13206749e-06  5.00000000e-01                                 
 7.13206749e-06  8.43963310e-01  7.13206749e-06  7.93419468e-01  7.13206749e-06  4.99561252e-01  7.13206749e-06  1.80000000e+00  7.13206749e-06  2.67113661e-08  7.13206749e-06  5.00000000e-01                                 
 8.13206749e-06  8.44776673e-01  8.13206749e-06  7.94195339e-01  8.13206749e-06  5.00461822e-01  8.13206749e-06  1.80000000e+00  8.13206749e-06  1.33951455e-08  8.13206749e-06  5.00000000e-01                                 
 9.13206749e-06  8.44006788e-01  9.13206749e-06  7.93459063e-01  9.13206749e-06  4.99860307e-01  9.13206749e-06  1.80000000e+00  9.13206749e-06  2.48419598e-08  9.13206749e-06  5.00000000e-01                                 
 1.00005000e-05  8.44731082e-01  1.00005000e-05  7.94153998e-01  1.00005000e-05  5.00353242e-01  1.00005000e-05  1.80000000e+00  1.00005000e-05  1.52703031e-08  1.00005000e-05  5.00000000e-01                                 
 1.00005500e-05  8.44728439e-01  1.00005500e-05  7.94150105e-01  1.00005500e-05  4.92340522e-01  1.00005500e-05  1.62000000e+00  1.00005500e-05 -6.50245493e-05  1.00005500e-05  5.00000000e-01                                 
 1.00006500e-05  8.44722547e-01  1.00006500e-05  7.94142539e-01  1.00006500e-05  4.78817920e-01  1.00006500e-05  1.26000000e+00  1.00006500e-05 -4.43244600e-05  1.00006500e-05  5.00000000e-01                                 
 1.00008500e-05  8.44712004e-01  1.00008500e-05  7.94129648e-01  1.00008500e-05  4.78724712e-01  1.00008500e-05  5.40000000e-01  1.00008500e-05 -2.33526847e-04  1.00008500e-05  5.00000000e-01                                 
 1.00010000e-05  8.44705451e-01  1.00010000e-05  7.94121574e-01  1.00010000e-05  4.43709366e-01  1.00010000e-05  0.00000000e+00  1.00010000e-05  1.54555377e+00  1.00010000e-05  5.00000000e-01                                 
 1.00010138e-05  8.44704803e-01  1.00010138e-05  7.94120863e-01  1.00010138e-05  4.26231597e-01  1.00010138e-05  0.00000000e+00  1.00010138e-05  1.67209010e+00  1.00010138e-05  5.00000000e-01                                 
 1.00010413e-05  8.44703552e-01  1.00010413e-05  7.94119458e-01  1.00010413e-05  3.82142713e-01  1.00010413e-05  0.00000000e+00  1.00010413e-05  1.79710172e+00  1.00010413e-05  5.00000000e-01                                 
 1.00010963e-05  8.44701381e-01  1.00010963e-05  7.94116820e-01  1.00010963e-05  2.96583280e-01  1.00010963e-05  0.00000000e+00  1.00010963e-05  1.79814944e+00  1.00010963e-05  5.00000000e-01                                 
 1.00011671e-05  8.44698968e-01  1.00011671e-05  7.94113779e-01  1.00011671e-05  2.43097789e-01  1.00011671e-05  0.00000000e+00  1.00011671e-05  1.79732377e+00  1.00011671e-05  5.00000000e-01                                 
 1.00012624e-05  8.44695957e-01  1.00012624e-05  7.94110103e-01  1.00012624e-05  2.26544391e-01  1.00012624e-05  0.00000000e+00  1.00012624e-05  1.80066480e+00  1.00012624e-05  5.00000000e-01                                 
 1.00014279e-05  8.44691136e-01  1.00014279e-05  7.94104373e-01  1.00014279e-05  2.27669707e-01  1.00014279e-05  0.00000000e+00  1.00014279e-05  1.79879295e+00  1.00014279e-05  5.00000000e-01                                 
 1.00015923e-05  8.44686663e-01  1.00015923e-05  7.94099253e-01  1.00015923e-05  2.29281242e-01  1.00015923e-05  0.00000000e+00  1.00015923e-05  1.80101760e+00  1.00015923e-05  5.00000000e-01                                 
