 time            v(vbep)         time            v(vben)         time            v(vout)         time            v(vphi1)        time            v(vphi2)        time            v(vref)         yes             currtemp       
 0.00000000e+00  6.62950641e-01  0.00000000e+00  6.07872747e-01  0.00000000e+00  1.10218244e-01  0.00000000e+00  0.00000000e+00  0.00000000e+00  1.79998154e+00  0.00000000e+00  5.00000000e-01  1.00000000e+00  2.80000000e+01 
 5.00000000e-12  6.62937967e-01  5.00000000e-12  6.07862186e-01  5.00000000e-12  1.10722544e-01  5.00000000e-12  1.80000000e-02  5.00000000e-12  1.80006387e+00  5.00000000e-12  5.00000000e-01                                 
 1.00000000e-11  6.62925422e-01  1.00000000e-11  6.07851822e-01  1.00000000e-11  1.11174620e-01  1.00000000e-11  3.60000000e-02  1.00000000e-11  1.80010353e+00  1.00000000e-11  5.00000000e-01                                 
 2.00000000e-11  6.62900396e-01  2.00000000e-11  6.07831143e-01  2.00000000e-11  1.12002468e-01  2.00000000e-11  7.20000000e-02  2.00000000e-11  1.80013808e+00  2.00000000e-11  5.00000000e-01                                 
 4.00000000e-11  6.62850457e-01  4.00000000e-11  6.07789871e-01  4.00000000e-11  1.13306704e-01  4.00000000e-11  1.44000000e-01  4.00000000e-11  1.80011324e+00  4.00000000e-11  5.00000000e-01                                 
 8.00000000e-11  6.62750809e-01  8.00000000e-11  6.07707486e-01  8.00000000e-11  1.15085739e-01  8.00000000e-11  2.88000000e-01  8.00000000e-11  1.80006806e+00  8.00000000e-11  5.00000000e-01                                 
 1.60000000e-10  6.62552481e-01  1.60000000e-10  6.07543374e-01  1.60000000e-10  1.17317231e-01  1.60000000e-10  5.76000000e-01  1.60000000e-10  1.80002814e+00  1.60000000e-10  5.00000000e-01                                 
 3.20000000e-10  6.62159652e-01  3.20000000e-10  6.07217779e-01  3.20000000e-10  1.49107129e-01  3.20000000e-10  1.15200000e+00  3.20000000e-10  1.80005414e+00  3.20000000e-10  5.00000000e-01                                 
 5.00000000e-10  6.61723827e-01  5.00000000e-10  6.06855698e-01  5.00000000e-10  4.95497892e-01  5.00000000e-10  1.80000000e+00  5.00000000e-10  1.13382757e-01  5.00000000e-10  5.00000000e-01                                 
 5.21635813e-10  6.61671923e-01  5.21635813e-10  6.06812511e-01  5.21635813e-10  5.62617747e-01  5.21635813e-10  1.80000000e+00  5.21635813e-10  2.15755710e-02  5.21635813e-10  5.00000000e-01                                 
 5.64907440e-10  6.61568299e-01  5.64907440e-10  6.06726264e-01  5.64907440e-10  6.83720571e-01  5.64907440e-10  1.80000000e+00  5.64907440e-10 -1.02147998e-02  5.64907440e-10  5.00000000e-01                                 
 6.51450694e-10  6.61362153e-01  6.51450694e-10  6.06554539e-01  6.51450694e-10  8.69290604e-01  6.51450694e-10  1.80000000e+00  6.51450694e-10  8.64595401e-03  6.51450694e-10  5.00000000e-01                                 
 7.74286900e-10  6.61072037e-01  7.74286900e-10  6.06312532e-01  7.74286900e-10  1.06817105e+00  7.74286900e-10  1.80000000e+00  7.74286900e-10 -7.51776404e-03  7.74286900e-10  5.00000000e-01                                 
 9.66530782e-10  6.60623685e-01  9.66530782e-10  6.05937769e-01  9.66530782e-10  1.31693143e+00  9.66530782e-10  1.80000000e+00  9.66530782e-10  7.08101988e-03  9.66530782e-10  5.00000000e-01                                 
 1.32064040e-09  6.59815339e-01  1.32064040e-09  6.05259801e-01  1.32064040e-09  1.63573382e+00  1.32064040e-09  1.80000000e+00  1.32064040e-09 -6.69088140e-03  1.32064040e-09  5.00000000e-01                                 
 1.95877338e-09  6.58412435e-01  1.95877338e-09  6.04076325e-01  1.95877338e-09  1.85973384e+00  1.95877338e-09  1.80000000e+00  1.95877338e-09  6.63190297e-03  1.95877338e-09  5.00000000e-01                                 
 2.21866961e-09  6.57860040e-01  2.21866961e-09  6.03607910e-01  2.21866961e-09  1.88004003e+00  2.21866961e-09  1.80000000e+00  2.21866961e-09 -6.19757736e-03  2.21866961e-09  5.00000000e-01                                 
 2.53722501e-09  6.57196910e-01  2.53722501e-09  6.03043863e-01  2.53722501e-09  1.88861122e+00  2.53722501e-09  1.80000000e+00  2.53722501e-09  5.98405163e-03  2.53722501e-09  5.00000000e-01                                 
 2.88958879e-09  6.56480542e-01  2.88958879e-09  6.02432437e-01  2.88958879e-09  1.89254073e+00  2.88958879e-09  1.80000000e+00  2.88958879e-09 -5.69638454e-03  2.88958879e-09  5.00000000e-01                                 
 3.59431634e-09  6.55098165e-01  3.59431634e-09  6.01246619e-01  3.59431634e-09  1.89588683e+00  3.59431634e-09  1.80000000e+00  3.59431634e-09  5.62855562e-03  3.59431634e-09  5.00000000e-01                                 
 4.49779293e-09  6.53416543e-01  4.49779293e-09  5.99793745e-01  4.49779293e-09  1.89477861e+00  4.49779293e-09  1.80000000e+00  4.49779293e-09 -5.50291519e-03  4.49779293e-09  5.00000000e-01                                 
 6.30474613e-09  6.50315005e-01  6.30474613e-09  5.97086392e-01  6.30474613e-09  1.88681061e+00  6.30474613e-09  1.80000000e+00  6.30474613e-09  5.49920895e-03  6.30474613e-09  5.00000000e-01                                 
 9.18340709e-09  6.45956941e-01  9.18340709e-09  5.93225840e-01  9.18340709e-09  1.87462503e+00  9.18340709e-09  1.80000000e+00  9.18340709e-09 -5.43055396e-03  9.18340709e-09  5.00000000e-01                                 
 1.06960399e-08  6.43907926e-01  1.06960399e-08  5.91388132e-01  1.06960399e-08  1.86984934e+00  1.06960399e-08  1.80000000e+00  1.06960399e-08  5.41365092e-03  1.06960399e-08  5.00000000e-01                                 
 1.23256667e-08  6.41851872e-01  1.23256667e-08  5.89531158e-01  1.23256667e-08  1.86510348e+00  1.23256667e-08  1.80000000e+00  1.23256667e-08 -5.33766256e-03  1.23256667e-08  5.00000000e-01                                 
 1.41420333e-08  6.39723673e-01  1.41420333e-08  5.87595748e-01  1.41420333e-08  1.86036852e+00  1.41420333e-08  1.80000000e+00  1.41420333e-08  5.32340664e-03  1.41420333e-08  5.00000000e-01                                 
 1.70922945e-08  6.36581782e-01  1.70922945e-08  5.84714632e-01  1.70922945e-08  1.85335733e+00  1.70922945e-08  1.80000000e+00  1.70922945e-08 -5.27244623e-03  1.70922945e-08  5.00000000e-01                                 
 2.07157638e-08  6.33173884e-01  2.07157638e-08  5.81557060e-01  2.07157638e-08  1.84572378e+00  2.07157638e-08  1.80000000e+00  2.07157638e-08  5.27681072e-03  2.07157638e-08  5.00000000e-01                                 
 2.61397072e-08  6.28794193e-01  2.61397072e-08  5.77450745e-01  2.61397072e-08  1.83556201e+00  2.61397072e-08  1.80000000e+00  2.61397072e-08 -5.23850327e-03  2.61397072e-08  5.00000000e-01                                 
 3.44047083e-08  6.23293756e-01  3.44047083e-08  5.72224127e-01  3.44047083e-08  1.82211045e+00  3.44047083e-08  1.80000000e+00  3.44047083e-08  5.25419965e-03  3.44047083e-08  5.00000000e-01                                 
 5.09347104e-08  6.14778965e-01  5.09347104e-08  5.64023677e-01  5.09347104e-08  1.79801452e+00  5.09347104e-08  1.80000000e+00  5.09347104e-08 -5.22494809e-03  5.09347104e-08  5.00000000e-01                                 
 7.73190659e-08  6.04843425e-01  7.73190659e-08  5.54361412e-01  7.73190659e-08  1.76386082e+00  7.73190659e-08  1.80000000e+00  7.73190659e-08  5.24707449e-03  7.73190659e-08  5.00000000e-01                                 
 1.30087777e-07  5.87944643e-01  1.30087777e-07  5.38445802e-01  1.30087777e-07  1.69823316e+00  1.30087777e-07  1.80000000e+00  1.30087777e-07 -5.22087904e-03  1.30087777e-07  5.00000000e-01                                 
 1.78312342e-07  5.74967727e-01  1.78312342e-07  5.26566160e-01  1.78312342e-07  1.63970745e+00  1.78312342e-07  1.80000000e+00  1.78312342e-07  5.24421595e-03  1.78312342e-07  5.00000000e-01                                 
 2.67969704e-07  5.55296463e-01  2.67969704e-07  5.08879382e-01  2.67969704e-07  1.53246948e+00  2.67969704e-07  1.80000000e+00  2.67969704e-07 -5.21850820e-03  2.67969704e-07  5.00000000e-01                                 
 3.65449882e-07  5.35051573e-01  3.65449882e-07  4.91345023e-01  3.65449882e-07  1.41418093e+00  3.65449882e-07  1.80000000e+00  3.65449882e-07  5.24266872e-03  3.65449882e-07  5.00000000e-01                                 
 5.60410239e-07  4.92069503e-01  5.60410239e-07  4.55565744e-01  5.60410239e-07  1.17231647e+00  5.60410239e-07  1.80000000e+00  5.60410239e-07 -5.21740108e-03  5.60410239e-07  5.00000000e-01                                 
 5.99689962e-07  4.82296353e-01  5.99689962e-07  4.47639608e-01  5.99689962e-07  1.12190625e+00  5.99689962e-07  1.80000000e+00  5.99689962e-07 -8.99004964e-08  5.99689962e-07  5.00000000e-01                                 
 6.78249407e-07  4.63156035e-01  6.78249407e-07  4.32157730e-01  6.78249407e-07  1.02219208e+00  6.78249407e-07  1.80000000e+00  6.78249407e-07  7.93176623e-07  6.78249407e-07  5.00000000e-01                                 
 6.97889269e-07  4.59676375e-01  6.97889269e-07  4.29348117e-01  6.97889269e-07  9.99682888e-01  6.97889269e-07  1.80000000e+00  6.97889269e-07  3.79653661e-07  6.97889269e-07  5.00000000e-01                                 
 7.37168991e-07  4.56395568e-01  7.37168991e-07  4.26679794e-01  7.37168991e-07  9.60899769e-01  7.37168991e-07  1.80000000e+00  7.37168991e-07  4.58749120e-07  7.37168991e-07  5.00000000e-01                                 
 7.46988922e-07  4.57578567e-01  7.46988922e-07  4.27617985e-01  7.46988922e-07  9.53777263e-01  7.46988922e-07  1.80000000e+00  7.46988922e-07  5.04576541e-07  7.46988922e-07  5.00000000e-01                                 
 7.66628783e-07  4.62611667e-01  7.66628783e-07  4.31629392e-01  7.66628783e-07  9.42198544e-01  7.66628783e-07  1.80000000e+00  7.66628783e-07  6.18743812e-07  7.66628783e-07  5.00000000e-01                                 
 8.05908506e-07  5.06100333e-01  8.05908506e-07  4.66352884e-01  8.05908506e-07  9.48478098e-01  8.05908506e-07  1.80000000e+00  8.05908506e-07  1.23237122e-06  8.05908506e-07  5.00000000e-01                                 
 8.42872651e-07  6.57706378e-01  8.42872651e-07  5.94894132e-01  8.42872651e-07  1.05560044e+00  8.42872651e-07  1.80000000e+00  8.42872651e-07  3.61223045e-06  8.42872651e-07  5.00000000e-01                                 
 8.78289614e-07  7.40436002e-01  8.78289614e-07  6.83046408e-01  8.78289614e-07  1.10257779e+00  8.78289614e-07  1.80000000e+00  8.78289614e-07  4.33566491e-07  8.78289614e-07  5.00000000e-01                                 
 9.13981685e-07  7.69504123e-01  9.13981685e-07  7.11385598e-01  9.13981685e-07  1.09244756e+00  9.13981685e-07  1.80000000e+00  9.13981685e-07  1.55530798e-06  9.13981685e-07  5.00000000e-01                                 
 9.57741229e-07  7.87068095e-01  9.57741229e-07  7.26906396e-01  9.57741229e-07  1.06546100e+00  9.57741229e-07  1.80000000e+00  9.57741229e-07 -4.46479785e-08  9.57741229e-07  5.00000000e-01                                 
 1.00282200e-06  7.93437313e-01  1.00282200e-06  7.32582372e-01  1.00282200e-06  1.02413577e+00  1.00282200e-06  1.80000000e+00  1.00282200e-06  1.12002718e-06  1.00282200e-06  5.00000000e-01                                 
 1.01350175e-06  7.94308222e-01  1.01350175e-06  7.33250547e-01  1.01350175e-06  1.01499016e+00  1.01350175e-06  1.80000000e+00  1.01350175e-06  5.42499862e-07  1.01350175e-06  5.00000000e-01                                 
 1.03486124e-06  7.95345843e-01  1.03486124e-06  7.34126641e-01  1.03486124e-06  9.95343119e-01  1.03486124e-06  1.80000000e+00  1.03486124e-06  4.47010927e-07  1.03486124e-06  5.00000000e-01                                 
 1.07758022e-06  7.96586170e-01  1.07758022e-06  7.35181060e-01  1.07758022e-06  9.58158094e-01  1.07758022e-06  1.80000000e+00  1.07758022e-06  5.04474321e-07  1.07758022e-06  5.00000000e-01                                 
 1.14961873e-06  7.84813738e-01  1.14961873e-06  7.25053866e-01  1.14961873e-06  8.94248720e-01  1.14961873e-06  1.80000000e+00  1.14961873e-06  1.95345758e-07  1.14961873e-06  5.00000000e-01                                 
 1.22440310e-06  7.72389372e-01  1.22440310e-06  7.13897535e-01  1.22440310e-06  8.35767229e-01  1.22440310e-06  1.80000000e+00  1.22440310e-06  4.84496593e-07  1.22440310e-06  5.00000000e-01                                 
 1.31563556e-06  7.86117971e-01  1.31563556e-06  7.26166563e-01  1.31563556e-06  7.95379500e-01  1.31563556e-06  1.80000000e+00  1.31563556e-06  6.28712313e-07  1.31563556e-06  5.00000000e-01                                 
 1.40510742e-06  7.90026000e-01  1.40510742e-06  7.29587568e-01  1.40510742e-06  7.50125808e-01  1.40510742e-06  1.80000000e+00  1.40510742e-06  3.51919204e-07  1.40510742e-06  5.00000000e-01                                 
 1.41748928e-06  7.86632873e-01  1.41748928e-06  7.26646968e-01  1.41748928e-06  7.40667478e-01  1.41748928e-06  1.80000000e+00  1.41748928e-06  2.71766060e-07  1.41748928e-06  5.00000000e-01                                 
 1.44225298e-06  7.80012680e-01  1.44225298e-06  7.20794700e-01  1.44225298e-06  7.21994009e-01  1.44225298e-06  1.80000000e+00  1.44225298e-06  2.72194995e-07  1.44225298e-06  5.00000000e-01                                 
 1.49178040e-06  7.78563216e-01  1.49178040e-06  7.19472468e-01  1.49178040e-06  6.95680750e-01  1.49178040e-06  1.80000000e+00  1.49178040e-06  5.84935090e-07  1.49178040e-06  5.00000000e-01                                 
 1.58220329e-06  7.87610460e-01  1.58220329e-06  7.27482863e-01  1.58220329e-06  6.59106912e-01  1.58220329e-06  1.80000000e+00  1.58220329e-06  4.66059908e-07  1.58220329e-06  5.00000000e-01                                 
 1.67289334e-06  7.82290854e-01  1.67289334e-06  7.22816003e-01  1.67289334e-06  6.11485670e-01  1.67289334e-06  1.80000000e+00  1.67289334e-06  3.67940687e-07  1.67289334e-06  5.00000000e-01                                 
 1.79592686e-06  7.81923281e-01  1.79592686e-06  7.22474049e-01  1.79592686e-06  5.58160602e-01  1.79592686e-06  1.80000000e+00  1.79592686e-06  5.36042472e-07  1.79592686e-06  5.00000000e-01                                 
 1.94651959e-06  7.85895019e-01  1.94651959e-06  7.25989613e-01  1.94651959e-06  5.18440492e-01  1.94651959e-06  1.80000000e+00  1.94651959e-06  4.16781294e-07  1.94651959e-06  5.00000000e-01                                 
 2.17623748e-06  7.80778074e-01  2.17623748e-06  7.21461145e-01  2.17623748e-06  4.92090863e-01  2.17623748e-06  1.80000000e+00  2.17623748e-06  4.64098665e-07  2.17623748e-06  5.00000000e-01                                 
 2.40330788e-06  7.85459023e-01  2.40330788e-06  7.25602622e-01  2.40330788e-06  5.01755989e-01  2.40330788e-06  1.80000000e+00  2.40330788e-06  4.76028220e-07  2.40330788e-06  5.00000000e-01                                 
 2.62821166e-06  7.82033545e-01  2.62821166e-06  7.22581645e-01  2.62821166e-06  5.00881271e-01  2.62821166e-06  1.80000000e+00  2.62821166e-06  4.13007253e-07  2.62821166e-06  5.00000000e-01                                 
 2.90212973e-06  7.84033343e-01  2.90212973e-06  7.24345964e-01  2.90212973e-06  4.99159982e-01  2.90212973e-06  1.80000000e+00  2.90212973e-06  5.07587018e-07  2.90212973e-06  5.00000000e-01                                 
 3.22523136e-06  7.83405446e-01  3.22523136e-06  7.23797431e-01  3.22523136e-06  5.01041232e-01  3.22523136e-06  1.80000000e+00  3.22523136e-06  4.01022680e-07  3.22523136e-06  5.00000000e-01                                 
 3.67224903e-06  7.83023335e-01  3.67224903e-06  7.23453760e-01  3.67224903e-06  4.99441067e-01  3.67224903e-06  1.80000000e+00  3.67224903e-06  5.07968846e-07  3.67224903e-06  5.00000000e-01                                 
 4.37589981e-06  7.84039463e-01  4.37589981e-06  7.24356744e-01  4.37589981e-06  5.00921676e-01  4.37589981e-06  1.80000000e+00  4.37589981e-06  4.05094427e-07  4.37589981e-06  5.00000000e-01                                 
 5.25732490e-06  7.82616482e-01  5.25732490e-06  7.23093934e-01  5.25732490e-06  4.99436414e-01  5.25732490e-06  1.80000000e+00  5.25732490e-06  5.03109766e-07  5.25732490e-06  5.00000000e-01                                 
 6.25732490e-06  7.84336087e-01  6.25732490e-06  7.24617774e-01  6.25732490e-06  5.00959822e-01  6.25732490e-06  1.80000000e+00  6.25732490e-06  4.10211953e-07  6.25732490e-06  5.00000000e-01                                 
 7.25732490e-06  7.82356331e-01  7.25732490e-06  7.22863809e-01  7.25732490e-06  4.99360852e-01  7.25732490e-06  1.80000000e+00  7.25732490e-06  4.97544765e-07  7.25732490e-06  5.00000000e-01                                 
 8.25732490e-06  7.84555616e-01  8.25732490e-06  7.24810610e-01  8.25732490e-06  5.01048542e-01  8.25732490e-06  1.80000000e+00  8.25732490e-06  4.16409158e-07  8.25732490e-06  5.00000000e-01                                 
 9.25732490e-06  7.82155026e-01  9.25732490e-06  7.22685807e-01  9.25732490e-06  4.99251591e-01  9.25732490e-06  1.80000000e+00  9.25732490e-06  4.90801573e-07  9.25732490e-06  5.00000000e-01                                 
 1.00005000e-05  7.84736633e-01  1.00005000e-05  7.24969248e-01  1.00005000e-05  5.01182011e-01  1.00005000e-05  1.80000000e+00  1.00005000e-05  4.24925400e-07  1.00005000e-05  5.00000000e-01                                 
 1.00005500e-05  7.84735501e-01  1.00005500e-05  7.24968382e-01  1.00005500e-05  4.93226938e-01  1.00005500e-05  1.62000000e+00  1.00005500e-05 -7.66132339e-05  1.00005500e-05  5.00000000e-01                                 
 1.00006500e-05  7.84733317e-01  1.00006500e-05  7.24966557e-01  1.00006500e-05  4.79446290e-01  1.00006500e-05  1.26000000e+00  1.00006500e-05 -5.75971200e-05  1.00006500e-05  5.00000000e-01                                 
 1.00008500e-05  7.84728229e-01  1.00008500e-05  7.24962177e-01  1.00008500e-05  4.77708343e-01  1.00008500e-05  5.40000000e-01  1.00008500e-05 -3.13669549e-03  1.00008500e-05  5.00000000e-01                                 
 1.00010000e-05  7.84723609e-01  1.00010000e-05  7.24958262e-01  1.00010000e-05  4.38826432e-01  1.00010000e-05  0.00000000e+00  1.00010000e-05  1.56854949e+00  1.00010000e-05  5.00000000e-01                                 
 1.00010191e-05  7.84722944e-01  1.00010191e-05  7.24957704e-01  1.00010191e-05  4.15527876e-01  1.00010191e-05  0.00000000e+00  1.00010191e-05  1.70501834e+00  1.00010191e-05  5.00000000e-01                                 
 1.00010572e-05  7.84721638e-01  1.00010572e-05  7.24956589e-01  1.00010572e-05  3.67703276e-01  1.00010572e-05  0.00000000e+00  1.00010572e-05  1.81330367e+00  1.00010572e-05  5.00000000e-01                                 
 1.00011335e-05  7.84719137e-01  1.00011335e-05  7.24954387e-01  1.00011335e-05  3.01749694e-01  1.00011335e-05  0.00000000e+00  1.00011335e-05  1.79025258e+00  1.00011335e-05  5.00000000e-01                                 
 1.00012280e-05  7.84716005e-01  1.00012280e-05  7.24951655e-01  1.00012280e-05  2.78295973e-01  1.00012280e-05  0.00000000e+00  1.00012280e-05  1.80397993e+00  1.00012280e-05  5.00000000e-01                                 
 1.00013998e-05  7.84709874e-01  1.00013998e-05  7.24946387e-01  1.00013998e-05  2.74238285e-01  1.00013998e-05  0.00000000e+00  1.00013998e-05  1.79662913e+00  1.00013998e-05  5.00000000e-01                                 
 1.00015587e-05  7.84703763e-01  1.00015587e-05  7.24941123e-01  1.00015587e-05  2.75957253e-01  1.00015587e-05  0.00000000e+00  1.00015587e-05  1.80221756e+00  1.00015587e-05  5.00000000e-01                                 
 1.00018764e-05  7.84690529e-01  1.00018764e-05  7.24929692e-01  1.00018764e-05  2.76160423e-01  1.00018764e-05  0.00000000e+00  1.00018764e-05  1.79813162e+00  1.00018764e-05  5.00000000e-01                                 
