 time            v(vbep)         time            v(vben)         time            v(vout)         time            v(vphi1)        time            v(vphi2)        time            v(vref)         time            v(voutc)        time            v(voutcc)       yes             currtemp       
 0.00000000e+00  6.69942531e-01  0.00000000e+00  5.96817015e-01  0.00000000e+00  1.36064959e+00  0.00000000e+00  0.00000000e+00  0.00000000e+00  1.79999998e+00  0.00000000e+00  5.95560498e-01  0.00000000e+00  1.36064958e+00  0.00000000e+00  1.36914938e+00  1.00000000e+00  9.50000000e+01 
 1.00000000e-11  6.69967891e-01  1.00000000e-11  5.96888469e-01  1.00000000e-11  1.36136106e+00  1.00000000e-11  1.80000000e-02  1.00000000e-11  1.80024194e+00  1.00000000e-11  5.96062936e-01  1.00000000e-11  1.36109026e+00  1.00000000e-11  1.36916088e+00                                 
 2.00000000e-11  6.69974573e-01  2.00000000e-11  5.96931545e-01  2.00000000e-11  1.36177759e+00  2.00000000e-11  3.60000000e-02  2.00000000e-11  1.80033360e+00  2.00000000e-11  5.96430514e-01  2.00000000e-11  1.36141625e+00  2.00000000e-11  1.36916456e+00                                 
 4.00000000e-11  6.69974249e-01  4.00000000e-11  5.96986372e-01  4.00000000e-11  1.36225081e+00  4.00000000e-11  7.20000000e-02  4.00000000e-11  1.80036082e+00  4.00000000e-11  5.96961330e-01  4.00000000e-11  1.36189179e+00  4.00000000e-11  1.36916463e+00                                 
 8.00000000e-11  6.69962439e-01  8.00000000e-11  5.97017218e-01  8.00000000e-11  1.36227990e+00  8.00000000e-11  1.44000000e-01  8.00000000e-11  1.80015915e+00  8.00000000e-11  5.97361543e-01  8.00000000e-11  1.36225498e+00  8.00000000e-11  1.36915478e+00                                 
 1.60000000e-10  6.69959701e-01  1.60000000e-10  5.97022058e-01  1.60000000e-10  1.36196474e+00  1.60000000e-10  2.88000000e-01  1.60000000e-10  1.80000376e+00  1.60000000e-10  5.97447548e-01  1.60000000e-10  1.36228862e+00  1.60000000e-10  1.36914656e+00                                 
 3.20000000e-10  6.69954199e-01  3.20000000e-10  5.97010424e-01  3.20000000e-10  1.36163538e+00  3.20000000e-10  5.76000000e-01  3.20000000e-10  1.79998724e+00  3.20000000e-10  5.97333652e-01  3.20000000e-10  1.36200756e+00  3.20000000e-10  1.36914164e+00                                 
 6.40000000e-10  6.69873645e-01  6.40000000e-10  5.96498306e-01  6.40000000e-10  1.35986856e+00  6.40000000e-10  1.15200000e+00  6.40000000e-10  1.80611452e+00  6.40000000e-10  5.93530598e-01  6.40000000e-10  1.36336710e+00  6.40000000e-10  1.36915556e+00                                 
 1.00000000e-09  6.70467218e-01  1.00000000e-09  5.97057039e-01  1.00000000e-09  1.34046040e+00  1.00000000e-09  1.80000000e+00  1.00000000e-09  1.20828311e-01  1.00000000e-09  6.06364746e-01  1.00000000e-09  1.36869883e+00  1.00000000e-09  1.36918110e+00                                 
 1.03864937e-09  6.70557763e-01  1.03864937e-09  5.97016583e-01  1.03864937e-09  1.33829402e+00  1.03864937e-09  1.80000000e+00  1.03864937e-09  3.02094457e-02  1.03864937e-09  6.08295652e-01  1.03864937e-09  1.36935523e+00  1.03864937e-09  1.36918160e+00                                 
 1.11594810e-09  6.70745211e-01  1.11594810e-09  5.96998230e-01  1.11594810e-09  1.33609941e+00  1.11594810e-09  1.80000000e+00  1.11594810e-09 -1.32315624e-02  1.11594810e-09  6.10480224e-01  1.11594810e-09  1.37090932e+00  1.11594810e-09  1.36918845e+00                                 
 1.27054557e-09  6.70835378e-01  1.27054557e-09  5.96840612e-01  1.27054557e-09  1.33354757e+00  1.27054557e-09  1.80000000e+00  1.27054557e-09  1.01026040e-02  1.27054557e-09  6.09274149e-01  1.27054557e-09  1.37017756e+00  1.27054557e-09  1.36916320e+00                                 
 1.49201992e-09  6.70732096e-01  1.49201992e-09  5.96838088e-01  1.49201992e-09  1.33266054e+00  1.49201992e-09  1.80000000e+00  1.49201992e-09 -7.95863153e-03  1.49201992e-09  6.08183583e-01  1.49201992e-09  1.36900601e+00  1.49201992e-09  1.36921429e+00                                 
 1.72198728e-09  6.70565249e-01  1.72198728e-09  5.96834923e-01  1.72198728e-09  1.33231407e+00  1.72198728e-09  1.80000000e+00  1.72198728e-09  6.50495245e-03  1.72198728e-09  6.06746808e-01  1.72198728e-09  1.36798354e+00  1.72198728e-09  1.36926044e+00                                 
 2.18192201e-09  6.70242827e-01  2.18192201e-09  5.96810184e-01  2.18192201e-09  1.33079506e+00  2.18192201e-09  1.80000000e+00  2.18192201e-09 -5.88485419e-03  2.18192201e-09  6.04299586e-01  2.18192201e-09  1.36571693e+00  2.18192201e-09  1.36940557e+00                                 
 2.86166838e-09  6.69978699e-01  2.86166838e-09  5.96824152e-01  2.86166838e-09  1.32785771e+00  2.86166838e-09  1.80000000e+00  2.86166838e-09  5.47879033e-03  2.86166838e-09  6.01561411e-01  2.86166838e-09  1.36354587e+00  2.86166838e-09  1.36958319e+00                                 
 4.22116114e-09  6.69761671e-01  4.22116114e-09  5.96791817e-01  4.22116114e-09  1.31969970e+00  4.22116114e-09  1.80000000e+00  4.22116114e-09 -5.30229223e-03  4.22116114e-09  5.97695449e-01  4.22116114e-09  1.36009621e+00  4.22116114e-09  1.36980028e+00                                 
 5.64385198e-09  6.69747210e-01  5.64385198e-09  5.96815258e-01  5.64385198e-09  1.31060758e+00  5.64385198e-09  1.80000000e+00  5.64385198e-09  5.13735843e-03  5.64385198e-09  5.95842972e-01  5.64385198e-09  1.35867532e+00  5.64385198e-09  1.36979939e+00                                 
 6.92367461e-09  6.69758059e-01  6.92367461e-09  5.96791194e-01  6.92367461e-09  1.30114210e+00  6.92367461e-09  1.80000000e+00  6.92367461e-09 -4.94485970e-03  6.92367461e-09  5.94812908e-01  6.92367461e-09  1.35765087e+00  6.92367461e-09  1.36968434e+00                                 
 8.33238956e-09  6.69809336e-01  8.33238956e-09  5.96821384e-01  8.33238956e-09  1.29016227e+00  8.33238956e-09  1.80000000e+00  8.33238956e-09  4.80152109e-03  8.33238956e-09  5.94542963e-01  8.33238956e-09  1.35756147e+00  8.33238956e-09  1.36948563e+00                                 
 1.01522349e-08  6.69847911e-01  1.01522349e-08  5.96797482e-01  1.01522349e-08  1.27425106e+00  1.01522349e-08  1.80000000e+00  1.01522349e-08 -4.66410188e-03  1.01522349e-08  5.94174769e-01  1.01522349e-08  1.35709918e+00  1.01522349e-08  1.36920664e+00                                 
 1.24875770e-08  6.69907855e-01  1.24875770e-08  5.96828587e-01  1.24875770e-08  1.25309148e+00  1.24875770e-08  1.80000000e+00  1.24875770e-08  4.59500965e-03  1.24875770e-08  5.94392252e-01  1.24875770e-08  1.35740776e+00  1.24875770e-08  1.36884716e+00                                 
 1.55841451e-08  6.69931279e-01  1.55841451e-08  5.96802173e-01  1.55841451e-08  1.22324563e+00  1.55841451e-08  1.80000000e+00  1.55841451e-08 -4.50478005e-03  1.55841451e-08  5.94364773e-01  1.55841451e-08  1.35723148e+00  1.55841451e-08  1.36843234e+00                                 
 1.98842036e-08  6.69960356e-01  1.98842036e-08  5.96831733e-01  1.98842036e-08  1.18142273e+00  1.98842036e-08  1.80000000e+00  1.98842036e-08  4.48173106e-03  1.98842036e-08  5.94807672e-01  1.98842036e-08  1.35772321e+00  1.98842036e-08  1.36796688e+00                                 
 2.67194033e-08  6.69949880e-01  2.67194033e-08  5.96803322e-01  2.67194033e-08  1.11399479e+00  2.67194033e-08  1.80000000e+00  2.67194033e-08 -4.42703742e-03  2.67194033e-08  5.94903700e-01  2.67194033e-08  1.35765348e+00  2.67194033e-08  1.36746062e+00                                 
 3.49838690e-08  6.69955787e-01  3.49838690e-08  5.96831335e-01  3.49838690e-08  1.03373345e+00  3.49838690e-08  1.80000000e+00  3.49838690e-08  4.42825624e-03  3.49838690e-08  5.95322414e-01  3.49838690e-08  1.35813097e+00  3.49838690e-08  1.36709847e+00                                 
 5.09991793e-08  6.69936982e-01  5.09991793e-08  5.96803141e-01  5.09991793e-08  8.80695228e-01  5.09991793e-08  1.80000000e+00  5.09991793e-08 -4.38930886e-03  5.09991793e-08  5.95341057e-01  5.09991793e-08  1.35800823e+00  5.09991793e-08  1.36680013e+00                                 
 7.42797309e-08  6.69953127e-01  7.42797309e-08  5.96831067e-01  7.42797309e-08  6.86290112e-01  7.42797309e-08  1.80000000e+00  7.42797309e-08  4.41301565e-03  7.42797309e-08  5.95632703e-01  7.42797309e-08  1.35838708e+00  7.42797309e-08  1.36672340e+00                                 
 9.68505718e-08  6.69935968e-01  9.68505718e-08  5.96803690e-01  9.68505718e-08  6.03927787e-01  9.68505718e-08  1.80000000e+00  9.68505718e-08 -4.36099612e-03  9.68505718e-08  5.95475468e-01  9.68505718e-08  1.35812267e+00  9.68505718e-08  1.36674723e+00                                 
 1.17283037e-07  6.69945063e-01  1.17283037e-07  5.96829957e-01  1.17283037e-07  5.96877373e-01  1.17283037e-07  1.80000000e+00  1.17283037e-07  4.40017081e-03  1.17283037e-07  5.95654829e-01  1.17283037e-07  1.35840590e+00  1.17283037e-07  1.36675907e+00                                 
 1.30845675e-07  6.69937178e-01  1.30845675e-07  5.96803981e-01  1.30845675e-07  5.94642403e-01  1.30845675e-07  1.80000000e+00  1.30845675e-07 -4.33725544e-03  1.30845675e-07  5.95467196e-01  1.30845675e-07  1.35811529e+00  1.30845675e-07  1.36676248e+00                                 
 1.48849797e-07  6.69948163e-01  1.48849797e-07  5.96830059e-01  1.48849797e-07  5.94978154e-01  1.48849797e-07  1.80000000e+00  1.48849797e-07  4.37565036e-03  1.48849797e-07  5.95656073e-01  1.48849797e-07  1.35840561e+00  1.48849797e-07  1.36676147e+00                                 
 1.84858039e-07  6.69936493e-01  1.84858039e-07  5.96803915e-01  1.84858039e-07  5.93902265e-01  1.84858039e-07  1.80000000e+00  1.84858039e-07 -4.32151918e-03  1.84858039e-07  5.95464823e-01  1.84858039e-07  1.35811169e+00  1.84858039e-07  1.36676226e+00                                 
 2.37130130e-07  6.69948763e-01  2.37130130e-07  5.96830132e-01  2.37130130e-07  5.94707781e-01  2.37130130e-07  1.80000000e+00  2.37130130e-07  4.36675754e-03  2.37130130e-07  5.95656385e-01  2.37130130e-07  1.35840280e+00  2.37130130e-07  1.36675864e+00                                 
 3.31545440e-07  6.69936203e-01  3.31545440e-07  5.96803875e-01  3.31545440e-07  5.93922681e-01  3.31545440e-07  1.80000000e+00  3.31545440e-07 -4.31593146e-03  3.31545440e-07  5.95464462e-01  3.31545440e-07  1.35810656e+00  3.31545440e-07  1.36675727e+00                                 
 4.89558468e-07  6.69948913e-01  4.89558468e-07  5.96830154e-01  4.89558468e-07  5.94688667e-01  4.89558468e-07  1.80000000e+00  4.89558468e-07  4.36354853e-03  4.89558468e-07  5.95656582e-01  4.89558468e-07  1.35839449e+00  4.89558468e-07  1.36675022e+00                                 
 7.53985723e-07  6.69936118e-01  7.53985723e-07  5.96803862e-01  7.53985723e-07  5.93927098e-01  7.53985723e-07  1.80000000e+00  7.53985723e-07 -4.31403176e-03  7.53985723e-07  5.95464348e-01  7.53985723e-07  1.35809238e+00  7.53985723e-07  1.36674317e+00                                 
 1.28284023e-06  6.69948959e-01  1.28284023e-06  5.96830162e-01  1.28284023e-06  5.94683079e-01  1.28284023e-06  1.80000000e+00  1.28284023e-06  4.36247302e-03  1.28284023e-06  5.95656645e-01  1.28284023e-06  1.35836803e+00  1.28284023e-06  1.36672375e+00                                 
 2.34054925e-06  6.69936095e-01  2.34054925e-06  5.96803858e-01  2.34054925e-06  5.93928060e-01  2.34054925e-06  1.80000000e+00  2.34054925e-06 -4.31349893e-03  2.34054925e-06  5.95464316e-01  2.34054925e-06  1.35803938e+00  2.34054925e-06  1.36669025e+00                                 
 3.54054925e-06  6.69948974e-01  3.54054925e-06  5.96830164e-01  3.54054925e-06  5.94681427e-01  3.54054925e-06  1.80000000e+00  3.54054925e-06  4.36213582e-03  3.54054925e-06  5.95656664e-01  3.54054925e-06  1.35829269e+00  3.54054925e-06  1.36664847e+00                                 
 4.74054925e-06  6.69936082e-01  4.74054925e-06  5.96803856e-01  4.74054925e-06  5.93929013e-01  4.74054925e-06  1.80000000e+00  4.74054925e-06 -4.31318585e-03  4.74054925e-06  5.95464299e-01  4.74054925e-06  1.35795929e+00  4.74054925e-06  1.36661026e+00                                 
 5.94054925e-06  6.69948987e-01  5.94054925e-06  5.96830166e-01  5.94054925e-06  5.94678394e-01  5.94054925e-06  1.80000000e+00  5.94054925e-06  4.36181982e-03  5.94054925e-06  5.95656683e-01  5.94054925e-06  1.35821263e+00  5.94054925e-06  1.36656850e+00                                 
 6.00100000e-06  6.69935952e-01  6.00100000e-06  5.96803833e-01  6.00100000e-06  5.93937186e-01  6.00100000e-06  1.80000000e+00  6.00100000e-06 -4.30992253e-03  6.00100000e-06  5.95464115e-01  6.00100000e-06  1.35791713e+00  6.00100000e-06  1.36656827e+00                                 
 6.00110000e-06  6.69891813e-01  6.00110000e-06  5.96581375e-01  6.00110000e-06  5.92395620e-01  6.00110000e-06  1.62000000e+00  6.00110000e-06 -5.09227579e-04  6.00110000e-06  5.94076978e-01  6.00110000e-06  1.35679175e+00  6.00110000e-06  1.36655868e+00                                 
 6.00130000e-06  6.69927615e-01  6.00130000e-06  5.96571725e-01  6.00130000e-06  5.92375619e-01  6.00130000e-06  1.26000000e+00  6.00130000e-06  3.44087050e-04  6.00130000e-06  5.93687280e-01  6.00130000e-06  1.35647293e+00  6.00130000e-06  1.36657042e+00                                 
 6.00164240e-06  6.69997375e-01  6.00164240e-06  5.96782199e-01  6.00164240e-06  5.94532643e-01  6.00164240e-06  6.43676906e-01  6.00164240e-06  1.22720492e-02  6.00164240e-06  5.94011653e-01  6.00164240e-06  1.35354210e+00  6.00164240e-06  1.36654998e+00                                 
 6.00196129e-06  6.69933088e-01  6.00196129e-06  5.95727533e-01  6.00196129e-06  6.25083866e-01  6.00196129e-06  6.96720403e-02  6.00196129e-06  1.58786578e+00  6.00196129e-06  5.82961696e-01  6.00196129e-06  1.17535692e+00  6.00196129e-06  1.36596167e+00                                 
 6.00200000e-06  6.69900607e-01  6.00200000e-06  5.94832319e-01  6.00200000e-06  6.35912392e-01  6.00200000e-06  0.00000000e+00  6.00200000e-06  1.75919467e+00  6.00200000e-06  5.73710032e-01  6.00200000e-06  1.11254164e+00  6.00200000e-06  1.36575969e+00                                 
 6.00202755e-06  6.69943216e-01  6.00202755e-06  5.94469306e-01  6.00202755e-06  6.39718873e-01  6.00202755e-06  0.00000000e+00  6.00202755e-06  1.77893204e+00  6.00202755e-06  5.68976678e-01  6.00202755e-06  1.06114553e+00  6.00202755e-06  1.36585537e+00                                 
 6.00208266e-06  6.69951420e-01  6.00208266e-06  5.93988644e-01  6.00208266e-06  6.41020169e-01  6.00208266e-06  0.00000000e+00  6.00208266e-06  1.79753266e+00  6.00208266e-06  5.63327342e-01  6.00208266e-06  9.65968824e-01  6.00208266e-06  1.36625480e+00                                 
 6.00217891e-06  6.69937176e-01  6.00217891e-06  5.93887093e-01  6.00217891e-06  6.34859093e-01  6.00217891e-06  0.00000000e+00  6.00217891e-06  1.79721093e+00  6.00217891e-06  5.62660628e-01  6.00217891e-06  8.32569165e-01  6.00217891e-06  1.36666415e+00                                 
 6.00237143e-06  6.69948191e-01  6.00237143e-06  5.94853150e-01  6.00237143e-06  6.17890339e-01  6.00237143e-06  0.00000000e+00  6.00237143e-06  1.79921952e+00  6.00237143e-06  5.73151484e-01  6.00237143e-06  6.78142679e-01  6.00237143e-06  1.36702522e+00                                 
 6.00255823e-06  6.69937409e-01  6.00255823e-06  5.95973692e-01  6.00255823e-06  6.04025934e-01  6.00255823e-06  0.00000000e+00  6.00255823e-06  1.80001045e+00  6.00255823e-06  5.84690061e-01  6.00255823e-06  6.23811316e-01  6.00255823e-06  1.36697672e+00                                 
 6.00273346e-06  6.69946486e-01  6.00273346e-06  5.96610296e-01  6.00273346e-06  5.99146508e-01  6.00273346e-06  0.00000000e+00  6.00273346e-06  1.80011574e+00  6.00273346e-06  5.90568684e-01  6.00273346e-06  6.06287365e-01  6.00273346e-06  1.36638097e+00                                 
 6.00292511e-06  6.69938726e-01  6.00292511e-06  5.96976064e-01  6.00292511e-06  5.96164311e-01  6.00292511e-06  0.00000000e+00  6.00292511e-06  1.80003006e+00  6.00292511e-06  5.93847673e-01  6.00292511e-06  5.99308213e-01  6.00292511e-06  1.36533072e+00                                 
 6.00317553e-06  6.69945661e-01  6.00317553e-06  5.97167751e-01  6.00317553e-06  5.95730002e-01  6.00317553e-06  0.00000000e+00  6.00317553e-06  1.80005653e+00  6.00317553e-06  5.95448948e-01  6.00317553e-06  5.96179054e-01  6.00317553e-06  1.36368366e+00                                 
 6.00356043e-06  6.69939555e-01  6.00356043e-06  5.97243405e-01  6.00356043e-06  5.95763051e-01  6.00356043e-06  0.00000000e+00  6.00356043e-06  1.79999257e+00  6.00356043e-06  5.96357995e-01  6.00356043e-06  5.95895621e-01  6.00356043e-06  1.36082613e+00                                 
 6.00414130e-06  6.69945420e-01  6.00414130e-06  5.97215448e-01  6.00414130e-06  5.97635582e-01  6.00414130e-06  0.00000000e+00  6.00414130e-06  1.80003823e+00  6.00414130e-06  5.96513628e-01  6.00414130e-06  5.97164484e-01  6.00414130e-06  1.35619851e+00                                 
 6.00508701e-06  6.69939845e-01  6.00508701e-06  5.97155919e-01  6.00508701e-06  6.00156830e-01  6.00508701e-06  0.00000000e+00  6.00508701e-06  1.79999029e+00  6.00508701e-06  5.96704398e-01  6.00508701e-06  6.00095727e-01  6.00508701e-06  1.34818014e+00                                 
 6.00697844e-06  6.69945231e-01  6.00697844e-06  5.97028507e-01  6.00697844e-06  6.06303662e-01  6.00697844e-06  0.00000000e+00  6.00697844e-06  1.80003666e+00  6.00697844e-06  5.96599820e-01  6.00697844e-06  6.05791071e-01  6.00697844e-06  1.33120754e+00                                 
 6.01076128e-06  6.69939842e-01  6.01076128e-06  5.96867846e-01  6.01076128e-06  6.17563203e-01  6.01076128e-06  0.00000000e+00  6.01076128e-06  1.79998952e+00  6.01076128e-06  5.96505953e-01  6.01076128e-06  6.17464804e-01  6.01076128e-06  1.29600871e+00                                 
 6.01675783e-06  6.69945185e-01  6.01675783e-06  5.96797410e-01  6.01675783e-06  6.35745233e-01  6.01675783e-06  0.00000000e+00  6.01675783e-06  1.80003584e+00  6.01675783e-06  5.96153052e-01  6.01675783e-06  6.35173240e-01  6.01675783e-06  1.23921242e+00                                 
 6.02875092e-06  6.69939872e-01  6.02875092e-06  5.96810935e-01  6.02875092e-06  6.69842013e-01  6.02875092e-06  0.00000000e+00  6.02875092e-06  1.79998880e+00  6.02875092e-06  5.95891531e-01  6.02875092e-06  6.69708580e-01  6.02875092e-06  1.12453729e+00                                 
 6.04254846e-06  6.69945178e-01  6.04254846e-06  5.96810459e-01  6.04254846e-06  7.07479884e-01  6.04254846e-06  0.00000000e+00  6.04254846e-06  1.80003444e+00  6.04254846e-06  5.95625554e-01  6.04254846e-06  7.06790106e-01  6.04254846e-06  9.95571819e-01                                 
 6.05976561e-06  6.69939887e-01  6.05976561e-06  5.96818870e-01  6.05976561e-06  7.50621554e-01  6.05976561e-06  0.00000000e+00  6.05976561e-06  1.79998723e+00  6.05976561e-06  5.95630864e-01  6.05976561e-06  7.50466083e-01  6.05976561e-06  8.65719896e-01                                 
 6.08245441e-06  6.69945171e-01  6.08245441e-06  5.96813993e-01  6.08245441e-06  8.03137503e-01  6.08245441e-06  0.00000000e+00  6.08245441e-06  1.80003217e+00  6.08245441e-06  5.95511775e-01  6.08245441e-06  8.02278332e-01  6.08245441e-06  7.97897528e-01                                 
 6.10476158e-06  6.69939895e-01  6.10476158e-06  5.96819834e-01  6.10476158e-06  8.48934936e-01  6.10476158e-06  0.00000000e+00  6.10476158e-06  1.79998504e+00  6.10476158e-06  5.95598124e-01  6.10476158e-06  8.48913869e-01  6.10476158e-06  8.24210361e-01                                 
 6.11783144e-06  6.69945161e-01  6.11783144e-06  5.96814125e-01  6.11783144e-06  8.73987871e-01  6.11783144e-06  0.00000000e+00  6.11783144e-06  1.80003015e+00  6.11783144e-06  5.95503269e-01  6.11783144e-06  8.72928052e-01  6.11783144e-06  8.49817609e-01                                 
