 time            v(vbep)         time            v(vben)         time            v(vout)         time            v(vphi1)        time            v(vphi2)        time            v(vref)         yes             currtemp       
 0.00000000e+00  6.37994277e-01  0.00000000e+00  5.78034381e-01  0.00000000e+00  1.13672452e+00  0.00000000e+00  0.00000000e+00  0.00000000e+00  1.79995144e+00  0.00000000e+00  5.00000000e-01  1.00000000e+00  5.50000000e+01 
 5.00000000e-12  6.37962019e-01  5.00000000e-12  5.78007721e-01  5.00000000e-12  1.13749370e+00  5.00000000e-12  1.80000000e-02  5.00000000e-12  1.80006276e+00  5.00000000e-12  5.00000000e-01                                 
 1.00000000e-11  6.37930684e-01  1.00000000e-11  5.77981793e-01  1.00000000e-11  1.13819735e+00  1.00000000e-11  3.60000000e-02  1.00000000e-11  1.80011988e+00  1.00000000e-11  5.00000000e-01                                 
 2.00000000e-11  6.37868584e-01  2.00000000e-11  5.77930147e-01  2.00000000e-11  1.13950719e+00  2.00000000e-11  7.20000000e-02  2.00000000e-11  1.80017154e+00  2.00000000e-11  5.00000000e-01                                 
 4.00000000e-11  6.37745357e-01  4.00000000e-11  5.77827279e-01  4.00000000e-11  1.14168900e+00  4.00000000e-11  1.44000000e-01  4.00000000e-11  1.80013495e+00  4.00000000e-11  5.00000000e-01                                 
 8.00000000e-11  6.37500158e-01  8.00000000e-11  5.77622507e-01  8.00000000e-11  1.14499755e+00  8.00000000e-11  2.88000000e-01  8.00000000e-11  1.80006040e+00  8.00000000e-11  5.00000000e-01                                 
 1.60000000e-10  6.37015184e-01  1.60000000e-10  5.77216771e-01  1.60000000e-10  1.14938328e+00  1.60000000e-10  5.76000000e-01  1.60000000e-10  1.80000335e+00  1.60000000e-10  5.00000000e-01                                 
 3.20000000e-10  6.36065580e-01  3.20000000e-10  5.76419972e-01  3.20000000e-10  1.14623513e+00  3.20000000e-10  1.15200000e+00  3.20000000e-10  1.80044623e+00  3.20000000e-10  5.00000000e-01                                 
 5.00000000e-10  6.35028567e-01  5.00000000e-10  5.75546109e-01  5.00000000e-10  1.27281053e+00  5.00000000e-10  1.80000000e+00  5.00000000e-10  1.24783222e-01  5.00000000e-10  5.00000000e-01                                 
 5.21840219e-10  6.34905164e-01  5.21840219e-10  5.75441844e-01  5.21840219e-10  1.30289055e+00  5.21840219e-10  1.80000000e+00  5.21840219e-10  2.56319513e-02  5.21840219e-10  5.00000000e-01                                 
 5.65520658e-10  6.34659246e-01  5.65520658e-10  5.75233944e-01  5.65520658e-10  1.35759142e+00  5.65520658e-10  1.80000000e+00  5.65520658e-10 -1.15713010e-02  5.65520658e-10  5.00000000e-01                                 
 6.52881536e-10  6.34172785e-01  6.52881536e-10  5.74822067e-01  6.52881536e-10  1.44587435e+00  6.52881536e-10  1.80000000e+00  6.52881536e-10  9.70255409e-03  6.52881536e-10  5.00000000e-01                                 
 7.75078917e-10  6.33504076e-01  7.75078917e-10  5.74254538e-01  7.75078917e-10  1.54372977e+00  7.75078917e-10  1.80000000e+00  7.75078917e-10 -8.24467425e-03  7.75078917e-10  5.00000000e-01                                 
 9.68372961e-10  6.32473033e-01  9.68372961e-10  5.73376479e-01  9.68372961e-10  1.65620985e+00  9.68372961e-10  1.80000000e+00  9.68372961e-10  7.75137320e-03  9.68372961e-10  5.00000000e-01                                 
 1.35496105e-09  6.30502072e-01  1.35496105e-09  5.71688037e-01  1.35496105e-09  1.77852151e+00  1.35496105e-09  1.80000000e+00  1.35496105e-09 -7.30115633e-03  1.35496105e-09  5.00000000e-01                                 
 1.66493209e-09  6.29003853e-01  1.66493209e-09  5.70395705e-01  1.66493209e-09  1.81588665e+00  1.66493209e-09  1.80000000e+00  1.66493209e-09  7.02455654e-03  1.66493209e-09  5.00000000e-01                                 
 2.00784136e-09  6.27423117e-01  2.00784136e-09  5.69024167e-01  2.00784136e-09  1.83220060e+00  2.00784136e-09  1.80000000e+00  2.00784136e-09 -6.60822355e-03  2.00784136e-09  5.00000000e-01                                 
 2.36760334e-09  6.25843775e-01  2.36760334e-09  5.67645768e-01  2.36760334e-09  1.83792355e+00  2.36760334e-09  1.80000000e+00  2.36760334e-09  6.40915664e-03  2.36760334e-09  5.00000000e-01                                 
 2.73282538e-09  6.24316044e-01  2.73282538e-09  5.66304895e-01  2.73282538e-09  1.83914713e+00  2.73282538e-09  1.80000000e+00  2.73282538e-09 -6.07170933e-03  2.73282538e-09  5.00000000e-01                                 
 3.18560354e-09  6.22517645e-01  3.18560354e-09  5.64717282e-01  3.18560354e-09  1.83886066e+00  3.18560354e-09  1.80000000e+00  3.18560354e-09  5.90404510e-03  3.18560354e-09  5.00000000e-01                                 
 3.63569405e-09  6.20825254e-01  3.63569405e-09  5.63214338e-01  3.63569405e-09  1.83788239e+00  3.63569405e-09  1.80000000e+00  3.63569405e-09 -5.66703094e-03  3.63569405e-09  5.00000000e-01                                 
 4.28085711e-09  6.18545853e-01  4.28085711e-09  5.61177059e-01  4.28085711e-09  1.83650135e+00  4.28085711e-09  1.80000000e+00  4.28085711e-09  5.55668269e-03  4.28085711e-09  5.00000000e-01                                 
 5.14091087e-09  6.15741546e-01  5.14091087e-09  5.58650815e-01  5.14091087e-09  1.83465594e+00  5.14091087e-09  1.80000000e+00  5.14091087e-09 -5.42953045e-03  5.14091087e-09  5.00000000e-01                                 
 6.81719786e-09  6.10894273e-01  6.81719786e-09  5.54237032e-01  6.81719786e-09  1.83165342e+00  6.81719786e-09  1.80000000e+00  6.81719786e-09  5.40387107e-03  6.81719786e-09  5.00000000e-01                                 
 9.83552306e-09  6.03682146e-01  9.83552306e-09  5.47568904e-01  9.83552306e-09  1.82702007e+00  9.83552306e-09  1.80000000e+00  9.83552306e-09 -5.35002570e-03  9.83552306e-09  5.00000000e-01                                 
 1.58721735e-08  5.92847337e-01  1.58721735e-08  5.37358752e-01  1.58721735e-08  1.81858367e+00  1.58721735e-08  1.80000000e+00  1.58721735e-08  5.36230155e-03  1.58721735e-08  5.00000000e-01                                 
 2.79454743e-08  5.78365978e-01  2.79454743e-08  5.23429397e-01  2.79454743e-08  1.79090561e+00  2.79454743e-08  1.80000000e+00  2.79454743e-08 -5.32852796e-03  2.79454743e-08  5.00000000e-01                                 
 4.35697812e-08  5.65745379e-01  4.35697812e-08  5.11203749e-01  4.35697812e-08  1.73788841e+00  4.35697812e-08  1.80000000e+00  4.35697812e-08  5.35045408e-03  4.35697812e-08  5.00000000e-01                                 
 6.10646909e-08  5.54256620e-01  6.10646909e-08  5.00290235e-01  6.10646909e-08  1.68006539e+00  6.10646909e-08  1.80000000e+00  6.10646909e-08 -5.31824567e-03  6.10646909e-08  5.00000000e-01                                 
 7.68155670e-08  5.43269219e-01  7.68155670e-08  4.90327794e-01  7.68155670e-08  1.61925385e+00  7.68155670e-08  1.80000000e+00  7.68155670e-08  5.34032626e-03  7.68155670e-08  5.00000000e-01                                 
 9.47878394e-08  5.33825962e-01  9.47878394e-08  4.81674226e-01  9.47878394e-08  1.51565419e+00  9.47878394e-08  1.80000000e+00  9.47878394e-08 -5.30821239e-03  9.47878394e-08  5.00000000e-01                                 
 1.16982452e-07  5.23921988e-01  1.16982452e-07  4.72652486e-01  1.16982452e-07  1.37088740e+00  1.16982452e-07  1.80000000e+00  1.16982452e-07  5.33206039e-03  1.16982452e-07  5.00000000e-01                                 
 1.40017735e-07  5.20971516e-01  1.40017735e-07  4.69282055e-01  1.40017735e-07  1.26072614e+00  1.40017735e-07  1.80000000e+00  1.40017735e-07 -5.30059708e-03  1.40017735e-07  5.00000000e-01                                 
 1.72981344e-07  5.23264320e-01  1.72981344e-07  4.69810302e-01  1.72981344e-07  1.09661832e+00  1.72981344e-07  1.80000000e+00  1.72981344e-07  5.32614081e-03  1.72981344e-07  5.00000000e-01                                 
 1.94833856e-07  5.21140439e-01  1.94833856e-07  4.67388339e-01  1.94833856e-07  9.74433677e-01  1.94833856e-07  1.80000000e+00  1.94833856e-07 -5.29452057e-03  1.94833856e-07  5.00000000e-01                                 
 2.19811201e-07  5.16327254e-01  2.19811201e-07  4.62826208e-01  2.19811201e-07  8.73423678e-01  2.19811201e-07  1.80000000e+00  2.19811201e-07  5.31894002e-03  2.19811201e-07  5.00000000e-01                                 
 2.50445231e-07  5.08585022e-01  2.50445231e-07  4.55887545e-01  2.50445231e-07  7.88258928e-01  2.50445231e-07  1.80000000e+00  2.50445231e-07 -5.28863631e-03  2.50445231e-07  5.00000000e-01                                 
 2.82950313e-07  4.99773299e-01  2.82950313e-07  4.48166924e-01  2.82950313e-07  7.04265476e-01  2.82950313e-07  1.80000000e+00  2.82950313e-07  5.31368502e-03  2.82950313e-07  5.00000000e-01                                 
 3.37249746e-07  4.85589180e-01  3.37249746e-07  4.35907375e-01  3.37249746e-07  5.74533670e-01  3.37249746e-07  1.80000000e+00  3.37249746e-07 -5.28460695e-03  3.37249746e-07  5.00000000e-01                                 
 4.17977547e-07  4.66471539e-01  4.17977547e-07  4.19615289e-01  4.17977547e-07  4.79636972e-01  4.17977547e-07  1.80000000e+00  4.17977547e-07  5.31118233e-03  4.17977547e-07  5.00000000e-01                                 
 4.95977435e-07  4.35560670e-01  4.95977435e-07  3.94351812e-01  4.95977435e-07  4.55996204e-01  4.95977435e-07  1.80000000e+00  4.95977435e-07 -5.28271229e-03  4.95977435e-07  5.00000000e-01                                 
 5.71882943e-07  4.08624729e-01  5.71882943e-07  3.72518517e-01  5.71882943e-07  4.62354255e-01  5.71882943e-07  1.80000000e+00  5.71882943e-07  5.30910567e-03  5.71882943e-07  5.00000000e-01                                 
 6.56711696e-07  4.30295353e-01  6.56711696e-07  3.89735319e-01  6.56711696e-07  5.69912546e-01  6.56711696e-07  1.80000000e+00  6.56711696e-07 -5.28010354e-03  6.56711696e-07  5.00000000e-01                                 
 6.63771104e-07  4.41786723e-01  6.63771104e-07  3.98915358e-01  6.63771104e-07  5.74219792e-01  6.63771104e-07  1.80000000e+00  6.63771104e-07  3.33763420e-07  6.63771104e-07  5.00000000e-01                                 
 6.77889921e-07  4.78962954e-01  6.77889921e-07  4.28586869e-01  6.77889921e-07  5.72213536e-01  6.77889921e-07  1.80000000e+00  6.77889921e-07  6.82919362e-06  6.77889921e-07  5.00000000e-01                                 
 7.06127554e-07  6.42996760e-01  7.06127554e-07  5.76365831e-01  7.06127554e-07  5.94138453e-01  7.06127554e-07  1.80000000e+00  7.06127554e-07  4.52641058e-06  7.06127554e-07  5.00000000e-01                                 
 7.25591329e-07  6.98654909e-01  7.25591329e-07  6.36220547e-01  7.25591329e-07  5.69054593e-01  7.25591329e-07  1.80000000e+00  7.25591329e-07  4.42828556e-06  7.25591329e-07  5.00000000e-01                                 
 7.44051349e-07  7.29923041e-01  7.44051349e-07  6.65775543e-01  7.44051349e-07  5.40043766e-01  7.44051349e-07  1.80000000e+00  7.44051349e-07  2.67375527e-06  7.44051349e-07  5.00000000e-01                                 
 7.69221264e-07  7.54725333e-01  7.69221264e-07  6.87381472e-01  7.69221264e-07  5.18360623e-01  7.69221264e-07  1.80000000e+00  7.69221264e-07  3.51965988e-06  7.69221264e-07  5.00000000e-01                                 
 7.95431538e-07  7.57060660e-01  7.95431538e-07  6.89421381e-01  7.95431538e-07  4.97623408e-01  7.95431538e-07  1.80000000e+00  7.95431538e-07  1.17276560e-06  7.95431538e-07  5.00000000e-01                                 
 8.32894576e-07  7.57825810e-01  8.32894576e-07  6.89976447e-01  8.32894576e-07  4.88327377e-01  8.32894576e-07  1.80000000e+00  8.32894576e-07  3.50794883e-06  8.32894576e-07  5.00000000e-01                                 
 8.73981965e-07  7.57640438e-01  8.73981965e-07  6.89908307e-01  8.73981965e-07  4.85254274e-01  8.73981965e-07  1.80000000e+00  8.73981965e-07  1.05611735e-06  8.73981965e-07  5.00000000e-01                                 
 9.26564026e-07  7.57922834e-01  9.26564026e-07  6.90058624e-01  9.26564026e-07  4.91251153e-01  9.26564026e-07  1.80000000e+00  9.26564026e-07  3.58635720e-06  9.26564026e-07  5.00000000e-01                                 
 9.36044177e-07  7.57899577e-01  9.36044177e-07  6.90075971e-01  9.36044177e-07  4.94464659e-01  9.36044177e-07  1.80000000e+00  9.36044177e-07  2.26729650e-06  9.36044177e-07  5.00000000e-01                                 
 9.55004478e-07  7.56124906e-01  9.55004478e-07  6.88615358e-01  9.55004478e-07  5.02276845e-01  9.55004478e-07  1.80000000e+00  9.55004478e-07  2.20016552e-06  9.55004478e-07  5.00000000e-01                                 
 9.92925081e-07  7.37133123e-01  9.92925081e-07  6.72319976e-01  9.92925081e-07  5.00921420e-01  9.92925081e-07  1.80000000e+00  9.92925081e-07  1.64313067e-06  9.92925081e-07  5.00000000e-01                                 
 1.03129942e-06  7.27059248e-01  1.03129942e-06  6.63207703e-01  1.03129942e-06  4.95634354e-01  1.03129942e-06  1.80000000e+00  1.03129942e-06  2.55373257e-06  1.03129942e-06  5.00000000e-01                                 
 1.07698165e-06  7.43847415e-01  1.07698165e-06  6.78142183e-01  1.07698165e-06  5.07025955e-01  1.07698165e-06  1.80000000e+00  1.07698165e-06  2.61088633e-06  1.07698165e-06  5.00000000e-01                                 
 1.13293038e-06  7.50101554e-01  1.13293038e-06  6.83539751e-01  1.13293038e-06  5.01782502e-01  1.13293038e-06  1.80000000e+00  1.13293038e-06  2.16794621e-06  1.13293038e-06  5.00000000e-01                                 
 1.19151951e-06  7.41518629e-01  1.19151951e-06  6.76143063e-01  1.19151951e-06  4.92465910e-01  1.19151951e-06  1.80000000e+00  1.19151951e-06  2.21610180e-06  1.19151951e-06  5.00000000e-01                                 
 1.27089550e-06  7.39063861e-01  1.27089550e-06  6.73972677e-01  1.27089550e-06  5.04285445e-01  1.27089550e-06  1.80000000e+00  1.27089550e-06  2.34210588e-06  1.27089550e-06  5.00000000e-01                                 
 1.35770392e-06  7.47465130e-01  1.35770392e-06  6.81280393e-01  1.35770392e-06  5.03388118e-01  1.35770392e-06  1.80000000e+00  1.35770392e-06  2.40966086e-06  1.35770392e-06  5.00000000e-01                                 
 1.48339203e-06  7.40798246e-01  1.48339203e-06  6.75512442e-01  1.48339203e-06  4.93291754e-01  1.48339203e-06  1.80000000e+00  1.48339203e-06  2.11753543e-06  1.48339203e-06  5.00000000e-01                                 
 1.61325675e-06  7.42691577e-01  1.61325675e-06  6.77146120e-01  1.61325675e-06  5.07361205e-01  1.61325675e-06  1.80000000e+00  1.61325675e-06  2.50888756e-06  1.61325675e-06  5.00000000e-01                                 
 1.78285881e-06  7.45097975e-01  1.78285881e-06  6.79252932e-01  1.78285881e-06  4.95135755e-01  1.78285881e-06  1.80000000e+00  1.78285881e-06  2.11955562e-06  1.78285881e-06  5.00000000e-01                                 
 2.00200484e-06  7.40501153e-01  2.00200484e-06  6.75235296e-01  2.00200484e-06  5.02886168e-01  2.00200484e-06  1.80000000e+00  2.00200484e-06  2.45420720e-06  2.00200484e-06  5.00000000e-01                                 
 2.22805974e-06  7.45686367e-01  2.22805974e-06  6.79756201e-01  2.22805974e-06  5.00181244e-01  2.22805974e-06  1.80000000e+00  2.22805974e-06  2.18666580e-06  2.22805974e-06  5.00000000e-01                                 
 2.54236351e-06  7.40686479e-01  2.54236351e-06  6.75402270e-01  2.54236351e-06  4.98417542e-01  2.54236351e-06  1.80000000e+00  2.54236351e-06  2.39524725e-06  2.54236351e-06  5.00000000e-01                                 
 2.92544873e-06  7.45143155e-01  2.92544873e-06  6.79284273e-01  2.92544873e-06  5.03305603e-01  2.92544873e-06  1.80000000e+00  2.92544873e-06  2.22826663e-06  2.92544873e-06  5.00000000e-01                                 
 3.39865665e-06  7.41387246e-01  3.39865665e-06  6.76018110e-01  3.39865665e-06  4.96202266e-01  3.39865665e-06  1.80000000e+00  3.39865665e-06  2.36578553e-06  3.39865665e-06  5.00000000e-01                                 
 4.03889610e-06  7.44564190e-01  4.03889610e-06  6.78782105e-01  4.03889610e-06  5.04751086e-01  4.03889610e-06  1.80000000e+00  4.03889610e-06  2.24763217e-06  4.03889610e-06  5.00000000e-01                                 
 4.87400157e-06  7.41899460e-01  4.87400157e-06  6.76466699e-01  4.87400157e-06  4.95306270e-01  4.87400157e-06  1.80000000e+00  4.87400157e-06  2.35357308e-06  4.87400157e-06  5.00000000e-01                                 
 5.87400157e-06  7.44171458e-01  5.87400157e-06  6.78441283e-01  5.87400157e-06  5.05337536e-01  5.87400157e-06  1.80000000e+00  5.87400157e-06  2.25579858e-06  5.87400157e-06  5.00000000e-01                                 
 6.87400157e-06  7.42286144e-01  6.87400157e-06  6.76804651e-01  6.87400157e-06  4.94874705e-01  6.87400157e-06  1.80000000e+00  6.87400157e-06  2.34737022e-06  6.87400157e-06  5.00000000e-01                                 
 7.87400157e-06  7.43803101e-01  7.87400157e-06  6.78121407e-01  7.87400157e-06  5.05672959e-01  7.87400157e-06  1.80000000e+00  7.87400157e-06  2.26086414e-06  7.87400157e-06  5.00000000e-01                                 
 8.87400157e-06  7.42669066e-01  8.87400157e-06  6.77138751e-01  8.87400157e-06  4.94632067e-01  8.87400157e-06  1.80000000e+00  8.87400157e-06  2.34343402e-06  8.87400157e-06  5.00000000e-01                                 
 9.87400157e-06  7.43438397e-01  9.87400157e-06  6.77804488e-01  9.87400157e-06  5.05822493e-01  9.87400157e-06  1.80000000e+00  9.87400157e-06  2.26367853e-06  9.87400157e-06  5.00000000e-01                                 
 1.00005000e-05  7.44018972e-01  1.00005000e-05  6.78311949e-01  1.00005000e-05  4.95694168e-01  1.00005000e-05  1.80000000e+00  1.00005000e-05  2.34920707e-06  1.00005000e-05  5.00000000e-01                                 
 1.00005500e-05  7.44014245e-01  1.00005500e-05  6.78306988e-01  1.00005500e-05  4.88032835e-01  1.00005500e-05  1.62000000e+00  1.00005500e-05 -8.79555834e-05  1.00005500e-05  5.00000000e-01                                 
 1.00006500e-05  7.44002466e-01  1.00006500e-05  6.78296899e-01  1.00006500e-05  4.74306218e-01  1.00006500e-05  1.26000000e+00  1.00006500e-05 -7.01144004e-05  1.00006500e-05  5.00000000e-01                                 
 1.00008500e-05  7.43979691e-01  1.00008500e-05  6.78278360e-01  1.00008500e-05  4.72096167e-01  1.00008500e-05  5.40000000e-01  1.00008500e-05  6.58146113e-04  1.00008500e-05  5.00000000e-01                                 
 1.00010000e-05  7.43964813e-01  1.00010000e-05  6.78265693e-01  1.00010000e-05  4.39451371e-01  1.00010000e-05  0.00000000e+00  1.00010000e-05  1.58646933e+00  1.00010000e-05  5.00000000e-01                                 
 1.00010253e-05  7.43962264e-01  1.00010253e-05  6.78263630e-01  1.00010253e-05  4.17618893e-01  1.00010253e-05  0.00000000e+00  1.00010253e-05  1.72745896e+00  1.00010253e-05  5.00000000e-01                                 
 1.00010759e-05  7.43957416e-01  1.00010759e-05  6.78259584e-01  1.00010759e-05  3.80917437e-01  1.00010759e-05  0.00000000e+00  1.00010759e-05  1.81966932e+00  1.00010759e-05  5.00000000e-01                                 
 1.00011771e-05  7.43948311e-01  1.00011771e-05  6.78251833e-01  1.00011771e-05  3.50234794e-01  1.00011771e-05  0.00000000e+00  1.00011771e-05  1.78581439e+00  1.00011771e-05  5.00000000e-01                                 
 1.00013164e-05  7.43936329e-01  1.00013164e-05  6.78241678e-01  1.00013164e-05  3.48685330e-01  1.00013164e-05  0.00000000e+00  1.00013164e-05  1.80953320e+00  1.00013164e-05  5.00000000e-01                                 
 1.00014880e-05  7.43922355e-01  1.00014880e-05  6.78229748e-01  1.00014880e-05  3.47485970e-01  1.00014880e-05  0.00000000e+00  1.00014880e-05  1.79274150e+00  1.00014880e-05  5.00000000e-01                                 
