 time            v(vbep)         time            v(vben)         time            v(vout)         time            v(vphi1)        time            v(vphi2)        time            v(vref)         yes             currtemp       
 0.00000000e+00  7.23111437e-01  0.00000000e+00  6.72607257e-01  0.00000000e+00  8.35331197e-02  0.00000000e+00  0.00000000e+00  0.00000000e+00  1.79996969e+00  0.00000000e+00  5.00000000e-01  1.00000000e+00  3.00000000e+00 
 5.00000000e-12  7.23092176e-01  5.00000000e-12  6.72591222e-01  5.00000000e-12  8.39805969e-02  5.00000000e-12  1.80000000e-02  5.00000000e-12  1.80004902e+00  5.00000000e-12  5.00000000e-01                                 
 1.00000000e-11  7.23073262e-01  1.00000000e-11  6.72575540e-01  1.00000000e-11  8.43817565e-02  1.00000000e-11  3.60000000e-02  1.00000000e-11  1.80008834e+00  1.00000000e-11  5.00000000e-01                                 
 2.00000000e-11  7.23035617e-01  2.00000000e-11  6.72544267e-01  2.00000000e-11  8.51178648e-02  2.00000000e-11  7.20000000e-02  2.00000000e-11  1.80012432e+00  2.00000000e-11  5.00000000e-01                                 
 4.00000000e-11  7.22960632e-01  4.00000000e-11  6.72481886e-01  4.00000000e-11  8.62814195e-02  4.00000000e-11  1.44000000e-01  4.00000000e-11  1.80010519e+00  4.00000000e-11  5.00000000e-01                                 
 8.00000000e-11  7.22811141e-01  8.00000000e-11  6.72357470e-01  8.00000000e-11  8.78777044e-02  8.00000000e-11  2.88000000e-01  8.00000000e-11  1.80006389e+00  8.00000000e-11  5.00000000e-01                                 
 1.60000000e-10  7.22514386e-01  1.60000000e-10  6.72110167e-01  1.60000000e-10  8.99102628e-02  1.60000000e-10  5.76000000e-01  1.60000000e-10  1.80002572e+00  1.60000000e-10  5.00000000e-01                                 
 3.20000000e-10  7.21929887e-01  3.20000000e-10  6.71621911e-01  3.20000000e-10  1.25667192e-01  3.20000000e-10  1.15200000e+00  3.20000000e-10  1.79995638e+00  3.20000000e-10  5.00000000e-01                                 
 5.00000000e-10  7.21286666e-01  5.00000000e-10  6.71082770e-01  5.00000000e-10  4.97458907e-01  5.00000000e-10  1.80000000e+00  5.00000000e-10  1.02498871e-01  5.00000000e-10  5.00000000e-01                                 
 5.21210908e-10  7.21211959e-01  5.21210908e-10  6.71020015e-01  5.21210908e-10  5.66495335e-01  5.21210908e-10  1.80000000e+00  5.21210908e-10  1.84345951e-02  5.21210908e-10  5.00000000e-01                                 
 5.63632723e-10  7.21062936e-01  5.63632723e-10  6.70894782e-01  5.63632723e-10  6.89915245e-01  5.63632723e-10  1.80000000e+00  5.63632723e-10 -8.80730526e-03  5.63632723e-10  5.00000000e-01                                 
 6.48476355e-10  7.20767267e-01  6.48476355e-10  6.70646018e-01  6.48476355e-10  8.76394064e-01  6.48476355e-10  1.80000000e+00  6.48476355e-10  7.60846581e-03  6.48476355e-10  5.00000000e-01                                 
 7.71899614e-10  7.20342705e-01  7.71899614e-10  6.70288118e-01  7.71899614e-10  1.08095134e+00  7.71899614e-10  1.80000000e+00  7.71899614e-10 -6.68653898e-03  7.71899614e-10  5.00000000e-01                                 
 9.61926125e-10  7.19701462e-01  9.61926125e-10  6.69746039e-01  9.61926125e-10  1.33435830e+00  9.61926125e-10  1.80000000e+00  9.61926125e-10  6.34400965e-03  9.61926125e-10  5.00000000e-01                                 
 1.33252257e-09  7.18491748e-01  1.33252257e-09  6.68718535e-01  1.33252257e-09  1.64427893e+00  1.33252257e-09  1.80000000e+00  1.33252257e-09 -6.04904293e-03  1.33252257e-09  5.00000000e-01                                 
 1.83392888e-09  7.16934571e-01  1.83392888e-09  6.67386702e-01  1.83392888e-09  1.80546172e+00  1.83392888e-09  1.80000000e+00  1.83392888e-09  5.96940862e-03  1.83392888e-09  5.00000000e-01                                 
 2.08164586e-09  7.16196793e-01  2.08164586e-09  6.66752054e-01  2.08164586e-09  1.83300620e+00  2.08164586e-09  1.80000000e+00  2.08164586e-09 -5.59534227e-03  2.08164586e-09  5.00000000e-01                                 
 2.38470018e-09  7.15320116e-01  2.38470018e-09  6.65995033e-01  2.38470018e-09  1.87253324e+00  2.38470018e-09  1.80000000e+00  2.38470018e-09  5.44460461e-03  2.38470018e-09  5.00000000e-01                                 
 2.70599838e-09  7.14419994e-01  2.70599838e-09  6.65214556e-01  2.70599838e-09  1.89536196e+00  2.70599838e-09  1.80000000e+00  2.70599838e-09 -5.17828243e-03  2.70599838e-09  5.00000000e-01                                 
 3.34859479e-09  7.12702056e-01  3.34859479e-09  6.63716379e-01  3.34859479e-09  1.91723651e+00  3.34859479e-09  1.80000000e+00  3.34859479e-09  5.12207745e-03  3.34859479e-09  5.00000000e-01                                 
 4.25217725e-09  7.10451909e-01  4.25217725e-09  6.61737594e-01  4.25217725e-09  1.92239879e+00  4.25217725e-09  1.80000000e+00  4.25217725e-09 -5.01718170e-03  4.25217725e-09  5.00000000e-01                                 
 5.19703760e-09  7.08277480e-01  5.19703760e-09  6.59808454e-01  5.19703760e-09  1.91998607e+00  5.19703760e-09  1.80000000e+00  5.19703760e-09  4.97963721e-03  5.19703760e-09  5.00000000e-01                                 
 6.67722335e-09  7.05171419e-01  6.67722335e-09  6.57026854e-01  6.67722335e-09  1.91408870e+00  6.67722335e-09  1.80000000e+00  6.67722335e-09 -4.90285279e-03  6.67722335e-09  5.00000000e-01                                 
 8.85449289e-09  7.01129377e-01  8.85449289e-09  6.53366467e-01  8.85449289e-09  1.90588185e+00  8.85449289e-09  1.80000000e+00  8.85449289e-09  4.90981825e-03  8.85449289e-09  5.00000000e-01                                 
 1.03199760e-08  6.98694081e-01  1.03199760e-08  6.51140810e-01  1.03199760e-08  1.90093884e+00  1.03199760e-08  1.80000000e+00  1.03199760e-08 -4.83915997e-03  1.03199760e-08  5.00000000e-01                                 
 1.22235497e-08  6.95792794e-01  1.22235497e-08  6.48473614e-01  1.22235497e-08  1.89514853e+00  1.22235497e-08  1.80000000e+00  1.22235497e-08  4.83101559e-03  1.22235497e-08  5.00000000e-01                                 
 1.44324921e-08  6.92728962e-01  1.44324921e-08  6.45641390e-01  1.44324921e-08  1.88855366e+00  1.44324921e-08  1.80000000e+00  1.44324921e-08 -4.78202336e-03  1.44324921e-08  5.00000000e-01                                 
 1.78401291e-08  6.88497892e-01  1.78401291e-08  6.41709941e-01  1.78401291e-08  1.87892786e+00  1.78401291e-08  1.80000000e+00  1.78401291e-08  4.78392366e-03  1.78401291e-08  5.00000000e-01                                 
 2.19925356e-08  6.83976344e-01  2.19925356e-08  6.37488130e-01  2.19925356e-08  1.86749350e+00  2.19925356e-08  1.80000000e+00  2.19925356e-08 -4.75015117e-03  2.19925356e-08  5.00000000e-01                                 
 2.88632548e-08  6.77647162e-01  2.88632548e-08  6.31546356e-01  2.88632548e-08  1.85001398e+00  2.88632548e-08  1.80000000e+00  2.88632548e-08  4.76049306e-03  2.88632548e-08  5.00000000e-01                                 
 3.95317615e-08  6.70475660e-01  3.95317615e-08  6.24666839e-01  3.95317615e-08  1.82756560e+00  3.95317615e-08  1.80000000e+00  3.95317615e-08 -4.73550249e-03  3.95317615e-08  5.00000000e-01                                 
 6.08687747e-08  6.66839633e-01  6.08687747e-08  6.19951382e-01  6.08687747e-08  1.82153207e+00  6.08687747e-08  1.80000000e+00  6.08687747e-08  4.75252171e-03  6.08687747e-08  5.00000000e-01                                 
 7.73835102e-08  6.63876155e-01  7.73835102e-08  6.16550927e-01  7.73835102e-08  1.80678243e+00  7.73835102e-08  1.80000000e+00  7.73835102e-08 -4.72928307e-03  7.73835102e-08  5.00000000e-01                                 
 9.60396724e-08  6.56616476e-01  9.60396724e-08  6.09819433e-01  9.60396724e-08  1.78128663e+00  9.60396724e-08  1.80000000e+00  9.60396724e-08  4.74554721e-03  9.60396724e-08  5.00000000e-01                                 
 1.14080433e-07  6.52150066e-01  1.14080433e-07  6.05461372e-01  1.14080433e-07  1.76132380e+00  1.14080433e-07  1.80000000e+00  1.14080433e-07 -4.72268722e-03  1.14080433e-07  5.00000000e-01                                 
 1.33467104e-07  6.47947528e-01  1.33467104e-07  6.01366316e-01  1.33467104e-07  1.73970596e+00  1.33467104e-07  1.80000000e+00  1.33467104e-07  4.73916902e-03  1.33467104e-07  5.00000000e-01                                 
 1.69549002e-07  6.37311661e-01  1.69549002e-07  5.91739235e-01  1.69549002e-07  1.69639581e+00  1.69549002e-07  1.80000000e+00  1.69549002e-07 -4.71805524e-03  1.69549002e-07  5.00000000e-01                                 
 2.19099804e-07  6.23085586e-01  2.19099804e-07  5.79168018e-01  2.19099804e-07  1.63662027e+00  2.19099804e-07  1.80000000e+00  2.19099804e-07  4.73632201e-03  2.19099804e-07  5.00000000e-01                                 
 2.70229668e-07  6.10112615e-01  2.70229668e-07  5.67867215e-01  2.70229668e-07  1.57558250e+00  2.70229668e-07  1.80000000e+00  2.70229668e-07 -4.71567813e-03  2.70229668e-07  5.00000000e-01                                 
 3.69808989e-07  5.83141077e-01  3.69808989e-07  5.45136907e-01  3.69808989e-07  1.45191200e+00  3.69808989e-07  1.80000000e+00  3.69808989e-07  4.73455848e-03  3.69808989e-07  5.00000000e-01                                 
 5.15893076e-07  5.37706481e-01  5.15893076e-07  5.08090428e-01  5.15893076e-07  1.26233699e+00  5.15893076e-07  1.80000000e+00  5.15893076e-07 -4.71471098e-03  5.15893076e-07  5.00000000e-01                                 
 5.39905753e-07  5.28610124e-01  5.39905753e-07  5.00788924e-01  5.39905753e-07  1.22906071e+00  5.39905753e-07  1.80000000e+00  5.39905753e-07 -6.50724975e-07  5.39905753e-07  5.00000000e-01                                 
 5.87931106e-07  5.11160506e-01  5.87931106e-07  4.86798688e-01  5.87931106e-07  1.16298797e+00  5.87931106e-07  1.80000000e+00  5.87931106e-07  5.24066649e-07  5.87931106e-07  5.00000000e-01                                 
 6.19292727e-07  5.06039254e-01  6.19292727e-07  4.82698174e-01  6.19292727e-07  1.12542713e+00  6.19292727e-07  1.80000000e+00  6.19292727e-07 -4.99048430e-07  6.19292727e-07  5.00000000e-01                                 
 6.62769905e-07  5.59531435e-01  6.62769905e-07  5.25442152e-01  6.62769905e-07  1.13249447e+00  6.62769905e-07  1.80000000e+00  6.62769905e-07  1.58201498e-06  6.62769905e-07  5.00000000e-01                                 
 7.01996274e-07  7.50756913e-01  7.01996274e-07  6.96916730e-01  7.01996274e-07  1.27678299e+00  7.01996274e-07  1.80000000e+00  7.01996274e-07  3.02767626e-06  7.01996274e-07  5.00000000e-01                                 
 7.35504727e-07  8.04468978e-01  7.35504727e-07  7.51608452e-01  7.35504727e-07  1.29726574e+00  7.35504727e-07  1.80000000e+00  7.35504727e-07 -6.31603743e-07  7.35504727e-07  5.00000000e-01                                 
 7.70383894e-07  8.25118907e-01  7.70383894e-07  7.70291219e-01  7.70383894e-07  1.27812187e+00  7.70383894e-07  1.80000000e+00  7.70383894e-07  1.29794350e-06  7.70383894e-07  5.00000000e-01                                 
 8.10079213e-07  8.39657282e-01  8.10079213e-07  7.82757503e-01  8.10079213e-07  1.25485991e+00  8.10079213e-07  1.80000000e+00  8.10079213e-07 -5.26931348e-07  8.10079213e-07  5.00000000e-01                                 
 8.15362145e-07  8.41558739e-01  8.15362145e-07  7.84309413e-01  8.15362145e-07  1.24964694e+00  8.15362145e-07  1.80000000e+00  8.15362145e-07  8.96472019e-08  8.15362145e-07  5.00000000e-01                                 
 8.25928007e-07  8.46242848e-01  8.25928007e-07  7.88096718e-01  8.25928007e-07  1.24279337e+00  8.25928007e-07  1.80000000e+00  8.25928007e-07  4.65848301e-07  8.25928007e-07  5.00000000e-01                                 
 8.47059732e-07  8.59113313e-01  8.47059732e-07  7.98109212e-01  8.47059732e-07  1.23325794e+00  8.47059732e-07  1.80000000e+00  8.47059732e-07  4.07936408e-07  8.47059732e-07  5.00000000e-01                                 
 8.74510723e-07  8.73001424e-01  8.74510723e-07  8.08271692e-01  8.74510723e-07  1.21773885e+00  8.74510723e-07  1.80000000e+00  8.74510723e-07  3.53189235e-07  8.74510723e-07  5.00000000e-01                                 
 8.96982163e-07  8.58035693e-01  8.96982163e-07  7.97546919e-01  8.96982163e-07  1.18237187e+00  8.96982163e-07  1.80000000e+00  8.96982163e-07 -8.39346933e-07  8.96982163e-07  5.00000000e-01                                 
 9.19957660e-07  8.33405841e-01  9.19957660e-07  7.77448477e-01  9.19957660e-07  1.13498106e+00  9.19957660e-07  1.80000000e+00  9.19957660e-07 -3.34889686e-07  9.19957660e-07  5.00000000e-01                                 
 9.42229105e-07  8.22404043e-01  9.42229105e-07  7.68088655e-01  9.42229105e-07  1.10102965e+00  9.42229105e-07  1.80000000e+00  9.42229105e-07 -1.81260434e-07  9.42229105e-07  5.00000000e-01                                 
 9.69173396e-07  8.09953440e-01  9.69173396e-07  7.56565763e-01  9.69173396e-07  1.06036870e+00  9.69173396e-07  1.80000000e+00  9.69173396e-07 -2.20085720e-07  9.69173396e-07  5.00000000e-01                                 
 9.97652753e-07  8.16433457e-01  9.97652753e-07  7.62660373e-01  9.97652753e-07  1.03545230e+00  9.97652753e-07  1.80000000e+00  9.97652753e-07  5.76286628e-07  9.97652753e-07  5.00000000e-01                                 
 1.03863550e-06  8.23026799e-01  1.03863550e-06  7.68431142e-01  1.03863550e-06  9.99872344e-01  1.03863550e-06  1.80000000e+00  1.03863550e-06 -1.85150370e-07  1.03863550e-06  5.00000000e-01                                 
 1.08201583e-06  8.23235100e-01  1.08201583e-06  7.68751848e-01  1.08201583e-06  9.57726704e-01  1.08201583e-06  1.80000000e+00  1.08201583e-06  3.23872547e-07  1.08201583e-06  5.00000000e-01                                 
 1.16877648e-06  8.15967806e-01  1.16877648e-06  7.62111354e-01  1.16877648e-06  8.84982242e-01  1.16877648e-06  1.80000000e+00  1.16877648e-06 -2.61807092e-07  1.16877648e-06  5.00000000e-01                                 
 1.28459773e-06  8.22560569e-01  1.28459773e-06  7.68137532e-01  1.28459773e-06  8.13561468e-01  1.28459773e-06  1.80000000e+00  1.28459773e-06  4.77453136e-07  1.28459773e-06  5.00000000e-01                                 
 1.39716813e-06  8.19077529e-01  1.39716813e-06  7.64931876e-01  1.39716813e-06  7.50026358e-01  1.39716813e-06  1.80000000e+00  1.39716813e-06 -3.49257500e-07  1.39716813e-06  5.00000000e-01                                 
 1.55469375e-06  8.19614041e-01  1.55469375e-06  7.65507608e-01  1.55469375e-06  6.76653875e-01  1.55469375e-06  1.80000000e+00  1.55469375e-06  4.96221716e-07  1.55469375e-06  5.00000000e-01                                 
 1.76222368e-06  8.21141228e-01  1.76222368e-06  7.66779790e-01  1.76222368e-06  5.91755034e-01  1.76222368e-06  1.80000000e+00  1.76222368e-06 -3.29094235e-07  1.76222368e-06  5.00000000e-01                                 
 2.09801185e-06  8.18648640e-01  2.09801185e-06  7.64643002e-01  2.09801185e-06  5.10508712e-01  2.09801185e-06  1.80000000e+00  2.09801185e-06  4.69668350e-07  2.09801185e-06  5.00000000e-01                                 
 2.43086709e-06  8.21599364e-01  2.43086709e-06  7.67186798e-01  2.43086709e-06  4.98082464e-01  2.43086709e-06  1.80000000e+00  2.43086709e-06 -3.03666172e-07  2.43086709e-06  5.00000000e-01                                 
 2.76892111e-06  8.18428011e-01  2.76892111e-06  7.64446428e-01  2.76892111e-06  4.99334369e-01  2.76892111e-06  1.80000000e+00  2.76892111e-06  4.40039625e-07  2.76892111e-06  5.00000000e-01                                 
 3.14271570e-06  8.21585946e-01  3.14271570e-06  7.67173297e-01  3.14271570e-06  5.02894087e-01  3.14271570e-06  1.80000000e+00  3.14271570e-06 -2.76638514e-07  3.14271570e-06  5.00000000e-01                                 
 3.53784192e-06  8.18583029e-01  3.53784192e-06  7.64587139e-01  3.53784192e-06  4.96544056e-01  3.53784192e-06  1.80000000e+00  3.53784192e-06  4.16091929e-07  3.53784192e-06  5.00000000e-01                                 
 4.09732823e-06  8.21338939e-01  4.09732823e-06  7.66952128e-01  4.09732823e-06  5.03163525e-01  4.09732823e-06  1.80000000e+00  4.09732823e-06 -2.57755909e-07  4.09732823e-06  5.00000000e-01                                 
 4.72596433e-06  8.18821063e-01  4.72596433e-06  7.64801612e-01  4.72596433e-06  4.97640213e-01  4.72596433e-06  1.80000000e+00  4.72596433e-06  4.02321653e-07  4.72596433e-06  5.00000000e-01                                 
 5.72596433e-06  8.21118918e-01  5.72596433e-06  7.66755406e-01  5.72596433e-06  5.02209570e-01  5.72596433e-06  1.80000000e+00  5.72596433e-06 -2.47847329e-07  5.72596433e-06  5.00000000e-01                                 
 6.72596433e-06  8.18999264e-01  6.72596433e-06  7.64961843e-01  6.72596433e-06  4.98452907e-01  6.72596433e-06  1.80000000e+00  6.72596433e-06  3.95232736e-07  6.72596433e-06  5.00000000e-01                                 
 7.72596433e-06  8.20922769e-01  7.72596433e-06  7.66580055e-01  7.72596433e-06  5.01458046e-01  7.72596433e-06  1.80000000e+00  7.72596433e-06 -2.41242017e-07  7.72596433e-06  5.00000000e-01                                 
 8.72596433e-06  8.19197057e-01  8.72596433e-06  7.65139454e-01  8.72596433e-06  4.99151754e-01  8.72596433e-06  1.80000000e+00  8.72596433e-06  3.89146270e-07  8.72596433e-06  5.00000000e-01                                 
 9.72596433e-06  8.20710625e-01  9.72596433e-06  7.66390387e-01  9.72596433e-06  5.00854124e-01  9.72596433e-06  1.80000000e+00  9.72596433e-06 -2.35703304e-07  9.72596433e-06  5.00000000e-01                                 
 1.00005000e-05  8.19691850e-01  1.00005000e-05  7.65582840e-01  1.00005000e-05  5.00053078e-01  1.00005000e-05  1.80000000e+00  1.00005000e-05  3.79381767e-07  1.00005000e-05  5.00000000e-01                                 
 1.00005500e-05  8.19672177e-01  1.00005500e-05  7.65556360e-01  1.00005500e-05  4.92012435e-01  1.00005500e-05  1.62000000e+00  1.00005500e-05 -7.02298895e-05  1.00005500e-05  5.00000000e-01                                 
 1.00006500e-05  8.19619399e-01  1.00006500e-05  7.65503483e-01  1.00006500e-05  4.78323054e-01  1.00006500e-05  1.26000000e+00  1.00006500e-05 -4.96594715e-05  1.00006500e-05  5.00000000e-01                                 
 1.00008500e-05  8.19524169e-01  1.00008500e-05  7.65415097e-01  1.00008500e-05  4.77614959e-01  1.00008500e-05  5.40000000e-01  1.00008500e-05 -9.06539623e-04  1.00008500e-05  5.00000000e-01                                 
 1.00010000e-05  8.19470916e-01  1.00010000e-05  7.65362140e-01  1.00010000e-05  4.40933220e-01  1.00010000e-05  0.00000000e+00  1.00010000e-05  1.55325976e+00  1.00010000e-05  5.00000000e-01                                 
 1.00010155e-05  8.19465312e-01  1.00010155e-05  7.65357180e-01  1.00010155e-05  4.21066412e-01  1.00010155e-05  0.00000000e+00  1.00010155e-05  1.68425757e+00  1.00010155e-05  5.00000000e-01                                 
 1.00010465e-05  8.19454923e-01  1.00010465e-05  7.65347517e-01  1.00010465e-05  3.74978826e-01  1.00010465e-05  0.00000000e+00  1.00010465e-05  1.80407289e+00  1.00010465e-05  5.00000000e-01                                 
 1.00011084e-05  8.19436352e-01  1.00011084e-05  7.65329352e-01  1.00011084e-05  2.96357932e-01  1.00011084e-05  0.00000000e+00  1.00011084e-05  1.79525643e+00  1.00011084e-05  5.00000000e-01                                 
 1.00011858e-05  8.19415117e-01  1.00011858e-05  7.65308596e-01  1.00011858e-05  2.56076515e-01  1.00011858e-05  0.00000000e+00  1.00011858e-05  1.79959096e+00  1.00011858e-05  5.00000000e-01                                 
 1.00013009e-05  8.19387149e-01  1.00013009e-05  7.65281136e-01  1.00013009e-05  2.44688191e-01  1.00013009e-05  0.00000000e+00  1.00013009e-05  1.79962255e+00  1.00013009e-05  5.00000000e-01                                 
