 time            v(vbep)         time            v(vben)         time            v(vout)         time            v(vphi1)        time            v(vphi2)        time            v(vref)         time            v(voutc)        time            v(voutcc)       yes             currtemp       
 0.00000000e+00  7.64615683e-01  0.00000000e+00  7.05030493e-01  0.00000000e+00  1.58623710e+00  0.00000000e+00  0.00000000e+00  0.00000000e+00  1.80000000e+00  0.00000000e+00  7.07278014e-01  0.00000000e+00  1.58623709e+00  0.00000000e+00  1.59276932e+00  1.00000000e+00  3.30000000e+01 
 1.00000000e-11  7.64640672e-01  1.00000000e-11  7.05101696e-01  1.00000000e-11  1.58702130e+00  1.00000000e-11  1.80000000e-02  1.00000000e-11  1.80025093e+00  1.00000000e-11  7.07808596e-01  1.00000000e-11  1.58670674e+00  1.00000000e-11  1.59278361e+00                                 
 2.00000000e-11  7.64647509e-01  2.00000000e-11  7.05146395e-01  2.00000000e-11  1.58750715e+00  2.00000000e-11  3.60000000e-02  2.00000000e-11  1.80035092e+00  2.00000000e-11  7.08203079e-01  2.00000000e-11  1.58706325e+00  2.00000000e-11  1.59278914e+00                                 
 4.00000000e-11  7.64647424e-01  4.00000000e-11  7.05205350e-01  4.00000000e-11  1.58809755e+00  4.00000000e-11  7.20000000e-02  4.00000000e-11  1.80038993e+00  4.00000000e-11  7.08780274e-01  4.00000000e-11  1.58759628e+00  4.00000000e-11  1.59279130e+00                                 
 8.00000000e-11  7.64635517e-01  8.00000000e-11  7.05243340e-01  8.00000000e-11  1.58823333e+00  8.00000000e-11  1.44000000e-01  8.00000000e-11  1.80018681e+00  8.00000000e-11  7.09226797e-01  8.00000000e-11  1.58803578e+00  8.00000000e-11  1.59278073e+00                                 
 1.60000000e-10  7.64632571e-01  1.60000000e-10  7.05253887e-01  1.60000000e-10  1.58790413e+00  1.60000000e-10  2.88000000e-01  1.60000000e-10  1.80000395e+00  1.60000000e-10  7.09293607e-01  1.60000000e-10  1.58809450e+00  1.60000000e-10  1.59277093e+00                                 
 3.20000000e-10  7.64628854e-01  3.20000000e-10  7.05253979e-01  3.20000000e-10  1.58754382e+00  3.20000000e-10  5.76000000e-01  3.20000000e-10  1.79999295e+00  3.20000000e-10  7.09164231e-01  3.20000000e-10  1.58781887e+00  3.20000000e-10  1.59276706e+00                                 
 6.40000000e-10  7.64546888e-01  6.40000000e-10  7.04896161e-01  6.40000000e-10  1.58502606e+00  6.40000000e-10  1.15200000e+00  6.40000000e-10  1.81192288e+00  6.40000000e-10  7.07180872e-01  6.40000000e-10  1.59267918e+00  6.40000000e-10  1.59279594e+00                                 
 1.00000000e-09  7.65180485e-01  1.00000000e-09  7.05119172e-01  1.00000000e-09  1.55926433e+00  1.00000000e-09  1.80000000e+00  1.00000000e-09  9.06467194e-02  1.00000000e-09  7.17006772e-01  1.00000000e-09  1.59138061e+00  1.00000000e-09  1.59274779e+00                                 
 1.03634494e-09  7.65205300e-01  1.03634494e-09  7.05159085e-01  1.03634494e-09  1.55848208e+00  1.03634494e-09  1.80000000e+00  1.03634494e-09  2.00506700e-02  1.03634494e-09  7.19847033e-01  1.03634494e-09  1.59291765e+00  1.03634494e-09  1.59278875e+00                                 
 1.10903483e-09  7.65290319e-01  1.10903483e-09  7.05231255e-01  1.10903483e-09  1.55809843e+00  1.10903483e-09  1.80000000e+00  1.10903483e-09 -9.62495301e-03  1.10903483e-09  7.23523691e-01  1.10903483e-09  1.59577833e+00  1.10903483e-09  1.59281799e+00                                 
 1.25441461e-09  7.65405635e-01  1.25441461e-09  7.05104397e-01  1.25441461e-09  1.55629684e+00  1.25441461e-09  1.80000000e+00  1.25441461e-09  8.17683652e-03  1.25441461e-09  7.23741141e-01  1.25441461e-09  1.59620886e+00  1.25441461e-09  1.59277185e+00                                 
 1.47399351e-09  7.65404346e-01  1.47399351e-09  7.05078186e-01  1.47399351e-09  1.55522169e+00  1.47399351e-09  1.80000000e+00  1.47399351e-09 -6.40354413e-03  1.47399351e-09  7.23258399e-01  1.47399351e-09  1.59559337e+00  1.47399351e-09  1.59280405e+00                                 
 1.70827373e-09  7.65312633e-01  1.70827373e-09  7.05072533e-01  1.70827373e-09  1.55515625e+00  1.70827373e-09  1.80000000e+00  1.70827373e-09  5.55295129e-03  1.70827373e-09  7.21978253e-01  1.70827373e-09  1.59468077e+00  1.70827373e-09  1.59280603e+00                                 
 2.10424145e-09  7.65050023e-01  2.10424145e-09  7.05027481e-01  2.10424145e-09  1.55562394e+00  2.10424145e-09  1.80000000e+00  2.10424145e-09 -5.07598498e-03  2.10424145e-09  7.19873687e-01  2.10424145e-09  1.59272874e+00  2.10424145e-09  1.59288152e+00                                 
 2.47105774e-09  7.64864597e-01  2.47105774e-09  7.05034339e-01  2.47105774e-09  1.55632605e+00  2.47105774e-09  1.80000000e+00  2.47105774e-09  4.49414065e-03  2.47105774e-09  7.18248915e-01  2.47105774e-09  1.59148641e+00  2.47105774e-09  1.59293545e+00                                 
 3.13307656e-09  7.64642440e-01  3.13307656e-09  7.04993189e-01  3.13307656e-09  1.55635794e+00  3.13307656e-09  1.80000000e+00  3.13307656e-09 -4.33635991e-03  3.13307656e-09  7.15266611e-01  3.13307656e-09  1.58880852e+00  3.13307656e-09  1.59305716e+00                                 
 4.08574656e-09  7.64532884e-01  4.08574656e-09  7.05012576e-01  4.08574656e-09  1.55602511e+00  4.08574656e-09  1.80000000e+00  4.08574656e-09  4.08298009e-03  4.08574656e-09  7.12268050e-01  4.08574656e-09  1.58637942e+00  4.08574656e-09  1.59317339e+00                                 
 5.99108655e-09  7.64453055e-01  5.99108655e-09  7.04995394e-01  5.99108655e-09  1.55398011e+00  5.99108655e-09  1.80000000e+00  5.99108655e-09 -4.06511934e-03  5.99108655e-09  7.08131946e-01  5.99108655e-09  1.58273302e+00  5.99108655e-09  1.59324842e+00                                 
 7.60604815e-09  7.64449819e-01  7.60604815e-09  7.05031495e-01  7.60604815e-09  1.55251189e+00  7.60604815e-09  1.80000000e+00  7.60604815e-09  3.94484767e-03  7.60604815e-09  7.06775460e-01  7.60604815e-09  1.58170176e+00  7.60604815e-09  1.59314203e+00                                 
 9.14703681e-09  7.64467297e-01  9.14703681e-09  7.05010214e-01  9.14703681e-09  1.54941701e+00  9.14703681e-09  1.80000000e+00  9.14703681e-09 -3.86493133e-03  9.14703681e-09  7.05868125e-01  9.14703681e-09  1.58080883e+00  9.14703681e-09  1.59296767e+00                                 
 1.07913458e-08  7.64510299e-01  1.07913458e-08  7.05039744e-01  1.07913458e-08  1.54536701e+00  1.07913458e-08  1.80000000e+00  1.07913458e-08  3.77372809e-03  1.07913458e-08  7.05774636e-01  1.07913458e-08  1.58084212e+00  1.07913458e-08  1.59273090e+00                                 
 1.31019001e-08  7.64551725e-01  1.31019001e-08  7.05015315e-01  1.31019001e-08  1.53725654e+00  1.31019001e-08  1.80000000e+00  1.31019001e-08 -3.71569374e-03  1.31019001e-08  7.05482299e-01  1.31019001e-08  1.58046806e+00  1.31019001e-08  1.59238911e+00                                 
 1.59144293e-08  7.64596829e-01  1.59144293e-08  7.05043091e-01  1.59144293e-08  1.52626210e+00  1.59144293e-08  1.80000000e+00  1.59144293e-08  3.66921707e-03  1.59144293e-08  7.05832807e-01  1.59144293e-08  1.58086458e+00  1.59144293e-08  1.59197955e+00                                 
 1.98401356e-08  7.64615698e-01  1.98401356e-08  7.05017385e-01  1.98401356e-08  1.50880381e+00  1.98401356e-08  1.80000000e+00  1.98401356e-08 -3.63244806e-03  1.98401356e-08  7.05878671e-01  1.98401356e-08  1.58076989e+00  1.98401356e-08  1.59147616e+00                                 
 2.51458428e-08  7.64628895e-01  2.51458428e-08  7.05044210e-01  2.51458428e-08  1.48484373e+00  2.51458428e-08  1.80000000e+00  2.51458428e-08  3.61076766e-03  2.51458428e-08  7.06425790e-01  2.51458428e-08  1.58132342e+00  2.51458428e-08  1.59090528e+00                                 
 3.41866841e-08  7.64620425e-01  3.41866841e-08  7.05017566e-01  3.41866841e-08  1.44270805e+00  3.41866841e-08  1.80000000e+00  3.41866841e-08 -3.59307372e-03  3.41866841e-08  7.06589025e-01  3.41866841e-08  1.58132395e+00  3.41866841e-08  1.59018506e+00                                 
 4.80722083e-08  7.64622131e-01  4.80722083e-08  7.05043873e-01  4.80722083e-08  1.37841480e+00  4.80722083e-08  1.80000000e+00  4.80722083e-08  3.58662983e-03  4.80722083e-08  7.07133469e-01  4.80722083e-08  1.58187600e+00  4.80722083e-08  1.58948017e+00                                 
 7.58432567e-08  7.64613479e-01  7.58432567e-08  7.05017233e-01  7.58432567e-08  1.24936206e+00  7.58432567e-08  1.80000000e+00  7.58432567e-08 -3.57897471e-03  7.58432567e-08  7.07132851e-01  7.58432567e-08  1.58174861e+00  7.58432567e-08  1.58882020e+00                                 
 1.18328175e-07  7.64618575e-01  1.18328175e-07  7.05043746e-01  1.18328175e-07  1.05457057e+00  1.18328175e-07  1.80000000e+00  1.18328175e-07  3.57918720e-03  1.18328175e-07  7.07392345e-01  1.18328175e-07  1.58207406e+00  1.18328175e-07  1.58853232e+00                                 
 1.79976477e-07  7.64612663e-01  1.79976477e-07  7.05017205e-01  1.79976477e-07  8.03914779e-01  1.79976477e-07  1.80000000e+00  1.79976477e-07 -3.57183366e-03  1.79976477e-07  7.07163144e-01  1.79976477e-07  1.58176437e+00  1.79976477e-07  1.58846296e+00                                 
 2.34263258e-07  7.64619905e-01  2.34263258e-07  7.05043847e-01  2.34263258e-07  7.06768232e-01  2.34263258e-07  1.80000000e+00  2.34263258e-07  3.57960804e-03  2.34263258e-07  7.07393426e-01  2.34263258e-07  1.58206852e+00  2.34263258e-07  1.58845464e+00                                 
 2.83360687e-07  7.64610126e-01  2.83360687e-07  7.05017098e-01  2.83360687e-07  7.09875857e-01  2.83360687e-07  1.80000000e+00  2.83360687e-07 -3.56456356e-03  2.83360687e-07  7.07166166e-01  2.83360687e-07  1.58176301e+00  2.83360687e-07  1.58845601e+00                                 
 3.05066910e-07  7.64621068e-01  3.05066910e-07  7.05043798e-01  3.05066910e-07  7.09916865e-01  3.05066910e-07  1.80000000e+00  3.05066910e-07  3.57120788e-03  3.05066910e-07  7.07389379e-01  3.05066910e-07  1.58206239e+00  3.05066910e-07  1.58845210e+00                                 
 3.40358282e-07  7.64610650e-01  3.40358282e-07  7.05017213e-01  3.40358282e-07  7.09353699e-01  3.40358282e-07  1.80000000e+00  3.40358282e-07 -3.55528787e-03  3.40358282e-07  7.07166063e-01  3.40358282e-07  1.58176093e+00  3.40358282e-07  1.58845246e+00                                 
 4.10941028e-07  7.64620591e-01  4.10941028e-07  7.05043755e-01  4.10941028e-07  7.09775173e-01  4.10941028e-07  1.80000000e+00  4.10941028e-07  3.56589441e-03  4.10941028e-07  7.07390058e-01  4.10941028e-07  1.58205901e+00  4.10941028e-07  1.58844760e+00                                 
 5.35959547e-07  7.64610840e-01  5.35959547e-07  7.05017223e-01  5.35959547e-07  7.09365242e-01  5.35959547e-07  1.80000000e+00  5.35959547e-07 -3.55253257e-03  5.35959547e-07  7.07165862e-01  5.35959547e-07  1.58175369e+00  5.35959547e-07  1.58844523e+00                                 
 7.85996585e-07  7.64620493e-01  7.85996585e-07  7.05043751e-01  7.85996585e-07  7.09769700e-01  7.85996585e-07  1.80000000e+00  7.85996585e-07  3.56439488e-03  7.85996585e-07  7.07390153e-01  7.85996585e-07  1.58204543e+00  7.85996585e-07  1.58843398e+00                                 
 1.28607066e-06  7.64610889e-01  1.28607066e-06  7.05017225e-01  1.28607066e-06  7.09367822e-01  1.28607066e-06  1.80000000e+00  1.28607066e-06 -3.55177978e-03  1.28607066e-06  7.07165817e-01  1.28607066e-06  1.58172635e+00  1.28607066e-06  1.58841797e+00                                 
 2.28621881e-06  7.64620470e-01  2.28621881e-06  7.05043751e-01  2.28621881e-06  7.09768431e-01  2.28621881e-06  1.80000000e+00  2.28621881e-06  3.56402006e-03  2.28621881e-06  7.07390176e-01  2.28621881e-06  1.58199075e+00  2.28621881e-06  1.58837936e+00                                 
 3.48621881e-06  7.64610903e-01  3.48621881e-06  7.05017226e-01  3.48621881e-06  7.09368605e-01  3.48621881e-06  1.80000000e+00  3.48621881e-06 -3.55157429e-03  3.48621881e-06  7.07165804e-01  3.48621881e-06  1.58164614e+00  3.48621881e-06  1.58833788e+00                                 
 4.68621881e-06  7.64620456e-01  4.68621881e-06  7.05043751e-01  4.68621881e-06  7.09767759e-01  4.68621881e-06  1.80000000e+00  4.68621881e-06  3.56381343e-03  4.68621881e-06  7.07390188e-01  4.68621881e-06  1.58190332e+00  4.68621881e-06  1.58829205e+00                                 
 5.88621881e-06  7.64610916e-01  5.88621881e-06  7.05017226e-01  5.88621881e-06  7.09369293e-01  5.88621881e-06  1.80000000e+00  5.88621881e-06 -3.55137025e-03  5.88621881e-06  7.07165792e-01  5.88621881e-06  1.58155871e+00  5.88621881e-06  1.58825059e+00                                 
 6.00100000e-06  7.64620384e-01  6.00100000e-06  7.05043749e-01  6.00100000e-06  7.09763948e-01  6.00100000e-06  1.80000000e+00  6.00100000e-06  3.56262089e-03  6.00100000e-06  7.07390251e-01  6.00100000e-06  1.58185546e+00  6.00100000e-06  1.58824423e+00                                 
 6.00110000e-06  7.64574382e-01  6.00110000e-06  7.04789923e-01  6.00110000e-06  7.07799138e-01  6.00110000e-06  1.62000000e+00  6.00110000e-06  1.88513934e-04  6.00110000e-06  7.05639568e-01  6.00110000e-06  1.58031194e+00  6.00110000e-06  1.58823306e+00                                 
 6.00130000e-06  7.64605708e-01  6.00130000e-06  7.04798256e-01  6.00130000e-06  7.08091677e-01  6.00130000e-06  1.26000000e+00  6.00130000e-06 -2.19367858e-04  6.00130000e-06  7.05582280e-01  6.00130000e-06  1.58025756e+00  6.00130000e-06  1.58825174e+00                                 
 6.00170000e-06  7.64661656e-01  6.00170000e-06  7.04355014e-01  6.00170000e-06  7.25835190e-01  6.00170000e-06  5.40000000e-01  6.00170000e-06  1.51747386e+00  6.00170000e-06  6.98915522e-01  6.00170000e-06  1.49522015e+00  6.00170000e-06  1.58792572e+00                                 
 6.00200000e-06  7.64600227e-01  6.00200000e-06  7.02020303e-01  6.00200000e-06  7.54920137e-01  6.00200000e-06  0.00000000e+00  6.00200000e-06  1.87246379e+00  6.00200000e-06  6.74263508e-01  6.00200000e-06  1.16312993e+00  6.00200000e-06  1.58782401e+00                                 
 6.00203707e-06  7.64612952e-01  6.00203707e-06  7.02080980e-01  6.00203707e-06  7.49546478e-01  6.00203707e-06  0.00000000e+00  6.00203707e-06  1.82794243e+00  6.00203707e-06  6.75218896e-01  6.00203707e-06  1.11873891e+00  6.00203707e-06  1.58817328e+00                                 
 6.00211121e-06  7.64619031e-01  6.00211121e-06  7.02318671e-01  6.00211121e-06  7.41705311e-01  6.00211121e-06  0.00000000e+00  6.00211121e-06  1.79226428e+00  6.00211121e-06  6.78498906e-01  6.00211121e-06  1.04383942e+00  6.00211121e-06  1.58846383e+00                                 
 6.00225950e-06  7.64614617e-01  6.00225950e-06  7.02639068e-01  6.00225950e-06  7.37798653e-01  6.00225950e-06  0.00000000e+00  6.00225950e-06  1.80236615e+00  6.00225950e-06  6.82439825e-01  6.00225950e-06  9.28083431e-01  6.00225950e-06  1.58839275e+00                                 
 6.00246923e-06  7.64616055e-01  6.00246923e-06  7.03235397e-01  6.00246923e-06  7.29585697e-01  6.00246923e-06  0.00000000e+00  6.00246923e-06  1.79739354e+00  6.00246923e-06  6.88247779e-01  6.00246923e-06  8.10833115e-01  6.00246923e-06  1.58852745e+00                                 
 6.00268920e-06  7.64614311e-01  6.00268920e-06  7.04195050e-01  6.00268920e-06  7.19424317e-01  6.00268920e-06  0.00000000e+00  6.00268920e-06  1.80098115e+00  6.00268920e-06  6.97496259e-01  6.00268920e-06  7.49325731e-01  6.00268920e-06  1.58848532e+00                                 
 6.00292962e-06  7.64615511e-01  6.00292962e-06  7.04867361e-01  6.00292962e-06  7.13869588e-01  6.00292962e-06  0.00000000e+00  6.00292962e-06  1.79930907e+00  6.00292962e-06  7.02895951e-01  6.00292962e-06  7.22719157e-01  6.00292962e-06  1.58834761e+00                                 
 6.00321154e-06  7.64614735e-01  6.00321154e-06  7.05340224e-01  6.00321154e-06  7.10805686e-01  6.00321154e-06  0.00000000e+00  6.00321154e-06  1.80048808e+00  6.00321154e-06  7.06443666e-01  6.00321154e-06  7.13773753e-01  6.00321154e-06  1.58780462e+00                                 
 6.00351543e-06  7.64615719e-01  6.00351543e-06  7.05502186e-01  6.00351543e-06  7.10669459e-01  6.00351543e-06  0.00000000e+00  6.00351543e-06  1.79972272e+00  6.00351543e-06  7.07369292e-01  6.00351543e-06  7.10933557e-01  6.00351543e-06  1.58702585e+00                                 
 6.00396005e-06  7.64615209e-01  6.00396005e-06  7.05580308e-01  6.00396005e-06  7.10661918e-01  6.00396005e-06  0.00000000e+00  6.00396005e-06  1.80022381e+00  6.00396005e-06  7.08203197e-01  6.00396005e-06  7.10859467e-01  6.00396005e-06  1.58556880e+00                                 
 6.00465192e-06  7.64616014e-01  6.00465192e-06  7.05521300e-01  6.00465192e-06  7.12375026e-01  6.00465192e-06  0.00000000e+00  6.00465192e-06  1.79984388e+00  6.00465192e-06  7.08265238e-01  6.00465192e-06  7.11828830e-01  6.00465192e-06  1.58306277e+00                                 
 6.00591993e-06  7.64615430e-01  6.00591993e-06  7.05426311e-01  6.00591993e-06  7.14861051e-01  6.00591993e-06  0.00000000e+00  6.00591993e-06  1.80015610e+00  6.00591993e-06  7.08600123e-01  6.00591993e-06  7.14831512e-01  6.00591993e-06  1.57802263e+00                                 
 6.00842100e-06  7.64616003e-01  6.00842100e-06  7.05239463e-01  6.00842100e-06  7.21269178e-01  6.00842100e-06  0.00000000e+00  6.00842100e-06  1.79987502e+00  6.00842100e-06  7.08428170e-01  6.00842100e-06  7.20635562e-01  6.00842100e-06  1.56765566e+00                                 
 6.01342313e-06  7.64615368e-01  6.01342313e-06  7.05059626e-01  6.01342313e-06  7.33125174e-01  6.01342313e-06  0.00000000e+00  6.01342313e-06  1.80014020e+00  6.01342313e-06  7.08343021e-01  6.01342313e-06  7.33050037e-01  6.01342313e-06  1.54673773e+00                                 
 6.02342739e-06  7.64615987e-01  6.02342739e-06  7.04993217e-01  6.02342739e-06  7.57070756e-01  6.02342739e-06  0.00000000e+00  6.02342739e-06  1.79988167e+00  6.02342739e-06  7.07761829e-01  6.02342739e-06  7.56350169e-01  6.02342739e-06  1.50650968e+00                                 
 6.04343591e-06  7.64615375e-01  6.04343591e-06  7.05039139e-01  6.04343591e-06  8.00412304e-01  6.04343591e-06  0.00000000e+00  6.04343591e-06  1.80013527e+00  6.04343591e-06  7.07508068e-01  6.04343591e-06  8.00370547e-01  6.04343591e-06  1.43227384e+00                                 
 6.08345296e-06  7.64615989e-01  6.08345296e-06  7.05018798e-01  6.08345296e-06  8.75735761e-01  6.08345296e-06  0.00000000e+00  6.08345296e-06  1.79988053e+00  6.08345296e-06  7.07176837e-01  6.08345296e-06  8.74312392e-01  6.08345296e-06  1.30217574e+00                                 
 6.16348706e-06  7.64615377e-01  6.16348706e-06  7.05041830e-01  6.16348706e-06  9.85375064e-01  6.16348706e-06  0.00000000e+00  6.16348706e-06  1.80012958e+00  6.16348706e-06  7.07354978e-01  6.16348706e-06  9.85952798e-01  6.16348706e-06  1.09495408e+00                                 
 6.25470309e-06  7.64615989e-01  6.25470309e-06  7.05019558e-01  6.25470309e-06  1.06387161e+00  6.25470309e-06  0.00000000e+00  6.25470309e-06  1.79987616e+00  6.25470309e-06  7.07188928e-01  6.25470309e-06  1.06185462e+00  6.25470309e-06  1.03596081e+00                                 
 6.34706481e-06  7.64615377e-01  6.34706481e-06  7.05041105e-01  6.34706481e-06  1.11035847e+00  6.34706481e-06  0.00000000e+00  6.34706481e-06  1.80012650e+00  6.34706481e-06  7.07360144e-01  6.34706481e-06  1.11128946e+00  6.34706481e-06  1.10204854e+00                                 
 6.43009968e-06  7.64615988e-01  6.43009968e-06  7.05020211e-01  6.43009968e-06  1.13613684e+00  6.43009968e-06  0.00000000e+00  6.43009968e-06  1.79987522e+00  6.43009968e-06  7.07190025e-01  6.43009968e-06  1.13493719e+00  6.43009968e-06  1.13278027e+00                                 
