 time            v(vbep)         time            v(vben)         time            v(vout)         time            v(vphi1)        time            v(vphi2)        time            v(vref)         yes             currtemp       
 0.00000000e+00  6.48869947e-01  0.00000000e+00  5.89243752e-01  0.00000000e+00  1.04249965e+00  0.00000000e+00  0.00000000e+00  0.00000000e+00  1.79993286e+00  0.00000000e+00  5.89243752e-01  1.00000000e+00  5.30000000e+01 
 5.00000000e-12  6.48829747e-01  5.00000000e-12  5.89210718e-01  5.00000000e-12  1.04323560e+00  5.00000000e-12  1.80000000e-02  5.00000000e-12  1.80006243e+00  5.00000000e-12  5.89210718e-01                                 
 1.00000000e-11  6.48791060e-01  1.00000000e-11  5.89178732e-01  1.00000000e-11  1.04390449e+00  1.00000000e-11  3.60000000e-02  1.00000000e-11  1.80014096e+00  1.00000000e-11  5.89178732e-01                                 
 2.00000000e-11  6.48714682e-01  2.00000000e-11  5.89115068e-01  2.00000000e-11  1.04513640e+00  2.00000000e-11  7.20000000e-02  2.00000000e-11  1.80022998e+00  2.00000000e-11  5.89115068e-01                                 
 4.00000000e-11  6.48563627e-01  4.00000000e-11  5.88988359e-01  4.00000000e-11  1.04711050e+00  4.00000000e-11  1.44000000e-01  4.00000000e-11  1.80022301e+00  4.00000000e-11  5.88988359e-01                                 
 8.00000000e-11  6.48263316e-01  8.00000000e-11  5.88736356e-01  8.00000000e-11  1.04972522e+00  8.00000000e-11  2.88000000e-01  8.00000000e-11  1.80012364e+00  8.00000000e-11  5.88736356e-01                                 
 1.60000000e-10  6.47670603e-01  1.60000000e-10  5.88237972e-01  1.60000000e-10  1.05184292e+00  1.60000000e-10  5.76000000e-01  1.60000000e-10  1.80001088e+00  1.60000000e-10  5.88237972e-01                                 
 3.20000000e-10  6.46514598e-01  3.20000000e-10  5.87262788e-01  3.20000000e-10  1.04480285e+00  3.20000000e-10  1.15200000e+00  3.20000000e-10  1.80029254e+00  3.20000000e-10  5.87262788e-01                                 
 5.00000000e-10  6.45259157e-01  5.00000000e-10  5.86198685e-01  5.00000000e-10  1.15208124e+00  5.00000000e-10  1.80000000e+00  5.00000000e-10  1.63266946e-01  5.00000000e-10  5.86198685e-01                                 
 5.21725366e-10  6.45111085e-01  5.21725366e-10  5.86072813e-01  5.21725366e-10  1.17917192e+00  5.21725366e-10  1.80000000e+00  5.21725366e-10  4.21714973e-02  5.21725366e-10  5.86072813e-01                                 
 5.65176098e-10  6.44816185e-01  5.65176098e-10  5.85821961e-01  5.65176098e-10  1.23319327e+00  5.65176098e-10  1.80000000e+00  5.65176098e-10 -1.53203964e-02  5.65176098e-10  5.85821961e-01                                 
 6.52077563e-10  6.44233930e-01  6.52077563e-10  5.85325862e-01  6.52077563e-10  1.33042661e+00  6.52077563e-10  1.80000000e+00  6.52077563e-10  1.29176266e-02  6.52077563e-10  5.85325862e-01                                 
 7.72582516e-10  6.43442718e-01  7.72582516e-10  5.84649980e-01  7.72582516e-10  1.44719130e+00  7.72582516e-10  1.80000000e+00  7.72582516e-10 -9.65356440e-03  7.72582516e-10  5.84649980e-01                                 
 9.55265794e-10  6.42277404e-01  9.55265794e-10  5.83650917e-01  9.55265794e-10  1.58943600e+00  9.55265794e-10  1.80000000e+00  9.55265794e-10  9.52373116e-03  9.55265794e-10  5.83650917e-01                                 
 1.32063235e-09  6.40060241e-01  1.32063235e-09  5.81738513e-01  1.32063235e-09  1.76542628e+00  1.32063235e-09  1.80000000e+00  1.32063235e-09 -8.29948535e-03  1.32063235e-09  5.81738513e-01                                 
 1.66045039e-09  6.38123165e-01  1.66045039e-09  5.80055117e-01  1.66045039e-09  1.84007880e+00  1.66045039e-09  1.80000000e+00  1.66045039e-09  8.12302350e-03  1.66045039e-09  5.80055117e-01                                 
 2.03723738e-09  6.36100316e-01  2.03723738e-09  5.78285032e-01  2.03723738e-09  1.87254680e+00  2.03723738e-09  1.80000000e+00  2.03723738e-09 -7.49579909e-03  2.03723738e-09  5.78285032e-01                                 
 2.38548973e-09  6.34335916e-01  2.38548973e-09  5.76731123e-01  2.38548973e-09  1.88316838e+00  2.38548973e-09  1.80000000e+00  2.38548973e-09  7.12492422e-03  2.38548973e-09  5.76731123e-01                                 
 2.90398578e-09  6.31873332e-01  2.90398578e-09  5.74547505e-01  2.90398578e-09  1.88641366e+00  2.90398578e-09  1.80000000e+00  2.90398578e-09 -6.77898059e-03  2.90398578e-09  5.74547505e-01                                 
 3.55226613e-09  6.29036530e-01  3.55226613e-09  5.72011169e-01  3.55226613e-09  1.88538313e+00  3.55226613e-09  1.80000000e+00  3.55226613e-09  6.58892204e-03  3.55226613e-09  5.72011169e-01                                 
 4.66195028e-09  6.24691159e-01  4.66195028e-09  5.68085627e-01  4.66195028e-09  1.88105223e+00  4.66195028e-09  1.80000000e+00  4.66195028e-09 -6.43155637e-03  4.66195028e-09  5.68085627e-01                                 
 6.36940206e-09  6.18981468e-01  6.36940206e-09  5.62857493e-01  6.36940206e-09  1.87586348e+00  6.36940206e-09  1.80000000e+00  6.36940206e-09  6.37796528e-03  6.36940206e-09  5.62857493e-01                                 
 9.78430560e-09  6.09924579e-01  9.78430560e-09  5.54422790e-01  9.78430560e-09  1.86704970e+00  9.78430560e-09  1.80000000e+00  9.78430560e-09 -6.30373159e-03  9.78430560e-09  5.54422790e-01                                 
 1.17822128e-08  6.05705391e-01  1.17822128e-08  5.50430864e-01  1.17822128e-08  1.86341684e+00  1.17822128e-08  1.80000000e+00  1.17822128e-08  6.26572468e-03  1.17822128e-08  5.50430864e-01                                 
 1.32569105e-08  6.02937277e-01  1.32569105e-08  5.47794297e-01  1.32569105e-08  1.86058114e+00  1.32569105e-08  1.80000000e+00  1.32569105e-08 -6.14722519e-03  1.32569105e-08  5.47794297e-01                                 
 1.48292467e-08  6.00243951e-01  1.48292467e-08  5.45216958e-01  1.48292467e-08  1.85841738e+00  1.48292467e-08  1.80000000e+00  1.48292467e-08  6.08833911e-03  1.48292467e-08  5.45216958e-01                                 
 1.65677369e-08  5.97524958e-01  1.65677369e-08  5.42603782e-01  1.65677369e-08  1.85566052e+00  1.65677369e-08  1.80000000e+00  1.65677369e-08 -5.98831347e-03  1.65677369e-08  5.42603782e-01                                 
 1.85463699e-08  5.94705853e-01  1.85463699e-08  5.39883284e-01  1.85463699e-08  1.85341437e+00  1.85463699e-08  1.80000000e+00  1.85463699e-08  5.94686714e-03  1.85463699e-08  5.39883284e-01                                 
 2.08361766e-08  5.91745819e-01  2.08361766e-08  5.37015580e-01  2.08361766e-08  1.85047813e+00  2.08361766e-08  1.80000000e+00  2.08361766e-08 -5.86702871e-03  2.08361766e-08  5.37015580e-01                                 
 2.43510103e-08  5.87702048e-01  2.43510103e-08  5.33081715e-01  2.43510103e-08  1.84720521e+00  2.43510103e-08  1.80000000e+00  2.43510103e-08  5.85482274e-03  2.43510103e-08  5.33081715e-01                                 
 2.82066515e-08  5.83820161e-01  2.82066515e-08  5.29289097e-01  2.82066515e-08  1.84358716e+00  2.82066515e-08  1.80000000e+00  2.82066515e-08 -5.79785814e-03  2.82066515e-08  5.29289097e-01                                 
 3.46572919e-08  5.78274603e-01  3.46572919e-08  5.23846125e-01  3.46572919e-08  1.83919995e+00  3.46572919e-08  1.80000000e+00  3.46572919e-08  5.80310429e-03  3.46572919e-08  5.23846125e-01                                 
 4.48935622e-08  5.71183766e-01  4.48935622e-08  5.16844915e-01  4.48935622e-08  1.83309413e+00  4.48935622e-08  1.80000000e+00  4.48935622e-08 -5.76562813e-03  4.48935622e-08  5.16844915e-01                                 
 6.53661028e-08  5.60613970e-01  6.53661028e-08  5.06346791e-01  6.53661028e-08  1.81983486e+00  6.53661028e-08  1.80000000e+00  6.53661028e-08  5.78526881e-03  6.53661028e-08  5.06346791e-01                                 
 8.56338325e-08  5.52072470e-01  8.56338325e-08  4.98016203e-01  8.56338325e-08  1.79988353e+00  8.56338325e-08  1.80000000e+00  8.56338325e-08 -5.75351844e-03  8.56338325e-08  4.98016203e-01                                 
 1.10303145e-07  5.39631119e-01  1.10303145e-07  4.86680011e-01  1.10303145e-07  1.77204040e+00  1.10303145e-07  1.80000000e+00  1.10303145e-07  5.77376155e-03  1.10303145e-07  4.86680011e-01                                 
 1.31614069e-07  5.29427455e-01  1.31614069e-07  4.77569439e-01  1.31614069e-07  1.73582920e+00  1.31614069e-07  1.80000000e+00  1.31614069e-07 -5.74337197e-03  1.31614069e-07  4.77569439e-01                                 
 1.54761771e-07  5.20108134e-01  1.54761771e-07  4.69257741e-01  1.54761771e-07  1.69597130e+00  1.54761771e-07  1.80000000e+00  1.54761771e-07  5.76289183e-03  1.54761771e-07  4.69257741e-01                                 
 1.79846813e-07  5.16514317e-01  1.79846813e-07  4.65540499e-01  1.79846813e-07  1.66732693e+00  1.79846813e-07  1.80000000e+00  1.79846813e-07 -5.73180370e-03  1.79846813e-07  4.65540499e-01                                 
 2.13372667e-07  5.19993679e-01  2.13372667e-07  4.67251751e-01  2.13372667e-07  1.65264473e+00  2.13372667e-07  1.80000000e+00  2.13372667e-07  5.75585341e-03  2.13372667e-07  4.67251751e-01                                 
 2.34037655e-07  5.19251891e-01  2.34037655e-07  4.66082627e-01  2.34037655e-07  1.63136240e+00  2.34037655e-07  1.80000000e+00  2.34037655e-07 -5.72340776e-03  2.34037655e-07  4.66082627e-01                                 
 2.58441287e-07  5.15060883e-01  2.58441287e-07  4.62139964e-01  2.58441287e-07  1.60186897e+00  2.58441287e-07  1.80000000e+00  2.58441287e-07  5.74436631e-03  2.58441287e-07  4.62139964e-01                                 
 2.83900838e-07  5.09406532e-01  2.83900838e-07  4.57075170e-01  2.83900838e-07  1.56964718e+00  2.83900838e-07  1.80000000e+00  2.83900838e-07 -5.71388019e-03  2.83900838e-07  4.57075170e-01                                 
 3.11769853e-07  5.02372354e-01  3.11769853e-07  4.50928456e-01  3.11769853e-07  1.53560869e+00  3.11769853e-07  1.80000000e+00  3.11769853e-07  5.73518660e-03  3.11769853e-07  4.50928456e-01                                 
 3.64656344e-07  4.89407334e-01  3.64656344e-07  4.39730551e-01  3.64656344e-07  1.46790307e+00  3.64656344e-07  1.80000000e+00  3.64656344e-07 -5.70719128e-03  3.64656344e-07  4.39730551e-01                                 
 4.42223125e-07  4.70094999e-01  4.42223125e-07  4.23386118e-01  4.42223125e-07  1.36989292e+00  4.42223125e-07  1.80000000e+00  4.42223125e-07  5.73136275e-03  4.42223125e-07  4.23386118e-01                                 
 5.89727147e-07  4.17461508e-01  5.89727147e-07  3.80429392e-01  5.89727147e-07  1.16429657e+00  5.89727147e-07  1.80000000e+00  5.89727147e-07 -5.70532952e-03  5.89727147e-07  3.80429392e-01                                 
 6.08226487e-07  4.10545829e-01  6.08226487e-07  3.74855205e-01  6.08226487e-07  1.13892688e+00  6.08226487e-07  1.80000000e+00  6.08226487e-07 -7.30249489e-07  6.08226487e-07  3.74855205e-01                                 
 6.45225166e-07  3.95172704e-01  6.45225166e-07  3.62490296e-01  6.45225166e-07  1.08588948e+00  6.45225166e-07  1.80000000e+00  6.45225166e-07  2.20578624e-06  6.45225166e-07  3.62490296e-01                                 
 7.19222524e-07  4.74931732e-01  7.19222524e-07  4.26208247e-01  7.19222524e-07  1.08669001e+00  7.19222524e-07  1.80000000e+00  7.19222524e-07  4.66845351e-06  7.19222524e-07  4.26208247e-01                                 
 7.33844891e-07  5.56219269e-01  7.33844891e-07  4.91837843e-01  7.33844891e-07  1.14923627e+00  7.33844891e-07  1.80000000e+00  7.33844891e-07  1.20391674e-05  7.33844891e-07  4.91837843e-01                                 
 7.63089626e-07  6.81254400e-01  7.63089626e-07  6.17746825e-01  7.63089626e-07  1.23939465e+00  7.63089626e-07  1.80000000e+00  7.63089626e-07  1.11224563e-05  7.63089626e-07  6.17746825e-01                                 
 8.02836175e-07  7.45952490e-01  8.02836175e-07  6.80970516e-01  8.02836175e-07  1.26018586e+00  8.02836175e-07  1.80000000e+00  8.02836175e-07  1.04044458e-07  8.02836175e-07  6.80970516e-01                                 
 8.44567357e-07  7.73772723e-01  8.44567357e-07  7.03845828e-01  8.44567357e-07  1.24238872e+00  8.44567357e-07  1.80000000e+00  8.44567357e-07  5.97564282e-06  8.44567357e-07  7.03845828e-01                                 
 8.88717997e-07  7.74311246e-01  8.88717997e-07  7.04485822e-01  8.88717997e-07  1.19731368e+00  8.88717997e-07  1.80000000e+00  8.88717997e-07 -2.95034549e-06  8.88717997e-07  7.04485822e-01                                 
 8.94847108e-07  7.74063902e-01  8.94847108e-07  7.04199239e-01  8.94847108e-07  1.19031616e+00  8.94847108e-07  1.80000000e+00  8.94847108e-07  1.29101966e-06  8.94847108e-07  7.04199239e-01                                 
 9.07105331e-07  7.73937869e-01  9.07105331e-07  7.04080001e-01  9.07105331e-07  1.17722417e+00  9.07105331e-07  1.80000000e+00  9.07105331e-07  1.56950277e-06  9.07105331e-07  7.04080001e-01                                 
 9.31621776e-07  7.73950762e-01  9.31621776e-07  7.04105874e-01  9.31621776e-07  1.15161395e+00  9.31621776e-07  1.80000000e+00  9.31621776e-07  1.37213504e-06  9.31621776e-07  7.04105874e-01                                 
 9.65959163e-07  7.60505392e-01  9.65959163e-07  6.93255218e-01  9.65959163e-07  1.10331774e+00  9.65959163e-07  1.80000000e+00  9.65959163e-07 -2.63514524e-07  9.65959163e-07  6.93255218e-01                                 
 1.00621832e-06  7.27226212e-01  1.00621832e-06  6.64131639e-01  1.00621832e-06  1.03149880e+00  1.00621832e-06  1.80000000e+00  1.00621832e-06 -7.27193566e-07  1.00621832e-06  6.64131639e-01                                 
 1.05155172e-06  7.16107737e-01  1.05155172e-06  6.53703583e-01  1.05155172e-06  9.80199037e-01  1.05155172e-06  1.80000000e+00  1.05155172e-06  2.66540520e-06  1.05155172e-06  6.53703583e-01                                 
 1.10252660e-06  7.44101656e-01  1.10252660e-06  6.79182131e-01  1.10252660e-06  9.64856957e-01  1.10252660e-06  1.80000000e+00  1.10252660e-06  3.25472245e-06  1.10252660e-06  6.79182131e-01                                 
 1.16123777e-06  7.62498591e-01  1.16123777e-06  6.94856704e-01  1.16123777e-06  9.37672532e-01  1.16123777e-06  1.80000000e+00  1.16123777e-06  1.56364513e-06  1.16123777e-06  6.94856704e-01                                 
 1.17031885e-06  7.61446455e-01  1.17031885e-06  6.93999879e-01  1.17031885e-06  9.30463349e-01  1.17031885e-06  1.80000000e+00  1.17031885e-06  1.43889599e-06  1.17031885e-06  6.93999879e-01                                 
 1.18848103e-06  7.55672710e-01  1.18848103e-06  6.89199682e-01  1.18848103e-06  9.13110942e-01  1.18848103e-06  1.80000000e+00  1.18848103e-06  5.26505671e-07  1.18848103e-06  6.89199682e-01                                 
 1.22480538e-06  7.36544076e-01  1.22480538e-06  6.72545412e-01  1.22480538e-06  8.72806431e-01  1.22480538e-06  1.80000000e+00  1.22480538e-06  4.83152744e-07  1.22480538e-06  6.72545412e-01                                 
 1.27342437e-06  7.35826573e-01  1.27342437e-06  6.71847654e-01  1.27342437e-06  8.42477715e-01  1.27342437e-06  1.80000000e+00  1.27342437e-06  2.96922782e-06  1.27342437e-06  6.71847654e-01                                 
 1.32624795e-06  7.52164034e-01  1.32624795e-06  6.86181436e-01  1.32624795e-06  8.26049094e-01  1.32624795e-06  1.80000000e+00  1.32624795e-06  2.03810470e-06  1.32624795e-06  6.86181436e-01                                 
 1.39012074e-06  7.49023039e-01  1.39012074e-06  6.83511151e-01  1.39012074e-06  7.86646647e-01  1.39012074e-06  1.80000000e+00  1.39012074e-06  1.33577985e-06  1.39012074e-06  6.83511151e-01                                 
 1.45801526e-06  7.41395952e-01  1.45801526e-06  6.76829772e-01  1.45801526e-06  7.43971971e-01  1.45801526e-06  1.80000000e+00  1.45801526e-06  1.81383716e-06  1.45801526e-06  6.76829772e-01                                 
 1.56452933e-06  7.47567057e-01  1.56452933e-06  6.82234226e-01  1.56452933e-06  7.09363897e-01  1.56452933e-06  1.80000000e+00  1.56452933e-06  2.26867409e-06  1.56452933e-06  6.82234226e-01                                 
 1.69604179e-06  7.47391967e-01  1.69604179e-06  6.82086066e-01  1.69604179e-06  6.83600934e-01  1.69604179e-06  1.80000000e+00  1.69604179e-06  1.70128992e-06  1.69604179e-06  6.82086066e-01                                 
 1.84024905e-06  7.43411653e-01  1.84024905e-06  6.78610721e-01  1.84024905e-06  6.66640777e-01  1.84024905e-06  1.80000000e+00  1.84024905e-06  2.23116126e-06  1.84024905e-06  6.78610721e-01                                 
 1.98613518e-06  7.48955821e-01  1.98613518e-06  6.83432390e-01  1.98613518e-06  6.78190847e-01  1.98613518e-06  1.80000000e+00  1.98613518e-06  2.10187514e-06  1.98613518e-06  6.83432390e-01                                 
 2.00937920e-06  7.47604829e-01  2.00937920e-06  6.82271767e-01  2.00937920e-06  6.79508928e-01  2.00937920e-06  1.80000000e+00  2.00937920e-06  1.97416103e-06  2.00937920e-06  6.82271767e-01                                 
 2.05586725e-06  7.45208310e-01  2.05586725e-06  6.80185930e-01  2.05586725e-06  6.80051223e-01  2.05586725e-06  1.80000000e+00  2.05586725e-06  1.96045782e-06  2.05586725e-06  6.80185930e-01                                 
 2.14884333e-06  7.45819557e-01  2.14884333e-06  6.80713652e-01  2.14884333e-06  6.80865555e-01  2.14884333e-06  1.80000000e+00  2.14884333e-06  2.19606493e-06  2.14884333e-06  6.80713652e-01                                 
 2.29206492e-06  7.47010490e-01  2.29206492e-06  6.81755220e-01  2.29206492e-06  6.81971613e-01  2.29206492e-06  1.80000000e+00  2.29206492e-06  1.96806132e-06  2.29206492e-06  6.81755220e-01                                 
 2.44496237e-06  7.45176046e-01  2.44496237e-06  6.80154380e-01  2.44496237e-06  6.80214176e-01  2.44496237e-06  1.80000000e+00  2.44496237e-06  2.10307488e-06  2.44496237e-06  6.80154380e-01                                 
 2.75075725e-06  7.47026406e-01  2.75075725e-06  6.81767111e-01  2.75075725e-06  6.81981514e-01  2.75075725e-06  1.80000000e+00  2.75075725e-06  2.05051984e-06  2.75075725e-06  6.81767111e-01                                 
 3.19219435e-06  7.45361340e-01  3.19219435e-06  6.80317381e-01  3.19219435e-06  6.80400340e-01  3.19219435e-06  1.80000000e+00  3.19219435e-06  2.05829584e-06  3.19219435e-06  6.80317381e-01                                 
 3.83734583e-06  7.46848106e-01  3.83734583e-06  6.81611721e-01  3.83734583e-06  6.81804886e-01  3.83734583e-06  1.80000000e+00  3.83734583e-06  2.07818531e-06  3.83734583e-06  6.81611721e-01                                 
 4.83734583e-06  7.45505893e-01  4.83734583e-06  6.80443873e-01  4.83734583e-06  6.80542737e-01  4.83734583e-06  1.80000000e+00  4.83734583e-06  2.04170578e-06  4.83734583e-06  6.80443873e-01                                 
 5.83734583e-06  7.46728492e-01  5.83734583e-06  6.81507377e-01  5.83734583e-06  6.81687306e-01  5.83734583e-06  1.80000000e+00  5.83734583e-06  2.08984473e-06  5.83734583e-06  6.81507377e-01                                 
 6.83734583e-06  7.45634233e-01  6.83734583e-06  6.80556011e-01  6.83734583e-06  6.80668462e-01  6.83734583e-06  1.80000000e+00  6.83734583e-06  2.03118064e-06  6.83734583e-06  6.80556011e-01                                 
 7.83734583e-06  7.46598833e-01  7.83734583e-06  6.81394411e-01  7.83734583e-06  6.81560409e-01  7.83734583e-06  1.80000000e+00  7.83734583e-06  2.09919112e-06  7.83734583e-06  6.81394411e-01                                 
 8.83734583e-06  7.45769935e-01  8.83734583e-06  6.80674533e-01  8.83734583e-06  6.80800985e-01  8.83734583e-06  1.80000000e+00  8.83734583e-06  2.02304613e-06  8.83734583e-06  6.80674533e-01                                 
