 time            v(vbep)         time            v(vben)         time            v(vout)         time            v(vphi1)        time            v(vphi2)        time            v(vref)         yes             currtemp       
 0.00000000e+00  6.03237662e-01  0.00000000e+00  5.41167014e-01  0.00000000e+00  3.09370555e-01  0.00000000e+00  0.00000000e+00  0.00000000e+00  1.79995828e+00  0.00000000e+00  5.41167014e-01  1.00000000e+00  6.70000000e+01 
 5.00000000e-12  6.03214477e-01  5.00000000e-12  5.41147771e-01  5.00000000e-12  3.09891455e-01  5.00000000e-12  1.80000000e-02  5.00000000e-12  1.80006600e+00  5.00000000e-12  5.41147771e-01                                 
 1.00000000e-11  6.03191722e-01  1.00000000e-11  5.41128972e-01  1.00000000e-11  3.10318036e-01  1.00000000e-11  3.60000000e-02  1.00000000e-11  1.80012626e+00  1.00000000e-11  5.41128972e-01                                 
 2.00000000e-11  6.03146447e-01  2.00000000e-11  5.41091493e-01  2.00000000e-11  3.11027977e-01  2.00000000e-11  7.20000000e-02  2.00000000e-11  1.80018732e+00  2.00000000e-11  5.41091493e-01                                 
 4.00000000e-11  6.03056302e-01  4.00000000e-11  5.41016765e-01  4.00000000e-11  3.11871822e-01  4.00000000e-11  1.44000000e-01  4.00000000e-11  1.80015922e+00  4.00000000e-11  5.41016765e-01                                 
 8.00000000e-11  6.02876678e-01  8.00000000e-11  5.40867796e-01  8.00000000e-11  3.12584577e-01  8.00000000e-11  2.88000000e-01  8.00000000e-11  1.80007942e+00  8.00000000e-11  5.40867796e-01                                 
 1.60000000e-10  6.02520251e-01  1.60000000e-10  5.40571804e-01  1.60000000e-10  3.13158811e-01  1.60000000e-10  5.76000000e-01  1.60000000e-10  1.80003554e+00  1.60000000e-10  5.40571804e-01                                 
 3.20000000e-10  6.01818208e-01  3.20000000e-10  5.39987419e-01  3.20000000e-10  3.13346673e-01  3.20000000e-10  1.15200000e+00  3.20000000e-10  1.80026147e+00  3.20000000e-10  5.39987419e-01                                 
 5.00000000e-10  6.01045234e-01  5.00000000e-10  5.39341817e-01  5.00000000e-10  5.40761124e-01  5.00000000e-10  1.80000000e+00  5.00000000e-10  1.79525545e-01  5.00000000e-10  5.39341817e-01                                 
 5.22307128e-10  6.00950796e-01  5.22307128e-10  5.39262771e-01  5.22307128e-10  5.95128039e-01  5.22307128e-10  1.80000000e+00  5.22307128e-10  4.38078431e-02  5.22307128e-10  5.39262771e-01                                 
 5.66921383e-10  6.00762438e-01  5.66921383e-10  5.39105042e-01  5.66921383e-10  6.95869312e-01  5.66921383e-10  1.80000000e+00  5.66921383e-10 -1.62737225e-02  5.66921383e-10  5.39105042e-01                                 
 6.56149893e-10  6.00388847e-01  6.56149893e-10  5.38791809e-01  6.56149893e-10  8.58318342e-01  6.56149893e-10  1.80000000e+00  6.56149893e-10  1.43494714e-02  6.56149893e-10  5.38791809e-01                                 
 7.73736241e-10  5.99902742e-01  7.73736241e-10  5.38383463e-01  7.73736241e-10  1.02689619e+00  7.73736241e-10  1.80000000e+00  7.73736241e-10 -1.03541133e-02  7.73736241e-10  5.38383463e-01                                 
 9.61081469e-10  5.99142334e-01  9.61081469e-10  5.37742956e-01  9.61081469e-10  1.24485369e+00  9.61081469e-10  1.80000000e+00  9.61081469e-10  1.06690341e-02  9.61081469e-10  5.37742956e-01                                 
 1.30738492e-09  5.97779872e-01  1.30738492e-09  5.36590131e-01  1.30738492e-09  1.52675631e+00  1.30738492e-09  1.80000000e+00  1.30738492e-09 -8.92344223e-03  1.30738492e-09  5.36590131e-01                                 
 1.87451633e-09  5.95659844e-01  1.87451633e-09  5.34783368e-01  1.87451633e-09  1.73417740e+00  1.87451633e-09  1.80000000e+00  1.87451633e-09  9.14283611e-03  1.87451633e-09  5.34783368e-01                                 
 2.14131685e-09  5.94707306e-01  2.14131685e-09  5.33966367e-01  2.14131685e-09  1.76355638e+00  2.14131685e-09  1.80000000e+00  2.14131685e-09 -8.20469662e-03  2.14131685e-09  5.33966367e-01                                 
 2.46922270e-09  5.93572227e-01  2.46922270e-09  5.32988795e-01  2.46922270e-09  1.77878073e+00  2.46922270e-09  1.80000000e+00  2.46922270e-09  7.80403700e-03  2.46922270e-09  5.32988795e-01                                 
 2.84139396e-09  5.92328537e-01  2.84139396e-09  5.31912781e-01  2.84139396e-09  1.78946821e+00  2.84139396e-09  1.80000000e+00  2.84139396e-09 -7.25963622e-03  2.84139396e-09  5.31912781e-01                                 
 3.46504781e-09  5.90341385e-01  3.46504781e-09  5.30183318e-01  3.46504781e-09  1.80379559e+00  3.46504781e-09  1.80000000e+00  3.46504781e-09  7.09818580e-03  3.46504781e-09  5.30183318e-01                                 
 4.28145740e-09  5.87904664e-01  4.28145740e-09  5.28045939e-01  4.28145740e-09  1.80948282e+00  4.28145740e-09  1.80000000e+00  4.28145740e-09 -6.85440511e-03  4.28145740e-09  5.28045939e-01                                 
 5.91427656e-09  5.83493031e-01  5.91427656e-09  5.24133795e-01  5.91427656e-09  1.80822056e+00  5.91427656e-09  1.80000000e+00  5.91427656e-09  6.80889481e-03  5.91427656e-09  5.24133795e-01                                 
 7.73041448e-09  5.79175496e-01  7.73041448e-09  5.20254578e-01  7.73041448e-09  1.80183411e+00  7.73041448e-09  1.80000000e+00  7.73041448e-09 -6.68297332e-03  7.73041448e-09  5.20254578e-01                                 
 9.64885582e-09  5.75132679e-01  9.64885582e-09  5.16582325e-01  9.64885582e-09  1.79719084e+00  9.64885582e-09  1.80000000e+00  9.64885582e-09  6.65057488e-03  9.64885582e-09  5.16582325e-01                                 
 1.15595395e-08  5.71519316e-01  1.15595395e-08  5.13271861e-01  1.15595395e-08  1.79218897e+00  1.15595395e-08  1.80000000e+00  1.15595395e-08 -6.53889515e-03  1.15595395e-08  5.13271861e-01                                 
 1.30512617e-08  5.68931584e-01  1.30512617e-08  5.10886658e-01  1.30512617e-08  1.78903639e+00  1.30512617e-08  1.80000000e+00  1.30512617e-08  6.47826343e-03  1.30512617e-08  5.10886658e-01                                 
 1.46057292e-08  5.66415376e-01  1.46057292e-08  5.08557534e-01  1.46057292e-08  1.78518880e+00  1.46057292e-08  1.80000000e+00  1.46057292e-08 -6.35715687e-03  1.46057292e-08  5.08557534e-01                                 
 1.62536591e-08  5.63920944e-01  1.62536591e-08  5.06240058e-01  1.62536591e-08  1.78185213e+00  1.62536591e-08  1.80000000e+00  1.62536591e-08  6.30459652e-03  1.62536591e-08  5.06240058e-01                                 
 1.81821431e-08  5.61196937e-01  1.81821431e-08  5.03700692e-01  1.81821431e-08  1.77731966e+00  1.81821431e-08  1.80000000e+00  1.81821431e-08 -6.20476154e-03  1.81821431e-08  5.03700692e-01                                 
 2.08154619e-08  5.57768283e-01  2.08154619e-08  5.00492916e-01  2.08154619e-08  1.77184307e+00  2.08154619e-08  1.80000000e+00  2.08154619e-08  6.18315908e-03  2.08154619e-08  5.00492916e-01                                 
 2.39568519e-08  5.54050710e-01  2.39568519e-08  4.97001446e-01  2.39568519e-08  1.76460835e+00  2.39568519e-08  1.80000000e+00  2.39568519e-08 -6.11188229e-03  2.39568519e-08  4.97001446e-01                                 
 2.89943199e-08  5.48837303e-01  2.89943199e-08  4.92072985e-01  2.89943199e-08  1.75389967e+00  2.89943199e-08  1.80000000e+00  2.89943199e-08  6.11487805e-03  2.89943199e-08  4.92072985e-01                                 
 3.55277320e-08  5.43404970e-01  3.55277320e-08  4.86851597e-01  3.55277320e-08  1.74069348e+00  3.55277320e-08  1.80000000e+00  3.55277320e-08 -6.06497651e-03  3.55277320e-08  4.86851597e-01                                 
 4.85945563e-08  5.36675832e-01  4.85945563e-08  4.79972958e-01  4.85945563e-08  1.72720499e+00  4.85945563e-08  1.80000000e+00  4.85945563e-08  6.08678745e-03  4.85945563e-08  4.79972958e-01                                 
 6.60210875e-08  5.30042639e-01  6.60210875e-08  4.73092966e-01  6.60210875e-08  1.71378164e+00  6.60210875e-08  1.80000000e+00  6.60210875e-08 -6.04689311e-03  6.60210875e-08  4.73092966e-01                                 
 8.60214728e-08  5.21942607e-01  8.60214728e-08  4.65210395e-01  8.60214728e-08  1.68668395e+00  8.60214728e-08  1.80000000e+00  8.60214728e-08  6.07196107e-03  8.60214728e-08  4.65210395e-01                                 
 1.07414906e-07  5.15150201e-01  1.07414906e-07  4.58550716e-01  1.07414906e-07  1.65817041e+00  1.07414906e-07  1.80000000e+00  1.07414906e-07 -6.03404971e-03  1.07414906e-07  4.58550716e-01                                 
 1.41445331e-07  5.07002673e-01  1.41445331e-07  4.50452944e-01  1.41445331e-07  1.61713266e+00  1.41445331e-07  1.80000000e+00  1.41445331e-07  6.06243045e-03  1.41445331e-07  4.50452944e-01                                 
 1.79907364e-07  4.97500090e-01  1.79907364e-07  4.41457574e-01  1.79907364e-07  1.56939432e+00  1.79907364e-07  1.80000000e+00  1.79907364e-07 -6.02695357e-03  1.79907364e-07  4.41457574e-01                                 
 2.30459772e-07  4.81376379e-01  2.30459772e-07  4.27166837e-01  2.30459772e-07  1.50287521e+00  2.30459772e-07  1.80000000e+00  2.30459772e-07  6.05627510e-03  2.30459772e-07  4.27166837e-01                                 
 2.91776405e-07  4.62090630e-01  2.91776405e-07  4.10496391e-01  2.91776405e-07  1.42096944e+00  2.91776405e-07  1.80000000e+00  2.91776405e-07 -6.02232068e-03  2.91776405e-07  4.10496391e-01                                 
 3.58340809e-07  4.40878642e-01  3.58340809e-07  3.92595094e-01  3.58340809e-07  1.33149837e+00  3.58340809e-07  1.80000000e+00  3.58340809e-07  6.05227237e-03  3.58340809e-07  3.92595094e-01                                 
 4.91469617e-07  3.84331123e-01  4.91469617e-07  3.46438866e-01  4.91469617e-07  1.13882237e+00  4.91469617e-07  1.80000000e+00  4.91469617e-07 -6.01978151e-03  4.91469617e-07  3.46438866e-01                                 
 5.20456423e-07  3.72899065e-01  5.20456423e-07  3.37246870e-01  5.20456423e-07  1.09857901e+00  5.20456423e-07  1.80000000e+00  5.20456423e-07  2.01660608e-06  5.20456423e-07  3.37246870e-01                                 
 5.78430034e-07  4.97277357e-01  5.78430034e-07  4.36747889e-01  5.78430034e-07  1.15760303e+00  5.78430034e-07  1.80000000e+00  5.78430034e-07  1.28155615e-05  5.78430034e-07  4.36747889e-01                                 
 5.92923437e-07  6.02741845e-01  5.92923437e-07  5.32591443e-01  5.92923437e-07  1.24281284e+00  5.92923437e-07  1.80000000e+00  5.92923437e-07  1.80998913e-05  5.92923437e-07  5.32591443e-01                                 
 6.21910242e-07  6.83852117e-01  6.21910242e-07  6.18755057e-01  6.21910242e-07  1.29182100e+00  6.21910242e-07  1.80000000e+00  6.21910242e-07  2.65859139e-06  6.21910242e-07  6.18755057e-01                                 
 6.67419246e-07  7.33436870e-01  6.67419246e-07  6.63921827e-01  6.67419246e-07  1.28958166e+00  6.67419246e-07  1.80000000e+00  6.67419246e-07  9.73734045e-06  6.67419246e-07  6.63921827e-01                                 
 7.11867731e-07  7.44085658e-01  7.11867731e-07  6.72634763e-01  7.11867731e-07  1.25462143e+00  7.11867731e-07  1.80000000e+00  7.11867731e-07 -1.20625505e-06  7.11867731e-07  6.72634763e-01                                 
 7.57301370e-07  7.43447046e-01  7.57301370e-07  6.72197330e-01  7.57301370e-07  1.20442083e+00  7.57301370e-07  1.80000000e+00  7.57301370e-07  8.45984873e-06  7.57301370e-07  6.72197330e-01                                 
 7.63566902e-07  7.43822943e-01  7.63566902e-07  6.72464679e-01  7.63566902e-07  1.19893086e+00  7.63566902e-07  1.80000000e+00  7.63566902e-07  3.93092020e-06  7.63566902e-07  6.72464679e-01                                 
 7.76097966e-07  7.43848576e-01  7.76097966e-07  6.72484209e-01  7.76097966e-07  1.18595211e+00  7.76097966e-07  1.80000000e+00  7.76097966e-07  3.48861954e-06  7.76097966e-07  6.72484209e-01                                 
 8.01160095e-07  7.43776294e-01  8.01160095e-07  6.72426675e-01  8.01160095e-07  1.15948489e+00  8.01160095e-07  1.80000000e+00  8.01160095e-07  3.88897300e-06  8.01160095e-07  6.72426675e-01                                 
 8.50313153e-07  7.32101080e-01  8.50313153e-07  6.62790721e-01  8.50313153e-07  1.09814292e+00  8.50313153e-07  1.80000000e+00  8.50313153e-07  2.48060702e-06  8.50313153e-07  6.62790721e-01                                 
 9.07851865e-07  7.06244161e-01  9.07851865e-07  6.40094731e-01  9.07851865e-07  1.01905068e+00  9.07851865e-07  1.80000000e+00  9.07851865e-07  3.01644772e-06  9.07851865e-07  6.40094731e-01                                 
 9.66949675e-07  7.16342890e-01  9.66949675e-07  6.49094933e-01  9.66949675e-07  9.79613737e-01  9.66949675e-07  1.80000000e+00  9.66949675e-07  5.46887487e-06  9.66949675e-07  6.49094933e-01                                 
 1.04304485e-06  7.42016662e-01  1.04304485e-06  6.70986178e-01  1.04304485e-06  9.47258942e-01  1.04304485e-06  1.80000000e+00  1.04304485e-06  3.87049021e-06  1.04304485e-06  6.70986178e-01                                 
 1.05170401e-06  7.40060764e-01  1.05170401e-06  6.69405456e-01  1.05170401e-06  9.39617067e-01  1.05170401e-06  1.80000000e+00  1.05170401e-06  3.46220446e-06  1.05170401e-06  6.69405456e-01                                 
 1.06902232e-06  7.32517957e-01  1.06902232e-06  6.63151067e-01  1.06902232e-06  9.21349948e-01  1.06902232e-06  1.80000000e+00  1.06902232e-06  2.55809063e-06  1.06902232e-06  6.63151067e-01                                 
 1.10365895e-06  7.14393264e-01  1.10365895e-06  6.47420818e-01  1.10365895e-06  8.82950060e-01  1.10365895e-06  1.80000000e+00  1.10365895e-06  3.09201621e-06  1.10365895e-06  6.47420818e-01                                 
 1.14642023e-06  7.15806619e-01  1.14642023e-06  6.48635020e-01  1.14642023e-06  8.57830867e-01  1.14642023e-06  1.80000000e+00  1.14642023e-06  5.05353042e-06  1.14642023e-06  6.48635020e-01                                 
 1.20637078e-06  7.31461429e-01  1.20637078e-06  6.62215942e-01  1.20637078e-06  8.35902177e-01  1.20637078e-06  1.80000000e+00  1.20637078e-06  4.12791423e-06  1.20637078e-06  6.62215942e-01                                 
 1.27885151e-06  7.25937239e-01  1.27885151e-06  6.57527542e-01  1.27885151e-06  7.88506632e-01  1.27885151e-06  1.80000000e+00  1.27885151e-06  3.61702680e-06  1.27885151e-06  6.57527542e-01                                 
 1.35281831e-06  7.20447634e-01  1.35281831e-06  6.52736467e-01  1.35281831e-06  7.42402621e-01  1.35281831e-06  1.80000000e+00  1.35281831e-06  4.19448065e-06  1.35281831e-06  6.52736467e-01                                 
 1.46005765e-06  7.28024621e-01  1.46005765e-06  6.59303430e-01  1.46005765e-06  7.01241329e-01  1.46005765e-06  1.80000000e+00  1.46005765e-06  4.36915091e-06  1.46005765e-06  6.59303430e-01                                 
 1.60834653e-06  7.23998644e-01  1.60834653e-06  6.55838430e-01  1.60834653e-06  6.60073656e-01  1.60834653e-06  1.80000000e+00  1.60834653e-06  3.96649503e-06  1.60834653e-06  6.55838430e-01                                 
 1.62627892e-06  7.23183420e-01  1.62627892e-06  6.55132819e-01  1.62627892e-06  6.56951113e-01  1.62627892e-06  1.80000000e+00  1.62627892e-06  4.18055517e-06  1.62627892e-06  6.55132819e-01                                 
 1.66214371e-06  7.23420273e-01  1.66214371e-06  6.55332935e-01  1.66214371e-06  6.52803297e-01  1.66214371e-06  1.80000000e+00  1.66214371e-06  4.40750834e-06  1.66214371e-06  6.55332935e-01                                 
 1.73387329e-06  7.26405805e-01  1.73387329e-06  6.57912414e-01  1.73387329e-06  6.48780215e-01  1.73387329e-06  1.80000000e+00  1.73387329e-06  4.35028453e-06  1.73387329e-06  6.57912414e-01                                 
 1.83896406e-06  7.24771089e-01  1.83896406e-06  6.56508306e-01  1.83896406e-06  6.52229296e-01  1.83896406e-06  1.80000000e+00  1.83896406e-06  4.28441048e-06  1.83896406e-06  6.56508306e-01                                 
 1.93416093e-06  7.24350986e-01  1.93416093e-06  6.56139541e-01  1.93416093e-06  6.58380631e-01  1.93416093e-06  1.80000000e+00  1.93416093e-06  4.40589070e-06  1.93416093e-06  6.56139541e-01                                 
 2.06667972e-06  7.25986350e-01  2.06667972e-06  6.57554293e-01  2.06667972e-06  6.56719596e-01  2.06667972e-06  1.80000000e+00  2.06667972e-06  4.28387630e-06  2.06667972e-06  6.57554293e-01                                 
 2.20483413e-06  7.24299604e-01  2.20483413e-06  6.56097720e-01  2.20483413e-06  6.56348760e-01  2.20483413e-06  1.80000000e+00  2.20483413e-06  4.33067283e-06  2.20483413e-06  6.56097720e-01                                 
 2.37165510e-06  7.25464428e-01  2.37165510e-06  6.57102769e-01  2.37165510e-06  6.57419406e-01  2.37165510e-06  1.80000000e+00  2.37165510e-06  4.35493974e-06  2.37165510e-06  6.57102769e-01                                 
 2.70529703e-06  7.24844034e-01  2.70529703e-06  6.56569234e-01  2.70529703e-06  6.56565229e-01  2.70529703e-06  1.80000000e+00  2.70529703e-06  4.29474192e-06  2.70529703e-06  6.56569234e-01                                 
 3.13880315e-06  7.25125649e-01  3.13880315e-06  6.56810328e-01  3.13880315e-06  6.57158742e-01  3.13880315e-06  1.80000000e+00  3.13880315e-06  4.36575465e-06  3.13880315e-06  6.56810328e-01                                 
 3.85776817e-06  7.25074142e-01  3.85776817e-06  6.56767963e-01  3.85776817e-06  6.56761364e-01  3.85776817e-06  1.80000000e+00  3.85776817e-06  4.29136923e-06  3.85776817e-06  6.56767963e-01                                 
 4.85776817e-06  7.24985430e-01  4.85776817e-06  6.56689309e-01  4.85776817e-06  6.57031239e-01  4.85776817e-06  1.80000000e+00  4.85776817e-06  4.36594905e-06  4.85776817e-06  6.56689309e-01                                 
 5.85776817e-06  7.25184708e-01  5.85776817e-06  6.56863336e-01  5.85776817e-06  6.56864137e-01  5.85776817e-06  1.80000000e+00  5.85776817e-06  4.29234053e-06  5.85776817e-06  6.56863336e-01                                 
 6.85776817e-06  7.24880913e-01  6.85776817e-06  6.56599121e-01  6.85776817e-06  6.56930056e-01  6.85776817e-06  1.80000000e+00  6.85776817e-06  4.36408215e-06  6.85776817e-06  6.56599121e-01                                 
 7.85776817e-06  7.25281535e-01  7.85776817e-06  6.56946784e-01  7.85776817e-06  6.56957758e-01  7.85776817e-06  1.80000000e+00  7.85776817e-06  4.29504813e-06  7.85776817e-06  6.56946784e-01                                 
 8.85776817e-06  7.24790843e-01  8.85776817e-06  6.56521425e-01  8.85776817e-06  6.56841296e-01  8.85776817e-06  1.80000000e+00  8.85776817e-06  4.36059373e-06  8.85776817e-06  6.56521425e-01                                 
 9.85776817e-06  7.25362593e-01  9.85776817e-06  6.57016573e-01  9.85776817e-06  6.57038457e-01  9.85776817e-06  1.80000000e+00  9.85776817e-06  4.29925254e-06  9.85776817e-06  6.57016573e-01                                 
 1.00005000e-05  7.24602364e-01  1.00005000e-05  6.56359193e-01  1.00005000e-05  6.56643117e-01  1.00005000e-05  1.80000000e+00  1.00005000e-05  4.33687872e-06  1.00005000e-05  6.56359193e-01                                 
 1.00005500e-05  7.24602628e-01  1.00005500e-05  6.56359409e-01  1.00005500e-05  6.49741232e-01  1.00005500e-05  1.62000000e+00  1.00005500e-05 -1.24909558e-04  1.00005500e-05  6.56359409e-01                                 
 1.00006500e-05  7.24603204e-01  1.00006500e-05  6.56359884e-01  1.00006500e-05  6.38357923e-01  1.00006500e-05  1.26000000e+00  1.00006500e-05 -9.33951068e-05  1.00006500e-05  6.56359884e-01                                 
 1.00008500e-05  7.24604602e-01  1.00008500e-05  6.56361048e-01  1.00008500e-05  6.30130416e-01  1.00008500e-05  5.40000000e-01  1.00008500e-05  3.13015683e-03  1.00008500e-05  6.56361048e-01                                 
