 time            v(vbep)         time            v(vben)         time            v(vout)         time            v(vphi1)        time            v(vphi2)        time            v(vref)         time            v(voutc)        time            v(voutcc)       yes             currtemp       
 0.00000000e+00  8.24577953e-01  0.00000000e+00  7.71670182e-01  0.00000000e+00  1.69513135e+00  0.00000000e+00  0.00000000e+00  0.00000000e+00  1.80000000e+00  0.00000000e+00  7.75230207e-01  0.00000000e+00  1.69513134e+00  0.00000000e+00  1.70054250e+00  1.00000000e+00 -2.00000000e+00 
 5.00000000e-12  8.24598424e-01  5.00000000e-12  7.71723937e-01  5.00000000e-12  1.69578036e+00  5.00000000e-12  1.80000000e-02  5.00000000e-12  1.80018273e+00  5.00000000e-12  7.75625652e-01  5.00000000e-12  1.69548088e+00  5.00000000e-12  1.70055564e+00                                 
 1.00000000e-11  8.24607481e-01  1.00000000e-11  7.71759626e-01  1.00000000e-11  1.69627317e+00  1.00000000e-11  3.60000000e-02  1.00000000e-11  1.80026741e+00  1.00000000e-11  7.75939353e-01  1.00000000e-11  1.69576039e+00  1.00000000e-11  1.70056324e+00                                 
 2.00000000e-11  8.24613464e-01  2.00000000e-11  7.71809329e-01  2.00000000e-11  1.69702135e+00  2.00000000e-11  7.20000000e-02  2.00000000e-11  1.80032475e+00  2.00000000e-11  7.76432470e-01  2.00000000e-11  1.69620541e+00  2.00000000e-11  1.70057141e+00                                 
 4.00000000e-11  8.24601656e-01  4.00000000e-11  7.71845218e-01  4.00000000e-11  1.69764235e+00  4.00000000e-11  1.44000000e-01  4.00000000e-11  1.80020280e+00  4.00000000e-11  7.76915480e-01  4.00000000e-11  1.69666835e+00  4.00000000e-11  1.70056760e+00                                 
 8.00000000e-11  8.24587879e-01  8.00000000e-11  7.71845963e-01  8.00000000e-11  1.69765860e+00  8.00000000e-11  2.88000000e-01  8.00000000e-11  1.80003215e+00  8.00000000e-11  7.77048171e-01  8.00000000e-11  1.69687170e+00  8.00000000e-11  1.70055103e+00                                 
 1.60000000e-10  8.24589170e-01  1.60000000e-10  7.71830553e-01  1.60000000e-10  1.69723378e+00  1.60000000e-10  5.76000000e-01  1.60000000e-10  1.80001742e+00  1.60000000e-10  7.76862950e-01  1.60000000e-10  1.69683259e+00  1.60000000e-10  1.70054434e+00                                 
 3.20000000e-10  8.24529930e-01  3.20000000e-10  7.71398549e-01  3.20000000e-10  1.69233624e+00  3.20000000e-10  1.15200000e+00  3.20000000e-10  1.80062705e+00  3.20000000e-10  7.72913290e-01  3.20000000e-10  1.69353982e+00  3.20000000e-10  1.70050907e+00                                 
 5.00000000e-10  8.24651967e-01  5.00000000e-10  7.71786660e-01  5.00000000e-10  1.68469617e+00  5.00000000e-10  1.80000000e+00  5.00000000e-10  1.33148315e-01  5.00000000e-10  7.76693793e-01  5.00000000e-10  1.69629953e+00  5.00000000e-10  1.70058195e+00                                 
 5.20339931e-10  8.24635431e-01  5.20339931e-10  7.71836925e-01  5.20339931e-10  1.68419183e+00  5.20339931e-10  1.80000000e+00  5.20339931e-10  3.22732042e-02  5.20339931e-10  7.78049752e-01  5.20339931e-10  1.69711582e+00  5.20339931e-10  1.70058192e+00                                 
 5.61019793e-10  8.24652605e-01  5.61019793e-10  7.71930597e-01  5.61019793e-10  1.68424023e+00  5.61019793e-10  1.80000000e+00  5.61019793e-10 -1.24364129e-02  5.61019793e-10  7.79932706e-01  5.61019793e-10  1.69881515e+00  5.61019793e-10  1.70058629e+00                                 
 6.42379517e-10  8.24695038e-01  6.42379517e-10  7.71767030e-01  6.42379517e-10  1.68279422e+00  6.42379517e-10  1.80000000e+00  6.42379517e-10  1.03508449e-02  6.42379517e-10  7.78350602e-01  6.42379517e-10  1.69762491e+00  6.42379517e-10  1.70051919e+00                                 
 7.60157458e-10  8.24719427e-01  7.60157458e-10  7.71746327e-01  7.60157458e-10  1.68221751e+00  7.60157458e-10  1.80000000e+00  7.60157458e-10 -8.17669941e-03  7.60157458e-10  7.78779910e-01  7.60157458e-10  1.69785040e+00  7.60157458e-10  1.70056158e+00                                 
 9.35610666e-10  8.24807565e-01  9.35610666e-10  7.71716281e-01  9.35610666e-10  1.68010071e+00  9.35610666e-10  1.80000000e+00  9.35610666e-10  7.81660922e-03  9.35610666e-10  7.79264586e-01  9.35610666e-10  1.69840086e+00  9.35610666e-10  1.70053612e+00                                 
 1.28651708e-09  8.24862075e-01  1.28651708e-09  7.71664078e-01  1.28651708e-09  1.67508447e+00  1.28651708e-09  1.80000000e+00  1.28651708e-09 -7.10983139e-03  1.28651708e-09  7.79347889e-01  1.28651708e-09  1.69835518e+00  1.28651708e-09  1.70054711e+00                                 
 1.70641915e-09  8.24822951e-01  1.70641915e-09  7.71674276e-01  1.70641915e-09  1.67360006e+00  1.70641915e-09  1.80000000e+00  1.70641915e-09  6.89807101e-03  1.70641915e-09  7.79661275e-01  1.70641915e-09  1.69874193e+00  1.70641915e-09  1.70054301e+00                                 
 2.18145500e-09  8.24709624e-01  2.18145500e-09  7.71646447e-01  2.18145500e-09  1.67328622e+00  2.18145500e-09  1.80000000e+00  2.18145500e-09 -6.59725937e-03  2.18145500e-09  7.79076609e-01  2.18145500e-09  1.69812583e+00  2.18145500e-09  1.70055754e+00                                 
 2.68121354e-09  8.24638082e-01  2.68121354e-09  7.71670465e-01  2.68121354e-09  1.67400126e+00  2.68121354e-09  1.80000000e+00  2.68121354e-09  6.36014943e-03  2.68121354e-09  7.79194151e-01  2.68121354e-09  1.69833247e+00  2.68121354e-09  1.70057314e+00                                 
 3.44197518e-09  8.24563912e-01  3.44197518e-09  7.71647234e-01  3.44197518e-09  1.67403650e+00  3.44197518e-09  1.80000000e+00  3.44197518e-09 -6.19641107e-03  3.44197518e-09  7.78423861e-01  3.44197518e-09  1.69756118e+00  3.44197518e-09  1.70060028e+00                                 
 4.81801517e-09  8.24543945e-01  4.81801517e-09  7.71674586e-01  4.81801517e-09  1.67443682e+00  4.81801517e-09  1.80000000e+00  4.81801517e-09  6.11722470e-03  4.81801517e-09  7.78122523e-01  4.81801517e-09  1.69739752e+00  4.81801517e-09  1.70065773e+00                                 
 7.57009516e-09  8.24541040e-01  7.57009516e-09  7.71654008e-01  7.57009516e-09  1.67272734e+00  7.57009516e-09  1.80000000e+00  7.57009516e-09 -6.06754018e-03  7.57009516e-09  7.76604909e-01  7.57009516e-09  1.69597913e+00  7.57009516e-09  1.70074589e+00                                 
 1.30742551e-08  8.24561798e-01  1.30742551e-08  7.71682108e-01  1.30742551e-08  1.66800134e+00  1.30742551e-08  1.80000000e+00  1.30742551e-08  6.05814610e-03  1.30742551e-08  7.75600857e-01  1.30742551e-08  1.69520623e+00  1.30742551e-08  1.70082660e+00                                 
 1.84291764e-08  8.24562729e-01  1.84291764e-08  7.71658066e-01  1.84291764e-08  1.66061360e+00  1.84291764e-08  1.80000000e+00  1.84291764e-08 -6.02164996e-03  1.84291764e-08  7.74680456e-01  1.84291764e-08  1.69431025e+00  1.84291764e-08  1.70079296e+00                                 
 2.32740477e-08  8.24573470e-01  2.32740477e-08  7.71682474e-01  2.32740477e-08  1.65366609e+00  2.32740477e-08  1.80000000e+00  2.32740477e-08  6.01638611e-03  2.32740477e-08  7.74909507e-01  2.32740477e-08  1.69460495e+00  2.32740477e-08  1.70073262e+00                                 
 2.82055225e-08  8.24566666e-01  2.82055225e-08  7.71657914e-01  2.82055225e-08  1.64555708e+00  2.82055225e-08  1.80000000e+00  2.82055225e-08 -5.97232050e-03  2.82055225e-08  7.74495438e-01  2.82055225e-08  1.69414510e+00  2.82055225e-08  1.70065575e+00                                 
 3.53069442e-08  8.24578029e-01  3.53069442e-08  7.71682549e-01  3.53069442e-08  1.63387582e+00  3.53069442e-08  1.80000000e+00  3.53069442e-08  5.98032639e-03  3.53069442e-08  7.74929221e-01  3.53069442e-08  1.69461401e+00  3.53069442e-08  1.70056277e+00                                 
 4.43446649e-08  8.24574766e-01  4.43446649e-08  7.71657908e-01  4.43446649e-08  1.61650449e+00  4.43446649e-08  1.80000000e+00  4.43446649e-08 -5.94285807e-03  4.43446649e-08  7.74642045e-01  4.43446649e-08  1.69426302e+00  4.43446649e-08  1.70045585e+00                                 
 5.78900272e-08  8.24583089e-01  5.78900272e-08  7.71682556e-01  5.78900272e-08  1.58963832e+00  5.78900272e-08  1.80000000e+00  5.78900272e-08  5.96034331e-03  5.78900272e-08  7.75157998e-01  5.78900272e-08  1.69480277e+00  5.78900272e-08  1.70035262e+00                                 
 7.68553201e-08  8.24575621e-01  7.68553201e-08  7.71657850e-01  7.68553201e-08  1.54980152e+00  7.68553201e-08  1.80000000e+00  7.68553201e-08 -5.92873331e-03  7.68553201e-08  7.74891073e-01  7.68553201e-08  1.69447109e+00  7.68553201e-08  1.70026197e+00                                 
 1.07078716e-07  8.24581845e-01  1.07078716e-07  7.71682526e-01  1.07078716e-07  1.48652305e+00  1.07078716e-07  1.80000000e+00  1.07078716e-07  5.95078211e-03  1.07078716e-07  7.75368687e-01  1.07078716e-07  1.69498022e+00  1.07078716e-07  1.70021329e+00                                 
 1.59795815e-07  8.24574628e-01  1.59795815e-07  7.71657823e-01  1.59795815e-07  1.37528303e+00  1.59795815e-07  1.80000000e+00  1.59795815e-07 -5.92290203e-03  1.59795815e-07  7.75031479e-01  1.59795815e-07  1.69458952e+00  1.59795815e-07  1.70019883e+00                                 
 2.65230015e-07  8.24581358e-01  2.65230015e-07  7.71682523e-01  2.65230015e-07  1.15726510e+00  2.65230015e-07  1.80000000e+00  2.65230015e-07  5.94765007e-03  2.65230015e-07  7.75424124e-01  2.65230015e-07  1.69502291e+00  2.65230015e-07  1.70021974e+00                                 
 4.15095665e-07  8.24574538e-01  4.15095665e-07  7.71657819e-01  4.15095665e-07  8.73007742e-01  4.15095665e-07  1.80000000e+00  4.15095665e-07 -5.92091642e-03  4.15095665e-07  7.75036342e-01  4.15095665e-07  1.69458289e+00  4.15095665e-07  1.70021254e+00                                 
 5.37348746e-07  8.24581467e-01  5.37348746e-07  7.71682533e-01  5.37348746e-07  7.72874142e-01  5.37348746e-07  1.80000000e+00  5.37348746e-07  5.94718714e-03  5.37348746e-07  7.75423697e-01  5.37348746e-07  1.69501015e+00  5.37348746e-07  1.70021121e+00                                 
 6.65347182e-07  8.24574349e-01  6.65347182e-07  7.71657809e-01  6.65347182e-07  7.80637933e-01  6.65347182e-07  1.80000000e+00  6.65347182e-07 -5.91876613e-03  6.65347182e-07  7.75037933e-01  6.65347182e-07  1.69457333e+00  6.65347182e-07  1.70020143e+00                                 
 7.32256854e-07  8.24581465e-01  7.32256854e-07  7.71682524e-01  7.32256854e-07  7.79317010e-01  7.32256854e-07  1.80000000e+00  7.32256854e-07  5.94464652e-03  7.32256854e-07  7.75421774e-01  7.32256854e-07  1.69500002e+00  7.32256854e-07  1.70020293e+00                                 
 8.00874914e-07  8.24574560e-01  8.00874914e-07  7.71657834e-01  8.00874914e-07  7.78412329e-01  8.00874914e-07  1.80000000e+00  8.00874914e-07 -5.91550660e-03  8.00874914e-07  7.75038287e-01  8.00874914e-07  1.69456778e+00  8.00874914e-07  1.70019485e+00                                 
 9.38111032e-07  8.24581308e-01  9.38111032e-07  7.71682507e-01  9.38111032e-07  7.79249558e-01  9.38111032e-07  1.80000000e+00  9.38111032e-07  5.94221295e-03  9.38111032e-07  7.75422088e-01  9.38111032e-07  1.69499138e+00  9.38111032e-07  1.70019409e+00                                 
 1.08118716e-06  8.24574623e-01  1.08118716e-06  7.71657842e-01  1.08118716e-06  7.78509440e-01  1.08118716e-06  1.80000000e+00  1.08118716e-06 -5.91397766e-03  1.08118716e-06  7.75038113e-01  1.08118716e-06  1.69455552e+00  1.08118716e-06  1.70018279e+00                                 
 1.32460971e-06  8.24581271e-01  1.32460971e-06  7.71682501e-01  1.32460971e-06  7.79184075e-01  1.32460971e-06  1.80000000e+00  1.32460971e-06  5.94104204e-03  1.32460971e-06  7.75422193e-01  1.32460971e-06  1.69497474e+00  1.32460971e-06  1.70017739e+00                                 
 1.81145481e-06  8.24574638e-01  1.81145481e-06  7.71657844e-01  1.81145481e-06  7.78540341e-01  1.81145481e-06  1.80000000e+00  1.81145481e-06 -5.91305618e-03  1.81145481e-06  7.75038064e-01  1.81145481e-06  1.69452391e+00  1.81145481e-06  1.70015130e+00                                 
 2.78514501e-06  8.24581264e-01  2.78514501e-06  7.71682500e-01  2.78514501e-06  7.79169743e-01  2.78514501e-06  1.80000000e+00  2.78514501e-06  5.94068366e-03  2.78514501e-06  7.75422215e-01  2.78514501e-06  1.69491158e+00  2.78514501e-06  1.70011438e+00                                 
 3.78514501e-06  8.24574643e-01  3.78514501e-06  7.71657846e-01  3.78514501e-06  7.78549169e-01  3.78514501e-06  1.80000000e+00  3.78514501e-06 -5.91310534e-03  3.78514501e-06  7.75038051e-01  3.78514501e-06  1.69443850e+00  3.78514501e-06  1.70006614e+00                                 
 4.78514501e-06  8.24581260e-01  4.78514501e-06  7.71682499e-01  4.78514501e-06  7.79161259e-01  4.78514501e-06  1.80000000e+00  4.78514501e-06  5.94052698e-03  4.78514501e-06  7.75422229e-01  4.78514501e-06  1.69482509e+00  4.78514501e-06  1.70002810e+00                                 
 5.78514501e-06  8.24574647e-01  5.78514501e-06  7.71657847e-01  5.78514501e-06  7.78557269e-01  5.78514501e-06  1.80000000e+00  5.78514501e-06 -5.91289536e-03  5.78514501e-06  7.75038040e-01  5.78514501e-06  1.69435203e+00  5.78514501e-06  1.69997990e+00                                 
 6.78514501e-06  8.24581257e-01  6.78514501e-06  7.71682498e-01  6.78514501e-06  7.79153349e-01  6.78514501e-06  1.80000000e+00  6.78514501e-06  5.94031147e-03  6.78514501e-06  7.75422240e-01  6.78514501e-06  1.69473865e+00  6.78514501e-06  1.69994188e+00                                 
 7.78514501e-06  8.24574650e-01  7.78514501e-06  7.71657847e-01  7.78514501e-06  7.78564812e-01  7.78514501e-06  1.80000000e+00  7.78514501e-06 -5.91268194e-03  7.78514501e-06  7.75038029e-01  7.78514501e-06  1.69426555e+00  7.78514501e-06  1.69989367e+00                                 
 8.78514501e-06  8.24581254e-01  8.78514501e-06  7.71682498e-01  8.78514501e-06  7.79145990e-01  8.78514501e-06  1.80000000e+00  8.78514501e-06  5.94009599e-03  8.78514501e-06  7.75422250e-01  8.78514501e-06  1.69465216e+00  8.78514501e-06  1.69985561e+00                                 
 9.78514501e-06  8.24574653e-01  9.78514501e-06  7.71657847e-01  9.78514501e-06  7.78571833e-01  9.78514501e-06  1.80000000e+00  9.78514501e-06 -5.91246855e-03  9.78514501e-06  7.75038020e-01  9.78514501e-06  1.69417904e+00  9.78514501e-06  1.69980739e+00                                 
 1.00005000e-05  8.24581247e-01  1.00005000e-05  7.71682496e-01  1.00005000e-05  7.79127863e-01  1.00005000e-05  1.80000000e+00  1.00005000e-05  5.93949640e-03  1.00005000e-05  7.75422273e-01  1.00005000e-05  1.69459961e+00  1.00005000e-05  1.69980318e+00                                 
 1.00005500e-05  8.24549235e-01  1.00005500e-05  7.71484639e-01  1.00005500e-05  7.77116789e-01  1.00005500e-05  1.62000000e+00  1.00005500e-05  4.13021702e-04  1.00005500e-05  7.73612580e-01  1.00005500e-05  1.69298165e+00  1.00005500e-05  1.69977864e+00                                 
 1.00006500e-05  8.24574419e-01  1.00006500e-05  7.71498304e-01  1.00006500e-05  7.77422340e-01  1.00006500e-05  1.26000000e+00  1.00006500e-05 -3.74468441e-04  1.00006500e-05  7.73527997e-01  1.00006500e-05  1.69290258e+00  1.00006500e-05  1.69980506e+00                                 
 1.00008500e-05  8.24600084e-01  1.00008500e-05  7.71778949e-01  1.00008500e-05  7.80264209e-01  1.00008500e-05  5.40000000e-01  1.00008500e-05 -1.21956020e-04  1.00008500e-05  7.76059440e-01  1.00008500e-05  1.69482984e+00  1.00008500e-05  1.69981288e+00                                 
 1.00010000e-05  8.24573117e-01  1.00010000e-05  7.70302234e-01  1.00010000e-05  8.01962166e-01  1.00010000e-05  0.00000000e+00  1.00010000e-05  1.47253973e+00  1.00010000e-05  7.57266487e-01  1.00010000e-05  1.62637839e+00  1.00010000e-05  1.69911330e+00                                 
 1.00010271e-05  8.24588154e-01  1.00010271e-05  7.70022267e-01  1.00010271e-05  8.10052364e-01  1.00010271e-05  0.00000000e+00  1.00010271e-05  1.68165521e+00  1.00010271e-05  7.53393695e-01  1.00010271e-05  1.59933012e+00  1.00010271e-05  1.69900036e+00                                 
 1.00010814e-05  8.24579745e-01  1.00010814e-05  7.69598056e-01  1.00010814e-05  8.15698060e-01  1.00010814e-05  0.00000000e+00  1.00010814e-05  1.82566813e+00  1.00010814e-05  7.47984620e-01  1.00010814e-05  1.54271416e+00  1.00010814e-05  1.69896671e+00                                 
 1.00011900e-05  8.24573511e-01  1.00011900e-05  7.69713305e-01  1.00011900e-05  8.05675713e-01  1.00011900e-05  0.00000000e+00  1.00011900e-05  1.78402284e+00  1.00011900e-05  7.49709778e-01  1.00011900e-05  1.44713065e+00  1.00011900e-05  1.69948722e+00                                 
 1.00013403e-05  8.24582861e-01  1.00013403e-05  7.70236904e-01  1.00013403e-05  8.01606970e-01  1.00013403e-05  0.00000000e+00  1.00013403e-05  1.80942894e+00  1.00013403e-05  7.56336019e-01  1.00013403e-05  1.34890157e+00  1.00013403e-05  1.69982561e+00                                 
 1.00015645e-05  8.24572814e-01  1.00015645e-05  7.70536972e-01  1.00015645e-05  7.95368177e-01  1.00015645e-05  0.00000000e+00  1.00015645e-05  1.79227133e+00  1.00015645e-05  7.59526704e-01  1.00015645e-05  1.23312179e+00  1.00015645e-05  1.69994198e+00                                 
 1.00020130e-05  8.24582458e-01  1.00020130e-05  7.71174370e-01  1.00020130e-05  7.89822299e-01  1.00020130e-05  0.00000000e+00  1.00020130e-05  1.80623178e+00  1.00020130e-05  7.65680028e-01  1.00020130e-05  1.08294658e+00  1.00020130e-05  1.70008874e+00                                 
 1.00025881e-05  8.24573102e-01  1.00025881e-05  7.71461706e-01  1.00025881e-05  7.86737873e-01  1.00025881e-05  0.00000000e+00  1.00025881e-05  1.79418784e+00  1.00025881e-05  7.67557372e-01  1.00025881e-05  9.55131778e-01  1.00025881e-05  1.69992699e+00                                 
 1.00031943e-05  8.24582390e-01  1.00031943e-05  7.71810623e-01  1.00031943e-05  7.84193497e-01  1.00031943e-05  0.00000000e+00  1.00031943e-05  1.80495384e+00  1.00031943e-05  7.71179599e-01  1.00031943e-05  8.66831817e-01  1.00031943e-05  1.69954436e+00                                 
 1.00040515e-05  8.24573480e-01  1.00040515e-05  7.71952851e-01  1.00040515e-05  7.81852763e-01  1.00040515e-05  0.00000000e+00  1.00040515e-05  1.79524184e+00  1.00040515e-05  7.73264442e-01  1.00040515e-05  7.98071674e-01  1.00040515e-05  1.69868993e+00                                 
 1.00052256e-05  8.24582307e-01  1.00052256e-05  7.72104137e-01  1.00052256e-05  7.80285275e-01  1.00052256e-05  0.00000000e+00  1.00052256e-05  1.80440828e+00  1.00052256e-05  7.76552261e-01  1.00052256e-05  7.81085855e-01  1.00052256e-05  1.69722199e+00                                 
 1.00062111e-05  8.24573686e-01  1.00062111e-05  7.71893888e-01  1.00062111e-05  7.82300075e-01  1.00062111e-05  0.00000000e+00  1.00062111e-05  1.79585155e+00  1.00062111e-05  7.75370412e-01  1.00062111e-05  7.80755455e-01  1.00062111e-05  1.69568953e+00                                 
 1.00072508e-05  8.24582137e-01  1.00072508e-05  7.71911780e-01  1.00072508e-05  7.82667842e-01  1.00072508e-05  0.00000000e+00  1.00072508e-05  1.80383350e+00  1.00072508e-05  7.76670802e-01  1.00072508e-05  7.83107480e-01  1.00072508e-05  1.69404124e+00                                 
 1.00090130e-05  8.24573830e-01  1.00090130e-05  7.71733617e-01  1.00090130e-05  7.85799828e-01  1.00090130e-05  0.00000000e+00  1.00090130e-05  1.79628241e+00  1.00090130e-05  7.75545611e-01  1.00090130e-05  7.84200726e-01  1.00090130e-05  1.69115048e+00                                 
 1.00125373e-05  8.24582054e-01  1.00125373e-05  7.71750386e-01  1.00125373e-05  7.89609346e-01  1.00125373e-05  0.00000000e+00  1.00125373e-05  1.80360789e+00  1.00125373e-05  7.76612697e-01  1.00125373e-05  7.89910316e-01  1.00125373e-05  1.68546333e+00                                 
