 time            v(vbep)         time            v(vben)         time            v(vout)         time            v(vphi1)        time            v(vphi2)        time            v(vref)         time            v(voutc)        time            v(voutcc)       yes             currtemp       
 0.00000000e+00  8.36880489e-01  0.00000000e+00  7.87551665e-01  0.00000000e+00  1.72888037e+00  0.00000000e+00  0.00000000e+00  0.00000000e+00  1.80000000e+00  0.00000000e+00  7.91388611e-01  0.00000000e+00  1.72888036e+00  0.00000000e+00  1.73381294e+00  1.00000000e+00 -1.60000000e+01 
 1.00000000e-11  8.36902255e-01  1.00000000e-11  7.87618014e-01  1.00000000e-11  1.72970579e+00  1.00000000e-11  1.80000000e-02  1.00000000e-11  1.80024338e+00  1.00000000e-11  7.91904571e-01  1.00000000e-11  1.72933852e+00  1.00000000e-11  1.73382606e+00                                 
 2.00000000e-11  8.36908374e-01  2.00000000e-11  7.87659917e-01  2.00000000e-11  1.73026704e+00  2.00000000e-11  3.60000000e-02  2.00000000e-11  1.80034574e+00  2.00000000e-11  7.92295237e-01  2.00000000e-11  1.72969859e+00  2.00000000e-11  1.73383216e+00                                 
 4.00000000e-11  8.36908364e-01  4.00000000e-11  7.87714822e-01  4.00000000e-11  1.73102121e+00  4.00000000e-11  7.20000000e-02  4.00000000e-11  1.80039454e+00  4.00000000e-11  7.92874706e-01  4.00000000e-11  1.73025673e+00  4.00000000e-11  1.73383611e+00                                 
 8.00000000e-11  8.36897356e-01  8.00000000e-11  7.87747183e-01  8.00000000e-11  1.73140115e+00  8.00000000e-11  1.44000000e-01  8.00000000e-11  1.80020460e+00  8.00000000e-11  7.93343812e-01  8.00000000e-11  1.73079387e+00  8.00000000e-11  1.73382659e+00                                 
 1.60000000e-10  8.36893977e-01  1.60000000e-10  7.87746532e-01  1.60000000e-10  1.73120054e+00  1.60000000e-10  2.88000000e-01  1.60000000e-10  1.80001575e+00  1.60000000e-10  7.93414320e-01  1.60000000e-10  1.73101939e+00  1.60000000e-10  1.73381356e+00                                 
 3.20000000e-10  8.36891625e-01  3.20000000e-10  7.87744487e-01  3.20000000e-10  1.73090874e+00  3.20000000e-10  5.76000000e-01  3.20000000e-10  1.80002221e+00  3.20000000e-10  7.93377516e-01  3.20000000e-10  1.73102033e+00  3.20000000e-10  1.73381122e+00                                 
 6.40000000e-10  8.36821881e-01  6.40000000e-10  7.87543969e-01  6.40000000e-10  1.72400062e+00  6.40000000e-10  1.15200000e+00  6.40000000e-10  1.81354302e+00  6.40000000e-10  7.93004782e-01  6.40000000e-10  1.73546347e+00  6.40000000e-10  1.73383853e+00                                 
 9.95210127e-10  8.37216499e-01  9.95210127e-10  7.87555105e-01  9.95210127e-10  1.69294536e+00  9.95210127e-10  1.79137823e+00  9.95210127e-10  7.47307405e-02  9.95210127e-10  7.93365336e-01  9.95210127e-10  1.72361047e+00  9.95210127e-10  1.73371424e+00                                 
 1.00000000e-09  8.37232414e-01  1.00000000e-09  7.87583468e-01  1.00000000e-09  1.69264347e+00  1.00000000e-09  1.80000000e+00  1.00000000e-09  4.30874034e-02  1.00000000e-09  7.93751679e-01  1.00000000e-09  1.72350487e+00  1.00000000e-09  1.73372499e+00                                 
 1.00957975e-09  8.37215292e-01  1.00957975e-09  7.87595917e-01  1.00957975e-09  1.69259128e+00  1.00957975e-09  1.80000000e+00  1.00957975e-09  2.08573751e-02  1.00957975e-09  7.94608522e-01  1.00957975e-09  1.72396544e+00  1.00957975e-09  1.73375794e+00                                 
 1.02873924e-09  8.37211997e-01  1.02873924e-09  7.87650357e-01  1.02873924e-09  1.69290951e+00  1.02873924e-09  1.80000000e+00  1.02873924e-09  3.84926903e-04  1.02873924e-09  7.96252226e-01  1.02873924e-09  1.72515842e+00  1.02873924e-09  1.73381320e+00                                 
 1.06705822e-09  8.37298241e-01  1.06705822e-09  7.87700030e-01  1.06705822e-09  1.69278250e+00  1.06705822e-09  1.80000000e+00  1.06705822e-09  1.52225716e-03  1.06705822e-09  7.97758839e-01  1.06705822e-09  1.72653820e+00  1.06705822e-09  1.73382687e+00                                 
 1.14369619e-09  8.37471339e-01  1.14369619e-09  7.87619326e-01  1.14369619e-09  1.68924740e+00  1.14369619e-09  1.80000000e+00  1.14369619e-09  1.10798988e-04  1.14369619e-09  7.97907633e-01  1.14369619e-09  1.72665618e+00  1.14369619e-09  1.73379433e+00                                 
 1.29697212e-09  8.37647174e-01  1.29697212e-09  7.87566937e-01  1.29697212e-09  1.68282144e+00  1.29697212e-09  1.80000000e+00  1.29697212e-09  5.85100645e-04  1.29697212e-09  7.98624814e-01  1.29697212e-09  1.72725914e+00  1.29697212e-09  1.73381884e+00                                 
 1.52126215e-09  8.37658356e-01  1.52126215e-09  7.87550754e-01  1.52126215e-09  1.67951733e+00  1.52126215e-09  1.80000000e+00  1.52126215e-09 -2.98939908e-04  1.52126215e-09  7.98757465e-01  1.52126215e-09  1.72735564e+00  1.52126215e-09  1.73380927e+00                                 
 1.78309599e-09  8.37497268e-01  1.78309599e-09  7.87544071e-01  1.78309599e-09  1.68096518e+00  1.78309599e-09  1.80000000e+00  1.78309599e-09  2.54588413e-04  1.78309599e-09  7.98454964e-01  1.78309599e-09  1.72710653e+00  1.78309599e-09  1.73382078e+00                                 
 2.03888475e-09  8.37332239e-01  2.03888475e-09  7.87541695e-01  2.03888475e-09  1.68313873e+00  2.03888475e-09  1.80000000e+00  2.03888475e-09 -2.85139161e-04  2.03888475e-09  7.98063721e-01  2.03888475e-09  1.72676781e+00  2.03888475e-09  1.73381553e+00                                 
 2.41784741e-09  8.37117641e-01  2.41784741e-09  7.87539405e-01  2.41784741e-09  1.68641984e+00  2.41784741e-09  1.80000000e+00  2.41784741e-09  1.99774214e-04  2.41784741e-09  7.97535430e-01  2.41784741e-09  1.72632838e+00  2.41784741e-09  1.73382191e+00                                 
 3.10257552e-09  8.36885855e-01  3.10257552e-09  7.87534495e-01  3.10257552e-09  1.69133044e+00  3.10257552e-09  1.80000000e+00  3.10257552e-09 -2.54068382e-04  3.10257552e-09  7.96569808e-01  3.10257552e-09  1.72550544e+00  3.10257552e-09  1.73381492e+00                                 
 4.47203175e-09  8.36735706e-01  4.47203175e-09  7.87534272e-01  4.47203175e-09  1.69855324e+00  4.47203175e-09  1.80000000e+00  4.47203175e-09  1.89969400e-04  4.47203175e-09  7.94975974e-01  4.47203175e-09  1.72416539e+00  4.47203175e-09  1.73379881e+00                                 
 7.21094421e-09  8.36792765e-01  7.21094421e-09  7.87539677e-01  7.21094421e-09  1.70530241e+00  7.21094421e-09  1.80000000e+00  7.21094421e-09 -2.38082762e-04  7.21094421e-09  7.92778917e-01  7.21094421e-09  1.72230221e+00  7.21094421e-09  1.73369229e+00                                 
 9.97285173e-09  8.36836922e-01  9.97285173e-09  7.87547778e-01  9.97285173e-09  1.70641517e+00  9.97285173e-09  1.80000000e+00  9.97285173e-09  1.95251123e-04  9.97285173e-09  7.91702132e-01  9.97285173e-09  1.72139747e+00  9.97285173e-09  1.73352596e+00                                 
 1.25887823e-08  8.36851497e-01  1.25887823e-08  7.87549010e-01  1.25887823e-08  1.70542613e+00  1.25887823e-08  1.80000000e+00  1.25887823e-08 -2.25929189e-04  1.25887823e-08  7.91185665e-01  1.25887823e-08  1.72095116e+00  1.25887823e-08  1.73332175e+00                                 
 1.53461944e-08  8.36849562e-01  1.53461944e-08  7.87551882e-01  1.53461944e-08  1.70443491e+00  1.53461944e-08  1.80000000e+00  1.53461944e-08  1.99024777e-04  1.53461944e-08  7.90975608e-01  1.53461944e-08  1.72077433e+00  1.53461944e-08  1.73309622e+00                                 
 1.91161538e-08  8.36851114e-01  1.91161538e-08  7.87550835e-01  1.91161538e-08  1.70356017e+00  1.91161538e-08  1.80000000e+00  1.91161538e-08 -2.11224008e-04  1.91161538e-08  7.90843153e-01  1.91161538e-08  1.72064535e+00  1.91161538e-08  1.73277137e+00                                 
 2.39763434e-08  8.36863902e-01  2.39763434e-08  7.87552539e-01  2.39763434e-08  1.70086122e+00  2.39763434e-08  1.80000000e+00  2.39763434e-08  2.03627700e-04  2.39763434e-08  7.90866306e-01  2.39763434e-08  1.72065514e+00  2.39763434e-08  1.73237054e+00                                 
 3.08383537e-08  8.36880721e-01  3.08383537e-08  7.87550964e-01  3.08383537e-08  1.69383248e+00  3.08383537e-08  1.80000000e+00  3.08383537e-08 -2.05926884e-04  3.08383537e-08  7.90903234e-01  3.08383537e-08  1.72065723e+00  3.08383537e-08  1.73182967e+00                                 
 4.06883662e-08  8.36881049e-01  4.06883662e-08  7.87552613e-01  4.06883662e-08  1.68152172e+00  4.06883662e-08  1.80000000e+00  4.06883662e-08  2.03090064e-04  4.06883662e-08  7.91019998e-01  4.06883662e-08  1.72073355e+00  4.06883662e-08  1.73113622e+00                                 
 5.61117624e-08  8.36884291e-01  5.61117624e-08  7.87550933e-01  5.61117624e-08  1.66066721e+00  5.61117624e-08  1.80000000e+00  5.61117624e-08 -2.06122472e-04  5.61117624e-08  7.91106675e-01  5.61117624e-08  1.72076569e+00  5.61117624e-08  1.73019637e+00                                 
 7.98727219e-08  8.36879496e-01  7.98727219e-08  7.87552535e-01  7.98727219e-08  1.62663870e+00  7.98727219e-08  1.80000000e+00  7.98727219e-08  2.02462082e-04  7.98727219e-08  7.91243220e-01  7.98727219e-08  1.72085058e+00  7.98727219e-08  1.72906555e+00                                 
 1.27394641e-07  8.36882841e-01  1.27394641e-07  7.87550852e-01  1.27394641e-07  1.55508054e+00  1.27394641e-07  1.80000000e+00  1.27394641e-07 -2.04692700e-04  1.27394641e-07  7.91327189e-01  1.27394641e-07  1.72087428e+00  1.27394641e-07  1.72757802e+00                                 
 2.22438479e-07  8.36878517e-01  2.22438479e-07  7.87552494e-01  2.22438479e-07  1.41060320e+00  2.22438479e-07  1.80000000e+00  2.22438479e-07  2.02344445e-04  2.22438479e-07  7.91401895e-01  2.22438479e-07  1.72091194e+00  2.22438479e-07  1.72629146e+00                                 
 4.03531034e-07  8.36882473e-01  4.03531034e-07  7.87550842e-01  4.03531034e-07  1.14148167e+00  4.03531034e-07  1.80000000e+00  4.03531034e-07 -2.04472406e-04  4.03531034e-07  7.91375944e-01  4.03531034e-07  1.72086703e+00  4.03531034e-07  1.72581010e+00                                 
 6.39476220e-07  8.36878517e-01  6.39476220e-07  7.87552488e-01  6.39476220e-07  8.55365208e-01  6.39476220e-07  1.80000000e+00  6.39476220e-07  2.02796025e-04  6.39476220e-07  7.91400579e-01  6.39476220e-07  1.72088409e+00  6.39476220e-07  1.72584132e+00                                 
 8.60397502e-07  8.36882494e-01  8.60397502e-07  7.87550847e-01  8.60397502e-07  7.80972946e-01  8.60397502e-07  1.80000000e+00  8.60397502e-07 -2.03040635e-04  8.60397502e-07  7.91377329e-01  8.60397502e-07  1.72084849e+00  8.60397502e-07  1.72582159e+00                                 
 1.02108608e-06  8.36878394e-01  1.02108608e-06  7.87552478e-01  1.02108608e-06  7.99766606e-01  1.02108608e-06  1.80000000e+00  1.02108608e-06  2.03187116e-04  1.02108608e-06  7.91400196e-01  1.02108608e-06  1.72086715e+00  1.02108608e-06  1.72581903e+00                                 
 1.09574666e-06  8.36882633e-01  1.09574666e-06  7.87550857e-01  1.09574666e-06  7.95773580e-01  1.09574666e-06  1.80000000e+00  1.09574666e-06 -2.03092356e-04  1.09574666e-06  7.91376530e-01  1.09574666e-06  1.72083766e+00  1.09574666e-06  1.72581196e+00                                 
 1.17225145e-06  8.36878391e-01  1.17225145e-06  7.87552476e-01  1.17225145e-06  7.95253099e-01  1.17225145e-06  1.80000000e+00  1.17225145e-06  2.03167586e-04  1.17225145e-06  7.91400728e-01  1.17225145e-06  1.72086109e+00  1.17225145e-06  1.72581236e+00                                 
 1.25823631e-06  8.36882552e-01  1.25823631e-06  7.87550859e-01  1.25823631e-06  7.95331698e-01  1.25823631e-06  1.80000000e+00  1.25823631e-06 -2.03733049e-04  1.25823631e-06  7.91376545e-01  1.25823631e-06  1.72083067e+00  1.25823631e-06  1.72580507e+00                                 
 1.39850106e-06  8.36878444e-01  1.39850106e-06  7.87552479e-01  1.39850106e-06  7.95233118e-01  1.39850106e-06  1.80000000e+00  1.39850106e-06  2.03155591e-04  1.39850106e-06  7.91400686e-01  1.39850106e-06  1.72085131e+00  1.39850106e-06  1.72580266e+00                                 
 1.67148101e-06  8.36882528e-01  1.67148101e-06  7.87550857e-01  1.67148101e-06  7.95345791e-01  1.67148101e-06  1.80000000e+00  1.67148101e-06 -2.02886976e-04  1.67148101e-06  7.91376554e-01  1.67148101e-06  1.72081287e+00  1.67148101e-06  1.72578732e+00                                 
 2.16741459e-06  8.36878456e-01  2.16741459e-06  7.87552479e-01  2.16741459e-06  7.95250158e-01  2.16741459e-06  1.80000000e+00  2.16741459e-06  2.03155296e-04  2.16741459e-06  7.91400680e-01  2.16741459e-06  1.72081815e+00  2.16741459e-06  1.72576962e+00                                 
 3.10118428e-06  8.36882521e-01  3.10118428e-06  7.87550857e-01  3.10118428e-06  7.95343196e-01  3.10118428e-06  1.80000000e+00  3.10118428e-06 -2.02869373e-04  3.10118428e-06  7.91376558e-01  3.10118428e-06  1.72075128e+00  3.10118428e-06  1.72572590e+00                                 
 4.30118428e-06  8.36878459e-01  4.30118428e-06  7.87552477e-01  4.30118428e-06  7.95253402e-01  4.30118428e-06  1.80000000e+00  4.30118428e-06  2.03054524e-04  4.30118428e-06  7.91400672e-01  4.30118428e-06  1.72072628e+00  4.30118428e-06  1.72567804e+00                                 
 5.50118428e-06  8.36882518e-01  5.50118428e-06  7.87550860e-01  5.50118428e-06  7.95343086e-01  5.50118428e-06  1.80000000e+00  5.50118428e-06 -2.03549056e-04  5.50118428e-06  7.91376566e-01  5.50118428e-06  1.72064785e+00  5.50118428e-06  1.72562280e+00                                 
 6.00100000e-06  8.36878465e-01  6.00100000e-06  7.87552474e-01  6.00100000e-06  7.95255109e-01  6.00100000e-06  1.80000000e+00  6.00100000e-06  2.02932167e-04  6.00100000e-06  7.91400667e-01  6.00100000e-06  1.72065295e+00  6.00100000e-06  1.72560494e+00                                 
 6.00110000e-06  8.36848924e-01  6.00110000e-06  7.87330908e-01  6.00110000e-06  7.93181557e-01  6.00110000e-06  1.62000000e+00  6.00110000e-06 -8.24200495e-05  6.00110000e-06  7.89520348e-01  6.00110000e-06  1.71906084e+00  6.00110000e-06  1.72558811e+00                                 
 6.00130000e-06  8.36878308e-01  6.00130000e-06  7.87393891e-01  6.00130000e-06  7.93937021e-01  6.00130000e-06  1.26000000e+00  6.00130000e-06  3.64173437e-05  6.00130000e-06  7.89862944e-01  6.00130000e-06  1.71935291e+00  6.00130000e-06  1.72561167e+00                                 
 6.00170000e-06  8.36906398e-01  6.00170000e-06  7.87425326e-01  6.00170000e-06  7.95280257e-01  6.00170000e-06  5.40000000e-01  6.00170000e-06  4.17628918e-02  6.00170000e-06  7.88875466e-01  6.00170000e-06  1.71192797e+00  6.00170000e-06  1.72555510e+00                                 
 6.00200000e-06  8.36875929e-01  6.00200000e-06  7.85159129e-01  6.00200000e-06  8.44142482e-01  6.00200000e-06  0.00000000e+00  6.00200000e-06  1.59534824e+00  6.00200000e-06  7.60244068e-01  6.00200000e-06  1.50778745e+00  6.00200000e-06  1.72469212e+00                                 
 6.00205078e-06  8.36882810e-01  6.00205078e-06  7.85145802e-01  6.00205078e-06  8.41926377e-01  6.00205078e-06  0.00000000e+00  6.00205078e-06  1.73354826e+00  6.00205078e-06  7.59819151e-01  6.00205078e-06  1.44906320e+00  6.00205078e-06  1.72497454e+00                                 
 6.00215235e-06  8.36879280e-01  6.00215235e-06  7.85281682e-01  6.00215235e-06  8.32772873e-01  6.00215235e-06  0.00000000e+00  6.00215235e-06  1.81914540e+00  6.00215235e-06  7.61366702e-01  6.00215235e-06  1.33688100e+00  6.00215235e-06  1.72548995e+00                                 
 6.00230673e-06  8.36879130e-01  6.00230673e-06  7.85918058e-01  6.00230673e-06  8.20208212e-01  6.00230673e-06  0.00000000e+00  6.00230673e-06  1.78778199e+00  6.00230673e-06  7.69069024e-01  6.00230673e-06  1.21281659e+00  6.00230673e-06  1.72564234e+00                                 
 6.00247525e-06  8.36880084e-01  6.00247525e-06  7.86241349e-01  6.00247525e-06  8.16649843e-01  6.00247525e-06  0.00000000e+00  6.00247525e-06  1.80575400e+00  6.00247525e-06  7.72653883e-01  6.00247525e-06  1.12281797e+00  6.00247525e-06  1.72571443e+00                                 
 6.00270922e-06  8.36878523e-01  6.00270922e-06  7.86560869e-01  6.00270922e-06  8.11137746e-01  6.00270922e-06  0.00000000e+00  6.00270922e-06  1.79553651e+00  6.00270922e-06  7.75827292e-01  6.00270922e-06  1.02896556e+00  6.00270922e-06  1.72579049e+00                                 
 6.00296382e-06  8.36880455e-01  6.00296382e-06  7.86904271e-01  6.00296382e-06  8.08814831e-01  6.00296382e-06  0.00000000e+00  6.00296382e-06  1.80262226e+00  6.00296382e-06  7.79282099e-01  6.00296382e-06  9.51875952e-01  6.00296382e-06  1.72587646e+00                                 
 6.00347301e-06  8.36878873e-01  6.00347301e-06  7.87385670e-01  6.00347301e-06  8.02791351e-01  6.00347301e-06  0.00000000e+00  6.00347301e-06  1.79732376e+00  6.00347301e-06  7.83933354e-01  6.00347301e-06  8.44274181e-01  6.00347301e-06  1.72591052e+00                                 
 6.00408564e-06  8.36881059e-01  6.00408564e-06  7.87961790e-01  6.00408564e-06  7.96530505e-01  6.00408564e-06  0.00000000e+00  6.00408564e-06  1.80211236e+00  6.00408564e-06  7.90477162e-01  6.00408564e-06  8.00780800e-01  6.00408564e-06  1.72578303e+00                                 
 6.00452652e-06  8.36879283e-01  6.00452652e-06  7.87995234e-01  6.00452652e-06  7.95799035e-01  6.00452652e-06  0.00000000e+00  6.00452652e-06  1.79831040e+00  6.00452652e-06  7.90943728e-01  6.00452652e-06  7.96475945e-01  6.00452652e-06  1.72552679e+00                                 
 6.00511260e-06  8.36881309e-01  6.00511260e-06  7.88027559e-01  6.00511260e-06  7.95624927e-01  6.00511260e-06  0.00000000e+00  6.00511260e-06  1.80144496e+00  6.00511260e-06  7.92027983e-01  6.00511260e-06  7.96064087e-01  6.00511260e-06  1.72507922e+00                                 
 6.00574263e-06  8.36879502e-01  6.00574263e-06  7.87917181e-01  6.00574263e-06  7.96068438e-01  6.00574263e-06  0.00000000e+00  6.00574263e-06  1.79875989e+00  6.00574263e-06  7.91597724e-01  6.00574263e-06  7.95648462e-01  6.00574263e-06  1.72448103e+00                                 
 6.00700268e-06  8.36881403e-01  6.00700268e-06  7.87834937e-01  6.00700268e-06  7.96827559e-01  6.00700268e-06  0.00000000e+00  6.00700268e-06  1.80115648e+00  6.00700268e-06  7.92234323e-01  6.00700268e-06  7.96979090e-01  6.00700268e-06  1.72319164e+00                                 
 6.00952279e-06  8.36879571e-01  6.00952279e-06  7.87655763e-01  6.00952279e-06  7.98975207e-01  6.00952279e-06  0.00000000e+00  6.00952279e-06  1.79889151e+00  6.00952279e-06  7.91829228e-01  6.00952279e-06  7.98476250e-01  6.00952279e-06  1.72042515e+00                                 
 6.01456302e-06  8.36881400e-01  6.01456302e-06  7.87604179e-01  6.01456302e-06  8.03405874e-01  6.01456302e-06  0.00000000e+00  6.01456302e-06  1.80109408e+00  6.01456302e-06  7.92310611e-01  6.01456302e-06  8.03488374e-01  6.01456302e-06  1.71487832e+00                                 
 6.02464346e-06  8.36879577e-01  6.02464346e-06  7.87527459e-01  6.02464346e-06  8.12984473e-01  6.02464346e-06  0.00000000e+00  6.02464346e-06  1.79892221e+00  6.02464346e-06  7.91695716e-01  6.02464346e-06  8.12397818e-01  6.02464346e-06  1.70376755e+00                                 
 6.04243122e-06  8.36881401e-01  6.04243122e-06  7.87565765e-01  6.04243122e-06  8.29157722e-01  6.04243122e-06  0.00000000e+00  6.04243122e-06  1.80107816e+00  6.04243122e-06  7.91991474e-01  6.04243122e-06  8.29266657e-01  6.04243122e-06  1.68324423e+00                                 
 6.07800674e-06  8.36879578e-01  6.07800674e-06  7.87533013e-01  6.07800674e-06  8.59627977e-01  6.07800674e-06  0.00000000e+00  6.07800674e-06  1.79893010e+00  6.07800674e-06  7.91305817e-01  6.07800674e-06  8.58722850e-01  6.07800674e-06  1.63868929e+00                                 
