 time            v(vbep)         time            v(vben)         time            v(vout)         time            v(vphi1)        time            v(vphi2)        time            v(vref)         yes             currtemp       
 0.00000000e+00  7.68407419e-01  0.00000000e+00  7.22838997e-01  0.00000000e+00  8.50966244e-02  0.00000000e+00  0.00000000e+00  0.00000000e+00  1.79996902e+00  0.00000000e+00  7.22838997e-01  1.00000000e+00 -2.40000000e+01 
 5.00000000e-12  7.68392212e-01  5.00000000e-12  7.22826315e-01  5.00000000e-12  8.55155209e-02  5.00000000e-12  1.80000000e-02  5.00000000e-12  1.80006088e+00  5.00000000e-12  7.22826315e-01                                 
 1.00000000e-11  7.68377235e-01  1.00000000e-11  7.22813892e-01  1.00000000e-11  8.58548358e-02  1.00000000e-11  3.60000000e-02  1.00000000e-11  1.80011222e+00  1.00000000e-11  7.22813892e-01                                 
 2.00000000e-11  7.68347401e-01  2.00000000e-11  7.22789115e-01  2.00000000e-11  8.64194055e-02  2.00000000e-11  7.20000000e-02  2.00000000e-11  1.80016680e+00  2.00000000e-11  7.22789115e-01                                 
 4.00000000e-11  7.68287945e-01  4.00000000e-11  7.22739689e-01  4.00000000e-11  8.71210154e-02  4.00000000e-11  1.44000000e-01  4.00000000e-11  1.80015784e+00  4.00000000e-11  7.22739689e-01                                 
 8.00000000e-11  7.68169413e-01  8.00000000e-11  7.22641110e-01  8.00000000e-11  8.79174572e-02  8.00000000e-11  2.88000000e-01  8.00000000e-11  1.80011215e+00  8.00000000e-11  7.22641110e-01                                 
 1.60000000e-10  7.67933977e-01  1.60000000e-10  7.22445070e-01  1.60000000e-10  8.91209041e-02  1.60000000e-10  5.76000000e-01  1.60000000e-10  1.80008289e+00  1.60000000e-10  7.22445070e-01                                 
 3.20000000e-10  7.67469426e-01  3.20000000e-10  7.22057403e-01  3.20000000e-10  1.05857032e-01  3.20000000e-10  1.15200000e+00  3.20000000e-10  1.80011126e+00  3.20000000e-10  7.22057403e-01                                 
 5.00000000e-10  7.66956783e-01  5.00000000e-10  7.21628267e-01  5.00000000e-10  3.85624919e-01  5.00000000e-10  1.80000000e+00  5.00000000e-10  1.23872047e-01  5.00000000e-10  7.21628267e-01                                 
 5.20524993e-10  7.66899068e-01  5.20524993e-10  7.21579857e-01  5.20524993e-10  4.44211301e-01  5.20524993e-10  1.80000000e+00  5.20524993e-10  2.48833285e-02  5.20524993e-10  7.21579857e-01                                 
 5.61574979e-10  7.66783903e-01  5.61574979e-10  7.21483223e-01  5.61574979e-10  5.51063350e-01  5.61574979e-10  1.80000000e+00  5.61574979e-10 -1.06417994e-02  5.61574979e-10  7.21483223e-01                                 
 6.43674951e-10  7.66555174e-01  6.43674951e-10  7.21291093e-01  6.43674951e-10  7.15728487e-01  6.43674951e-10  1.80000000e+00  6.43674951e-10  9.71662751e-03  6.43674951e-10  7.21291093e-01                                 
 7.60632489e-10  7.66232944e-01  7.60632489e-10  7.21019960e-01  7.60632489e-10  8.82354714e-01  7.60632489e-10  1.80000000e+00  7.60632489e-10 -7.77790678e-03  7.60632489e-10  7.21019960e-01                                 
 9.41648440e-10  7.65742335e-01  9.41648440e-10  7.20606116e-01  9.41648440e-10  1.07069198e+00  9.41648440e-10  1.80000000e+00  9.41648440e-10  7.98398550e-03  9.41648440e-10  7.20606116e-01                                 
 1.19793642e-09  7.65063937e-01  1.19793642e-09  7.20031840e-01  1.19793642e-09  1.28220133e+00  1.19793642e-09  1.80000000e+00  1.19793642e-09 -6.80506266e-03  1.19793642e-09  7.20031840e-01                                 
 1.64206450e-09  7.63930600e-01  1.64206450e-09  7.19067329e-01  1.64206450e-09  1.53744569e+00  1.64206450e-09  1.80000000e+00  1.64206450e-09  7.12300831e-03  1.64206450e-09  7.19067329e-01                                 
 2.35936695e-09  7.62203004e-01  2.35936695e-09  7.17585140e-01  2.35936695e-09  1.71189425e+00  2.35936695e-09  1.80000000e+00  2.35936695e-09 -6.70815514e-03  2.35936695e-09  7.17585140e-01                                 
 2.72107633e-09  7.61376463e-01  2.72107633e-09  7.16870846e-01  2.72107633e-09  1.73439492e+00  2.72107633e-09  1.80000000e+00  2.72107633e-09  6.53213481e-03  2.72107633e-09  7.16870846e-01                                 
 3.16237016e-09  7.60404262e-01  3.16237016e-09  7.16026657e-01  3.16237016e-09  1.74422237e+00  3.16237016e-09  1.80000000e+00  3.16237016e-09 -6.25375156e-03  3.16237016e-09  7.16026657e-01                                 
 3.63590009e-09  7.59402100e-01  3.63590009e-09  7.15152012e-01  3.63590009e-09  1.74777798e+00  3.63590009e-09  1.80000000e+00  3.63590009e-09  6.09565857e-03  3.63590009e-09  7.15152012e-01                                 
 4.58295996e-09  7.57510993e-01  4.58295996e-09  7.13489996e-01  4.58295996e-09  1.74777512e+00  4.58295996e-09  1.80000000e+00  4.58295996e-09 -5.96765636e-03  4.58295996e-09  7.13489996e-01                                 
 5.81053265e-09  7.55256395e-01  5.81053265e-09  7.11489519e-01  5.81053265e-09  1.74603648e+00  5.81053265e-09  1.80000000e+00  5.81053265e-09  5.92116590e-03  5.81053265e-09  7.11489519e-01                                 
 8.26567803e-09  7.51270294e-01  8.26567803e-09  7.07908094e-01  8.26567803e-09  1.74321391e+00  8.26567803e-09  1.80000000e+00  8.26567803e-09 -5.85920043e-03  8.26567803e-09  7.07908094e-01                                 
 1.27572403e-08  7.45279968e-01  1.27572403e-08  7.02431874e-01  1.27572403e-08  1.73750889e+00  1.27572403e-08  1.80000000e+00  1.27572403e-08  5.86388100e-03  1.27572403e-08  7.02431874e-01                                 
 1.93309153e-08  7.38560053e-01  1.93309153e-08  6.96163037e-01  1.93309153e-08  1.72822771e+00  1.93309153e-08  1.80000000e+00  1.93309153e-08 -5.82508545e-03  1.93309153e-08  6.96163037e-01                                 
 2.28298201e-08  7.35730231e-01  2.28298201e-08  6.93476013e-01  2.28298201e-08  1.72302386e+00  2.28298201e-08  1.80000000e+00  2.28298201e-08  5.82308048e-03  2.28298201e-08  6.93476013e-01                                 
 2.43952748e-08  7.34599822e-01  2.43952748e-08  6.92392765e-01  2.43952748e-08  1.72077015e+00  2.43952748e-08  1.80000000e+00  2.43952748e-08 -5.74435988e-03  2.43952748e-08  6.92392765e-01                                 
 2.69223889e-08  7.32927004e-01  2.69223889e-08  6.90777872e-01  2.69223889e-08  1.71753047e+00  2.69223889e-08  1.80000000e+00  2.69223889e-08  5.73226754e-03  2.69223889e-08  6.90777872e-01                                 
 3.01441366e-08  7.31018611e-01  3.01441366e-08  6.88918673e-01  3.01441366e-08  1.71330607e+00  3.01441366e-08  1.80000000e+00  3.01441366e-08 -5.68311033e-03  3.01441366e-08  6.88918673e-01                                 
 3.56192666e-08  7.28155399e-01  3.56192666e-08  6.86108817e-01  3.56192666e-08  1.70658842e+00  3.56192666e-08  1.80000000e+00  3.56192666e-08  5.68958046e-03  3.56192666e-08  6.86108817e-01                                 
 4.13944820e-08  7.25457458e-01  4.13944820e-08  6.83456754e-01  4.13944820e-08  1.69892969e+00  4.13944820e-08  1.80000000e+00  4.13944820e-08 -5.65260907e-03  4.13944820e-08  6.83456754e-01                                 
 5.29449129e-08  7.20699037e-01  5.29449129e-08  6.78789036e-01  5.29449129e-08  1.68409858e+00  5.29449129e-08  1.80000000e+00  5.29449129e-08  5.66730025e-03  5.29449129e-08  6.78789036e-01                                 
 6.72932151e-08  7.15805166e-01  6.72932151e-08  6.73980267e-01  6.72932151e-08  1.66592613e+00  6.72932151e-08  1.80000000e+00  6.72932151e-08 -5.63907306e-03  6.72932151e-08  6.73980267e-01                                 
 9.59898195e-08  7.08356649e-01  9.59898195e-08  6.66600654e-01  9.59898195e-08  1.63198700e+00  9.59898195e-08  1.80000000e+00  9.59898195e-08  5.65868238e-03  9.59898195e-08  6.66600654e-01                                 
 1.53383028e-07  6.96224443e-01  1.53383028e-07  6.54886616e-01  1.53383028e-07  1.56665389e+00  1.53383028e-07  1.80000000e+00  1.53383028e-07 -5.63458628e-03  1.53383028e-07  6.54886616e-01                                 
 2.10470067e-07  6.85810393e-01  2.10470067e-07  6.45181305e-01  2.10470067e-07  1.50254089e+00  2.10470067e-07  1.80000000e+00  2.10470067e-07  5.65579643e-03  2.10470067e-07  6.45181305e-01                                 
 2.74304764e-07  6.76485308e-01  2.74304764e-07  6.36564287e-01  2.74304764e-07  1.43167203e+00  2.74304764e-07  1.80000000e+00  2.74304764e-07 -5.63162117e-03  2.74304764e-07  6.36564287e-01                                 
 3.94530496e-07  6.61463810e-01  3.94530496e-07  6.22979887e-01  3.94530496e-07  1.30013446e+00  3.94530496e-07  1.80000000e+00  3.94530496e-07  5.65375026e-03  3.94530496e-07  6.22979887e-01                                 
 5.97240629e-07  6.40303800e-01  5.97240629e-07  6.04407618e-01  5.97240629e-07  1.07294906e+00  5.97240629e-07  1.80000000e+00  5.97240629e-07 -5.63032216e-03  5.97240629e-07  6.04407618e-01                                 
 9.57548160e-07  6.07015165e-01  9.57548160e-07  5.76300225e-01  9.57548160e-07  7.73079878e-01  9.57548160e-07  1.80000000e+00  9.57548160e-07  5.65358980e-03  9.57548160e-07  5.76300225e-01                                 
 1.50363020e-06  6.05983575e-01  1.50363020e-06  5.74373141e-01  1.50363020e-06  5.86118042e-01  1.50363020e-06  1.80000000e+00  1.50363020e-06 -5.62961051e-03  1.50363020e-06  5.74373141e-01                                 
 1.51341127e-06  6.06774135e-01  1.51341127e-06  5.74990691e-01  1.51341127e-06  5.86405400e-01  1.51341127e-06  1.80000000e+00  1.51341127e-06 -1.83587504e-06  1.51341127e-06  5.74990691e-01                                 
 1.53297340e-06  6.09227787e-01  1.53297340e-06  5.76924203e-01  1.53297340e-06  5.87822647e-01  1.53297340e-06  1.80000000e+00  1.53297340e-06  2.08033795e-06  1.53297340e-06  5.76924203e-01                                 
 1.57209766e-06  6.21462098e-01  1.57209766e-06  5.86651607e-01  1.57209766e-06  5.97945814e-01  1.57209766e-06  1.80000000e+00  1.57209766e-06 -1.46618990e-06  1.57209766e-06  5.86651607e-01                                 
 1.64217949e-06  7.56081947e-01  1.64217949e-06  7.04911398e-01  1.64217949e-06  7.18988198e-01  1.64217949e-06  1.80000000e+00  1.64217949e-06  5.69892099e-06  1.64217949e-06  7.04911398e-01                                 
 1.71152256e-06  8.51577734e-01  1.71152256e-06  8.03611072e-01  1.71152256e-06  7.93767240e-01  1.71152256e-06  1.80000000e+00  1.71152256e-06 -1.78978199e-06  1.71152256e-06  8.03611072e-01                                 
 1.78172837e-06  9.37697690e-01  1.78172837e-06  8.69148361e-01  1.78172837e-06  8.54623345e-01  1.78172837e-06  1.80000000e+00  1.78172837e-06  5.01798868e-06  1.78172837e-06  8.69148361e-01                                 
 1.79088961e-06  9.45913919e-01  1.79088961e-06  8.73937184e-01  1.79088961e-06  8.68357881e-01  1.79088961e-06  1.80000000e+00  1.79088961e-06  1.56595026e-06  1.79088961e-06  8.73937184e-01                                 
 1.80921207e-06  9.50229949e-01  1.80921207e-06  8.76534243e-01  1.80921207e-06  8.78316198e-01  1.80921207e-06  1.80000000e+00  1.80921207e-06 -5.38884350e-07  1.80921207e-06  8.76534243e-01                                 
 1.83404276e-06  9.47000588e-01  1.83404276e-06  8.74681189e-01  1.83404276e-06  8.71298493e-01  1.83404276e-06  1.80000000e+00  1.83404276e-06  2.08893772e-08  1.83404276e-06  8.74681189e-01                                 
 1.86221073e-06  9.48485182e-01  1.86221073e-06  8.75505861e-01  1.86221073e-06  8.74662509e-01  1.86221073e-06  1.80000000e+00  1.86221073e-06  2.16941719e-07  1.86221073e-06  8.75505861e-01                                 
 1.89290029e-06  9.47033630e-01  1.89290029e-06  8.74730262e-01  1.89290029e-06  8.73203075e-01  1.89290029e-06  1.80000000e+00  1.89290029e-06 -3.26607124e-07  1.89290029e-06  8.74730262e-01                                 
 1.94248162e-06  9.47013935e-01  1.94248162e-06  8.74667564e-01  1.94248162e-06  8.72763397e-01  1.94248162e-06  1.80000000e+00  1.94248162e-06  3.30669645e-07  1.94248162e-06  8.74667564e-01                                 
 2.00959157e-06  9.45807123e-01  2.00959157e-06  8.74041502e-01  2.00959157e-06  8.73016472e-01  2.00959157e-06  1.80000000e+00  2.00959157e-06 -3.35538805e-07  2.00959157e-06  8.74041502e-01                                 
 2.13127241e-06  9.44439058e-01  2.13127241e-06  8.73204932e-01  2.13127241e-06  8.71116768e-01  2.13127241e-06  1.80000000e+00  2.13127241e-06  3.15846884e-07  2.13127241e-06  8.73204932e-01                                 
 2.36845551e-06  9.40809491e-01  2.36845551e-06  8.71169857e-01  2.36845551e-06  8.70223508e-01  2.36845551e-06  1.80000000e+00  2.36845551e-06 -3.26781835e-07  2.36845551e-06  8.71169857e-01                                 
 2.84229320e-06  9.30761198e-01  2.84229320e-06  8.65073941e-01  2.84229320e-06  8.62779695e-01  2.84229320e-06  1.80000000e+00  2.84229320e-06  2.91018832e-07  2.84229320e-06  8.65073941e-01                                 
 2.96075262e-06  9.26526656e-01  2.96075262e-06  8.62463662e-01  2.96075262e-06  8.60539835e-01  2.96075262e-06  1.80000000e+00  2.96075262e-06 -3.18717190e-08  2.96075262e-06  8.62463662e-01                                 
 3.19767147e-06  9.13664182e-01  3.19767147e-06  8.54022408e-01  3.19767147e-06  8.51528008e-01  3.19767147e-06  1.80000000e+00  3.19767147e-06 -8.74596382e-08  3.19767147e-06  8.54022408e-01                                 
 3.57312857e-06  8.71089884e-01  3.57312857e-06  8.21196831e-01  3.57312857e-06  8.19164128e-01  3.57312857e-06  1.80000000e+00  3.57312857e-06 -2.03308045e-07  3.57312857e-06  8.21196831e-01                                 
 3.63402065e-06  8.64809405e-01  3.63402065e-06  8.15710209e-01  3.63402065e-06  8.14332356e-01  3.63402065e-06  1.80000000e+00  3.63402065e-06 -1.37957517e-07  3.63402065e-06  8.15710209e-01                                 
 3.75580481e-06  8.58280153e-01  3.75580481e-06  8.09854290e-01  3.75580481e-06  8.09518341e-01  3.75580481e-06  1.80000000e+00  3.75580481e-06  3.17880765e-09  3.75580481e-06  8.09854290e-01                                 
 3.99937314e-06  8.58606393e-01  3.99937314e-06  8.10151340e-01  3.99937314e-06  8.10203017e-01  3.99937314e-06  1.80000000e+00  3.99937314e-06  2.01383179e-08  3.99937314e-06  8.10151340e-01                                 
 4.25428255e-06  8.58511903e-01  4.25428255e-06  8.10064482e-01  4.25428255e-06  8.10086465e-01  4.25428255e-06  1.80000000e+00  4.25428255e-06 -2.59364596e-09  4.25428255e-06  8.10064482e-01                                 
 4.64075806e-06  8.58513454e-01  4.64075806e-06  8.10067166e-01  4.64075806e-06  8.10082156e-01  4.64075806e-06  1.80000000e+00  4.64075806e-06  2.11944758e-08  4.64075806e-06  8.10067166e-01                                 
 5.41370906e-06  8.58540477e-01  5.41370906e-06  8.10090359e-01  5.41370906e-06  8.10114978e-01  5.41370906e-06  1.80000000e+00  5.41370906e-06 -2.43455709e-09  5.41370906e-06  8.10090359e-01                                 
 6.41370906e-06  8.58503497e-01  6.41370906e-06  8.10058128e-01  6.41370906e-06  8.10073131e-01  6.41370906e-06  1.80000000e+00  6.41370906e-06  2.09427638e-08  6.41370906e-06  8.10058128e-01                                 
 7.41370906e-06  8.58547767e-01  7.41370906e-06  8.10096962e-01  7.41370906e-06  8.10121501e-01  7.41370906e-06  1.80000000e+00  7.41370906e-06 -2.16166170e-09  7.41370906e-06  8.10096962e-01                                 
 8.41370906e-06  8.58498102e-01  8.41370906e-06  8.10053257e-01  8.41370906e-06  8.10068468e-01  8.41370906e-06  1.80000000e+00  8.41370906e-06  2.06338089e-08  8.41370906e-06  8.10053257e-01                                 
 9.41370906e-06  8.58551764e-01  9.41370906e-06  8.10100577e-01  9.41370906e-06  8.10124788e-01  9.41370906e-06  1.80000000e+00  9.41370906e-06 -1.82653468e-09  9.41370906e-06  8.10100577e-01                                 
 1.00005000e-05  8.58494628e-01  1.00005000e-05  8.10050125e-01  1.00005000e-05  8.10065909e-01  1.00005000e-05  1.80000000e+00  1.00005000e-05  2.01501679e-08  1.00005000e-05  8.10050125e-01                                 
 1.00005500e-05  8.58494028e-01  1.00005500e-05  8.10049502e-01  1.00005500e-05  8.03520377e-01  1.00005500e-05  1.62000000e+00  1.00005500e-05 -8.82362304e-05  1.00005500e-05  8.10049502e-01                                 
 1.00006500e-05  8.58492991e-01  1.00006500e-05  8.10048452e-01  1.00006500e-05  7.95298284e-01  1.00006500e-05  1.26000000e+00  1.00006500e-05 -2.90791301e-05  1.00006500e-05  8.10048452e-01                                 
 1.00008500e-05  8.58491652e-01  1.00008500e-05  8.10047134e-01  1.00008500e-05  7.97763894e-01  1.00008500e-05  5.40000000e-01  1.00008500e-05 -1.85470768e-06  1.00008500e-05  8.10047134e-01                                 
 1.00010000e-05  8.58489596e-01  1.00010000e-05  8.10045577e-01  1.00010000e-05  6.32160832e-01  1.00010000e-05  0.00000000e+00  1.00010000e-05  1.46707318e+00  1.00010000e-05  8.10045577e-01                                 
 1.00010148e-05  8.58489345e-01  1.00010148e-05  8.10045369e-01  1.00010148e-05  5.88039257e-01  1.00010148e-05  0.00000000e+00  1.00010148e-05  1.62316191e+00  1.00010148e-05  8.10045369e-01                                 
 1.00010445e-05  8.58489495e-01  1.00010445e-05  8.10045252e-01  1.00010445e-05  5.11165620e-01  1.00010445e-05  0.00000000e+00  1.00010445e-05  1.78258558e+00  1.00010445e-05  8.10045252e-01                                 
 1.00011038e-05  8.58490485e-01  1.00011038e-05  8.10045624e-01  1.00011038e-05  4.45479467e-01  1.00011038e-05  0.00000000e+00  1.00011038e-05  1.80648112e+00  1.00011038e-05  8.10045624e-01                                 
 1.00011750e-05  8.58491200e-01  1.00011750e-05  8.10046263e-01  1.00011750e-05  4.53017845e-01  1.00011750e-05  0.00000000e+00  1.00011750e-05  1.79833884e+00  1.00011750e-05  8.10046263e-01                                 
 1.00012975e-05  8.58491773e-01  1.00012975e-05  8.10046882e-01  1.00012975e-05  4.68607423e-01  1.00012975e-05  0.00000000e+00  1.00012975e-05  1.80294277e+00  1.00012975e-05  8.10046882e-01                                 
 1.00014252e-05  8.58491854e-01  1.00014252e-05  8.10047026e-01  1.00014252e-05  4.77643349e-01  1.00014252e-05  0.00000000e+00  1.00014252e-05  1.79865836e+00  1.00014252e-05  8.10047026e-01                                 
 1.00016807e-05  8.58491250e-01  1.00016807e-05  8.10046566e-01  1.00016807e-05  4.88694360e-01  1.00016807e-05  0.00000000e+00  1.00016807e-05  1.80171721e+00  1.00016807e-05  8.10046566e-01                                 
 1.00020705e-05  8.58490172e-01  1.00020705e-05  8.10045577e-01  1.00020705e-05  4.95652729e-01  1.00020705e-05  0.00000000e+00  1.00020705e-05  1.79861706e+00  1.00020705e-05  8.10045577e-01                                 
 1.00026559e-05  8.58490763e-01  1.00026559e-05  8.10045908e-01  1.00026559e-05  4.99515317e-01  1.00026559e-05  0.00000000e+00  1.00026559e-05  1.80138148e+00  1.00026559e-05  8.10045908e-01                                 
 1.00035495e-05  8.58497556e-01  1.00035495e-05  8.10051663e-01  1.00035495e-05  5.01264414e-01  1.00035495e-05  0.00000000e+00  1.00035495e-05  1.79868177e+00  1.00035495e-05  8.10051663e-01                                 
 1.00050953e-05  8.58517382e-01  1.00050953e-05  8.10069260e-01  1.00050953e-05  5.03563217e-01  1.00050953e-05  0.00000000e+00  1.00050953e-05  1.80130440e+00  1.00050953e-05  8.10069260e-01                                 
 1.00081382e-05  8.58553119e-01  1.00081382e-05  8.10101806e-01  1.00081382e-05  5.07992813e-01  1.00081382e-05  0.00000000e+00  1.00081382e-05  1.79871949e+00  1.00081382e-05  8.10101806e-01                                 
