 time            v(vbep)         time            v(vben)         time            v(vout)         time            v(vphi1)        time            v(vphi2)        time            v(vref)         yes             currtemp       
 0.00000000e+00  5.76575666e-01  0.00000000e+00  5.12560865e-01  0.00000000e+00  2.59188391e-01  0.00000000e+00  0.00000000e+00  0.00000000e+00  1.79996409e+00  0.00000000e+00  5.12560865e-01  1.00000000e+00  7.80000000e+01 
 5.00000000e-12  5.76555463e-01  5.00000000e-12  5.12544088e-01  5.00000000e-12  2.59708491e-01  5.00000000e-12  1.80000000e-02  5.00000000e-12  1.80007202e+00  5.00000000e-12  5.12544088e-01                                 
 1.00000000e-11  5.76535568e-01  1.00000000e-11  5.12527672e-01  1.00000000e-11  2.60132757e-01  1.00000000e-11  3.60000000e-02  1.00000000e-11  1.80013166e+00  1.00000000e-11  5.12527672e-01                                 
 2.00000000e-11  5.76495940e-01  2.00000000e-11  5.12494935e-01  2.00000000e-11  2.60836401e-01  2.00000000e-11  7.20000000e-02  2.00000000e-11  1.80019109e+00  2.00000000e-11  5.12494935e-01                                 
 4.00000000e-11  5.76416970e-01  4.00000000e-11  5.12429641e-01  4.00000000e-11  2.61663969e-01  4.00000000e-11  1.44000000e-01  4.00000000e-11  1.80015991e+00  4.00000000e-11  5.12429641e-01                                 
 8.00000000e-11  5.76259547e-01  8.00000000e-11  5.12299427e-01  8.00000000e-11  2.62360264e-01  8.00000000e-11  2.88000000e-01  8.00000000e-11  1.80007943e+00  8.00000000e-11  5.12299427e-01                                 
 1.60000000e-10  5.75946861e-01  1.60000000e-10  5.12040483e-01  1.60000000e-10  2.62966269e-01  1.60000000e-10  5.76000000e-01  1.60000000e-10  1.80003789e+00  1.60000000e-10  5.12040483e-01                                 
 3.20000000e-10  5.75329783e-01  3.20000000e-10  5.11528378e-01  3.20000000e-10  2.67244492e-01  3.20000000e-10  1.15200000e+00  3.20000000e-10  1.80032981e+00  3.20000000e-10  5.11528378e-01                                 
 5.00000000e-10  5.74648446e-01  5.00000000e-10  5.10961241e-01  5.00000000e-10  5.08933009e-01  5.00000000e-10  1.80000000e+00  5.00000000e-10  1.88315249e-01  5.00000000e-10  5.10961241e-01                                 
 5.22572756e-10  5.74564057e-01  5.22572756e-10  5.10890860e-01  5.22572756e-10  5.66527569e-01  5.22572756e-10  1.80000000e+00  5.22572756e-10  4.67004463e-02  5.22572756e-10  5.10890860e-01                                 
 5.67718269e-10  5.74395688e-01  5.67718269e-10  5.10750383e-01  5.67718269e-10  6.73012460e-01  5.67718269e-10  1.80000000e+00  5.67718269e-10 -1.70557395e-02  5.67718269e-10  5.10750383e-01                                 
 6.58009294e-10  5.74061417e-01  6.58009294e-10  5.10471170e-01  6.58009294e-10  8.42857044e-01  6.58009294e-10  1.80000000e+00  6.58009294e-10  1.50133988e-02  6.58009294e-10  5.10471170e-01                                 
 7.75561434e-10  5.73631041e-01  7.75561434e-10  5.10111062e-01  7.75561434e-10  1.01331191e+00  7.75561434e-10  1.80000000e+00  7.75561434e-10 -1.07295517e-02  7.75561434e-10  5.10111062e-01                                 
 9.63673713e-10  5.72953293e-01  9.63673713e-10  5.09542572e-01  9.63673713e-10  1.23110748e+00  9.63673713e-10  1.80000000e+00  9.63673713e-10  1.10255419e-02  9.63673713e-10  5.09542572e-01                                 
 1.29591166e-09  5.71787712e-01  1.29591166e-09  5.08560960e-01  1.29591166e-09  1.50776410e+00  1.29591166e-09  1.80000000e+00  1.29591166e-09 -9.12993205e-03  1.29591166e-09  5.08560960e-01                                 
 1.87222475e-09  5.69854193e-01  1.87222475e-09  5.06921927e-01  1.87222475e-09  1.73946292e+00  1.87222475e-09  1.80000000e+00  1.87222475e-09  9.41756713e-03  1.87222475e-09  5.06921927e-01                                 
 2.16659008e-09  5.68907413e-01  2.16659008e-09  5.06114414e-01  2.16659008e-09  1.77744643e+00  2.16659008e-09  1.80000000e+00  2.16659008e-09 -8.45909710e-03  2.16659008e-09  5.06114414e-01                                 
 2.50420517e-09  5.67852655e-01  2.50420517e-09  5.05211155e-01  2.50420517e-09  1.79721887e+00  2.50420517e-09  1.80000000e+00  2.50420517e-09  8.06816166e-03  2.50420517e-09  5.05211155e-01                                 
 2.88216604e-09  5.66709005e-01  2.88216604e-09  5.04227505e-01  2.88216604e-09  1.80533337e+00  2.88216604e-09  1.80000000e+00  2.88216604e-09 -7.50382863e-03  2.88216604e-09  5.04227505e-01                                 
 3.54445412e-09  5.64791835e-01  3.54445412e-09  5.02568966e-01  3.54445412e-09  1.80857423e+00  3.54445412e-09  1.80000000e+00  3.54445412e-09  7.32115310e-03  3.54445412e-09  5.02568966e-01                                 
 4.28698560e-09  5.62762405e-01  4.28698560e-09  5.00800460e-01  4.28698560e-09  1.80666657e+00  4.28698560e-09  1.80000000e+00  4.28698560e-09 -7.05038380e-03  4.28698560e-09  5.00800460e-01                                 
 5.64998753e-09  5.59318739e-01  5.64998753e-09  4.97771541e-01  5.64998753e-09  1.80330603e+00  5.64998753e-09  1.80000000e+00  5.64998753e-09  6.98801687e-03  5.64998753e-09  4.97771541e-01                                 
 7.68529463e-09  5.54733438e-01  7.68529463e-09  4.93687495e-01  7.68529463e-09  1.79750379e+00  7.68529463e-09  1.80000000e+00  7.68529463e-09 -6.85550073e-03  7.68529463e-09  4.93687495e-01                                 
 9.20605303e-09  5.51666731e-01  9.20605303e-09  4.90924840e-01  9.20605303e-09  1.79431958e+00  9.20605303e-09  1.80000000e+00  9.20605303e-09  6.80586331e-03  9.20605303e-09  4.90924840e-01                                 
 1.09681990e-08  5.48417666e-01  1.09681990e-08  4.87974135e-01  1.09681990e-08  1.79007079e+00  1.09681990e-08  1.80000000e+00  1.09681990e-08 -6.67478110e-03  1.09681990e-08  4.87974135e-01                                 
 1.25410055e-08  5.45751793e-01  1.25410055e-08  4.85535991e-01  1.25410055e-08  1.78696467e+00  1.25410055e-08  1.80000000e+00  1.25410055e-08  6.62142552e-03  1.25410055e-08  4.85535991e-01                                 
 1.40562454e-08  5.43361665e-01  1.40562454e-08  4.83337934e-01  1.40562454e-08  1.78352901e+00  1.40562454e-08  1.80000000e+00  1.40562454e-08 -6.48518222e-03  1.40562454e-08  4.83337934e-01                                 
 1.56794920e-08  5.40970444e-01  1.56794920e-08  4.81128057e-01  1.56794920e-08  1.78052025e+00  1.56794920e-08  1.80000000e+00  1.56794920e-08  6.43373607e-03  1.56794920e-08  4.81128057e-01                                 
 1.74880210e-08  5.38488326e-01  1.74880210e-08  4.78823100e-01  1.74880210e-08  1.77666479e+00  1.74880210e-08  1.80000000e+00  1.74880210e-08 -6.31782417e-03  1.74880210e-08  4.78823100e-01                                 
 2.00376952e-08  5.35273797e-01  2.00376952e-08  4.75821409e-01  2.00376952e-08  1.77197196e+00  2.00376952e-08  1.80000000e+00  2.00376952e-08  6.29876208e-03  2.00376952e-08  4.75821409e-01                                 
 2.30438014e-08  5.31858539e-01  2.30438014e-08  4.72610589e-01  2.30438014e-08  1.76603453e+00  2.30438014e-08  1.80000000e+00  2.30438014e-08 -6.21593570e-03  2.30438014e-08  4.72610589e-01                                 
 2.78509309e-08  5.27100977e-01  2.78509309e-08  4.68096537e-01  2.78509309e-08  1.75772269e+00  2.78509309e-08  1.80000000e+00  2.78509309e-08  6.22344426e-03  2.78509309e-08  4.68096537e-01                                 
 3.40738794e-08  5.21964168e-01  3.40738794e-08  4.63161472e-01  3.40738794e-08  1.74731960e+00  3.40738794e-08  1.80000000e+00  3.40738794e-08 -6.16430767e-03  3.40738794e-08  4.63161472e-01                                 
 4.65197763e-08  5.13810190e-01  4.65197763e-08  4.55226192e-01  4.65197763e-08  1.72863065e+00  4.65197763e-08  1.80000000e+00  4.65197763e-08  6.19067942e-03  4.65197763e-08  4.55226192e-01                                 
 7.14115702e-08  5.01823000e-01  7.14115702e-08  4.43454227e-01  7.14115702e-08  1.69302269e+00  7.14115702e-08  1.80000000e+00  7.14115702e-08 -6.14717192e-03  7.14115702e-08  4.43454227e-01                                 
 1.02899385e-07  4.91133686e-01  1.02899385e-07  4.32890819e-01  1.02899385e-07  1.65199674e+00  1.02899385e-07  1.80000000e+00  1.02899385e-07  6.18137762e-03  1.02899385e-07  4.32890819e-01                                 
 1.46501892e-07  4.77214368e-01  1.46501892e-07  4.19736941e-01  1.46501892e-07  1.59481610e+00  1.46501892e-07  1.80000000e+00  1.46501892e-07 -6.13962659e-03  1.46501892e-07  4.19736941e-01                                 
 1.92398568e-07  4.60091585e-01  1.92398568e-07  4.04514939e-01  1.92398568e-07  1.53209937e+00  1.92398568e-07  1.80000000e+00  1.92398568e-07  6.17510439e-03  1.92398568e-07  4.04514939e-01                                 
 2.51228292e-07  4.39162121e-01  2.51228292e-07  3.86363587e-01  2.51228292e-07  1.45064636e+00  2.51228292e-07  1.80000000e+00  2.51228292e-07 -6.13432366e-03  2.51228292e-07  3.86363587e-01                                 
 3.17346963e-07  4.14295583e-01  3.17346963e-07  3.65431869e-01  3.17346963e-07  1.35771123e+00  3.17346963e-07  1.80000000e+00  3.17346963e-07  6.17071491e-03  3.17346963e-07  3.65431869e-01                                 
 4.49584306e-07  3.64083448e-01  4.49584306e-07  3.24269628e-01  4.49584306e-07  1.17040003e+00  4.49584306e-07  1.80000000e+00  4.49584306e-07 -6.13112205e-03  4.49584306e-07  3.24269628e-01                                 
 4.82643642e-07  4.24070771e-01  4.82643642e-07  3.72026699e-01  4.82643642e-07  1.19285600e+00  4.82643642e-07  1.80000000e+00  4.82643642e-07  9.01949936e-06  4.82643642e-07  3.72026699e-01                                 
 5.48762313e-07  6.55631213e-01  5.48762313e-07  5.88521489e-01  5.48762313e-07  1.34320249e+00  5.48762313e-07  1.80000000e+00  5.48762313e-07  1.94124702e-05  5.48762313e-07  5.88521489e-01                                 
 6.15299767e-07  7.12674905e-01  6.15299767e-07  6.41299310e-01  6.15299767e-07  1.32875327e+00  6.15299767e-07  1.80000000e+00  6.15299767e-07 -1.72292649e-06  6.15299767e-07  6.41299310e-01                                 
 6.90411729e-07  7.22936209e-01  6.90411729e-07  6.49673860e-01  6.90411729e-07  1.25672130e+00  6.90411729e-07  1.80000000e+00  6.90411729e-07  1.57963342e-05  6.90411729e-07  6.49673860e-01                                 
 7.63315347e-07  7.23145779e-01  7.63315347e-07  6.49986648e-01  7.63315347e-07  1.18203892e+00  7.63315347e-07  1.80000000e+00  7.63315347e-07 -2.21844469e-06  7.63315347e-07  6.49986648e-01                                 
 8.38668351e-07  6.99941289e-01  8.38668351e-07  6.30146619e-01  8.38668351e-07  1.08168646e+00  8.38668351e-07  1.80000000e+00  8.38668351e-07  1.42921077e-05  8.38668351e-07  6.30146619e-01                                 
 9.22474903e-07  6.96995312e-01  9.22474903e-07  6.27740780e-01  9.22474903e-07  1.00684661e+00  9.22474903e-07  1.80000000e+00  9.22474903e-07 -6.46852902e-07  9.22474903e-07  6.27740780e-01                                 
 1.00275444e-06  7.21717292e-01  1.00275444e-06  6.48682404e-01  1.00275444e-06  9.66775158e-01  1.00275444e-06  1.80000000e+00  1.00275444e-06  1.59601108e-05  1.00275444e-06  6.48682404e-01                                 
 1.08138908e-06  7.07363704e-01  1.08138908e-06  6.36801266e-01  1.08138908e-06  9.03194659e-01  1.08138908e-06  1.80000000e+00  1.08138908e-06 -2.68191045e-06  1.08138908e-06  6.36801266e-01                                 
 1.15980376e-06  6.98058199e-01  1.15980376e-06  6.28452052e-01  1.15980376e-06  8.44693565e-01  1.15980376e-06  1.80000000e+00  1.15980376e-06  1.62379068e-05  1.15980376e-06  6.28452052e-01                                 
 1.25047543e-06  7.15719786e-01  1.25047543e-06  6.43833604e-01  1.25047543e-06  8.08042658e-01  1.25047543e-06  1.80000000e+00  1.25047543e-06 -1.12504752e-06  1.25047543e-06  6.43833604e-01                                 
 1.34073885e-06  7.07322796e-01  1.34073885e-06  6.36588749e-01  1.34073885e-06  7.47464760e-01  1.34073885e-06  1.80000000e+00  1.34073885e-06  1.49336816e-05  1.34073885e-06  6.36588749e-01                                 
 1.43323162e-06  7.03838979e-01  1.43323162e-06  6.33713418e-01  1.43323162e-06  6.97596109e-01  1.43323162e-06  1.80000000e+00  1.43323162e-06 -7.27197250e-07  1.43323162e-06  6.33713418e-01                                 
 1.55370675e-06  7.13512890e-01  1.55370675e-06  6.41863378e-01  1.55370675e-06  6.62280817e-01  1.55370675e-06  1.80000000e+00  1.55370675e-06  1.55771530e-05  1.55370675e-06  6.41863378e-01                                 
 1.69646084e-06  7.04526684e-01  1.69646084e-06  6.34319743e-01  1.69646084e-06  6.30109296e-01  1.69646084e-06  1.80000000e+00  1.69646084e-06 -1.14436675e-06  1.69646084e-06  6.34319743e-01                                 
 1.85274514e-06  7.09594756e-01  1.85274514e-06  6.38525615e-01  1.85274514e-06  6.31846549e-01  1.85274514e-06  1.80000000e+00  1.85274514e-06  1.60946103e-05  1.85274514e-06  6.38525615e-01                                 
 2.00604797e-06  7.09536969e-01  2.00604797e-06  6.38618391e-01  2.00604797e-06  6.41789280e-01  2.00604797e-06  1.80000000e+00  2.00604797e-06 -1.19835330e-06  2.00604797e-06  6.38618391e-01                                 
 2.18945680e-06  7.05821868e-01  2.18945680e-06  6.35283762e-01  2.18945680e-06  6.34343705e-01  2.18945680e-06  1.80000000e+00  2.18945680e-06  1.59163122e-05  2.18945680e-06  6.35283762e-01                                 
 2.21278664e-06  7.08248548e-01  2.21278664e-06  6.37438393e-01  2.21278664e-06  6.36713428e-01  2.21278664e-06  1.80000000e+00  2.21278664e-06  7.66207039e-06  2.21278664e-06  6.37438393e-01                                 
 2.25944631e-06  7.10208165e-01  2.25944631e-06  6.39123411e-01  2.25944631e-06  6.38930955e-01  2.25944631e-06  1.80000000e+00  2.25944631e-06  7.36406699e-06  2.25944631e-06  6.39123411e-01                                 
 2.35276566e-06  7.07574683e-01  2.35276566e-06  6.36867840e-01  2.35276566e-06  6.37206032e-01  2.35276566e-06  1.80000000e+00  2.35276566e-06  7.35301762e-06  2.35276566e-06  6.36867840e-01                                 
 2.51871827e-06  7.08421307e-01  2.51871827e-06  6.37593626e-01  2.51871827e-06  6.37635116e-01  2.51871827e-06  1.80000000e+00  2.51871827e-06  7.50121151e-06  2.51871827e-06  6.37593626e-01                                 
 2.69323141e-06  7.08993858e-01  2.69323141e-06  6.38084242e-01  2.69323141e-06  6.38426478e-01  2.69323141e-06  1.80000000e+00  2.69323141e-06  7.34797955e-06  2.69323141e-06  6.38084242e-01                                 
 3.04225768e-06  7.07593396e-01  3.04225768e-06  6.36884307e-01  3.04225768e-06  6.36907863e-01  3.04225768e-06  1.80000000e+00  3.04225768e-06  7.46792228e-06  3.04225768e-06  6.36884307e-01                                 
 3.58770350e-06  7.09292636e-01  3.58770350e-06  6.38338909e-01  3.58770350e-06  6.38688761e-01  3.58770350e-06  1.80000000e+00  3.58770350e-06  7.37965498e-06  3.58770350e-06  6.38338909e-01                                 
 4.45241683e-06  7.07452972e-01  4.45241683e-06  6.36764230e-01  4.45241683e-06  6.36786575e-01  4.45241683e-06  1.80000000e+00  4.45241683e-06  7.44473982e-06  4.45241683e-06  6.36764230e-01                                 
 5.45241683e-06  7.09361699e-01  5.45241683e-06  6.38397637e-01  5.45241683e-06  6.38746334e-01  5.45241683e-06  1.80000000e+00  5.45241683e-06  7.39746094e-06  5.45241683e-06  6.38397637e-01                                 
 6.45241683e-06  7.07407074e-01  6.45241683e-06  6.36725270e-01  6.45241683e-06  6.36750286e-01  6.45241683e-06  1.80000000e+00  6.45241683e-06  7.42771938e-06  6.45241683e-06  6.36725270e-01                                 
 7.45241683e-06  7.09386873e-01  7.45241683e-06  6.38418734e-01  7.45241683e-06  6.38763322e-01  7.45241683e-06  1.80000000e+00  7.45241683e-06  7.41477578e-06  7.45241683e-06  6.38418734e-01                                 
 8.45241683e-06  7.07398683e-01  8.45241683e-06  6.36718470e-01  8.45241683e-06  6.36749111e-01  8.45241683e-06  1.80000000e+00  8.45241683e-06  7.41027272e-06  8.45241683e-06  6.36718470e-01                                 
 9.45241683e-06  7.09377695e-01  9.45241683e-06  6.38410507e-01  9.45241683e-06  6.38748016e-01  9.45241683e-06  1.80000000e+00  9.45241683e-06  7.43220519e-06  9.45241683e-06  6.38410507e-01                                 
 1.00005000e-05  7.07444406e-01  1.00005000e-05  6.36758243e-01  1.00005000e-05  6.36801722e-01  1.00005000e-05  1.80000000e+00  1.00005000e-05  7.38610370e-06  1.00005000e-05  6.36758243e-01                                 
 1.00005500e-05  7.07444398e-01  1.00005500e-05  6.36758114e-01  1.00005500e-05  6.29982228e-01  1.00005500e-05  1.62000000e+00  1.00005500e-05 -1.24326301e-04  1.00005500e-05  6.36758114e-01                                 
 1.00006500e-05  7.07444506e-01  1.00006500e-05  6.36757933e-01  1.00006500e-05  6.18431059e-01  1.00006500e-05  1.26000000e+00  1.00006500e-05 -9.81361401e-05  1.00006500e-05  6.36757933e-01                                 
 1.00008500e-05  7.07445072e-01  1.00008500e-05  6.36757932e-01  1.00008500e-05  6.09443351e-01  1.00008500e-05  5.40000000e-01  1.00008500e-05  1.67378651e-02  1.00008500e-05  6.36757932e-01                                 
 1.00010000e-05  7.07445658e-01  1.00010000e-05  6.36758160e-01  1.00010000e-05  5.57097977e-01  1.00010000e-05  0.00000000e+00  1.00010000e-05  1.54270926e+00  1.00010000e-05  6.36758160e-01                                 
 1.00010249e-05  7.07445766e-01  1.00010249e-05  6.36758211e-01  1.00010249e-05  5.34405964e-01  1.00010249e-05  0.00000000e+00  1.00010249e-05  1.69969784e+00  1.00010249e-05  6.36758211e-01                                 
 1.00010747e-05  7.07446021e-01  1.00010747e-05  6.36758338e-01  1.00010747e-05  5.00900334e-01  1.00010747e-05  0.00000000e+00  1.00010747e-05  1.81908370e+00  1.00010747e-05  6.36758338e-01                                 
 1.00011743e-05  7.07446622e-01  1.00011743e-05  6.36758682e-01  1.00011743e-05  4.83886256e-01  1.00011743e-05  0.00000000e+00  1.00011743e-05  1.78959694e+00  1.00011743e-05  6.36758682e-01                                 
 1.00013169e-05  7.07447508e-01  1.00013169e-05  6.36759264e-01  1.00013169e-05  4.89684859e-01  1.00013169e-05  0.00000000e+00  1.00013169e-05  1.80702532e+00  1.00013169e-05  6.36759264e-01                                 
 1.00014713e-05  7.07448527e-01  1.00014713e-05  6.36759969e-01  1.00014713e-05  4.89651089e-01  1.00014713e-05  0.00000000e+00  1.00014713e-05  1.79537969e+00  1.00014713e-05  6.36759969e-01                                 
 1.00017476e-05  7.07450522e-01  1.00017476e-05  6.36761440e-01  1.00017476e-05  4.91030674e-01  1.00017476e-05  0.00000000e+00  1.00017476e-05  1.80373933e+00  1.00017476e-05  6.36761440e-01                                 
 1.00022697e-05  7.07454833e-01  1.00022697e-05  6.36764838e-01  1.00022697e-05  4.90844666e-01  1.00022697e-05  0.00000000e+00  1.00022697e-05  1.79666844e+00  1.00022697e-05  6.36764838e-01                                 
 1.00029053e-05  7.07460908e-01  1.00029053e-05  6.36769847e-01  1.00029053e-05  4.91235027e-01  1.00029053e-05  0.00000000e+00  1.00029053e-05  1.80301257e+00  1.00029053e-05  6.36769847e-01                                 
 1.00041765e-05  7.07475194e-01  1.00041765e-05  6.36781912e-01  1.00041765e-05  4.91186284e-01  1.00041765e-05  0.00000000e+00  1.00041765e-05  1.79711962e+00  1.00041765e-05  6.36781912e-01                                 
 1.00067190e-05  7.07510625e-01  1.00067190e-05  6.36812154e-01  1.00067190e-05  4.92260060e-01  1.00067190e-05  0.00000000e+00  1.00067190e-05  1.80280300e+00  1.00067190e-05  6.36812154e-01                                 
