 time            v(vbep)         time            v(vben)         time            v(vout)         time            v(vphi1)        time            v(vphi2)        time            v(vref)         yes             currtemp       
 0.00000000e+00  6.25317644e-01  0.00000000e+00  5.56565014e-01  0.00000000e+00  9.88043479e-01  0.00000000e+00  0.00000000e+00  0.00000000e+00  1.79958172e+00  0.00000000e+00  5.56565014e-01  1.00000000e+00  9.70000000e+01 
 5.00000000e-12  6.25101022e-01  5.00000000e-12  5.56417751e-01  5.00000000e-12  9.88781457e-01  5.00000000e-12  1.80000000e-02  5.00000000e-12  1.79976199e+00  5.00000000e-12  5.56417751e-01                                 
 1.00000000e-11  6.24918502e-01  1.00000000e-11  5.56288879e-01  1.00000000e-11  9.89445794e-01  1.00000000e-11  3.60000000e-02  1.00000000e-11  1.79988671e+00  1.00000000e-11  5.56288879e-01                                 
 2.00000000e-11  6.24588902e-01  2.00000000e-11  5.56037372e-01  2.00000000e-11  9.90655154e-01  2.00000000e-11  7.20000000e-02  2.00000000e-11  1.80005691e+00  2.00000000e-11  5.56037372e-01                                 
 4.00000000e-11  6.24012076e-01  4.00000000e-11  5.55543270e-01  4.00000000e-11  9.92514276e-01  4.00000000e-11  1.44000000e-01  4.00000000e-11  1.80012844e+00  4.00000000e-11  5.55543270e-01                                 
 8.00000000e-11  6.22896567e-01  8.00000000e-11  5.54566674e-01  8.00000000e-11  9.94720465e-01  8.00000000e-11  2.88000000e-01  8.00000000e-11  1.80003966e+00  8.00000000e-11  5.54566674e-01                                 
 1.60000000e-10  6.20722313e-01  1.60000000e-10  5.52661461e-01  1.60000000e-10  9.95745922e-01  1.60000000e-10  5.76000000e-01  1.60000000e-10  1.79990985e+00  1.60000000e-10  5.52661461e-01                                 
 3.20000000e-10  6.16586299e-01  3.20000000e-10  5.49027917e-01  3.20000000e-10  9.88266254e-01  3.20000000e-10  1.15200000e+00  3.20000000e-10  1.80022639e+00  3.20000000e-10  5.49027917e-01                                 
 5.00000000e-10  6.12256871e-01  5.00000000e-10  5.45209174e-01  5.00000000e-10  1.10791096e+00  5.00000000e-10  1.80000000e+00  5.00000000e-10  1.92261706e-01  5.00000000e-10  5.45209174e-01                                 
 5.22782545e-10  6.11736214e-01  5.22782545e-10  5.44748654e-01  5.22782545e-10  1.13866777e+00  5.22782545e-10  1.80000000e+00  5.22782545e-10  5.32676040e-02  5.22782545e-10  5.44748654e-01                                 
 5.68347635e-10  6.10702862e-01  5.68347635e-10  5.43833658e-01  5.68347635e-10  1.20045776e+00  5.68347635e-10  1.80000000e+00  5.68347635e-10 -1.78177336e-02  5.68347635e-10  5.43833658e-01                                 
 6.59477816e-10  6.08691252e-01  6.59477816e-10  5.42050276e-01  6.59477816e-10  1.31221504e+00  6.59477816e-10  1.80000000e+00  6.59477816e-10  1.46914043e-02  6.59477816e-10  5.42050276e-01                                 
 7.81876505e-10  6.06102350e-01  7.81876505e-10  5.39749066e-01  7.81876505e-10  1.44081382e+00  7.81876505e-10  1.80000000e+00  7.81876505e-10 -1.05262058e-02  7.81876505e-10  5.39749066e-01                                 
 9.68802268e-10  6.02377355e-01  9.68802268e-10  5.36426438e-01  9.68802268e-10  1.59661826e+00  9.68802268e-10  1.80000000e+00  9.68802268e-10  1.03509863e-02  9.68802268e-10  5.36426438e-01                                 
 1.34265379e-09  5.95643905e-01  1.34265379e-09  5.30384312e-01  1.34265379e-09  1.78340843e+00  1.34265379e-09  1.80000000e+00  1.34265379e-09 -8.87197416e-03  1.34265379e-09  5.30384312e-01                                 
 1.66828232e-09  5.90474387e-01  1.66828232e-09  5.25708201e-01  1.66828232e-09  1.85445204e+00  1.66828232e-09  1.80000000e+00  1.66828232e-09  8.58943914e-03  1.66828232e-09  5.25708201e-01                                 
 2.03401742e-09  5.85291124e-01  2.03401742e-09  5.20985935e-01  2.03401742e-09  1.88468932e+00  2.03401742e-09  1.80000000e+00  2.03401742e-09 -7.82604512e-03  2.03401742e-09  5.20985935e-01                                 
 2.36685780e-09  5.81055789e-01  2.36685780e-09  5.17101956e-01  2.36685780e-09  1.89338065e+00  2.36685780e-09  1.80000000e+00  2.36685780e-09  7.34124296e-03  2.36685780e-09  5.17101956e-01                                 
 2.87921237e-09  5.75252237e-01  2.87921237e-09  5.11743327e-01  2.87921237e-09  1.89388756e+00  2.87921237e-09  1.80000000e+00  2.87921237e-09 -6.93340963e-03  2.87921237e-09  5.11743327e-01                                 
 3.50008628e-09  5.69161284e-01  3.50008628e-09  5.06073869e-01  3.50008628e-09  1.88973121e+00  3.50008628e-09  1.80000000e+00  3.50008628e-09  6.69366969e-03  3.50008628e-09  5.06073869e-01                                 
 4.57405470e-09  5.60383582e-01  4.57405470e-09  4.97826215e-01  4.57405470e-09  1.88091849e+00  4.57405470e-09  1.80000000e+00  4.57405470e-09 -6.50097640e-03  4.57405470e-09  4.97826215e-01                                 
 6.15802172e-09  5.50237363e-01  6.15802172e-09  4.88182598e-01  6.15802172e-09  1.87126678e+00  6.15802172e-09  1.80000000e+00  6.15802172e-09  6.44581063e-03  6.15802172e-09  4.88182598e-01                                 
 9.32595576e-09  5.35554560e-01  9.32595576e-09  4.74049691e-01  9.32595576e-09  1.85672408e+00  9.32595576e-09  1.80000000e+00  9.32595576e-09 -6.33877325e-03  9.32595576e-09  4.74049691e-01                                 
 1.08682252e-08  5.30252744e-01  1.08682252e-08  4.68890375e-01  1.08682252e-08  1.85193084e+00  1.08682252e-08  1.80000000e+00  1.08682252e-08  6.28796757e-03  1.08682252e-08  4.68890375e-01                                 
 1.21152728e-08  5.26487745e-01  1.21152728e-08  4.65213399e-01  1.21152728e-08  1.84800382e+00  1.21152728e-08  1.80000000e+00  1.21152728e-08 -6.11303875e-03  1.21152728e-08  4.65213399e-01                                 
 1.38010654e-08  5.21961385e-01  1.38010654e-08  4.60780565e-01  1.38010654e-08  1.84398474e+00  1.38010654e-08  1.80000000e+00  1.38010654e-08  6.07121613e-03  1.38010654e-08  4.60780565e-01                                 
 1.54479734e-08  5.18045937e-01  1.54479734e-08  4.56935394e-01  1.54479734e-08  1.83993121e+00  1.54479734e-08  1.80000000e+00  1.54479734e-08 -5.93136263e-03  1.54479734e-08  4.56935394e-01                                 
 1.73018336e-08  5.14109595e-01  1.73018336e-08  4.53061003e-01  1.73018336e-08  1.83648297e+00  1.73018336e-08  1.80000000e+00  1.73018336e-08  5.89992845e-03  1.73018336e-08  4.53061003e-01                                 
 1.95066261e-08  5.09945661e-01  1.95066261e-08  4.48953552e-01  1.95066261e-08  1.83220864e+00  1.95066261e-08  1.80000000e+00  1.95066261e-08 -5.78483228e-03  1.95066261e-08  4.48953552e-01                                 
 2.26463537e-08  5.04763836e-01  2.26463537e-08  4.43830676e-01  2.26463537e-08  1.82757654e+00  2.26463537e-08  1.80000000e+00  2.26463537e-08  5.78827794e-03  2.26463537e-08  4.43830676e-01                                 
 2.66067335e-08  4.99176820e-01  2.66067335e-08  4.38294108e-01  2.66067335e-08  1.82196283e+00  2.66067335e-08  1.80000000e+00  2.66067335e-08 -5.70172811e-03  2.66067335e-08  4.38294108e-01                                 
 3.32839869e-08  4.91408287e-01  3.32839869e-08  4.30576666e-01  3.32839869e-08  1.81487342e+00  3.32839869e-08  1.80000000e+00  3.32839869e-08  5.73189437e-03  3.32839869e-08  4.30576666e-01                                 
 4.32765302e-08  4.82318987e-01  4.32765302e-08  4.21522636e-01  4.32765302e-08  1.80594378e+00  4.32765302e-08  1.80000000e+00  4.32765302e-08 -5.66503665e-03  4.32765302e-08  4.21522636e-01                                 
 6.32616166e-08  4.69117657e-01  6.32616166e-08  4.08335343e-01  6.32616166e-08  1.79368698e+00  6.32616166e-08  1.80000000e+00  6.32616166e-08  5.71194337e-03  6.32616166e-08  4.08335343e-01                                 
 1.03231790e-07  4.52559559e-01  1.03231790e-07  3.91639492e-01  1.03231790e-07  1.77893805e+00  1.03231790e-07  1.80000000e+00  1.03231790e-07 -5.65322284e-03  1.03231790e-07  3.91639492e-01                                 
 1.46281751e-07  4.42068436e-01  1.46281751e-07  3.80836650e-01  1.46281751e-07  1.77246963e+00  1.46281751e-07  1.80000000e+00  1.46281751e-07  5.70612854e-03  1.46281751e-07  3.80836650e-01                                 
 1.81334359e-07  4.35394396e-01  1.81334359e-07  3.74029968e-01  1.81334359e-07  1.76288793e+00  1.81334359e-07  1.80000000e+00  1.81334359e-07 -5.64599499e-03  1.81334359e-07  3.74029968e-01                                 
 2.13651956e-07  4.26374584e-01  2.13651956e-07  3.65729470e-01  2.13651956e-07  1.73978637e+00  2.13651956e-07  1.80000000e+00  2.13651956e-07  5.69695262e-03  2.13651956e-07  3.65729470e-01                                 
 2.40543485e-07  4.13249210e-01  2.40543485e-07  3.54509550e-01  2.40543485e-07  1.70977062e+00  2.40543485e-07  1.80000000e+00  2.40543485e-07 -5.63777400e-03  2.40543485e-07  3.54509550e-01                                 
 2.69026171e-07  4.03075194e-01  2.69026171e-07  3.45690362e-01  2.69026171e-07  1.66119630e+00  2.69026171e-07  1.80000000e+00  2.69026171e-07  5.68650097e-03  2.69026171e-07  3.45690362e-01                                 
 2.93996497e-07  4.03175050e-01  2.93996497e-07  3.45172846e-01  2.93996497e-07  1.64443677e+00  2.93996497e-07  1.80000000e+00  2.93996497e-07 -5.62483441e-03  2.93996497e-07  3.45172846e-01                                 
 3.19691594e-07  4.05893782e-01  3.19691594e-07  3.46746613e-01  3.19691594e-07  1.62621484e+00  3.19691594e-07  1.80000000e+00  3.19691594e-07  5.67578420e-03  3.19691594e-07  3.46746613e-01                                 
 3.42770263e-07  4.03664162e-01  3.42770263e-07  3.44485396e-01  3.42770263e-07  1.59896352e+00  3.42770263e-07  1.80000000e+00  3.42770263e-07 -5.61481556e-03  3.42770263e-07  3.44485396e-01                                 
 3.66980411e-07  4.01803921e-01  3.66980411e-07  3.42526070e-01  3.66980411e-07  1.57238360e+00  3.66980411e-07  1.80000000e+00  3.66980411e-07  5.66429901e-03  3.66980411e-07  3.42526070e-01                                 
 3.95458484e-07  4.00200383e-01  3.95458484e-07  3.40721972e-01  3.95458484e-07  1.54057951e+00  3.95458484e-07  1.80000000e+00  3.95458484e-07 -5.60434358e-03  3.95458484e-07  3.40721972e-01                                 
 4.45628386e-07  3.92401991e-01  4.45628386e-07  3.33685046e-01  4.45628386e-07  1.48028403e+00  4.45628386e-07  1.80000000e+00  4.45628386e-07  5.65633348e-03  4.45628386e-07  3.33685046e-01                                 
 5.04553568e-07  3.79665157e-01  5.04553568e-07  3.22715925e-01  5.04553568e-07  1.40488896e+00  5.04553568e-07  1.80000000e+00  5.04553568e-07 -5.59960013e-03  5.04553568e-07  3.22715925e-01                                 
 5.91478685e-07  3.60649084e-01  5.91478685e-07  3.06590403e-01  5.91478685e-07  1.29369884e+00  5.91478685e-07  1.80000000e+00  5.91478685e-07  5.65246703e-03  5.91478685e-07  3.06590403e-01                                 
 6.77972988e-07  3.40738429e-01  6.77972988e-07  2.89988507e-01  6.77972988e-07  1.18265291e+00  6.77972988e-07  1.80000000e+00  6.77972988e-07 -5.59649522e-03  6.77972988e-07  2.89988507e-01                                 
 8.08498624e-07  2.93878429e-01  8.08498624e-07  2.51869878e-01  8.08498624e-07  1.01947686e+00  8.08498624e-07  1.80000000e+00  8.08498624e-07  5.64961376e-03  8.08498624e-07  2.51869878e-01                                 
 9.22841805e-07  5.85495564e-01  9.22841805e-07  5.15351553e-01  9.22841805e-07  1.19050009e+00  9.22841805e-07  1.80000000e+00  9.22841805e-07 -5.58055948e-03  9.22841805e-07  5.15351553e-01                                 
 1.01902973e-06  7.00125572e-01  1.01902973e-06  6.21100395e-01  1.01902973e-06  1.20124719e+00  1.01902973e-06  1.80000000e+00  1.01902973e-06  5.64135473e-03  1.01902973e-06  6.21100395e-01                                 
 1.09736691e-06  7.06388415e-01  1.09736691e-06  6.26047319e-01  1.09736691e-06  1.12501054e+00  1.09736691e-06  1.80000000e+00  1.09736691e-06 -5.58354548e-03  1.09736691e-06  6.26047319e-01                                 
 1.10709118e-06  7.06296258e-01  1.10709118e-06  6.25963957e-01  1.10709118e-06  1.11650957e+00  1.10709118e-06  1.80000000e+00  1.10709118e-06  1.31134681e-05  1.10709118e-06  6.25963957e-01                                 
 1.12653972e-06  7.06338608e-01  1.12653972e-06  6.25996382e-01  1.12653972e-06  1.09806332e+00  1.12653972e-06  1.80000000e+00  1.12653972e-06  2.04626046e-05  1.12653972e-06  6.25996382e-01                                 
 1.16543680e-06  7.00315542e-01  1.16543680e-06  6.21288084e-01  1.16543680e-06  1.05744828e+00  1.16543680e-06  1.80000000e+00  1.16543680e-06  1.23581104e-05  1.16543680e-06  6.21288084e-01                                 
 1.17072709e-06  6.96527532e-01  1.17072709e-06  6.18289202e-01  1.17072709e-06  1.04962472e+00  1.17072709e-06  1.80000000e+00  1.17072709e-06  1.49666547e-05  1.17072709e-06  6.18289202e-01                                 
 1.18130768e-06  6.86406894e-01  1.18130768e-06  6.10068370e-01  1.18130768e-06  1.03168496e+00  1.18130768e-06  1.80000000e+00  1.18130768e-06  1.36477018e-05  1.18130768e-06  6.10068370e-01                                 
 1.20246885e-06  6.67451566e-01  1.20246885e-06  5.93906893e-01  1.20246885e-06  9.97831885e-01  1.20246885e-06  1.80000000e+00  1.20246885e-06  1.52663587e-05  1.20246885e-06  5.93906893e-01                                 
 1.23032525e-06  6.57777124e-01  1.23032525e-06  5.85323570e-01  1.23032525e-06  9.69225457e-01  1.23032525e-06  1.80000000e+00  1.23032525e-06  1.67316261e-05  1.23032525e-06  5.85323570e-01                                 
 1.27199693e-06  6.69515418e-01  1.27199693e-06  5.95642566e-01  1.27199693e-06  9.51597437e-01  1.27199693e-06  1.80000000e+00  1.27199693e-06  1.87745677e-05  1.27199693e-06  5.95642566e-01                                 
 1.31510230e-06  6.88251646e-01  1.31510230e-06  6.11519132e-01  1.31510230e-06  9.40075815e-01  1.31510230e-06  1.80000000e+00  1.31510230e-06  1.75749946e-05  1.31510230e-06  6.11519132e-01                                 
 1.37153508e-06  6.84468956e-01  1.37153508e-06  6.08419764e-01  1.37153508e-06  9.00466264e-01  1.37153508e-06  1.80000000e+00  1.37153508e-06  1.60981213e-05  1.37153508e-06  6.08419764e-01                                 
 1.43037451e-06  6.73295502e-01  1.43037451e-06  5.98945070e-01  1.43037451e-06  8.53919487e-01  1.43037451e-06  1.80000000e+00  1.43037451e-06  1.69545013e-05  1.43037451e-06  5.98945070e-01                                 
 1.51421302e-06  6.79195749e-01  1.51421302e-06  6.03971848e-01  1.51421302e-06  8.08911756e-01  1.51421302e-06  1.80000000e+00  1.51421302e-06  1.75420816e-05  1.51421302e-06  6.03971848e-01                                 
 1.61121189e-06  6.83900980e-01  1.61121189e-06  6.07928718e-01  1.61121189e-06  7.56682208e-01  1.61121189e-06  1.80000000e+00  1.61121189e-06  1.68862896e-05  1.61121189e-06  6.07928718e-01                                 
 1.73139691e-06  6.74587962e-01  1.73139691e-06  6.00062316e-01  1.73139691e-06  6.82152349e-01  1.73139691e-06  1.80000000e+00  1.73139691e-06  1.69598255e-05  1.73139691e-06  6.00062316e-01                                 
 1.88203749e-06  6.82614687e-01  1.88203749e-06  6.06842283e-01  1.88203749e-06  6.30374923e-01  1.88203749e-06  1.80000000e+00  1.88203749e-06  1.77639874e-05  1.88203749e-06  6.06842283e-01                                 
 2.03981609e-06  6.78273030e-01  2.03981609e-06  6.03210989e-01  2.03981609e-06  5.97193273e-01  2.03981609e-06  1.80000000e+00  2.03981609e-06  1.67541948e-05  2.03981609e-06  6.03210989e-01                                 
 2.19960400e-06  6.78829547e-01  2.19960400e-06  6.03653168e-01  2.19960400e-06  5.92612342e-01  2.19960400e-06  1.80000000e+00  2.19960400e-06  1.80574285e-05  2.19960400e-06  6.03653168e-01                                 
 2.22035410e-06  6.80509696e-01  2.22035410e-06  6.05082312e-01  2.22035410e-06  5.96563583e-01  2.22035410e-06  1.80000000e+00  2.22035410e-06  1.76713080e-05  2.22035410e-06  6.05082312e-01                                 
 2.26185430e-06  6.81221882e-01  2.26185430e-06  6.05687858e-01  2.26185430e-06  6.01922982e-01  2.26185430e-06  1.80000000e+00  2.26185430e-06  1.73383115e-05  2.26185430e-06  6.05687858e-01                                 
 2.34485470e-06  6.78354667e-01  2.34485470e-06  6.03266733e-01  2.34485470e-06  6.03352311e-01  2.34485470e-06  1.80000000e+00  2.34485470e-06  1.73470315e-05  2.34485470e-06  6.03266733e-01                                 
 2.48032310e-06  6.79839078e-01  2.48032310e-06  6.04518929e-01  2.48032310e-06  6.04709780e-01  2.48032310e-06  1.80000000e+00  2.48032310e-06  1.75299862e-05  2.48032310e-06  6.04518929e-01                                 
 2.66246142e-06  6.79815510e-01  2.66246142e-06  6.04503298e-01  2.66246142e-06  6.04839642e-01  2.66246142e-06  1.80000000e+00  2.66246142e-06  1.72912640e-05  2.66246142e-06  6.04503298e-01                                 
 2.88702784e-06  6.78889043e-01  2.88702784e-06  6.03716489e-01  2.88702784e-06  6.03779773e-01  2.88702784e-06  1.80000000e+00  2.88702784e-06  1.75080109e-05  2.88702784e-06  6.03716489e-01                                 
 3.33616068e-06  6.80289385e-01  3.33616068e-06  6.04902305e-01  3.33616068e-06  6.05291858e-01  3.33616068e-06  1.80000000e+00  3.33616068e-06  1.73294855e-05  3.33616068e-06  6.04902305e-01                                 
 4.05373713e-06  6.78703921e-01  4.05373713e-06  6.03560387e-01  4.05373713e-06  6.03608277e-01  4.05373713e-06  1.80000000e+00  4.05373713e-06  1.74801208e-05  4.05373713e-06  6.03560387e-01                                 
 5.05373713e-06  6.80374086e-01  5.05373713e-06  6.04973307e-01  5.05373713e-06  6.05368720e-01  5.05373713e-06  1.80000000e+00  5.05373713e-06  1.73497447e-05  5.05373713e-06  6.04973307e-01                                 
 6.05373713e-06  6.78652280e-01  6.05373713e-06  6.03516963e-01  6.05373713e-06  6.03562696e-01  6.05373713e-06  1.80000000e+00  6.05373713e-06  1.74624322e-05  6.05373713e-06  6.03516963e-01                                 
 7.05373713e-06  6.80407681e-01  7.05373713e-06  6.05001229e-01  7.05373713e-06  6.05396589e-01  7.05373713e-06  1.80000000e+00  7.05373713e-06  1.73678613e-05  7.05373713e-06  6.05001229e-01                                 
 8.05373713e-06  6.78633458e-01  8.05373713e-06  6.03501383e-01  8.05373713e-06  6.03549319e-01  8.05373713e-06  1.80000000e+00  8.05373713e-06  1.74440571e-05  8.05373713e-06  6.03501383e-01                                 
 9.05373713e-06  6.80410416e-01  9.05373713e-06  6.05003191e-01  9.05373713e-06  6.05394341e-01  9.05373713e-06  1.80000000e+00  9.05373713e-06  1.73863363e-05  9.05373713e-06  6.05003191e-01                                 
 1.00005000e-05  6.78646370e-01  1.00005000e-05  6.03512674e-01  1.00005000e-05  6.03567004e-01  1.00005000e-05  1.80000000e+00  1.00005000e-05  1.74251301e-05  1.00005000e-05  6.03512674e-01                                 
 1.00005500e-05  6.78646647e-01  1.00005500e-05  6.03512893e-01  1.00005500e-05  5.96880684e-01  1.00005500e-05  1.62000000e+00  1.00005500e-05 -1.17967642e-04  1.00005500e-05  6.03512893e-01                                 
 1.00006500e-05  6.78647261e-01  1.00006500e-05  6.03513375e-01  1.00006500e-05  5.85100473e-01  1.00006500e-05  1.26000000e+00  1.00006500e-05 -1.01120500e-04  1.00006500e-05  6.03513375e-01                                 
 1.00008500e-05  6.78648738e-01  1.00008500e-05  6.03514549e-01  1.00008500e-05  5.75580863e-01  1.00008500e-05  5.40000000e-01  1.00008500e-05  7.73704807e-02  1.00008500e-05  6.03514549e-01                                 
