 time            v(vbep)         time            v(vben)         time            v(vout)         time            v(vphi1)        time            v(vphi2)        time            v(vref)         time            v(voutc)        time            v(voutcc)       yes             currtemp       
 0.00000000e+00  6.82239750e-01  0.00000000e+00  6.10916101e-01  0.00000000e+00  1.40501165e+00  0.00000000e+00  0.00000000e+00  0.00000000e+00  1.79999998e+00  0.00000000e+00  6.10196634e-01  0.00000000e+00  1.40501164e+00  0.00000000e+00  1.41322973e+00  1.00000000e+00  8.70000000e+01 
 1.00000000e-11  6.82265003e-01  1.00000000e-11  6.10988958e-01  1.00000000e-11  1.40574885e+00  1.00000000e-11  1.80000000e-02  1.00000000e-11  1.80024967e+00  1.00000000e-11  6.10717737e-01  1.00000000e-11  1.40546985e+00  1.00000000e-11  1.41324340e+00                                 
 2.00000000e-11  6.82271713e-01  2.00000000e-11  6.11033295e-01  2.00000000e-11  1.40618317e+00  2.00000000e-11  3.60000000e-02  2.00000000e-11  1.80034545e+00  2.00000000e-11  6.11100638e-01  2.00000000e-11  1.40581054e+00  2.00000000e-11  1.41324816e+00                                 
 4.00000000e-11  6.82271474e-01  4.00000000e-11  6.11090344e-01  4.00000000e-11  1.40668137e+00  4.00000000e-11  7.20000000e-02  4.00000000e-11  1.80037666e+00  4.00000000e-11  6.11656782e-01  4.00000000e-11  1.40631069e+00  4.00000000e-11  1.41324931e+00                                 
 8.00000000e-11  6.82259746e-01  8.00000000e-11  6.11123944e-01  8.00000000e-11  1.40672286e+00  8.00000000e-11  1.44000000e-01  8.00000000e-11  1.80017110e+00  8.00000000e-11  6.12083727e-01  8.00000000e-11  1.40669949e+00  8.00000000e-11  1.41323922e+00                                 
 1.60000000e-10  6.82257011e-01  1.60000000e-10  6.11130560e-01  1.60000000e-10  1.40639166e+00  1.60000000e-10  2.88000000e-01  1.60000000e-10  1.80000450e+00  1.60000000e-10  6.12177551e-01  1.60000000e-10  1.40673447e+00  1.60000000e-10  1.41323048e+00                                 
 3.20000000e-10  6.82251709e-01  3.20000000e-10  6.11117296e-01  3.20000000e-10  1.40603024e+00  3.20000000e-10  5.76000000e-01  3.20000000e-10  1.79998184e+00  3.20000000e-10  6.12026022e-01  3.20000000e-10  1.40640264e+00  3.20000000e-10  1.41322524e+00                                 
 6.40000000e-10  6.82170641e-01  6.40000000e-10  6.10631074e-01  6.40000000e-10  1.40437934e+00  6.40000000e-10  1.15200000e+00  6.40000000e-10  1.80724284e+00  6.40000000e-10  6.08545953e-01  6.40000000e-10  1.40856452e+00  6.40000000e-10  1.41324342e+00                                 
 1.00000000e-09  6.82694191e-01  1.00000000e-09  6.11159346e-01  1.00000000e-09  1.38657622e+00  1.00000000e-09  1.80000000e+00  1.00000000e-09  1.15911078e-01  1.00000000e-09  6.24941586e-01  1.00000000e-09  1.41611009e+00  1.00000000e-09  1.41327215e+00                                 
 1.03818424e-09  6.82780320e-01  1.03818424e-09  6.11134668e-01  1.03818424e-09  1.38472281e+00  1.03818424e-09  1.80000000e+00  1.03818424e-09  2.85221665e-02  1.03818424e-09  6.27671995e-01  1.03818424e-09  1.41744613e+00  1.03818424e-09  1.41327906e+00                                 
 1.11455272e-09  6.82969483e-01  1.11455272e-09  6.11125934e-01  1.11455272e-09  1.38246990e+00  1.11455272e-09  1.80000000e+00  1.11455272e-09 -1.27606306e-02  1.11455272e-09  6.30890544e-01  1.11455272e-09  1.41987239e+00  1.11455272e-09  1.41328367e+00                                 
 1.26728968e-09  6.83088410e-01  1.26728968e-09  6.10957651e-01  1.26728968e-09  1.37921098e+00  1.26728968e-09  1.80000000e+00  1.26728968e-09  9.80743259e-03  1.26728968e-09  6.30007359e-01  1.26728968e-09  1.41942140e+00  1.26728968e-09  1.41324633e+00                                 
 1.45583611e-09  6.83036410e-01  1.45583611e-09  6.10952476e-01  1.45583611e-09  1.37813267e+00  1.45583611e-09  1.80000000e+00  1.45583611e-09 -7.45488713e-03  1.45583611e-09  6.28713326e-01  1.45583611e-09  1.41808377e+00  1.45583611e-09  1.41329433e+00                                 
 1.66396606e-09  6.82913195e-01  1.66396606e-09  6.10952139e-01  1.66396606e-09  1.37764884e+00  1.66396606e-09  1.80000000e+00  1.66396606e-09  6.01923944e-03  1.66396606e-09  6.26955210e-01  1.66396606e-09  1.41677670e+00  1.66396606e-09  1.41334596e+00                                 
 2.04613463e-09  6.82638274e-01  2.04613463e-09  6.10918823e-01  2.04613463e-09  1.37663968e+00  2.04613463e-09  1.80000000e+00  2.04613463e-09 -5.35916895e-03  2.04613463e-09  6.23948154e-01  2.04613463e-09  1.41403900e+00  2.04613463e-09  1.41350764e+00                                 
 2.66247952e-09  6.82349874e-01  2.66247952e-09  6.10930153e-01  2.66247952e-09  1.37486810e+00  2.66247952e-09  1.80000000e+00  2.66247952e-09  4.94683048e-03  2.66247952e-09  6.20132209e-01  2.66247952e-09  1.41092920e+00  2.66247952e-09  1.41375410e+00                                 
 3.74924023e-09  6.82100748e-01  3.74924023e-09  6.10887719e-01  3.74924023e-09  1.36993956e+00  3.74924023e-09  1.80000000e+00  3.74924023e-09 -4.77235316e-03  3.74924023e-09  6.14930231e-01  3.74924023e-09  1.40634431e+00  3.74924023e-09  1.41408840e+00                                 
 5.19956569e-09  6.82041240e-01  5.19956569e-09  6.10908399e-01  5.19956569e-09  1.36252216e+00  5.19956569e-09  1.80000000e+00  5.19956569e-09  4.61429124e-03  5.19956569e-09  6.11297478e-01  5.19956569e-09  1.40339185e+00  5.19956569e-09  1.41423690e+00                                 
 6.45978881e-09  6.82043086e-01  6.45978881e-09  6.10881185e-01  6.45978881e-09  1.35469885e+00  6.45978881e-09  1.80000000e+00  6.45978881e-09 -4.45653342e-03  6.45978881e-09  6.09470132e-01  6.45978881e-09  1.40170237e+00  6.45978881e-09  1.41416514e+00                                 
 7.88828333e-09  6.82095326e-01  7.88828333e-09  6.10914629e-01  7.88828333e-09  1.34511013e+00  7.88828333e-09  1.80000000e+00  7.88828333e-09  4.32265270e-03  7.88828333e-09  6.08797638e-01  7.88828333e-09  1.40126024e+00  7.88828333e-09  1.41395199e+00                                 
 9.20892318e-09  6.82123642e-01  9.20892318e-09  6.10889898e-01  9.20892318e-09  1.33485520e+00  9.20892318e-09  1.80000000e+00  9.20892318e-09 -4.17357342e-03  9.20892318e-09  6.08261670e-01  9.20892318e-09  1.40066984e+00  9.20892318e-09  1.41370834e+00                                 
 1.12169583e-08  6.82186451e-01  1.12169583e-08  6.10924860e-01  1.12169583e-08  1.31862193e+00  1.12169583e-08  1.80000000e+00  1.12169583e-08  4.09132899e-03  1.12169583e-08  6.08385998e-01  1.12169583e-08  1.40088737e+00  1.12169583e-08  1.41331396e+00                                 
 1.34373319e-08  6.82210892e-01  1.34373319e-08  6.10898456e-01  1.34373319e-08  1.29914031e+00  1.34373319e-08  1.80000000e+00  1.34373319e-08 -3.99983460e-03  1.34373319e-08  6.08290049e-01  1.34373319e-08  1.40066625e+00  1.34373319e-08  1.41290361e+00                                 
 1.68483211e-08  6.82250376e-01  1.68483211e-08  6.10930764e-01  1.68483211e-08  1.26871190e+00  1.68483211e-08  1.80000000e+00  1.68483211e-08  3.96050535e-03  1.68483211e-08  6.08810830e-01  1.68483211e-08  1.40120733e+00  1.68483211e-08  1.41235672e+00                                 
 2.10789960e-08  6.82246947e-01  2.10789960e-08  6.10901640e-01  2.10789960e-08  1.22976898e+00  2.10789960e-08  1.80000000e+00  2.10789960e-08 -3.90662855e-03  2.10789960e-08  6.08923388e-01  2.10789960e-08  1.40116192e+00  2.10789960e-08  1.41182845e+00                                 
 2.88794927e-08  6.82257081e-01  2.88794927e-08  6.10932006e-01  2.88794927e-08  1.15840704e+00  2.88794927e-08  1.80000000e+00  2.88794927e-08  3.89771745e-03  2.88794927e-08  6.09604556e-01  2.88794927e-08  1.40183724e+00  2.88794927e-08  1.41117510e+00                                 
 3.92484044e-08  6.82238583e-01  3.92484044e-08  6.10901593e-01  3.92484044e-08  1.06375325e+00  3.92484044e-08  1.80000000e+00  3.92484044e-08 -3.86783565e-03  3.92484044e-08  6.09719568e-01  3.92484044e-08  1.40180442e+00  3.92484044e-08  1.41072856e+00                                 
 5.79918735e-08  6.82245383e-01  5.79918735e-08  6.10931226e-01  5.79918735e-08  8.96494308e-01  5.79918735e-08  1.80000000e+00  5.79918735e-08  3.87316615e-03  5.79918735e-08  6.10212880e-01  5.79918735e-08  1.40233774e+00  5.79918735e-08  1.41045597e+00                                 
 8.39343051e-08  6.82237086e-01  8.39343051e-08  6.10901071e-01  8.39343051e-08  6.95557400e-01  8.39343051e-08  1.80000000e+00  8.39343051e-08 -3.84698492e-03  8.39343051e-08  6.10063983e-01  8.39343051e-08  1.40209421e+00  8.39343051e-08  1.41043945e+00                                 
 1.06563020e-07  6.82246206e-01  1.06563020e-07  6.10931795e-01  1.06563020e-07  6.19261271e-01  1.06563020e-07  1.80000000e+00  1.06563020e-07  3.86971476e-03  1.06563020e-07  6.10326349e-01  1.06563020e-07  1.40243563e+00  1.06563020e-07  1.41046984e+00                                 
 1.28687315e-07  6.82229618e-01  1.28687315e-07  6.10900056e-01  1.28687315e-07  6.11324747e-01  1.28687315e-07  1.80000000e+00  1.28687315e-07 -3.82769346e-03  1.28687315e-07  6.10076074e-01  1.28687315e-07  1.40210487e+00  1.28687315e-07  1.41048552e+00                                 
 1.42435849e-07  6.82247555e-01  1.42435849e-07  6.10932106e-01  1.42435849e-07  6.09854915e-01  1.42435849e-07  1.80000000e+00  1.42435849e-07  3.85075400e-03  1.42435849e-07  6.10318991e-01  1.42435849e-07  1.40242838e+00  1.42435849e-07  1.41048599e+00                                 
 1.61402547e-07  6.82232278e-01  1.61402547e-07  6.10900071e-01  1.61402547e-07  6.09834493e-01  1.61402547e-07  1.80000000e+00  1.61402547e-07 -3.80708636e-03  1.61402547e-07  6.10075757e-01  1.61402547e-07  1.40210389e+00  1.61402547e-07  1.41048760e+00                                 
 1.99335943e-07  6.82246847e-01  1.99335943e-07  6.10932099e-01  1.99335943e-07  6.09329950e-01  1.99335943e-07  1.80000000e+00  1.99335943e-07  3.83777979e-03  1.99335943e-07  6.10317603e-01  1.99335943e-07  1.40242522e+00  1.99335943e-07  1.41048569e+00                                 
 2.56941503e-07  6.82232842e-01  2.56941503e-07  6.10900104e-01  2.56941503e-07  6.09645798e-01  2.56941503e-07  1.80000000e+00  2.56941503e-07 -3.79995538e-03  2.56941503e-07  6.10075664e-01  2.56941503e-07  1.40210089e+00  2.56941503e-07  1.41048468e+00                                 
 3.62590970e-07  6.82246564e-01  3.62590970e-07  6.10932082e-01  3.62590970e-07  6.09349679e-01  3.62590970e-07  1.80000000e+00  3.62590970e-07  3.83338107e-03  3.62590970e-07  6.10317543e-01  3.62590970e-07  1.40241995e+00  3.62590970e-07  1.41048049e+00                                 
 5.44959149e-07  6.82232988e-01  5.44959149e-07  6.10900113e-01  5.44959149e-07  6.09628867e-01  5.44959149e-07  1.80000000e+00  5.44959149e-07 -3.79752379e-03  5.44959149e-07  6.10075695e-01  5.44959149e-07  1.40209185e+00  5.44959149e-07  1.41047558e+00                                 
 8.58321681e-07  6.82246482e-01  8.58321681e-07  6.10932077e-01  8.58321681e-07  6.09353808e-01  8.58321681e-07  1.80000000e+00  8.58321681e-07  3.83196016e-03  8.58321681e-07  6.10317527e-01  8.58321681e-07  1.40240425e+00  8.58321681e-07  1.41046485e+00                                 
 1.41967533e-06  6.82233034e-01  1.41967533e-06  6.10900116e-01  1.41967533e-06  6.09624000e-01  1.41967533e-06  1.80000000e+00  1.41967533e-06 -3.79671543e-03  1.41967533e-06  6.10075704e-01  1.41967533e-06  1.40206421e+00  1.41967533e-06  1.41044795e+00                                 
 2.54238263e-06  6.82246458e-01  2.54238263e-06  6.10932075e-01  2.54238263e-06  6.09354925e-01  2.54238263e-06  1.80000000e+00  2.54238263e-06  3.83152261e-03  2.54238263e-06  6.10317523e-01  2.54238263e-06  1.40235100e+00  2.54238263e-06  1.41041167e+00                                 
 3.74238263e-06  6.82233050e-01  3.74238263e-06  6.10900117e-01  3.74238263e-06  6.09621491e-01  3.74238263e-06  1.80000000e+00  3.74238263e-06 -3.79643087e-03  3.74238263e-06  6.10075707e-01  3.74238263e-06  1.40199086e+00  3.74238263e-06  1.41037468e+00                                 
 4.94238263e-06  6.82246443e-01  4.94238263e-06  6.10932074e-01  4.94238263e-06  6.09355836e-01  4.94238263e-06  1.80000000e+00  4.94238263e-06  3.83124974e-03  4.94238263e-06  6.10317520e-01  4.94238263e-06  1.40227525e+00  4.94238263e-06  1.41033602e+00                                 
 6.00100000e-06  6.82233066e-01  6.00100000e-06  6.10900118e-01  6.00100000e-06  6.09620071e-01  6.00100000e-06  1.80000000e+00  6.00100000e-06 -3.79614339e-03  6.00100000e-06  6.10075710e-01  6.00100000e-06  1.40191958e+00  6.00100000e-06  1.41030348e+00                                 
 6.00110000e-06  6.82188053e-01  6.00110000e-06  6.10678143e-01  6.00110000e-06  6.07992046e-01  6.00110000e-06  1.62000000e+00  6.00110000e-06 -4.53583397e-04  6.00110000e-06  6.08692406e-01  6.00110000e-06  1.40079007e+00  6.00110000e-06  1.41029437e+00                                 
 6.00130000e-06  6.82222518e-01  6.00130000e-06  6.10671199e-01  6.00130000e-06  6.07853358e-01  6.00130000e-06  1.26000000e+00  6.00130000e-06  2.94421917e-04  6.00130000e-06  6.08336777e-01  6.00130000e-06  1.40049841e+00  6.00130000e-06  1.41030642e+00                                 
 6.00164435e-06  6.82291395e-01  6.00164435e-06  6.10885607e-01  6.00164435e-06  6.09889358e-01  6.00164435e-06  6.40174271e-01  6.00164435e-06  7.63631195e-03  6.00164435e-06  6.08740658e-01  6.00164435e-06  1.39770629e+00  6.00164435e-06  1.41028648e+00                                 
 6.00200000e-06  6.82221838e-01  6.00200000e-06  6.09608080e-01  6.00200000e-06  6.41390609e-01  6.00200000e-06  0.00000000e+00  6.00200000e-06  1.60889348e+00  6.00200000e-06  5.95382051e-01  6.00200000e-06  1.19164501e+00  6.00200000e-06  1.40971490e+00                                 
 6.00204207e-06  6.82238430e-01  6.00204207e-06  6.08993475e-01  6.00204207e-06  6.49723098e-01  6.00204207e-06  0.00000000e+00  6.00204207e-06  1.72623065e+00  6.00204207e-06  5.88417524e-01  6.00204207e-06  1.12321025e+00  6.00204207e-06  1.40969273e+00                                 
 6.00212620e-06  6.82241790e-01  6.00212620e-06  6.08036232e-01  6.00212620e-06  6.56155675e-01  6.00212620e-06  0.00000000e+00  6.00212620e-06  1.81312275e+00  6.00212620e-06  5.77652236e-01  6.00212620e-06  9.84840247e-01  6.00212620e-06  1.41007126e+00                                 
 6.00229447e-06  6.82237287e-01  6.00229447e-06  6.08147329e-01  6.00229447e-06  6.43956146e-01  6.00229447e-06  0.00000000e+00  6.00229447e-06  1.78908224e+00  6.00229447e-06  5.79237208e-01  6.00229447e-06  7.79381704e-01  6.00229447e-06  1.41061346e+00                                 
 6.00246400e-06  6.82240072e-01  6.00246400e-06  6.09254281e-01  6.00246400e-06  6.29373000e-01  6.00246400e-06  0.00000000e+00  6.00246400e-06  1.80443218e+00  6.00246400e-06  5.91299756e-01  6.00246400e-06  6.79782180e-01  6.00246400e-06  1.41068450e+00                                 
 6.00263176e-06  6.82237075e-01  6.00263176e-06  6.10113197e-01  6.00263176e-06  6.18942284e-01  6.00263176e-06  0.00000000e+00  6.00263176e-06  1.79725977e+00  6.00263176e-06  5.99673418e-01  6.00263176e-06  6.37313425e-01  6.00263176e-06  1.41068797e+00                                 
 6.00283090e-06  6.82239892e-01  6.00283090e-06  6.10832637e-01  6.00283090e-06  6.13404810e-01  6.00283090e-06  0.00000000e+00  6.00283090e-06  1.80173955e+00  6.00283090e-06  6.06447442e-01  6.00283090e-06  6.20049256e-01  6.00283090e-06  1.40993098e+00                                 
 6.00303241e-06  6.82237686e-01  6.00303241e-06  6.11116672e-01  6.00303241e-06  6.11345564e-01  6.00303241e-06  0.00000000e+00  6.00303241e-06  1.79903022e+00  6.00303241e-06  6.08680599e-01  6.00303241e-06  6.13417052e-01  6.00303241e-06  1.40895209e+00                                 
 6.00331089e-06  6.82240101e-01  6.00331089e-06  6.11327009e-01  6.00331089e-06  6.10702444e-01  6.00331089e-06  0.00000000e+00  6.00331089e-06  1.80074034e+00  6.00331089e-06  6.10593259e-01  6.00331089e-06  6.11358440e-01  6.00331089e-06  1.40715466e+00                                 
 6.00370857e-06  6.82238338e-01  6.00370857e-06  6.11347269e-01  6.00370857e-06  6.11349133e-01  6.00370857e-06  0.00000000e+00  6.00370857e-06  1.79945763e+00  6.00370857e-06  6.10890138e-01  6.00370857e-06  6.11020988e-01  6.00370857e-06  1.40442463e+00                                 
 6.00436351e-06  6.82240456e-01  6.00436351e-06  6.11338639e-01  6.00436351e-06  6.13044517e-01  6.00436351e-06  0.00000000e+00  6.00436351e-06  1.80049359e+00  6.00436351e-06  6.11409998e-01  6.00436351e-06  6.12951146e-01  6.00436351e-06  1.39946922e+00                                 
 6.00542435e-06  6.82238751e-01  6.00542435e-06  6.11241996e-01  6.00542435e-06  6.16279277e-01  6.00542435e-06  0.00000000e+00  6.00542435e-06  1.79957685e+00  6.00542435e-06  6.11235852e-01  6.00542435e-06  6.15824180e-01  6.00542435e-06  1.39108022e+00                                 
 6.00754604e-06  6.82240615e-01  6.00754604e-06  6.11124789e-01  6.00754604e-06  6.22691043e-01  6.00754604e-06  0.00000000e+00  6.00754604e-06  1.80042940e+00  6.00754604e-06  6.11444417e-01  6.00754604e-06  6.22540476e-01  6.00754604e-06  1.37325920e+00                                 
 6.01178941e-06  6.82238852e-01  6.01178941e-06  6.10935298e-01  6.01178941e-06  6.35545840e-01  6.01178941e-06  0.00000000e+00  6.01178941e-06  1.79960553e+00  6.01178941e-06  6.10977185e-01  6.01178941e-06  6.35050783e-01  6.01178941e-06  1.33643540e+00                                 
 6.01867019e-06  6.82240627e-01  6.01867019e-06  6.10905762e-01  6.01867019e-06  6.55633449e-01  6.01867019e-06  0.00000000e+00  6.01867019e-06  1.80041325e+00  6.01867019e-06  6.10913664e-01  6.01867019e-06  6.55447274e-01  6.01867019e-06  1.27546757e+00                                 
 6.03243176e-06  6.82238864e-01  6.03243176e-06  6.10899772e-01  6.03243176e-06  6.94160819e-01  6.03243176e-06  0.00000000e+00  6.03243176e-06  1.79961325e+00  6.03243176e-06  6.10303733e-01  6.03243176e-06  6.93578381e-01  6.03243176e-06  1.15217395e+00                                 
 6.04668265e-06  6.82240631e-01  6.04668265e-06  6.10922398e-01  6.04668265e-06  7.31350503e-01  6.04668265e-06  0.00000000e+00  6.04668265e-06  1.80040616e+00  6.04668265e-06  6.10398180e-01  6.04668265e-06  7.31152762e-01  6.04668265e-06  1.03351138e+00                                 
 6.06425796e-06  6.82238870e-01  6.06425796e-06  6.10905783e-01  6.06425796e-06  7.74012961e-01  6.06425796e-06  0.00000000e+00  6.06425796e-06  1.79961639e+00  6.06425796e-06  6.10090400e-01  6.06425796e-06  7.73251443e-01  6.06425796e-06  9.12013454e-01                                 
 6.09284749e-06  6.82240630e-01  6.09284749e-06  6.10925766e-01  6.09284749e-06  8.35855600e-01  6.09284749e-06  0.00000000e+00  6.09284749e-06  1.80040014e+00  6.09284749e-06  6.10309552e-01  6.09284749e-06  8.35693630e-01  6.09284749e-06  8.29871565e-01                                 
 6.11945587e-06  6.82238872e-01  6.11945587e-06  6.10906273e-01  6.11945587e-06  8.85976799e-01  6.11945587e-06  0.00000000e+00  6.11945587e-06  1.79961625e+00  6.11945587e-06  6.10065061e-01  6.11945587e-06  8.84949927e-01  6.11945587e-06  8.60596391e-01                                 
 6.13389970e-06  6.82240627e-01  6.13389970e-06  6.10926260e-01  6.13389970e-06  9.10246621e-01  6.13389970e-06  0.00000000e+00  6.13389970e-06  1.80039590e+00  6.13389970e-06  6.10312205e-01  6.13389970e-06  9.10157515e-01  6.13389970e-06  8.85860439e-01                                 
 6.14766448e-06  6.82238875e-01  6.14766448e-06  6.10905655e-01  6.14766448e-06  9.31858824e-01  6.14766448e-06  0.00000000e+00  6.14766448e-06  1.79962181e+00  6.14766448e-06  6.10061892e-01  6.14766448e-06  9.30701894e-01  6.14766448e-06  9.08154641e-01                                 
