 time            v(vbep)         time            v(vben)         time            v(vout)         time            v(vphi1)        time            v(vphi2)        time            v(vref)         time            v(voutc)        time            v(voutcc)       yes             currtemp       
 0.00000000e+00  8.17980928e-01  0.00000000e+00  7.65962011e-01  0.00000000e+00  1.69161094e+00  0.00000000e+00  0.00000000e+00  0.00000000e+00  1.80000000e+00  0.00000000e+00  7.69416460e-01  0.00000000e+00  1.69161093e+00  0.00000000e+00  1.69700464e+00  1.00000000e+00 -3.00000000e+00 
 1.00000000e-11  8.18003948e-01  1.00000000e-11  7.66031189e-01  1.00000000e-11  1.69242270e+00  1.00000000e-11  1.80000000e-02  1.00000000e-11  1.80024571e+00  1.00000000e-11  7.69937410e-01  1.00000000e-11  1.69207317e+00  1.00000000e-11  1.69701900e+00                                 
 2.00000000e-11  8.18010323e-01  2.00000000e-11  7.66074733e-01  2.00000000e-11  1.69295729e+00  2.00000000e-11  3.60000000e-02  2.00000000e-11  1.80034702e+00  2.00000000e-11  7.70329047e-01  2.00000000e-11  1.69243186e+00  2.00000000e-11  1.69702540e+00                                 
 4.00000000e-11  8.18010180e-01  4.00000000e-11  7.66131741e-01  4.00000000e-11  1.69365096e+00  4.00000000e-11  7.20000000e-02  4.00000000e-11  1.80039179e+00  4.00000000e-11  7.70906060e-01  4.00000000e-11  1.69297989e+00  4.00000000e-11  1.69702931e+00                                 
 8.00000000e-11  8.17998606e-01  8.00000000e-11  7.66165732e-01  8.00000000e-11  1.69393183e+00  8.00000000e-11  1.44000000e-01  8.00000000e-11  1.80019619e+00  8.00000000e-11  7.71360724e-01  8.00000000e-11  1.69347560e+00  8.00000000e-11  1.69701943e+00                                 
 1.60000000e-10  8.17995248e-01  1.60000000e-10  7.66167598e-01  1.60000000e-10  1.69366603e+00  1.60000000e-10  2.88000000e-01  1.60000000e-10  1.80000956e+00  1.60000000e-10  7.71417857e-01  1.60000000e-10  1.69362456e+00  1.60000000e-10  1.69700772e+00                                 
 3.20000000e-10  8.17992521e-01  3.20000000e-10  7.66167776e-01  3.20000000e-10  1.69335131e+00  3.20000000e-10  5.76000000e-01  3.20000000e-10  1.80001381e+00  3.20000000e-10  7.71360355e-01  3.20000000e-10  1.69352504e+00  3.20000000e-10  1.69700541e+00                                 
 6.40000000e-10  8.17919241e-01  6.40000000e-10  7.65928641e-01  6.40000000e-10  1.68809448e+00  6.40000000e-10  1.15200000e+00  6.40000000e-10  1.81337869e+00  6.40000000e-10  7.70586142e-01  6.40000000e-10  1.69841636e+00  6.40000000e-10  1.69703429e+00                                 
 9.96911345e-10  8.18387011e-01  9.96911345e-10  7.65987076e-01  9.96911345e-10  1.65879829e+00  9.96911345e-10  1.79444042e+00  9.96911345e-10  7.85374202e-02  9.96911345e-10  7.73292893e-01  9.96911345e-10  1.68931550e+00  9.96911345e-10  1.69693079e+00                                 
 1.00000000e-09  8.18397814e-01  1.00000000e-09  7.66000973e-01  1.00000000e-09  1.65857588e+00  1.00000000e-09  1.80000000e+00  1.00000000e-09  5.62457006e-02  1.00000000e-09  7.73524404e-01  1.00000000e-09  1.68920274e+00  1.00000000e-09  1.69693493e+00                                 
 1.00617731e-09  8.18381575e-01  1.00617731e-09  7.65997809e-01  1.00617731e-09  1.65838515e+00  1.00617731e-09  1.80000000e+00  1.00617731e-09  3.36929579e-02  1.00617731e-09  7.74032739e-01  1.00617731e-09  1.68934195e+00  1.00617731e-09  1.69695251e+00                                 
 1.01853193e-09  8.18362081e-01  1.01853193e-09  7.66031577e-01  1.01853193e-09  1.65854536e+00  1.01853193e-09  1.80000000e+00  1.01853193e-09  7.42386269e-03  1.01853193e-09  7.75260726e-01  1.01853193e-09  1.69007291e+00  1.01853193e-09  1.69699521e+00                                 
 1.04324116e-09  8.18380310e-01  1.04324116e-09  7.66119181e-01  1.04324116e-09  1.65935415e+00  1.04324116e-09  1.80000000e+00  1.04324116e-09  4.88133597e-04  1.04324116e-09  7.77244702e-01  1.04324116e-09  1.69175231e+00  1.04324116e-09  1.69703848e+00                                 
 1.09265964e-09  8.18480443e-01  1.09265964e-09  7.66107518e-01  1.09265964e-09  1.65876728e+00  1.09265964e-09  1.80000000e+00  1.09265964e-09  1.14590694e-03  1.09265964e-09  7.78227133e-01  1.09265964e-09  1.69265003e+00  1.09265964e-09  1.69701080e+00                                 
 1.19149658e-09  8.18633966e-01  1.19149658e-09  7.66013132e-01  1.19149658e-09  1.65558952e+00  1.19149658e-09  1.80000000e+00  1.19149658e-09  1.69287642e-04  1.19149658e-09  7.78641638e-01  1.19149658e-09  1.69298362e+00  1.19149658e-09  1.69700618e+00                                 
 1.38917048e-09  8.18771843e-01  1.38917048e-09  7.65978720e-01  1.38917048e-09  1.65088215e+00  1.38917048e-09  1.80000000e+00  1.38917048e-09  3.98129836e-04  1.38917048e-09  7.79260563e-01  1.38917048e-09  1.69350646e+00  1.38917048e-09  1.69701656e+00                                 
 1.62948369e-09  8.18701516e-01  1.62948369e-09  7.65963848e-01  1.62948369e-09  1.64990001e+00  1.62948369e-09  1.80000000e+00  1.62948369e-09 -2.35297871e-04  1.62948369e-09  7.78815950e-01  1.62948369e-09  1.69311993e+00  1.62948369e-09  1.69701125e+00                                 
 1.90924400e-09  8.18519762e-01  1.90924400e-09  7.65958401e-01  1.90924400e-09  1.65147314e+00  1.90924400e-09  1.80000000e+00  1.90924400e-09  1.72768417e-04  1.90924400e-09  7.78257413e-01  1.90924400e-09  1.69265321e+00  1.90924400e-09  1.69702264e+00                                 
 2.19950381e-09  8.18335927e-01  2.19950381e-09  7.65951461e-01  2.19950381e-09  1.65326804e+00  2.19950381e-09  1.80000000e+00  2.19950381e-09 -2.24097082e-04  2.19950381e-09  7.77583299e-01  2.19950381e-09  1.69207603e+00  2.19950381e-09  1.69702362e+00                                 
 2.67907676e-09  8.18111068e-01  2.67907676e-09  7.65944776e-01  2.67907676e-09  1.65606150e+00  2.67907676e-09  1.80000000e+00  2.67907676e-09  1.39047596e-04  2.67907676e-09  7.76612970e-01  2.67907676e-09  1.69125935e+00  2.67907676e-09  1.69703922e+00                                 
 3.58274439e-09  8.17907948e-01  3.58274439e-09  7.65938607e-01  3.58274439e-09  1.65995491e+00  3.58274439e-09  1.80000000e+00  3.58274439e-09 -2.03930487e-04  3.58274439e-09  7.74870043e-01  3.58274439e-09  1.68977649e+00  3.58274439e-09  1.69704974e+00                                 
 5.39007966e-09  8.17854486e-01  5.39007966e-09  7.65942259e-01  5.39007966e-09  1.66431127e+00  5.39007966e-09  1.80000000e+00  5.39007966e-09  1.35965172e-04  5.39007966e-09  7.72297724e-01  5.39007966e-09  1.68760113e+00  5.39007966e-09  1.69704318e+00                                 
 7.87414216e-09  8.17913187e-01  7.87414216e-09  7.65952801e-01  7.87414216e-09  1.66529114e+00  7.87414216e-09  1.80000000e+00  7.87414216e-09 -1.90286638e-04  7.87414216e-09  7.70183528e-01  7.87414216e-09  1.68580351e+00  7.87414216e-09  1.69693097e+00                                 
 9.97792445e-09  8.17928485e-01  9.97792445e-09  7.65958473e-01  9.97792445e-09  1.66417471e+00  9.97792445e-09  1.80000000e+00  9.97792445e-09  1.41053625e-04  9.97792445e-09  7.69347787e-01  9.97792445e-09  1.68509880e+00  9.97792445e-09  1.69677610e+00                                 
 1.24040303e-08  8.17928482e-01  1.24040303e-08  7.65960872e-01  1.24040303e-08  1.66291563e+00  1.24040303e-08  1.80000000e+00  1.24040303e-08 -1.72746848e-04  1.24040303e-08  7.68834649e-01  1.24040303e-08  1.68465487e+00  1.24040303e-08  1.69654666e+00                                 
 1.48936604e-08  8.17925885e-01  1.48936604e-08  7.65961937e-01  1.48936604e-08  1.66202989e+00  1.48936604e-08  1.80000000e+00  1.48936604e-08  1.51427827e-04  1.48936604e-08  7.68668377e-01  1.48936604e-08  1.68451233e+00  1.48936604e-08  1.69629859e+00                                 
 1.85860044e-08  8.17948211e-01  1.85860044e-08  7.65961867e-01  1.85860044e-08  1.65899292e+00  1.85860044e-08  1.80000000e+00  1.85860044e-08 -1.60392769e-04  1.85860044e-08  7.68577419e-01  1.85860044e-08  1.68441725e+00  1.85860044e-08  1.69591813e+00                                 
 2.29172035e-08  8.17968845e-01  2.29172035e-08  7.65962165e-01  2.29172035e-08  1.65295544e+00  2.29172035e-08  1.80000000e+00  2.29172035e-08  1.53650725e-04  2.29172035e-08  7.68663193e-01  2.29172035e-08  1.68447787e+00  2.29172035e-08  1.69549898e+00                                 
 2.95672969e-08  8.17982710e-01  2.95672969e-08  7.65962070e-01  2.95672969e-08  1.64114807e+00  2.95672969e-08  1.80000000e+00  2.95672969e-08 -1.56835426e-04  2.95672969e-08  7.68763823e-01  2.95672969e-08  1.68453359e+00  2.95672969e-08  1.69490444e+00                                 
 3.86605240e-08  8.17984544e-01  3.86605240e-08  7.65962285e-01  3.86605240e-08  1.62351752e+00  3.86605240e-08  1.80000000e+00  3.86605240e-08  1.52973707e-04  3.86605240e-08  7.68948637e-01  3.86605240e-08  1.68466744e+00  3.86605240e-08  1.69420987e+00                                 
 5.37450164e-08  8.17983592e-01  5.37450164e-08  7.65961990e-01  5.37450164e-08  1.59299141e+00  5.37450164e-08  1.80000000e+00  5.37450164e-08 -1.56729239e-04  5.37450164e-08  7.69100989e-01  5.37450164e-08  1.68475881e+00  5.37450164e-08  1.69327878e+00                                 
 7.87471278e-08  8.17981825e-01  7.87471278e-08  7.65962143e-01  7.87471278e-08  1.54100786e+00  7.87471278e-08  1.80000000e+00  7.87471278e-08  1.52377556e-04  7.87471278e-08  7.69296234e-01  7.87471278e-08  1.68489677e+00  7.87471278e-08  1.69221200e+00                                 
 1.28751351e-07  8.17981511e-01  1.28751351e-07  7.65961912e-01  1.28751351e-07  1.43578077e+00  1.28751351e-07  1.80000000e+00  1.28751351e-07 -1.56685627e-04  1.28751351e-07  7.69384171e-01  1.28751351e-07  1.68493757e+00  1.28751351e-07  1.69107778e+00                                 
 2.27180697e-07  8.17980569e-01  2.27180697e-07  7.65962119e-01  2.27180697e-07  1.23073876e+00  2.27180697e-07  1.80000000e+00  2.27180697e-07  1.52360154e-04  2.27180697e-07  7.69434119e-01  2.27180697e-07  1.68496829e+00  2.27180697e-07  1.69042295e+00                                 
 3.44388515e-07  8.17981294e-01  3.44388515e-07  7.65961909e-01  3.44388515e-07  9.93086362e-01  3.44388515e-07  1.80000000e+00  3.44388515e-07 -1.55873096e-04  3.44388515e-07  7.69400923e-01  3.44388515e-07  1.68492895e+00  3.44388515e-07  1.69035361e+00                                 
 5.02161276e-07  8.17980591e-01  5.02161276e-07  7.65962114e-01  5.02161276e-07  7.91740599e-01  5.02161276e-07  1.80000000e+00  5.02161276e-07  1.53805483e-04  5.02161276e-07  7.69430733e-01  5.02161276e-07  1.68495235e+00  5.02161276e-07  1.69035137e+00                                 
 6.08193676e-07  8.17981369e-01  6.08193676e-07  7.65961923e-01  6.08193676e-07  7.68973671e-01  6.08193676e-07  1.80000000e+00  6.08193676e-07 -1.53853561e-04  6.08193676e-07  7.69404055e-01  6.08193676e-07  1.68492046e+00  6.08193676e-07  1.69034464e+00                                 
 6.85037016e-07  8.17980138e-01  6.85037016e-07  7.65962066e-01  6.85037016e-07  7.73454432e-01  6.85037016e-07  1.80000000e+00  6.85037016e-07  1.53942294e-04  6.85037016e-07  7.69429060e-01  6.85037016e-07  1.68494335e+00  6.85037016e-07  1.69034463e+00                                 
 7.54056299e-07  8.17981936e-01  7.54056299e-07  7.65961981e-01  7.54056299e-07  7.72741007e-01  7.54056299e-07  1.80000000e+00  7.54056299e-07 -1.53755502e-04  7.54056299e-07  7.69403531e-01  7.54056299e-07  1.68491396e+00  7.54056299e-07  1.69033782e+00                                 
 8.27304353e-07  8.17979805e-01  8.27304353e-07  7.65962025e-01  8.27304353e-07  7.73056239e-01  8.27304353e-07  1.80000000e+00  8.27304353e-07  1.53864912e-04  8.27304353e-07  7.69429547e-01  8.27304353e-07  1.68493786e+00  8.27304353e-07  1.69033853e+00                                 
 9.24356927e-07  8.17982107e-01  9.24356927e-07  7.65962010e-01  9.24356927e-07  7.72807649e-01  9.24356927e-07  1.80000000e+00  9.24356927e-07 -1.54125127e-04  9.24356927e-07  7.69403303e-01  9.24356927e-07  1.68490671e+00  9.24356927e-07  1.69033080e+00                                 
 1.05034103e-06  8.17979723e-01  1.05034103e-06  7.65962011e-01  1.05034103e-06  7.73018980e-01  1.05034103e-06  1.80000000e+00  1.05034103e-06  1.53796744e-04  1.05034103e-06  7.69429687e-01  1.05034103e-06  1.68492873e+00  1.05034103e-06  1.69032928e+00                                 
 1.22404274e-06  8.17982150e-01  1.22404274e-06  7.65962019e-01  1.22404274e-06  7.72838506e-01  1.22404274e-06  1.80000000e+00  1.22404274e-06 -1.54082764e-04  1.22404274e-06  7.69403219e-01  1.22404274e-06  1.68489423e+00  1.22404274e-06  1.69031843e+00                                 
 1.47180133e-06  8.17979701e-01  1.47180133e-06  7.65962006e-01  1.47180133e-06  7.73006193e-01  1.47180133e-06  1.80000000e+00  1.47180133e-06  1.53762248e-04  1.47180133e-06  7.69429741e-01  1.47180133e-06  1.68491132e+00  1.47180133e-06  1.69031185e+00                                 
 1.82627298e-06  8.17982161e-01  1.82627298e-06  7.65962022e-01  1.82627298e-06  7.72849772e-01  1.82627298e-06  1.80000000e+00  1.82627298e-06 -1.54073627e-04  1.82627298e-06  7.69403185e-01  1.82627298e-06  1.68486924e+00  1.82627298e-06  1.69029354e+00                                 
 2.34930276e-06  8.17979695e-01  2.34930276e-06  7.65962004e-01  2.34930276e-06  7.73001067e-01  2.34930276e-06  1.80000000e+00  2.34930276e-06  1.53744636e-04  2.34930276e-06  7.69429764e-01  2.34930276e-06  1.68487496e+00  2.34930276e-06  1.69027555e+00                                 
 3.21876309e-06  8.17982165e-01  3.21876309e-06  7.65962024e-01  3.21876309e-06  7.72852909e-01  3.21876309e-06  1.80000000e+00  3.21876309e-06 -1.54173325e-04  3.21876309e-06  7.69403174e-01  3.21876309e-06  1.68481149e+00  3.21876309e-06  1.69023593e+00                                 
 4.41876309e-06  8.17979693e-01  4.41876309e-06  7.65962003e-01  4.41876309e-06  7.72999518e-01  4.41876309e-06  1.80000000e+00  4.41876309e-06  1.53724477e-04  4.41876309e-06  7.69429772e-01  4.41876309e-06  1.68478925e+00  4.41876309e-06  1.69019002e+00                                 
 5.61876309e-06  8.17982166e-01  5.61876309e-06  7.65962024e-01  5.61876309e-06  7.72859066e-01  5.61876309e-06  1.80000000e+00  5.61876309e-06 -1.53865826e-04  5.61876309e-06  7.69403161e-01  5.61876309e-06  1.68471212e+00  5.61876309e-06  1.69013681e+00                                 
 6.00100000e-06  8.17979691e-01  6.00100000e-06  7.65962000e-01  6.00100000e-06  7.73000515e-01  6.00100000e-06  1.80000000e+00  6.00100000e-06  1.53618167e-04  6.00100000e-06  7.69429779e-01  6.00100000e-06  1.68472373e+00  6.00100000e-06  1.69012465e+00                                 
 6.00110000e-06  8.17947004e-01  6.00110000e-06  7.65731307e-01  6.00110000e-06  7.70963002e-01  6.00110000e-06  1.62000000e+00  6.00110000e-06 -8.82637081e-05  6.00110000e-06  7.67618569e-01  6.00110000e-06  1.68318583e+00  6.00110000e-06  1.69010928e+00                                 
 6.00130000e-06  8.17977453e-01  6.00130000e-06  7.65780574e-01  6.00130000e-06  7.71594962e-01  6.00130000e-06  1.26000000e+00  6.00130000e-06  3.36476865e-05  6.00130000e-06  7.67858224e-01  6.00130000e-06  1.68339141e+00  6.00130000e-06  1.69013057e+00                                 
 6.00170000e-06  8.18011752e-01  6.00170000e-06  7.65866170e-01  6.00170000e-06  7.76176850e-01  6.00170000e-06  5.40000000e-01  6.00170000e-06  5.66446394e-01  6.00170000e-06  7.67405518e-01  6.00170000e-06  1.67082295e+00  6.00170000e-06  1.69005341e+00                                 
 6.00200000e-06  8.17973339e-01  6.00200000e-06  7.63641661e-01  6.00200000e-06  8.15852639e-01  6.00200000e-06  0.00000000e+00  6.00200000e-06  1.70943120e+00  6.00200000e-06  7.41331970e-01  6.00200000e-06  1.44988539e+00  6.00200000e-06  1.68928140e+00                                 
 6.00204594e-06  8.17981960e-01  6.00204594e-06  7.63537039e-01  6.00204594e-06  8.15446885e-01  6.00204594e-06  0.00000000e+00  6.00204594e-06  1.76739543e+00  6.00204594e-06  7.40072940e-01  6.00204594e-06  1.39312815e+00  6.00204594e-06  1.68957045e+00                                 
 6.00213781e-06  8.17980899e-01  6.00213781e-06  7.63475657e-01  6.00213781e-06  8.09995204e-01  6.00213781e-06  0.00000000e+00  6.00213781e-06  1.80705875e+00  6.00213781e-06  7.39569003e-01  6.00213781e-06  1.28844583e+00  6.00213781e-06  1.69006791e+00                                 
 6.00232155e-06  8.17979505e-01  6.00232155e-06  7.63959597e-01  6.00232155e-06  7.98739730e-01  6.00232155e-06  0.00000000e+00  6.00232155e-06  1.79394394e+00  6.00232155e-06  7.45504408e-01  6.00232155e-06  1.13964218e+00  6.00232155e-06  1.69022420e+00                                 
 6.00255566e-06  8.17980561e-01  6.00255566e-06  7.64420161e-01  6.00255566e-06  7.93749404e-01  6.00255566e-06  0.00000000e+00  6.00255566e-06  1.80319660e+00  6.00255566e-06  7.50353641e-01  6.00255566e-06  1.01607268e+00  6.00255566e-06  1.69033252e+00                                 
 6.00283098e-06  8.17979092e-01  6.00283098e-06  7.64875320e-01  6.00283098e-06  7.88475875e-01  6.00283098e-06  0.00000000e+00  6.00283098e-06  1.79710684e+00  6.00283098e-06  7.54493556e-01  6.00283098e-06  9.08105818e-01  6.00283098e-06  1.69041291e+00                                 
 6.00312838e-06  8.17980864e-01  6.00312838e-06  7.65466779e-01  6.00312838e-06  7.83158243e-01  6.00312838e-06  0.00000000e+00  6.00312838e-06  1.80152175e+00  6.00312838e-06  7.60157877e-01  6.00312838e-06  8.31814270e-01  6.00312838e-06  1.69045457e+00                                 
 6.00372318e-06  8.17979547e-01  6.00372318e-06  7.66290815e-01  6.00372318e-06  7.74125756e-01  6.00372318e-06  0.00000000e+00  6.00372318e-06  1.79848312e+00  6.00372318e-06  7.67904032e-01  6.00372318e-06  7.75648195e-01  6.00372318e-06  1.69026364e+00                                 
 6.00413927e-06  8.17981373e-01  6.00413927e-06  7.66488088e-01  6.00413927e-06  7.73566829e-01  6.00413927e-06  0.00000000e+00  6.00413927e-06  1.80127876e+00  6.00413927e-06  7.69710254e-01  6.00413927e-06  7.74605619e-01  6.00413927e-06  1.68991342e+00                                 
 6.00468429e-06  8.17979921e-01  6.00468429e-06  7.66459689e-01  6.00468429e-06  7.73603869e-01  6.00468429e-06  0.00000000e+00  6.00468429e-06  1.79892589e+00  6.00468429e-06  7.69689818e-01  6.00468429e-06  7.73399831e-01  6.00468429e-06  1.68923562e+00                                 
 6.00518761e-06  8.17981619e-01  6.00518761e-06  7.66439466e-01  6.00518761e-06  7.74120596e-01  6.00518761e-06  0.00000000e+00  6.00518761e-06  1.80091522e+00  6.00518761e-06  7.70228229e-01  6.00518761e-06  7.74160026e-01  6.00518761e-06  1.68851551e+00                                 
 6.00619425e-06  8.17980105e-01  6.00619425e-06  7.66302149e-01  6.00619425e-06  7.75105170e-01  6.00619425e-06  0.00000000e+00  6.00619425e-06  1.79917957e+00  6.00619425e-06  7.69998660e-01  6.00619425e-06  7.74777707e-01  6.00619425e-06  1.68692571e+00                                 
 6.00820752e-06  8.17981715e-01  6.00820752e-06  7.66182829e-01  6.00820752e-06  7.77559171e-01  6.00820752e-06  0.00000000e+00  6.00820752e-06  1.80079527e+00  6.00820752e-06  7.70451879e-01  6.00820752e-06  7.77460849e-01  6.00820752e-06  1.68358166e+00                                 
 6.01223407e-06  8.17980140e-01  6.01223407e-06  7.66021849e-01  6.01223407e-06  7.82718599e-01  6.01223407e-06  0.00000000e+00  6.01223407e-06  1.79923264e+00  6.01223407e-06  7.70106041e-01  6.01223407e-06  7.82309780e-01  6.01223407e-06  1.67679778e+00                                 
 6.02028717e-06  8.17981719e-01  6.02028717e-06  7.65967201e-01  6.02028717e-06  7.93542529e-01  6.02028717e-06  0.00000000e+00  6.02028717e-06  1.80076947e+00  6.02028717e-06  7.70259981e-01  6.02028717e-06  7.93396852e-01  6.02028717e-06  1.66338774e+00                                 
