 time            v(vbep)         time            v(vben)         time            v(vout)         time            v(vphi1)        time            v(vphi2)        time            v(vref)         time            v(voutc)        time            v(voutcc)       yes             currtemp       
 0.00000000e+00  7.61603373e-01  0.00000000e+00  7.01593077e-01  0.00000000e+00  1.58036337e+00  0.00000000e+00  0.00000000e+00  0.00000000e+00  1.80000000e+00  0.00000000e+00  7.03758965e-01  0.00000000e+00  1.58036336e+00  0.00000000e+00  1.58695610e+00  1.00000000e+00  3.50000000e+01 
 1.00000000e-11  7.61628397e-01  1.00000000e-11  7.01664308e-01  1.00000000e-11  1.58114532e+00  1.00000000e-11  1.80000000e-02  1.00000000e-11  1.80025104e+00  1.00000000e-11  7.04289880e-01  1.00000000e-11  1.58083316e+00  1.00000000e-11  1.58696856e+00                                 
 2.00000000e-11  7.61635245e-01  2.00000000e-11  7.01708993e-01  2.00000000e-11  1.58162855e+00  2.00000000e-11  3.60000000e-02  2.00000000e-11  1.80035094e+00  2.00000000e-11  7.04684415e-01  2.00000000e-11  1.58118942e+00  2.00000000e-11  1.58697300e+00                                 
 4.00000000e-11  7.61635176e-01  4.00000000e-11  7.01767915e-01  4.00000000e-11  1.58221415e+00  4.00000000e-11  7.20000000e-02  4.00000000e-11  1.80038975e+00  4.00000000e-11  7.05261577e-01  4.00000000e-11  1.58172162e+00  4.00000000e-11  1.58697389e+00                                 
 8.00000000e-11  7.61623294e-01  8.00000000e-11  7.01805886e-01  8.00000000e-11  1.58234453e+00  8.00000000e-11  1.44000000e-01  8.00000000e-11  1.80018657e+00  8.00000000e-11  7.05708156e-01  8.00000000e-11  1.58215896e+00  8.00000000e-11  1.58696305e+00                                 
 1.60000000e-10  7.61620375e-01  1.60000000e-10  7.01816537e-01  1.60000000e-10  1.58201367e+00  1.60000000e-10  2.88000000e-01  1.60000000e-10  1.80000411e+00  1.60000000e-10  7.05776850e-01  1.60000000e-10  1.58221518e+00  1.60000000e-10  1.58695337e+00                                 
 3.20000000e-10  7.61616601e-01  3.20000000e-10  7.01816081e-01  3.20000000e-10  1.58165017e+00  3.20000000e-10  5.76000000e-01  3.20000000e-10  1.79999207e+00  3.20000000e-10  7.05644706e-01  3.20000000e-10  1.58193190e+00  3.20000000e-10  1.58694937e+00                                 
 6.40000000e-10  7.61534331e-01  6.40000000e-10  7.01453076e-01  6.40000000e-10  1.57921997e+00  6.40000000e-10  1.15200000e+00  6.40000000e-10  1.81180582e+00  6.40000000e-10  7.03603532e-01  6.40000000e-10  1.58674636e+00  6.40000000e-10  1.58697814e+00                                 
 1.00000000e-09  7.62169183e-01  1.00000000e-09  7.01686162e-01  1.00000000e-09  1.55375043e+00  1.00000000e-09  1.80000000e+00  1.00000000e-09  9.14346978e-02  1.00000000e-09  7.13854283e-01  1.00000000e-09  1.58590159e+00  1.00000000e-09  1.58693321e+00                                 
 1.03639135e-09  7.62198599e-01  1.03639135e-09  7.01724786e-01  1.03639135e-09  1.55290141e+00  1.03639135e-09  1.80000000e+00  1.03639135e-09  2.03062869e-02  1.03639135e-09  7.16732356e-01  1.03639135e-09  1.58746525e+00  1.03639135e-09  1.58697324e+00                                 
 1.10917404e-09  7.62290306e-01  1.10917404e-09  7.01795817e-01  1.10917404e-09  1.55238169e+00  1.10917404e-09  1.80000000e+00  1.10917404e-09 -9.73869664e-03  1.10917404e-09  7.20462016e-01  1.10917404e-09  1.59036810e+00  1.10917404e-09  1.58700166e+00                                 
 1.25473943e-09  7.62403735e-01  1.25473943e-09  7.01668585e-01  1.25473943e-09  1.55052051e+00  1.25473943e-09  1.80000000e+00  1.25473943e-09  8.23440381e-03  1.25473943e-09  7.20701546e-01  1.25473943e-09  1.59082058e+00  1.25473943e-09  1.58695529e+00                                 
 1.47087175e-09  7.62399397e-01  1.47087175e-09  7.01642945e-01  1.47087175e-09  1.54952143e+00  1.47087175e-09  1.80000000e+00  1.47087175e-09 -6.42688078e-03  1.47087175e-09  7.20212628e-01  1.47087175e-09  1.59019903e+00  1.47087175e-09  1.58698749e+00                                 
 1.70268326e-09  7.62308911e-01  1.70268326e-09  7.01637627e-01  1.70268326e-09  1.54940169e+00  1.70268326e-09  1.80000000e+00  1.70268326e-09  5.56235678e-03  1.70268326e-09  7.18938418e-01  1.70268326e-09  1.58929194e+00  1.70268326e-09  1.58699120e+00                                 
 2.09349965e-09  7.62050049e-01  2.09349965e-09  7.01592235e-01  2.09349965e-09  1.54973525e+00  2.09349965e-09  1.80000000e+00  2.09349965e-09 -5.07037167e-03  2.09349965e-09  7.16827610e-01  2.09349965e-09  1.58733403e+00  2.09349965e-09  1.58706983e+00                                 
 2.47047609e-09  7.61858776e-01  2.47047609e-09  7.01598573e-01  2.47047609e-09  1.55032798e+00  2.47047609e-09  1.80000000e+00  2.47047609e-09  4.50000336e-03  2.47047609e-09  7.15126503e-01  2.47047609e-09  1.58602625e+00  2.47047609e-09  1.58713086e+00                                 
 3.12864838e-09  7.61636076e-01  3.12864838e-09  7.01556613e-01  3.12864838e-09  1.55018529e+00  3.12864838e-09  1.80000000e+00  3.12864838e-09 -4.33797267e-03  3.12864838e-09  7.12099541e-01  3.12864838e-09  1.58330948e+00  3.12864838e-09  1.58726089e+00                                 
 4.08074795e-09  7.61522294e-01  4.08074795e-09  7.01575306e-01  4.08074795e-09  1.54967639e+00  4.08074795e-09  1.80000000e+00  4.08074795e-09  4.08441643e-03  4.08074795e-09  7.09013708e-01  4.08074795e-09  1.58080554e+00  4.08074795e-09  1.58738915e+00                                 
 5.98494710e-09  7.61435645e-01  5.98494710e-09  7.01557148e-01  5.98494710e-09  1.54743804e+00  5.98494710e-09  1.80000000e+00  5.98494710e-09 -4.06411774e-03  5.98494710e-09  7.04718483e-01  5.98494710e-09  1.57702316e+00  5.98494710e-09  1.58747912e+00                                 
 7.63691653e-09  7.61434848e-01  7.63691653e-09  7.01593759e-01  7.63691653e-09  1.54563966e+00  7.63691653e-09  1.80000000e+00  7.63691653e-09  3.94605722e-03  7.63691653e-09  7.03243743e-01  7.63691653e-09  1.57589130e+00  7.63691653e-09  1.58737344e+00                                 
 9.14440290e-09  7.61452266e-01  9.14440290e-09  7.01572324e-01  9.14440290e-09  1.54233976e+00  9.14440290e-09  1.80000000e+00  9.14440290e-09 -3.86340126e-03  9.14440290e-09  7.02307312e-01  9.14440290e-09  1.57497355e+00  9.14440290e-09  1.58720015e+00                                 
 1.07918205e-08  7.61496200e-01  1.07918205e-08  7.01602250e-01  1.07918205e-08  1.53800886e+00  1.07918205e-08  1.80000000e+00  1.07918205e-08  3.77141377e-03  1.07918205e-08  7.02185455e-01  1.07918205e-08  1.57498256e+00  1.07918205e-08  1.58695806e+00                                 
 1.30316199e-08  7.61536306e-01  1.30316199e-08  7.01577685e-01  1.30316199e-08  1.52981251e+00  1.30316199e-08  1.80000000e+00  1.30316199e-08 -3.71160419e-03  1.30316199e-08  7.01875915e-01  1.30316199e-08  1.57459392e+00  1.30316199e-08  1.58661788e+00                                 
 1.58071029e-08  7.61582845e-01  1.58071029e-08  7.01605733e-01  1.58071029e-08  1.51856078e+00  1.58071029e-08  1.80000000e+00  1.58071029e-08  3.66367307e-03  1.58071029e-08  7.02224040e-01  1.58071029e-08  1.57498814e+00  1.58071029e-08  1.58620208e+00                                 
 1.95562141e-08  7.61601990e-01  1.95562141e-08  7.01579827e-01  1.95562141e-08  1.50129108e+00  1.95562141e-08  1.80000000e+00  1.95562141e-08 -3.62556595e-03  1.95562141e-08  7.02269876e-01  1.95562141e-08  1.57489390e+00  1.95562141e-08  1.58570571e+00                                 
 2.46503087e-08  7.61617178e-01  2.46503087e-08  7.01606896e-01  2.46503087e-08  1.47742897e+00  2.46503087e-08  1.80000000e+00  2.46503087e-08  3.60231258e-03  2.46503087e-08  7.02831997e-01  2.46503087e-08  1.57546015e+00  2.46503087e-08  1.58513854e+00                                 
 3.29342168e-08  7.61608786e-01  3.29342168e-08  7.01580089e-01  3.29342168e-08  1.43733338e+00  3.29342168e-08  1.80000000e+00  3.29342168e-08 -3.58357731e-03  3.29342168e-08  7.03000995e-01  3.29342168e-08  1.57546677e+00  3.29342168e-08  1.58445041e+00                                 
 4.63797697e-08  7.61610600e-01  4.63797697e-08  7.01606587e-01  4.63797697e-08  1.37268102e+00  4.63797697e-08  1.80000000e+00  4.63797697e-08  3.57642309e-03  4.63797697e-08  7.03581829e-01  4.63797697e-08  1.57604890e+00  4.63797697e-08  1.58373441e+00                                 
 7.32708754e-08  7.61600969e-01  7.32708754e-08  7.01579717e-01  7.32708754e-08  1.24294781e+00  7.32708754e-08  1.80000000e+00  7.32708754e-08 -3.56895597e-03  7.32708754e-08  7.03606601e-01  7.32708754e-08  1.57594331e+00  7.32708754e-08  1.58307220e+00                                 
 1.12857973e-07  7.61606574e-01  1.12857973e-07  7.01606432e-01  1.12857973e-07  1.05445100e+00  1.12857973e-07  1.80000000e+00  1.12857973e-07  3.56856891e-03  1.12857973e-07  7.03873781e-01  1.12857973e-07  1.57627562e+00  1.12857973e-07  1.58279737e+00                                 
 1.69658149e-07  7.61599990e-01  1.69658149e-07  7.01579683e-01  1.69658149e-07  8.10128784e-01  1.69658149e-07  1.80000000e+00  1.69658149e-07 -3.56149169e-03  1.69658149e-07  7.03643153e-01  1.69658149e-07  1.57596523e+00  1.69658149e-07  1.58272684e+00                                 
 2.20898551e-07  7.61608179e-01  2.20898551e-07  7.01606539e-01  2.20898551e-07  7.06169941e-01  2.20898551e-07  1.80000000e+00  2.20898551e-07  3.56881056e-03  2.20898551e-07  7.03875086e-01  2.20898551e-07  1.57627058e+00  2.20898551e-07  1.58271685e+00                                 
 2.68324077e-07  7.61597168e-01  2.68324077e-07  7.01579589e-01  2.68324077e-07  7.05726475e-01  2.68324077e-07  1.80000000e+00  2.68324077e-07 -3.55368622e-03  2.68324077e-07  7.03646780e-01  2.68324077e-07  1.57596450e+00  2.68324077e-07  1.58271797e+00                                 
 2.90251181e-07  7.61609209e-01  2.90251181e-07  7.01606449e-01  2.90251181e-07  7.06195498e-01  2.90251181e-07  1.80000000e+00  2.90251181e-07  3.56044896e-03  2.90251181e-07  7.03871019e-01  2.90251181e-07  1.57626450e+00  2.90251181e-07  1.58271422e+00                                 
 3.23826375e-07  7.61597916e-01  3.23826375e-07  7.01579736e-01  3.23826375e-07  7.05751918e-01  3.23826375e-07  1.80000000e+00  3.23826375e-07 -3.54426809e-03  3.23826375e-07  7.03646291e-01  3.23826375e-07  1.57596217e+00  3.23826375e-07  1.58271437e+00                                 
 3.90976763e-07  7.61608690e-01  3.90976763e-07  7.01606400e-01  3.90976763e-07  7.06174942e-01  3.90976763e-07  1.80000000e+00  3.90976763e-07  3.55483620e-03  3.90976763e-07  7.03871741e-01  3.90976763e-07  1.57626137e+00  3.90976763e-07  1.58270977e+00                                 
 5.25277538e-07  7.61598123e-01  5.25277538e-07  7.01579747e-01  5.25277538e-07  7.05762590e-01  5.25277538e-07  1.80000000e+00  5.25277538e-07 -3.54146924e-03  5.25277538e-07  7.03646082e-01  5.25277538e-07  1.57595475e+00  5.25277538e-07  1.58270692e+00                                 
 7.93879089e-07  7.61608591e-01  7.93879089e-07  7.01606396e-01  7.93879089e-07  7.06170008e-01  7.93879089e-07  1.80000000e+00  7.93879089e-07  3.55343441e-03  7.93879089e-07  7.03871835e-01  7.93879089e-07  1.57624688e+00  7.93879089e-07  1.58269524e+00                                 
 1.33108219e-06  7.61598171e-01  1.33108219e-06  7.01579749e-01  1.33108219e-06  7.05764976e-01  1.33108219e-06  1.80000000e+00  1.33108219e-06 -3.54077343e-03  1.33108219e-06  7.03646038e-01  1.33108219e-06  1.57592562e+00  1.33108219e-06  1.58267787e+00                                 
 2.40548839e-06  7.61608567e-01  2.40548839e-06  7.01606395e-01  2.40548839e-06  7.06168834e-01  2.40548839e-06  1.80000000e+00  2.40548839e-06  3.55308401e-03  2.40548839e-06  7.03871857e-01  2.40548839e-06  1.57618862e+00  2.40548839e-06  1.58263706e+00                                 
 3.60548839e-06  7.61598186e-01  3.60548839e-06  7.01579750e-01  3.60548839e-06  7.05765733e-01  3.60548839e-06  1.80000000e+00  3.60548839e-06 -3.54057587e-03  3.60548839e-06  7.03646024e-01  3.60548839e-06  1.57584339e+00  3.60548839e-06  1.58259576e+00                                 
 4.80548839e-06  7.61608553e-01  4.80548839e-06  7.01606395e-01  4.80548839e-06  7.06168165e-01  4.80548839e-06  1.80000000e+00  4.80548839e-06  3.55287641e-03  4.80548839e-06  7.03871870e-01  4.80548839e-06  1.57610191e+00  4.80548839e-06  1.58255046e+00                                 
 6.00100000e-06  7.61598200e-01  6.00100000e-06  7.01579750e-01  6.00100000e-06  7.05766424e-01  6.00100000e-06  1.80000000e+00  6.00100000e-06 -3.54036931e-03  6.00100000e-06  7.03646011e-01  6.00100000e-06  1.57575685e+00  6.00100000e-06  1.58250936e+00                                 
 6.00110000e-06  7.61557959e-01  6.00110000e-06  7.01352116e-01  6.00110000e-06  7.04024655e-01  6.00110000e-06  1.62000000e+00  6.00110000e-06 -3.83356947e-04  6.00110000e-06  7.02134247e-01  6.00110000e-06  1.57451764e+00  6.00110000e-06  1.58249812e+00                                 
 6.00130000e-06  7.61591419e-01  6.00130000e-06  7.01360847e-01  6.00130000e-06  7.04340406e-01  6.00130000e-06  1.26000000e+00  6.00130000e-06  2.57687241e-04  6.00130000e-06  7.02056957e-01  6.00130000e-06  1.57446174e+00  6.00130000e-06  1.58251318e+00                                 
 6.00170000e-06  7.61648058e-01  6.00170000e-06  7.00872127e-01  6.00170000e-06  7.22854770e-01  6.00170000e-06  5.40000000e-01  6.00170000e-06  1.52481890e+00  6.00170000e-06  6.94880450e-01  6.00170000e-06  1.48283663e+00  6.00170000e-06  1.58217710e+00                                 
 6.00200000e-06  7.61586722e-01  6.00200000e-06  6.98564984e-01  6.00200000e-06  7.51447870e-01  6.00200000e-06  0.00000000e+00  6.00200000e-06  1.87513355e+00  6.00200000e-06  6.70559803e-01  6.00200000e-06  1.14641594e+00  6.00200000e-06  1.58212143e+00                                 
 6.00203635e-06  7.61599297e-01  6.00203635e-06  6.98631584e-01  6.00203635e-06  7.45948748e-01  6.00203635e-06  0.00000000e+00  6.00203635e-06  1.82941071e+00  6.00203635e-06  6.71569269e-01  6.00203635e-06  1.10298920e+00  6.00203635e-06  1.58245437e+00                                 
 6.00210906e-06  7.61605682e-01  6.00210906e-06  6.98876681e-01  6.00210906e-06  7.38029095e-01  6.00210906e-06  0.00000000e+00  6.00210906e-06  1.79226586e+00  6.00210906e-06  6.74897520e-01  6.00210906e-06  1.02968396e+00  6.00210906e-06  1.58272924e+00                                 
 6.00225447e-06  7.61601448e-01  6.00225447e-06  6.99207975e-01  6.00225447e-06  7.34186462e-01  6.00225447e-06  0.00000000e+00  6.00225447e-06  1.80229140e+00  6.00225447e-06  6.78918263e-01  6.00225447e-06  9.16201824e-01  6.00225447e-06  1.58266179e+00                                 
 6.00246458e-06  7.61602880e-01  6.00246458e-06  6.99842039e-01  6.00246458e-06  7.25437449e-01  6.00246458e-06  0.00000000e+00  6.00246458e-06  1.79742804e+00  6.00246458e-06  6.85119410e-01  6.00246458e-06  8.00643287e-01  6.00246458e-06  1.58279576e+00                                 
 6.00268465e-06  7.61601353e-01  6.00268465e-06  7.00814722e-01  6.00268465e-06  7.15194130e-01  6.00268465e-06  0.00000000e+00  6.00268465e-06  1.80100515e+00  6.00268465e-06  6.94478429e-01  6.00268465e-06  7.42412964e-01  6.00268465e-06  1.58274973e+00                                 
 6.00291447e-06  7.61602532e-01  6.00291447e-06  7.01443661e-01  6.00291447e-06  7.10152229e-01  6.00291447e-06  0.00000000e+00  6.00291447e-06  1.79933785e+00  6.00291447e-06  6.99481987e-01  6.00291447e-06  7.18573432e-01  6.00291447e-06  1.58259508e+00                                 
 6.00319729e-06  7.61601963e-01  6.00319729e-06  7.01909946e-01  6.00319729e-06  7.07121051e-01  6.00319729e-06  0.00000000e+00  6.00319729e-06  1.80046844e+00  6.00319729e-06  7.02995775e-01  6.00319729e-06  7.09946658e-01  6.00319729e-06  1.58201505e+00                                 
 6.00349677e-06  7.61602922e-01  6.00349677e-06  7.02062915e-01  6.00349677e-06  7.07078271e-01  6.00349677e-06  0.00000000e+00  6.00349677e-06  1.79974206e+00  6.00349677e-06  7.03875063e-01  6.00349677e-06  7.07286602e-01  6.00349677e-06  1.58120400e+00                                 
 6.00395677e-06  7.61602602e-01  6.00395677e-06  7.02139240e-01  6.00395677e-06  7.07103660e-01  6.00395677e-06  0.00000000e+00  6.00395677e-06  1.80020991e+00  6.00395677e-06  7.04718014e-01  6.00395677e-06  7.07292553e-01  6.00395677e-06  1.57962946e+00                                 
 6.00464436e-06  7.61603416e-01  6.00464436e-06  7.02078478e-01  6.00464436e-06  7.08898163e-01  6.00464436e-06  0.00000000e+00  6.00464436e-06  1.79985759e+00  6.00464436e-06  7.04762140e-01  6.00464436e-06  7.08331534e-01  6.00464436e-06  1.57703030e+00                                 
 6.00595328e-06  7.61603027e-01  6.00595328e-06  7.01982799e-01  6.00595328e-06  7.11537048e-01  6.00595328e-06  0.00000000e+00  6.00595328e-06  1.80014406e+00  6.00595328e-06  7.05098535e-01  6.00595328e-06  7.11516826e-01  6.00595328e-06  1.57161695e+00                                 
 6.00847405e-06  7.61603621e-01  6.00847405e-06  7.01795963e-01  6.00847405e-06  7.18169570e-01  6.00847405e-06  0.00000000e+00  6.00847405e-06  1.79988721e+00  6.00847405e-06  7.04909718e-01  6.00847405e-06  7.17516645e-01  6.00847405e-06  1.56073393e+00                                 
 6.01351559e-06  7.61603106e-01  6.01351559e-06  7.01618687e-01  6.01351559e-06  7.30342926e-01  6.01351559e-06  0.00000000e+00  6.01351559e-06  1.80012859e+00  6.01351559e-06  7.04818839e-01  6.01351559e-06  7.30281921e-01  6.01351559e-06  1.53877180e+00                                 
 6.02359867e-06  7.61603637e-01  6.02359867e-06  7.01556360e-01  6.02359867e-06  7.54977370e-01  6.02359867e-06  0.00000000e+00  6.02359867e-06  1.79989364e+00  6.02359867e-06  7.04228629e-01  6.02359867e-06  7.54233694e-01  6.02359867e-06  1.49660741e+00                                 
 6.04376483e-06  7.61603106e-01  6.04376483e-06  7.01601807e-01  6.04376483e-06  7.99575907e-01  6.04376483e-06  0.00000000e+00  6.04376483e-06  1.80012376e+00  6.04376483e-06  7.03980407e-01  6.04376483e-06  7.99553746e-01  6.04376483e-06  1.41915890e+00                                 
 6.08409714e-06  7.61603639e-01  6.08409714e-06  7.01581494e-01  6.08409714e-06  8.77298651e-01  6.08409714e-06  0.00000000e+00  6.08409714e-06  1.79989240e+00  6.08409714e-06  7.03655076e-01  6.08409714e-06  8.75799184e-01  6.08409714e-06  1.28425785e+00                                 
 6.16476177e-06  7.61603107e-01  6.16476177e-06  7.01604356e-01  6.16476177e-06  9.90812055e-01  6.16476177e-06  0.00000000e+00  6.16476177e-06  1.80011800e+00  6.16476177e-06  7.03838269e-01  6.16476177e-06  9.91463492e-01  6.16476177e-06  1.08062257e+00                                 
 6.26016127e-06  7.61603639e-01  6.26016127e-06  7.01582150e-01  6.26016127e-06  1.07490544e+00  6.26016127e-06  0.00000000e+00  6.26016127e-06  1.79988781e+00  6.26016127e-06  7.03668030e-01  6.26016127e-06  1.07291092e+00  6.26016127e-06  1.03980657e+00                                 
 6.35469342e-06  7.61603107e-01  6.35469342e-06  7.01603711e-01  6.35469342e-06  1.12302927e+00  6.35469342e-06  0.00000000e+00  6.35469342e-06  1.80011484e+00  6.35469342e-06  7.03842923e-01  6.35469342e-06  1.12397274e+00  6.35469342e-06  1.11649016e+00                                 
 6.44462409e-06  7.61603639e-01  6.44462409e-06  7.01582732e-01  6.44462409e-06  1.15081320e+00  6.44462409e-06  0.00000000e+00  6.44462409e-06  1.79988683e+00  6.44462409e-06  7.03669560e-01  6.44462409e-06  1.14962763e+00  6.44462409e-06  1.14776328e+00                                 
 6.53889277e-06  7.61603107e-01  6.53889277e-06  7.01603198e-01  6.53889277e-06  1.16750997e+00  6.53889277e-06  0.00000000e+00  6.53889277e-06  1.80011374e+00  6.53889277e-06  7.03846755e-01  6.53889277e-06  1.16840121e+00  6.53889277e-06  1.16898942e+00                                 
