 time            v(vbep)         time            v(vben)         time            v(vout)         time            v(vphi1)        time            v(vphi2)        time            v(vref)         yes             currtemp       
 0.00000000e+00  6.82627905e-01  0.00000000e+00  6.25879585e-01  0.00000000e+00  1.04776801e+00  0.00000000e+00  0.00000000e+00  0.00000000e+00  1.79992817e+00  0.00000000e+00  5.00000000e-01  1.00000000e+00  3.70000000e+01 
 5.00000000e-12  6.82583353e-01  5.00000000e-12  6.25843138e-01  5.00000000e-12  1.04852034e+00  5.00000000e-12  1.80000000e-02  5.00000000e-12  1.80003670e+00  5.00000000e-12  5.00000000e-01                                 
 1.00000000e-11  6.82540799e-01  1.00000000e-11  6.25807971e-01  1.00000000e-11  1.04920273e+00  1.00000000e-11  3.60000000e-02  1.00000000e-11  1.80009630e+00  1.00000000e-11  5.00000000e-01                                 
 2.00000000e-11  6.82457060e-01  2.00000000e-11  6.25738017e-01  2.00000000e-11  1.05045938e+00  2.00000000e-11  7.20000000e-02  2.00000000e-11  1.80015629e+00  2.00000000e-11  5.00000000e-01                                 
 4.00000000e-11  6.82291959e-01  4.00000000e-11  6.25598869e-01  4.00000000e-11  1.05247071e+00  4.00000000e-11  1.44000000e-01  4.00000000e-11  1.80013802e+00  4.00000000e-11  5.00000000e-01                                 
 8.00000000e-11  6.81963937e-01  8.00000000e-11  6.25322321e-01  8.00000000e-11  1.05516867e+00  8.00000000e-11  2.88000000e-01  8.00000000e-11  1.80007567e+00  8.00000000e-11  5.00000000e-01                                 
 1.60000000e-10  6.81317558e-01  1.60000000e-10  6.24776174e-01  1.60000000e-10  1.05765990e+00  1.60000000e-10  5.76000000e-01  1.60000000e-10  1.80001404e+00  1.60000000e-10  5.00000000e-01                                 
 3.20000000e-10  6.80060525e-01  3.20000000e-10  6.23710457e-01  3.20000000e-10  1.05110131e+00  3.20000000e-10  1.15200000e+00  3.20000000e-10  1.80038837e+00  3.20000000e-10  5.00000000e-01                                 
 5.00000000e-10  6.78700928e-01  5.00000000e-10  6.22551989e-01  5.00000000e-10  1.21426750e+00  5.00000000e-10  1.80000000e+00  5.00000000e-10  1.16578885e-01  5.00000000e-10  5.00000000e-01                                 
 5.21493293e-10  6.78542702e-01  5.21493293e-10  6.22416758e-01  5.21493293e-10  1.25245259e+00  5.21493293e-10  1.80000000e+00  5.21493293e-10  2.29109634e-02  5.21493293e-10  5.00000000e-01                                 
 5.64479879e-10  6.78227701e-01  5.64479879e-10  6.22147343e-01  5.64479879e-10  1.32268100e+00  5.64479879e-10  1.80000000e+00  5.64479879e-10 -1.06857565e-02  5.64479879e-10  5.00000000e-01                                 
 6.50453050e-10  6.77606535e-01  6.50453050e-10  6.21615169e-01  6.50453050e-10  1.43922865e+00  6.50453050e-10  1.80000000e+00  6.50453050e-10  8.92511661e-03  6.50453050e-10  5.00000000e-01                                 
 7.72592925e-10  6.76743727e-01  7.72592925e-10  6.20873959e-01  7.72592925e-10  1.57289626e+00  7.72592925e-10  1.80000000e+00  7.72592925e-10 -7.75902389e-03  7.72592925e-10  5.00000000e-01                                 
 9.64273843e-10  6.75433707e-01  9.64273843e-10  6.19744162e-01  9.64273843e-10  1.72844118e+00  9.64273843e-10  1.80000000e+00  9.64273843e-10  7.28875839e-03  9.64273843e-10  5.00000000e-01                                 
 1.34763568e-09  6.72960319e-01  1.34763568e-09  6.17596977e-01  1.34763568e-09  1.90280515e+00  1.34763568e-09  1.80000000e+00  1.34763568e-09 -6.89018184e-03  1.34763568e-09  5.00000000e-01                                 
 1.61495038e-09  6.71342803e-01  1.61495038e-09  6.16182480e-01  1.61495038e-09  1.95286820e+00  1.61495038e-09  1.80000000e+00  1.61495038e-09  6.61349829e-03  1.61495038e-09  5.00000000e-01                                 
 1.92704334e-09  6.69552511e-01  1.92704334e-09  6.14607804e-01  1.92704334e-09  1.97850002e+00  1.92704334e-09  1.80000000e+00  1.92704334e-09 -6.23148832e-03  1.92704334e-09  5.00000000e-01                                 
 2.25631910e-09  6.67767464e-01  2.25631910e-09  6.13028399e-01  2.25631910e-09  1.98827878e+00  2.25631910e-09  1.80000000e+00  2.25631910e-09  6.01920349e-03  2.25631910e-09  5.00000000e-01                                 
 2.77581478e-09  6.65141053e-01  2.77581478e-09  6.10688322e-01  2.77581478e-09  1.99138950e+00  2.77581478e-09  1.80000000e+00  2.77581478e-09 -5.80001337e-03  2.77581478e-09  5.00000000e-01                                 
 3.40218018e-09  6.62243264e-01  3.40218018e-09  6.08084429e-01  3.40218018e-09  1.98961783e+00  3.40218018e-09  1.80000000e+00  3.40218018e-09  5.70947905e-03  3.40218018e-09  5.00000000e-01                                 
 4.49664073e-09  6.57746771e-01  4.49664073e-09  6.04001657e-01  4.49664073e-09  1.98530832e+00  4.49664073e-09  1.80000000e+00  4.49664073e-09 -5.59569282e-03  4.49664073e-09  5.00000000e-01                                 
 6.16998184e-09  6.51938099e-01  6.16998184e-09  5.98655536e-01  6.16998184e-09  1.97973089e+00  6.16998184e-09  1.80000000e+00  6.16998184e-09  5.58526885e-03  6.16998184e-09  5.00000000e-01                                 
 9.51666405e-09  6.42835766e-01  9.51666405e-09  5.90137476e-01  9.51666405e-09  1.97113644e+00  9.51666405e-09  1.80000000e+00  9.51666405e-09 -5.51923811e-03  9.51666405e-09  5.00000000e-01                                 
 1.08350588e-08  6.39952289e-01  1.08350588e-08  5.87399803e-01  1.08350588e-08  1.96847449e+00  1.08350588e-08  1.80000000e+00  1.08350588e-08  5.49102382e-03  1.08350588e-08  5.00000000e-01                                 
 1.23448656e-08  6.36970455e-01  1.23448656e-08  5.84553604e-01  1.23448656e-08  1.96569396e+00  1.23448656e-08  1.80000000e+00  1.23448656e-08 -5.40933711e-03  1.23448656e-08  5.00000000e-01                                 
 1.41417362e-08  6.33784977e-01  1.41417362e-08  5.81497099e-01  1.41417362e-08  1.96281612e+00  1.41417362e-08  1.80000000e+00  1.41417362e-08  5.39220890e-03  1.41417362e-08  5.00000000e-01                                 
 1.71152287e-08  6.29184440e-01  1.71152287e-08  5.77056350e-01  1.71152287e-08  1.95862151e+00  1.71152287e-08  1.80000000e+00  1.71152287e-08 -5.34045494e-03  1.71152287e-08  5.00000000e-01                                 
 2.06802094e-08  6.24512708e-01  2.06802094e-08  5.72516251e-01  2.06802094e-08  1.95450019e+00  2.06802094e-08  1.80000000e+00  2.06802094e-08  5.34336394e-03  2.06802094e-08  5.00000000e-01                                 
 2.59052153e-08  6.18839181e-01  2.59052153e-08  5.66963387e-01  2.59052153e-08  1.94950721e+00  2.59052153e-08  1.80000000e+00  2.59052153e-08 -5.30379684e-03  2.59052153e-08  5.00000000e-01                                 
 3.38550351e-08  6.11978406e-01  3.38550351e-08  5.60197627e-01  3.38550351e-08  1.94373973e+00  3.38550351e-08  1.80000000e+00  3.38550351e-08  5.31887289e-03  3.38550351e-08  5.00000000e-01                                 
 4.81056412e-08  6.02671802e-01  4.81056412e-08  5.50973584e-01  4.81056412e-08  1.93601862e+00  4.81056412e-08  1.80000000e+00  4.81056412e-08 -5.28853531e-03  4.81056412e-08  5.00000000e-01                                 
 6.30106823e-08  5.95466550e-01  6.30106823e-08  5.43796221e-01  6.30106823e-08  1.93035659e+00  6.30106823e-08  1.80000000e+00  6.30106823e-08  5.30845621e-03  6.30106823e-08  5.00000000e-01                                 
 8.83524137e-08  5.86347403e-01  8.83524137e-08  5.34666875e-01  8.83524137e-08  1.91761560e+00  8.83524137e-08  1.80000000e+00  8.83524137e-08 -5.28025792e-03  8.83524137e-08  5.00000000e-01                                 
 1.10714284e-07  5.79030332e-01  1.10714284e-07  5.27587410e-01  1.10714284e-07  1.89914836e+00  1.10714284e-07  1.80000000e+00  1.10714284e-07  5.30201711e-03  1.10714284e-07  5.00000000e-01                                 
 1.35786231e-07  5.68117592e-01  1.35786231e-07  5.17780600e-01  1.35786231e-07  1.86748952e+00  1.35786231e-07  1.80000000e+00  1.35786231e-07 -5.27391702e-03  1.35786231e-07  5.00000000e-01                                 
 1.63972413e-07  5.56357832e-01  1.63972413e-07  5.07403415e-01  1.63972413e-07  1.81409245e+00  1.63972413e-07  1.80000000e+00  1.63972413e-07  5.29624430e-03  1.63972413e-07  5.00000000e-01                                 
 1.89554708e-07  5.47888014e-01  1.89554708e-07  4.99899206e-01  1.89554708e-07  1.77223002e+00  1.89554708e-07  1.80000000e+00  1.89554708e-07 -5.26813672e-03  1.89554708e-07  5.00000000e-01                                 
 2.17510678e-07  5.51303173e-01  2.17510678e-07  5.01821507e-01  2.17510678e-07  1.76396323e+00  2.17510678e-07  1.80000000e+00  2.17510678e-07  5.29094983e-03  2.17510678e-07  5.00000000e-01                                 
 2.40118230e-07  5.54095683e-01  2.40118230e-07  5.03441129e-01  2.40118230e-07  1.74899472e+00  2.40118230e-07  1.80000000e+00  2.40118230e-07 -5.26212169e-03  2.40118230e-07  5.00000000e-01                                 
 2.65216848e-07  5.49298470e-01  2.65216848e-07  4.99044119e-01  2.65216848e-07  1.71769463e+00  2.65216848e-07  1.80000000e+00  2.65216848e-07  5.28425327e-03  2.65216848e-07  5.00000000e-01                                 
 2.89065231e-07  5.44768362e-01  2.89065231e-07  4.94941765e-01  2.89065231e-07  1.69151409e+00  2.89065231e-07  1.80000000e+00  2.89065231e-07 -5.25595693e-03  2.89065231e-07  5.00000000e-01                                 
 3.10599675e-07  5.39670809e-01  3.10599675e-07  4.90480403e-01  3.10599675e-07  1.66519494e+00  3.10599675e-07  1.80000000e+00  3.10599675e-07  5.27747546e-03  3.10599675e-07  5.00000000e-01                                 
 3.53506745e-07  5.29279641e-01  3.53506745e-07  4.81508407e-01  3.53506745e-07  1.61311680e+00  3.53506745e-07  1.80000000e+00  3.53506745e-07 -5.25071059e-03  3.53506745e-07  5.00000000e-01                                 
 4.03504929e-07  5.17054496e-01  4.03504929e-07  4.71113430e-01  4.03504929e-07  1.55083355e+00  4.03504929e-07  1.80000000e+00  4.03504929e-07  5.27418624e-03  4.03504929e-07  5.00000000e-01                                 
 5.00339554e-07  4.94609137e-01  5.00339554e-07  4.52307369e-01  5.00339554e-07  1.43102363e+00  5.00339554e-07  1.80000000e+00  5.00339554e-07 -5.24841908e-03  5.00339554e-07  5.00000000e-01                                 
 6.09067648e-07  4.51993788e-01  6.09067648e-07  4.17794778e-01  6.09067648e-07  1.27705178e+00  6.09067648e-07  1.80000000e+00  6.09067648e-07  5.27257766e-03  6.09067648e-07  5.00000000e-01                                 
 7.19722160e-07  5.32945368e-01  7.19722160e-07  4.82182352e-01  7.19722160e-07  1.23978561e+00  7.19722160e-07  1.80000000e+00  7.19722160e-07 -5.24602919e-03  7.19722160e-07  5.00000000e-01                                 
 8.42873759e-07  7.59971814e-01  8.42873759e-07  6.99304733e-01  8.42873759e-07  1.32829284e+00  8.42873759e-07  1.80000000e+00  8.42873759e-07  5.27283122e-03  8.42873759e-07  5.00000000e-01                                 
 8.53328504e-07  7.66005075e-01  8.53328504e-07  7.04844776e-01  8.53328504e-07  1.32371121e+00  8.53328504e-07  1.80000000e+00  8.53328504e-07  3.25772824e-06  8.53328504e-07  5.00000000e-01                                 
 8.74237996e-07  7.74101475e-01  8.74237996e-07  7.11992687e-01  8.74237996e-07  1.30981434e+00  8.74237996e-07  1.80000000e+00  8.74237996e-07 -1.03672271e-06  8.74237996e-07  5.00000000e-01                                 
 9.16056978e-07  7.79449164e-01  9.16056978e-07  7.16592718e-01  9.16056978e-07  1.27130011e+00  9.16056978e-07  1.80000000e+00  9.16056978e-07  2.83363460e-06  9.16056978e-07  5.00000000e-01                                 
 9.25095602e-07  7.79801180e-01  9.25095602e-07  7.16895050e-01  9.25095602e-07  1.26224232e+00  9.25095602e-07  1.80000000e+00  9.25095602e-07  8.43797220e-07  9.25095602e-07  5.00000000e-01                                 
 9.43172850e-07  7.80460047e-01  9.43172850e-07  7.17455469e-01  9.43172850e-07  1.24401108e+00  9.43172850e-07  1.80000000e+00  9.43172850e-07  8.29241968e-07  9.43172850e-07  5.00000000e-01                                 
 9.79327346e-07  7.81373803e-01  9.79327346e-07  7.18229949e-01  9.79327346e-07  1.20709783e+00  9.79327346e-07  1.80000000e+00  9.79327346e-07  8.24246404e-07  9.79327346e-07  5.00000000e-01                                 
 1.03519576e-06  7.82470907e-01  1.03519576e-06  7.19155839e-01  1.03519576e-06  1.14964343e+00  1.03519576e-06  1.80000000e+00  1.03519576e-06  8.21914747e-07  1.03519576e-06  5.00000000e-01                                 
 1.09073108e-06  7.72272720e-01  1.09073108e-06  7.10432758e-01  1.09073108e-06  1.08198712e+00  1.09073108e-06  1.80000000e+00  1.09073108e-06  5.45464866e-07  1.09073108e-06  5.00000000e-01                                 
 1.17845935e-06  7.59183244e-01  1.17845935e-06  6.98741023e-01  1.17845935e-06  9.83641396e-01  1.17845935e-06  1.80000000e+00  1.17845935e-06  8.56792140e-07  1.17845935e-06  5.00000000e-01                                 
 1.26858647e-06  7.74734376e-01  1.26858647e-06  7.12540259e-01  1.26858647e-06  9.24925576e-01  1.26858647e-06  1.80000000e+00  1.26858647e-06  1.00420464e-06  1.26858647e-06  5.00000000e-01                                 
 1.28060155e-06  7.76620264e-01  1.28060155e-06  7.14168302e-01  1.28060155e-06  9.18075790e-01  1.28060155e-06  1.80000000e+00  1.28060155e-06  9.30020329e-07  1.28060155e-06  5.00000000e-01                                 
 1.30463171e-06  7.77964337e-01  1.30463171e-06  7.15332306e-01  1.30463171e-06  9.02593119e-01  1.30463171e-06  1.80000000e+00  1.30463171e-06  7.84319932e-07  1.30463171e-06  5.00000000e-01                                 
 1.35269202e-06  7.67828325e-01  1.35269202e-06  7.06524904e-01  1.35269202e-06  8.62777261e-01  1.35269202e-06  1.80000000e+00  1.35269202e-06  5.47319106e-07  1.35269202e-06  5.00000000e-01                                 
 1.41493216e-06  7.63688475e-01  1.41493216e-06  7.02798452e-01  1.41493216e-06  8.21801188e-01  1.41493216e-06  1.80000000e+00  1.41493216e-06  9.65232715e-07  1.41493216e-06  5.00000000e-01                                 
 1.47897372e-06  7.74453882e-01  1.47897372e-06  7.12302968e-01  1.47897372e-06  7.94580612e-01  1.47897372e-06  1.80000000e+00  1.47897372e-06  8.92381685e-07  1.47897372e-06  5.00000000e-01                                 
 1.56631862e-06  7.70266637e-01  1.56631862e-06  7.08662366e-01  1.56631862e-06  7.42636178e-01  1.56631862e-06  1.80000000e+00  1.56631862e-06  6.65071633e-07  1.56631862e-06  5.00000000e-01                                 
 1.65645713e-06  7.66932499e-01  1.65645713e-06  7.05702574e-01  1.65645713e-06  6.92396878e-01  1.65645713e-06  1.80000000e+00  1.65645713e-06  8.94400840e-07  1.65645713e-06  5.00000000e-01                                 
 1.79374754e-06  7.72890825e-01  1.79374754e-06  7.10949229e-01  1.79374754e-06  6.28986645e-01  1.79374754e-06  1.80000000e+00  1.79374754e-06  7.87576758e-07  1.79374754e-06  5.00000000e-01                                 
 1.98063435e-06  7.68019157e-01  1.98063435e-06  7.06673757e-01  1.98063435e-06  5.45620365e-01  1.98063435e-06  1.80000000e+00  1.98063435e-06  7.94329909e-07  1.98063435e-06  5.00000000e-01                                 
 2.18568353e-06  7.70862035e-01  2.18568353e-06  7.09171797e-01  2.18568353e-06  5.02676574e-01  2.18568353e-06  1.80000000e+00  2.18568353e-06  8.45751351e-07  2.18568353e-06  5.00000000e-01                                 
 2.37439303e-06  7.70503893e-01  2.37439303e-06  7.08865431e-01  2.37439303e-06  4.90722822e-01  2.37439303e-06  1.80000000e+00  2.37439303e-06  7.70724586e-07  2.37439303e-06  5.00000000e-01                                 
 2.40163135e-06  7.69380763e-01  2.40163135e-06  7.07875911e-01  2.40163135e-06  4.88986705e-01  2.40163135e-06  1.80000000e+00  2.40163135e-06  7.79478718e-07  2.40163135e-06  5.00000000e-01                                 
 2.45610798e-06  7.69189568e-01  2.45610798e-06  7.07703248e-01  2.45610798e-06  4.88670042e-01  2.45610798e-06  1.80000000e+00  2.45610798e-06  8.33071387e-07  2.45610798e-06  5.00000000e-01                                 
 2.46691466e-06  7.69581009e-01  2.46691466e-06  7.08048001e-01  2.46691466e-06  4.90017603e-01  2.46691466e-06  1.80000000e+00  2.46691466e-06  8.40144882e-07  2.46691466e-06  5.00000000e-01                                 
 2.48852803e-06  7.70282127e-01  2.48852803e-06  7.08665029e-01  2.48852803e-06  4.93655442e-01  2.48852803e-06  1.80000000e+00  2.48852803e-06  8.34653266e-07  2.48852803e-06  5.00000000e-01                                 
 2.53175477e-06  7.70720441e-01  2.53175477e-06  7.09051885e-01  2.53175477e-06  4.99131787e-01  2.53175477e-06  1.80000000e+00  2.53175477e-06  7.94375598e-07  2.53175477e-06  5.00000000e-01                                 
 2.61820824e-06  7.69730642e-01  2.61820824e-06  7.08182523e-01  2.61820824e-06  5.00500131e-01  2.61820824e-06  1.80000000e+00  2.61820824e-06  8.04574649e-07  2.61820824e-06  5.00000000e-01                                 
 2.70901484e-06  7.69922590e-01  2.70901484e-06  7.08349558e-01  2.70901484e-06  5.00201523e-01  2.70901484e-06  1.80000000e+00  2.70901484e-06  8.16280450e-07  2.70901484e-06  5.00000000e-01                                 
 2.89062803e-06  7.70384566e-01  2.89062803e-06  7.08757353e-01  2.89062803e-06  5.00385371e-01  2.89062803e-06  1.80000000e+00  2.89062803e-06  8.05228694e-07  2.89062803e-06  5.00000000e-01                                 
 3.23762316e-06  7.69713470e-01  3.23762316e-06  7.08166073e-01  3.23762316e-06  4.99873018e-01  3.23762316e-06  1.80000000e+00  3.23762316e-06  8.09796242e-07  3.23762316e-06  5.00000000e-01                                 
 3.92341015e-06  7.70436083e-01  3.92341015e-06  7.08802275e-01  3.92341015e-06  5.00533663e-01  3.92341015e-06  1.80000000e+00  3.92341015e-06  8.09473479e-07  3.92341015e-06  5.00000000e-01                                 
 4.92341015e-06  7.69701846e-01  4.92341015e-06  7.08156043e-01  4.92341015e-06  4.99813598e-01  4.92341015e-06  1.80000000e+00  4.92341015e-06  8.07275613e-07  4.92341015e-06  5.00000000e-01                                 
 5.92341015e-06  7.70436332e-01  5.92341015e-06  7.08802322e-01  5.92341015e-06  5.00567327e-01  5.92341015e-06  1.80000000e+00  5.92341015e-06  8.11535215e-07  5.92341015e-06  5.00000000e-01                                 
 6.92341015e-06  7.69708493e-01  6.92341015e-06  7.08162053e-01  6.92341015e-06  4.99790963e-01  6.92341015e-06  1.80000000e+00  6.92341015e-06  8.05229761e-07  6.92341015e-06  5.00000000e-01                                 
 7.92341015e-06  7.70423163e-01  7.92341015e-06  7.08790599e-01  7.92341015e-06  5.00578664e-01  7.92341015e-06  1.80000000e+00  7.92341015e-06  8.13546590e-07  7.92341015e-06  5.00000000e-01                                 
 8.92341015e-06  7.69728143e-01  8.92341015e-06  7.08179504e-01  8.92341015e-06  4.99790744e-01  8.92341015e-06  1.80000000e+00  8.92341015e-06  8.03270901e-07  8.92341015e-06  5.00000000e-01                                 
 9.92341015e-06  7.70398040e-01  9.92341015e-06  7.08768387e-01  9.92341015e-06  5.00568744e-01  9.92341015e-06  1.80000000e+00  9.92341015e-06  8.15436388e-07  9.92341015e-06  5.00000000e-01                                 
 1.00005000e-05  7.70021333e-01  1.00005000e-05  7.08438023e-01  1.00005000e-05  5.00095582e-01  1.00005000e-05  1.80000000e+00  1.00005000e-05  7.95861233e-07  1.00005000e-05  5.00000000e-01                                 
 1.00005500e-05  7.70020783e-01  1.00005500e-05  7.08437542e-01  1.00005500e-05  4.92201274e-01  1.00005500e-05  1.62000000e+00  1.00005500e-05 -7.80749362e-05  1.00005500e-05  5.00000000e-01                                 
