 time            v(vbep)         time            v(vben)         time            v(vout)         time            v(vphi1)        time            v(vphi2)        time            v(vref)         yes             currtemp       
 0.00000000e+00  7.35556649e-01  0.00000000e+00  6.86332640e-01  0.00000000e+00  7.78842762e-02  0.00000000e+00  0.00000000e+00  0.00000000e+00  1.79997039e+00  0.00000000e+00  5.00000000e-01  1.00000000e+00 -4.00000000e+00 
 5.00000000e-12  7.35538032e-01  5.00000000e-12  6.86317135e-01  5.00000000e-12  7.83231294e-02  5.00000000e-12  1.80000000e-02  5.00000000e-12  1.80005343e+00  5.00000000e-12  5.00000000e-01                                 
 1.00000000e-11  7.35519744e-01  1.00000000e-11  6.86301968e-01  1.00000000e-11  7.87172921e-02  1.00000000e-11  3.60000000e-02  1.00000000e-11  1.80009310e+00  1.00000000e-11  5.00000000e-01                                 
 2.00000000e-11  7.35483342e-01  2.00000000e-11  6.86271721e-01  2.00000000e-11  7.94436385e-02  2.00000000e-11  7.20000000e-02  2.00000000e-11  1.80012633e+00  2.00000000e-11  5.00000000e-01                                 
 4.00000000e-11  7.35410824e-01  4.00000000e-11  6.86211383e-01  4.00000000e-11  8.06193342e-02  4.00000000e-11  1.44000000e-01  4.00000000e-11  1.80009602e+00  4.00000000e-11  5.00000000e-01                                 
 8.00000000e-11  7.35266240e-01  8.00000000e-11  6.86091032e-01  8.00000000e-11  8.23894104e-02  8.00000000e-11  2.88000000e-01  8.00000000e-11  1.80004398e+00  8.00000000e-11  5.00000000e-01                                 
 1.60000000e-10  7.34979196e-01  1.60000000e-10  6.85851786e-01  1.60000000e-10  8.52595947e-02  1.60000000e-10  5.76000000e-01  1.60000000e-10  1.80001044e+00  1.60000000e-10  5.00000000e-01                                 
 3.20000000e-10  7.34413744e-01  3.20000000e-10  6.85379377e-01  3.20000000e-10  1.20216647e-01  3.20000000e-10  1.15200000e+00  3.20000000e-10  1.79997264e+00  3.20000000e-10  5.00000000e-01                                 
 5.00000000e-10  7.33791358e-01  5.00000000e-10  6.84857637e-01  5.00000000e-10  4.63415646e-01  5.00000000e-10  1.80000000e+00  5.00000000e-10  9.96142236e-02  5.00000000e-10  5.00000000e-01                                 
 5.21098084e-10  7.33719443e-01  5.21098084e-10  6.84797222e-01  5.21098084e-10  5.25769503e-01  5.21098084e-10  1.80000000e+00  5.21098084e-10  1.77804461e-02  5.21098084e-10  5.00000000e-01                                 
 5.63294252e-10  7.33575987e-01  5.63294252e-10  6.84676655e-01  5.63294252e-10  6.35839689e-01  5.63294252e-10  1.80000000e+00  5.63294252e-10 -8.30859838e-03  5.63294252e-10  5.00000000e-01                                 
 6.47686589e-10  7.33291343e-01  6.47686589e-10  6.84437144e-01  6.47686589e-10  7.95159593e-01  6.47686589e-10  1.80000000e+00  6.47686589e-10  7.36307630e-03  6.47686589e-10  5.00000000e-01                                 
 7.71393382e-10  7.32879461e-01  7.71393382e-10  6.84089904e-01  7.71393382e-10  9.56658798e-01  7.71393382e-10  1.80000000e+00  7.71393382e-10 -6.39234170e-03  7.71393382e-10  5.00000000e-01                                 
 9.60772851e-10  7.32260847e-01  9.60772851e-10  6.83566917e-01  9.60772851e-10  1.14131494e+00  9.60772851e-10  1.80000000e+00  9.60772851e-10  6.11707371e-03  9.60772851e-10  5.00000000e-01                                 
 1.26484304e-09  7.31296212e-01  1.26484304e-09  6.82747959e-01  1.26484304e-09  1.35889790e+00  1.26484304e-09  1.80000000e+00  1.26484304e-09 -5.77313360e-03  1.26484304e-09  5.00000000e-01                                 
 1.82648829e-09  7.29599944e-01  1.82648829e-09  6.81298005e-01  1.82648829e-09  1.55481328e+00  1.82648829e-09  1.80000000e+00  1.82648829e-09  5.71993465e-03  1.82648829e-09  5.00000000e-01                                 
 2.18137509e-09  7.28581731e-01  2.18137509e-09  6.80421521e-01  2.18137509e-09  1.59592066e+00  2.18137509e-09  1.80000000e+00  2.18137509e-09 -5.43193384e-03  2.18137509e-09  5.00000000e-01                                 
 2.54192708e-09  7.27585231e-01  2.54192708e-09  6.79559509e-01  2.54192708e-09  1.60664656e+00  2.54192708e-09  1.80000000e+00  2.54192708e-09  5.31796083e-03  2.54192708e-09  5.00000000e-01                                 
 2.94289003e-09  7.26518457e-01  2.94289003e-09  6.78632223e-01  2.94289003e-09  1.60695424e+00  2.94289003e-09  1.80000000e+00  2.94289003e-09 -5.10732859e-03  2.94289003e-09  5.00000000e-01                                 
 3.31562195e-09  7.25563095e-01  3.31562195e-09  6.77797934e-01  3.31562195e-09  1.60595655e+00  3.31562195e-09  1.80000000e+00  3.31562195e-09  4.97129878e-03  3.31562195e-09  5.00000000e-01                                 
 3.99189061e-09  7.23910142e-01  3.99189061e-09  6.76346355e-01  3.99189061e-09  1.60605695e+00  3.99189061e-09  1.80000000e+00  3.99189061e-09 -4.85499698e-03  3.99189061e-09  5.00000000e-01                                 
 4.80290933e-09  7.22050734e-01  4.80290933e-09  6.74701571e-01  4.80290933e-09  1.60474353e+00  4.80290933e-09  1.80000000e+00  4.80290933e-09  4.80120366e-03  4.80290933e-09  5.00000000e-01                                 
 6.39141237e-09  7.18727050e-01  6.39141237e-09  6.71733632e-01  6.39141237e-09  1.59890932e+00  6.39141237e-09  1.80000000e+00  6.39141237e-09 -4.74416046e-03  6.39141237e-09  5.00000000e-01                                 
 8.81550567e-09  7.14299118e-01  8.81550567e-09  6.67729377e-01  8.81550567e-09  1.58927244e+00  8.81550567e-09  1.80000000e+00  8.81550567e-09  4.73906150e-03  8.81550567e-09  5.00000000e-01                                 
 1.22576990e-08  7.08973334e-01  1.22576990e-08  6.62850245e-01  1.22576990e-08  1.57598603e+00  1.22576990e-08  1.80000000e+00  1.22576990e-08 -4.70277595e-03  1.22576990e-08  5.00000000e-01                                 
 1.91420857e-08  7.00426828e-01  1.91420857e-08  6.54922985e-01  1.91420857e-08  1.54485347e+00  1.91420857e-08  1.80000000e+00  1.91420857e-08  4.71365331e-03  1.91420857e-08  5.00000000e-01                                 
 3.29108590e-08  6.88499332e-01  3.29108590e-08  6.43660958e-01  3.29108590e-08  1.46388517e+00  3.29108590e-08  1.80000000e+00  3.29108590e-08 -4.68980309e-03  3.29108590e-08  5.00000000e-01                                 
 5.41171570e-08  6.82696716e-01  5.41171570e-08  6.37082257e-01  5.41171570e-08  1.40472646e+00  5.41171570e-08  1.80000000e+00  5.41171570e-08  4.70724914e-03  5.41171570e-08  5.00000000e-01                                 
 7.38372181e-08  6.78516998e-01  7.38372181e-08  6.32458429e-01  7.38372181e-08  1.31367051e+00  7.38372181e-08  1.80000000e+00  7.38372181e-08 -4.68416922e-03  7.38372181e-08  5.00000000e-01                                 
 9.34504003e-08  6.70963428e-01  9.34504003e-08  6.25435054e-01  9.34504003e-08  1.19252134e+00  9.34504003e-08  1.80000000e+00  9.34504003e-08  4.70126044e-03  9.34504003e-08  5.00000000e-01                                 
 1.14520556e-07  6.66001390e-01  1.14520556e-07  6.20559587e-01  1.14520556e-07  1.05967203e+00  1.14520556e-07  1.80000000e+00  1.14520556e-07 -4.67842727e-03  1.14520556e-07  5.00000000e-01                                 
 1.35201520e-07  6.61800604e-01  1.35201520e-07  6.16440819e-01  1.35201520e-07  9.41145090e-01  1.35201520e-07  1.80000000e+00  1.35201520e-07  4.69577906e-03  1.35201520e-07  5.00000000e-01                                 
 1.72264228e-07  6.52151938e-01  1.72264228e-07  6.07608059e-01  1.72264228e-07  7.86478557e-01  1.72264228e-07  1.80000000e+00  1.72264228e-07 -4.67418701e-03  1.72264228e-07  5.00000000e-01                                 
 2.20867258e-07  6.40053473e-01  2.20867258e-07  5.96783633e-01  2.20867258e-07  6.68002786e-01  2.20867258e-07  1.80000000e+00  2.20867258e-07  4.69306248e-03  2.20867258e-07  5.00000000e-01                                 
 2.79467829e-07  6.27200942e-01  2.79467829e-07  5.85452897e-01  2.79467829e-07  5.65259255e-01  2.79467829e-07  1.80000000e+00  2.79467829e-07 -4.67202935e-03  2.79467829e-07  5.00000000e-01                                 
 3.40494905e-07  6.13798050e-01  3.40494905e-07  5.73931194e-01  3.40494905e-07  5.02944024e-01  3.40494905e-07  1.80000000e+00  3.40494905e-07  4.69115805e-03  3.40494905e-07  5.00000000e-01                                 
 4.59100246e-07  5.87240817e-01  4.59100246e-07  5.51706660e-01  4.59100246e-07  4.78863637e-01  4.59100246e-07  1.80000000e+00  4.59100246e-07 -4.67062985e-03  4.59100246e-07  5.00000000e-01                                 
 5.77202515e-07  5.56750616e-01  5.77202515e-07  5.26875042e-01  5.77202515e-07  4.90701082e-01  5.77202515e-07  1.80000000e+00  5.77202515e-07  4.69017862e-03  5.77202515e-07  5.00000000e-01                                 
 6.90277962e-07  5.27735826e-01  6.90277962e-07  5.03516512e-01  6.90277962e-07  5.21755289e-01  6.90277962e-07  1.80000000e+00  6.90277962e-07 -4.66965370e-03  6.90277962e-07  5.00000000e-01                                 
 7.02772707e-07  5.25038757e-01  7.02772707e-07  5.01354696e-01  7.02772707e-07  5.19939478e-01  7.02772707e-07  1.80000000e+00  7.02772707e-07 -1.10645659e-06  7.02772707e-07  5.00000000e-01                                 
 7.27762197e-07  5.22009436e-01  7.27762197e-07  4.98924410e-01  7.27762197e-07  5.11964058e-01  7.27762197e-07  1.80000000e+00  7.27762197e-07  1.10184806e-06  7.27762197e-07  5.00000000e-01                                 
 7.77741178e-07  5.57700862e-01  7.77741178e-07  5.27448444e-01  7.77741178e-07  5.15772233e-01  7.77741178e-07  1.80000000e+00  7.77741178e-07 -4.83471229e-07  7.77741178e-07  5.00000000e-01                                 
 8.23809097e-07  7.50210259e-01  8.23809097e-07  6.97028818e-01  8.23809097e-07  5.74298913e-01  8.23809097e-07  1.80000000e+00  8.23809097e-07  4.27184547e-06  8.23809097e-07  5.00000000e-01                                 
 8.30293306e-07  7.70916856e-01  8.30293306e-07  7.19168178e-01  8.30293306e-07  5.69191815e-01  8.30293306e-07  1.80000000e+00  8.30293306e-07  1.92205524e-06  8.30293306e-07  5.00000000e-01                                 
 8.43261724e-07  7.93179129e-01  8.43261724e-07  7.42580235e-01  8.43261724e-07  5.48564529e-01  8.43261724e-07  1.80000000e+00  8.43261724e-07  2.83533490e-07  8.43261724e-07  5.00000000e-01                                 
 8.69198561e-07  8.17978324e-01  8.69198561e-07  7.66239897e-01  8.69198561e-07  5.19841282e-01  8.69198561e-07  1.80000000e+00  8.69198561e-07  9.49754632e-07  8.69198561e-07  5.00000000e-01                                 
 8.95136081e-07  8.34016641e-01  8.95136081e-07  7.80881747e-01  8.95136081e-07  5.12982437e-01  8.95136081e-07  1.80000000e+00  8.95136081e-07 -7.19707262e-08  8.95136081e-07  5.00000000e-01                                 
 9.36951574e-07  8.63427097e-01  9.36951574e-07  8.05316879e-01  9.36951574e-07  5.14414262e-01  9.36951574e-07  1.80000000e+00  9.36951574e-07  9.92082557e-07  9.36951574e-07  5.00000000e-01                                 
 9.85072042e-07  9.05652167e-01  9.85072042e-07  8.34794226e-01  9.85072042e-07  5.17208326e-01  9.85072042e-07  1.80000000e+00  9.85072042e-07  1.58667702e-07  9.85072042e-07  5.00000000e-01                                 
 9.90675803e-07  9.07763954e-01  9.90675803e-07  8.36183209e-01  9.90675803e-07  5.14840495e-01  9.90675803e-07  1.80000000e+00  9.90675803e-07  2.42500488e-07  9.90675803e-07  5.00000000e-01                                 
 1.00188333e-06  9.07825978e-01  1.00188333e-06  8.36329308e-01  1.00188333e-06  5.08528336e-01  1.00188333e-06  1.80000000e+00  1.00188333e-06 -9.29398372e-08  1.00188333e-06  5.00000000e-01                                 
 1.02429837e-06  9.03416563e-01  1.02429837e-06  8.33514064e-01  1.02429837e-06  4.97649810e-01  1.02429837e-06  1.80000000e+00  1.02429837e-06 -3.81518042e-08  1.02429837e-06  5.00000000e-01                                 
 1.04604281e-06  9.01074310e-01  1.04604281e-06  8.32029667e-01  1.04604281e-06  4.93806136e-01  1.04604281e-06  1.80000000e+00  1.04604281e-06  2.53678849e-09  1.04604281e-06  5.00000000e-01                                 
 1.07925905e-06  8.93623165e-01  1.07925905e-06  8.27167392e-01  1.07925905e-06  4.88452997e-01  1.07925905e-06  1.80000000e+00  1.07925905e-06 -1.75691756e-07  1.07925905e-06  5.00000000e-01                                 
 1.12555052e-06  8.77706452e-01  1.12555052e-06  8.16123486e-01  1.12555052e-06  4.78637550e-01  1.12555052e-06  1.80000000e+00  1.12555052e-06 -1.51595156e-07  1.12555052e-06  5.00000000e-01                                 
 1.18958994e-06  8.43131464e-01  1.18958994e-06  7.88883417e-01  1.18958994e-06  4.75106927e-01  1.18958994e-06  1.80000000e+00  1.18958994e-06 -4.13047225e-07  1.18958994e-06  5.00000000e-01                                 
 1.19938029e-06  8.37952890e-01  1.19938029e-06  7.84393210e-01  1.19938029e-06  4.80402505e-01  1.19938029e-06  1.80000000e+00  1.19938029e-06 -2.80150058e-07  1.19938029e-06  5.00000000e-01                                 
 1.21896100e-06  8.29915526e-01  1.21896100e-06  7.77252879e-01  1.21896100e-06  4.95344523e-01  1.21896100e-06  1.80000000e+00  1.21896100e-06 -1.37958711e-07  1.21896100e-06  5.00000000e-01                                 
 1.25812242e-06  8.26185142e-01  1.25812242e-06  7.73866429e-01  1.25812242e-06  5.26996735e-01  1.25812242e-06  1.80000000e+00  1.25812242e-06  9.72265407e-08  1.25812242e-06  5.00000000e-01                                 
 1.30467723e-06  8.30993096e-01  1.30467723e-06  7.78196584e-01  1.30467723e-06  5.18655453e-01  1.30467723e-06  1.80000000e+00  1.30467723e-06  1.01522249e-07  1.30467723e-06  5.00000000e-01                                 
 1.35900530e-06  8.31625354e-01  1.35900530e-06  7.78779424e-01  1.35900530e-06  4.88142182e-01  1.35900530e-06  1.80000000e+00  1.35900530e-06  8.10174336e-09  1.35900530e-06  5.00000000e-01                                 
 1.41920254e-06  8.28769301e-01  1.41920254e-06  7.76205890e-01  1.41920254e-06  4.91883166e-01  1.41920254e-06  1.80000000e+00  1.41920254e-06  2.32425991e-08  1.41920254e-06  5.00000000e-01                                 
 1.48566325e-06  8.30339443e-01  1.48566325e-06  7.77620234e-01  1.48566325e-06  5.00191716e-01  1.48566325e-06  1.80000000e+00  1.48566325e-06  8.96102871e-08  1.48566325e-06  5.00000000e-01                                 
 1.58778773e-06  8.30401420e-01  1.58778773e-06  7.77676361e-01  1.58778773e-06  5.04695850e-01  1.58778773e-06  1.80000000e+00  1.58778773e-06 -4.55298773e-10  1.58778773e-06  5.00000000e-01                                 
 1.69730072e-06  8.29566527e-01  1.69730072e-06  7.76926967e-01  1.69730072e-06  4.98669053e-01  1.69730072e-06  1.80000000e+00  1.69730072e-06  7.59431574e-08  1.69730072e-06  5.00000000e-01                                 
 1.91632672e-06  8.30616962e-01  1.91632672e-06  7.77868164e-01  1.91632672e-06  4.99599011e-01  1.91632672e-06  1.80000000e+00  1.91632672e-06  1.79483663e-08  1.91632672e-06  5.00000000e-01                                 
 2.11923144e-06  8.29628188e-01  2.11923144e-06  7.76983539e-01  2.11923144e-06  5.01132431e-01  2.11923144e-06  1.80000000e+00  2.11923144e-06  6.18073696e-08  2.11923144e-06  5.00000000e-01                                 
 2.52504089e-06  8.30502487e-01  2.52504089e-06  7.77764756e-01  2.52504089e-06  4.99389175e-01  2.52504089e-06  1.80000000e+00  2.52504089e-06  2.82143967e-08  2.52504089e-06  5.00000000e-01                                 
 3.02431256e-06  8.29722629e-01  3.02431256e-06  7.77068867e-01  3.02431256e-06  5.00489124e-01  3.02431256e-06  1.80000000e+00  3.02431256e-06  5.63454210e-08  3.02431256e-06  5.00000000e-01                                 
 3.81812142e-06  8.30425302e-01  3.81812142e-06  7.77695272e-01  3.81812142e-06  4.99979470e-01  3.81812142e-06  1.80000000e+00  3.81812142e-06  3.18459053e-08  3.81812142e-06  5.00000000e-01                                 
 4.81812142e-06  8.29778482e-01  4.81812142e-06  7.77119238e-01  4.81812142e-06  5.00080475e-01  4.81812142e-06  1.80000000e+00  4.81812142e-06  5.40429359e-08  4.81812142e-06  5.00000000e-01                                 
 5.81812142e-06  8.30374200e-01  5.81812142e-06  7.77649304e-01  5.81812142e-06  5.00326137e-01  5.81812142e-06  1.80000000e+00  5.81812142e-06  3.37387441e-08  5.81812142e-06  5.00000000e-01                                 
 6.81812142e-06  8.29830112e-01  6.81812142e-06  7.77165760e-01  6.81812142e-06  4.99779504e-01  6.81812142e-06  1.80000000e+00  6.81812142e-06  5.22797321e-08  6.81812142e-06  5.00000000e-01                                 
 7.81812142e-06  8.30321938e-01  7.81812142e-06  7.77602310e-01  7.81812142e-06  5.00596700e-01  7.81812142e-06  1.80000000e+00  7.81812142e-06  3.53722252e-08  7.81812142e-06  5.00000000e-01                                 
 8.81812142e-06  8.29882437e-01  8.81812142e-06  7.77212874e-01  8.81812142e-06  4.99562663e-01  8.81812142e-06  1.80000000e+00  8.81812142e-06  5.07756409e-08  8.81812142e-06  5.00000000e-01                                 
 9.81812142e-06  8.30269731e-01  9.81812142e-06  7.77555382e-01  9.81812142e-06  5.00756715e-01  9.81812142e-06  1.80000000e+00  9.81812142e-06  3.67480254e-08  9.81812142e-06  5.00000000e-01                                 
 1.00005000e-05  8.30041898e-01  1.00005000e-05  7.77356255e-01  1.00005000e-05  4.99550001e-01  1.00005000e-05  1.80000000e+00  1.00005000e-05  4.75803982e-08  1.00005000e-05  5.00000000e-01                                 
 1.00005500e-05  8.30039954e-01  1.00005500e-05  7.77354235e-01  1.00005500e-05  4.91588698e-01  1.00005500e-05  1.62000000e+00  1.00005500e-05 -7.62221567e-05  1.00005500e-05  5.00000000e-01                                 
 1.00006500e-05  8.30035780e-01  1.00006500e-05  7.77350307e-01  1.00006500e-05  4.78035054e-01  1.00006500e-05  1.26000000e+00  1.00006500e-05 -4.91523413e-05  1.00006500e-05  5.00000000e-01                                 
 1.00008500e-05  8.30028380e-01  1.00008500e-05  7.77343531e-01  1.00008500e-05  4.77639922e-01  1.00008500e-05  5.40000000e-01  1.00008500e-05 -5.59904327e-04  1.00008500e-05  5.00000000e-01                                 
 1.00010000e-05  8.30023716e-01  1.00010000e-05  7.77339173e-01  1.00010000e-05  4.44868282e-01  1.00010000e-05  0.00000000e+00  1.00010000e-05  1.54935893e+00  1.00010000e-05  5.00000000e-01                                 
 1.00010170e-05  8.30023146e-01  1.00010170e-05  7.77338682e-01  1.00010170e-05  4.24223748e-01  1.00010170e-05  0.00000000e+00  1.00010170e-05  1.68780861e+00  1.00010170e-05  5.00000000e-01                                 
 1.00010511e-05  8.30022084e-01  1.00010511e-05  7.77337728e-01  1.00010511e-05  3.79646925e-01  1.00010511e-05  0.00000000e+00  1.00010511e-05  1.80759387e+00  1.00010511e-05  5.00000000e-01                                 
 1.00011192e-05  8.30020315e-01  1.00011192e-05  7.77336005e-01  1.00011192e-05  3.18395294e-01  1.00011192e-05  0.00000000e+00  1.00011192e-05  1.79265500e+00  1.00011192e-05  5.00000000e-01                                 
 1.00011909e-05  8.30018662e-01  1.00011909e-05  7.77334402e-01  1.00011909e-05  3.02957476e-01  1.00011909e-05  0.00000000e+00  1.00011909e-05  1.80131594e+00  1.00011909e-05  5.00000000e-01                                 
 1.00013249e-05  8.30015715e-01  1.00013249e-05  7.77331644e-01  1.00013249e-05  2.99019097e-01  1.00013249e-05  0.00000000e+00  1.00013249e-05  1.79900532e+00  1.00013249e-05  5.00000000e-01                                 
 1.00014541e-05  8.30013073e-01  1.00014541e-05  7.77329170e-01  1.00014541e-05  2.98237465e-01  1.00014541e-05  0.00000000e+00  1.00014541e-05  1.80038651e+00  1.00014541e-05  5.00000000e-01                                 
