 time            v(vbep)         time            v(vben)         time            v(vout)         time            v(vphi1)        time            v(vphi2)        time            v(vref)         yes             currtemp       
 0.00000000e+00  6.79103233e-01  0.00000000e+00  6.23118248e-01  0.00000000e+00  1.08690883e+00  0.00000000e+00  0.00000000e+00  0.00000000e+00  1.79994923e+00  0.00000000e+00  6.23118248e-01  1.00000000e+00  3.30000000e+01 
 5.00000000e-12  6.79072531e-01  5.00000000e-12  6.23092849e-01  5.00000000e-12  1.08764484e+00  5.00000000e-12  1.80000000e-02  5.00000000e-12  1.80007426e+00  5.00000000e-12  6.23092849e-01                                 
 1.00000000e-11  6.79042715e-01  1.00000000e-11  6.23068141e-01  1.00000000e-11  1.08831655e+00  1.00000000e-11  3.60000000e-02  1.00000000e-11  1.80014865e+00  1.00000000e-11  6.23068141e-01                                 
 2.00000000e-11  6.78983632e-01  2.00000000e-11  6.23018926e-01  2.00000000e-11  1.08955944e+00  2.00000000e-11  7.20000000e-02  2.00000000e-11  1.80023208e+00  2.00000000e-11  6.23018926e-01                                 
 4.00000000e-11  6.78866411e-01  4.00000000e-11  6.22920902e-01  4.00000000e-11  1.09157929e+00  4.00000000e-11  1.44000000e-01  4.00000000e-11  1.80022447e+00  4.00000000e-11  6.22920902e-01                                 
 8.00000000e-11  6.78633177e-01  8.00000000e-11  6.22725785e-01  8.00000000e-11  1.09433002e+00  8.00000000e-11  2.88000000e-01  8.00000000e-11  1.80013144e+00  8.00000000e-11  6.22725785e-01                                 
 1.60000000e-10  6.78171959e-01  1.60000000e-10  6.22339252e-01  1.60000000e-10  1.09669137e+00  1.60000000e-10  5.76000000e-01  1.60000000e-10  1.80002235e+00  1.60000000e-10  6.22339252e-01                                 
 3.20000000e-10  6.77269227e-01  3.20000000e-10  6.21580442e-01  3.20000000e-10  1.08891503e+00  3.20000000e-10  1.15200000e+00  3.20000000e-10  1.80028998e+00  3.20000000e-10  6.21580442e-01                                 
 5.00000000e-10  6.76283939e-01  5.00000000e-10  6.20748666e-01  5.00000000e-10  1.18646275e+00  5.00000000e-10  1.80000000e+00  5.00000000e-10  1.50455132e-01  5.00000000e-10  6.20748666e-01                                 
 5.21289487e-10  6.76169680e-01  5.21289487e-10  6.20651951e-01  5.21289487e-10  1.21133251e+00  5.21289487e-10  1.80000000e+00  5.21289487e-10  3.75164335e-02  5.21289487e-10  6.20651951e-01                                 
 5.63868460e-10  6.75941981e-01  5.63868460e-10  6.20459104e-01  5.63868460e-10  1.26084504e+00  5.63868460e-10  1.80000000e+00  5.63868460e-10 -1.41241931e-02  5.63868460e-10  6.20459104e-01                                 
 6.49026406e-10  6.75491531e-01  6.49026406e-10  6.20077035e-01  6.49026406e-10  1.34977999e+00  6.49026406e-10  1.80000000e+00  6.49026406e-10  1.19963498e-02  6.49026406e-10  6.20077035e-01                                 
 7.69137452e-10  6.74867129e-01  7.69137452e-10  6.19546175e-01  7.69137452e-10  1.45873433e+00  7.69137452e-10  1.80000000e+00  7.69137452e-10 -9.15837344e-03  7.69137452e-10  6.19546175e-01                                 
 9.50110635e-10  6.73949478e-01  9.50110635e-10  6.18763402e-01  9.50110635e-10  1.59105058e+00  9.50110635e-10  1.80000000e+00  9.50110635e-10  9.02428800e-03  9.50110635e-10  6.18763402e-01                                 
 1.31205700e-09  6.72191683e-01  1.31205700e-09  6.17255568e-01  1.31205700e-09  1.75631117e+00  1.31205700e-09  1.80000000e+00  1.31205700e-09 -7.93835946e-03  1.31205700e-09  6.17255568e-01                                 
 1.65508231e-09  6.70614369e-01  1.65508231e-09  6.15893076e-01  1.65508231e-09  1.82880204e+00  1.65508231e-09  1.80000000e+00  1.65508231e-09  7.78817779e-03  1.65508231e-09  6.15893076e-01                                 
 2.03494840e-09  6.68958123e-01  2.03494840e-09  6.14453031e-01  2.03494840e-09  1.86058898e+00  2.03494840e-09  1.80000000e+00  2.03494840e-09 -7.22789532e-03  2.03494840e-09  6.14453031e-01                                 
 2.39561890e-09  6.67465571e-01  2.39561890e-09  6.13147226e-01  2.39561890e-09  1.87132255e+00  2.39561890e-09  1.80000000e+00  2.39561890e-09  6.91000194e-03  2.39561890e-09  6.13147226e-01                                 
 2.92301037e-09  6.65407723e-01  2.92301037e-09  6.11334821e-01  2.92301037e-09  1.87467966e+00  2.92301037e-09  1.80000000e+00  2.92301037e-09 -6.59997346e-03  2.92301037e-09  6.11334821e-01                                 
 3.59416420e-09  6.62978047e-01  3.59416420e-09  6.09177450e-01  3.59416420e-09  1.87394737e+00  3.59416420e-09  1.80000000e+00  3.59416420e-09  6.43599890e-03  3.59416420e-09  6.09177450e-01                                 
 4.73192132e-09  6.59260914e-01  4.73192132e-09  6.05842626e-01  4.73192132e-09  1.87023347e+00  4.73192132e-09  1.80000000e+00  4.73192132e-09 -6.29398621e-03  4.73192132e-09  6.05842626e-01                                 
 6.53210321e-09  6.54189832e-01  6.53210321e-09  6.01230406e-01  6.53210321e-09  1.86573599e+00  6.53210321e-09  1.80000000e+00  6.53210321e-09  6.24884592e-03  6.53210321e-09  6.01230406e-01                                 
 1.01324670e-08  6.46067161e-01  1.01324670e-08  5.93711523e-01  1.01324670e-08  1.85789721e+00  1.01324670e-08  1.80000000e+00  1.01324670e-08 -6.18401071e-03  1.01324670e-08  5.93711523e-01                                 
 1.27708525e-08  6.41350382e-01  1.27708525e-08  5.89269810e-01  1.27708525e-08  1.85366772e+00  1.27708525e-08  1.80000000e+00  1.27708525e-08  6.16503634e-03  1.27708525e-08  5.89269810e-01                                 
 1.45392394e-08  6.38587833e-01  1.45392394e-08  5.86646890e-01  1.45392394e-08  1.85073232e+00  1.45392394e-08  1.80000000e+00  1.45392394e-08 -6.06982789e-03  1.45392394e-08  5.86646890e-01                                 
 1.60071966e-08  6.36485767e-01  1.60071966e-08  5.84641637e-01  1.60071966e-08  1.84892625e+00  1.60071966e-08  1.80000000e+00  1.60071966e-08  6.01022367e-03  1.60071966e-08  5.84641637e-01                                 
 1.77917435e-08  6.34125314e-01  1.77917435e-08  5.82380974e-01  1.77917435e-08  1.84620992e+00  1.77917435e-08  1.80000000e+00  1.77917435e-08 -5.91974377e-03  1.77917435e-08  5.82380974e-01                                 
 1.99122143e-08  6.31556231e-01  1.99122143e-08  5.79910483e-01  1.99122143e-08  1.84364004e+00  1.99122143e-08  1.80000000e+00  1.99122143e-08  5.88548567e-03  1.99122143e-08  5.79910483e-01                                 
 2.24576249e-08  6.28753105e-01  2.24576249e-08  5.77204016e-01  2.24576249e-08  1.83995217e+00  2.24576249e-08  1.80000000e+00  2.24576249e-08 -5.81720593e-03  2.24576249e-08  5.77204016e-01                                 
 2.62424727e-08  6.25033706e-01  2.62424727e-08  5.73597950e-01  2.62424727e-08  1.83508804e+00  2.62424727e-08  1.80000000e+00  2.62424727e-08  5.80770668e-03  2.62424727e-08  5.73597950e-01                                 
 3.01161959e-08  6.21662460e-01  3.01161959e-08  5.70318097e-01  3.01161959e-08  1.82930270e+00  3.01161959e-08  1.80000000e+00  3.01161959e-08 -5.75591914e-03  3.01161959e-08  5.70318097e-01                                 
 3.78636422e-08  6.15755280e-01  3.78636422e-08  5.64572936e-01  3.78636422e-08  1.81870555e+00  3.78636422e-08  1.80000000e+00  3.78636422e-08  5.76272047e-03  3.78636422e-08  5.64572936e-01                                 
 5.02372529e-08  6.07438931e-01  5.02372529e-08  5.56591598e-01  5.02372529e-08  1.80461681e+00  5.02372529e-08  1.80000000e+00  5.02372529e-08 -5.73100915e-03  5.02372529e-08  5.56591598e-01                                 
 6.13233993e-08  6.01209751e-01  6.13233993e-08  5.50636960e-01  6.13233993e-08  1.79645702e+00  6.13233993e-08  1.80000000e+00  6.13233993e-08  5.74364742e-03  6.13233993e-08  5.50636960e-01                                 
 7.44663711e-08  5.92784240e-01  7.44663711e-08  5.42951653e-01  7.44663711e-08  1.77541831e+00  7.44663711e-08  1.80000000e+00  7.44663711e-08 -5.71311030e-03  7.44663711e-08  5.42951653e-01                                 
 8.99302036e-08  5.84488405e-01  8.99302036e-08  5.35383522e-01  8.99302036e-08  1.74569725e+00  8.99302036e-08  1.80000000e+00  8.99302036e-08  5.72740774e-03  8.99302036e-08  5.35383522e-01                                 
 1.05801149e-07  5.77100016e-01  1.05801149e-07  5.28671432e-01  1.05801149e-07  1.71731717e+00  1.05801149e-07  1.80000000e+00  1.05801149e-07 -5.69815340e-03  1.05801149e-07  5.28671432e-01                                 
 1.36080541e-07  5.67289419e-01  1.36080541e-07  5.19557004e-01  1.36080541e-07  1.66950360e+00  1.36080541e-07  1.80000000e+00  1.36080541e-07  5.71702275e-03  1.36080541e-07  5.19557004e-01                                 
 1.67034928e-07  5.70882376e-01  1.67034928e-07  5.21250119e-01  1.67034928e-07  1.66301727e+00  1.67034928e-07  1.80000000e+00  1.67034928e-07 -5.68803533e-03  1.67034928e-07  5.21250119e-01                                 
 1.89963443e-07  5.71612800e-01  1.89963443e-07  5.21074092e-01  1.89963443e-07  1.64456015e+00  1.89963443e-07  1.80000000e+00  1.89963443e-07  5.70741251e-03  1.89963443e-07  5.21074092e-01                                 
 2.12343794e-07  5.64785519e-01  2.12343794e-07  5.15019087e-01  2.12343794e-07  1.61293801e+00  2.12343794e-07  1.80000000e+00  2.12343794e-07 -5.67952381e-03  2.12343794e-07  5.15019087e-01                                 
 2.32583513e-07  5.59496429e-01  2.32583513e-07  5.10303430e-01  2.32583513e-07  1.58568563e+00  2.32583513e-07  1.80000000e+00  2.32583513e-07  5.69688623e-03  2.32583513e-07  5.10303430e-01                                 
 2.54286018e-07  5.54240406e-01  2.54286018e-07  5.05629745e-01  2.54286018e-07  1.55999306e+00  2.54286018e-07  1.80000000e+00  2.54286018e-07 -5.66851857e-03  2.54286018e-07  5.05629745e-01                                 
 2.90241540e-07  5.44430396e-01  2.90241540e-07  4.97121851e-01  2.90241540e-07  1.51339574e+00  2.90241540e-07  1.80000000e+00  2.90241540e-07  5.68829747e-03  2.90241540e-07  4.97121851e-01                                 
 3.35183731e-07  5.33442791e-01  3.35183731e-07  4.87656128e-01  3.35183731e-07  1.45831863e+00  3.35183731e-07  1.80000000e+00  3.35183731e-07 -5.66268558e-03  3.35183731e-07  4.87656128e-01                                 
 4.18631055e-07  5.07640731e-01  4.18631055e-07  4.66178251e-01  4.18631055e-07  1.34706587e+00  4.18631055e-07  1.80000000e+00  4.18631055e-07  5.68420945e-03  4.18631055e-07  4.66178251e-01                                 
 5.07650899e-07  4.88829614e-01  5.07650899e-07  4.50560347e-01  5.07650899e-07  1.23847067e+00  5.07650899e-07  1.80000000e+00  5.07650899e-07 -5.65975531e-03  5.07650899e-07  4.50560347e-01                                 
 5.89934080e-07  4.52916373e-01  5.89934080e-07  4.21619612e-01  5.89934080e-07  1.11678807e+00  5.89934080e-07  1.80000000e+00  5.89934080e-07  5.68083978e-03  5.89934080e-07  4.21619612e-01                                 
 6.73959155e-07  5.46095409e-01  6.73959155e-07  4.95875948e-01  6.73959155e-07  1.12075083e+00  6.73959155e-07  1.80000000e+00  6.73959155e-07 -5.65171457e-03  6.73959155e-07  4.95875948e-01                                 
 6.88321911e-07  6.25985020e-01  6.88321911e-07  5.62353700e-01  6.88321911e-07  1.18164791e+00  6.88321911e-07  1.80000000e+00  6.88321911e-07  8.42604129e-06  6.88321911e-07  5.62353700e-01                                 
 7.17047423e-07  7.22537023e-01  7.17047423e-07  6.63490080e-01  7.17047423e-07  1.24565275e+00  7.17047423e-07  1.80000000e+00  7.17047423e-07  7.20424389e-06  7.17047423e-07  6.63490080e-01                                 
 7.60073310e-07  7.78965695e-01  7.60073310e-07  7.18010048e-01  7.60073310e-07  1.25476537e+00  7.60073310e-07  1.80000000e+00  7.60073310e-07 -8.66578404e-07  7.60073310e-07  7.18010048e-01                                 
 8.04031884e-07  7.99526290e-01  8.04031884e-07  7.35083724e-01  8.04031884e-07  1.22907474e+00  8.04031884e-07  1.80000000e+00  8.04031884e-07  3.11674528e-06  8.04031884e-07  7.35083724e-01                                 
 8.48914342e-07  7.99775678e-01  8.48914342e-07  7.35473225e-01  8.48914342e-07  1.18255619e+00  8.48914342e-07  1.80000000e+00  8.48914342e-07 -2.92616514e-06  8.48914342e-07  7.35473225e-01                                 
 8.55185404e-07  7.99770756e-01  8.55185404e-07  7.35386738e-01  8.55185404e-07  1.17608145e+00  8.55185404e-07  1.80000000e+00  8.55185404e-07  6.26606820e-08  8.55185404e-07  7.35386738e-01                                 
 8.67727529e-07  7.99750336e-01  8.67727529e-07  7.35355734e-01  8.67727529e-07  1.16299553e+00  8.67727529e-07  1.80000000e+00  8.67727529e-07  8.70494586e-08  8.67727529e-07  7.35355734e-01                                 
 8.92811779e-07  7.99753684e-01  8.92811779e-07  7.35370550e-01  8.92811779e-07  1.13684300e+00  8.92811779e-07  1.80000000e+00  8.92811779e-07  7.91278753e-08  8.92811779e-07  7.35370550e-01                                 
 9.27585503e-07  7.97926754e-01  9.27585503e-07  7.33885994e-01  9.27585503e-07  1.09890475e+00  9.27585503e-07  1.80000000e+00  9.27585503e-07 -1.35870619e-07  9.27585503e-07  7.33885994e-01                                 
 9.60016685e-07  7.74520175e-01  9.60016685e-07  7.14083111e-01  9.60016685e-07  1.04355369e+00  9.60016685e-07  1.80000000e+00  9.60016685e-07 -2.86402170e-06  9.60016685e-07  7.14083111e-01                                 
 9.94247496e-07  7.44625010e-01  9.94247496e-07  6.86448080e-01  9.94247496e-07  9.81759030e-01  9.94247496e-07  1.80000000e+00  9.94247496e-07 -8.46372212e-07  9.94247496e-07  6.86448080e-01                                 
 9.99426062e-07  7.45190991e-01  9.99426062e-07  6.86980109e-01  9.99426062e-07  9.77441151e-01  9.99426062e-07  1.80000000e+00  9.99426062e-07  4.10065430e-07  9.99426062e-07  6.86980109e-01                                 
 1.00978319e-06  7.47196400e-01  1.00978319e-06  6.88865564e-01  1.00978319e-06  9.70074789e-01  1.00978319e-06  1.80000000e+00  1.00978319e-06  8.49972762e-07  1.00978319e-06  6.88865564e-01                                 
 1.03049746e-06  7.59211136e-01  1.03049746e-06  7.00073274e-01  1.03049746e-06  9.63117760e-01  1.03049746e-06  1.80000000e+00  1.03049746e-06  2.17560849e-06  1.03049746e-06  7.00073274e-01                                 
 1.06544268e-06  7.76844244e-01  1.06544268e-06  7.16021609e-01  1.06544268e-06  9.50267882e-01  1.06544268e-06  1.80000000e+00  1.06544268e-06  5.44582363e-07  1.06544268e-06  7.16021609e-01                                 
 1.10210725e-06  7.83222998e-01  1.10210725e-06  7.21575330e-01  1.10210725e-06  9.27614807e-01  1.10210725e-06  1.80000000e+00  1.10210725e-06  7.41360319e-07  1.10210725e-06  7.21575330e-01                                 
 1.17461964e-06  7.79120174e-01  1.17461964e-06  7.18040362e-01  1.17461964e-06  8.74508292e-01  1.17461964e-06  1.80000000e+00  1.17461964e-06 -3.54048419e-07  1.17461964e-06  7.18040362e-01                                 
 1.24565573e-06  7.70009792e-01  1.24565573e-06  7.09965230e-01  1.24565573e-06  8.23477174e-01  1.24565573e-06  1.80000000e+00  1.24565573e-06  5.28690152e-07  1.24565573e-06  7.09965230e-01                                 
 1.35104785e-06  7.77706369e-01  1.35104785e-06  7.16783376e-01  1.35104785e-06  7.76440674e-01  1.35104785e-06  1.80000000e+00  1.35104785e-06  6.27617996e-07  1.35104785e-06  7.16783376e-01                                 
 1.47925464e-06  7.77805517e-01  1.47925464e-06  7.16887011e-01  1.47925464e-06  7.34630938e-01  1.47925464e-06  1.80000000e+00  1.47925464e-06  3.90472657e-07  1.47925464e-06  7.16887011e-01                                 
 1.61376233e-06  7.72223134e-01  1.61376233e-06  7.11940584e-01  1.61376233e-06  7.09920130e-01  1.61376233e-06  1.80000000e+00  1.61376233e-06  5.89404619e-07  1.61376233e-06  7.11940584e-01                                 
 1.76438624e-06  7.79604991e-01  1.76438624e-06  7.18448956e-01  1.76438624e-06  7.06801916e-01  1.76438624e-06  1.80000000e+00  1.76438624e-06  8.30408639e-07  1.76438624e-06  7.18448956e-01                                 
 1.92103110e-06  7.73334591e-01  1.92103110e-06  7.12940172e-01  1.92103110e-06  7.09597335e-01  1.92103110e-06  1.80000000e+00  1.92103110e-06  3.01399132e-07  1.92103110e-06  7.12940172e-01                                 
 2.09559121e-06  7.76950029e-01  2.09559121e-06  7.16120283e-01  2.09559121e-06  7.20612634e-01  2.09559121e-06  1.80000000e+00  2.09559121e-06  1.07326654e-06  2.09559121e-06  7.16120283e-01                                 
 2.28711829e-06  7.76472172e-01  2.28711829e-06  7.15716431e-01  2.28711829e-06  7.12431091e-01  2.28711829e-06  1.80000000e+00  2.28711829e-06  1.47021541e-07  2.28711829e-06  7.15716431e-01                                 
 2.46310582e-06  7.74412063e-01  2.46310582e-06  7.13882492e-01  2.46310582e-06  7.14662685e-01  2.46310582e-06  1.80000000e+00  2.46310582e-06  1.07979476e-06  2.46310582e-06  7.13882492e-01                                 
 2.66272601e-06  7.78016339e-01  2.66272601e-06  7.17067994e-01  2.66272601e-06  7.17564082e-01  2.66272601e-06  1.80000000e+00  2.66272601e-06  2.52603350e-07  2.66272601e-06  7.17067994e-01                                 
 2.91312890e-06  7.73912984e-01  2.91312890e-06  7.13444147e-01  2.91312890e-06  7.12950075e-01  2.91312890e-06  1.80000000e+00  2.91312890e-06  9.35631382e-07  2.91312890e-06  7.13444147e-01                                 
 3.30710416e-06  7.77854263e-01  3.30710416e-06  7.16923202e-01  3.30710416e-06  7.17685977e-01  3.30710416e-06  1.80000000e+00  3.30710416e-06  3.66942379e-07  3.30710416e-06  7.16923202e-01                                 
 3.74398347e-06  7.74311021e-01  3.74398347e-06  7.13799113e-01  3.74398347e-06  7.13309555e-01  3.74398347e-06  1.80000000e+00  3.74398347e-06  8.56300577e-07  3.74398347e-06  7.13799113e-01                                 
 4.38756008e-06  7.77460887e-01  4.38756008e-06  7.16577045e-01  4.38756008e-06  7.17260385e-01  4.38756008e-06  1.80000000e+00  4.38756008e-06  4.24119721e-07  4.38756008e-06  7.16577045e-01                                 
 5.23016201e-06  7.74670493e-01  5.23016201e-06  7.14118343e-01  5.23016201e-06  7.13701414e-01  5.23016201e-06  1.80000000e+00  5.23016201e-06  8.20121316e-07  5.23016201e-06  7.14118343e-01                                 
 6.23016201e-06  7.77172251e-01  6.23016201e-06  7.16323166e-01  6.23016201e-06  7.16939260e-01  6.23016201e-06  1.80000000e+00  6.23016201e-06  4.49813598e-07  6.23016201e-06  7.16323166e-01                                 
 7.23016201e-06  7.74966680e-01  7.23016201e-06  7.14380859e-01  7.23016201e-06  7.14023536e-01  7.23016201e-06  1.80000000e+00  7.23016201e-06  7.99258123e-07  7.23016201e-06  7.14380859e-01                                 
 8.23016201e-06  7.76884149e-01  8.23016201e-06  7.16069702e-01  8.23016201e-06  7.16622685e-01  8.23016201e-06  1.80000000e+00  8.23016201e-06  4.68151252e-07  8.23016201e-06  7.16069702e-01                                 
 9.23016201e-06  7.75275946e-01  9.23016201e-06  7.14654542e-01  9.23016201e-06  7.14359043e-01  9.23016201e-06  1.80000000e+00  9.23016201e-06  7.83502279e-07  9.23016201e-06  7.14654542e-01                                 
 1.00005000e-05  7.76542633e-01  1.00005000e-05  7.15769169e-01  1.00005000e-05  7.16245057e-01  1.00005000e-05  1.80000000e+00  1.00005000e-05  4.82800325e-07  1.00005000e-05  7.15769169e-01                                 
 1.00005500e-05  7.76543031e-01  1.00005500e-05  7.15770044e-01  1.00005500e-05  7.09206885e-01  1.00005500e-05  1.62000000e+00  1.00005500e-05 -1.17593411e-04  1.00005500e-05  7.15770044e-01                                 
