 time            v(vbep)         time            v(vben)         time            v(vout)         time            v(vphi1)        time            v(vphi2)        time            v(vref)         yes             currtemp       
 0.00000000e+00  5.77331135e-01  0.00000000e+00  5.13849392e-01  0.00000000e+00  1.45977698e-01  0.00000000e+00  0.00000000e+00  0.00000000e+00  1.79997653e+00  0.00000000e+00  5.00000000e-01  1.00000000e+00  7.50000000e+01 
 5.00000000e-12  5.77313933e-01  5.00000000e-12  5.13835094e-01  5.00000000e-12  1.46544785e-01  5.00000000e-12  1.80000000e-02  5.00000000e-12  1.80006830e+00  5.00000000e-12  5.00000000e-01                                 
 1.00000000e-11  5.77296951e-01  1.00000000e-11  5.13821088e-01  1.00000000e-11  1.47054354e-01  1.00000000e-11  3.60000000e-02  1.00000000e-11  1.80011376e+00  1.00000000e-11  5.00000000e-01                                 
 2.00000000e-11  5.77263099e-01  2.00000000e-11  5.13793151e-01  2.00000000e-11  1.47986663e-01  2.00000000e-11  7.20000000e-02  2.00000000e-11  1.80015392e+00  2.00000000e-11  5.00000000e-01                                 
 4.00000000e-11  5.77195596e-01  4.00000000e-11  5.13737413e-01  4.00000000e-11  1.49456136e-01  4.00000000e-11  1.44000000e-01  4.00000000e-11  1.80012551e+00  4.00000000e-11  5.00000000e-01                                 
 8.00000000e-11  5.77060975e-01  8.00000000e-11  5.13626213e-01  8.00000000e-11  1.51455472e-01  8.00000000e-11  2.88000000e-01  8.00000000e-11  1.80007485e+00  8.00000000e-11  5.00000000e-01                                 
 1.60000000e-10  5.76793333e-01  1.60000000e-10  5.13404908e-01  1.60000000e-10  1.53917265e-01  1.60000000e-10  5.76000000e-01  1.60000000e-10  1.80003199e+00  1.60000000e-10  5.00000000e-01                                 
 3.20000000e-10  5.76264234e-01  3.20000000e-10  5.12966582e-01  3.20000000e-10  1.79167246e-01  3.20000000e-10  1.15200000e+00  3.20000000e-10  1.80022596e+00  3.20000000e-10  5.00000000e-01                                 
 5.00000000e-10  5.75678643e-01  5.00000000e-10  5.12480152e-01  5.00000000e-10  4.76298665e-01  5.00000000e-10  1.80000000e+00  5.00000000e-10  1.34627481e-01  5.00000000e-10  5.00000000e-01                                 
 5.22536012e-10  5.75606118e-01  5.22536012e-10  5.12419802e-01  5.22536012e-10  5.38946879e-01  5.22536012e-10  1.80000000e+00  5.22536012e-10  2.81992271e-02  5.22536012e-10  5.00000000e-01                                 
 5.67608035e-10  5.75461378e-01  5.67608035e-10  5.12299319e-01  5.67608035e-10  6.54544889e-01  5.67608035e-10  1.80000000e+00  5.67608035e-10 -1.29183442e-02  5.67608035e-10  5.00000000e-01                                 
 6.57752082e-10  5.75173763e-01  6.57752082e-10  5.12059662e-01  6.57752082e-10  8.37520090e-01  6.57752082e-10  1.80000000e+00  6.57752082e-10  1.05519858e-02  6.57752082e-10  5.00000000e-01                                 
 7.80635252e-10  5.74785605e-01  7.80635252e-10  5.11735712e-01  7.80635252e-10  1.02473557e+00  7.80635252e-10  1.80000000e+00  7.80635252e-10 -8.95209734e-03  7.80635252e-10  5.00000000e-01                                 
 9.77465705e-10  5.74172964e-01  9.77465705e-10  5.11223224e-01  9.77465705e-10  1.25741546e+00  9.77465705e-10  1.80000000e+00  9.77465705e-10  8.33121910e-03  9.77465705e-10  5.00000000e-01                                 
 1.29754328e-09  5.73199663e-01  1.29754328e-09  5.10406088e-01  1.29754328e-09  1.52731454e+00  1.29754328e-09  1.80000000e+00  1.29754328e-09 -7.75664819e-03  1.29754328e-09  5.00000000e-01                                 
 1.90756370e-09  5.71418038e-01  1.90756370e-09  5.08901206e-01  1.90756370e-09  1.76173556e+00  1.90756370e-09  1.80000000e+00  1.90756370e-09  7.65956409e-03  1.90756370e-09  5.00000000e-01                                 
 2.18350333e-09  5.70642229e-01  2.18350333e-09  5.08242156e-01  2.18350333e-09  1.79156249e+00  2.18350333e-09  1.80000000e+00  2.18350333e-09 -7.09643996e-03  2.18350333e-09  5.00000000e-01                                 
 2.51009643e-09  5.69746377e-01  2.51009643e-09  5.07478422e-01  2.51009643e-09  1.80672614e+00  2.51009643e-09  1.80000000e+00  2.51009643e-09  6.81396784e-03  2.51009643e-09  5.00000000e-01                                 
 2.87925492e-09  5.68761501e-01  2.87925492e-09  5.06635495e-01  2.87925492e-09  1.81326537e+00  2.87925492e-09  1.80000000e+00  2.87925492e-09 -6.43606966e-03  2.87925492e-09  5.00000000e-01                                 
 3.60264552e-09  5.66910256e-01  3.60264552e-09  5.05042075e-01  3.60264552e-09  1.81546079e+00  3.60264552e-09  1.80000000e+00  3.60264552e-09  6.34937938e-03  3.60264552e-09  5.00000000e-01                                 
 4.36811630e-09  5.65055845e-01  4.36811630e-09  5.03434297e-01  4.36811630e-09  1.81392501e+00  4.36811630e-09  1.80000000e+00  4.36811630e-09 -6.15351558e-03  4.36811630e-09  5.00000000e-01                                 
 5.88025625e-09  5.61661756e-01  5.88025625e-09  5.00463818e-01  5.88025625e-09  1.81034045e+00  5.88025625e-09  1.80000000e+00  5.88025625e-09  6.14314664e-03  5.88025625e-09  5.00000000e-01                                 
 8.22044942e-09  5.56987285e-01  8.22044942e-09  4.96317868e-01  8.22044942e-09  1.80426722e+00  8.22044942e-09  1.80000000e+00  8.22044942e-09 -6.03956319e-03  8.22044942e-09  5.00000000e-01                                 
 9.73657567e-09  5.54272384e-01  9.73657567e-09  4.93881398e-01  9.73657567e-09  1.80077934e+00  9.73657567e-09  1.80000000e+00  9.73657567e-09  6.02366879e-03  9.73657567e-09  5.00000000e-01                                 
 1.12590445e-08  5.51746987e-01  1.12590445e-08  4.91598288e-01  1.12590445e-08  1.79740295e+00  1.12590445e-08  1.80000000e+00  1.12590445e-08 -5.91067449e-03  1.12590445e-08  5.00000000e-01                                 
 1.30731360e-08  5.48963264e-01  1.30731360e-08  4.89064152e-01  1.30731360e-08  1.79366301e+00  1.30731360e-08  1.80000000e+00  1.30731360e-08  5.89854018e-03  1.30731360e-08  5.00000000e-01                                 
 1.47695454e-08  5.46554339e-01  1.47695454e-08  4.86856872e-01  1.47695454e-08  1.79018027e+00  1.47695454e-08  1.80000000e+00  1.47695454e-08 -5.79911068e-03  1.47695454e-08  5.00000000e-01                                 
 1.66938167e-08  5.44019602e-01  1.66938167e-08  4.84520462e-01  1.66938167e-08  1.78642208e+00  1.66938167e-08  1.80000000e+00  1.66938167e-08  5.78774975e-03  1.66938167e-08  5.00000000e-01                                 
 1.88319056e-08  5.41420441e-01  1.88319056e-08  4.82110002e-01  1.88319056e-08  1.78224906e+00  1.88319056e-08  1.80000000e+00  1.88319056e-08 -5.70335108e-03  1.88319056e-08  5.00000000e-01                                 
 2.20661937e-08  5.37861219e-01  2.20661937e-08  4.78785068e-01  2.20661937e-08  1.77625191e+00  2.20661937e-08  1.80000000e+00  2.20661937e-08  5.71190430e-03  2.20661937e-08  5.00000000e-01                                 
 2.64356475e-08  5.33646702e-01  2.64356475e-08  4.74810668e-01  2.64356475e-08  1.76847303e+00  2.64356475e-08  1.80000000e+00  2.64356475e-08 -5.65166090e-03  2.64356475e-08  5.00000000e-01                                 
 3.47185189e-08  5.27018491e-01  3.47185189e-08  4.68482510e-01  3.47185189e-08  1.75491533e+00  3.47185189e-08  1.80000000e+00  3.47185189e-08  5.67838450e-03  3.47185189e-08  5.00000000e-01                                 
 4.99690203e-08  5.17642449e-01  4.99690203e-08  4.59406748e-01  4.99690203e-08  1.73150514e+00  4.99690203e-08  1.80000000e+00  4.99690203e-08 -5.63374600e-03  4.99690203e-08  5.00000000e-01                                 
 8.04700232e-08  5.04379921e-01  8.04700232e-08  4.46423538e-01  8.04700232e-08  1.68880855e+00  8.04700232e-08  1.80000000e+00  8.04700232e-08  5.66920860e-03  8.04700232e-08  5.00000000e-01                                 
 1.24560079e-07  4.89552289e-01  1.24560079e-07  4.32185833e-01  1.24560079e-07  1.63031251e+00  1.24560079e-07  1.80000000e+00  1.24560079e-07 -5.62836647e-03  1.24560079e-07  5.00000000e-01                                 
 1.71174925e-07  4.74335308e-01  1.71174925e-07  4.18249721e-01  1.71174925e-07  1.56810451e+00  1.71174925e-07  1.80000000e+00  1.71174925e-07  5.66503534e-03  1.71174925e-07  5.00000000e-01                                 
 2.38856999e-07  4.54689652e-01  2.38856999e-07  4.00695477e-01  2.38856999e-07  1.47828649e+00  2.38856999e-07  1.80000000e+00  2.38856999e-07 -5.62491203e-03  2.38856999e-07  5.00000000e-01                                 
 3.13039799e-07  4.34367063e-01  3.13039799e-07  3.83060343e-01  3.13039799e-07  1.37970525e+00  3.13039799e-07  1.80000000e+00  3.13039799e-07  5.66239029e-03  3.13039799e-07  5.00000000e-01                                 
 4.44870291e-07  3.93451938e-01  4.44870291e-07  3.48910183e-01  4.44870291e-07  1.19921587e+00  4.44870291e-07  1.80000000e+00  4.44870291e-07 -5.62289300e-03  4.44870291e-07  5.00000000e-01                                 
 4.77827914e-07  3.81541446e-01  4.77827914e-07  3.39216395e-01  4.77827914e-07  1.15294518e+00  4.77827914e-07  1.80000000e+00  4.77827914e-07  5.56376680e-06  4.77827914e-07  5.00000000e-01                                 
 5.43743161e-07  3.58689612e-01  5.43743161e-07  3.20670774e-01  5.43743161e-07  1.06436720e+00  5.43743161e-07  1.80000000e+00  5.43743161e-07  6.93540589e-06  5.43743161e-07  5.00000000e-01                                 
 6.10195582e-07  3.96206791e-01  6.10195582e-07  3.50553616e-01  6.10195582e-07  1.03752266e+00  6.10195582e-07  1.80000000e+00  6.10195582e-07  6.48508352e-06  6.10195582e-07  5.00000000e-01                                 
 6.20896643e-07  4.22366036e-01  6.20896643e-07  3.71422914e-01  6.20896643e-07  1.05207898e+00  6.20896643e-07  1.80000000e+00  6.20896643e-07  7.68369907e-06  6.20896643e-07  5.00000000e-01                                 
 6.42298764e-07  5.15379498e-01  6.42298764e-07  4.46345634e-01  6.42298764e-07  1.11911534e+00  6.42298764e-07  1.80000000e+00  6.42298764e-07  9.89324447e-06  6.42298764e-07  5.00000000e-01                                 
 6.69598463e-07  6.37399488e-01  6.69598463e-07  5.69272998e-01  6.69598463e-07  1.20832644e+00  6.69598463e-07  1.80000000e+00  6.69598463e-07  9.22060846e-06  6.69598463e-07  5.00000000e-01                                 
 6.90932765e-07  6.73074552e-01  6.90932765e-07  6.07117962e-01  6.90932765e-07  1.22023973e+00  6.90932765e-07  1.80000000e+00  6.90932765e-07  6.55687794e-06  6.90932765e-07  5.00000000e-01                                 
 7.11193253e-07  6.93561723e-01  7.11193253e-07  6.25425535e-01  7.11193253e-07  1.21772400e+00  7.11193253e-07  1.80000000e+00  7.11193253e-07  7.81068333e-06  7.11193253e-07  5.00000000e-01                                 
 7.38484489e-07  7.10112010e-01  7.38484489e-07  6.40474081e-01  7.38484489e-07  1.20462638e+00  7.38484489e-07  1.80000000e+00  7.38484489e-07  6.09686366e-06  7.38484489e-07  5.00000000e-01                                 
 7.67878409e-07  7.19853485e-01  7.67878409e-07  6.48580251e-01  7.67878409e-07  1.18212056e+00  7.67878409e-07  1.80000000e+00  7.67878409e-07  7.26027156e-06  7.67878409e-07  5.00000000e-01                                 
 8.26666248e-07  7.27605769e-01  8.26666248e-07  6.55176849e-01  8.26666248e-07  1.12778930e+00  8.26666248e-07  1.80000000e+00  8.26666248e-07  5.82674118e-06  8.26666248e-07  5.00000000e-01                                 
 8.88977131e-07  7.26128550e-01  8.88977131e-07  6.53831212e-01  8.88977131e-07  1.06361421e+00  8.88977131e-07  1.80000000e+00  8.88977131e-07  6.97946743e-06  8.88977131e-07  5.00000000e-01                                 
 9.01811153e-07  7.22550955e-01  9.01811153e-07  6.50945772e-01  9.01811153e-07  1.04850809e+00  9.01811153e-07  1.80000000e+00  9.01811153e-07  6.22514233e-06  9.01811153e-07  5.00000000e-01                                 
 9.27479196e-07  7.11712235e-01  9.27479196e-07  6.41785813e-01  9.27479196e-07  1.01568462e+00  9.27479196e-07  1.80000000e+00  9.27479196e-07  5.96838974e-06  9.27479196e-07  5.00000000e-01                                 
 9.78815283e-07  7.02945164e-01  9.78815283e-07  6.34080701e-01  9.78815283e-07  9.67064662e-01  9.78815283e-07  1.80000000e+00  9.78815283e-07  6.59442022e-06  9.78815283e-07  5.00000000e-01                                 
 1.02983140e-06  7.15130344e-01  1.02983140e-06  6.44674056e-01  1.02983140e-06  9.41728605e-01  1.02983140e-06  1.80000000e+00  1.02983140e-06  6.64119656e-06  1.02983140e-06  5.00000000e-01                                 
 1.09672310e-06  7.17065822e-01  1.09672310e-06  6.46331519e-01  1.09672310e-06  8.98935084e-01  1.09672310e-06  1.80000000e+00  1.09672310e-06  6.27074639e-06  1.09672310e-06  5.00000000e-01                                 
 1.16877266e-06  7.09338050e-01  1.16877266e-06  6.39705443e-01  1.16877266e-06  8.47002660e-01  1.16877266e-06  1.80000000e+00  1.16877266e-06  6.40598757e-06  1.16877266e-06  5.00000000e-01                                 
 1.28272433e-06  7.13491709e-01  1.28272433e-06  6.43271049e-01  1.28272433e-06  7.82179339e-01  1.28272433e-06  1.80000000e+00  1.28272433e-06  6.50487883e-06  1.28272433e-06  5.00000000e-01                                 
 1.39905944e-06  7.14817651e-01  1.39905944e-06  6.44423326e-01  1.39905944e-06  7.16211340e-01  1.39905944e-06  1.80000000e+00  1.39905944e-06  6.36864500e-06  1.39905944e-06  5.00000000e-01                                 
 1.57861966e-06  7.10254466e-01  1.57861966e-06  6.40486649e-01  1.57861966e-06  6.14844001e-01  1.57861966e-06  1.80000000e+00  1.57861966e-06  6.44301252e-06  1.57861966e-06  5.00000000e-01                                 
 1.81027467e-06  7.15580596e-01  1.81027467e-06  6.45068743e-01  1.81027467e-06  5.27569975e-01  1.81027467e-06  1.80000000e+00  1.81027467e-06  6.44882710e-06  1.81027467e-06  5.00000000e-01                                 
 2.12589448e-06  7.10386351e-01  2.12589448e-06  6.40605037e-01  2.12589448e-06  4.87327666e-01  2.12589448e-06  1.80000000e+00  2.12589448e-06  6.37977167e-06  2.12589448e-06  5.00000000e-01                                 
 2.16492705e-06  7.11976497e-01  2.16492705e-06  6.41977254e-01  2.16492705e-06  4.92474944e-01  2.16492705e-06  1.80000000e+00  2.16492705e-06  6.45867186e-06  2.16492705e-06  5.00000000e-01                                 
 2.24299221e-06  7.13854542e-01  2.24299221e-06  6.43591235e-01  2.24299221e-06  5.00017728e-01  2.24299221e-06  1.80000000e+00  2.24299221e-06  6.43280933e-06  2.24299221e-06  5.00000000e-01                                 
 2.39912251e-06  7.12455041e-01  2.39912251e-06  6.42392413e-01  2.39912251e-06  5.00493699e-01  2.39912251e-06  1.80000000e+00  2.39912251e-06  6.40468596e-06  2.39912251e-06  5.00000000e-01                                 
 2.61438981e-06  7.13091530e-01  2.61438981e-06  6.42936087e-01  2.61438981e-06  4.99905708e-01  2.61438981e-06  1.80000000e+00  2.61438981e-06  6.45298570e-06  2.61438981e-06  5.00000000e-01                                 
 2.97478594e-06  7.13005140e-01  2.97478594e-06  6.42865249e-01  2.97478594e-06  5.00628784e-01  2.97478594e-06  1.80000000e+00  2.97478594e-06  6.39950642e-06  2.97478594e-06  5.00000000e-01                                 
 3.47481845e-06  7.12770095e-01  3.47481845e-06  6.42660173e-01  3.47481845e-06  4.99781566e-01  3.47481845e-06  1.80000000e+00  3.47481845e-06  6.45246091e-06  3.47481845e-06  5.00000000e-01                                 
 4.43159693e-06  7.13190542e-01  4.43159693e-06  6.43024229e-01  4.43159693e-06  5.00721588e-01  4.43159693e-06  1.80000000e+00  4.43159693e-06  6.40110642e-06  4.43159693e-06  5.00000000e-01                                 
 5.43159693e-06  7.12656646e-01  5.43159693e-06  6.42562819e-01  5.43159693e-06  4.99720740e-01  5.43159693e-06  1.80000000e+00  5.43159693e-06  6.45079062e-06  5.43159693e-06  5.00000000e-01                                 
 6.43159693e-06  7.13290634e-01  6.43159693e-06  6.43109948e-01  6.43159693e-06  5.00779465e-01  6.43159693e-06  1.80000000e+00  6.43159693e-06  6.40309223e-06  6.43159693e-06  5.00000000e-01                                 
 7.43159693e-06  7.12565246e-01  7.43159693e-06  6.42484421e-01  7.43159693e-06  4.99664369e-01  7.43159693e-06  1.80000000e+00  7.43159693e-06  6.44849403e-06  7.43159693e-06  5.00000000e-01                                 
 8.43159693e-06  7.13370722e-01  8.43159693e-06  6.43178456e-01  8.43159693e-06  5.00831901e-01  8.43159693e-06  1.80000000e+00  8.43159693e-06  6.40566566e-06  8.43159693e-06  5.00000000e-01                                 
 9.43159693e-06  7.12494145e-01  9.43159693e-06  6.42423487e-01  9.43159693e-06  4.99617117e-01  9.43159693e-06  1.80000000e+00  9.43159693e-06  6.44567797e-06  9.43159693e-06  5.00000000e-01                                 
 1.00005000e-05  7.13447238e-01  1.00005000e-05  6.43243779e-01  1.00005000e-05  5.00884699e-01  1.00005000e-05  1.80000000e+00  1.00005000e-05  6.40991824e-06  1.00005000e-05  5.00000000e-01                                 
 1.00005500e-05  7.13446211e-01  1.00005500e-05  6.43242901e-01  1.00005500e-05  4.93375059e-01  1.00005500e-05  1.62000000e+00  1.00005500e-05 -7.89463090e-05  1.00005500e-05  5.00000000e-01                                 
 1.00006500e-05  7.13444170e-01  1.00006500e-05  6.43241153e-01  1.00006500e-05  4.79691229e-01  1.00006500e-05  1.26000000e+00  1.00006500e-05 -6.58963531e-05  1.00006500e-05  5.00000000e-01                                 
 1.00008500e-05  7.13440136e-01  1.00008500e-05  6.43237698e-01  1.00008500e-05  4.77802481e-01  1.00008500e-05  5.40000000e-01  1.00008500e-05  3.82855618e-02  1.00008500e-05  5.00000000e-01                                 
 1.00010000e-05  7.13437047e-01  1.00010000e-05  6.43235072e-01  1.00010000e-05  4.41905534e-01  1.00010000e-05  0.00000000e+00  1.00010000e-05  1.60616359e+00  1.00010000e-05  5.00000000e-01                                 
 1.00010249e-05  7.13436509e-01  1.00010249e-05  6.43234620e-01  1.00010249e-05  4.20014455e-01  1.00010249e-05  0.00000000e+00  1.00010249e-05  1.73483353e+00  1.00010249e-05  5.00000000e-01                                 
 1.00010748e-05  7.13435480e-01  1.00010748e-05  6.43233735e-01  1.00010748e-05  3.80908124e-01  1.00010748e-05  0.00000000e+00  1.00010748e-05  1.81848082e+00  1.00010748e-05  5.00000000e-01                                 
 1.00011746e-05  7.13433547e-01  1.00011746e-05  6.43232044e-01  1.00011746e-05  3.40618458e-01  1.00011746e-05  0.00000000e+00  1.00011746e-05  1.78672873e+00  1.00011746e-05  5.00000000e-01                                 
 1.00013113e-05  7.13430902e-01  1.00013113e-05  6.43229776e-01  1.00013113e-05  3.32322457e-01  1.00013113e-05  0.00000000e+00  1.00013113e-05  1.80869720e+00  1.00013113e-05  5.00000000e-01                                 
 1.00015293e-05  7.13426557e-01  1.00015293e-05  6.43226073e-01  1.00015293e-05  3.32368548e-01  1.00015293e-05  0.00000000e+00  1.00015293e-05  1.79280125e+00  1.00015293e-05  5.00000000e-01                                 
 1.00017591e-05  7.13421822e-01  1.00017591e-05  6.43222034e-01  1.00017591e-05  3.32734972e-01  1.00017591e-05  0.00000000e+00  1.00017591e-05  1.80578891e+00  1.00017591e-05  5.00000000e-01                                 
 1.00021588e-05  7.13413378e-01  1.00021588e-05  6.43214825e-01  1.00021588e-05  3.32545222e-01  1.00021588e-05  0.00000000e+00  1.00021588e-05  1.79482556e+00  1.00021588e-05  5.00000000e-01                                 
 1.00026453e-05  7.13403009e-01  1.00026453e-05  6.43205949e-01  1.00026453e-05  3.32746107e-01  1.00026453e-05  0.00000000e+00  1.00026453e-05  1.80467323e+00  1.00026453e-05  5.00000000e-01                                 
