 time            v(vbep)         time            v(vben)         time            v(vout)         time            v(vphi1)        time            v(vphi2)        time            v(vref)         yes             currtemp       
 0.00000000e+00  7.94464184e-01  0.00000000e+00  7.50396295e-01  0.00000000e+00  1.04619428e+00  0.00000000e+00  0.00000000e+00  0.00000000e+00  1.79995729e+00  0.00000000e+00  7.50396295e-01  1.00000000e+00 -3.20000000e+01 
 5.00000000e-12  7.94439769e-01  5.00000000e-12  7.50376032e-01  5.00000000e-12  1.04693034e+00  5.00000000e-12  1.80000000e-02  5.00000000e-12  1.80007622e+00  5.00000000e-12  7.50376032e-01                                 
 1.00000000e-11  7.94416022e-01  1.00000000e-11  7.50356284e-01  1.00000000e-11  1.04761442e+00  1.00000000e-11  3.60000000e-02  1.00000000e-11  1.80014783e+00  1.00000000e-11  7.50356284e-01                                 
 2.00000000e-11  7.94368944e-01  2.00000000e-11  7.50316941e-01  2.00000000e-11  1.04890003e+00  2.00000000e-11  7.20000000e-02  2.00000000e-11  1.80023119e+00  2.00000000e-11  7.50316941e-01                                 
 4.00000000e-11  7.94275508e-01  4.00000000e-11  7.50238574e-01  4.00000000e-11  1.05109759e+00  4.00000000e-11  1.44000000e-01  4.00000000e-11  1.80023917e+00  4.00000000e-11  7.50238574e-01                                 
 8.00000000e-11  7.94089612e-01  8.00000000e-11  7.50082589e-01  8.00000000e-11  1.05434190e+00  8.00000000e-11  2.88000000e-01  8.00000000e-11  1.80016560e+00  8.00000000e-11  7.50082589e-01                                 
 1.60000000e-10  7.93722079e-01  1.60000000e-10  7.49773635e-01  1.60000000e-10  1.05800435e+00  1.60000000e-10  5.76000000e-01  1.60000000e-10  1.80007046e+00  1.60000000e-10  7.49773635e-01                                 
 3.20000000e-10  7.93003047e-01  3.20000000e-10  7.49167357e-01  3.20000000e-10  1.04752964e+00  3.20000000e-10  1.15200000e+00  3.20000000e-10  1.80023480e+00  3.20000000e-10  7.49167357e-01                                 
 5.00000000e-10  7.92218761e-01  5.00000000e-10  7.48503151e-01  5.00000000e-10  1.11220808e+00  5.00000000e-10  1.80000000e+00  5.00000000e-10  1.10167961e-01  5.00000000e-10  7.48503151e-01                                 
 5.20113027e-10  7.92132855e-01  5.20113027e-10  7.48430201e-01  5.20113027e-10  1.13093345e+00  5.20113027e-10  1.80000000e+00  5.20113027e-10  2.35251061e-02  5.20113027e-10  7.48430201e-01                                 
 5.60339081e-10  7.91961639e-01  5.60339081e-10  7.48284727e-01  5.60339081e-10  1.16841088e+00  5.60339081e-10  1.80000000e+00  5.60339081e-10 -9.92097717e-03  5.60339081e-10  7.48284727e-01                                 
 6.40791189e-10  7.91622798e-01  6.40791189e-10  7.47996418e-01  6.40791189e-10  1.23740937e+00  6.40791189e-10  1.80000000e+00  6.40791189e-10  8.70959715e-03  6.40791189e-10  7.47996418e-01                                 
 7.61275341e-10  7.91124084e-01  7.61275341e-10  7.47571081e-01  7.61275341e-10  1.33299364e+00  7.61275341e-10  1.80000000e+00  7.61275341e-10 -7.07596052e-03  7.61275341e-10  7.47571081e-01                                 
 9.39917322e-10  7.90403094e-01  9.39917322e-10  7.46954100e-01  9.39917322e-10  1.45557163e+00  9.39917322e-10  1.80000000e+00  9.39917322e-10  7.06638100e-03  9.39917322e-10  7.46954100e-01                                 
 1.29720128e-09  7.89022444e-01  1.29720128e-09  7.45765963e-01  1.29720128e-09  1.62715089e+00  1.29720128e-09  1.80000000e+00  1.29720128e-09 -6.31667535e-03  1.29720128e-09  7.45765963e-01                                 
 1.76579180e-09  7.87324476e-01  1.76579180e-09  7.44292873e-01  1.76579180e-09  1.74016956e+00  1.76579180e-09  1.80000000e+00  1.76579180e-09  6.36821762e-03  1.76579180e-09  7.44292873e-01                                 
 2.16397942e-09  7.85972025e-01  2.16397942e-09  7.43110214e-01  2.16397942e-09  1.77651703e+00  2.16397942e-09  1.80000000e+00  2.16397942e-09 -6.00436935e-03  2.16397942e-09  7.43110214e-01                                 
 2.59838898e-09  7.84580114e-01  2.59838898e-09  7.41884762e-01  2.59838898e-09  1.79149389e+00  2.59838898e-09  1.80000000e+00  2.59838898e-09  5.85757201e-03  2.59838898e-09  7.41884762e-01                                 
 3.09741923e-09  7.83076988e-01  3.09741923e-09  7.40552244e-01  3.09741923e-09  1.79594327e+00  3.09741923e-09  1.80000000e+00  3.09741923e-09 -5.64098783e-03  3.09741923e-09  7.40552244e-01                                 
 3.88793576e-09  7.80876757e-01  3.88793576e-09  7.38585502e-01  3.88793576e-09  1.79625327e+00  3.88793576e-09  1.80000000e+00  3.88793576e-09  5.55751655e-03  3.88793576e-09  7.38585502e-01                                 
 5.01021846e-09  7.78072155e-01  5.01021846e-09  7.36051752e-01  5.01021846e-09  1.79340171e+00  5.01021846e-09  1.80000000e+00  5.01021846e-09 -5.45934383e-03  5.01021846e-09  7.36051752e-01                                 
 7.11907527e-09  7.73566958e-01  7.11907527e-09  7.31925085e-01  7.11907527e-09  1.78916091e+00  7.11907527e-09  1.80000000e+00  7.11907527e-09  5.43998414e-03  7.11907527e-09  7.31925085e-01                                 
 1.11880170e-08  7.66756714e-01  1.11880170e-08  7.25570395e-01  1.11880170e-08  1.78206670e+00  1.11880170e-08  1.80000000e+00  1.11880170e-08 -5.39970850e-03  1.11880170e-08  7.25570395e-01                                 
 1.68693314e-08  7.59772069e-01  1.68693314e-08  7.18921992e-01  1.68693314e-08  1.77435563e+00  1.68693314e-08  1.80000000e+00  1.68693314e-08  5.40604109e-03  1.68693314e-08  7.18921992e-01                                 
 2.51875486e-08  7.52294308e-01  2.51875486e-08  7.11703195e-01  2.51875486e-08  1.76214916e+00  2.51875486e-08  1.80000000e+00  2.51875486e-08 -5.37498150e-03  2.51875486e-08  7.11703195e-01                                 
 2.70547441e-08  7.50908377e-01  2.70547441e-08  7.10358192e-01  2.70547441e-08  1.75954349e+00  2.70547441e-08  1.80000000e+00  2.70547441e-08  5.35014582e-03  2.70547441e-08  7.10358192e-01                                 
 2.90575113e-08  7.49485575e-01  2.90575113e-08  7.08979077e-01  2.90575113e-08  1.75673888e+00  2.90575113e-08  1.80000000e+00  2.90575113e-08 -5.28980897e-03  2.90575113e-08  7.08979077e-01                                 
 3.16286162e-08  7.47733760e-01  3.16286162e-08  7.07285515e-01  3.16286162e-08  1.75375433e+00  3.16286162e-08  1.80000000e+00  3.16286162e-08  5.27736249e-03  3.16286162e-08  7.07285515e-01                                 
 3.67708258e-08  7.44411913e-01  3.67708258e-08  7.04093095e-01  3.67708258e-08  1.74825029e+00  3.67708258e-08  1.80000000e+00  3.67708258e-08 -5.24208126e-03  3.67708258e-08  7.04093095e-01                                 
 4.70552451e-08  7.38687400e-01  4.70552451e-08  6.98594163e-01  4.70552451e-08  1.74032011e+00  4.70552451e-08  1.80000000e+00  4.70552451e-08  5.25412564e-03  4.70552451e-08  6.98594163e-01                                 
 5.79721618e-08  7.34069093e-01  5.79721618e-08  6.94086322e-01  5.79721618e-08  1.73143236e+00  5.79721618e-08  1.80000000e+00  5.79721618e-08 -5.22699491e-03  5.79721618e-08  6.94086322e-01                                 
 6.99104053e-08  7.28176190e-01  6.99104053e-08  6.88634956e-01  6.99104053e-08  1.71081857e+00  6.99104053e-08  1.80000000e+00  6.99104053e-08  5.23905028e-03  6.99104053e-08  6.88634956e-01                                 
 8.48833704e-08  7.21196983e-01  8.48833704e-08  6.82280405e-01  8.48833704e-08  1.68459050e+00  8.48833704e-08  1.80000000e+00  8.48833704e-08 -5.21484532e-03  8.48833704e-08  6.82280405e-01                                 
 1.00583242e-07  7.14893079e-01  1.00583242e-07  6.76562360e-01  1.00583242e-07  1.65892543e+00  1.00583242e-07  1.80000000e+00  1.00583242e-07  5.22885061e-03  1.00583242e-07  6.76562360e-01                                 
 1.24864969e-07  7.06623768e-01  1.24864969e-07  6.69092961e-01  1.24864969e-07  1.61841731e+00  1.24864969e-07  1.80000000e+00  1.24864969e-07 -5.20642863e-03  1.24864969e-07  6.69092961e-01                                 
 1.49520353e-07  7.04305059e-01  1.49520353e-07  6.66487092e-01  1.49520353e-07  1.59941960e+00  1.49520353e-07  1.80000000e+00  1.49520353e-07  5.22361456e-03  1.49520353e-07  6.66487092e-01                                 
 1.82335474e-07  7.10600949e-01  1.82335474e-07  6.70579410e-01  1.82335474e-07  1.59077722e+00  1.82335474e-07  1.80000000e+00  1.82335474e-07 -5.19988022e-03  1.82335474e-07  6.70579410e-01                                 
 2.01044249e-07  7.10027698e-01  2.01044249e-07  6.69661262e-01  2.01044249e-07  1.57151210e+00  2.01044249e-07  1.80000000e+00  2.01044249e-07  5.21587224e-03  2.01044249e-07  6.69661262e-01                                 
 2.22787805e-07  7.04979302e-01  2.22787805e-07  6.65167451e-01  2.22787805e-07  1.54682768e+00  2.22787805e-07  1.80000000e+00  2.22787805e-07 -5.19248355e-03  2.22787805e-07  6.65167451e-01                                 
 2.44792321e-07  7.01854003e-01  2.44792321e-07  6.62238974e-01  2.44792321e-07  1.52189098e+00  2.44792321e-07  1.80000000e+00  2.44792321e-07  5.20879070e-03  2.44792321e-07  6.62238974e-01                                 
 2.68864642e-07  6.98140592e-01  2.68864642e-07  6.58846123e-01  2.68864642e-07  1.49585011e+00  2.68864642e-07  1.80000000e+00  2.68864642e-07 -5.18562299e-03  2.68864642e-07  6.58846123e-01                                 
 3.07973424e-07  6.92612698e-01  3.07973424e-07  6.53816571e-01  3.07973424e-07  1.45200423e+00  3.07973424e-07  1.80000000e+00  3.07973424e-07  5.20348763e-03  3.07973424e-07  6.53816571e-01                                 
 3.67840777e-07  6.84642262e-01  3.67840777e-07  6.46663407e-01  3.67840777e-07  1.38695262e+00  3.67840777e-07  1.80000000e+00  3.67840777e-07 -5.18211860e-03  3.67840777e-07  6.46663407e-01                                 
 4.72623159e-07  6.73228944e-01  4.72623159e-07  6.36475434e-01  4.72623159e-07  1.27252601e+00  4.72623159e-07  1.80000000e+00  4.72623159e-07  5.20148239e-03  4.72623159e-07  6.36475434e-01                                 
 6.23758902e-07  6.53668457e-01  6.23758902e-07  6.19820344e-01  6.23758902e-07  1.10128941e+00  6.23758902e-07  1.80000000e+00  6.23758902e-07 -5.18105005e-03  6.23758902e-07  6.19820344e-01                                 
 7.75230399e-07  6.44029359e-01  7.75230399e-07  6.11411042e-01  7.75230399e-07  9.29720860e-01  7.75230399e-07  1.80000000e+00  7.75230399e-07  5.20066557e-03  7.75230399e-07  6.11411042e-01                                 
 9.25466654e-07  6.28160433e-01  9.25466654e-07  5.98252625e-01  9.25466654e-07  8.12112170e-01  9.25466654e-07  1.80000000e+00  9.25466654e-07 -5.17971409e-03  9.25466654e-07  5.98252625e-01                                 
 1.08884434e-06  6.12552290e-01  1.08884434e-06  5.85439953e-01  1.08884434e-06  7.05538093e-01  1.08884434e-06  1.80000000e+00  1.08884434e-06  5.19989640e-03  1.08884434e-06  5.85439953e-01                                 
 1.32280732e-06  5.92388428e-01  1.32280732e-06  5.69019194e-01  1.32280732e-06  6.11557823e-01  1.32280732e-06  1.80000000e+00  1.32280732e-06 -5.17883994e-03  1.32280732e-06  5.69019194e-01                                 
 1.35260670e-06  5.90045052e-01  1.35260670e-06  5.67119320e-01  1.35260670e-06  6.03030254e-01  1.35260670e-06  1.80000000e+00  1.35260670e-06 -6.92228850e-07  1.35260670e-06  5.67119320e-01                                 
 1.41220545e-06  5.85527640e-01  1.41220545e-06  5.63457790e-01  1.41220545e-06  5.88804182e-01  1.41220545e-06  1.80000000e+00  1.41220545e-06  4.92180802e-07  1.41220545e-06  5.63457790e-01                                 
 1.53140296e-06  5.78681127e-01  1.53140296e-06  5.57900266e-01  1.53140296e-06  5.72201398e-01  1.53140296e-06  1.80000000e+00  1.53140296e-06 -6.23734032e-07  1.53140296e-06  5.57900266e-01                                 
 1.55157699e-06  5.78009712e-01  1.55157699e-06  5.57351605e-01  1.55157699e-06  5.70740990e-01  1.55157699e-06  1.80000000e+00  1.55157699e-06 -3.54084374e-08  1.55157699e-06  5.57351605e-01                                 
 1.59192506e-06  5.77104309e-01  1.59192506e-06  5.56605158e-01  1.59192506e-06  5.68380495e-01  1.59192506e-06  1.80000000e+00  1.59192506e-06 -1.21519131e-08  1.59192506e-06  5.56605158e-01                                 
 1.67262119e-06  5.79550888e-01  1.67262119e-06  5.58523449e-01  1.67262119e-06  5.68296820e-01  1.67262119e-06  1.80000000e+00  1.67262119e-06  7.28983339e-08  1.67262119e-06  5.58523449e-01                                 
 1.69279522e-06  5.81674605e-01  1.69279522e-06  5.60213966e-01  1.69279522e-06  5.69797683e-01  1.69279522e-06  1.80000000e+00  1.69279522e-06  1.06320678e-07  1.69279522e-06  5.60213966e-01                                 
 1.73314329e-06  5.87787297e-01  1.73314329e-06  5.65088243e-01  1.73314329e-06  5.74555395e-01  1.73314329e-06  1.80000000e+00  1.73314329e-06  1.99844451e-07  1.73314329e-06  5.65088243e-01                                 
 1.81383942e-06  6.28541017e-01  1.81383942e-06  5.97658382e-01  1.81383942e-06  6.10051268e-01  1.81383942e-06  1.80000000e+00  1.81383942e-06  8.32667522e-07  1.81383942e-06  5.97658382e-01                                 
 1.82808265e-06  6.44214352e-01  1.82808265e-06  6.10185958e-01  1.82808265e-06  6.23943110e-01  1.82808265e-06  1.80000000e+00  1.82808265e-06  1.15061511e-06  1.82808265e-06  6.10185958e-01                                 
 1.85656912e-06  6.91389742e-01  1.85656912e-06  6.47949333e-01  1.85656912e-06  6.65853140e-01  1.85656912e-06  1.80000000e+00  1.85656912e-06  2.42580163e-06  1.85656912e-06  6.47949333e-01                                 
 1.86369074e-06  7.10834407e-01  1.86369074e-06  6.63624167e-01  1.86369074e-06  6.83126199e-01  1.86369074e-06  1.80000000e+00  1.86369074e-06  3.07119867e-06  1.86369074e-06  6.63624167e-01                                 
 1.87793397e-06  7.56553334e-01  1.87793397e-06  7.02382626e-01  1.87793397e-06  7.23412950e-01  1.87793397e-06  1.80000000e+00  1.87793397e-06  4.70324979e-06  1.87793397e-06  7.02382626e-01                                 
 1.90642044e-06  8.21190756e-01  1.90642044e-06  7.74602749e-01  1.90642044e-06  7.76561255e-01  1.90642044e-06  1.80000000e+00  1.90642044e-06  2.51247667e-06  1.90642044e-06  7.74602749e-01                                 
 1.95065653e-06  8.77097979e-01  1.95065653e-06  8.29602872e-01  1.95065653e-06  8.08123116e-01  1.95065653e-06  1.80000000e+00  1.95065653e-06  1.36230158e-06  1.95065653e-06  8.29602872e-01                                 
 1.99023125e-06  9.30175883e-01  1.99023125e-06  8.70148542e-01  1.99023125e-06  8.27362646e-01  1.99023125e-06  1.80000000e+00  1.99023125e-06  2.11496355e-06  1.99023125e-06  8.70148542e-01                                 
 2.03212863e-06  9.74235373e-01  2.03212863e-06  8.95414591e-01  2.03212863e-06  8.95244413e-01  2.03212863e-06  1.80000000e+00  2.03212863e-06  1.51234882e-06  2.03212863e-06  8.95414591e-01                                 
 2.06410337e-06  9.72849647e-01  2.06410337e-06  8.95000067e-01  2.06410337e-06  8.90755253e-01  2.06410337e-06  1.80000000e+00  2.06410337e-06 -1.77691141e-06  2.06410337e-06  8.95000067e-01                                 
 2.09816945e-06  9.72034991e-01  2.09816945e-06  8.94314831e-01  2.09816945e-06  8.74614406e-01  2.09816945e-06  1.80000000e+00  2.09816945e-06  1.19813165e-06  2.09816945e-06  8.94314831e-01                                 
 2.13546366e-06  9.73672689e-01  2.13546366e-06  8.95377440e-01  2.13546366e-06  8.98455274e-01  2.13546366e-06  1.80000000e+00  2.13546366e-06 -3.82488290e-07  2.13546366e-06  8.95377440e-01                                 
 2.19118633e-06  9.71527762e-01  2.19118633e-06  8.94092978e-01  2.19118633e-06  8.76572615e-01  2.19118633e-06  1.80000000e+00  2.19118633e-06 -1.37702925e-07  2.19118633e-06  8.94092978e-01                                 
 2.25338046e-06  9.73486336e-01  2.25338046e-06  8.95257030e-01  2.25338046e-06  8.97236354e-01  2.25338046e-06  1.80000000e+00  2.25338046e-06  5.83502316e-07  2.25338046e-06  8.95257030e-01                                 
 2.33110743e-06  9.71025537e-01  2.33110743e-06  8.93861939e-01  2.33110743e-06  8.80329659e-01  2.33110743e-06  1.80000000e+00  2.33110743e-06 -8.86911534e-07  2.33110743e-06  8.93861939e-01                                 
 2.43275753e-06  9.72757082e-01  2.43275753e-06  8.94872822e-01  2.43275753e-06  8.95959228e-01  2.43275753e-06  1.80000000e+00  2.43275753e-06  1.10270179e-06  2.43275753e-06  8.94872822e-01                                 
 2.44814471e-06  9.71568465e-01  2.44814471e-06  8.94222596e-01  2.44814471e-06  8.90370203e-01  2.44814471e-06  1.80000000e+00  2.44814471e-06 -2.74240412e-07  2.44814471e-06  8.94222596e-01                                 
 2.47891906e-06  9.71050822e-01  2.47891906e-06  8.93937868e-01  2.47891906e-06  8.87269093e-01  2.47891906e-06  1.80000000e+00  2.47891906e-06  1.36407602e-07  2.47891906e-06  8.93937868e-01                                 
 2.54046776e-06  9.70596135e-01  2.54046776e-06  8.93723946e-01  2.54046776e-06  8.89631395e-01  2.54046776e-06  1.80000000e+00  2.54046776e-06 -9.52295618e-08  2.54046776e-06  8.93723946e-01                                 
 2.62456742e-06  9.69528631e-01  2.62456742e-06  8.93161439e-01  2.62456742e-06  8.87388406e-01  2.62456742e-06  1.80000000e+00  2.62456742e-06  5.10616818e-08  2.62456742e-06  8.93161439e-01                                 
 2.79276674e-06  9.67967884e-01  2.79276674e-06  8.92370648e-01  2.79276674e-06  8.88769591e-01  2.79276674e-06  1.80000000e+00  2.79276674e-06 -4.79336747e-08  2.79276674e-06  8.92370648e-01                                 
 3.12916539e-06  9.64377090e-01  3.12916539e-06  8.90473740e-01  3.12916539e-06  8.85951069e-01  3.12916539e-06  1.80000000e+00  3.12916539e-06  2.94892120e-08  3.12916539e-06  8.90473740e-01                                 
 3.74987702e-06  9.58361763e-01  3.74987702e-06  8.87242697e-01  3.74987702e-06  8.84856775e-01  3.74987702e-06  1.80000000e+00  3.74987702e-06 -3.81080479e-08  3.74987702e-06  8.87242697e-01                                 
 4.74987702e-06  9.46970751e-01  4.74987702e-06  8.80746336e-01  4.74987702e-06  8.77492117e-01  4.74987702e-06  1.80000000e+00  4.74987702e-06  1.98480382e-08  4.74987702e-06  8.80746336e-01                                 
 4.87487702e-06  9.45430495e-01  4.87487702e-06  8.79843586e-01  4.87487702e-06  8.77206412e-01  4.87487702e-06  1.80000000e+00  4.87487702e-06 -7.14692498e-09  4.87487702e-06  8.79843586e-01                                 
 5.12487702e-06  9.41908879e-01  5.12487702e-06  8.77728514e-01  5.12487702e-06  8.75164455e-01  5.12487702e-06  1.80000000e+00  5.12487702e-06 -1.73978939e-08  5.12487702e-06  8.77728514e-01                                 
 5.62487702e-06  9.31788487e-01  5.62487702e-06  8.71390286e-01  5.62487702e-06  8.68662923e-01  5.62487702e-06  1.80000000e+00  5.62487702e-06 -2.46939361e-08  5.62487702e-06  8.71390286e-01                                 
 5.74987702e-06  9.27877204e-01  5.74987702e-06  8.68833596e-01  5.74987702e-06  8.66019082e-01  5.74987702e-06  1.80000000e+00  5.74987702e-06 -3.66783761e-08  5.74987702e-06  8.68833596e-01                                 
 5.99987702e-06  9.17322640e-01  5.99987702e-06  8.61617510e-01  5.99987702e-06  8.58548727e-01  5.99987702e-06  1.80000000e+00  5.99987702e-06 -6.93934845e-08  5.99987702e-06  8.61617510e-01                                 
 6.49987702e-06  8.82397115e-01  6.49987702e-06  8.34195294e-01  6.49987702e-06  8.32099803e-01  6.49987702e-06  1.80000000e+00  6.49987702e-06 -1.27500989e-07  6.49987702e-06  8.34195294e-01                                 
