 time            v(vbep)         time            v(vben)         time            v(vout)         time            v(vphi1)        time            v(vphi2)        time            v(vref)         yes             currtemp       
 0.00000000e+00  6.89514389e-01  0.00000000e+00  6.34062902e-01  0.00000000e+00  1.10389207e+00  0.00000000e+00  0.00000000e+00  0.00000000e+00  1.79994254e+00  0.00000000e+00  5.00000000e-01  1.00000000e+00  3.00000000e+01 
 5.00000000e-12  6.89478420e-01  5.00000000e-12  6.34033262e-01  5.00000000e-12  1.10464369e+00  5.00000000e-12  1.80000000e-02  5.00000000e-12  1.80004761e+00  5.00000000e-12  5.00000000e-01                                 
 1.00000000e-11  6.89443724e-01  1.00000000e-11  6.34004520e-01  1.00000000e-11  1.10532617e+00  1.00000000e-11  3.60000000e-02  1.00000000e-11  1.80010376e+00  1.00000000e-11  5.00000000e-01                                 
 2.00000000e-11  6.89375161e-01  2.00000000e-11  6.33947301e-01  2.00000000e-11  1.10658556e+00  2.00000000e-11  7.20000000e-02  2.00000000e-11  1.80015893e+00  2.00000000e-11  5.00000000e-01                                 
 4.00000000e-11  6.89239458e-01  4.00000000e-11  6.33833400e-01  4.00000000e-11  1.10861245e+00  4.00000000e-11  1.44000000e-01  4.00000000e-11  1.80013803e+00  4.00000000e-11  5.00000000e-01                                 
 8.00000000e-11  6.88969626e-01  8.00000000e-11  6.33606836e-01  8.00000000e-11  1.11137838e+00  8.00000000e-11  2.88000000e-01  8.00000000e-11  1.80007617e+00  8.00000000e-11  5.00000000e-01                                 
 1.60000000e-10  6.88436894e-01  1.60000000e-10  6.33158638e-01  1.60000000e-10  1.11401346e+00  1.60000000e-10  5.76000000e-01  1.60000000e-10  1.80001385e+00  1.60000000e-10  5.00000000e-01                                 
 3.20000000e-10  6.87397258e-01  3.20000000e-10  6.32281168e-01  3.20000000e-10  1.10720857e+00  3.20000000e-10  1.15200000e+00  3.20000000e-10  1.80038035e+00  3.20000000e-10  5.00000000e-01                                 
 5.00000000e-10  6.86267250e-01  5.00000000e-10  6.31322962e-01  5.00000000e-10  1.26736410e+00  5.00000000e-10  1.80000000e+00  5.00000000e-10  1.13433208e-01  5.00000000e-10  5.00000000e-01                                 
 5.21356559e-10  6.86136151e-01  5.21356559e-10  6.31211476e-01  5.21356559e-10  1.30458427e+00  5.21356559e-10  1.80000000e+00  5.21356559e-10  2.19517614e-02  5.21356559e-10  5.00000000e-01                                 
 5.64069677e-10  6.85875009e-01  5.64069677e-10  6.30989260e-01  5.64069677e-10  1.37260027e+00  5.64069677e-10  1.80000000e+00  5.64069677e-10 -1.02907869e-02  5.64069677e-10  5.00000000e-01                                 
 6.49495912e-10  6.85359135e-01  6.49495912e-10  6.30549583e-01  6.49495912e-10  1.48407917e+00  6.49495912e-10  1.80000000e+00  6.49495912e-10  8.64180281e-03  6.49495912e-10  5.00000000e-01                                 
 7.71676614e-10  6.84635768e-01  7.71676614e-10  6.29931489e-01  7.71676614e-10  1.61106138e+00  7.71676614e-10  1.80000000e+00  7.71676614e-10 -7.53670764e-03  7.71676614e-10  5.00000000e-01                                 
 9.62696476e-10  6.83537310e-01  9.62696476e-10  6.28989432e-01  9.62696476e-10  1.75621929e+00  9.62696476e-10  1.80000000e+00  9.62696476e-10  7.09499865e-03  9.62696476e-10  5.00000000e-01                                 
 1.34473620e-09  6.81449476e-01  1.34473620e-09  6.27187682e-01  1.34473620e-09  1.91685344e+00  1.34473620e-09  1.80000000e+00  1.34473620e-09 -6.71483909e-03  1.34473620e-09  5.00000000e-01                                 
 1.62461918e-09  6.80005823e-01  1.62461918e-09  6.25933059e-01  1.62461918e-09  1.96401931e+00  1.62461918e-09  1.80000000e+00  1.62461918e-09  6.46938197e-03  1.62461918e-09  5.00000000e-01                                 
 1.97364143e-09  6.78295966e-01  1.97364143e-09  6.24438195e-01  1.97364143e-09  1.98806052e+00  1.97364143e-09  1.80000000e+00  1.97364143e-09 -6.13550363e-03  1.97364143e-09  5.00000000e-01                                 
 2.30065664e-09  6.76777131e-01  2.30065664e-09  6.23102329e-01  2.30065664e-09  1.99529759e+00  2.30065664e-09  1.80000000e+00  2.30065664e-09  5.93067551e-03  2.30065664e-09  5.00000000e-01                                 
 2.86690606e-09  6.74313978e-01  2.86690606e-09  6.20920725e-01  2.86690606e-09  1.99743547e+00  2.86690606e-09  1.80000000e+00  2.86690606e-09 -5.73317322e-03  2.86690606e-09  5.00000000e-01                                 
 3.52471370e-09  6.71686091e-01  3.52471370e-09  6.18572780e-01  3.52471370e-09  1.99550359e+00  3.52471370e-09  1.80000000e+00  3.52471370e-09  5.65258324e-03  3.52471370e-09  5.00000000e-01                                 
 4.80555161e-09  6.67144149e-01  4.80555161e-09  6.14469282e-01  4.80555161e-09  1.99114020e+00  4.80555161e-09  1.80000000e+00  4.80555161e-09 -5.55332513e-03  4.80555161e-09  5.00000000e-01                                 
 6.70885017e-09  6.61470532e-01  6.70885017e-09  6.09266374e-01  6.70885017e-09  1.98578514e+00  6.70885017e-09  1.80000000e+00  6.70885017e-09  5.55197287e-03  6.70885017e-09  5.00000000e-01                                 
 9.34777553e-09  6.55086944e-01  9.34777553e-09  6.03319276e-01  9.34777553e-09  1.97982531e+00  9.34777553e-09  1.80000000e+00  9.34777553e-09 -5.48106975e-03  9.34777553e-09  5.00000000e-01                                 
 1.06879963e-08  6.52342832e-01  1.06879963e-08  6.00732921e-01  1.06879963e-08  1.97732134e+00  1.06879963e-08  1.80000000e+00  1.06879963e-08  5.45519201e-03  1.06879963e-08  5.00000000e-01                                 
 1.23933951e-08  6.49196732e-01  1.23933951e-08  5.97749689e-01  1.23933951e-08  1.97442679e+00  1.23933951e-08  1.80000000e+00  1.23933951e-08 -5.38069565e-03  1.23933951e-08  5.00000000e-01                                 
 1.42695874e-08  6.46100618e-01  1.42695874e-08  5.94796267e-01  1.42695874e-08  1.97165839e+00  1.42695874e-08  1.80000000e+00  1.42695874e-08  5.36606786e-03  1.42695874e-08  5.00000000e-01                                 
 1.74556759e-08  6.41511139e-01  1.74556759e-08  5.90389943e-01  1.74556759e-08  1.96752768e+00  1.74556759e-08  1.80000000e+00  1.74556759e-08 -5.31698740e-03  1.74556759e-08  5.00000000e-01                                 
 2.10113954e-08  6.37155433e-01  2.10113954e-08  5.86178362e-01  2.10113954e-08  1.96371915e+00  2.10113954e-08  1.80000000e+00  2.10113954e-08  5.32009567e-03  2.10113954e-08  5.00000000e-01                                 
 2.70052813e-08  6.31069912e-01  2.70052813e-08  5.80252408e-01  2.70052813e-08  1.95850826e+00  2.70052813e-08  1.80000000e+00  2.70052813e-08 -5.28314140e-03  2.70052813e-08  5.00000000e-01                                 
 3.51633464e-08  6.24509902e-01  3.51633464e-08  5.73813872e-01  3.51633464e-08  1.95314657e+00  3.51633464e-08  1.80000000e+00  3.51633464e-08  5.29833298e-03  3.51633464e-08  5.00000000e-01                                 
 5.14794766e-08  6.14735603e-01  5.14794766e-08  5.64145885e-01  5.14794766e-08  1.94334614e+00  5.14794766e-08  1.80000000e+00  5.14794766e-08 -5.26911900e-03  5.14794766e-08  5.00000000e-01                                 
 6.86193246e-08  6.07029648e-01  6.86193246e-08  5.56531570e-01  6.86193246e-08  1.92611825e+00  6.86193246e-08  1.80000000e+00  6.86193246e-08  5.28946376e-03  6.86193246e-08  5.00000000e-01                                 
 9.19529943e-08  5.97201938e-01  9.19529943e-08  5.47162340e-01  9.19529943e-08  1.90358924e+00  9.19529943e-08  1.80000000e+00  9.19529943e-08 -5.26149962e-03  9.19529943e-08  5.00000000e-01                                 
 1.09403997e-07  5.87792708e-01  1.09403997e-07  5.38769644e-01  1.09403997e-07  1.88337580e+00  1.09403997e-07  1.80000000e+00  1.09403997e-07  5.28182843e-03  1.09403997e-07  5.00000000e-01                                 
 1.27944004e-07  5.79881333e-01  1.27944004e-07  5.31656559e-01  1.27944004e-07  1.85044600e+00  1.27944004e-07  1.80000000e+00  1.27944004e-07 -5.25318199e-03  1.27944004e-07  5.00000000e-01                                 
 1.45019751e-07  5.73062729e-01  1.45019751e-07  5.25587458e-01  1.45019751e-07  1.81818021e+00  1.45019751e-07  1.80000000e+00  1.45019751e-07  5.27351269e-03  1.45019751e-07  5.00000000e-01                                 
 1.62565500e-07  5.67299683e-01  1.62565500e-07  5.20421829e-01  1.62565500e-07  1.79157889e+00  1.62565500e-07  1.80000000e+00  1.62565500e-07 -5.24459894e-03  1.62565500e-07  5.00000000e-01                                 
 1.86739911e-07  5.70897411e-01  1.86739911e-07  5.22505776e-01  1.86739911e-07  1.78612946e+00  1.86739911e-07  1.80000000e+00  1.86739911e-07  5.26665015e-03  1.86739911e-07  5.00000000e-01                                 
 2.07497712e-07  5.73938904e-01  2.07497712e-07  5.24300533e-01  2.07497712e-07  1.77548244e+00  2.07497712e-07  1.80000000e+00  2.07497712e-07 -5.23805240e-03  2.07497712e-07  5.00000000e-01                                 
 2.29638929e-07  5.69652724e-01  2.29638929e-07  5.20312716e-01  2.29638929e-07  1.74750924e+00  2.29638929e-07  1.80000000e+00  2.29638929e-07  5.25941030e-03  2.29638929e-07  5.00000000e-01                                 
 2.50442431e-07  5.65161219e-01  2.50442431e-07  5.16250523e-01  2.50442431e-07  1.72425584e+00  2.50442431e-07  1.80000000e+00  2.50442431e-07 -5.23122130e-03  2.50442431e-07  5.00000000e-01                                 
 2.71082458e-07  5.60283334e-01  2.71082458e-07  5.11930517e-01  2.71082458e-07  1.69929135e+00  2.71082458e-07  1.80000000e+00  2.71082458e-07  5.25222375e-03  2.71082458e-07  5.00000000e-01                                 
 3.11680847e-07  5.50047322e-01  3.11680847e-07  5.03038126e-01  3.11680847e-07  1.64915826e+00  3.11680847e-07  1.80000000e+00  3.11680847e-07 -5.22587652e-03  3.11680847e-07  5.00000000e-01                                 
 3.64544348e-07  5.37560273e-01  3.64544348e-07  4.92315307e-01  3.64544348e-07  1.58528957e+00  3.64544348e-07  1.80000000e+00  3.64544348e-07  5.24902249e-03  3.64544348e-07  5.00000000e-01                                 
 4.42083748e-07  5.15312241e-01  4.42083748e-07  4.73786672e-01  4.42083748e-07  1.48315142e+00  4.42083748e-07  1.80000000e+00  4.42083748e-07 -5.22359707e-03  4.42083748e-07  5.00000000e-01                                 
 5.26896181e-07  4.98365941e-01  5.26896181e-07  4.59688429e-01  5.26896181e-07  1.37979625e+00  5.26896181e-07  1.80000000e+00  5.26896181e-07  5.24728929e-03  5.26896181e-07  5.00000000e-01                                 
 6.13701224e-07  4.63690999e-01  6.13701224e-07  4.31706232e-01  6.13701224e-07  1.25522539e+00  6.13701224e-07  1.80000000e+00  6.13701224e-07 -5.22204839e-03  6.13701224e-07  5.00000000e-01                                 
 6.95782749e-07  4.58388228e-01  6.95782749e-07  4.27416615e-01  6.95782749e-07  1.16390998e+00  6.95782749e-07  1.80000000e+00  6.95782749e-07  5.24583932e-03  6.95782749e-07  5.00000000e-01                                 
 7.88023288e-07  7.47060116e-01  7.88023288e-07  6.89214265e-01  7.88023288e-07  1.34236418e+00  7.88023288e-07  1.80000000e+00  7.88023288e-07 -5.21698162e-03  7.88023288e-07  5.00000000e-01                                 
 7.96855915e-07  7.58471757e-01  7.96855915e-07  7.00266117e-01  7.96855915e-07  1.34537495e+00  7.96855915e-07  1.80000000e+00  7.96855915e-07 -4.54716673e-07  7.96855915e-07  5.00000000e-01                                 
 8.14521170e-07  7.72763276e-01  8.14521170e-07  7.13518644e-01  8.14521170e-07  1.34078479e+00  8.14521170e-07  1.80000000e+00  8.14521170e-07  2.76314159e-06  8.14521170e-07  5.00000000e-01                                 
 8.49851680e-07  7.83508332e-01  8.49851680e-07  7.23070864e-01  8.49851680e-07  1.31377256e+00  8.49851680e-07  1.80000000e+00  8.49851680e-07 -1.32022215e-06  8.49851680e-07  5.00000000e-01                                 
 8.87547110e-07  7.87630433e-01  8.87547110e-07  7.26663754e-01  8.87547110e-07  1.27828885e+00  8.87547110e-07  1.80000000e+00  8.87547110e-07  2.53264741e-06  8.87547110e-07  5.00000000e-01                                 
 9.43307368e-07  7.91218944e-01  9.43307368e-07  7.29725721e-01  9.43307368e-07  1.22277266e+00  9.43307368e-07  1.80000000e+00  9.43307368e-07 -1.41578675e-06  9.43307368e-07  5.00000000e-01                                 
 9.54145662e-07  7.91552814e-01  9.54145662e-07  7.30014771e-01  9.54145662e-07  1.21175715e+00  9.54145662e-07  1.80000000e+00  9.54145662e-07  5.51256247e-07  9.54145662e-07  5.00000000e-01                                 
 9.75822249e-07  7.92226727e-01  9.75822249e-07  7.30586963e-01  9.75822249e-07  1.18950699e+00  9.75822249e-07  1.80000000e+00  9.75822249e-07  5.34481023e-07  9.75822249e-07  5.00000000e-01                                 
 1.01917542e-06  7.93282986e-01  1.01917542e-06  7.31479892e-01  1.01917542e-06  1.14457805e+00  1.01917542e-06  1.80000000e+00  1.01917542e-06  5.36337116e-07  1.01917542e-06  5.00000000e-01                                 
 1.08862876e-06  7.83759266e-01  1.08862876e-06  7.23323572e-01  1.08862876e-06  1.06209218e+00  1.08862876e-06  1.80000000e+00  1.08862876e-06  3.19939403e-07  1.08862876e-06  5.00000000e-01                                 
 1.16032731e-06  7.69636961e-01  1.16032731e-06  7.10701052e-01  1.16032731e-06  9.77503146e-01  1.16032731e-06  1.80000000e+00  1.16032731e-06  4.44854301e-07  1.16032731e-06  5.00000000e-01                                 
 1.23060586e-06  7.78754031e-01  1.23060586e-06  7.18884354e-01  1.23060586e-06  9.27067885e-01  1.23060586e-06  1.80000000e+00  1.23060586e-06  7.65768084e-07  1.23060586e-06  5.00000000e-01                                 
 1.24059592e-06  7.81744533e-01  1.24059592e-06  7.21524405e-01  1.24059592e-06  9.22206615e-01  1.24059592e-06  1.80000000e+00  1.24059592e-06  7.30700955e-07  1.24059592e-06  5.00000000e-01                                 
 1.26057603e-06  7.86841232e-01  1.26057603e-06  7.25969176e-01  1.26057603e-06  9.11857706e-01  1.26057603e-06  1.80000000e+00  1.26057603e-06  6.70130195e-07  1.26057603e-06  5.00000000e-01                                 
 1.30053625e-06  7.88862012e-01  1.30053625e-06  7.27727155e-01  1.30053625e-06  8.85772279e-01  1.30053625e-06  1.80000000e+00  1.30053625e-06  4.53578878e-07  1.30053625e-06  5.00000000e-01                                 
 1.30997301e-06  7.86526384e-01  1.30997301e-06  7.25723678e-01  1.30997301e-06  8.77616688e-01  1.30997301e-06  1.80000000e+00  1.30997301e-06  3.60398211e-07  1.30997301e-06  5.00000000e-01                                 
 1.32884653e-06  7.80705159e-01  1.32884653e-06  7.20646183e-01  1.32884653e-06  8.60469594e-01  1.32884653e-06  1.80000000e+00  1.32884653e-06  2.66770330e-07  1.32884653e-06  5.00000000e-01                                 
 1.36659357e-06  7.74073526e-01  1.36659357e-06  7.14714874e-01  1.36659357e-06  8.31528024e-01  1.36659357e-06  1.80000000e+00  1.36659357e-06  5.17992905e-07  1.36659357e-06  5.00000000e-01                                 
 1.43149165e-06  7.80718205e-01  1.43149165e-06  7.20627791e-01  1.43149165e-06  7.99559433e-01  1.43149165e-06  1.80000000e+00  1.43149165e-06  6.56853825e-07  1.43149165e-06  5.00000000e-01                                 
 1.52432038e-06  7.83474102e-01  1.52432038e-06  7.23061917e-01  1.52432038e-06  7.50416782e-01  1.52432038e-06  1.80000000e+00  1.52432038e-06  4.29460858e-07  1.52432038e-06  5.00000000e-01                                 
 1.61206785e-06  7.77518142e-01  1.61206785e-06  7.17802562e-01  1.61206785e-06  6.98987212e-01  1.61206785e-06  1.80000000e+00  1.61206785e-06  5.12695527e-07  1.61206785e-06  5.00000000e-01                                 
 1.76681977e-06  7.81732890e-01  1.76681977e-06  7.21525761e-01  1.76681977e-06  6.25955630e-01  1.76681977e-06  1.80000000e+00  1.76681977e-06  5.63026592e-07  1.76681977e-06  5.00000000e-01                                 
 1.92343884e-06  7.80763774e-01  1.92343884e-06  7.20682706e-01  1.92343884e-06  5.55358345e-01  1.92343884e-06  1.80000000e+00  1.92343884e-06  4.68716722e-07  1.92343884e-06  5.00000000e-01                                 
 2.15724521e-06  7.79263628e-01  2.15724521e-06  7.19346717e-01  2.15724521e-06  4.99705671e-01  2.15724521e-06  1.80000000e+00  2.15724521e-06  5.62994833e-07  2.15724521e-06  5.00000000e-01                                 
 2.18860417e-06  7.80812508e-01  2.18860417e-06  7.20717565e-01  2.18860417e-06  4.99357481e-01  2.18860417e-06  1.80000000e+00  2.18860417e-06  5.53849334e-07  2.18860417e-06  5.00000000e-01                                 
 2.25132208e-06  7.81487343e-01  2.25132208e-06  7.21315997e-01  2.25132208e-06  4.96607919e-01  2.25132208e-06  1.80000000e+00  2.25132208e-06  5.01273648e-07  2.25132208e-06  5.00000000e-01                                 
 2.37675789e-06  7.79468873e-01  2.37675789e-06  7.19533548e-01  2.37675789e-06  4.89946681e-01  2.37675789e-06  1.80000000e+00  2.37675789e-06  5.14575246e-07  2.37675789e-06  5.00000000e-01                                 
 2.54724471e-06  7.81064186e-01  2.54724471e-06  7.20940728e-01  2.54724471e-06  4.94876086e-01  2.54724471e-06  1.80000000e+00  2.54724471e-06  5.37457229e-07  2.54724471e-06  5.00000000e-01                                 
 2.70580818e-06  7.80349372e-01  2.70580818e-06  7.20313541e-01  2.70580818e-06  5.02187109e-01  2.70580818e-06  1.80000000e+00  2.70580818e-06  4.94542366e-07  2.70580818e-06  5.00000000e-01                                 
 2.91237031e-06  7.80214325e-01  2.91237031e-06  7.20190683e-01  2.91237031e-06  4.99738944e-01  2.91237031e-06  1.80000000e+00  2.91237031e-06  5.41057588e-07  2.91237031e-06  5.00000000e-01                                 
 2.93959243e-06  7.80644867e-01  2.93959243e-06  7.20571571e-01  2.93959243e-06  4.99551157e-01  2.93959243e-06  1.80000000e+00  2.93959243e-06  5.31807773e-07  2.93959243e-06  5.00000000e-01                                 
 2.99403667e-06  7.80799618e-01  2.99403667e-06  7.20709475e-01  2.99403667e-06  4.99682712e-01  2.99403667e-06  1.80000000e+00  2.99403667e-06  5.12877872e-07  2.99403667e-06  5.00000000e-01                                 
 3.10292515e-06  7.80143933e-01  3.10292515e-06  7.20130381e-01  3.10292515e-06  5.00033542e-01  3.10292515e-06  1.80000000e+00  3.10292515e-06  5.16280493e-07  3.10292515e-06  5.00000000e-01                                 
 3.32070211e-06  7.80675432e-01  3.32070211e-06  7.20599031e-01  3.32070211e-06  5.00426888e-01  3.32070211e-06  1.80000000e+00  3.32070211e-06  5.25113781e-07  3.32070211e-06  5.00000000e-01                                 
 3.59664601e-06  7.80338152e-01  3.59664601e-06  7.20302318e-01  3.59664601e-06  4.99969856e-01  3.59664601e-06  1.80000000e+00  3.59664601e-06  5.11347486e-07  3.59664601e-06  5.00000000e-01                                 
 4.14853381e-06  7.80530818e-01  4.14853381e-06  7.20471288e-01  4.14853381e-06  5.00323321e-01  4.14853381e-06  1.80000000e+00  4.14853381e-06  5.27155333e-07  4.14853381e-06  5.00000000e-01                                 
 5.14853381e-06  7.80415033e-01  5.14853381e-06  7.20370237e-01  5.14853381e-06  5.00057072e-01  5.14853381e-06  1.80000000e+00  5.14853381e-06  5.10777338e-07  5.14853381e-06  5.00000000e-01                                 
 6.14853381e-06  7.80477413e-01  6.14853381e-06  7.20424142e-01  6.14853381e-06  5.00254463e-01  6.14853381e-06  1.80000000e+00  6.14853381e-06  5.27350073e-07  6.14853381e-06  5.00000000e-01                                 
 7.14853381e-06  7.80467082e-01  7.14853381e-06  7.20416182e-01  7.14853381e-06  5.00128023e-01  7.14853381e-06  1.80000000e+00  7.14853381e-06  5.10727865e-07  7.14853381e-06  5.00000000e-01                                 
