 time            v(vbep)         time            v(vben)         time            v(vout)         time            v(vphi1)        time            v(vphi2)        time            v(vref)         time            v(voutc)        time            v(voutcc)       yes             currtemp       
 0.00000000e+00  8.44109436e-01  0.00000000e+00  7.95808474e-01  0.00000000e+00  1.74394807e+00  0.00000000e+00  0.00000000e+00  0.00000000e+00  1.80000000e+00  0.00000000e+00  7.99771109e-01  0.00000000e+00  1.74394807e+00  0.00000000e+00  1.74868527e+00  1.00000000e+00 -2.10000000e+01 
 1.00000000e-11  8.44130669e-01  1.00000000e-11  7.95873446e-01  1.00000000e-11  1.74478061e+00  1.00000000e-11  1.80000000e-02  1.00000000e-11  1.80024261e+00  1.00000000e-11  8.00285176e-01  1.00000000e-11  1.74440468e+00  1.00000000e-11  1.74869848e+00                                 
 2.00000000e-11  8.44136683e-01  2.00000000e-11  7.95914577e-01  2.00000000e-11  1.74535496e+00  2.00000000e-11  3.60000000e-02  2.00000000e-11  1.80034563e+00  2.00000000e-11  8.00675813e-01  2.00000000e-11  1.74476577e+00  2.00000000e-11  1.74870485e+00                                 
 4.00000000e-11  8.44136743e-01  4.00000000e-11  7.95968587e-01  4.00000000e-11  1.74613916e+00  4.00000000e-11  7.20000000e-02  4.00000000e-11  1.80039655e+00  4.00000000e-11  8.01257432e-01  4.00000000e-11  1.74532958e+00  4.00000000e-11  1.74870943e+00                                 
 8.00000000e-11  8.44126006e-01  8.00000000e-11  7.96000624e-01  8.00000000e-11  1.74657064e+00  8.00000000e-11  1.44000000e-01  8.00000000e-11  1.80020942e+00  8.00000000e-11  8.01735686e-01  8.00000000e-11  1.74588893e+00  8.00000000e-11  1.74870046e+00                                 
 1.60000000e-10  8.44122641e-01  1.60000000e-10  7.95999627e-01  1.60000000e-10  1.74640833e+00  1.60000000e-10  2.88000000e-01  1.60000000e-10  1.80001910e+00  1.60000000e-10  8.01815595e-01  1.60000000e-10  1.74615609e+00  1.60000000e-10  1.74868677e+00                                 
 3.20000000e-10  8.44120436e-01  3.20000000e-10  7.95996803e-01  3.20000000e-10  1.74612900e+00  3.20000000e-10  5.76000000e-01  3.20000000e-10  1.80002541e+00  3.20000000e-10  8.01783749e-01  3.20000000e-10  1.74620668e+00  3.20000000e-10  1.74868417e+00                                 
 6.40000000e-10  8.44052007e-01  6.40000000e-10  7.95808642e-01  6.40000000e-10  1.73841919e+00  6.40000000e-10  1.15200000e+00  6.40000000e-10  1.81355494e+00  6.40000000e-10  8.01544752e-01  6.40000000e-10  1.75037810e+00  6.40000000e-10  1.74871041e+00                                 
 9.93415582e-10  8.44420463e-01  9.93415582e-10  7.95800642e-01  9.93415582e-10  1.70638516e+00  9.93415582e-10  1.78814805e+00  9.93415582e-10  7.35506260e-02  9.93415582e-10  8.00974974e-01  9.93415582e-10  1.73740165e+00  9.93415582e-10  1.74857685e+00                                 
 1.00000000e-09  8.44441332e-01  1.00000000e-09  7.95845200e-01  1.00000000e-09  1.70603658e+00  1.00000000e-09  1.80000000e+00  1.00000000e-09  3.34679811e-02  1.00000000e-09  8.01568245e-01  1.00000000e-09  1.73736176e+00  1.00000000e-09  1.74859591e+00                                 
 1.01316884e-09  8.44428723e-01  1.01316884e-09  7.95869495e-01  1.01316884e-09  1.70605835e+00  1.01316884e-09  1.80000000e+00  1.01316884e-09  1.37275370e-02  1.01316884e-09  8.02741220e-01  1.01316884e-09  1.73814355e+00  1.01316884e-09  1.74863990e+00                                 
 1.03950651e-09  8.44451885e-01  1.03950651e-09  7.95927278e-01  1.03950651e-09  1.70617898e+00  1.03950651e-09  1.80000000e+00  1.03950651e-09 -1.33910366e-03  1.03950651e-09  8.04563747e-01  1.03950651e-09  1.73957944e+00  1.03950651e-09  1.74869443e+00                                 
 1.09218185e-09  8.44595280e-01  1.09218185e-09  7.95930339e-01  1.09218185e-09  1.70451036e+00  1.09218185e-09  1.80000000e+00  1.09218185e-09  2.18438996e-03  1.09218185e-09  8.05477572e-01  1.09218185e-09  1.74046799e+00  1.09218185e-09  1.74868209e+00                                 
 1.19753254e-09  8.44792568e-01  1.19753254e-09  7.95835759e-01  1.19753254e-09  1.69847341e+00  1.19753254e-09  1.80000000e+00  1.19753254e-09 -7.34217008e-04  1.19753254e-09  8.05552950e-01  1.19753254e-09  1.74047958e+00  1.19753254e-09  1.74866855e+00                                 
 1.40823392e-09  8.44916875e-01  1.40823392e-09  7.95817242e-01  1.40823392e-09  1.69168495e+00  1.40823392e-09  1.80000000e+00  1.40823392e-09  1.05554631e-03  1.40823392e-09  8.06403086e-01  1.40823392e-09  1.74121891e+00  1.40823392e-09  1.74869217e+00                                 
 1.63405934e-09  8.44824633e-01  1.63405934e-09  7.95795861e-01  1.63405934e-09  1.69135963e+00  1.63405934e-09  1.80000000e+00  1.63405934e-09 -8.79980766e-04  1.63405934e-09  8.06140597e-01  1.63405934e-09  1.74096419e+00  1.63405934e-09  1.74867961e+00                                 
 1.88658522e-09  8.44654211e-01  1.88658522e-09  7.95802438e-01  1.88658522e-09  1.69375897e+00  1.88658522e-09  1.80000000e+00  1.88658522e-09  7.40971461e-04  1.88658522e-09  8.06008178e-01  1.88658522e-09  1.74087739e+00  1.88658522e-09  1.74869444e+00                                 
 2.17053455e-09  8.44479317e-01  2.17053455e-09  7.95793069e-01  2.17053455e-09  1.69646530e+00  2.17053455e-09  1.80000000e+00  2.17053455e-09 -7.30096831e-04  2.17053455e-09  8.05534645e-01  2.17053455e-09  1.74045377e+00  2.17053455e-09  1.74868447e+00                                 
 2.68673962e-09  8.44234456e-01  2.68673962e-09  7.95797524e-01  2.68673962e-09  1.70128647e+00  2.68673962e-09  1.80000000e+00  2.68673962e-09  6.28636009e-04  2.68673962e-09  8.05015136e-01  2.68673962e-09  1.74003669e+00  2.68673962e-09  1.74869248e+00                                 
 3.69934023e-09  8.44010365e-01  3.69934023e-09  7.95788795e-01  3.69934023e-09  1.70857965e+00  3.69934023e-09  1.80000000e+00  3.69934023e-09 -6.69810640e-04  3.69934023e-09  8.03784062e-01  3.69934023e-09  1.73897698e+00  3.69934023e-09  1.74867144e+00                                 
 5.72454145e-09  8.43967444e-01  5.72454145e-09  7.95797307e-01  5.72454145e-09  1.71791412e+00  5.72454145e-09  1.80000000e+00  5.72454145e-09  6.08461696e-04  5.72454145e-09  8.02125741e-01  5.72454145e-09  1.73759846e+00  5.72454145e-09  1.74862499e+00                                 
 8.85064613e-09  8.44060704e-01  8.85064613e-09  7.95798754e-01  8.85064613e-09  1.72304108e+00  8.85064613e-09  1.80000000e+00  8.85064613e-09 -6.44566827e-04  8.85064613e-09  8.00436301e-01  8.85064613e-09  1.73615261e+00  8.85064613e-09  1.74846677e+00                                 
 1.14061849e-08  8.44074247e-01  1.14061849e-08  7.95808516e-01  1.14061849e-08  1.72341128e+00  1.14061849e-08  1.80000000e+00  1.14061849e-08  6.04464746e-04  1.14061849e-08  7.99919657e-01  1.14061849e-08  1.73573483e+00  1.14061849e-08  1.74831065e+00                                 
 1.42888358e-08  8.44088595e-01  1.42888358e-08  7.95804248e-01  1.42888358e-08  1.72234550e+00  1.42888358e-08  1.80000000e+00  1.42888358e-08 -6.25458032e-04  1.42888358e-08  7.99482403e-01  1.42888358e-08  1.73534184e+00  1.42888358e-08  1.74809359e+00                                 
 1.75497909e-08  8.44083438e-01  1.75497909e-08  7.95811162e-01  1.75497909e-08  1.72161756e+00  1.75497909e-08  1.80000000e+00  1.75497909e-08  6.01200488e-04  1.75497909e-08  7.99423086e-01  1.75497909e-08  1.73530410e+00  1.75497909e-08  1.74785350e+00                                 
 2.22874562e-08  8.44089067e-01  2.22874562e-08  7.95805514e-01  2.22874562e-08  1.72058339e+00  2.22874562e-08  1.80000000e+00  2.22874562e-08 -6.07060627e-04  2.22874562e-08  7.99271337e-01  2.22874562e-08  1.73514309e+00  2.22874562e-08  1.74748455e+00                                 
 2.82021238e-08  8.44101592e-01  2.82021238e-08  7.95811527e-01  2.82021238e-08  1.71715397e+00  2.82021238e-08  1.80000000e+00  2.82021238e-08  6.00322685e-04  2.82021238e-08  7.99390731e-01  2.82021238e-08  1.73524466e+00  2.82021238e-08  1.74705761e+00                                 
 3.71840309e-08  8.44111983e-01  3.71840309e-08  7.95805630e-01  3.71840309e-08  1.70855400e+00  3.71840309e-08  1.80000000e+00  3.71840309e-08 -6.00369950e-04  3.71840309e-08  7.99360416e-01  3.71840309e-08  1.73517328e+00  3.71840309e-08  1.74643370e+00                                 
 5.07291081e-08  8.44109919e-01  5.07291081e-08  7.95811522e-01  5.07291081e-08  1.69383251e+00  5.07291081e-08  1.80000000e+00  5.07291081e-08  5.97574372e-04  5.07291081e-08  7.99539524e-01  5.07291081e-08  1.73531043e+00  5.07291081e-08  1.74560907e+00                                 
 6.96409317e-08  8.44112164e-01  6.96409317e-08  7.95805584e-01  6.96409317e-08  1.67154538e+00  6.96409317e-08  1.80000000e+00  6.96409317e-08 -5.98384002e-04  6.96409317e-08  7.99531366e-01  6.96409317e-08  1.73524934e+00  6.96409317e-08  1.74461148e+00                                 
 1.07464579e-07  8.44108326e-01  1.07464579e-07  7.95811442e-01  1.07464579e-07  1.62354622e+00  1.07464579e-07  1.80000000e+00  1.07464579e-07  5.96074197e-04  1.07464579e-07  7.99728504e-01  1.07464579e-07  1.73538928e+00  1.07464579e-07  1.74312174e+00                                 
 1.83111874e-07  8.44111210e-01  1.83111874e-07  7.95805533e-01  1.83111874e-07  1.52223006e+00  1.83111874e-07  1.80000000e+00  1.83111874e-07 -5.97826709e-04  1.83111874e-07  7.99710022e-01  1.83111874e-07  1.73531010e+00  1.83111874e-07  1.74139346e+00                                 
 3.34406463e-07  8.44107744e-01  3.34406463e-07  7.95811418e-01  3.34406463e-07  1.32074034e+00  3.34406463e-07  1.80000000e+00  3.34406463e-07  5.95779306e-04  3.34406463e-07  7.99820674e-01  3.34406463e-07  1.73539309e+00  3.34406463e-07  1.74025717e+00                                 
 6.05778732e-07  8.44111129e-01  6.05778732e-07  7.95805530e-01  6.05778732e-07  9.74818515e-01  6.05778732e-07  1.80000000e+00  6.05778732e-07 -5.97413309e-04  6.05778732e-07  7.99722837e-01  6.05778732e-07  1.73527545e+00  6.05778732e-07  1.74007477e+00                                 
 8.62571254e-07  8.44107757e-01  8.62571254e-07  7.95811418e-01  8.62571254e-07  8.06447411e-01  8.62571254e-07  1.80000000e+00  8.62571254e-07  5.96867319e-04  8.62571254e-07  7.99818442e-01  8.62571254e-07  1.73536451e+00  8.62571254e-07  1.74009825e+00                                 
 1.06756167e-06  8.44111109e-01  1.06756167e-06  7.95805534e-01  1.06756167e-06  8.02791121e-01  1.06756167e-06  1.80000000e+00  1.06756167e-06 -5.96514804e-04  1.06756167e-06  7.99724962e-01  1.06756167e-06  1.73525731e+00  1.06756167e-06  1.74007873e+00                                 
 1.17104609e-06  8.44107666e-01  1.17104609e-06  7.95811401e-01  1.17104609e-06  8.03963643e-01  1.17104609e-06  1.80000000e+00  1.17104609e-06  5.97163501e-04  1.17104609e-06  7.99816826e-01  1.17104609e-06  1.73534955e+00  1.17104609e-06  1.74008150e+00                                 
 1.27656005e-06  8.44111304e-01  1.27656005e-06  7.95805561e-01  1.27656005e-06  8.03570459e-01  1.27656005e-06  1.80000000e+00  1.27656005e-06 -5.96196277e-04  1.27656005e-06  7.99725306e-01  1.27656005e-06  1.73524846e+00  1.27656005e-06  1.74006913e+00                                 
 1.43313679e-06  8.44107516e-01  1.43313679e-06  7.95811380e-01  1.43313679e-06  8.03978346e-01  1.43313679e-06  1.80000000e+00  1.43313679e-06  5.96373492e-04  1.43313679e-06  7.99816980e-01  1.43313679e-06  1.73533820e+00  1.43313679e-06  1.74007012e+00                                 
 1.59338672e-06  8.44111396e-01  1.59338672e-06  7.95805575e-01  1.59338672e-06  8.03660170e-01  1.59338672e-06  1.80000000e+00  1.59338672e-06 -5.95986399e-04  1.59338672e-06  7.99725169e-01  1.59338672e-06  1.73523449e+00  1.59338672e-06  1.74005537e+00                                 
 1.83170281e-06  8.44107452e-01  1.83170281e-06  7.95811369e-01  1.83170281e-06  8.03942636e-01  1.83170281e-06  1.80000000e+00  1.83170281e-06  5.96200389e-04  1.83170281e-06  7.99817072e-01  1.83170281e-06  1.73532085e+00  1.83170281e-06  1.74005274e+00                                 
 2.13007473e-06  8.44111436e-01  2.13007473e-06  7.95805582e-01  2.13007473e-06  8.03677185e-01  2.13007473e-06  1.80000000e+00  2.13007473e-06 -5.95861734e-04  2.13007473e-06  7.99725112e-01  2.13007473e-06  1.73521098e+00  2.13007473e-06  1.74003200e+00                                 
 2.53705820e-06  8.44107425e-01  2.53705820e-06  7.95811365e-01  2.53705820e-06  8.03930709e-01  2.53705820e-06  1.80000000e+00  2.53705820e-06  5.96104607e-04  2.53705820e-06  7.99817110e-01  2.53705820e-06  1.73529004e+00  2.53705820e-06  1.74002201e+00                                 
 3.11907537e-06  8.44111454e-01  3.11907537e-06  7.95805585e-01  3.11907537e-06  8.03684769e-01  3.11907537e-06  1.80000000e+00  3.11907537e-06 -5.95793053e-04  3.11907537e-06  7.99725087e-01  3.11907537e-06  1.73516770e+00  3.11907537e-06  1.73998891e+00                                 
 4.03704120e-06  8.44107414e-01  4.03704120e-06  7.95811363e-01  4.03704120e-06  8.03925653e-01  4.03704120e-06  1.80000000e+00  4.03704120e-06  5.96058443e-04  4.03704120e-06  7.99817126e-01  4.03704120e-06  1.73522444e+00  4.03704120e-06  1.73995663e+00                                 
 5.23704120e-06  8.44111461e-01  5.23704120e-06  7.95805586e-01  5.23704120e-06  8.03687996e-01  5.23704120e-06  1.80000000e+00  5.23704120e-06 -5.95761494e-04  5.23704120e-06  7.99725075e-01  5.23704120e-06  1.73507504e+00  5.23704120e-06  1.73989659e+00                                 
 6.00100000e-06  8.44107406e-01  6.00100000e-06  7.95811361e-01  6.00100000e-06  8.03917701e-01  6.00100000e-06  1.80000000e+00  6.00100000e-06  5.96725729e-04  6.00100000e-06  7.99817192e-01  6.00100000e-06  1.73513857e+00  6.00100000e-06  1.73987099e+00                                 
 6.00110000e-06  8.44079838e-01  6.00110000e-06  7.95592259e-01  6.00110000e-06  8.01775171e-01  6.00110000e-06  1.62000000e+00  6.00110000e-06 -5.63373218e-05  6.00110000e-06  7.97880000e-01  6.00110000e-06  1.73349487e+00  6.00110000e-06  1.73985162e+00                                 
 6.00130000e-06  8.44108391e-01  6.00130000e-06  7.95658611e-01  6.00130000e-06  8.02546698e-01  6.00130000e-06  1.26000000e+00  6.00130000e-06  1.60946797e-05  6.00130000e-06  7.98249552e-01  6.00130000e-06  1.73380852e+00  6.00130000e-06  1.73987589e+00                                 
 6.00170000e-06  8.44134286e-01  6.00170000e-06  7.95701213e-01  6.00170000e-06  8.03672973e-01  6.00170000e-06  5.40000000e-01  6.00170000e-06  1.05520091e-02  6.00170000e-06  7.97453893e-01  6.00170000e-06  1.72779735e+00  6.00170000e-06  1.73982526e+00                                 
 6.00200000e-06  8.44106447e-01  6.00200000e-06  7.93373232e-01  6.00200000e-06  8.53940226e-01  6.00200000e-06  0.00000000e+00  6.00200000e-06  1.58390280e+00  6.00200000e-06  7.67059330e-01  6.00200000e-06  1.52148970e+00  6.00200000e-06  1.73890562e+00                                 
 6.00205117e-06  8.44112752e-01  6.00205117e-06  7.93352131e-01  6.00205117e-06  8.52003630e-01  6.00205117e-06  0.00000000e+00  6.00205117e-06  1.73046421e+00  6.00205117e-06  7.66418583e-01  6.00205117e-06  1.46236470e+00  6.00205117e-06  1.73920361e+00                                 
 6.00215350e-06  8.44108356e-01  6.00215350e-06  7.93566539e-01  6.00215350e-06  8.41942962e-01  6.00215350e-06  0.00000000e+00  6.00215350e-06  1.82038137e+00  6.00215350e-06  7.68839645e-01  6.00215350e-06  1.35132570e+00  6.00215350e-06  1.73974344e+00                                 
 6.00230791e-06  8.44108354e-01  6.00230791e-06  7.94287054e-01  6.00230791e-06  8.28388975e-01  6.00230791e-06  0.00000000e+00  6.00230791e-06  1.78719419e+00  6.00230791e-06  7.77704312e-01  6.00230791e-06  1.23083948e+00  6.00230791e-06  1.73988389e+00                                 
 6.00247769e-06  8.44109337e-01  6.00247769e-06  7.94612213e-01  6.00247769e-06  8.24967918e-01  6.00247769e-06  0.00000000e+00  6.00247769e-06  1.80611088e+00  6.00247769e-06  7.81382788e-01  6.00247769e-06  1.14296835e+00  6.00247769e-06  1.73995142e+00                                 
 6.00272572e-06  8.44107642e-01  6.00272572e-06  7.94952889e-01  6.00272572e-06  8.18783743e-01  6.00272572e-06  0.00000000e+00  6.00272572e-06  1.79522978e+00  6.00272572e-06  7.84968790e-01  6.00272572e-06  1.04904625e+00  6.00272572e-06  1.74002329e+00                                 
 6.00298349e-06  8.44109661e-01  6.00298349e-06  7.95266645e-01  6.00298349e-06  8.16775335e-01  6.00298349e-06  0.00000000e+00  6.00298349e-06  1.80289356e+00  6.00298349e-06  7.88254188e-01  6.00298349e-06  9.76858793e-01  6.00298349e-06  1.74011192e+00                                 
 6.00349903e-06  8.44107867e-01  6.00349903e-06  7.95635020e-01  6.00349903e-06  8.11893792e-01  6.00349903e-06  0.00000000e+00  6.00349903e-06  1.79713488e+00  6.00349903e-06  7.91828714e-01  6.00349903e-06  8.68097790e-01  6.00349903e-06  1.74016662e+00                                 
 6.00405505e-06  8.44110129e-01  6.00405505e-06  7.96126557e-01  6.00405505e-06  8.06388309e-01  6.00405505e-06  0.00000000e+00  6.00405505e-06  1.80215518e+00  6.00405505e-06  7.97661373e-01  6.00405505e-06  8.17291208e-01  6.00405505e-06  1.74012020e+00                                 
 6.00459216e-06  8.44108202e-01  6.00459216e-06  7.96228254e-01  6.00459216e-06  8.04382246e-01  6.00459216e-06  0.00000000e+00  6.00459216e-06  1.79816810e+00  6.00459216e-06  7.99104369e-01  6.00459216e-06  8.05700595e-01  6.00459216e-06  1.73990634e+00                                 
 6.00518603e-06  8.44110357e-01  6.00518603e-06  7.96268667e-01  6.00518603e-06  8.04146451e-01  6.00518603e-06  0.00000000e+00  6.00518603e-06  1.80156483e+00  6.00518603e-06  8.00300337e-01  6.00518603e-06  8.04624565e-01  6.00518603e-06  1.73956479e+00                                 
 6.00585755e-06  8.44108395e-01  6.00585755e-06  7.96160521e-01  6.00585755e-06  8.04366435e-01  6.00585755e-06  0.00000000e+00  6.00585755e-06  1.79864511e+00  6.00585755e-06  7.99924072e-01  6.00585755e-06  8.04058833e-01  6.00585755e-06  1.73905616e+00                                 
 6.00707259e-06  8.44110437e-01  6.00707259e-06  7.96081096e-01  6.00707259e-06  8.05042178e-01  6.00707259e-06  0.00000000e+00  6.00707259e-06  1.80125596e+00  6.00707259e-06  8.00526714e-01  6.00707259e-06  8.05137967e-01  6.00707259e-06  1.73805363e+00                                 
 6.00950267e-06  8.44108455e-01  6.00950267e-06  7.95906421e-01  6.00950267e-06  8.06629725e-01  6.00950267e-06  0.00000000e+00  6.00950267e-06  1.79879621e+00  6.00950267e-06  8.00149337e-01  6.00950267e-06  8.06233875e-01  6.00950267e-06  1.73586667e+00                                 
 6.01436284e-06  8.44110427e-01  6.01436284e-06  7.95857934e-01  6.01436284e-06  8.10243111e-01  6.01436284e-06  0.00000000e+00  6.01436284e-06  1.80118450e+00  6.01436284e-06  8.00625306e-01  6.01436284e-06  8.10269891e-01  6.01436284e-06  1.73145039e+00                                 
 6.02408318e-06  8.44108451e-01  6.02408318e-06  7.95790259e-01  6.02408318e-06  8.17907912e-01  6.02408318e-06  0.00000000e+00  6.02408318e-06  1.79883141e+00  6.02408318e-06  8.00073399e-01  6.02408318e-06  8.17436477e-01  6.02408318e-06  1.72258163e+00                                 
 6.04228632e-06  8.44110423e-01  6.04228632e-06  7.95820272e-01  6.04228632e-06  8.32056511e-01  6.04228632e-06  0.00000000e+00  6.04228632e-06  1.80116675e+00  6.04228632e-06  8.00359284e-01  6.04228632e-06  8.32088053e-01  6.04228632e-06  1.70506331e+00                                 
 6.07643914e-06  8.44108451e-01  6.07643914e-06  7.95792013e-01  6.07643914e-06  8.56972134e-01  6.07643914e-06  0.00000000e+00  6.07643914e-06  1.79884033e+00  6.07643914e-06  7.99730157e-01  6.07643914e-06  8.56289666e-01  6.07643914e-06  1.66851607e+00                                 
