 time            v(vbep)         time            v(vben)         time            v(vout)         time            v(vphi1)        time            v(vphi2)        time            v(vref)         yes             currtemp       
 0.00000000e+00  8.05433199e-01  0.00000000e+00  7.61741167e-01  0.00000000e+00  1.03058173e+00  0.00000000e+00  0.00000000e+00  0.00000000e+00  1.79993925e+00  0.00000000e+00  7.61741167e-01  1.00000000e+00 -3.40000000e+01 
 5.00000000e-12  8.05399602e-01  5.00000000e-12  7.61713525e-01  5.00000000e-12  1.03131917e+00  5.00000000e-12  1.80000000e-02  5.00000000e-12  1.80006069e+00  5.00000000e-12  7.61713525e-01                                 
 1.00000000e-11  8.05367384e-01  1.00000000e-11  7.61686766e-01  1.00000000e-11  1.03200528e+00  1.00000000e-11  3.60000000e-02  1.00000000e-11  1.80013570e+00  1.00000000e-11  7.61686766e-01                                 
 2.00000000e-11  8.05303886e-01  2.00000000e-11  7.61633513e-01  2.00000000e-11  1.03329503e+00  2.00000000e-11  7.20000000e-02  2.00000000e-11  1.80022467e+00  2.00000000e-11  7.61633513e-01                                 
 4.00000000e-11  8.05178522e-01  4.00000000e-11  7.61527562e-01  4.00000000e-11  1.03550436e+00  4.00000000e-11  1.44000000e-01  4.00000000e-11  1.80023810e+00  4.00000000e-11  7.61527562e-01                                 
 8.00000000e-11  8.04929440e-01  8.00000000e-11  7.61316983e-01  8.00000000e-11  1.03878642e+00  8.00000000e-11  2.88000000e-01  8.00000000e-11  1.80016625e+00  8.00000000e-11  7.61316983e-01                                 
 1.60000000e-10  8.04438622e-01  1.60000000e-10  7.60901126e-01  1.60000000e-10  1.04264087e+00  1.60000000e-10  5.76000000e-01  1.60000000e-10  1.80007335e+00  1.60000000e-10  7.60901126e-01                                 
 3.20000000e-10  8.03484216e-01  3.20000000e-10  7.60089674e-01  3.20000000e-10  1.03194886e+00  3.20000000e-10  1.15200000e+00  3.20000000e-10  1.80023371e+00  3.20000000e-10  7.60089674e-01                                 
 5.00000000e-10  8.02452011e-01  5.00000000e-10  7.59207613e-01  5.00000000e-10  1.09358820e+00  5.00000000e-10  1.80000000e+00  5.00000000e-10  1.08760764e-01  5.00000000e-10  7.59207613e-01                                 
 5.20067610e-10  8.02339821e-01  5.20067610e-10  7.59111448e-01  5.20067610e-10  1.11179438e+00  5.20067610e-10  1.80000000e+00  5.20067610e-10  2.30786808e-02  5.20067610e-10  7.59111448e-01                                 
 5.60202831e-10  8.02116413e-01  5.60202831e-10  7.58919822e-01  5.60202831e-10  1.14830129e+00  5.60202831e-10  1.80000000e+00  5.60202831e-10 -9.78271884e-03  5.60202831e-10  7.58919822e-01                                 
 6.40473273e-10  8.01675479e-01  6.40473273e-10  7.58541004e-01  6.40473273e-10  1.21576802e+00  6.40473273e-10  1.80000000e+00  6.40473273e-10  8.57719212e-03  6.40473273e-10  7.58541004e-01                                 
 7.60946451e-10  8.01027987e-01  7.60946451e-10  7.57983250e-01  7.60946451e-10  1.31024682e+00  7.60946451e-10  1.80000000e+00  7.60946451e-10 -6.99089327e-03  7.60946451e-10  7.57983250e-01                                 
 9.39730627e-10  8.00097087e-01  9.39730627e-10  7.57178322e-01  9.39730627e-10  1.43281589e+00  9.39730627e-10  1.80000000e+00  9.39730627e-10  6.98153677e-03  9.39730627e-10  7.57178322e-01                                 
 1.29729898e-09  7.98333346e-01  1.29729898e-09  7.55643701e-01  1.29729898e-09  1.60704839e+00  1.29729898e-09  1.80000000e+00  1.29729898e-09 -6.24069914e-03  1.29729898e-09  7.55643701e-01                                 
 1.84002253e-09  7.95876385e-01  1.84002253e-09  7.53485393e-01  1.84002253e-09  1.73651533e+00  1.84002253e-09  1.80000000e+00  1.84002253e-09  6.31727269e-03  1.84002253e-09  7.53485393e-01                                 
 2.25268920e-09  7.94164447e-01  2.25268920e-09  7.51967155e-01  2.25268920e-09  1.76943908e+00  2.25268920e-09  1.80000000e+00  2.25268920e-09 -5.97855522e-03  2.25268920e-09  7.51967155e-01                                 
 2.70562568e-09  7.92416876e-01  2.70562568e-09  7.50405831e-01  2.70562568e-09  1.78244636e+00  2.70562568e-09  1.80000000e+00  2.70562568e-09  5.83527547e-03  2.70562568e-09  7.50405831e-01                                 
 3.20447127e-09  7.90630734e-01  3.20447127e-09  7.48798443e-01  3.20447127e-09  1.78571498e+00  3.20447127e-09  1.80000000e+00  3.20447127e-09 -5.62507666e-03  3.20447127e-09  7.48798443e-01                                 
 4.08415914e-09  7.87774536e-01  4.08415914e-09  7.46205427e-01  4.08415914e-09  1.78524844e+00  4.08415914e-09  1.80000000e+00  4.08415914e-09  5.55131752e-03  4.08415914e-09  7.46205427e-01                                 
 5.28049761e-09  7.84378173e-01  5.28049761e-09  7.43087017e-01  5.28049761e-09  1.78173910e+00  5.28049761e-09  1.80000000e+00  5.28049761e-09 -5.46015767e-03  5.28049761e-09  7.43087017e-01                                 
 7.67317455e-09  7.78773210e-01  7.67317455e-09  7.37868071e-01  7.67317455e-09  1.77659131e+00  7.67317455e-09  1.80000000e+00  7.67317455e-09  5.44490340e-03  7.67317455e-09  7.37868071e-01                                 
 1.22015759e-08  7.70867881e-01  1.22015759e-08  7.30370626e-01  1.22015759e-08  1.76897333e+00  1.22015759e-08  1.80000000e+00  1.22015759e-08 -5.40724590e-03  1.22015759e-08  7.30370626e-01                                 
 1.80181194e-08  7.63700170e-01  1.80181194e-08  7.23445507e-01  1.80181194e-08  1.76268096e+00  1.80181194e-08  1.80000000e+00  1.80181194e-08  5.41432845e-03  1.80181194e-08  7.23445507e-01                                 
 2.67215180e-08  7.56095857e-01  2.67215180e-08  7.15995408e-01  2.67215180e-08  1.75586278e+00  2.67215180e-08  1.80000000e+00  2.67215180e-08 -5.38327528e-03  2.67215180e-08  7.15995408e-01                                 
 2.87364106e-08  7.54700433e-01  2.87364106e-08  7.14615918e-01  2.87364106e-08  1.75487146e+00  2.87364106e-08  1.80000000e+00  2.87364106e-08  5.36294611e-03  2.87364106e-08  7.14615918e-01                                 
 3.08778779e-08  7.53312893e-01  3.08778779e-08  7.13241594e-01  3.08778779e-08  1.75349668e+00  3.08778779e-08  1.80000000e+00  3.08778779e-08 -5.30470680e-03  3.08778779e-08  7.13241594e-01                                 
 3.36246047e-08  7.51652258e-01  3.36246047e-08  7.11594649e-01  3.36246047e-08  1.75232043e+00  3.36246047e-08  1.80000000e+00  3.36246047e-08  5.29540212e-03  3.36246047e-08  7.11594649e-01                                 
 3.91180582e-08  7.48661319e-01  3.91180582e-08  7.08622884e-01  3.91180582e-08  1.74967686e+00  3.91180582e-08  1.80000000e+00  3.91180582e-08 -5.26039287e-03  3.91180582e-08  7.08622884e-01                                 
 5.01049653e-08  7.43687617e-01  5.01049653e-08  7.03661241e-01  5.01049653e-08  1.74594181e+00  5.01049653e-08  1.80000000e+00  5.01049653e-08  5.27372346e-03  5.01049653e-08  7.03661241e-01                                 
 6.39497810e-08  7.38765876e-01  6.39497810e-08  6.98723090e-01  6.39497810e-08  1.74196940e+00  6.39497810e-08  1.80000000e+00  6.39497810e-08 -5.24743605e-03  6.39497810e-08  6.98723090e-01                                 
 7.98943361e-08  7.34209837e-01  7.98943361e-08  6.94143134e-01  7.98943361e-08  1.73113015e+00  7.98943361e-08  1.80000000e+00  7.98943361e-08  5.26274314e-03  7.98943361e-08  6.94143134e-01                                 
 9.85247784e-08  7.29041023e-01  9.85247784e-08  6.89115975e-01  9.85247784e-08  1.71323976e+00  9.85247784e-08  1.80000000e+00  9.85247784e-08 -5.23840481e-03  9.85247784e-08  6.89115975e-01                                 
 1.21406163e-07  7.22885500e-01  1.21406163e-07  6.83293326e-01  1.21406163e-07  1.69502207e+00  1.21406163e-07  1.80000000e+00  1.21406163e-07  5.25520770e-03  1.21406163e-07  6.83293326e-01                                 
 1.40902136e-07  7.15395075e-01  1.40902136e-07  6.76681150e-01  1.40902136e-07  1.67021798e+00  1.40902136e-07  1.80000000e+00  1.40902136e-07 -5.23158258e-03  1.40902136e-07  6.76681150e-01                                 
 1.61879437e-07  7.08235784e-01  1.61879437e-07  6.70386506e-01  1.61879437e-07  1.63465038e+00  1.61879437e-07  1.80000000e+00  1.61879437e-07  5.24716121e-03  1.61879437e-07  6.70386506e-01                                 
 1.91612215e-07  6.99652442e-01  1.91612215e-07  6.62852941e-01  1.91612215e-07  1.59026426e+00  1.91612215e-07  1.80000000e+00  1.91612215e-07 -5.22492970e-03  1.91612215e-07  6.62852941e-01                                 
 2.17721735e-07  7.03999727e-01  2.17721735e-07  6.65742255e-01  2.17721735e-07  1.58943818e+00  2.17721735e-07  1.80000000e+00  2.17721735e-07  5.24359199e-03  2.17721735e-07  6.65742255e-01                                 
 2.39903567e-07  7.08229608e-01  2.39903567e-07  6.68642519e-01  2.39903567e-07  1.57526831e+00  2.39903567e-07  1.80000000e+00  2.39903567e-07 -5.21897971e-03  2.39903567e-07  6.68642519e-01                                 
 2.62998589e-07  7.04253067e-01  2.62998589e-07  6.65045455e-01  2.62998589e-07  1.55040894e+00  2.62998589e-07  1.80000000e+00  2.62998589e-07  5.23570301e-03  2.62998589e-07  6.65045455e-01                                 
 2.84461536e-07  7.01114227e-01  2.84461536e-07  6.62179337e-01  2.84461536e-07  1.52509723e+00  2.84461536e-07  1.80000000e+00  2.84461536e-07 -5.21205965e-03  2.84461536e-07  6.62179337e-01                                 
 3.06235747e-07  6.98096988e-01  3.06235747e-07  6.59433982e-01  3.06235747e-07  1.50262460e+00  3.06235747e-07  1.80000000e+00  3.06235747e-07  5.22864295e-03  3.06235747e-07  6.59433982e-01                                 
 3.45128252e-07  6.92550133e-01  3.45128252e-07  6.54468732e-01  3.45128252e-07  1.45808623e+00  3.45128252e-07  1.80000000e+00  3.45128252e-07 -5.20640302e-03  3.45128252e-07  6.54468732e-01                                 
 3.94818014e-07  6.85735821e-01  3.94818014e-07  6.48442547e-01  3.94818014e-07  1.40483435e+00  3.94818014e-07  1.80000000e+00  3.94818014e-07  5.22514598e-03  3.94818014e-07  6.48442547e-01                                 
 4.94197538e-07  6.74497735e-01  4.94197538e-07  6.38534630e-01  4.94197538e-07  1.29516201e+00  4.94197538e-07  1.80000000e+00  4.94197538e-07 -5.20428417e-03  4.94197538e-07  6.38534630e-01                                 
 6.18858711e-07  6.55502361e-01  6.18858711e-07  6.22580471e-01  6.18858711e-07  1.15460531e+00  6.18858711e-07  1.80000000e+00  6.18858711e-07  5.22371597e-03  6.18858711e-07  6.22580471e-01                                 
 7.44009246e-07  6.44100157e-01  7.44009246e-07  6.12937622e-01  7.44009246e-07  9.95583264e-01  7.44009246e-07  1.80000000e+00  7.44009246e-07 -5.20301822e-03  7.44009246e-07  6.12937622e-01                                 
 8.43898974e-07  6.31200305e-01  8.43898974e-07  6.02338636e-01  8.43898974e-07  9.05631746e-01  8.43898974e-07  1.80000000e+00  8.43898974e-07  5.22264762e-03  8.43898974e-07  6.02338636e-01                                 
 9.51143457e-07  6.17992257e-01  9.51143457e-07  5.91567032e-01  9.51143457e-07  8.16357998e-01  9.51143457e-07  1.80000000e+00  9.51143457e-07 -5.20138941e-03  9.51143457e-07  5.91567032e-01                                 
 1.07131900e-06  6.03604322e-01  1.07131900e-06  5.79903899e-01  1.07131900e-06  7.29422496e-01  1.07131900e-06  1.80000000e+00  1.07131900e-06  5.22150898e-03  1.07131900e-06  5.79903899e-01                                 
 1.25500929e-06  5.83458815e-01  1.25500929e-06  5.63646181e-01  1.25500929e-06  6.41075864e-01  1.25500929e-06  1.80000000e+00  1.25500929e-06 -5.20029679e-03  1.25500929e-06  5.63646181e-01                                 
 1.27874435e-06  5.81341946e-01  1.27874435e-06  5.61941043e-01  1.27874435e-06  6.32514884e-01  1.27874435e-06  1.80000000e+00  1.27874435e-06 -8.50479241e-07  1.27874435e-06  5.61941043e-01                                 
 1.32621449e-06  5.77818763e-01  1.32621449e-06  5.59101103e-01  1.32621449e-06  6.15991878e-01  1.32621449e-06  1.80000000e+00  1.32621449e-06  6.14810486e-07  1.32621449e-06  5.59101103e-01                                 
 1.42115476e-06  5.81886688e-01  1.42115476e-06  5.62324545e-01  1.42115476e-06  5.97753780e-01  1.42115476e-06  1.80000000e+00  1.42115476e-06 -6.01132050e-07  1.42115476e-06  5.62324545e-01                                 
 1.44384134e-06  5.87629970e-01  1.44384134e-06  5.66914809e-01  1.44384134e-06  5.99207799e-01  1.44384134e-06  1.80000000e+00  1.44384134e-06  2.22534484e-07  1.44384134e-06  5.66914809e-01                                 
 1.48921451e-06  6.08450697e-01  1.48921451e-06  5.83565373e-01  1.48921451e-06  6.11567338e-01  1.48921451e-06  1.80000000e+00  1.48921451e-06  6.41932618e-07  1.48921451e-06  5.83565373e-01                                 
 1.49815044e-06  6.15735704e-01  1.49815044e-06  5.89392397e-01  1.49815044e-06  6.17141726e-01  1.49815044e-06  1.80000000e+00  1.49815044e-06  7.98304521e-07  1.49815044e-06  5.89392397e-01                                 
 1.51602230e-06  6.33874282e-01  1.51602230e-06  6.03899480e-01  1.51602230e-06  6.31610836e-01  1.51602230e-06  1.80000000e+00  1.51602230e-06  1.22255504e-06  1.51602230e-06  6.03899480e-01                                 
 1.55176602e-06  7.17556314e-01  1.55176602e-06  6.71143941e-01  1.55176602e-06  7.03413140e-01  1.55176602e-06  1.80000000e+00  1.55176602e-06  3.75983391e-06  1.55176602e-06  6.71143941e-01                                 
 1.58878212e-06  8.25003317e-01  1.58878212e-06  7.78869811e-01  1.58878212e-06  7.90760315e-01  1.58878212e-06  1.80000000e+00  1.58878212e-06  4.40274803e-06  1.58878212e-06  7.78869811e-01                                 
 1.59506758e-06  8.34799441e-01  1.59506758e-06  7.89713775e-01  1.59506758e-06  7.97005932e-01  1.59506758e-06  1.80000000e+00  1.59506758e-06  2.53326371e-06  1.59506758e-06  7.89713775e-01                                 
 1.60763850e-06  8.51640338e-01  1.60763850e-06  8.06553543e-01  1.60763850e-06  8.06236940e-01  1.60763850e-06  1.80000000e+00  1.60763850e-06  1.52496252e-06  1.60763850e-06  8.06553543e-01                                 
 1.63278034e-06  8.82584721e-01  1.63278034e-06  8.35060176e-01  1.63278034e-06  8.19227627e-01  1.63278034e-06  1.80000000e+00  1.63278034e-06  2.00669098e-06  1.63278034e-06  8.35060176e-01                                 
 1.65789536e-06  9.15136801e-01  1.65789536e-06  8.61106170e-01  1.65789536e-06  8.28390624e-01  1.65789536e-06  1.80000000e+00  1.65789536e-06  1.33846043e-06  1.65789536e-06  8.61106170e-01                                 
 1.68626998e-06  9.57621127e-01  1.68626998e-06  8.88129401e-01  1.68626998e-06  8.39493321e-01  1.68626998e-06  1.80000000e+00  1.68626998e-06  1.98475270e-06  1.68626998e-06  8.88129401e-01                                 
 1.71190727e-06  9.78020444e-01  1.71190727e-06  8.99039632e-01  1.71190727e-06  8.92721848e-01  1.71190727e-06  1.80000000e+00  1.71190727e-06  1.71646407e-06  1.71190727e-06  8.99039632e-01                                 
 1.74432672e-06  9.68988028e-01  1.74432672e-06  8.94625158e-01  1.74432672e-06  8.84488355e-01  1.74432672e-06  1.80000000e+00  1.74432672e-06 -2.46072550e-06  1.74432672e-06  8.94625158e-01                                 
 1.76950352e-06  9.70858834e-01  1.76950352e-06  8.95331272e-01  1.76950352e-06  8.70699488e-01  1.76950352e-06  1.80000000e+00  1.76950352e-06  1.92341911e-06  1.76950352e-06  8.95331272e-01                                 
 1.79608770e-06  9.72034170e-01  1.79608770e-06  8.96182600e-01  1.79608770e-06  8.92190345e-01  1.79608770e-06  1.80000000e+00  1.79608770e-06 -9.05465300e-07  1.79608770e-06  8.96182600e-01                                 
 1.84370680e-06  9.69606713e-01  1.84370680e-06  8.94726398e-01  1.84370680e-06  8.74481383e-01  1.84370680e-06  1.80000000e+00  1.84370680e-06  3.80017023e-07  1.84370680e-06  8.94726398e-01                                 
 1.89172362e-06  9.71683973e-01  1.89172362e-06  8.95967245e-01  1.89172362e-06  8.90078511e-01  1.89172362e-06  1.80000000e+00  1.89172362e-06  7.08566177e-08  1.89172362e-06  8.95967245e-01                                 
 1.90002566e-06  9.70483410e-01  1.90002566e-06  8.95300641e-01  1.90002566e-06  8.85825322e-01  1.90002566e-06  1.80000000e+00  1.90002566e-06 -4.18353522e-07  1.90002566e-06  8.95300641e-01                                 
 1.91662974e-06  9.69828156e-01  1.91662974e-06  8.94924724e-01  1.91662974e-06  8.82177238e-01  1.91662974e-06  1.80000000e+00  1.91662974e-06  9.50047798e-08  1.91662974e-06  8.94924724e-01                                 
 1.94983791e-06  9.69924797e-01  1.94983791e-06  8.94996168e-01  1.94983791e-06  8.84528654e-01  1.94983791e-06  1.80000000e+00  1.94983791e-06 -7.32108030e-09  1.94983791e-06  8.94996168e-01                                 
 2.00014528e-06  9.69051122e-01  2.00014528e-06  8.94528714e-01  2.00014528e-06  8.83834141e-01  2.00014528e-06  1.80000000e+00  2.00014528e-06 -3.71158768e-08  2.00014528e-06  8.94528714e-01                                 
 2.08972692e-06  9.68449761e-01  2.08972692e-06  8.94225875e-01  2.08972692e-06  8.85152924e-01  2.08972692e-06  1.80000000e+00  2.08972692e-06  4.49801390e-08  2.08972692e-06  8.94225875e-01                                 
 2.25578847e-06  9.66516751e-01  2.25578847e-06  8.93201647e-01  2.25578847e-06  8.85422269e-01  2.25578847e-06  1.80000000e+00  2.25578847e-06 -5.90402481e-08  2.25578847e-06  8.93201647e-01                                 
 2.55342824e-06  9.63849112e-01  2.55342824e-06  8.91788960e-01  2.55342824e-06  8.86146788e-01  2.55342824e-06  1.80000000e+00  2.55342824e-06  5.24575307e-08  2.55342824e-06  8.91788960e-01                                 
 3.13054652e-06  9.57916552e-01  3.13054652e-06  8.88535954e-01  3.13054652e-06  8.84528504e-01  3.13054652e-06  1.80000000e+00  3.13054652e-06 -6.55026931e-08  3.13054652e-06  8.88535954e-01                                 
 4.13054652e-06  9.47077637e-01  4.13054652e-06  8.82301763e-01  4.13054652e-06  8.79347957e-01  4.13054652e-06  1.80000000e+00  4.13054652e-06  4.96342391e-08  4.13054652e-06  8.82301763e-01                                 
 4.25554652e-06  9.45318627e-01  4.25554652e-06  8.81243802e-01  4.25554652e-06  8.78274507e-01  4.25554652e-06  1.80000000e+00  4.25554652e-06 -1.28248429e-08  4.25554652e-06  8.81243802e-01                                 
 4.50554652e-06  9.41787563e-01  4.50554652e-06  8.79094287e-01  4.50554652e-06  8.76140093e-01  4.50554652e-06  1.80000000e+00  4.50554652e-06 -1.30097840e-08  4.50554652e-06  8.79094287e-01                                 
 5.00554652e-06  9.31772705e-01  5.00554652e-06  8.72736340e-01  5.00554652e-06  8.69711392e-01  5.00554652e-06  1.80000000e+00  5.00554652e-06 -2.92294403e-08  5.00554652e-06  8.72736340e-01                                 
 5.12622200e-06  9.28130000e-01  5.12622200e-06  8.70326780e-01  5.12622200e-06  8.67212793e-01  5.12622200e-06  1.80000000e+00  5.12622200e-06 -3.55914306e-08  5.12622200e-06  8.70326780e-01                                 
 5.36757295e-06  9.18744494e-01  5.36757295e-06  8.63844105e-01  5.36757295e-06  8.60568177e-01  5.36757295e-06  1.80000000e+00  5.36757295e-06 -6.15410529e-08  5.36757295e-06  8.63844105e-01                                 
 5.85027484e-06  8.87695571e-01  5.85027484e-06  8.39561426e-01  5.85027484e-06  8.37112236e-01  5.85027484e-06  1.80000000e+00  5.85027484e-06 -1.17336394e-07  5.85027484e-06  8.39561426e-01                                 
 6.25008833e-06  8.71889180e-01  6.25008833e-06  8.25595210e-01  6.25008833e-06  8.25225469e-01  6.25008833e-06  1.80000000e+00  6.25008833e-06  5.67108399e-09  6.25008833e-06  8.25595210e-01                                 
