 time            v(vbep)         time            v(vben)         time            v(vout)         time            v(vphi1)        time            v(vphi2)        time            v(vref)         time            v(voutc)        time            v(voutcc)       yes             currtemp       
 0.00000000e+00  7.90022628e-01  0.00000000e+00  7.34030314e-01  0.00000000e+00  1.63520659e+00  0.00000000e+00  0.00000000e+00  0.00000000e+00  1.80000000e+00  0.00000000e+00  7.36885142e-01  0.00000000e+00  1.63520658e+00  0.00000000e+00  1.64121899e+00  1.00000000e+00  1.60000000e+01 
 1.00000000e-11  7.90047002e-01  1.00000000e-11  7.34101249e-01  1.00000000e-11  1.63600172e+00  1.00000000e-11  1.80000000e-02  1.00000000e-11  1.80024855e+00  1.00000000e-11  7.37411643e-01  1.00000000e-11  1.63567315e+00  1.00000000e-11  1.64123254e+00                                 
 2.00000000e-11  7.90053677e-01  2.00000000e-11  7.34145872e-01  2.00000000e-11  1.63650652e+00  2.00000000e-11  3.60000000e-02  2.00000000e-11  1.80034890e+00  2.00000000e-11  7.37804673e-01  2.00000000e-11  1.63603031e+00  2.00000000e-11  1.64123794e+00                                 
 4.00000000e-11  7.90053495e-01  4.00000000e-11  7.34204591e-01  4.00000000e-11  1.63713609e+00  4.00000000e-11  7.20000000e-02  4.00000000e-11  1.80038991e+00  4.00000000e-11  7.38380735e-01  4.00000000e-11  1.63656838e+00  4.00000000e-11  1.64124015e+00                                 
 8.00000000e-11  7.90041525e-01  8.00000000e-11  7.34241440e-01  8.00000000e-11  1.63732344e+00  8.00000000e-11  1.44000000e-01  8.00000000e-11  1.80018944e+00  8.00000000e-11  7.38826986e-01  8.00000000e-11  1.63702631e+00  8.00000000e-11  1.64122954e+00                                 
 1.60000000e-10  7.90038345e-01  1.60000000e-10  7.34249053e-01  1.60000000e-10  1.63701132e+00  1.60000000e-10  2.88000000e-01  1.60000000e-10  1.80000506e+00  1.60000000e-10  7.38883367e-01  1.60000000e-10  1.63711182e+00  1.60000000e-10  1.64121913e+00                                 
 3.20000000e-10  7.90035098e-01  3.20000000e-10  7.34251663e-01  3.20000000e-10  1.63667151e+00  3.20000000e-10  5.76000000e-01  3.20000000e-10  1.80000219e+00  3.20000000e-10  7.38788088e-01  3.20000000e-10  1.63690579e+00  3.20000000e-10  1.64121609e+00                                 
 6.40000000e-10  7.89956720e-01  6.40000000e-10  7.33945558e-01  6.40000000e-10  1.63317172e+00  6.40000000e-10  1.15200000e+00  6.40000000e-10  1.81277930e+00  6.40000000e-10  7.37342770e-01  6.40000000e-10  1.64198608e+00  6.40000000e-10  1.64124565e+00                                 
 9.99956595e-10  7.90547405e-01  9.99956595e-10  7.34087048e-01  9.99956595e-10  1.60523525e+00  9.99956595e-10  1.79992187e+00  9.99956595e-10  8.42705217e-02  9.99956595e-10  7.43875082e-01  9.99956595e-10  1.63710315e+00  9.99956595e-10  1.64117187e+00                                 
 1.00000000e-09  7.90547268e-01  1.00000000e-09  7.34086718e-01  1.00000000e-09  1.60523138e+00  1.00000000e-09  1.80000000e+00  1.00000000e-09  8.39090861e-02  1.00000000e-09  7.43877243e-01  1.00000000e-09  1.63710004e+00  1.00000000e-09  1.64117177e+00                                 
 1.00008681e-09  7.90545970e-01  1.00008681e-09  7.34083774e-01  1.00008681e-09  1.60521088e+00  1.00008681e-09  1.80000000e+00  1.00008681e-09  8.31784774e-02  1.00008681e-09  7.43872024e-01  1.00008681e-09  1.63708488e+00  1.00008681e-09  1.64117083e+00                                 
 1.00026043e-09  7.90544977e-01  1.00026043e-09  7.34081090e-01  1.00026043e-09  1.60517782e+00  1.00026043e-09  1.80000000e+00  1.00026043e-09  8.17399160e-02  1.00026043e-09  7.43867650e-01  1.00026043e-09  1.63706072e+00  1.00026043e-09  1.64117010e+00                                 
 1.00060767e-09  7.90543591e-01  1.00060767e-09  7.34077333e-01  1.00060767e-09  1.60511929e+00  1.00060767e-09  1.80000000e+00  1.00060767e-09  7.89381167e-02  1.00060767e-09  7.43864443e-01  1.00060767e-09  1.63701863e+00  1.00060767e-09  1.64116905e+00                                 
 1.00130216e-09  7.90540425e-01  1.00130216e-09  7.34069950e-01  1.00130216e-09  1.60501139e+00  1.00130216e-09  1.80000000e+00  1.00130216e-09  7.36085411e-02  1.00130216e-09  7.43864827e-01  1.00130216e-09  1.63694421e+00  1.00130216e-09  1.64116726e+00                                 
 1.00269113e-09  7.90534910e-01  1.00269113e-09  7.34060102e-01  1.00269113e-09  1.60483940e+00  1.00269113e-09  1.80000000e+00  1.00269113e-09  6.39784620e-02  1.00269113e-09  7.43897786e-01  1.00269113e-09  1.63683848e+00  1.00269113e-09  1.64116604e+00                                 
 1.00546906e-09  7.90524882e-01  1.00546906e-09  7.34051121e-01  1.00546906e-09  1.60462869e+00  1.00546906e-09  1.80000000e+00  1.00546906e-09  4.82486721e-02  1.00546906e-09  7.44060007e-01  1.00546906e-09  1.63676194e+00  1.00546906e-09  1.64116942e+00                                 
 1.01102494e-09  7.90511223e-01  1.01102494e-09  7.34061491e-01  1.01102494e-09  1.60456672e+00  1.01102494e-09  1.80000000e+00  1.01102494e-09  2.72504745e-02  1.01102494e-09  7.44626001e-01  1.01102494e-09  1.63697038e+00  1.01102494e-09  1.64118925e+00                                 
 1.02213669e-09  7.90503144e-01  1.02213669e-09  7.34118543e-01  1.02213669e-09  1.60499188e+00  1.02213669e-09  1.80000000e+00  1.02213669e-09  8.35436002e-03  1.02213669e-09  7.46000450e-01  1.02213669e-09  1.63792799e+00  1.02213669e-09  1.64123295e+00                                 
 1.04436019e-09  7.90525039e-01  1.04436019e-09  7.34206480e-01  1.04436019e-09  1.60573708e+00  1.04436019e-09  1.80000000e+00  1.04436019e-09  8.36465764e-04  1.04436019e-09  7.47976166e-01  1.04436019e-09  1.63958556e+00  1.04436019e-09  1.64126368e+00                                 
 1.08880720e-09  7.90586258e-01  1.08880720e-09  7.34210182e-01  1.08880720e-09  1.60564771e+00  1.08880720e-09  1.80000000e+00  1.08880720e-09  9.22909181e-04  1.08880720e-09  7.49267853e-01  1.08880720e-09  1.64074384e+00  1.08880720e-09  1.64123734e+00                                 
 1.17770120e-09  7.90680988e-01  1.17770120e-09  7.34117910e-01  1.17770120e-09  1.60429664e+00  1.17770120e-09  1.80000000e+00  1.17770120e-09  3.52623334e-04  1.17770120e-09  7.49816854e-01  1.17770120e-09  1.64120728e+00  1.17770120e-09  1.64122700e+00                                 
 1.35548922e-09  7.90795127e-01  1.35548922e-09  7.34069807e-01  1.35548922e-09  1.60187262e+00  1.35548922e-09  1.80000000e+00  1.35548922e-09  3.55042377e-04  1.35548922e-09  7.50185972e-01  1.35548922e-09  1.64151815e+00  1.35548922e-09  1.64123333e+00                                 
 1.61594690e-09  7.90751836e-01  1.61594690e-09  7.34049499e-01  1.61594690e-09  1.60059779e+00  1.61594690e-09  1.80000000e+00  1.61594690e-09 -1.07271090e-04  1.61594690e-09  7.49369748e-01  1.61594690e-09  1.64082063e+00  1.61594690e-09  1.64123350e+00                                 
 1.95276142e-09  7.90544422e-01  1.95276142e-09  7.34031806e-01  1.95276142e-09  1.60164260e+00  1.95276142e-09  1.80000000e+00  1.95276142e-09  6.60446489e-05  1.95276142e-09  7.48145502e-01  1.95276142e-09  1.63978296e+00  1.95276142e-09  1.64126067e+00                                 
 2.25985053e-09  7.90353678e-01  2.25985053e-09  7.34020062e-01  2.25985053e-09  1.60272717e+00  2.25985053e-09  1.80000000e+00  2.25985053e-09 -1.43912505e-04  2.25985053e-09  7.47048392e-01  2.25985053e-09  1.63884725e+00  2.25985053e-09  1.64128220e+00                                 
 2.73152934e-09  7.90146291e-01  2.73152934e-09  7.34008255e-01  2.73152934e-09  1.60419520e+00  2.73152934e-09  1.80000000e+00  2.73152934e-09  4.52380841e-05  2.73152934e-09  7.45493197e-01  2.73152934e-09  1.63752653e+00  2.73152934e-09  1.64132886e+00                                 
 3.54806813e-09  7.89972622e-01  3.54806813e-09  7.34001285e-01  3.54806813e-09  1.60562770e+00  3.54806813e-09  1.80000000e+00  3.54806813e-09 -1.31880072e-04  3.54806813e-09  7.43111050e-01  3.54806813e-09  1.63549684e+00  3.54806813e-09  1.64139092e+00                                 
 5.18114570e-09  7.89907455e-01  5.18114570e-09  7.34006271e-01  5.18114570e-09  1.60610345e+00  5.18114570e-09  1.80000000e+00  5.18114570e-09  4.56728494e-05  5.18114570e-09  7.39688034e-01  5.18114570e-09  1.63258752e+00  5.18114570e-09  1.64145726e+00                                 
 7.18850382e-09  7.89927208e-01  7.18850382e-09  7.34019627e-01  7.18850382e-09  1.60441215e+00  7.18850382e-09  1.80000000e+00  7.18850382e-09 -1.14740576e-04  7.18850382e-09  7.37329462e-01  7.18850382e-09  1.63058048e+00  7.18850382e-09  1.64139749e+00                                 
 8.85211972e-09  7.89912321e-01  8.85211972e-09  7.34025405e-01  8.85211972e-09  1.60338190e+00  8.85211972e-09  1.80000000e+00  8.85211972e-09  6.66444489e-05  8.85211972e-09  7.36389697e-01  8.85211972e-09  1.62978400e+00  8.85211972e-09  1.64126609e+00                                 
 1.07763129e-08  7.89917822e-01  1.07763129e-08  7.34028591e-01  1.07763129e-08  1.60183630e+00  1.07763129e-08  1.80000000e+00  1.07763129e-08 -9.23858619e-05  1.07763129e-08  7.35848407e-01  1.07763129e-08  1.62931876e+00  1.07763129e-08  1.64105275e+00                                 
 1.28656033e-08  7.89944904e-01  1.28656033e-08  7.34029290e-01  1.28656033e-08  1.59883138e+00  1.28656033e-08  1.80000000e+00  1.28656033e-08  7.38282008e-05  1.28656033e-08  7.35651577e-01  1.28656033e-08  1.62914768e+00  1.28656033e-08  1.64079888e+00                                 
 1.58496971e-08  7.89980276e-01  1.58496971e-08  7.34029979e-01  1.58496971e-08  1.59248585e+00  1.58496971e-08  1.80000000e+00  1.58496971e-08 -8.35660471e-05  1.58496971e-08  7.35618023e-01  1.58496971e-08  1.62910443e+00  1.58496971e-08  1.64042322e+00                                 
 1.93969951e-08  7.90011323e-01  1.93969951e-08  7.34030103e-01  1.93969951e-08  1.58279377e+00  1.93969951e-08  1.80000000e+00  1.93969951e-08  7.52244275e-05  1.93969951e-08  7.35754645e-01  1.93969951e-08  1.62920614e+00  1.93969951e-08  1.64000713e+00                                 
 2.46601302e-08  7.90026234e-01  2.46601302e-08  7.34030648e-01  2.46601302e-08  1.56675788e+00  2.46601302e-08  1.80000000e+00  2.46601302e-08 -8.11145056e-05  2.46601302e-08  7.35965133e-01  2.46601302e-08  1.62935960e+00  2.46601302e-08  1.63945304e+00                                 
 3.19415837e-08  7.90029835e-01  3.19415837e-08  7.34030458e-01  3.19415837e-08  1.54349776e+00  3.19415837e-08  1.80000000e+00  3.19415837e-08  7.48218084e-05  3.19415837e-08  7.36232216e-01  3.19415837e-08  1.62956348e+00  3.19415837e-08  1.63882357e+00                                 
 4.51627963e-08  7.90026438e-01  4.51627963e-08  7.34030512e-01  4.51627963e-08  1.50042929e+00  4.51627963e-08  1.80000000e+00  4.51627963e-08 -8.06912251e-05  4.51627963e-08  7.36521213e-01  4.51627963e-08  1.62977659e+00  4.51627963e-08  1.63796842e+00                                 
 6.63783373e-08  7.90024522e-01  6.63783373e-08  7.34030220e-01  6.63783373e-08  1.43085767e+00  6.63783373e-08  1.80000000e+00  6.63783373e-08  7.44117110e-05  6.63783373e-08  7.36763140e-01  6.63783373e-08  1.62995985e+00  6.63783373e-08  1.63712984e+00                                 
 1.08809419e-07  7.90022672e-01  1.08809419e-07  7.34030417e-01  1.08809419e-07  1.29183759e+00  1.08809419e-07  1.80000000e+00  1.08809419e-07 -8.05283450e-05  1.08809419e-07  7.36875650e-01  1.08809419e-07  1.63003536e+00  1.08809419e-07  1.63637964e+00                                 
 1.71481896e-07  7.90022781e-01  1.71481896e-07  7.34030212e-01  1.71481896e-07  1.08911915e+00  1.71481896e-07  1.80000000e+00  1.71481896e-07  7.45550431e-05  1.71481896e-07  7.36891184e-01  1.71481896e-07  1.63004382e+00  1.71481896e-07  1.63610742e+00                                 
 2.71284005e-07  7.90022473e-01  2.71284005e-07  7.34030412e-01  2.71284005e-07  8.14080543e-01  2.71284005e-07  1.80000000e+00  2.71284005e-07 -7.86330656e-05  2.71284005e-07  7.36877927e-01  2.71284005e-07  1.63002474e+00  2.71284005e-07  1.63604954e+00                                 
 3.64277938e-07  7.90023161e-01  3.64277938e-07  7.34030247e-01  3.64277938e-07  7.27557703e-01  3.64277938e-07  1.80000000e+00  3.64277938e-07  7.79109855e-05  3.64277938e-07  7.36893410e-01  3.64277938e-07  1.63003662e+00  3.64277938e-07  1.63605371e+00                                 
 4.49108113e-07  7.90021487e-01  4.49108113e-07  7.34030353e-01  4.49108113e-07  7.43868929e-01  4.49108113e-07  1.80000000e+00  4.49108113e-07 -7.72784153e-05  4.49108113e-07  7.36878343e-01  4.49108113e-07  1.63001824e+00  4.49108113e-07  1.63604764e+00                                 
 4.88708033e-07  7.90024045e-01  4.88708033e-07  7.34030274e-01  4.88708033e-07  7.40127434e-01  4.88708033e-07  1.80000000e+00  4.88708033e-07  7.75242282e-05  4.88708033e-07  7.36890675e-01  4.88708033e-07  1.63002944e+00  4.88708033e-07  1.63604818e+00                                 
 5.38742131e-07  7.90021387e-01  5.38742131e-07  7.34030373e-01  5.38742131e-07  7.39642525e-01  5.38742131e-07  1.80000000e+00  5.38742131e-07 -7.70813935e-05  5.38742131e-07  7.36879546e-01  5.38742131e-07  1.63001576e+00  5.38742131e-07  1.63604340e+00                                 
 6.02466073e-07  7.90023743e-01  6.02466073e-07  7.34030245e-01  6.02466073e-07  7.39912308e-01  6.02466073e-07  1.80000000e+00  6.02466073e-07  7.74531636e-05  6.02466073e-07  7.36890874e-01  6.02466073e-07  1.63002521e+00  6.02466073e-07  1.63604392e+00                                 
 7.03167341e-07  7.90021584e-01  7.03167341e-07  7.34030387e-01  7.03167341e-07  7.39674384e-01  7.03167341e-07  1.80000000e+00  7.03167341e-07 -7.70271040e-05  7.03167341e-07  7.36879342e-01  7.03167341e-07  1.63000922e+00  7.03167341e-07  1.63603706e+00                                 
 9.04569877e-07  7.90023642e-01  9.04569877e-07  7.34030240e-01  9.04569877e-07  7.39899286e-01  9.04569877e-07  1.80000000e+00  9.04569877e-07  7.74214092e-05  9.04569877e-07  7.36890972e-01  9.04569877e-07  1.63001359e+00  9.04569877e-07  1.63603222e+00                                 
 1.30737495e-06  7.90021632e-01  1.30737495e-06  7.34030389e-01  1.30737495e-06  7.39678477e-01  1.30737495e-06  1.80000000e+00  1.30737495e-06 -7.72409711e-05  1.30737495e-06  7.36879301e-01  1.30737495e-06  1.62998579e+00  1.30737495e-06  1.63601371e+00                                 
 2.11298509e-06  7.90023619e-01  2.11298509e-06  7.34030239e-01  2.11298509e-06  7.39896444e-01  2.11298509e-06  1.80000000e+00  2.11298509e-06  7.74134338e-05  2.11298509e-06  7.36890993e-01  2.11298509e-06  1.62996678e+00  2.11298509e-06  1.63598548e+00                                 
 3.31298509e-06  7.90021644e-01  3.31298509e-06  7.34030390e-01  3.31298509e-06  7.39680192e-01  3.31298509e-06  1.80000000e+00  3.31298509e-06 -7.71630404e-05  3.31298509e-06  7.36879289e-01  3.31298509e-06  1.62990802e+00  3.31298509e-06  1.63593610e+00                                 
 4.51298509e-06  7.90023609e-01  4.51298509e-06  7.34030239e-01  4.51298509e-06  7.39894344e-01  4.51298509e-06  1.80000000e+00  4.51298509e-06  7.74104720e-05  4.51298509e-06  7.36891002e-01  4.51298509e-06  1.62987378e+00  4.51298509e-06  1.63589262e+00                                 
 5.71298509e-06  7.90021653e-01  5.71298509e-06  7.34030390e-01  5.71298509e-06  7.39683071e-01  5.71298509e-06  1.80000000e+00  5.71298509e-06 -7.71014330e-05  5.71298509e-06  7.36879280e-01  5.71298509e-06  1.62981502e+00  5.71298509e-06  1.63584327e+00                                 
 6.00100000e-06  7.90023583e-01  6.00100000e-06  7.34030238e-01  6.00100000e-06  7.39892588e-01  6.00100000e-06  1.80000000e+00  6.00100000e-06  7.73966212e-05  6.00100000e-06  7.36891023e-01  6.00100000e-06  1.62981613e+00  6.00100000e-06  1.63583505e+00                                 
 6.00110000e-06  7.89984842e-01  6.00110000e-06  7.33790316e-01  6.00110000e-06  7.37954204e-01  6.00110000e-06  1.62000000e+00  6.00110000e-06 -9.50968976e-05  6.00110000e-06  7.35180180e-01  6.00110000e-06  1.62835934e+00  6.00110000e-06  1.63582154e+00                                 
 6.00130000e-06  7.90016368e-01  6.00130000e-06  7.33815380e-01  6.00130000e-06  7.38411892e-01  6.00130000e-06  1.26000000e+00  6.00130000e-06  2.78173298e-05  6.00130000e-06  7.35258419e-01  6.00130000e-06  1.62842824e+00  6.00130000e-06  1.63584014e+00                                 
 6.00170000e-06  7.90061416e-01  6.00170000e-06  7.33682477e-01  6.00170000e-06  7.50439307e-01  6.00170000e-06  5.40000000e-01  6.00170000e-06  1.32514117e+00  6.00170000e-06  7.32156443e-01  6.00170000e-06  1.58352717e+00  6.00170000e-06  1.63563609e+00                                 
 6.00200000e-06  7.90010865e-01  6.00200000e-06  7.31283149e-01  6.00200000e-06  7.83378243e-01  6.00200000e-06  0.00000000e+00  6.00200000e-06  1.83653609e+00  6.00200000e-06  7.06044509e-01  6.00200000e-06  1.29224522e+00  6.00200000e-06  1.63516394e+00                                 
 6.00204038e-06  7.90021873e-01  6.00204038e-06  7.31246204e-01  6.00204038e-06  7.79857112e-01  6.00204038e-06  0.00000000e+00  6.00204038e-06  1.81266744e+00  6.00204038e-06  7.05868506e-01  6.00204038e-06  1.24291497e+00  6.00204038e-06  1.63556389e+00                                 
 6.00212113e-06  7.90024728e-01  6.00212113e-06  7.31365700e-01  6.00212113e-06  7.73095486e-01  6.00212113e-06  0.00000000e+00  6.00212113e-06  1.79477038e+00  6.00212113e-06  7.07886246e-01  6.00212113e-06  1.15884639e+00  6.00212113e-06  1.63597341e+00                                 
 6.00228263e-06  7.90021237e-01  6.00228263e-06  7.31690904e-01  6.00228263e-06  7.67177401e-01  6.00228263e-06  0.00000000e+00  6.00228263e-06  1.80130255e+00  6.00228263e-06  7.12215886e-01  6.00228263e-06  1.03354652e+00  6.00228263e-06  1.63595643e+00                                 
 6.00248112e-06  7.90022850e-01  6.00248112e-06  7.32055065e-01  6.00248112e-06  7.62389503e-01  6.00248112e-06  0.00000000e+00  6.00248112e-06  1.79832035e+00  6.00248112e-06  7.15789250e-01  6.00248112e-06  9.16109796e-01  6.00248112e-06  1.63610379e+00                                 
 6.00271413e-06  7.90020963e-01  6.00271413e-06  7.32777326e-01  6.00271413e-06  7.54869406e-01  6.00271413e-06  0.00000000e+00  6.00271413e-06  1.80023012e+00  6.00271413e-06  7.22714051e-01  6.00271413e-06  8.23034759e-01  6.00271413e-06  1.63610787e+00                                 
 6.00312924e-06  7.90022669e-01  6.00312924e-06  7.33914047e-01  6.00312924e-06  7.43931713e-01  6.00312924e-06  0.00000000e+00  6.00312924e-06  1.79947033e+00  6.00312924e-06  7.32617936e-01  6.00312924e-06  7.52364993e-01  6.00312924e-06  1.63604859e+00                                 
 6.00342309e-06  7.90021398e-01  6.00342309e-06  7.34366658e-01  6.00342309e-06  7.41017654e-01  6.00342309e-06  0.00000000e+00  6.00342309e-06  1.80041705e+00  6.00342309e-06  7.36017065e-01  6.00342309e-06  7.44455716e-01  6.00342309e-06  1.63571491e+00                                 
 6.00377207e-06  7.90022910e-01  6.00377207e-06  7.34529118e-01  6.00377207e-06  7.40852795e-01  6.00377207e-06  0.00000000e+00  6.00377207e-06  1.79973255e+00  6.00377207e-06  7.36882044e-01  6.00377207e-06  7.41101180e-01  6.00377207e-06  1.63515266e+00                                 
 6.00414983e-06  7.90021870e-01  6.00414983e-06  7.34594959e-01  6.00414983e-06  7.40607276e-01  6.00414983e-06  0.00000000e+00  6.00414983e-06  1.80021079e+00  6.00414983e-06  7.37632781e-01  6.00414983e-06  7.40983567e-01  6.00414983e-06  1.63432214e+00                                 
 6.00490536e-06  7.90023162e-01  6.00490536e-06  7.34525713e-01  6.00490536e-06  7.42076510e-01  6.00490536e-06  0.00000000e+00  6.00490536e-06  1.79984135e+00  6.00490536e-06  7.37684716e-01  6.00490536e-06  7.41508517e-01  6.00490536e-06  1.63247895e+00                                 
