 time            v(vbep)         time            v(vben)         time            v(vout)         time            v(vphi1)        time            v(vphi2)        time            v(vref)         time            v(voutc)        time            v(voutcc)       yes             currtemp       
 0.00000000e+00  6.80702976e-01  0.00000000e+00  6.09155227e-01  0.00000000e+00  1.39942616e+00  0.00000000e+00  0.00000000e+00  0.00000000e+00  1.79999998e+00  0.00000000e+00  6.08369715e-01  0.00000000e+00  1.39942616e+00  0.00000000e+00  1.40767939e+00  1.00000000e+00  8.80000000e+01 
 1.00000000e-11  6.80728241e-01  1.00000000e-11  6.09227971e-01  1.00000000e-11  1.40016071e+00  1.00000000e-11  1.80000000e-02  1.00000000e-11  1.80024898e+00  1.00000000e-11  6.08889071e-01  1.00000000e-11  1.39988269e+00  1.00000000e-11  1.40769267e+00                                 
 2.00000000e-11  6.80734947e-01  2.00000000e-11  6.09272196e-01  2.00000000e-11  1.40059313e+00  2.00000000e-11  3.60000000e-02  2.00000000e-11  1.80034436e+00  2.00000000e-11  6.09270523e-01  2.00000000e-11  1.40022195e+00  2.00000000e-11  1.40769722e+00                                 
 4.00000000e-11  6.80734698e-01  4.00000000e-11  6.09329035e-01  4.00000000e-11  1.40108855e+00  4.00000000e-11  7.20000000e-02  4.00000000e-11  1.80037517e+00  4.00000000e-11  6.09824250e-01  4.00000000e-11  1.40071965e+00  4.00000000e-11  1.40769815e+00                                 
 8.00000000e-11  6.80722960e-01  8.00000000e-11  6.09362354e-01  8.00000000e-11  1.40112831e+00  8.00000000e-11  1.44000000e-01  8.00000000e-11  1.80016989e+00  8.00000000e-11  6.10248590e-01  8.00000000e-11  1.40110579e+00  8.00000000e-11  1.40768808e+00                                 
 1.60000000e-10  6.80720225e-01  1.60000000e-10  6.09368748e-01  1.60000000e-10  1.40079819e+00  1.60000000e-10  2.88000000e-01  1.60000000e-10  1.80000435e+00  1.60000000e-10  6.10341421e-01  1.60000000e-10  1.40114024e+00  1.60000000e-10  1.40767939e+00                                 
 3.20000000e-10  6.80714897e-01  3.20000000e-10  6.09355559e-01  3.20000000e-10  1.40043989e+00  3.20000000e-10  5.76000000e-01  3.20000000e-10  1.79998231e+00  3.20000000e-10  6.10193137e-01  3.20000000e-10  1.40081292e+00  3.20000000e-10  1.40767418e+00                                 
 6.40000000e-10  6.80633898e-01  6.40000000e-10  6.08866397e-01  6.40000000e-10  1.39877961e+00  6.40000000e-10  1.15200000e+00  6.40000000e-10  1.80711249e+00  6.40000000e-10  6.06677018e-01  6.40000000e-10  1.40288700e+00  6.40000000e-10  1.40769192e+00                                 
 1.00000000e-09  6.81160479e-01  1.00000000e-09  6.09399594e-01  1.00000000e-09  1.38095206e+00  1.00000000e-09  1.80000000e+00  1.00000000e-09  1.16501914e-01  1.00000000e-09  6.22803339e-01  1.00000000e-09  1.41029867e+00  1.00000000e-09  1.40772083e+00                                 
 1.03823678e-09  6.81246994e-01  1.03823678e-09  6.09372973e-01  1.03823678e-09  1.37907242e+00  1.03823678e-09  1.80000000e+00  1.03823678e-09  2.87220785e-02  1.03823678e-09  6.25459865e-01  1.03823678e-09  1.41157126e+00  1.03823678e-09  1.40772689e+00                                 
 1.11471033e-09  6.81436118e-01  1.11471033e-09  6.09362519e-01  1.11471033e-09  1.37682221e+00  1.11471033e-09  1.80000000e+00  1.11471033e-09 -1.28215955e-02  1.11471033e-09  6.28575594e-01  1.11471033e-09  1.41391043e+00  1.11471033e-09  1.40773145e+00                                 
 1.26765744e-09  6.81552461e-01  1.26765744e-09  6.09194597e-01  1.26765744e-09  1.37361682e+00  1.26765744e-09  1.80000000e+00  1.26765744e-09  9.84393493e-03  1.26765744e-09  6.27640699e-01  1.26765744e-09  1.41341509e+00  1.26765744e-09  1.40769531e+00                                 
 1.45829968e-09  6.81496944e-01  1.45829968e-09  6.09189848e-01  1.45829968e-09  1.37254584e+00  1.45829968e-09  1.80000000e+00  1.45829968e-09 -7.50086152e-03  1.45829968e-09  6.26351531e-01  1.45829968e-09  1.41208075e+00  1.45829968e-09  1.40774384e+00                                 
 1.66776722e-09  6.81370784e-01  1.66776722e-09  6.09189317e-01  1.66776722e-09  1.37206344e+00  1.66776722e-09  1.80000000e+00  1.66776722e-09  6.05873479e-03  1.66776722e-09  6.24613416e-01  1.66776722e-09  1.41079160e+00  1.66776722e-09  1.40779553e+00                                 
 2.05693725e-09  6.81091815e-01  2.05693725e-09  6.09156739e-01  2.05693725e-09  1.37099539e+00  2.05693725e-09  1.80000000e+00  2.05693725e-09 -5.40278688e-03  2.05693725e-09  6.21628495e-01  2.05693725e-09  1.40807225e+00  2.05693725e-09  1.40795747e+00                                 
 2.67949983e-09  6.80805595e-01  2.67949983e-09  6.09168506e-01  2.67949983e-09  1.36909345e+00  2.67949983e-09  1.80000000e+00  2.67949983e-09  4.99172534e-03  2.67949983e-09  6.17890126e-01  2.67949983e-09  1.40503041e+00  2.67949983e-09  1.40819990e+00                                 
 3.80670609e-09  6.80557294e-01  3.80670609e-09  6.09126824e-01  3.80670609e-09  1.36377077e+00  3.80670609e-09  1.80000000e+00  3.80670609e-09 -4.81969585e-03  3.80670609e-09  6.12728086e-01  3.80670609e-09  1.40047951e+00  3.80670609e-09  1.40852955e+00                                 
 5.24258533e-09  6.80505135e-01  5.24258533e-09  6.09148132e-01  5.24258533e-09  1.35618364e+00  5.24258533e-09  1.80000000e+00  5.24258533e-09  4.66011541e-03  5.24258533e-09  6.09346618e-01  5.24258533e-09  1.39774289e+00  5.24258533e-09  1.40865782e+00                                 
 6.48346776e-09  6.80507590e-01  6.48346776e-09  6.09121117e-01  6.48346776e-09  1.34829684e+00  6.48346776e-09  1.80000000e+00  6.48346776e-09 -4.49632982e-03  6.48346776e-09  6.07633936e-01  6.48346776e-09  1.39614991e+00  6.48346776e-09  1.40858129e+00                                 
 7.89461183e-09  6.80559195e-01  7.89461183e-09  6.09154316e-01  7.89461183e-09  1.33864536e+00  7.89461183e-09  1.80000000e+00  7.89461183e-09  4.36013989e-03  7.89461183e-09  6.07011024e-01  7.89461183e-09  1.39575085e+00  7.89461183e-09  1.40837138e+00                                 
 9.25548843e-09  6.80588398e-01  9.25548843e-09  6.09129608e-01  9.25548843e-09  1.32791789e+00  9.25548843e-09  1.80000000e+00  9.25548843e-09 -4.21249353e-03  9.25548843e-09  6.06485808e-01  9.25548843e-09  1.39516845e+00  9.25548843e-09  1.40812393e+00                                 
 1.12806194e-08  6.80650983e-01  1.12806194e-08  6.09164304e-01  1.12806194e-08  1.31130686e+00  1.12806194e-08  1.80000000e+00  1.12806194e-08  4.13092267e-03  1.12806194e-08  6.06621240e-01  1.12806194e-08  1.39539636e+00  1.12806194e-08  1.40773345e+00                                 
 1.35604532e-08  6.80675533e-01  1.35604532e-08  6.09137827e-01  1.35604532e-08  1.29105831e+00  1.35604532e-08  1.80000000e+00  1.35604532e-08 -4.03938828e-03  1.35604532e-08  6.06531835e-01  1.35604532e-08  1.39517969e+00  1.35604532e-08  1.40732223e+00                                 
 1.70146982e-08  6.80714232e-01  1.70146982e-08  6.09169948e-01  1.70146982e-08  1.25989163e+00  1.70146982e-08  1.80000000e+00  1.70146982e-08  4.00110395e-03  1.70146982e-08  6.07046132e-01  1.70146982e-08  1.39571664e+00  1.70146982e-08  1.40678443e+00                                 
 2.14020881e-08  6.80710349e-01  2.14020881e-08  6.09140802e-01  2.14020881e-08  1.21911481e+00  2.14020881e-08  1.80000000e+00  2.14020881e-08 -3.94704855e-03  2.14020881e-08  6.07157176e-01  2.14020881e-08  1.39566908e+00  2.14020881e-08  1.40625690e+00                                 
 2.94761762e-08  6.80719941e-01  2.94761762e-08  6.09171092e-01  2.94761762e-08  1.14459600e+00  2.94761762e-08  1.80000000e+00  2.94761762e-08  3.93970312e-03  2.94761762e-08  6.07824977e-01  2.94761762e-08  1.39633477e+00  2.94761762e-08  1.40561563e+00                                 
 3.99560052e-08  6.80701444e-01  3.99560052e-08  6.09140664e-01  3.99560052e-08  1.04821295e+00  3.99560052e-08  1.80000000e+00  3.99560052e-08 -3.90860648e-03  3.99560052e-08  6.07919952e-01  3.99560052e-08  1.39628484e+00  3.99560052e-08  1.40519643e+00                                 
 5.96430661e-08  6.80708440e-01  5.96430661e-08  6.09170299e-01  5.96430661e-08  8.71578797e-01  5.96430661e-08  1.80000000e+00  5.96430661e-08  3.91560671e-03  5.96430661e-08  6.08397991e-01  5.96430661e-08  1.39680663e+00  5.96430661e-08  1.40494027e+00                                 
 8.36561990e-08  6.80701170e-01  8.36561990e-08  6.09140290e-01  8.36561990e-08  6.87676502e-01  8.36561990e-08  1.80000000e+00  8.36561990e-08 -3.88701488e-03  8.36561990e-08  6.08237729e-01  8.36561990e-08  1.39655241e+00  8.36561990e-08  1.40493507e+00                                 
 1.05082548e-07  6.80708170e-01  1.05082548e-07  6.09170833e-01  1.05082548e-07  6.18410650e-01  1.05082548e-07  1.80000000e+00  1.05082548e-07  3.91078232e-03  1.05082548e-07  6.08497447e-01  1.05082548e-07  1.39689257e+00  1.05082548e-07  1.40496240e+00                                 
 1.25831861e-07  6.80694070e-01  1.25831861e-07  6.09139267e-01  1.25831861e-07  6.10034875e-01  1.25831861e-07  1.80000000e+00  1.25831861e-07 -3.86687586e-03  1.25831861e-07  6.08250657e-01  1.25831861e-07  1.39656383e+00  1.25831861e-07  1.40497784e+00                                 
 1.40601806e-07  6.80709763e-01  1.40601806e-07  6.09171133e-01  1.40601806e-07  6.08059997e-01  1.40601806e-07  1.80000000e+00  1.40601806e-07  3.89188736e-03  1.40601806e-07  6.08490732e-01  1.40601806e-07  1.39688591e+00  1.40601806e-07  1.40497886e+00                                 
 1.58961853e-07  6.80696329e-01  1.58961853e-07  6.09139296e-01  1.58961853e-07  6.08045221e-01  1.58961853e-07  1.80000000e+00  1.58961853e-07 -3.84646398e-03  1.58961853e-07  6.08250230e-01  1.58961853e-07  1.39656275e+00  1.58961853e-07  1.40498074e+00                                 
 1.95681947e-07  6.80709299e-01  1.95681947e-07  6.09171124e-01  1.95681947e-07  6.07406187e-01  1.95681947e-07  1.80000000e+00  1.95681947e-07  3.87827902e-03  1.95681947e-07  6.08489338e-01  1.95681947e-07  1.39688279e+00  1.95681947e-07  1.40497895e+00                                 
 2.51069928e-07  6.80696802e-01  2.51069928e-07  6.09139331e-01  2.51069928e-07  6.07805719e-01  2.51069928e-07  1.80000000e+00  2.51069928e-07 -3.83896181e-03  2.51069928e-07  6.08250088e-01  2.51069928e-07  1.39655981e+00  2.51069928e-07  1.40497806e+00                                 
 3.47744792e-07  6.80709075e-01  3.47744792e-07  6.09171107e-01  3.47744792e-07  6.07430203e-01  3.47744792e-07  1.80000000e+00  3.47744792e-07  3.87355065e-03  3.47744792e-07  6.08489286e-01  3.47744792e-07  1.39687786e+00  3.47744792e-07  1.40497409e+00                                 
 5.14695016e-07  6.80696920e-01  5.14695016e-07  6.09139341e-01  5.14695016e-07  6.07785048e-01  5.14695016e-07  1.80000000e+00  5.14695016e-07 -3.83626458e-03  5.14695016e-07  6.08250113e-01  5.14695016e-07  1.39655153e+00  5.14695016e-07  1.40496971e+00                                 
 7.92058634e-07  6.80709009e-01  7.92058634e-07  6.09171101e-01  7.92058634e-07  6.07435448e-01  7.92058634e-07  1.80000000e+00  7.92058634e-07  3.87195504e-03  7.92058634e-07  6.08489274e-01  7.92058634e-07  1.39686375e+00  7.92058634e-07  1.40496004e+00                                 
 1.29354076e-06  6.80696958e-01  1.29354076e-06  6.09139345e-01  1.29354076e-06  6.07778897e-01  1.29354076e-06  1.80000000e+00  1.29354076e-06 -3.83534059e-03  1.29354076e-06  6.08250120e-01  1.29354076e-06  1.39652684e+00  1.29354076e-06  1.40494504e+00                                 
 2.29650500e-06  6.80708989e-01  2.29650500e-06  6.09171099e-01  2.29650500e-06  6.07436825e-01  2.29650500e-06  1.80000000e+00  2.29650500e-06  3.87145783e-03  2.29650500e-06  6.08489270e-01  2.29650500e-06  1.39681602e+00  2.29650500e-06  1.40491237e+00                                 
 3.49650500e-06  6.80696969e-01  3.49650500e-06  6.09139345e-01  3.49650500e-06  6.07776979e-01  3.49650500e-06  1.80000000e+00  3.49650500e-06 -3.83503862e-03  3.49650500e-06  6.08250122e-01  3.49650500e-06  1.39645698e+00  3.49650500e-06  1.40487525e+00                                 
 4.69650500e-06  6.80708978e-01  4.69650500e-06  6.09171098e-01  4.69650500e-06  6.07437867e-01  4.69650500e-06  1.80000000e+00  4.69650500e-06  3.87118083e-03  4.69650500e-06  6.08489269e-01  4.69650500e-06  1.39673989e+00  4.69650500e-06  1.40483633e+00                                 
 5.89650500e-06  6.80696980e-01  5.89650500e-06  6.09139346e-01  5.89650500e-06  6.07774256e-01  5.89650500e-06  1.80000000e+00  5.89650500e-06 -3.83475980e-03  5.89650500e-06  6.08250123e-01  5.89650500e-06  1.39638082e+00  5.89650500e-06  1.40479917e+00                                 
 6.00100000e-06  6.80708913e-01  6.00100000e-06  6.09171092e-01  6.00100000e-06  6.07443558e-01  6.00100000e-06  1.80000000e+00  6.00100000e-06  3.86945234e-03  6.00100000e-06  6.08489260e-01  6.00100000e-06  1.39669844e+00  6.00100000e-06  1.40479498e+00                                 
 6.00110000e-06  6.80652967e-01  6.00110000e-06  6.08918435e-01  6.00110000e-06  6.05682073e-01  6.00110000e-06  1.62000000e+00  6.00110000e-06  2.80299656e-04  6.00110000e-06  6.06862122e-01  6.00110000e-06  1.39525516e+00  6.00110000e-06  1.40478488e+00                                 
 6.00130000e-06  6.80687495e-01  6.00130000e-06  6.08909371e-01  6.00130000e-06  6.05678694e-01  6.00130000e-06  1.26000000e+00  6.00130000e-06 -2.93682489e-04  6.00130000e-06  6.06507466e-01  6.00130000e-06  1.39494529e+00  6.00130000e-06  1.40479984e+00                                 
 6.00164856e-06  6.80757817e-01  6.00164856e-06  6.09100522e-01  6.00164856e-06  6.07720253e-01  6.00164856e-06  6.32594468e-01  6.00164856e-06  2.82383366e-02  6.00164856e-06  6.06605795e-01  6.00164856e-06  1.39151151e+00  6.00164856e-06  1.40477472e+00                                 
 6.00200000e-06  6.80684818e-01  6.00200000e-06  6.07853033e-01  6.00200000e-06  6.40543673e-01  6.00200000e-06  0.00000000e+00  6.00200000e-06  1.61503796e+00  6.00200000e-06  5.93639050e-01  6.00200000e-06  1.18235733e+00  6.00200000e-06  1.40419823e+00                                 
 6.00204654e-06  6.80702172e-01  6.00204654e-06  6.07188393e-01  6.00204654e-06  6.48484524e-01  6.00204654e-06  0.00000000e+00  6.00204654e-06  1.73328666e+00  6.00204654e-06  5.86104135e-01  6.00204654e-06  1.10647941e+00  6.00204654e-06  1.40420032e+00                                 
 6.00213963e-06  6.80706131e-01  6.00213963e-06  6.06216961e-01  6.00213963e-06  6.53622268e-01  6.00213963e-06  0.00000000e+00  6.00213963e-06  1.81481524e+00  6.00213963e-06  5.75173026e-01  6.00213963e-06  9.56161576e-01  6.00213963e-06  1.40464175e+00                                 
 6.00232581e-06  6.80701536e-01  6.00232581e-06  6.06583572e-01  6.00232581e-06  6.38787046e-01  6.00232581e-06  0.00000000e+00  6.00232581e-06  1.78776559e+00  6.00232581e-06  5.79555437e-01  6.00232581e-06  7.47552007e-01  6.00232581e-06  1.40514725e+00                                 
 6.00251166e-06  6.80704045e-01  6.00251166e-06  6.07814524e-01  6.00251166e-06  6.23477494e-01  6.00251166e-06  0.00000000e+00  6.00251166e-06  1.80594900e+00  6.00251166e-06  5.92745998e-01  6.00251166e-06  6.59640898e-01  6.00251166e-06  1.40519217e+00                                 
 6.00266057e-06  6.80701313e-01  6.00266057e-06  6.08500181e-01  6.00266057e-06  6.15632229e-01  6.00266057e-06  0.00000000e+00  6.00266057e-06  1.79684485e+00  6.00266057e-06  5.99230668e-01  6.00266057e-06  6.30843825e-01  6.00266057e-06  1.40508847e+00                                 
 6.00286611e-06  6.80703705e-01  6.00286611e-06  6.09160024e-01  6.00286611e-06  6.10900856e-01  6.00286611e-06  0.00000000e+00  6.00286611e-06  1.80205683e+00  6.00286611e-06  6.05389901e-01  6.00286611e-06  6.16287548e-01  6.00286611e-06  1.40421451e+00                                 
 6.00306962e-06  6.80701708e-01  6.00306962e-06  6.09395818e-01  6.00306962e-06  6.09180023e-01  6.00306962e-06  0.00000000e+00  6.00306962e-06  1.79880351e+00  6.00306962e-06  6.07189256e-01  6.00306962e-06  6.10809400e-01  6.00306962e-06  1.40315428e+00                                 
 6.00338946e-06  6.80703752e-01  6.00338946e-06  6.09589109e-01  6.00338946e-06  6.08865768e-01  6.00338946e-06  0.00000000e+00  6.00338946e-06  1.80094496e+00  6.00338946e-06  6.09017236e-01  6.00338946e-06  6.09251609e-01  6.00338946e-06  1.40102284e+00                                 
 6.00380496e-06  6.80702081e-01  6.00380496e-06  6.09580244e-01  6.00380496e-06  6.09660702e-01  6.00380496e-06  0.00000000e+00  6.00380496e-06  1.79927814e+00  6.00380496e-06  6.09099795e-01  6.00380496e-06  6.09307391e-01  6.00380496e-06  1.39808303e+00                                 
 6.00455444e-06  6.80703843e-01  6.00455444e-06  6.09563097e-01  6.00455444e-06  6.11762375e-01  6.00455444e-06  0.00000000e+00  6.00455444e-06  1.80066421e+00  6.00455444e-06  6.09630670e-01  6.00455444e-06  6.11648265e-01  6.00455444e-06  1.39229476e+00                                 
 6.00572333e-06  6.80702186e-01  6.00572333e-06  6.09456026e-01  6.00572333e-06  6.15288720e-01  6.00572333e-06  0.00000000e+00  6.00572333e-06  1.79941611e+00  6.00572333e-06  6.09383737e-01  6.00572333e-06  6.14846111e-01  6.00572333e-06  1.38284146e+00                                 
 6.00806110e-06  6.80703772e-01  6.00806110e-06  6.09334327e-01  6.00806110e-06  6.22432365e-01  6.00806110e-06  0.00000000e+00  6.00806110e-06  1.80058977e+00  6.00806110e-06  6.09606680e-01  6.00806110e-06  6.22271787e-01  6.00806110e-06  1.36285294e+00                                 
 6.01273665e-06  6.80702165e-01  6.01273665e-06  6.09154456e-01  6.01273665e-06  6.36465433e-01  6.01273665e-06  0.00000000e+00  6.01273665e-06  1.79945133e+00  6.01273665e-06  6.09075637e-01  6.01273665e-06  6.35982183e-01  6.01273665e-06  1.32174593e+00                                 
 6.02025447e-06  6.80703769e-01  6.02025447e-06  6.09148048e-01  6.02025447e-06  6.58364441e-01  6.02025447e-06  0.00000000e+00  6.02025447e-06  1.80057084e+00  6.02025447e-06  6.09047978e-01  6.02025447e-06  6.58166259e-01  6.02025447e-06  1.25439012e+00                                 
 6.03529013e-06  6.80702177e-01  6.03529013e-06  6.09138482e-01  6.03529013e-06  6.99970628e-01  6.03529013e-06  0.00000000e+00  6.03529013e-06  1.79945595e+00  6.03529013e-06  6.08409753e-01  6.03529013e-06  6.99391821e-01  6.03529013e-06  1.11903183e+00                                 
 6.04926455e-06  6.80703772e-01  6.04926455e-06  6.09163884e-01  6.04926455e-06  7.36066305e-01  6.04926455e-06  0.00000000e+00  6.04926455e-06  1.80056221e+00  6.04926455e-06  6.08578190e-01  6.04926455e-06  7.35847284e-01  6.04926455e-06  1.00397077e+00                                 
 6.06899514e-06  6.80702182e-01  6.06899514e-06  6.09143401e-01  6.06899514e-06  7.83094812e-01  6.06899514e-06  0.00000000e+00  6.06899514e-06  1.79946026e+00  6.06899514e-06  6.08233046e-01  6.06899514e-06  7.82329965e-01  6.06899514e-06  8.78741402e-01                                 
 6.09815183e-06  6.80703771e-01  6.09815183e-06  6.09166665e-01  6.09815183e-06  8.44753175e-01  6.09815183e-06  0.00000000e+00  6.09815183e-06  1.80055534e+00  6.09815183e-06  6.08504398e-01  6.09815183e-06  8.44596970e-01  6.09815183e-06  8.24826829e-01                                 
 6.11668334e-06  6.80702184e-01  6.11668334e-06  6.09143596e-01  6.11668334e-06  8.79406430e-01  6.11668334e-06  0.00000000e+00  6.11668334e-06  1.79946213e+00  6.11668334e-06  6.08215619e-01  6.11668334e-06  8.78433750e-01  6.11668334e-06  8.55136514e-01                                 
 6.12891764e-06  6.80703768e-01  6.12891764e-06  6.09167179e-01  6.12891764e-06  9.00488139e-01  6.12891764e-06  0.00000000e+00  6.12891764e-06  1.80054736e+00  6.12891764e-06  6.08507560e-01  6.12891764e-06  9.00332430e-01  6.12891764e-06  8.76365042e-01                                 
