 time            v(vbep)         time            v(vben)         time            v(vout)         time            v(vphi1)        time            v(vphi2)        time            v(vref)         yes             currtemp       
 0.00000000e+00  6.76565958e-01  0.00000000e+00  6.15815302e-01  0.00000000e+00  1.01070473e+00  0.00000000e+00  0.00000000e+00  0.00000000e+00  1.79979341e+00  0.00000000e+00  5.00000000e-01  1.00000000e+00  5.70000000e+01 
 5.00000000e-12  6.76448098e-01  5.00000000e-12  6.15726808e-01  5.00000000e-12  1.01146497e+00  5.00000000e-12  1.80000000e-02  5.00000000e-12  1.79993414e+00  5.00000000e-12  5.00000000e-01                                 
 1.00000000e-11  6.76343395e-01  1.00000000e-11  6.15645154e-01  1.00000000e-11  1.01215537e+00  1.00000000e-11  3.60000000e-02  1.00000000e-11  1.80001924e+00  1.00000000e-11  5.00000000e-01                                 
 2.00000000e-11  6.76146152e-01  2.00000000e-11  6.15484051e-01  2.00000000e-11  1.01342738e+00  2.00000000e-11  7.20000000e-02  2.00000000e-11  1.80012457e+00  2.00000000e-11  5.00000000e-01                                 
 4.00000000e-11  6.75776844e-01  4.00000000e-11  6.15165539e-01  4.00000000e-11  1.01546770e+00  4.00000000e-11  1.44000000e-01  4.00000000e-11  1.80013792e+00  4.00000000e-11  5.00000000e-01                                 
 8.00000000e-11  6.75049627e-01  8.00000000e-11  6.14535268e-01  8.00000000e-11  1.01821634e+00  8.00000000e-11  2.88000000e-01  8.00000000e-11  1.80007907e+00  8.00000000e-11  5.00000000e-01                                 
 1.60000000e-10  6.73629269e-01  1.60000000e-10  6.13301855e-01  1.60000000e-10  1.02079960e+00  1.60000000e-10  5.76000000e-01  1.60000000e-10  1.80001586e+00  1.60000000e-10  5.00000000e-01                                 
 3.20000000e-10  6.70913380e-01  3.20000000e-10  6.10936106e-01  3.20000000e-10  1.01527838e+00  3.20000000e-10  1.15200000e+00  3.20000000e-10  1.80041658e+00  3.20000000e-10  5.00000000e-01                                 
 5.00000000e-10  6.68046287e-01  5.00000000e-10  6.08426252e-01  5.00000000e-10  1.18093040e+00  5.00000000e-10  1.80000000e+00  5.00000000e-10  1.25673846e-01  5.00000000e-10  5.00000000e-01                                 
 5.21889964e-10  6.67712309e-01  5.21889964e-10  6.08132967e-01  5.21889964e-10  1.22025953e+00  5.21889964e-10  1.80000000e+00  5.21889964e-10  2.57775031e-02  5.21889964e-10  5.00000000e-01                                 
 5.65669891e-10  6.67048981e-01  5.65669891e-10  6.07549917e-01  5.65669891e-10  1.29320774e+00  5.65669891e-10  1.80000000e+00  5.65669891e-10 -1.18073205e-02  5.65669891e-10  5.00000000e-01                                 
 6.53229745e-10  6.65752264e-01  6.53229745e-10  6.06408318e-01  6.53229745e-10  1.41570451e+00  6.53229745e-10  1.80000000e+00  6.53229745e-10  9.72824728e-03  6.53229745e-10  5.00000000e-01                                 
 7.75406345e-10  6.64007425e-01  7.75406345e-10  6.04867836e-01  7.75406345e-10  1.55470035e+00  7.75406345e-10  1.80000000e+00  7.75406345e-10 -8.36557692e-03  7.75406345e-10  5.00000000e-01                                 
 9.69008448e-10  6.61384314e-01  9.69008448e-10  6.02542703e-01  9.69008448e-10  1.71864363e+00  9.69008448e-10  1.80000000e+00  9.69008448e-10  7.81507476e-03  9.69008448e-10  5.00000000e-01                                 
 1.35621265e-09  6.56592168e-01  1.35621265e-09  5.98266271e-01  1.35621265e-09  1.90121165e+00  1.35621265e-09  1.80000000e+00  1.35621265e-09 -7.36192100e-03  1.35621265e-09  5.00000000e-01                                 
 1.62358715e-09  6.53603405e-01  1.62358715e-09  5.95577918e-01  1.62358715e-09  1.95219625e+00  1.62358715e-09  1.80000000e+00  1.62358715e-09  7.03560858e-03  1.62358715e-09  5.00000000e-01                                 
 1.93153438e-09  6.50429843e-01  1.93153438e-09  5.92706016e-01  1.93153438e-09  1.97734619e+00  1.93153438e-09  1.80000000e+00  1.93153438e-09 -6.59600522e-03  1.93153438e-09  5.00000000e-01                                 
 2.25548556e-09  6.47360772e-01  2.25548556e-09  5.89911992e-01  2.25548556e-09  1.98640488e+00  2.25548556e-09  1.80000000e+00  2.25548556e-09  6.34364592e-03  2.25548556e-09  5.00000000e-01                                 
 2.76696192e-09  6.42982106e-01  2.76696192e-09  5.85898078e-01  2.76696192e-09  1.98814448e+00  2.76696192e-09  1.80000000e+00  2.76696192e-09 -6.09341830e-03  2.76696192e-09  5.00000000e-01                                 
 3.37953080e-09  6.38361069e-01  3.37953080e-09  5.81626857e-01  3.37953080e-09  1.98476933e+00  3.37953080e-09  1.80000000e+00  3.37953080e-09  5.98510287e-03  3.37953080e-09  5.00000000e-01                                 
 4.44231507e-09  6.31542975e-01  4.44231507e-09  5.75263951e-01  4.44231507e-09  1.97812733e+00  4.44231507e-09  1.80000000e+00  4.44231507e-09 -5.85397340e-03  4.44231507e-09  5.00000000e-01                                 
 6.03934650e-09  6.23325765e-01  6.03934650e-09  5.67503403e-01  6.03934650e-09  1.97013110e+00  6.03934650e-09  1.80000000e+00  6.03934650e-09  5.83903986e-03  6.03934650e-09  5.00000000e-01                                 
 9.23340936e-09  6.11164185e-01  9.23340936e-09  5.55862055e-01  9.23340936e-09  1.95838495e+00  9.23340936e-09  1.80000000e+00  9.23340936e-09 -5.76367155e-03  9.23340936e-09  5.00000000e-01                                 
 1.04911575e-08  6.07496594e-01  1.04911575e-08  5.52311047e-01  1.04911575e-08  1.95490884e+00  1.04911575e-08  1.80000000e+00  1.04911575e-08  5.72956177e-03  1.04911575e-08  5.00000000e-01                                 
 1.16413592e-08  6.04482145e-01  1.16413592e-08  5.49382382e-01  1.16413592e-08  1.95198741e+00  1.16413592e-08  1.80000000e+00  1.16413592e-08 -5.61740750e-03  1.16413592e-08  5.00000000e-01                                 
 1.28911340e-08  6.01505384e-01  1.28911340e-08  5.46482376e-01  1.28911340e-08  1.94919980e+00  1.28911340e-08  1.80000000e+00  1.28911340e-08  5.57814102e-03  1.28911340e-08  5.00000000e-01                                 
 1.49491515e-08  5.97142221e-01  1.49491515e-08  5.42218548e-01  1.49491515e-08  1.94500302e+00  1.49491515e-08  1.80000000e+00  1.49491515e-08 -5.50573703e-03  1.49491515e-08  5.00000000e-01                                 
 1.74324972e-08  5.92582301e-01  1.74324972e-08  5.37746991e-01  1.74324972e-08  1.94072540e+00  1.74324972e-08  1.80000000e+00  1.74324972e-08  5.49931829e-03  1.74324972e-08  5.00000000e-01                                 
 2.05836253e-08  5.87622256e-01  2.05836253e-08  5.32866899e-01  2.05836253e-08  1.93597895e+00  2.05836253e-08  1.80000000e+00  2.05836253e-08 -5.44369244e-03  2.05836253e-08  5.00000000e-01                                 
 2.48378244e-08  5.81983681e-01  2.48378244e-08  5.27301366e-01  2.48378244e-08  1.93069319e+00  2.48378244e-08  1.80000000e+00  2.48378244e-08  5.45156369e-03  2.48378244e-08  5.00000000e-01                                 
 3.10506088e-08  5.75248752e-01  3.10506088e-08  5.20632099e-01  3.10506088e-08  1.92428215e+00  3.10506088e-08  1.80000000e+00  3.10506088e-08 -5.40953714e-03  3.10506088e-08  5.00000000e-01                                 
 4.34623385e-08  5.64993626e-01  4.34623385e-08  5.10440764e-01  4.34623385e-08  1.91464336e+00  4.34623385e-08  1.80000000e+00  4.34623385e-08  5.43112739e-03  4.34623385e-08  5.00000000e-01                                 
 6.82857978e-08  5.51194129e-01  6.82857978e-08  4.96647395e-01  6.82857978e-08  1.90191700e+00  6.82857978e-08  1.80000000e+00  6.82857978e-08 -5.39897482e-03  6.82857978e-08  5.00000000e-01                                 
 9.42315046e-08  5.42053369e-01  9.42315046e-08  4.87380844e-01  9.42315046e-08  1.89478777e+00  9.42315046e-08  1.80000000e+00  9.42315046e-08  5.42465909e-03  9.42315046e-08  5.00000000e-01                                 
 1.22031060e-07  5.35171359e-01  1.22031060e-07  4.80299666e-01  1.22031060e-07  1.89043621e+00  1.22031060e-07  1.80000000e+00  1.22031060e-07 -5.39256375e-03  1.22031060e-07  5.00000000e-01                                 
 1.52859724e-07  5.28966981e-01  1.52859724e-07  4.73961763e-01  1.52859724e-07  1.88643181e+00  1.52859724e-07  1.80000000e+00  1.52859724e-07  5.41889799e-03  1.52859724e-07  5.00000000e-01                                 
 1.83090438e-07  5.23175585e-01  1.83090438e-07  4.68233346e-01  1.83090438e-07  1.86862203e+00  1.83090438e-07  1.80000000e+00  1.83090438e-07 -5.38705498e-03  1.83090438e-07  5.00000000e-01                                 
 2.24912604e-07  5.08299731e-01  2.24912604e-07  4.55161417e-01  2.24912604e-07  1.81612133e+00  2.24912604e-07  1.80000000e+00  2.24912604e-07  5.41390891e-03  2.24912604e-07  5.00000000e-01                                 
 2.53022222e-07  4.97122492e-01  2.53022222e-07  4.45592380e-01  2.53022222e-07  1.77373245e+00  2.53022222e-07  1.80000000e+00  2.53022222e-07 -5.38210813e-03  2.53022222e-07  5.00000000e-01                                 
 2.85298970e-07  4.95708300e-01  2.85298970e-07  4.43743864e-01  2.85298970e-07  1.74810053e+00  2.85298970e-07  1.80000000e+00  2.85298970e-07  5.40865477e-03  2.85298970e-07  5.00000000e-01                                 
 3.15813959e-07  4.98620502e-01  3.15813959e-07  4.45412236e-01  3.15813959e-07  1.73064977e+00  3.15813959e-07  1.80000000e+00  3.15813959e-07 -5.37664172e-03  3.15813959e-07  5.00000000e-01                                 
 3.39729074e-07  4.97265712e-01  3.39729074e-07  4.43870382e-01  3.39729074e-07  1.70581425e+00  3.39729074e-07  1.80000000e+00  3.39729074e-07  5.40219586e-03  3.39729074e-07  5.00000000e-01                                 
 3.66193770e-07  4.94124177e-01  3.66193770e-07  4.40899415e-01  3.66193770e-07  1.67531177e+00  3.66193770e-07  1.80000000e+00  3.66193770e-07 -5.37005003e-03  3.66193770e-07  5.00000000e-01                                 
 4.06910497e-07  4.85827185e-01  4.06910497e-07  4.33655975e-01  4.06910497e-07  1.62747254e+00  4.06910497e-07  1.80000000e+00  4.06910497e-07  5.39685297e-03  4.06910497e-07  5.00000000e-01                                 
 4.44691460e-07  4.76694213e-01  4.44691460e-07  4.25874104e-01  4.44691460e-07  1.57980466e+00  4.44691460e-07  1.80000000e+00  4.44691460e-07 -5.36584082e-03  4.44691460e-07  5.00000000e-01                                 
 5.16071913e-07  4.60304689e-01  5.16071913e-07  4.12034538e-01  5.16071913e-07  1.49117069e+00  5.16071913e-07  1.80000000e+00  5.16071913e-07  5.39346903e-03  5.16071913e-07  5.00000000e-01                                 
 6.24984216e-07  4.28466202e-01  6.24984216e-07  3.85866586e-01  6.24984216e-07  1.34635821e+00  6.24984216e-07  1.80000000e+00  6.24984216e-07 -5.36397326e-03  6.24984216e-07  5.00000000e-01                                 
 7.80261063e-07  3.82256153e-01  7.80261063e-07  3.48441902e-01  7.80261063e-07  1.13995081e+00  7.80261063e-07  1.80000000e+00  7.80261063e-07  5.39216824e-03  7.80261063e-07  5.00000000e-01                                 
 9.38651024e-07  7.10091501e-01  9.38651024e-07  6.46687813e-01  9.38651024e-07  1.28702127e+00  9.38651024e-07  1.80000000e+00  9.38651024e-07 -5.36015605e-03  9.38651024e-07  5.00000000e-01                                 
 9.58146854e-07  7.25597477e-01  9.58146854e-07  6.61138306e-01  9.58146854e-07  1.28262069e+00  9.58146854e-07  1.80000000e+00  9.58146854e-07  2.18873731e-06  9.58146854e-07  5.00000000e-01                                 
 9.97138514e-07  7.44297170e-01  9.97138514e-07  6.77672679e-01  9.97138514e-07  1.25946367e+00  9.97138514e-07  1.80000000e+00  9.97138514e-07  3.71742683e-06  9.97138514e-07  5.00000000e-01                                 
 1.06088465e-06  7.52736901e-01  1.06088465e-06  6.84814723e-01  1.06088465e-06  1.20009719e+00  1.06088465e-06  1.80000000e+00  1.06088465e-06  1.61070057e-06  1.06088465e-06  5.00000000e-01                                 
 1.06950740e-06  7.52954660e-01  1.06950740e-06  6.84996906e-01  1.06950740e-06  1.19125342e+00  1.06950740e-06  1.80000000e+00  1.06950740e-06  2.60303789e-06  1.06950740e-06  5.00000000e-01                                 
 1.08675288e-06  7.53407826e-01  1.08675288e-06  6.85374147e-01  1.08675288e-06  1.17348710e+00  1.08675288e-06  1.80000000e+00  1.08675288e-06  2.57993701e-06  1.08675288e-06  5.00000000e-01                                 
 1.12124385e-06  7.54069371e-01  1.12124385e-06  6.85923765e-01  1.12124385e-06  1.13785194e+00  1.12124385e-06  1.80000000e+00  1.12124385e-06  2.58237681e-06  1.12124385e-06  5.00000000e-01                                 
 1.19022578e-06  7.48346027e-01  1.19022578e-06  6.81141885e-01  1.19022578e-06  1.06191367e+00  1.19022578e-06  1.80000000e+00  1.19022578e-06  2.43168520e-06  1.19022578e-06  5.00000000e-01                                 
 1.25812431e-06  7.28641766e-01  1.25812431e-06  6.63957826e-01  1.25812431e-06  9.81935932e-01  1.25812431e-06  1.80000000e+00  1.25812431e-06  2.26792175e-06  1.25812431e-06  5.00000000e-01                                 
 1.32236632e-06  7.31750285e-01  1.32236632e-06  6.66689459e-01  1.32236632e-06  9.35846097e-01  1.32236632e-06  1.80000000e+00  1.32236632e-06  2.92676035e-06  1.32236632e-06  5.00000000e-01                                 
 1.33431014e-06  7.37279109e-01  1.33431014e-06  6.71576225e-01  1.33431014e-06  9.32415536e-01  1.33431014e-06  1.80000000e+00  1.33431014e-06  2.91802934e-06  1.33431014e-06  5.00000000e-01                                 
 1.35819779e-06  7.46048452e-01  1.35819779e-06  6.79164936e-01  1.35819779e-06  9.23665480e-01  1.35819779e-06  1.80000000e+00  1.35819779e-06  2.78588507e-06  1.35819779e-06  5.00000000e-01                                 
 1.40597310e-06  7.50478373e-01  1.40597310e-06  6.82933606e-01  1.40597310e-06  8.96004189e-01  1.40597310e-06  1.80000000e+00  1.40597310e-06  2.50383058e-06  1.40597310e-06  5.00000000e-01                                 
 1.47503249e-06  7.33263437e-01  1.47503249e-06  6.68083754e-01  1.47503249e-06  8.38266898e-01  1.47503249e-06  1.80000000e+00  1.47503249e-06  2.25804686e-06  1.47503249e-06  5.00000000e-01                                 
 1.54547668e-06  7.34228398e-01  1.54547668e-06  6.68890467e-01  1.54547668e-06  7.97718839e-01  1.54547668e-06  1.80000000e+00  1.54547668e-06  2.88275799e-06  1.54547668e-06  5.00000000e-01                                 
 1.61989587e-06  7.48695350e-01  1.61989587e-06  6.81427392e-01  1.61989587e-06  7.67710531e-01  1.61989587e-06  1.80000000e+00  1.61989587e-06  2.55466277e-06  1.61989587e-06  5.00000000e-01                                 
 1.70906426e-06  7.35872330e-01  1.70906426e-06  6.70380846e-01  1.70906426e-06  7.06651180e-01  1.70906426e-06  1.80000000e+00  1.70906426e-06  2.36664591e-06  1.70906426e-06  5.00000000e-01                                 
 1.79900483e-06  7.37359993e-01  1.79900483e-06  6.71654370e-01  1.79900483e-06  6.60326020e-01  1.79900483e-06  1.80000000e+00  1.79900483e-06  2.78357121e-06  1.79900483e-06  5.00000000e-01                                 
 1.89783814e-06  7.45068876e-01  1.89783814e-06  6.78352098e-01  1.89783814e-06  6.16290033e-01  1.89783814e-06  1.80000000e+00  1.89783814e-06  2.47663914e-06  1.89783814e-06  5.00000000e-01                                 
 2.05817822e-06  7.35696151e-01  2.05817822e-06  6.70208261e-01  2.05817822e-06  5.40300263e-01  2.05817822e-06  1.80000000e+00  2.05817822e-06  2.56928173e-06  2.05817822e-06  5.00000000e-01                                 
 2.22074314e-06  7.42189451e-01  2.22074314e-06  6.75868623e-01  2.22074314e-06  5.07575966e-01  2.22074314e-06  1.80000000e+00  2.22074314e-06  2.62808394e-06  2.22074314e-06  5.00000000e-01                                 
 2.40270763e-06  7.39992385e-01  2.40270763e-06  6.73972285e-01  2.40270763e-06  4.88402113e-01  2.40270763e-06  1.80000000e+00  2.40270763e-06  2.49019887e-06  2.40270763e-06  5.00000000e-01                                 
 2.42664897e-06  7.38726247e-01  2.42664897e-06  6.72868623e-01  2.42664897e-06  4.86355830e-01  2.42664897e-06  1.80000000e+00  2.42664897e-06  2.52586285e-06  2.42664897e-06  5.00000000e-01                                 
 2.47453163e-06  7.38809184e-01  2.47453163e-06  6.72935160e-01  2.47453163e-06  4.87483090e-01  2.47453163e-06  1.80000000e+00  2.47453163e-06  2.61246039e-06  2.47453163e-06  5.00000000e-01                                 
 2.55359216e-06  7.41442404e-01  2.55359216e-06  6.75224960e-01  2.55359216e-06  5.00268671e-01  2.55359216e-06  1.80000000e+00  2.55359216e-06  2.57669124e-06  2.55359216e-06  5.00000000e-01                                 
 2.63476791e-06  7.39954530e-01  2.63476791e-06  6.73938019e-01  2.63476791e-06  5.01378498e-01  2.63476791e-06  1.80000000e+00  2.63476791e-06  2.52360244e-06  2.63476791e-06  5.00000000e-01                                 
 2.75612397e-06  7.39592130e-01  2.75612397e-06  6.73617952e-01  2.75612397e-06  4.98726494e-01  2.75612397e-06  1.80000000e+00  2.75612397e-06  2.60761997e-06  2.75612397e-06  5.00000000e-01                                 
 2.89574945e-06  7.40954122e-01  2.89574945e-06  6.74804058e-01  2.89574945e-06  5.01575947e-01  2.89574945e-06  1.80000000e+00  2.89574945e-06  2.54122759e-06  2.89574945e-06  5.00000000e-01                                 
 3.08316656e-06  7.39358898e-01  3.08316656e-06  6.73416918e-01  3.08316656e-06  4.98996745e-01  3.08316656e-06  1.80000000e+00  3.08316656e-06  2.58031330e-06  3.08316656e-06  5.00000000e-01                                 
 3.40780771e-06  7.40799939e-01  3.40780771e-06  6.74669224e-01  3.40780771e-06  5.01261090e-01  3.40780771e-06  1.80000000e+00  3.40780771e-06  2.56073931e-06  3.40780771e-06  5.00000000e-01                                 
 3.92232423e-06  7.39561182e-01  3.92232423e-06  6.73593825e-01  3.92232423e-06  4.99292546e-01  3.92232423e-06  1.80000000e+00  3.92232423e-06  2.57001801e-06  3.92232423e-06  5.00000000e-01                                 
 4.72210131e-06  7.40646332e-01  4.72210131e-06  6.74535523e-01  4.72210131e-06  5.01045694e-01  4.72210131e-06  1.80000000e+00  4.72210131e-06  2.56638166e-06  4.72210131e-06  5.00000000e-01                                 
 5.72210131e-06  7.39682091e-01  5.72210131e-06  6.73699212e-01  5.72210131e-06  4.99451661e-01  5.72210131e-06  1.80000000e+00  5.72210131e-06  2.56655035e-06  5.72210131e-06  5.00000000e-01                                 
 6.72210131e-06  7.40536254e-01  6.72210131e-06  6.74439800e-01  6.72210131e-06  5.00898469e-01  6.72210131e-06  1.80000000e+00  6.72210131e-06  2.56908965e-06  6.72210131e-06  5.00000000e-01                                 
 7.72210131e-06  7.39797266e-01  7.72210131e-06  6.73799542e-01  7.72210131e-06  4.99602560e-01  7.72210131e-06  1.80000000e+00  7.72210131e-06  2.56418652e-06  7.72210131e-06  5.00000000e-01                                 
 8.72210131e-06  7.40421242e-01  8.72210131e-06  6.74339850e-01  8.72210131e-06  5.00745744e-01  8.72210131e-06  1.80000000e+00  8.72210131e-06  2.57110231e-06  8.72210131e-06  5.00000000e-01                                 
 9.72210131e-06  7.39914781e-01  9.72210131e-06  6.73901829e-01  9.72210131e-06  4.99756503e-01  9.72210131e-06  1.80000000e+00  9.72210131e-06  2.56252811e-06  9.72210131e-06  5.00000000e-01                                 
 1.00005000e-05  7.40162363e-01  1.00005000e-05  6.74114926e-01  1.00005000e-05  5.00402592e-01  1.00005000e-05  1.80000000e+00  1.00005000e-05  2.57308867e-06  1.00005000e-05  5.00000000e-01                                 
 1.00005500e-05  7.40163361e-01  1.00005500e-05  6.74115788e-01  1.00005500e-05  4.92696335e-01  1.00005500e-05  1.62000000e+00  1.00005500e-05 -8.00063953e-05  1.00005500e-05  5.00000000e-01                                 
