 time            v(vbep)         time            v(vben)         time            v(vout)         time            v(vphi1)        time            v(vphi2)        time            v(vref)         yes             currtemp       
 0.00000000e+00  8.18967749e-01  0.00000000e+00  7.75818570e-01  0.00000000e+00  1.00553537e+00  0.00000000e+00  0.00000000e+00  0.00000000e+00  1.79990967e+00  0.00000000e+00  5.00000000e-01  1.00000000e+00 -3.70000000e+01 
 5.00000000e-12  8.18919786e-01  5.00000000e-12  7.75779856e-01  5.00000000e-12  1.00623339e+00  5.00000000e-12  1.80000000e-02  5.00000000e-12  1.80001374e+00  5.00000000e-12  5.00000000e-01                                 
 1.00000000e-11  8.18874807e-01  1.00000000e-11  7.75742788e-01  1.00000000e-11  1.00685393e+00  1.00000000e-11  3.60000000e-02  1.00000000e-11  1.80007188e+00  1.00000000e-11  5.00000000e-01                                 
 2.00000000e-11  8.18787141e-01  2.00000000e-11  7.75669166e-01  2.00000000e-11  1.00797088e+00  2.00000000e-11  7.20000000e-02  2.00000000e-11  1.80013136e+00  2.00000000e-11  5.00000000e-01                                 
 4.00000000e-11  8.18615982e-01  4.00000000e-11  7.75522952e-01  4.00000000e-11  1.00963922e+00  4.00000000e-11  1.44000000e-01  4.00000000e-11  1.80011545e+00  4.00000000e-11  5.00000000e-01                                 
 8.00000000e-11  8.18276576e-01  8.00000000e-11  7.75232901e-01  8.00000000e-11  1.01155629e+00  8.00000000e-11  2.88000000e-01  8.00000000e-11  1.80005164e+00  8.00000000e-11  5.00000000e-01                                 
 1.60000000e-10  8.17610557e-01  1.60000000e-10  7.74662321e-01  1.60000000e-10  1.01317309e+00  1.60000000e-10  5.76000000e-01  1.60000000e-10  1.80000745e+00  1.60000000e-10  5.00000000e-01                                 
 3.20000000e-10  8.16325278e-01  3.20000000e-10  7.73557159e-01  3.20000000e-10  1.00393285e+00  3.20000000e-10  1.15200000e+00  3.20000000e-10  1.80018117e+00  3.20000000e-10  5.00000000e-01                                 
 5.00000000e-10  8.14950018e-01  5.00000000e-10  7.72368059e-01  5.00000000e-10  1.18477857e+00  5.00000000e-10  1.80000000e+00  5.00000000e-10  8.47876461e-02  5.00000000e-10  5.00000000e-01                                 
 5.20296443e-10  8.14799910e-01  5.20296443e-10  7.72237837e-01  5.20296443e-10  1.22419825e+00  5.20296443e-10  1.80000000e+00  5.20296443e-10  1.39498898e-02  5.20296443e-10  5.00000000e-01                                 
 5.60889330e-10  8.14501317e-01  5.60889330e-10  7.71978595e-01  5.60889330e-10  1.29565176e+00  5.60889330e-10  1.80000000e+00  5.60889330e-10 -6.69946212e-03  5.60889330e-10  5.00000000e-01                                 
 6.42075104e-10  8.13914084e-01  6.42075104e-10  7.71467872e-01  6.42075104e-10  1.41339153e+00  6.42075104e-10  1.80000000e+00  6.42075104e-10  5.91763986e-03  6.42075104e-10  5.00000000e-01                                 
 7.67008073e-10  8.13035437e-01  7.67008073e-10  7.70701457e-01  7.67008073e-10  1.55939636e+00  7.67008073e-10  1.80000000e+00  7.67008073e-10 -5.31343334e-03  7.67008073e-10  5.00000000e-01                                 
 9.52463101e-10  8.11783569e-01  9.52463101e-10  7.69604902e-01  9.52463101e-10  1.72122005e+00  9.52463101e-10  1.80000000e+00  9.52463101e-10  5.10517176e-03  9.52463101e-10  5.00000000e-01                                 
 1.32337316e-09  8.09447368e-01  1.32337316e-09  7.67544536e-01  1.32337316e-09  1.91110217e+00  1.32337316e-09  1.80000000e+00  1.32337316e-09 -4.87031827e-03  1.32337316e-09  5.00000000e-01                                 
 1.61782449e-09  8.07737167e-01  1.61782449e-09  7.66024124e-01  1.61782449e-09  1.97788094e+00  1.61782449e-09  1.80000000e+00  1.61782449e-09  4.77212535e-03  1.61782449e-09  5.00000000e-01                                 
 1.93147734e-09  8.06036445e-01  1.93147734e-09  7.64502343e-01  1.93147734e-09  2.01086286e+00  1.93147734e-09  1.80000000e+00  1.93147734e-09 -4.55166239e-03  1.93147734e-09  5.00000000e-01                                 
 2.26130978e-09  8.04366672e-01  2.26130978e-09  7.62998984e-01  2.26130978e-09  2.02562194e+00  2.26130978e-09  1.80000000e+00  2.26130978e-09  4.45438640e-03  2.26130978e-09  5.00000000e-01                                 
 2.74859903e-09  8.02090948e-01  2.74859903e-09  7.60935898e-01  2.74859903e-09  2.03286074e+00  2.74859903e-09  1.80000000e+00  2.74859903e-09 -4.32116502e-03  2.74859903e-09  5.00000000e-01                                 
 3.38794171e-09  7.99397632e-01  3.38794171e-09  7.58473742e-01  3.38794171e-09  2.03327013e+00  3.38794171e-09  1.80000000e+00  3.38794171e-09  4.27867407e-03  3.38794171e-09  5.00000000e-01                                 
 4.46753505e-09  7.95438379e-01  4.46753505e-09  7.54816967e-01  4.46753505e-09  2.02988131e+00  4.46753505e-09  1.80000000e+00  4.46753505e-09 -4.21432672e-03  4.46753505e-09  5.00000000e-01                                 
 6.19763305e-09  7.90216136e-01  6.19763305e-09  7.49930689e-01  6.19763305e-09  2.02455107e+00  6.19763305e-09  1.80000000e+00  6.19763305e-09  4.21400425e-03  6.19763305e-09  5.00000000e-01                                 
 8.55349644e-09  7.84604002e-01  8.55349644e-09  7.44606217e-01  8.55349644e-09  2.01921390e+00  8.55349644e-09  1.80000000e+00  8.55349644e-09 -4.16442583e-03  8.55349644e-09  5.00000000e-01                                 
 9.85659143e-09  7.82034710e-01  9.85659143e-09  7.42144011e-01  9.85659143e-09  2.01674117e+00  9.85659143e-09  1.80000000e+00  9.85659143e-09  4.15569032e-03  9.85659143e-09  5.00000000e-01                                 
 1.18288252e-08  7.78630677e-01  1.18288252e-08  7.38863210e-01  1.18288252e-08  2.01353550e+00  1.18288252e-08  1.80000000e+00  1.18288252e-08 -4.11294988e-03  1.18288252e-08  5.00000000e-01                                 
 1.36590762e-08  7.75886279e-01  1.36590762e-08  7.36203255e-01  1.36590762e-08  2.01095586e+00  1.36590762e-08  1.80000000e+00  1.36590762e-08  4.10705306e-03  1.36590762e-08  5.00000000e-01                                 
 1.73195783e-08  7.71236564e-01  1.73195783e-08  7.31670704e-01  1.73195783e-08  2.00664759e+00  1.73195783e-08  1.80000000e+00  1.73195783e-08 -4.07917247e-03  1.73195783e-08  5.00000000e-01                                 
 2.09095270e-08  7.67495626e-01  2.09095270e-08  7.27999856e-01  2.09095270e-08  2.00323583e+00  2.09095270e-08  1.80000000e+00  2.09095270e-08  4.08232991e-03  2.09095270e-08  5.00000000e-01                                 
 2.80894246e-08  7.61526903e-01  2.80894246e-08  7.22103562e-01  2.80894246e-08  1.99795673e+00  2.80894246e-08  1.80000000e+00  2.80894246e-08 -4.06132408e-03  2.80894246e-08  5.00000000e-01                                 
 3.66253766e-08  7.56146184e-01  3.66253766e-08  7.16747909e-01  3.66253766e-08  1.99343596e+00  3.66253766e-08  1.80000000e+00  3.66253766e-08  4.07140959e-03  3.66253766e-08  5.00000000e-01                                 
 5.36972806e-08  7.48384377e-01  5.36972806e-08  7.08948044e-01  5.36972806e-08  1.98761425e+00  5.36972806e-08  1.80000000e+00  5.36972806e-08 -4.05380331e-03  5.36972806e-08  5.00000000e-01                                 
 7.07752614e-08  7.42959374e-01  7.07752614e-08  7.03438533e-01  7.07752614e-08  1.98378304e+00  7.07752614e-08  1.80000000e+00  7.07752614e-08  4.06648979e-03  7.07752614e-08  5.00000000e-01                                 
 9.28545456e-08  7.37582977e-01  9.28545456e-08  6.97965683e-01  9.28545456e-08  1.98017860e+00  9.28545456e-08  1.80000000e+00  9.28545456e-08 -4.04931531e-03  9.28545456e-08  5.00000000e-01                                 
 1.19335709e-07  7.32575903e-01  1.19335709e-07  6.92862308e-01  1.19335709e-07  1.97548981e+00  1.19335709e-07  1.80000000e+00  1.19335709e-07  4.06296998e-03  1.19335709e-07  5.00000000e-01                                 
 1.51999799e-07  7.26333438e-01  1.51999799e-07  6.86804249e-01  1.51999799e-07  1.95252619e+00  1.51999799e-07  1.80000000e+00  1.51999799e-07 -4.04642941e-03  1.51999799e-07  5.00000000e-01                                 
 1.81588770e-07  7.18813590e-01  1.81588770e-07  6.80019784e-01  1.81588770e-07  1.91235735e+00  1.81588770e-07  1.80000000e+00  1.81588770e-07  4.06018779e-03  1.81588770e-07  5.00000000e-01                                 
 2.11712748e-07  7.09166306e-01  2.11712748e-07  6.71669518e-01  2.11712748e-07  1.86167696e+00  2.11712748e-07  1.80000000e+00  2.11712748e-07 -4.04364038e-03  2.11712748e-07  5.00000000e-01                                 
 2.42624599e-07  7.00778462e-01  2.42624599e-07  6.64423902e-01  2.42624599e-07  1.81248701e+00  2.42624599e-07  1.80000000e+00  2.42624599e-07  4.05744566e-03  2.42624599e-07  5.00000000e-01                                 
 2.72230136e-07  7.07285385e-01  2.72230136e-07  6.69081263e-01  2.72230136e-07  1.81538503e+00  2.72230136e-07  1.80000000e+00  2.72230136e-07 -4.04048423e-03  2.72230136e-07  5.00000000e-01                                 
 2.95940946e-07  7.09967067e-01  2.95940946e-07  6.70814701e-01  2.95940946e-07  1.79945446e+00  2.95940946e-07  1.80000000e+00  2.95940946e-07  4.05407618e-03  2.95940946e-07  5.00000000e-01                                 
 3.21041549e-07  7.03892887e-01  3.21041549e-07  6.65603743e-01  3.21041549e-07  1.76751699e+00  3.21041549e-07  1.80000000e+00  3.21041549e-07 -4.03723403e-03  3.21041549e-07  5.00000000e-01                                 
 3.40190768e-07  7.02227269e-01  3.40190768e-07  6.64008136e-01  3.40190768e-07  1.75060762e+00  3.40190768e-07  1.80000000e+00  3.40190768e-07  4.05026250e-03  3.40190768e-07  5.00000000e-01                                 
 3.60446054e-07  6.99998113e-01  3.60446054e-07  6.61966038e-01  3.60446054e-07  1.72968501e+00  3.60446054e-07  1.80000000e+00  3.60446054e-07 -4.03299079e-03  3.60446054e-07  5.00000000e-01                                 
 3.89900660e-07  6.95905764e-01  3.89900660e-07  6.58350572e-01  3.89900660e-07  1.69876467e+00  3.89900660e-07  1.80000000e+00  3.89900660e-07  4.04672136e-03  3.89900660e-07  5.00000000e-01                                 
 4.32728132e-07  6.90757062e-01  4.32728132e-07  6.53786612e-01  4.32728132e-07  1.65314067e+00  4.32728132e-07  1.80000000e+00  4.32728132e-07 -4.03052385e-03  4.32728132e-07  5.00000000e-01                                 
 4.88735776e-07  6.83986445e-01  4.88735776e-07  6.47872801e-01  4.88735776e-07  1.59485967e+00  4.88735776e-07  1.80000000e+00  4.88735776e-07  4.04498036e-03  4.88735776e-07  5.00000000e-01                                 
 5.94755884e-07  6.71752295e-01  5.94755884e-07  6.37346205e-01  5.94755884e-07  1.47817595e+00  5.94755884e-07  1.80000000e+00  5.94755884e-07 -4.02944105e-03  5.94755884e-07  5.00000000e-01                                 
 7.29760469e-07  6.57037273e-01  7.29760469e-07  6.24915936e-01  7.29760469e-07  1.33280682e+00  7.29760469e-07  1.80000000e+00  7.29760469e-07  4.04428031e-03  7.29760469e-07  5.00000000e-01                                 
 8.98097473e-07  6.38333375e-01  8.98097473e-07  6.09436311e-01  8.98097473e-07  1.14190009e+00  8.98097473e-07  1.80000000e+00  8.98097473e-07 -4.02884707e-03  8.98097473e-07  5.00000000e-01                                 
 1.23477148e-06  6.05302185e-01  1.23477148e-06  5.82477143e-01  1.23477148e-06  8.16650712e-01  1.23477148e-06  1.80000000e+00  1.23477148e-06  4.04392304e-03  1.23477148e-06  5.00000000e-01                                 
 1.28013965e-06  6.01399080e-01  1.28013965e-06  5.79318438e-01  1.28013965e-06  7.81708066e-01  1.28013965e-06  1.80000000e+00  1.28013965e-06  2.14978745e-07  1.28013965e-06  5.00000000e-01                                 
 1.37087598e-06  5.93672408e-01  1.37087598e-06  5.73071354e-01  1.37087598e-06  7.22669501e-01  1.37087598e-06  1.80000000e+00  1.37087598e-06 -2.58429257e-07  1.37087598e-06  5.00000000e-01                                 
 1.55234865e-06  5.83426819e-01  1.55234865e-06  5.64775409e-01  1.55234865e-06  6.44617146e-01  1.55234865e-06  1.80000000e+00  1.55234865e-06  2.32192101e-07  1.55234865e-06  5.00000000e-01                                 
 1.59444449e-06  5.83594125e-01  1.59444449e-06  5.64892393e-01  1.59444449e-06  6.32532204e-01  1.59444449e-06  1.80000000e+00  1.59444449e-06  5.70322475e-09  1.59444449e-06  5.00000000e-01                                 
 1.67863617e-06  5.89435605e-01  1.67863617e-06  5.69536968e-01  1.67863617e-06  6.13950321e-01  1.67863617e-06  1.80000000e+00  1.67863617e-06  4.64438731e-08  1.67863617e-06  5.00000000e-01                                 
 1.69968409e-06  5.93658563e-01  1.69968409e-06  5.72910169e-01  1.69968409e-06  6.11970634e-01  1.69968409e-06  1.80000000e+00  1.69968409e-06  6.71203154e-08  1.69968409e-06  5.00000000e-01                                 
 1.74177993e-06  6.06244958e-01  1.74177993e-06  5.82971052e-01  1.74177993e-06  6.11698980e-01  1.74177993e-06  1.80000000e+00  1.74177993e-06  1.29416383e-07  1.74177993e-06  5.00000000e-01                                 
 1.80135525e-06  6.58635694e-01  1.80135525e-06  6.24871462e-01  1.80135525e-06  6.41337253e-01  1.80135525e-06  1.80000000e+00  1.80135525e-06  4.43675882e-07  1.80135525e-06  5.00000000e-01                                 
 1.81158693e-06  6.76756813e-01  1.81158693e-06  6.39364462e-01  1.81158693e-06  6.54270029e-01  1.81158693e-06  1.80000000e+00  1.81158693e-06  5.89231647e-07  1.81158693e-06  5.00000000e-01                                 
 1.83205030e-06  7.27159039e-01  1.83205030e-06  6.79950386e-01  1.83205030e-06  6.92155339e-01  1.83205030e-06  1.80000000e+00  1.83205030e-06  1.10751761e-06  1.83205030e-06  5.00000000e-01                                 
 1.87297703e-06  8.33372366e-01  1.87297703e-06  7.88104319e-01  1.87297703e-06  7.65578595e-01  1.87297703e-06  1.80000000e+00  1.87297703e-06  1.14489151e-06  1.87297703e-06  5.00000000e-01                                 
 1.92063240e-06  8.96147685e-01  1.92063240e-06  8.47958084e-01  1.92063240e-06  7.86181092e-01  1.92063240e-06  1.80000000e+00  1.92063240e-06  2.32364975e-07  1.92063240e-06  5.00000000e-01                                 
 1.96010843e-06  9.51555532e-01  1.96010843e-06  8.86930774e-01  1.96010843e-06  7.93684042e-01  1.96010843e-06  1.80000000e+00  1.96010843e-06  7.65061847e-07  1.96010843e-06  5.00000000e-01                                 
 2.00277871e-06  9.81215740e-01  2.00277871e-06  9.03088854e-01  2.00277871e-06  7.86219353e-01  2.00277871e-06  1.80000000e+00  2.00277871e-06 -8.58971706e-09  2.00277871e-06  5.00000000e-01                                 
 2.04691910e-06  9.74512590e-01  2.04691910e-06  8.99834653e-01  2.04691910e-06  7.55947337e-01  2.04691910e-06  1.80000000e+00  2.04691910e-06  3.35785600e-09  2.04691910e-06  5.00000000e-01                                 
 2.08330639e-06  9.78975976e-01  2.08330639e-06  9.01906399e-01  2.08330639e-06  7.41637442e-01  2.08330639e-06  1.80000000e+00  2.08330639e-06  1.14749800e-07  2.08330639e-06  5.00000000e-01                                 
 2.12166782e-06  9.77405823e-01  2.12166782e-06  9.01335782e-01  2.12166782e-06  7.24137200e-01  2.12166782e-06  1.80000000e+00  2.12166782e-06 -6.44134733e-08  2.12166782e-06  5.00000000e-01                                 
 2.17847738e-06  9.77815207e-01  2.17847738e-06  9.01320657e-01  2.17847738e-06  7.02433932e-01  2.17847738e-06  1.80000000e+00  2.17847738e-06  1.04949271e-07  2.17847738e-06  5.00000000e-01                                 
 2.24427609e-06  9.77824776e-01  2.24427609e-06  9.01540315e-01  2.24427609e-06  6.79935638e-01  2.24427609e-06  1.80000000e+00  2.24427609e-06 -7.00227680e-08  2.24427609e-06  5.00000000e-01                                 
 2.35548529e-06  9.76529578e-01  2.35548529e-06  9.00682263e-01  2.35548529e-06  6.44309950e-01  2.35548529e-06  1.80000000e+00  2.35548529e-06  8.11770124e-08  2.35548529e-06  5.00000000e-01                                 
 2.49046673e-06  9.76606248e-01  2.49046673e-06  9.00923392e-01  2.49046673e-06  6.07113814e-01  2.49046673e-06  1.80000000e+00  2.49046673e-06 -6.49026013e-08  2.49046673e-06  5.00000000e-01                                 
 2.68456165e-06  9.74261783e-01  2.68456165e-06  8.99534758e-01  2.68456165e-06  5.58394368e-01  2.68456165e-06  1.80000000e+00  2.68456165e-06  7.01042246e-08  2.68456165e-06  5.00000000e-01                                 
 2.72074948e-06  9.74540935e-01  2.72074948e-06  8.99773618e-01  2.72074948e-06  5.50976084e-01  2.72074948e-06  1.80000000e+00  2.72074948e-06  9.39932754e-09  2.72074948e-06  5.00000000e-01                                 
 2.79312515e-06  9.73668700e-01  2.79312515e-06  8.99335977e-01  2.79312515e-06  5.36960002e-01  2.79312515e-06  1.80000000e+00  2.79312515e-06  3.33483183e-09  2.79312515e-06  5.00000000e-01                                 
 2.93787647e-06  9.72308768e-01  2.93787647e-06  8.98625827e-01  2.93787647e-06  5.21436943e-01  2.93787647e-06  1.80000000e+00  2.93787647e-06  1.86958839e-08  2.93787647e-06  5.00000000e-01                                 
 3.12822500e-06  9.70341112e-01  3.12822500e-06  8.97611181e-01  3.12822500e-06  5.12783161e-01  3.12822500e-06  1.80000000e+00  3.12822500e-06 -1.03284069e-08  3.12822500e-06  5.00000000e-01                                 
 3.42397895e-06  9.67532378e-01  3.42397895e-06  8.96116424e-01  3.42397895e-06  5.06857688e-01  3.42397895e-06  1.80000000e+00  3.42397895e-06  1.15302853e-08  3.42397895e-06  5.00000000e-01                                 
 3.81830581e-06  9.63705577e-01  3.81830581e-06  8.94062014e-01  3.81830581e-06  5.02701145e-01  3.81830581e-06  1.80000000e+00  3.81830581e-06 -1.13614096e-08  3.81830581e-06  5.00000000e-01                                 
 4.39811169e-06  9.58182094e-01  4.39811169e-06  8.90980448e-01  4.39811169e-06  4.97434004e-01  4.39811169e-06  1.80000000e+00  4.39811169e-06  1.08618815e-08  4.39811169e-06  5.00000000e-01                                 
 5.16959662e-06  9.50127885e-01  5.16959662e-06  8.86319817e-01  5.16959662e-06  4.90213046e-01  5.16959662e-06  1.80000000e+00  5.16959662e-06 -1.20061499e-08  5.16959662e-06  5.00000000e-01                                 
 5.29459662e-06  9.48707752e-01  5.29459662e-06  8.85464055e-01  5.29459662e-06  4.88865214e-01  5.29459662e-06  1.80000000e+00  5.29459662e-06 -1.31727591e-09  5.29459662e-06  5.00000000e-01                                 
 5.54459662e-06  9.45683502e-01  5.54459662e-06  8.83630143e-01  5.54459662e-06  4.86114865e-01  5.54459662e-06  1.80000000e+00  5.54459662e-06 -1.68747393e-09  5.54459662e-06  5.00000000e-01                                 
 6.04459662e-06  9.38074720e-01  6.04459662e-06  8.78856842e-01  6.04459662e-06  4.83348552e-01  6.04459662e-06  1.80000000e+00  6.04459662e-06 -3.91454546e-09  6.04459662e-06  5.00000000e-01                                 
 6.15111428e-06  9.35993129e-01  6.15111428e-06  8.77509901e-01  6.15111428e-06  4.85331354e-01  6.15111428e-06  1.80000000e+00  6.15111428e-06 -3.82862200e-09  6.15111428e-06  5.00000000e-01                                 
 6.36414962e-06  9.31279480e-01  6.36414962e-06  8.74392398e-01  6.36414962e-06  4.88373761e-01  6.36414962e-06  1.80000000e+00  6.36414962e-06 -9.27748445e-09  6.36414962e-06  5.00000000e-01                                 
 6.79022029e-06  9.15356289e-01  6.79022029e-06  8.63134971e-01  6.79022029e-06  4.85731984e-01  6.79022029e-06  1.80000000e+00  6.79022029e-06 -2.06775306e-08  6.79022029e-06  5.00000000e-01                                 
 7.32945111e-06  8.87377271e-01  7.32945111e-06  8.40495878e-01  7.32945111e-06  4.83002866e-01  7.32945111e-06  1.80000000e+00  7.32945111e-06 -2.42746476e-08  7.32945111e-06  5.00000000e-01                                 
