 time            v(vbep)         time            v(vben)         time            v(vout)         time            v(vphi1)        time            v(vphi2)        time            v(vref)         time            v(voutc)        time            v(voutcc)       yes             currtemp       
 0.00000000e+00  7.40402098e-01  0.00000000e+00  6.77399671e-01  0.00000000e+00  1.53979241e+00  0.00000000e+00  0.00000000e+00  0.00000000e+00  1.80000000e+00  0.00000000e+00  6.78921503e-01  0.00000000e+00  1.53979240e+00  0.00000000e+00  1.54680656e+00  1.00000000e+00  4.90000000e+01 
 1.00000000e-11  7.40427215e-01  1.00000000e-11  6.77471394e-01  1.00000000e-11  1.54056672e+00  1.00000000e-11  1.80000000e-02  1.00000000e-11  1.80025273e+00  1.00000000e-11  6.79454952e-01  1.00000000e-11  1.54026393e+00  1.00000000e-11  1.54681999e+00                                 
 2.00000000e-11  7.40434088e-01  2.00000000e-11  6.77516124e-01  2.00000000e-11  1.54103780e+00  2.00000000e-11  3.60000000e-02  2.00000000e-11  1.80035243e+00  2.00000000e-11  6.79850343e-01  2.00000000e-11  1.54061958e+00  2.00000000e-11  1.54682482e+00                                 
 4.00000000e-11  7.40434098e-01  4.00000000e-11  6.77574910e-01  4.00000000e-11  1.54159935e+00  4.00000000e-11  7.20000000e-02  4.00000000e-11  1.80039001e+00  4.00000000e-11  6.80428414e-01  4.00000000e-11  1.54114859e+00  4.00000000e-11  1.54682608e+00                                 
 8.00000000e-11  7.40422413e-01  8.00000000e-11  6.77612470e-01  8.00000000e-11  1.54170088e+00  8.00000000e-11  1.44000000e-01  8.00000000e-11  1.80018536e+00  8.00000000e-11  6.80877158e-01  8.00000000e-11  1.54157660e+00  8.00000000e-11  1.54681544e+00                                 
 1.60000000e-10  7.40419637e-01  1.60000000e-10  6.77622977e-01  1.60000000e-10  1.54136507e+00  1.60000000e-10  2.88000000e-01  1.60000000e-10  1.80000473e+00  1.60000000e-10  6.80958905e-01  1.60000000e-10  1.54162411e+00  1.60000000e-10  1.54680602e+00                                 
 3.20000000e-10  7.40415449e-01  3.20000000e-10  6.77617746e-01  3.20000000e-10  1.54098729e+00  3.20000000e-10  5.76000000e-01  3.20000000e-10  1.79998594e+00  3.20000000e-10  6.80805247e-01  3.20000000e-10  1.54130008e+00  3.20000000e-10  1.54680139e+00                                 
 6.40000000e-10  7.40332010e-01  6.40000000e-10  6.77220877e-01  6.40000000e-10  1.53902623e+00  6.40000000e-10  1.15200000e+00  6.40000000e-10  1.81088142e+00  6.40000000e-10  6.78372964e-01  6.40000000e-10  1.54567635e+00  6.40000000e-10  1.54682870e+00                                 
 1.00000000e-09  7.40949248e-01  1.00000000e-09  6.77530845e-01  1.00000000e-09  1.51589026e+00  1.00000000e-09  1.80000000e+00  1.00000000e-09  9.72154486e-02  1.00000000e-09  6.91406697e-01  1.00000000e-09  1.54786699e+00  1.00000000e-09  1.54680617e+00                                 
 1.03675441e-09  7.41005234e-01  1.03675441e-09  6.77558173e-01  1.03675441e-09  1.51469166e+00  1.03675441e-09  1.80000000e+00  1.03675441e-09  2.22035124e-02  1.03675441e-09  6.94487513e-01  1.03675441e-09  1.54956706e+00  1.03675441e-09  1.54683901e+00                                 
 1.11026323e-09  7.41143045e-01  1.11026323e-09  6.77616039e-01  1.11026323e-09  1.51335850e+00  1.11026323e-09  1.80000000e+00  1.11026323e-09 -1.05492218e-02  1.11026323e-09  6.98451110e-01  1.11026323e-09  1.55265064e+00  1.11026323e-09  1.54686104e+00                                 
 1.25728086e-09  7.41262031e-01  1.25728086e-09  6.77481024e-01  1.25728086e-09  1.51083559e+00  1.25728086e-09  1.80000000e+00  1.25728086e-09  8.61513817e-03  1.25728086e-09  6.98618898e-01  1.25728086e-09  1.55306245e+00  1.25728086e-09  1.54681337e+00                                 
 1.45490415e-09  7.41236641e-01  1.45490415e-09  6.77459076e-01  1.45490415e-09  1.51015731e+00  1.45490415e-09  1.80000000e+00  1.45490415e-09 -6.63122224e-03  1.45490415e-09  6.97866088e-01  1.45490415e-09  1.55220977e+00  1.45490415e-09  1.54684695e+00                                 
 1.67296506e-09  7.41141060e-01  1.67296506e-09  6.77454576e-01  1.67296506e-09  1.50998959e+00  1.67296506e-09  1.80000000e+00  1.67296506e-09  5.61952984e-03  1.67296506e-09  6.96402126e-01  1.67296506e-09  1.55114372e+00  1.67296506e-09  1.54686383e+00                                 
 2.03725037e-09  7.40891886e-01  2.03725037e-09  6.77407704e-01  2.03725037e-09  1.50986568e+00  2.03725037e-09  1.80000000e+00  2.03725037e-09 -5.05691811e-03  2.03725037e-09  6.93947629e-01  2.03725037e-09  1.54888840e+00  2.03725037e-09  1.54696508e+00                                 
 2.49058939e-09  7.40656171e-01  2.49058939e-09  6.77410955e-01  2.49058939e-09  1.50994906e+00  2.49058939e-09  1.80000000e+00  2.49058939e-09  4.54471805e-03  2.49058939e-09  6.91392849e-01  2.49058939e-09  1.54684926e+00  2.49058939e-09  1.54708327e+00                                 
 3.16261788e-09  7.40420771e-01  3.16261788e-09  6.77365912e-01  3.16261788e-09  1.50917763e+00  3.16261788e-09  1.80000000e+00  3.16261788e-09 -4.37341295e-03  3.16261788e-09  6.87734438e-01  3.16261788e-09  1.54358828e+00  3.16261788e-09  1.54726985e+00                                 
 4.16182031e-09  7.40276736e-01  4.16182031e-09  6.77383433e-01  4.16182031e-09  1.50825811e+00  4.16182031e-09  1.80000000e+00  4.16182031e-09  4.13349882e-03  4.16182031e-09  6.83987126e-01  4.16182031e-09  1.54051889e+00  4.16182031e-09  1.54745893e+00                                 
 5.91300316e-09  7.40187447e-01  5.91300316e-09  6.77360350e-01  5.91300316e-09  1.50524376e+00  5.91300316e-09  1.80000000e+00  5.91300316e-09 -4.08230644e-03  5.91300316e-09  6.79592763e-01  5.91300316e-09  1.53664927e+00  5.91300316e-09  1.54756879e+00                                 
 7.42251843e-09  7.40216539e-01  7.42251843e-09  6.77396469e-01  7.42251843e-09  1.50168214e+00  7.42251843e-09  1.80000000e+00  7.42251843e-09  3.95828138e-03  7.42251843e-09  6.78105758e-01  7.42251843e-09  1.53550725e+00  7.42251843e-09  1.54745779e+00                                 
 8.84928337e-09  7.40243956e-01  8.84928337e-09  6.77374329e-01  8.84928337e-09  1.49654437e+00  8.84928337e-09  1.80000000e+00  8.84928337e-09 -3.86240017e-03  8.84928337e-09  6.77126818e-01  8.84928337e-09  1.53455220e+00  8.84928337e-09  1.54726437e+00                                 
 1.03793918e-08  7.40297964e-01  1.03793918e-08  6.77406707e-01  1.03793918e-08  1.49032060e+00  1.03793918e-08  1.80000000e+00  1.03793918e-08  3.75979224e-03  1.03793918e-08  6.77021932e-01  1.03793918e-08  1.53457480e+00  1.03793918e-08  1.54700330e+00                                 
 1.24827971e-08  7.40338062e-01  1.24827971e-08  6.77382229e-01  1.24827971e-08  1.47974547e+00  1.24827971e-08  1.80000000e+00  1.24827971e-08 -3.69371180e-03  1.24827971e-08  6.76723921e-01  1.24827971e-08  1.53419463e+00  1.24827971e-08  1.54663281e+00                                 
 1.50411660e-08  7.40387166e-01  1.50411660e-08  6.77412553e-01  1.50411660e-08  1.46596219e+00  1.50411660e-08  1.80000000e+00  1.50411660e-08  3.63776156e-03  1.50411660e-08  6.77118788e-01  1.50411660e-08  1.53462711e+00  1.50411660e-08  1.54619527e+00                                 
 1.85446123e-08  7.40402181e-01  1.85446123e-08  6.77385802e-01  1.85446123e-08  1.44522868e+00  1.85446123e-08  1.80000000e+00  1.85446123e-08 -3.59726557e-03  1.85446123e-08  6.77205633e-01  1.85446123e-08  1.53456709e+00  1.85446123e-08  1.54567100e+00                                 
 2.32329030e-08  7.40419724e-01  2.32329030e-08  6.77414386e-01  2.32329030e-08  1.41707866e+00  2.32329030e-08  1.80000000e+00  2.32329030e-08  3.56864304e-03  2.32329030e-08  6.77832055e-01  2.32329030e-08  1.53518733e+00  2.32329030e-08  1.54509532e+00                                 
 3.09299150e-08  7.40407482e-01  3.09299150e-08  6.77386322e-01  3.09299150e-08  1.36965968e+00  3.09299150e-08  1.80000000e+00  3.09299150e-08 -3.54990772e-03  3.09299150e-08  6.78057700e-01  3.09299150e-08  1.53524356e+00  3.09299150e-08  1.54441260e+00                                 
 4.40464270e-08  7.40411198e-01  4.40464270e-08  6.77414024e-01  4.40464270e-08  1.28939525e+00  4.40464270e-08  1.80000000e+00  4.40464270e-08  3.54019631e-03  4.40464270e-08  6.78722250e-01  4.40464270e-08  1.53589805e+00  4.40464270e-08  1.54372432e+00                                 
 6.92147370e-08  7.40397944e-01  6.92147370e-08  6.77385666e-01  6.92147370e-08  1.13558803e+00  6.92147370e-08  1.80000000e+00  6.92147370e-08 -3.53396016e-03  6.92147370e-08  6.78763410e-01  6.92147370e-08  1.53581211e+00  6.92147370e-08  1.54320066e+00                                 
 1.03639951e-07  7.40406531e-01  1.03639951e-07  6.77413671e-01  1.03639951e-07  9.29426544e-01  1.03639951e-07  1.80000000e+00  1.03639951e-07  3.53167597e-03  1.03639951e-07  6.79039252e-01  1.03639951e-07  1.53615409e+00  1.03639951e-07  1.54304988e+00                                 
 1.53983340e-07  7.40398442e-01  1.53983340e-07  6.77385652e-01  1.53983340e-07  7.18693254e-01  1.53983340e-07  1.80000000e+00  1.53983340e-07 -3.52214549e-03  1.53983340e-07  6.78801344e-01  1.53983340e-07  1.53583947e+00  1.53983340e-07  1.54301924e+00                                 
 1.92629398e-07  7.40406466e-01  1.92629398e-07  6.77413851e-01  1.92629398e-07  6.76851692e-01  1.92629398e-07  1.80000000e+00  1.92629398e-07  3.53131907e-03  1.92629398e-07  6.79046463e-01  1.92629398e-07  1.53615607e+00  1.92629398e-07  1.54301653e+00                                 
 2.25367628e-07  7.40395527e-01  2.25367628e-07  6.77385289e-01  2.25367628e-07  6.80673153e-01  2.25367628e-07  1.80000000e+00  2.25367628e-07 -3.51330993e-03  2.25367628e-07  6.78799657e-01  2.25367628e-07  1.53583563e+00  2.25367628e-07  1.54301669e+00                                 
 2.50720481e-07  7.40409080e-01  2.50720481e-07  6.77414108e-01  2.50720481e-07  6.80463049e-01  2.50720481e-07  1.80000000e+00  2.50720481e-07  3.52205473e-03  2.50720481e-07  6.79042445e-01  2.50720481e-07  1.53615048e+00  2.50720481e-07  1.54301308e+00                                 
 2.78789906e-07  7.40395192e-01  2.78789906e-07  6.77385213e-01  2.78789906e-07  6.80464229e-01  2.78789906e-07  1.80000000e+00  2.78789906e-07 -3.50355042e-03  2.78789906e-07  6.78800767e-01  2.78789906e-07  1.53583484e+00  2.78789906e-07  1.54301332e+00                                 
 3.29693550e-07  7.40408909e-01  3.29693550e-07  6.77414117e-01  3.29693550e-07  6.80511488e-01  3.29693550e-07  1.80000000e+00  3.29693550e-07  3.51482358e-03  3.29693550e-07  6.79042087e-01  3.29693550e-07  1.53614735e+00  3.29693550e-07  1.54300997e+00                                 
 3.98391190e-07  7.40395371e-01  3.98391190e-07  6.77385218e-01  3.98391190e-07  6.80435471e-01  3.98391190e-07  1.80000000e+00  3.98391190e-07 -3.49910470e-03  3.98391190e-07  6.78800934e-01  3.98391190e-07  1.53583095e+00  3.98391190e-07  1.54300900e+00                                 
 5.23615651e-07  7.40408774e-01  5.23615651e-07  6.77414112e-01  5.23615651e-07  6.80527004e-01  5.23615651e-07  1.80000000e+00  5.23615651e-07  3.51187607e-03  5.23615651e-07  6.79041999e-01  5.23615651e-07  1.53614059e+00  5.23615651e-07  1.54300336e+00                                 
 7.38030134e-07  7.40395451e-01  7.38030134e-07  6.77385222e-01  7.38030134e-07  6.80427459e-01  7.38030134e-07  1.80000000e+00  7.38030134e-07 -3.49745553e-03  7.38030134e-07  6.78800976e-01  7.38030134e-07  1.53581939e+00  7.38030134e-07  1.54299738e+00                                 
 1.10793373e-06  7.40408726e-01  1.10793373e-06  6.77414110e-01  1.10793373e-06  6.80531248e-01  1.10793373e-06  1.80000000e+00  1.10793373e-06  3.51091324e-03  1.10793373e-06  6.79041976e-01  1.10793373e-06  1.53612058e+00  1.10793373e-06  1.54298341e+00                                 
 1.79520828e-06  7.40395479e-01  1.79520828e-06  6.77385223e-01  1.79520828e-06  6.80425078e-01  1.79520828e-06  1.80000000e+00  1.79520828e-06 -3.49691208e-03  1.79520828e-06  6.78800988e-01  1.79520828e-06  1.53578323e+00  1.79520828e-06  1.54296125e+00                                 
 2.99520828e-06  7.40408710e-01  2.99520828e-06  6.77414109e-01  2.99520828e-06  6.80532493e-01  2.99520828e-06  1.80000000e+00  2.99520828e-06  3.51061413e-03  2.99520828e-06  6.79041970e-01  2.99520828e-06  1.53605591e+00  2.99520828e-06  1.54291884e+00                                 
 4.19520828e-06  7.40395490e-01  4.19520828e-06  6.77385223e-01  4.19520828e-06  6.80424159e-01  4.19520828e-06  1.80000000e+00  4.19520828e-06 -3.49671016e-03  4.19520828e-06  6.78800993e-01  4.19520828e-06  1.53570108e+00  4.19520828e-06  1.54287920e+00                                 
 5.39520828e-06  7.40408699e-01  5.39520828e-06  6.77414108e-01  5.39520828e-06  6.80533382e-01  5.39520828e-06  1.80000000e+00  5.39520828e-06  3.51039693e-03  5.39520828e-06  6.79041965e-01  5.39520828e-06  1.53597386e+00  5.39520828e-06  1.54283690e+00                                 
 6.00100000e-06  7.40395507e-01  6.00100000e-06  6.77385224e-01  6.00100000e-06  6.80422819e-01  6.00100000e-06  1.80000000e+00  6.00100000e-06 -3.49639064e-03  6.00100000e-06  6.78800999e-01  6.00100000e-06  1.53563936e+00  6.00100000e-06  1.54281755e+00                                 
 6.00110000e-06  7.40354029e-01  6.00110000e-06  6.77160197e-01  6.00110000e-06  6.78714544e-01  6.00110000e-06  1.62000000e+00  6.00110000e-06 -3.93163253e-04  6.00110000e-06  6.77339141e-01  6.00110000e-06  1.53444035e+00  6.00110000e-06  1.54280726e+00                                 
 6.00130000e-06  7.40387821e-01  6.00130000e-06  6.77162788e-01  6.00130000e-06  6.78888599e-01  6.00130000e-06  1.26000000e+00  6.00130000e-06  2.56369330e-04  6.00130000e-06  6.77166411e-01  6.00130000e-06  1.53430310e+00  6.00130000e-06  1.54282123e+00                                 
 6.00165508e-06  7.40446631e-01  6.00165508e-06  6.77390770e-01  6.00165508e-06  6.81024889e-01  6.00165508e-06  6.20855429e-01  6.00165508e-06 -1.90305959e-03  6.00165508e-06  6.77936824e-01  6.00165508e-06  1.53231527e+00  6.00165508e-06  1.54280426e+00                                 
 6.00200000e-06  7.40391024e-01  6.00200000e-06  6.75802830e-01  6.00200000e-06  7.12691233e-01  6.00200000e-06  0.00000000e+00  6.00200000e-06  1.59697954e+00  6.00200000e-06  6.60986757e-01  6.00200000e-06  1.34237836e+00  6.00200000e-06  1.54221378e+00                                 
 6.00204077e-06  7.40405284e-01  6.00204077e-06  6.75414300e-01  6.00204077e-06  7.19296776e-01  6.00204077e-06  0.00000000e+00  6.00204077e-06  1.72035740e+00  6.00204077e-06  6.56615227e-01  6.00204077e-06  1.28320207e+00  6.00204077e-06  1.54222331e+00                                 
 6.00212230e-06  7.40404366e-01  6.00212230e-06  6.74684458e-01  6.00212230e-06  7.24130307e-01  6.00212230e-06  0.00000000e+00  6.00212230e-06  1.81338165e+00  6.00212230e-06  6.48686172e-01  6.00212230e-06  1.16003660e+00  6.00212230e-06  1.54258072e+00                                 
 6.00228536e-06  7.40399977e-01  6.00228536e-06  6.74554899e-01  6.00228536e-06  7.14709179e-01  6.00228536e-06  0.00000000e+00  6.00228536e-06  1.78958848e+00  6.00228536e-06  6.48208651e-01  6.00228536e-06  9.63320616e-01  6.00228536e-06  1.54307495e+00                                 
 6.00243441e-06  7.40402664e-01  6.00243441e-06  6.75027126e-01  6.00243441e-06  7.09017757e-01  6.00243441e-06  0.00000000e+00  6.00243441e-06  1.80360868e+00  6.00243441e-06  6.53707998e-01  6.00243441e-06  8.45898446e-01  6.00243441e-06  1.54302384e+00                                 
 6.00262486e-06  7.40398954e-01  6.00262486e-06  6.75821179e-01  6.00262486e-06  6.97940588e-01  6.00262486e-06  0.00000000e+00  6.00262486e-06  1.79671408e+00  6.00262486e-06  6.61639095e-01  6.00262486e-06  7.50420766e-01  6.00262486e-06  1.54323153e+00                                 
 6.00284856e-06  7.40402414e-01  6.00284856e-06  6.76873446e-01  6.00284856e-06  6.87425327e-01  6.00284856e-06  0.00000000e+00  6.00284856e-06  1.80176049e+00  6.00284856e-06  6.71752715e-01  6.00284856e-06  7.04907664e-01  6.00284856e-06  1.54311415e+00                                 
 6.00304945e-06  7.40399382e-01  6.00304945e-06  6.77344358e-01  6.00304945e-06  6.84004584e-01  6.00304945e-06  0.00000000e+00  6.00304945e-06  1.79898509e+00  6.00304945e-06  6.75319503e-01  6.00304945e-06  6.89736389e-01  6.00304945e-06  1.54283855e+00                                 
 6.00332262e-06  7.40402591e-01  6.00332262e-06  6.77755634e-01  6.00332262e-06  6.81461116e-01  6.00332262e-06  0.00000000e+00  6.00332262e-06  1.80075031e+00  6.00332262e-06  6.78595663e-01  6.00332262e-06  6.83705640e-01  6.00332262e-06  1.54199877e+00                                 
 6.00362095e-06  7.40400142e-01  6.00362095e-06  6.77854842e-01  6.00362095e-06  6.81734393e-01  6.00362095e-06  0.00000000e+00  6.00362095e-06  1.79951783e+00  6.00362095e-06  6.79140025e-01  6.00362095e-06  6.81578073e-01  6.00362095e-06  1.54089562e+00                                 
 6.00413929e-06  7.40402943e-01  6.00413929e-06  6.77922508e-01  6.00413929e-06  6.82054061e-01  6.00413929e-06  0.00000000e+00  6.00413929e-06  1.80041767e+00  6.00413929e-06  6.80099396e-01  6.00413929e-06  6.82269698e-01  6.00413929e-06  1.53856164e+00                                 
 6.00486420e-06  7.40400750e-01  6.00486420e-06  6.77840641e-01  6.00486420e-06  6.84262326e-01  6.00486420e-06  0.00000000e+00  6.00486420e-06  1.79966681e+00  6.00486420e-06  6.79933029e-01  6.00486420e-06  6.83570040e-01  6.00486420e-06  1.53502791e+00                                 
 6.00631402e-06  7.40403199e-01  6.00631402e-06  6.77759192e-01  6.00631402e-06  6.87650992e-01  6.00631402e-06  0.00000000e+00  6.00631402e-06  1.80033078e+00  6.00631402e-06  6.80387230e-01  6.00631402e-06  6.87717178e-01  6.00631402e-06  1.52736375e+00                                 
 6.00921364e-06  7.40400955e-01  6.00921364e-06  6.77546734e-01  6.00921364e-06  6.96063399e-01  6.00921364e-06  0.00000000e+00  6.00921364e-06  1.79970500e+00  6.00921364e-06  6.79967694e-01  6.00921364e-06  6.95295369e-01  6.00921364e-06  1.51130528e+00                                 
 6.01501290e-06  7.40403232e-01  6.01501290e-06  6.77402510e-01  6.01501290e-06  7.11348978e-01  6.01501290e-06  0.00000000e+00  6.01501290e-06  1.80031120e+00  6.01501290e-06  6.79959561e-01  6.01501290e-06  7.11400278e-01  6.01501290e-06  1.47850959e+00                                 
 6.02661142e-06  7.40400969e-01  6.02661142e-06  6.77365940e-01  6.02661142e-06  7.41884701e-01  6.02661142e-06  0.00000000e+00  6.02661142e-06  1.79971329e+00  6.02661142e-06  6.79182961e-01  6.02661142e-06  7.40999100e-01  6.02661142e-06  1.41622941e+00                                 
 6.04396238e-06  7.40403224e-01  6.04396238e-06  6.77411538e-01  6.04396238e-06  7.83309151e-01  6.04396238e-06  0.00000000e+00  6.04396238e-06  1.80030483e+00  6.04396238e-06  6.79194394e-01  6.04396238e-06  7.83441521e-01  6.04396238e-06  1.33199693e+00                                 
 6.07866432e-06  7.40400973e-01  6.07866432e-06  6.77384318e-01  6.07866432e-06  8.57046258e-01  6.07866432e-06  0.00000000e+00  6.07866432e-06  1.79971335e+00  6.07866432e-06  6.78747915e-01  6.07866432e-06  8.55465860e-01  6.07866432e-06  1.18638459e+00                                 
 6.13864411e-06  7.40403221e-01  6.13864411e-06  6.77414939e-01  6.13864411e-06  9.55398793e-01  6.13864411e-06  0.00000000e+00  6.13864411e-06  1.80029883e+00  6.13864411e-06  6.79072713e-01  6.13864411e-06  9.56303195e-01  6.13864411e-06  1.01860759e+00                                 
 6.25860369e-06  7.40400974e-01  6.25860369e-06  6.77384505e-01  6.25860369e-06  1.07839166e+00  6.25860369e-06  0.00000000e+00  6.25860369e-06  1.79970806e+00  6.25860369e-06  6.78756245e-01  6.25860369e-06  1.07596888e+00  6.25860369e-06  1.02504485e+00                                 
