 time            v(vbep)         time            v(vben)         time            v(vout)         time            v(vphi1)        time            v(vphi2)        time            v(vref)         yes             currtemp       
 0.00000000e+00  7.56700268e-01  0.00000000e+00  7.07461714e-01  0.00000000e+00  1.00235534e+00  0.00000000e+00  0.00000000e+00  0.00000000e+00  1.79992581e+00  0.00000000e+00  7.07461714e-01  1.00000000e+00 -4.00000000e+00 
 5.00000000e-12  7.56658912e-01  5.00000000e-12  7.07427882e-01  5.00000000e-12  1.00308836e+00  5.00000000e-12  1.80000000e-02  5.00000000e-12  1.80005217e+00  5.00000000e-12  7.07427882e-01                                 
 1.00000000e-11  7.56619500e-01  1.00000000e-11  7.07395249e-01  1.00000000e-11  1.00376329e+00  1.00000000e-11  3.60000000e-02  1.00000000e-11  1.80013090e+00  1.00000000e-11  7.07395249e-01                                 
 2.00000000e-11  7.56542042e-01  2.00000000e-11  7.07330343e-01  2.00000000e-11  1.00501946e+00  2.00000000e-11  7.20000000e-02  2.00000000e-11  1.80022377e+00  2.00000000e-11  7.07330343e-01                                 
 4.00000000e-11  7.56389514e-01  4.00000000e-11  7.07201268e-01  4.00000000e-11  1.00710470e+00  4.00000000e-11  1.44000000e-01  4.00000000e-11  1.80023224e+00  4.00000000e-11  7.07201268e-01                                 
 8.00000000e-11  7.56086572e-01  8.00000000e-11  7.06944830e-01  8.00000000e-11  1.01001732e+00  8.00000000e-11  2.88000000e-01  8.00000000e-11  1.80014632e+00  8.00000000e-11  7.06944830e-01                                 
 1.60000000e-10  7.55490122e-01  1.60000000e-10  7.06438795e-01  1.60000000e-10  1.01289623e+00  1.60000000e-10  5.76000000e-01  1.60000000e-10  1.80003909e+00  1.60000000e-10  7.06438795e-01                                 
 3.20000000e-10  7.54332018e-01  3.20000000e-10  7.05452819e-01  3.20000000e-10  1.00289121e+00  3.20000000e-10  1.15200000e+00  3.20000000e-10  1.80024939e+00  3.20000000e-10  7.05452819e-01                                 
 5.00000000e-10  7.53082140e-01  5.00000000e-10  7.04383215e-01  5.00000000e-10  1.08323524e+00  5.00000000e-10  1.80000000e+00  5.00000000e-10  1.26220608e-01  5.00000000e-10  7.04383215e-01                                 
 5.20571367e-10  7.52943090e-01  5.20571367e-10  7.04263851e-01  5.20571367e-10  1.10512955e+00  5.20571367e-10  1.80000000e+00  5.20571367e-10  2.88766152e-02  5.20571367e-10  7.04263851e-01                                 
 5.61714100e-10  7.52666279e-01  5.61714100e-10  7.04026059e-01  5.61714100e-10  1.14890697e+00  5.61714100e-10  1.80000000e+00  5.61714100e-10 -1.16199556e-02  5.61714100e-10  7.04026059e-01                                 
 6.43999567e-10  7.52120494e-01  6.43999567e-10  7.03556426e-01  6.43999567e-10  1.22930400e+00  6.43999567e-10  1.80000000e+00  6.43999567e-10  1.00781369e-02  6.43999567e-10  7.03556426e-01                                 
 7.64017373e-10  7.51342603e-01  7.64017373e-10  7.02885261e-01  7.64017373e-10  1.33608509e+00  7.64017373e-10  1.80000000e+00  7.64017373e-10 -7.94499395e-03  7.64017373e-10  7.02885261e-01                                 
 9.44209994e-10  7.50213003e-01  9.44209994e-10  7.01906896e-01  9.44209994e-10  1.47228075e+00  9.44209994e-10  1.80000000e+00  9.44209994e-10  7.93129330e-03  9.44209994e-10  7.01906896e-01                                 
 1.30459524e-09  7.48079153e-01  1.30459524e-09  7.00046988e-01  1.30459524e-09  1.65699113e+00  1.30459524e-09  1.80000000e+00  1.30459524e-09 -7.00904021e-03  1.30459524e-09  7.00046988e-01                                 
 1.74183363e-09  7.45690926e-01  1.74183363e-09  6.97947047e-01  1.74183363e-09  1.76579868e+00  1.74183363e-09  1.80000000e+00  1.74183363e-09  7.03047101e-03  1.74183363e-09  6.97947047e-01                                 
 2.11582471e-09  7.43801286e-01  2.11582471e-09  6.96271829e-01  2.11582471e-09  1.80059822e+00  2.11582471e-09  1.80000000e+00  2.11582471e-09 -6.57160593e-03  2.11582471e-09  6.96271829e-01                                 
 2.52391489e-09  7.41878263e-01  2.52391489e-09  6.94555150e-01  2.52391489e-09  1.81467283e+00  2.52391489e-09  1.80000000e+00  2.52391489e-09  6.36420713e-03  2.52391489e-09  6.94555150e-01                                 
 3.00337572e-09  7.39780364e-01  3.00337572e-09  6.92669151e-01  3.00337572e-09  1.81842855e+00  3.00337572e-09  1.80000000e+00  3.00337572e-09 -6.09613918e-03  3.00337572e-09  6.92669151e-01                                 
 3.73972823e-09  7.36844741e-01  3.73972823e-09  6.90008150e-01  3.73972823e-09  1.81794616e+00  3.73972823e-09  1.80000000e+00  3.73972823e-09  5.97895701e-03  3.73972823e-09  6.90008150e-01                                 
 4.78105062e-09  7.33176488e-01  4.78105062e-09  6.86648749e-01  4.78105062e-09  1.81427823e+00  4.78105062e-09  1.80000000e+00  4.78105062e-09 -5.85717125e-03  4.78105062e-09  6.86648749e-01                                 
 6.67850273e-09  7.27561340e-01  6.67850273e-09  6.81439990e-01  6.67850273e-09  1.80912387e+00  6.67850273e-09  1.80000000e+00  6.67850273e-09  5.82385875e-03  6.67850273e-09  6.81439990e-01                                 
 1.03681167e-08  7.19189837e-01  1.03681167e-08  6.73542986e-01  1.03681167e-08  1.80093017e+00  1.03681167e-08  1.80000000e+00  1.03681167e-08 -5.77555246e-03  1.03681167e-08  6.73542986e-01                                 
 1.59861847e-08  7.10176618e-01  1.59861847e-08  6.64880924e-01  1.59861847e-08  1.79283403e+00  1.59861847e-08  1.80000000e+00  1.59861847e-08  5.78182102e-03  1.59861847e-08  6.64880924e-01                                 
 1.92567575e-08  7.06214542e-01  1.92567575e-08  6.61023126e-01  1.92567575e-08  1.78903567e+00  1.92567575e-08  1.80000000e+00  1.92567575e-08 -5.72844639e-03  1.92567575e-08  6.61023126e-01                                 
 2.06076196e-08  7.04757551e-01  2.06076196e-08  6.59598185e-01  2.06076196e-08  1.78798839e+00  2.06076196e-08  1.80000000e+00  2.06076196e-08  5.67574273e-03  2.06076196e-08  6.59598185e-01                                 
 2.27589873e-08  7.02606094e-01  2.27589873e-08  6.57488541e-01  2.27589873e-08  1.78586287e+00  2.27589873e-08  1.80000000e+00  2.27589873e-08 -5.60851876e-03  2.27589873e-08  6.57488541e-01                                 
 2.51746562e-08  7.00403833e-01  2.51746562e-08  6.55322329e-01  2.51746562e-08  1.78420512e+00  2.51746562e-08  1.80000000e+00  2.51746562e-08  5.58893215e-03  2.51746562e-08  6.55322329e-01                                 
 2.92567875e-08  6.97092136e-01  2.92567875e-08  6.52052874e-01  2.92567875e-08  1.78115671e+00  2.92567875e-08  1.80000000e+00  2.92567875e-08 -5.54410137e-03  2.92567875e-08  6.52052874e-01                                 
 3.35842380e-08  6.94031455e-01  3.35842380e-08  6.49019086e-01  3.35842380e-08  1.77884125e+00  3.35842380e-08  1.80000000e+00  3.35842380e-08  5.54292205e-03  3.35842380e-08  6.49019086e-01                                 
 4.22391391e-08  6.88890090e-01  4.22391391e-08  6.43898867e-01  4.22391391e-08  1.77438328e+00  4.22391391e-08  1.80000000e+00  4.22391391e-08 -5.51056398e-03  4.22391391e-08  6.43898867e-01                                 
 5.04316538e-08  6.84835432e-01  5.04316538e-08  6.39856765e-01  5.04316538e-08  1.77127932e+00  5.04316538e-08  1.80000000e+00  5.04316538e-08  5.52036029e-03  5.04316538e-08  6.39856765e-01                                 
 6.64490248e-08  6.78417416e-01  6.64490248e-08  6.33440003e-01  6.64490248e-08  1.76607665e+00  6.64490248e-08  1.80000000e+00  6.64490248e-08 -5.49259396e-03  6.64490248e-08  6.33440003e-01                                 
 8.09196363e-08  6.73900788e-01  8.09196363e-08  6.28894580e-01  8.09196363e-08  1.76294773e+00  8.09196363e-08  1.80000000e+00  8.09196363e-08  5.50806096e-03  8.09196363e-08  6.28894580e-01                                 
 1.09860859e-07  6.66172845e-01  1.09860859e-07  6.21231285e-01  1.09860859e-07  1.74119580e+00  1.09860859e-07  1.80000000e+00  1.09860859e-07 -5.48314604e-03  1.09860859e-07  6.21231285e-01                                 
 1.40743715e-07  6.56461026e-01  1.40743715e-07  6.12277316e-01  1.40743715e-07  1.71186205e+00  1.40743715e-07  1.80000000e+00  1.40743715e-07  5.50145943e-03  1.40743715e-07  6.12277316e-01                                 
 1.63200950e-07  6.47586094e-01  1.63200950e-07  6.04500734e-01  1.63200950e-07  1.68760090e+00  1.63200950e-07  1.80000000e+00  1.63200950e-07 -5.47619370e-03  1.63200950e-07  6.04500734e-01                                 
 1.89076597e-07  6.39112394e-01  1.89076597e-07  5.97063657e-01  1.89076597e-07  1.64777974e+00  1.89076597e-07  1.80000000e+00  1.89076597e-07  5.49331247e-03  1.89076597e-07  5.97063657e-01                                 
 2.13819715e-07  6.33641092e-01  2.13819715e-07  5.92139557e-01  2.13819715e-07  1.61465672e+00  2.13819715e-07  1.80000000e+00  2.13819715e-07 -5.46833990e-03  2.13819715e-07  5.92139557e-01                                 
 2.40149854e-07  6.40709104e-01  2.40149854e-07  5.97160244e-01  2.40149854e-07  1.61922275e+00  2.40149854e-07  1.80000000e+00  2.40149854e-07  5.48842406e-03  2.40149854e-07  5.97160244e-01                                 
 2.59661958e-07  6.41946023e-01  2.59661958e-07  5.97726022e-01  2.59661958e-07  1.60195042e+00  2.59661958e-07  1.80000000e+00  2.59661958e-07 -5.46155080e-03  2.59661958e-07  5.97726022e-01                                 
 2.78223885e-07  6.35382173e-01  2.78223885e-07  5.92158600e-01  2.78223885e-07  1.57895682e+00  2.78223885e-07  1.80000000e+00  2.78223885e-07  5.47743229e-03  2.78223885e-07  5.92158600e-01                                 
 2.95516016e-07  6.31914965e-01  2.95516016e-07  5.89097435e-01  2.95516016e-07  1.55581143e+00  2.95516016e-07  1.80000000e+00  2.95516016e-07 -5.45098139e-03  2.95516016e-07  5.89097435e-01                                 
 3.13702222e-07  6.28331004e-01  3.13702222e-07  5.85950995e-01  3.13702222e-07  1.53663938e+00  3.13702222e-07  1.80000000e+00  3.13702222e-07  5.46721804e-03  3.13702222e-07  5.85950995e-01                                 
 3.42434177e-07  6.21892167e-01  3.42434177e-07  5.80410034e-01  3.42434177e-07  1.49946026e+00  3.42434177e-07  1.80000000e+00  3.42434177e-07 -5.44298852e-03  3.42434177e-07  5.80410034e-01                                 
 3.82897776e-07  6.13065130e-01  3.82897776e-07  5.72884198e-01  3.82897776e-07  1.45309643e+00  3.82897776e-07  1.80000000e+00  3.82897776e-07  5.46185141e-03  3.82897776e-07  5.72884198e-01                                 
 4.46770632e-07  5.98469447e-01  4.46770632e-07  5.60652339e-01  4.46770632e-07  1.37287193e+00  4.46770632e-07  1.80000000e+00  4.46770632e-07 -5.43927766e-03  4.46770632e-07  5.60652339e-01                                 
 5.46389686e-07  5.70733973e-01  5.46389686e-07  5.37967030e-01  5.46389686e-07  1.24891189e+00  5.46389686e-07  1.80000000e+00  5.46389686e-07  5.45945219e-03  5.46389686e-07  5.37967030e-01                                 
 6.91935804e-07  5.22093979e-01  6.91935804e-07  4.98833125e-01  6.91935804e-07  1.04549616e+00  6.91935804e-07  1.80000000e+00  6.91935804e-07 -5.43796068e-03  6.91935804e-07  4.98833125e-01                                 
 7.13449973e-07  5.14995946e-01  7.13449973e-07  4.93161041e-01  7.13449973e-07  1.01786337e+00  7.13449973e-07  1.80000000e+00  7.13449973e-07 -1.81106932e-06  7.13449973e-07  4.93161041e-01                                 
 7.56478313e-07  5.23063386e-01  7.56478313e-07  4.99634961e-01  7.56478313e-07  9.80980422e-01  7.56478313e-07  1.80000000e+00  7.56478313e-07  1.53648085e-06  7.56478313e-07  4.99634961e-01                                 
 8.42534992e-07  7.92321821e-01  8.42534992e-07  7.41370014e-01  8.42534992e-07  1.15964777e+00  8.42534992e-07  1.80000000e+00  8.42534992e-07  7.92111231e-06  8.42534992e-07  7.41370014e-01                                 
 9.22968545e-07  8.87626097e-01  9.22968545e-07  8.22979762e-01  9.22968545e-07  1.17411484e+00  9.22968545e-07  1.80000000e+00  9.22968545e-07 -4.14382488e-06  9.22968545e-07  8.22979762e-01                                 
 9.84132482e-07  9.58917938e-01  9.84132482e-07  8.64283271e-01  9.84132482e-07  1.16524307e+00  9.84132482e-07  1.80000000e+00  9.84132482e-07  6.75588913e-06  9.84132482e-07  8.64283271e-01                                 
 9.92167385e-07  9.62862400e-01  9.92167385e-07  8.66308727e-01  9.92167385e-07  1.16616248e+00  9.92167385e-07  1.80000000e+00  9.92167385e-07  8.89774528e-07  9.92167385e-07  8.66308727e-01                                 
 1.00823719e-06  9.63934070e-01  1.00823719e-06  8.66955983e-01  1.00823719e-06  1.15367297e+00  1.00823719e-06  1.80000000e+00  1.00823719e-06 -1.24302745e-06  1.00823719e-06  8.66955983e-01                                 
 1.04037681e-06  9.61653048e-01  1.04037681e-06  8.65784433e-01  1.04037681e-06  1.11579199e+00  1.04037681e-06  1.80000000e+00  1.04037681e-06  6.14134834e-08  1.04037681e-06  8.65784433e-01                                 
 1.06947873e-06  9.62818549e-01  1.06947873e-06  8.66386568e-01  1.06947873e-06  1.08816619e+00  1.06947873e-06  1.80000000e+00  1.06947873e-06 -6.84386195e-07  1.06947873e-06  8.66386568e-01                                 
 1.11845968e-06  9.60913057e-01  1.11845968e-06  8.65455591e-01  1.11845968e-06  1.05394062e+00  1.11845968e-06  1.80000000e+00  1.11845968e-06  1.63071767e-07  1.11845968e-06  8.65455591e-01                                 
 1.17233907e-06  9.61165749e-01  1.17233907e-06  8.65580505e-01  1.17233907e-06  1.03762254e+00  1.17233907e-06  1.80000000e+00  1.17233907e-06 -2.33322523e-07  1.17233907e-06  8.65580505e-01                                 
 1.22926276e-06  9.59631863e-01  1.22926276e-06  8.64846539e-01  1.22926276e-06  9.90940523e-01  1.22926276e-06  1.80000000e+00  1.22926276e-06 -5.30858589e-07  1.22926276e-06  8.64846539e-01                                 
 1.30101143e-06  9.59270479e-01  1.30101143e-06  8.64657624e-01  1.30101143e-06  9.67909400e-01  1.30101143e-06  1.80000000e+00  1.30101143e-06  4.25757266e-07  1.30101143e-06  8.64657624e-01                                 
 1.37536277e-06  9.57823273e-01  1.37536277e-06  8.63970229e-01  1.37536277e-06  9.30476998e-01  1.37536277e-06  1.80000000e+00  1.37536277e-06 -8.30071842e-07  1.37536277e-06  8.63970229e-01                                 
 1.47177753e-06  9.56918150e-01  1.47177753e-06  8.63505608e-01  1.47177753e-06  9.05458648e-01  1.47177753e-06  1.80000000e+00  1.47177753e-06  7.48130296e-07  1.47177753e-06  8.63505608e-01                                 
 1.61566059e-06  9.54755443e-01  1.61566059e-06  8.62460155e-01  1.61566059e-06  8.76237469e-01  1.61566059e-06  1.80000000e+00  1.61566059e-06 -8.46224263e-07  1.61566059e-06  8.62460155e-01                                 
 1.78696606e-06  9.52800278e-01  1.78696606e-06  8.61460520e-01  1.78696606e-06  8.65104449e-01  1.78696606e-06  1.80000000e+00  1.78696606e-06  8.80871333e-07  1.78696606e-06  8.61460520e-01                                 
 2.02229173e-06  9.49594391e-01  2.02229173e-06  8.59865836e-01  2.02229173e-06  8.59115407e-01  2.02229173e-06  1.80000000e+00  2.02229173e-06 -8.48341635e-07  2.02229173e-06  8.59865836e-01                                 
 2.33940518e-06  9.45746666e-01  2.33940518e-06  8.57861059e-01  2.33940518e-06  8.57520698e-01  2.33940518e-06  1.80000000e+00  2.33940518e-06  9.07361338e-07  2.33940518e-06  8.57861059e-01                                 
 2.64982053e-06  9.41497858e-01  2.64982053e-06  8.55661188e-01  2.64982053e-06  8.55149127e-01  2.64982053e-06  1.80000000e+00  2.64982053e-06 -8.61592167e-07  2.64982053e-06  8.55661188e-01                                 
 3.27065123e-06  9.30854910e-01  3.27065123e-06  8.49845067e-01  3.27065123e-06  8.49111632e-01  3.27065123e-06  1.80000000e+00  3.27065123e-06  9.01683550e-07  3.27065123e-06  8.49845067e-01                                 
 3.36267475e-06  9.28491379e-01  3.36267475e-06  8.48536198e-01  3.36267475e-06  8.47971874e-01  3.36267475e-06  1.80000000e+00  3.36267475e-06  6.25908560e-09  3.36267475e-06  8.48536198e-01                                 
 3.54672179e-06  9.22589505e-01  3.54672179e-06  8.45161461e-01  3.54672179e-06  8.44131518e-01  3.54672179e-06  1.80000000e+00  3.54672179e-06 -1.35847163e-08  3.54672179e-06  8.45161461e-01                                 
 3.59273355e-06  9.20505726e-01  3.59273355e-06  8.43947883e-01  3.59273355e-06  8.42908367e-01  3.59273355e-06  1.80000000e+00  3.59273355e-06 -2.13238468e-08  3.59273355e-06  8.43947883e-01                                 
 3.68475707e-06  9.15368594e-01  3.68475707e-06  8.40902573e-01  3.68475707e-06  8.39594314e-01  3.68475707e-06  1.80000000e+00  3.68475707e-06 -5.63828760e-08  3.68475707e-06  8.40902573e-01                                 
 3.82282750e-06  8.94792763e-01  3.82282750e-06  8.27941008e-01  3.82282750e-06  8.24983426e-01  3.82282750e-06  1.80000000e+00  3.82282750e-06 -3.12930970e-07  3.82282750e-06  8.27941008e-01                                 
 3.84261863e-06  8.88726620e-01  3.84261863e-06  8.23863197e-01  3.84261863e-06  8.20465606e-01  3.84261863e-06  1.80000000e+00  3.84261863e-06 -4.41480499e-07  3.84261863e-06  8.23863197e-01                                 
 3.88220090e-06  8.71958502e-01  3.88220090e-06  8.11923946e-01  3.88220090e-06  8.07530414e-01  3.88220090e-06  1.80000000e+00  3.88220090e-06 -8.51553619e-07  3.88220090e-06  8.11923946e-01                                 
 3.93243142e-06  8.42991727e-01  3.93243142e-06  7.88743229e-01  3.93243142e-06  7.84450689e-01  3.93243142e-06  1.80000000e+00  3.93243142e-06 -1.04351578e-06  3.93243142e-06  7.88743229e-01                                 
 3.94048433e-06  8.38657747e-01  3.94048433e-06  7.85006508e-01  3.94048433e-06  7.81026235e-01  3.94048433e-06  1.80000000e+00  3.94048433e-06 -9.07568988e-07  3.94048433e-06  7.85006508e-01                                 
 3.95659014e-06  8.31412569e-01  3.95659014e-06  7.78600433e-01  3.95659014e-06  7.75439441e-01  3.95659014e-06  1.80000000e+00  3.95659014e-06 -6.04973584e-07  3.95659014e-06  7.78600433e-01                                 
 3.98880177e-06  8.26125191e-01  3.98880177e-06  7.73813546e-01  3.98880177e-06  7.72304785e-01  3.98880177e-06  1.80000000e+00  3.98880177e-06  1.17984180e-07  3.98880177e-06  7.73813546e-01                                 
 4.05322503e-06  8.30817228e-01  4.05322503e-06  7.78040963e-01  4.05322503e-06  7.78091063e-01  4.05322503e-06  1.80000000e+00  4.05322503e-06  2.45292181e-07  4.05322503e-06  7.78040963e-01                                 
 4.11198396e-06  8.31693730e-01  4.11198396e-06  7.78838353e-01  4.11198396e-06  7.78848874e-01  4.11198396e-06  1.80000000e+00  4.11198396e-06 -1.03490346e-07  4.11198396e-06  7.78838353e-01                                 
 4.21200452e-06  8.28471952e-01  4.21200452e-06  7.75937945e-01  4.21200452e-06  7.75950640e-01  4.21200452e-06  1.80000000e+00  4.21200452e-06  7.32282279e-08  4.21200452e-06  7.75937945e-01                                 
 4.40022566e-06  8.31431824e-01  4.40022566e-06  7.78598909e-01  4.40022566e-06  7.78729456e-01  4.40022566e-06  1.80000000e+00  4.40022566e-06  7.09789373e-08  4.40022566e-06  7.78598909e-01                                 
 4.60233467e-06  8.29103930e-01  4.60233467e-06  7.76511134e-01  4.60233467e-06  7.76495120e-01  4.60233467e-06  1.80000000e+00  4.60233467e-06 -2.61565627e-08  4.60233467e-06  7.76511134e-01                                 
 4.93011562e-06  8.30803846e-01  4.93011562e-06  7.78035396e-01  4.93011562e-06  7.78170882e-01  4.93011562e-06  1.80000000e+00  4.93011562e-06  1.31977641e-07  4.93011562e-06  7.78035396e-01                                 
