 time            v(vbep)         time            v(vben)         time            v(vout)         time            v(vphi1)        time            v(vphi2)        time            v(vref)         time            v(voutc)        time            v(voutcc)       yes             currtemp       
 0.00000000e+00  8.13595414e-01  0.00000000e+00  7.60952239e-01  0.00000000e+00  1.68340045e+00  0.00000000e+00  0.00000000e+00  0.00000000e+00  1.80000000e+00  0.00000000e+00  7.64313563e-01  0.00000000e+00  1.68340045e+00  0.00000000e+00  1.68889406e+00  1.00000000e+00  0.00000000e+00 
 1.00000000e-11  8.13618688e-01  1.00000000e-11  7.61021875e-01  1.00000000e-11  1.68420926e+00  1.00000000e-11  1.80000000e-02  1.00000000e-11  1.80024617e+00  1.00000000e-11  7.64835471e-01  1.00000000e-11  1.68386345e+00  1.00000000e-11  1.68890832e+00                                 
 2.00000000e-11  8.13625117e-01  2.00000000e-11  7.61065694e-01  2.00000000e-11  1.68473850e+00  2.00000000e-11  3.60000000e-02  2.00000000e-11  1.80034729e+00  2.00000000e-11  7.65227311e-01  2.00000000e-11  1.68422183e+00  2.00000000e-11  1.68891456e+00                                 
 4.00000000e-11  8.13624956e-01  4.00000000e-11  7.61123090e-01  4.00000000e-11  1.68542047e+00  4.00000000e-11  7.20000000e-02  4.00000000e-11  1.80039134e+00  4.00000000e-11  7.65803976e-01  4.00000000e-11  1.68476797e+00  4.00000000e-11  1.68891817e+00                                 
 8.00000000e-11  8.13613284e-01  8.00000000e-11  7.61157542e-01  8.00000000e-11  1.68568352e+00  8.00000000e-11  1.44000000e-01  8.00000000e-11  1.80019477e+00  8.00000000e-11  7.66256484e-01  8.00000000e-11  1.68525627e+00  8.00000000e-11  1.68890813e+00                                 
 1.60000000e-10  8.13609944e-01  1.60000000e-10  7.61160241e-01  1.60000000e-10  1.68540758e+00  1.60000000e-10  2.88000000e-01  1.60000000e-10  1.80000853e+00  1.60000000e-10  7.66312264e-01  1.60000000e-10  1.68539210e+00  1.60000000e-10  1.68889666e+00                                 
 3.20000000e-10  8.13607133e-01  3.20000000e-10  7.61160958e-01  3.20000000e-10  1.68508875e+00  3.20000000e-10  5.76000000e-01  3.20000000e-10  1.80001193e+00  3.20000000e-10  7.66249294e-01  3.20000000e-10  1.68527343e+00  3.20000000e-10  1.68889427e+00                                 
 6.40000000e-10  8.13533028e-01  6.40000000e-10  7.60912224e-01  6.40000000e-10  1.68013910e+00  6.40000000e-10  1.15200000e+00  6.40000000e-10  1.81330976e+00  6.40000000e-10  7.65378697e-01  6.40000000e-10  1.69022255e+00  6.40000000e-10  1.68892334e+00                                 
 9.97349599e-10  8.14020909e-01  9.97349599e-10  7.60982517e-01  9.97349599e-10  1.65106183e+00  9.97349599e-10  1.79522928e+00  9.97349599e-10  7.94862400e-02  9.97349599e-10  7.68657442e-01  9.97349599e-10  1.68175917e+00  9.97349599e-10  1.68882447e+00                                 
 1.00000000e-09  8.14030112e-01  1.00000000e-09  7.60993249e-01  1.00000000e-09  1.65086190e+00  1.00000000e-09  1.80000000e+00  1.00000000e-09  5.99215870e-02  1.00000000e-09  7.68850424e-01  1.00000000e-09  1.68165083e+00  1.00000000e-09  1.68882727e+00                                 
 1.00530080e-09  8.14014962e-01  1.00530080e-09  7.60985965e-01  1.00530080e-09  1.65063598e+00  1.00530080e-09  1.80000000e+00  1.00530080e-09  3.81755409e-02  1.00530080e-09  7.69256587e-01  1.00530080e-09  1.68170936e+00  1.00530080e-09  1.68884051e+00                                 
 1.01590240e-09  8.13994475e-01  1.01590240e-09  7.61010341e-01  1.01590240e-09  1.65069412e+00  1.01590240e-09  1.80000000e+00  1.01590240e-09  1.10975779e-02  1.01590240e-09  7.70306165e-01  1.01590240e-09  1.68226830e+00  1.01590240e-09  1.68887735e+00                                 
 1.03710561e-09  8.13999662e-01  1.03710561e-09  7.61098842e-01  1.03710561e-09  1.65152479e+00  1.03710561e-09  1.80000000e+00  1.03710561e-09  7.35911433e-04  1.03710561e-09  7.72272367e-01  1.03710561e-09  1.68388079e+00  1.03710561e-09  1.68892682e+00                                 
 1.07951202e-09  8.14077724e-01  1.07951202e-09  7.61117071e-01  1.07951202e-09  1.65148993e+00  1.07951202e-09  1.80000000e+00  1.07951202e-09  1.16300238e-03  1.07951202e-09  7.73576651e-01  1.07951202e-09  1.68506180e+00  1.07951202e-09  1.68890998e+00                                 
 1.16432484e-09  8.14214593e-01  1.16432484e-09  7.61024959e-01  1.16432484e-09  1.64915324e+00  1.16432484e-09  1.80000000e+00  1.16432484e-09  2.81931181e-04  1.16432484e-09  7.73987042e-01  1.16432484e-09  1.68540222e+00  1.16432484e-09  1.68889271e+00                                 
 1.33395048e-09  8.14367149e-01  1.33395048e-09  7.60974691e-01  1.33395048e-09  1.64488274e+00  1.33395048e-09  1.80000000e+00  1.33395048e-09  4.32939519e-04  1.33395048e-09  7.74657867e-01  1.33395048e-09  1.68596601e+00  1.33395048e-09  1.68890810e+00                                 
 1.58872044e-09  8.14341789e-01  1.58872044e-09  7.60959557e-01  1.58872044e-09  1.64287630e+00  1.58872044e-09  1.80000000e+00  1.58872044e-09 -1.85451979e-04  1.58872044e-09  7.74321775e-01  1.58872044e-09  1.68567241e+00  1.58872044e-09  1.68889958e+00                                 
 1.87091964e-09  8.14161810e-01  1.87091964e-09  7.60948784e-01  1.87091964e-09  1.64421980e+00  1.87091964e-09  1.80000000e+00  1.87091964e-09  1.37958419e-04  1.87091964e-09  7.73655806e-01  1.87091964e-09  1.68511256e+00  1.87091964e-09  1.68891391e+00                                 
 2.15687838e-09  8.13977730e-01  2.15687838e-09  7.60943661e-01  2.15687838e-09  1.64586403e+00  2.15687838e-09  1.80000000e+00  2.15687838e-09 -1.92726153e-04  2.15687838e-09  7.72962632e-01  2.15687838e-09  1.68452053e+00  2.15687838e-09  1.68891518e+00                                 
 2.57512296e-09  8.13766022e-01  2.57512296e-09  7.60934481e-01  2.57512296e-09  1.64819277e+00  2.57512296e-09  1.80000000e+00  2.57512296e-09  1.05165485e-04  2.57512296e-09  7.72017371e-01  2.57512296e-09  1.68372327e+00  2.57512296e-09  1.68893358e+00                                 
 3.39672575e-09  8.13550699e-01  3.39672575e-09  7.60928899e-01  3.39672575e-09  1.65159725e+00  3.39672575e-09  1.80000000e+00  3.39672575e-09 -1.74600405e-04  3.39672575e-09  7.70284272e-01  3.39672575e-09  1.68224912e+00  3.39672575e-09  1.68895001e+00                                 
 5.03993133e-09  8.13466776e-01  5.03993133e-09  7.60929543e-01  5.03993133e-09  1.65550576e+00  5.03993133e-09  1.80000000e+00  5.03993133e-09  1.02357311e-04  5.03993133e-09  7.67615522e-01  5.03993133e-09  1.67998936e+00  5.03993133e-09  1.68896247e+00                                 
 7.48625448e-09  8.13521242e-01  7.48625448e-09  7.60942440e-01  7.48625448e-09  1.65640605e+00  7.48625448e-09  1.80000000e+00  7.48625448e-09 -1.60969068e-04  7.48625448e-09  7.65219972e-01  7.48625448e-09  1.67795348e+00  7.48625448e-09  1.68886968e+00                                 
 9.56106769e-09  8.13537021e-01  9.56106769e-09  7.60947595e-01  9.56106769e-09  1.65517898e+00  9.56106769e-09  1.80000000e+00  9.56106769e-09  1.08982844e-04  9.56106769e-09  7.64250138e-01  9.56106769e-09  1.67713382e+00  9.56106769e-09  1.68872175e+00                                 
 1.19511812e-08  8.13535499e-01  1.19511812e-08  7.60951678e-01  1.19511812e-08  1.65392886e+00  1.19511812e-08  1.80000000e+00  1.19511812e-08 -1.42101854e-04  1.19511812e-08  7.63691441e-01  1.19511812e-08  1.67665258e+00  1.19511812e-08  1.68849167e+00                                 
 1.42462870e-08  8.13533839e-01  1.42462870e-08  7.60951472e-01  1.42462870e-08  1.65298230e+00  1.42462870e-08  1.80000000e+00  1.42462870e-08  1.20478686e-04  1.42462870e-08  7.63499846e-01  1.42462870e-08  1.67648793e+00  1.42462870e-08  1.68825629e+00                                 
 1.77690942e-08  8.13559167e-01  1.77690942e-08  7.60952671e-01  1.77690942e-08  1.64970829e+00  1.77690942e-08  1.80000000e+00  1.77690942e-08 -1.30218469e-04  1.77690942e-08  7.63410845e-01  1.77690942e-08  1.67639611e+00  1.77690942e-08  1.68787898e+00                                 
 2.17759347e-08  8.13580490e-01  2.17759347e-08  7.60951762e-01  2.17759347e-08  1.64359915e+00  2.17759347e-08  1.80000000e+00  2.17759347e-08  1.23088346e-04  2.17759347e-08  7.63484122e-01  2.17759347e-08  1.67644581e+00  2.17759347e-08  1.68747538e+00                                 
 2.80636352e-08  8.13597293e-01  2.80636352e-08  7.60952891e-01  2.80636352e-08  1.63150452e+00  2.80636352e-08  1.80000000e+00  2.80636352e-08 -1.26779405e-04  2.80636352e-08  7.63608551e-01  2.80636352e-08  1.67652326e+00  2.80636352e-08  1.68688902e+00                                 
 3.63034483e-08  8.13599034e-01  3.63034483e-08  7.60951947e-01  3.63034483e-08  1.61418694e+00  3.63034483e-08  1.80000000e+00  3.63034483e-08  1.22546544e-04  3.63034483e-08  7.63790230e-01  3.63034483e-08  1.67665467e+00  3.63034483e-08  1.68623355e+00                                 
 5.05245769e-08  8.13598902e-01  5.05245769e-08  7.60952803e-01  5.05245769e-08  1.58307439e+00  5.05245769e-08  1.80000000e+00  5.05245769e-08 -1.26573862e-04  5.05245769e-08  7.63975287e-01  5.05245769e-08  1.67677517e+00  5.05245769e-08  1.68531923e+00                                 
 7.29059027e-08  8.13596121e-01  7.29059027e-08  7.60951793e-01  7.29059027e-08  1.53293330e+00  7.29059027e-08  1.80000000e+00  7.29059027e-08  1.21985865e-04  7.29059027e-08  7.64168520e-01  7.29059027e-08  1.67691208e+00  7.29059027e-08  1.68432266e+00                                 
 1.17668554e-07  8.13596503e-01  1.17668554e-07  7.60952712e-01  1.17668554e-07  1.43157562e+00  1.17668554e-07  1.80000000e+00  1.17668554e-07 -1.26475591e-04  1.17668554e-07  7.64281923e-01  1.17668554e-07  1.67697667e+00  1.17668554e-07  1.68323807e+00                                 
 2.07193858e-07  8.13594629e-01  2.07193858e-07  7.60951768e-01  2.07193858e-07  1.23068672e+00  2.07193858e-07  1.80000000e+00  2.07193858e-07  1.21959441e-04  2.07193858e-07  7.64325758e-01  2.07193858e-07  1.67700118e+00  2.07193858e-07  1.68257370e+00                                 
 3.12924880e-07  8.13596201e-01  3.12924880e-07  7.60952710e-01  3.12924880e-07  9.99268378e-01  3.12924880e-07  1.80000000e+00  3.12924880e-07 -1.25779856e-04  3.12924880e-07  7.64304092e-01  3.12924880e-07  1.67697313e+00  3.12924880e-07  1.68249240e+00                                 
 4.60858643e-07  8.13594656e-01  4.60858643e-07  7.60951767e-01  4.60858643e-07  7.89644122e-01  4.60858643e-07  1.80000000e+00  4.60858643e-07  1.23629295e-04  4.60858643e-07  7.64321568e-01  4.60858643e-07  1.67698526e+00  4.60858643e-07  1.68248829e+00                                 
 5.63000808e-07  8.13596298e-01  5.63000808e-07  7.60952728e-01  5.63000808e-07  7.63088164e-01  5.63000808e-07  1.80000000e+00  5.63000808e-07 -1.23711523e-04  5.63000808e-07  7.64307547e-01  5.63000808e-07  1.67696547e+00  5.63000808e-07  1.68248187e+00                                 
 6.39198339e-07  8.13594133e-01  6.39198339e-07  7.60951715e-01  6.39198339e-07  7.68510903e-01  6.39198339e-07  1.80000000e+00  6.39198339e-07  1.23845118e-04  6.39198339e-07  7.64319831e-01  6.39198339e-07  1.67697648e+00  6.39198339e-07  1.68248224e+00                                 
 7.02200214e-07  8.13596947e-01  7.02200214e-07  7.60952791e-01  7.02200214e-07  7.67530211e-01  7.02200214e-07  1.80000000e+00  7.02200214e-07 -1.23646288e-04  7.02200214e-07  7.64306897e-01  7.02200214e-07  1.67695918e+00  7.02200214e-07  1.68247533e+00                                 
 7.70626438e-07  8.13593765e-01  7.70626438e-07  7.60951671e-01  7.70626438e-07  7.67849598e-01  7.70626438e-07  1.80000000e+00  7.70626438e-07  1.23732296e-04  7.70626438e-07  7.64320406e-01  7.70626438e-07  1.67697156e+00  7.70626438e-07  1.68247662e+00                                 
 8.59307379e-07  8.13597116e-01  8.59307379e-07  7.60952816e-01  8.59307379e-07  7.67619769e-01  8.59307379e-07  1.80000000e+00  8.59307379e-07 -1.23876532e-04  8.59307379e-07  7.64306632e-01  8.59307379e-07  1.67695250e+00  8.59307379e-07  1.68246893e+00                                 
 9.75297421e-07  8.13593688e-01  9.75297421e-07  7.60951657e-01  9.75297421e-07  7.67813431e-01  9.75297421e-07  1.80000000e+00  9.75297421e-07  1.23655837e-04  9.75297421e-07  7.64320555e-01  9.75297421e-07  1.67696328e+00  9.75297421e-07  1.68246819e+00                                 
 1.13986875e-06  8.13597151e-01  1.13986875e-06  7.60952824e-01  1.13986875e-06  7.67649762e-01  1.13986875e-06  1.80000000e+00  1.13986875e-06 -1.23855873e-04  1.13986875e-06  7.64306541e-01  1.13986875e-06  1.67694092e+00  1.13986875e-06  1.68245745e+00                                 
 1.37395081e-06  8.13593672e-01  1.37395081e-06  7.60951652e-01  1.37395081e-06  7.67799578e-01  1.37395081e-06  1.80000000e+00  1.37395081e-06  1.23617459e-04  1.37395081e-06  7.64320613e-01  1.37395081e-06  1.67694697e+00  1.37395081e-06  1.68245187e+00                                 
 1.71733868e-06  8.13597157e-01  1.71733868e-06  7.60952826e-01  1.71733868e-06  7.67660415e-01  1.71733868e-06  1.80000000e+00  1.71733868e-06 -1.23842802e-04  1.71733868e-06  7.64306504e-01  1.71733868e-06  1.67691717e+00  1.71733868e-06  1.68243379e+00                                 
 2.22940013e-06  8.13593670e-01  2.22940013e-06  7.60951651e-01  2.22940013e-06  7.67794396e-01  2.22940013e-06  1.80000000e+00  2.22940013e-06  1.23600311e-04  2.22940013e-06  7.64320636e-01  2.22940013e-06  1.67691184e+00  2.22940013e-06  1.68241679e+00                                 
 3.08372543e-06  8.13597159e-01  3.08372543e-06  7.60952828e-01  3.08372543e-06  7.67663420e-01  3.08372543e-06  1.80000000e+00  3.08372543e-06 -1.23901335e-04  3.08372543e-06  7.64306491e-01  3.08372543e-06  1.67686099e+00  3.08372543e-06  1.68237776e+00                                 
 4.28372543e-06  8.13593669e-01  4.28372543e-06  7.60951650e-01  4.28372543e-06  7.67792903e-01  4.28372543e-06  1.80000000e+00  4.28372543e-06  1.23588877e-04  4.28372543e-06  7.64320646e-01  4.28372543e-06  1.67682747e+00  4.28372543e-06  1.68233260e+00                                 
 5.48372543e-06  8.13597159e-01  5.48372543e-06  7.60952828e-01  5.48372543e-06  7.67669014e-01  5.48372543e-06  1.80000000e+00  5.48372543e-06 -1.23680157e-04  5.48372543e-06  7.64306481e-01  5.48372543e-06  1.67676249e+00  5.48372543e-06  1.68227947e+00                                 
 6.00100000e-06  8.13593668e-01  6.00100000e-06  7.60951649e-01  6.00100000e-06  7.67794470e-01  6.00100000e-06  1.80000000e+00  6.00100000e-06  1.23548398e-04  6.00100000e-06  7.64320656e-01  6.00100000e-06  1.67675701e+00  6.00100000e-06  1.68226228e+00                                 
 6.00110000e-06  8.13560600e-01  6.00110000e-06  7.60719402e-01  6.00110000e-06  7.65771613e-01  6.00110000e-06  1.62000000e+00  6.00110000e-06 -9.06163206e-05  6.00110000e-06  7.62529930e-01  6.00110000e-06  1.67523607e+00  6.00110000e-06  1.68224705e+00                                 
 6.00130000e-06  8.13591451e-01  6.00130000e-06  7.60765177e-01  6.00130000e-06  7.66377639e-01  6.00130000e-06  1.26000000e+00  6.00130000e-06  3.39092063e-05  6.00130000e-06  7.62746332e-01  6.00130000e-06  1.67542210e+00  6.00130000e-06  1.68226780e+00                                 
 6.00170000e-06  8.13627276e-01  6.00170000e-06  7.60839826e-01  6.00170000e-06  7.72108287e-01  6.00170000e-06  5.40000000e-01  6.00170000e-06  7.08994448e-01  6.00170000e-06  7.62129315e-01  6.00170000e-06  1.65943339e+00  6.00170000e-06  1.68217559e+00                                 
 6.00200000e-06  8.13587078e-01  6.00200000e-06  7.58620823e-01  6.00200000e-06  8.09821957e-01  6.00200000e-06  0.00000000e+00  6.00200000e-06  1.73566411e+00  6.00200000e-06  7.36502219e-01  6.00200000e-06  1.42929570e+00  6.00200000e-06  1.68143183e+00                                 
 6.00204490e-06  8.13596088e-01  6.00204490e-06  7.58486345e-01  6.00204490e-06  8.09577560e-01  6.00204490e-06  0.00000000e+00  6.00204490e-06  1.77614814e+00  6.00204490e-06  7.34945767e-01  6.00204490e-06  1.37314872e+00  6.00204490e-06  1.68174364e+00                                 
 6.00213471e-06  8.13595622e-01  6.00213471e-06  7.58412300e-01  6.00213471e-06  8.04453159e-01  6.00213471e-06  0.00000000e+00  6.00213471e-06  1.80437271e+00  6.00213471e-06  7.34370780e-01  6.00213471e-06  1.27140733e+00  6.00213471e-06  1.68223966e+00                                 
 6.00231433e-06  8.13593900e-01  6.00231433e-06  7.58858832e-01  6.00231433e-06  7.94008004e-01  6.00231433e-06  0.00000000e+00  6.00231433e-06  1.79564176e+00  6.00231433e-06  7.39955291e-01  6.00231433e-06  1.12637707e+00  6.00231433e-06  1.68236422e+00                                 
 6.00257558e-06  8.13595046e-01  6.00257558e-06  7.59370729e-01  6.00257558e-06  7.88390976e-01  6.00257558e-06  0.00000000e+00  6.00257558e-06  1.80221043e+00  6.00257558e-06  7.45279698e-01  6.00257558e-06  9.87004035e-01  6.00257558e-06  1.68249715e+00                                 
 6.00285281e-06  8.13593548e-01  6.00285281e-06  7.59886970e-01  6.00285281e-06  7.82733107e-01  6.00285281e-06  0.00000000e+00  6.00285281e-06  1.79776699e+00  6.00285281e-06  7.49985800e-01  6.00285281e-06  8.81170764e-01  6.00285281e-06  1.68255806e+00                                 
 6.00317800e-06  8.13595349e-01  6.00317800e-06  7.60594790e-01  6.00317800e-06  7.76015918e-01  6.00317800e-06  0.00000000e+00  6.00317800e-06  1.80113800e+00  6.00317800e-06  7.56699698e-01  6.00317800e-06  8.08462770e-01  6.00317800e-06  1.68258784e+00                                 
 6.00362679e-06  8.13593980e-01  6.00362679e-06  7.61235736e-01  6.00362679e-06  7.69422477e-01  6.00362679e-06  0.00000000e+00  6.00362679e-06  1.79893325e+00  6.00362679e-06  7.62473068e-01  6.00362679e-06  7.73872414e-01  6.00362679e-06  1.68239987e+00                                 
 6.00402179e-06  8.13595784e-01  6.00402179e-06  7.61451480e-01  6.00402179e-06  7.68646775e-01  6.00402179e-06  0.00000000e+00  6.00402179e-06  1.80088467e+00  6.00402179e-06  7.64311094e-01  6.00402179e-06  7.69724824e-01  6.00402179e-06  1.68205101e+00                                 
 6.00449562e-06  8.13594381e-01  6.00449562e-06  7.61471090e-01  6.00449562e-06  7.68349766e-01  6.00449562e-06  0.00000000e+00  6.00449562e-06  1.79928027e+00  6.00449562e-06  7.64664433e-01  6.00449562e-06  7.68480103e-01  6.00449562e-06  1.68142269e+00                                 
 6.00505344e-06  8.13596047e-01  6.00505344e-06  7.61439725e-01  6.00505344e-06  7.69096266e-01  6.00505344e-06  0.00000000e+00  6.00505344e-06  1.80062783e+00  6.00505344e-06  7.65050106e-01  6.00505344e-06  7.68921589e-01  6.00505344e-06  1.68056892e+00                                 
 6.00616908e-06  8.13594623e-01  6.00616908e-06  7.61307633e-01  6.00616908e-06  7.70129191e-01  6.00616908e-06  0.00000000e+00  6.00616908e-06  1.79943066e+00  6.00616908e-06  7.65045322e-01  6.00616908e-06  7.69961310e-01  6.00616908e-06  1.67864352e+00                                 
 6.00840036e-06  8.13596162e-01  6.00840036e-06  7.61161206e-01  6.00840036e-06  7.73272562e-01  6.00840036e-06  0.00000000e+00  6.00840036e-06  1.80055949e+00  6.00840036e-06  7.65310679e-01  6.00840036e-06  7.72984210e-01  6.00840036e-06  1.67458587e+00                                 
 6.01286292e-06  8.13594662e-01  6.01286292e-06  7.61007182e-01  6.01286292e-06  7.79344965e-01  6.01286292e-06  0.00000000e+00  6.01286292e-06  1.79946290e+00  6.01286292e-06  7.65110943e-01  6.01286292e-06  7.79099275e-01  6.01286292e-06  1.66638331e+00                                 
 6.02178805e-06  8.13596168e-01  6.02178805e-06  7.60942872e-01  6.02178805e-06  7.92372434e-01  6.02178805e-06  0.00000000e+00  6.02178805e-06  1.80054363e+00  6.02178805e-06  7.65046464e-01  6.02178805e-06  7.92021248e-01  6.02178805e-06  1.65018859e+00                                 
