 time            v(vbep)         time            v(vben)         time            v(vout)         time            v(vphi1)        time            v(vphi2)        time            v(vref)         yes             currtemp       
 0.00000000e+00  7.40803350e-01  0.00000000e+00  6.92304320e-01  0.00000000e+00  6.93067739e-02  0.00000000e+00  0.00000000e+00  0.00000000e+00  1.79997310e+00  0.00000000e+00  5.00000000e-01  1.00000000e+00 -8.00000000e+00 
 5.00000000e-12  7.40786451e-01  5.00000000e-12  6.92290237e-01  5.00000000e-12  6.97426798e-02  5.00000000e-12  1.80000000e-02  5.00000000e-12  1.80005031e+00  5.00000000e-12  5.00000000e-01                                 
 1.00000000e-11  7.40769827e-01  1.00000000e-11  6.92276452e-01  1.00000000e-11  7.01329014e-02  1.00000000e-11  3.60000000e-02  1.00000000e-11  1.80008805e+00  1.00000000e-11  5.00000000e-01                                 
 2.00000000e-11  7.40736722e-01  2.00000000e-11  6.92248961e-01  2.00000000e-11  7.08482874e-02  2.00000000e-11  7.20000000e-02  2.00000000e-11  1.80012218e+00  2.00000000e-11  5.00000000e-01                                 
 4.00000000e-11  7.40670764e-01  4.00000000e-11  6.92194129e-01  4.00000000e-11  7.19755724e-02  4.00000000e-11  1.44000000e-01  4.00000000e-11  1.80010283e+00  4.00000000e-11  5.00000000e-01                                 
 8.00000000e-11  7.40539287e-01  8.00000000e-11  6.92084780e-01  8.00000000e-11  7.35148628e-02  8.00000000e-11  2.88000000e-01  8.00000000e-11  1.80006184e+00  8.00000000e-11  5.00000000e-01                                 
 1.60000000e-10  7.40278211e-01  1.60000000e-10  6.91867375e-01  1.60000000e-10  7.54764370e-02  1.60000000e-10  5.76000000e-01  1.60000000e-10  1.80002430e+00  1.60000000e-10  5.00000000e-01                                 
 3.20000000e-10  7.39763372e-01  3.20000000e-10  6.91437687e-01  3.20000000e-10  1.13593765e-01  3.20000000e-10  1.15200000e+00  3.20000000e-10  1.79990477e+00  3.20000000e-10  5.00000000e-01                                 
 5.00000000e-10  7.39195740e-01  5.00000000e-10  6.90962416e-01  5.00000000e-10  4.94037343e-01  5.00000000e-10  1.80000000e+00  5.00000000e-10  9.77982376e-02  5.00000000e-10  5.00000000e-01                                 
 5.21039938e-10  7.39130264e-01  5.21039938e-10  6.90907481e-01  5.21039938e-10  5.63365516e-01  5.21039938e-10  1.80000000e+00  5.21039938e-10  1.71291373e-02  5.21039938e-10  5.00000000e-01                                 
 5.63119813e-10  7.38999626e-01  5.63119813e-10  6.90797833e-01  5.63119813e-10  6.86875571e-01  5.63119813e-10  1.80000000e+00  5.63119813e-10 -8.21146682e-03  5.63119813e-10  5.00000000e-01                                 
 6.47279564e-10  7.38740264e-01  6.47279564e-10  6.90579897e-01  6.47279564e-10  8.72155048e-01  6.47279564e-10  1.80000000e+00  6.47279564e-10  7.15230137e-03  6.47279564e-10  5.00000000e-01                                 
 7.71135157e-10  7.38363139e-01  7.71135157e-10  6.90262428e-01  7.71135157e-10  1.07663850e+00  7.71135157e-10  1.80000000e+00  7.71135157e-10 -6.31586648e-03  7.71135157e-10  5.00000000e-01                                 
 9.60224862e-10  7.37797579e-01  9.60224862e-10  6.89785056e-01  9.60224862e-10  1.32867665e+00  9.60224862e-10  1.80000000e+00  9.60224862e-10  6.01195360e-03  9.60224862e-10  5.00000000e-01                                 
 1.32790826e-09  7.36731321e-01  1.32790826e-09  6.88880985e-01  1.32790826e-09  1.66674190e+00  1.32790826e-09  1.80000000e+00  1.32790826e-09 -5.72298068e-03  1.32790826e-09  5.00000000e-01                                 
 1.99165257e-09  7.34908856e-01  1.99165257e-09  6.87323778e-01  1.99165257e-09  1.89276646e+00  1.99165257e-09  1.80000000e+00  1.99165257e-09  5.69368847e-03  1.99165257e-09  5.00000000e-01                                 
 2.24395478e-09  7.34248592e-01  2.24395478e-09  6.86755795e-01  2.24395478e-09  1.90824504e+00  2.24395478e-09  1.80000000e+00  2.24395478e-09 -5.35667039e-03  2.24395478e-09  5.00000000e-01                                 
 2.55338873e-09  7.33460866e-01  2.55338873e-09  6.86075667e-01  2.55338873e-09  1.91497670e+00  2.55338873e-09  1.80000000e+00  2.55338873e-09  5.19870956e-03  2.55338873e-09  5.00000000e-01                                 
 2.90087203e-09  7.32603603e-01  2.90087203e-09  6.85332468e-01  2.90087203e-09  1.92075509e+00  2.90087203e-09  1.80000000e+00  2.90087203e-09 -4.97459980e-03  2.90087203e-09  5.00000000e-01                                 
 3.59583864e-09  7.30968014e-01  3.59583864e-09  6.83906137e-01  3.59583864e-09  1.92948457e+00  3.59583864e-09  1.80000000e+00  3.59583864e-09  4.92771998e-03  3.59583864e-09  5.00000000e-01                                 
 4.89388422e-09  7.28157992e-01  4.89388422e-09  6.81431414e-01  4.89388422e-09  1.92971119e+00  4.89388422e-09  1.80000000e+00  4.89388422e-09 -4.85138807e-03  4.89388422e-09  5.00000000e-01                                 
 6.96222145e-09  7.24211906e-01  6.96222145e-09  6.77908386e-01  6.96222145e-09  1.91838136e+00  6.96222145e-09  1.80000000e+00  6.96222145e-09  4.85726040e-03  6.96222145e-09  5.00000000e-01                                 
 9.09563033e-09  7.20674180e-01  9.09563033e-09  6.74706071e-01  9.09563033e-09  1.90855485e+00  9.09563033e-09  1.80000000e+00  9.09563033e-09 -4.79448079e-03  9.09563033e-09  5.00000000e-01                                 
 1.04786952e-08  7.18607935e-01  1.04786952e-08  6.72818533e-01  1.04786952e-08  1.90307982e+00  1.04786952e-08  1.80000000e+00  1.04786952e-08  4.78032013e-03  1.04786952e-08  5.00000000e-01                                 
 1.24665905e-08  7.15885282e-01  1.24665905e-08  6.70314973e-01  1.24665905e-08  1.89610748e+00  1.24665905e-08  1.80000000e+00  1.24665905e-08 -4.72656954e-03  1.24665905e-08  5.00000000e-01                                 
 1.48323828e-08  7.12965516e-01  1.48323828e-08  6.67610590e-01  1.48323828e-08  1.88857511e+00  1.48323828e-08  1.80000000e+00  1.48323828e-08  4.72385469e-03  1.48323828e-08  5.00000000e-01                                 
 1.86209684e-08  7.08880904e-01  1.86209684e-08  6.63793865e-01  1.86209684e-08  1.87806293e+00  1.86209684e-08  1.80000000e+00  1.86209684e-08 -4.68826337e-03  1.86209684e-08  5.00000000e-01                                 
 2.32222735e-08  7.04748664e-01  2.32222735e-08  6.59883093e-01  2.32222735e-08  1.86725811e+00  2.32222735e-08  1.80000000e+00  2.32222735e-08  4.69570468e-03  2.32222735e-08  5.00000000e-01                                 
 3.12188254e-08  6.99273394e-01  3.12188254e-08  6.54582726e-01  3.12188254e-08  1.85275488e+00  3.12188254e-08  1.80000000e+00  3.12188254e-08 -4.66861625e-03  3.12188254e-08  5.00000000e-01                                 
 4.41129086e-08  6.92862248e-01  4.41129086e-08  6.48236474e-01  4.41129086e-08  1.83428877e+00  4.41129086e-08  1.80000000e+00  4.41129086e-08  4.68422737e-03  4.41129086e-08  5.00000000e-01                                 
 6.99010751e-08  6.83005720e-01  6.99010751e-08  6.38528235e-01  6.99010751e-08  1.80016096e+00  6.99010751e-08  1.80000000e+00  6.99010751e-08 -4.66203838e-03  6.99010751e-08  5.00000000e-01                                 
 9.83735847e-08  6.75121455e-01  9.83735847e-08  6.30767485e-01  9.83735847e-08  1.76661274e+00  9.83735847e-08  1.80000000e+00  9.83735847e-08  4.68011668e-03  9.83735847e-08  5.00000000e-01                                 
 1.48986354e-07  6.65418018e-01  1.48986354e-07  6.21119927e-01  1.48986354e-07  1.71086113e+00  1.48986354e-07  1.80000000e+00  1.48986354e-07 -4.65886848e-03  1.48986354e-07  5.00000000e-01                                 
 2.07805484e-07  6.53938001e-01  2.07805484e-07  6.10404790e-01  2.07805484e-07  1.64440197e+00  2.07805484e-07  1.80000000e+00  2.07805484e-07  4.67803594e-03  2.07805484e-07  5.00000000e-01                                 
 2.88096563e-07  6.38976074e-01  2.88096563e-07  5.96944203e-01  2.88096563e-07  1.55230589e+00  2.88096563e-07  1.80000000e+00  2.88096563e-07 -4.65720703e-03  2.88096563e-07  5.00000000e-01                                 
 3.82861590e-07  6.23837885e-01  3.82861590e-07  5.83606639e-01  3.82861590e-07  1.44326714e+00  3.82861590e-07  1.80000000e+00  3.82861590e-07  4.67676388e-03  3.82861590e-07  5.00000000e-01                                 
 5.31527578e-07  5.99982265e-01  5.31527578e-07  5.63312509e-01  5.31527578e-07  1.27020640e+00  5.31527578e-07  1.80000000e+00  5.31527578e-07 -4.65624098e-03  5.31527578e-07  5.00000000e-01                                 
 7.97308492e-07  5.56328899e-01  7.97308492e-07  5.27404264e-01  7.97308492e-07  9.51914925e-01  7.97308492e-07  1.80000000e+00  7.97308492e-07  4.67617867e-03  7.97308492e-07  5.00000000e-01                                 
 8.43988697e-07  5.48103135e-01  8.43988697e-07  5.20765702e-01  8.43988697e-07  9.08610821e-01  8.43988697e-07  1.80000000e+00  8.43988697e-07  2.75173124e-07  8.43988697e-07  5.00000000e-01                                 
 9.37349105e-07  5.32561704e-01  9.37349105e-07  5.08239800e-01  9.37349105e-07  8.27619625e-01  9.37349105e-07  1.80000000e+00  9.37349105e-07 -3.32312558e-07  9.37349105e-07  5.00000000e-01                                 
 9.59749387e-07  5.29880133e-01  9.59749387e-07  5.06080390e-01  9.59749387e-07  8.11227272e-01  9.59749387e-07  1.80000000e+00  9.59749387e-07 -1.16831266e-08  9.59749387e-07  5.00000000e-01                                 
 1.00454995e-06  5.26811142e-01  1.00454995e-06  5.03601246e-01  1.00454995e-06  7.82022614e-01  1.00454995e-06  1.80000000e+00  1.00454995e-06  2.51921491e-08  1.00454995e-06  5.00000000e-01                                 
 1.05415293e-06  5.34721837e-01  1.05415293e-06  5.09912170e-01  1.05415293e-06  7.62805822e-01  1.05415293e-06  1.80000000e+00  1.05415293e-06  1.51237256e-07  1.05415293e-06  5.00000000e-01                                 
 1.09964713e-06  5.71794654e-01  1.09964713e-06  5.39545856e-01  1.09964713e-06  7.72431288e-01  1.09964713e-06  1.80000000e+00  1.09964713e-06  5.02967938e-07  1.09964713e-06  5.00000000e-01                                 
 1.15787275e-06  7.60857237e-01  1.15787275e-06  7.09235183e-01  1.15787275e-06  8.97374842e-01  1.15787275e-06  1.80000000e+00  1.15787275e-06  2.36566018e-06  1.15787275e-06  5.00000000e-01                                 
 1.20366020e-06  8.19794992e-01  1.20366020e-06  7.69205393e-01  1.20366020e-06  9.10095234e-01  1.20366020e-06  1.80000000e+00  1.20366020e-06 -6.74626335e-07  1.20366020e-06  5.00000000e-01                                 
 1.25311412e-06  8.59596038e-01  1.25311412e-06  8.04332836e-01  1.25311412e-06  9.00093270e-01  1.25311412e-06  1.80000000e+00  1.25311412e-06  1.51848935e-06  1.25311412e-06  5.00000000e-01                                 
 1.29231171e-06  9.04614509e-01  1.29231171e-06  8.36967171e-01  1.29231171e-06  9.05154634e-01  1.29231171e-06  1.80000000e+00  1.29231171e-06 -3.30645363e-08  1.29231171e-06  5.00000000e-01                                 
 1.33793551e-06  9.25500503e-01  1.33793551e-06  8.49968395e-01  1.33793551e-06  8.82270442e-01  1.33793551e-06  1.80000000e+00  1.33793551e-06  5.07736349e-07  1.33793551e-06  5.00000000e-01                                 
 1.37949096e-06  9.12893133e-01  1.37949096e-06  8.42461809e-01  1.37949096e-06  8.46737088e-01  1.37949096e-06  1.80000000e+00  1.37949096e-06 -5.88292896e-07  1.37949096e-06  5.00000000e-01                                 
 1.40960348e-06  9.16720956e-01  1.40960348e-06  8.44612298e-01  1.40960348e-06  8.25742075e-01  1.40960348e-06  1.80000000e+00  1.40960348e-06  6.09392058e-07  1.40960348e-06  5.00000000e-01                                 
 1.44340259e-06  9.12738544e-01  1.44340259e-06  8.42427712e-01  1.44340259e-06  8.05408121e-01  1.44340259e-06  1.80000000e+00  1.44340259e-06 -5.02679183e-07  1.44340259e-06  5.00000000e-01                                 
 1.48120920e-06  9.09640299e-01  1.48120920e-06  8.40215967e-01  1.48120920e-06  7.78364442e-01  1.48120920e-06  1.80000000e+00  1.48120920e-06  3.94146723e-07  1.48120920e-06  5.00000000e-01                                 
 1.53490799e-06  9.04456522e-01  1.53490799e-06  8.37186398e-01  1.53490799e-06  7.50030629e-01  1.53490799e-06  1.80000000e+00  1.53490799e-06 -3.69642308e-07  1.53490799e-06  5.00000000e-01                                 
 1.62524601e-06  8.79233249e-01  1.62524601e-06  8.19471690e-01  1.62524601e-06  6.85669974e-01  1.62524601e-06  1.80000000e+00  1.62524601e-06  1.04232005e-07  1.62524601e-06  5.00000000e-01                                 
 1.72386074e-06  8.42378687e-01  1.72386074e-06  7.90229347e-01  1.72386074e-06  6.16281480e-01  1.72386074e-06  1.80000000e+00  1.72386074e-06 -4.62801915e-07  1.72386074e-06  5.00000000e-01                                 
 1.82231876e-06  8.27838676e-01  1.82231876e-06  7.76096294e-01  1.82231876e-06  5.66851450e-01  1.82231876e-06  1.80000000e+00  1.82231876e-06  3.27685634e-07  1.82231876e-06  5.00000000e-01                                 
 1.83785159e-06  8.37088380e-01  1.83785159e-06  7.85069182e-01  1.83785159e-06  5.70089908e-01  1.83785159e-06  1.80000000e+00  1.83785159e-06  3.76667514e-07  1.83785159e-06  5.00000000e-01                                 
 1.86891726e-06  8.40873873e-01  1.86891726e-06  7.88515483e-01  1.86891726e-06  5.62760647e-01  1.86891726e-06  1.80000000e+00  1.86891726e-06 -1.26342625e-07  1.86891726e-06  5.00000000e-01                                 
 1.92344415e-06  8.34704580e-01  1.92344415e-06  7.82956727e-01  1.92344415e-06  5.40399425e-01  1.92344415e-06  1.80000000e+00  1.92344415e-06  5.80043277e-08  1.92344415e-06  5.00000000e-01                                 
 1.97731801e-06  8.34918529e-01  1.97731801e-06  7.83186572e-01  1.97731801e-06  5.28840937e-01  1.97731801e-06  1.80000000e+00  1.97731801e-06  9.32374928e-09  1.97731801e-06  5.00000000e-01                                 
 2.05725858e-06  8.36649177e-01  2.05725858e-06  7.84707401e-01  2.05725858e-06  5.18602746e-01  2.05725858e-06  1.80000000e+00  2.05725858e-06  8.45549261e-08  2.05725858e-06  5.00000000e-01                                 
 2.20960948e-06  8.35353302e-01  2.20960948e-06  7.83580667e-01  2.20960948e-06  5.05763219e-01  2.20960948e-06  1.80000000e+00  2.20960948e-06 -3.01014953e-08  2.20960948e-06  5.00000000e-01                                 
 2.23774176e-06  8.35425959e-01  2.23774176e-06  7.83626663e-01  2.23774176e-06  5.04746298e-01  2.23774176e-06  1.80000000e+00  2.23774176e-06  3.29970743e-08  2.23774176e-06  5.00000000e-01                                 
 2.29400633e-06  8.35935504e-01  2.29400633e-06  7.84083539e-01  2.29400633e-06  5.03365077e-01  2.29400633e-06  1.80000000e+00  2.29400633e-06  4.11439116e-08  2.29400633e-06  5.00000000e-01                                 
 2.40653547e-06  8.35855716e-01  2.40653547e-06  7.84014511e-01  2.40653547e-06  5.00519421e-01  2.40653547e-06  1.80000000e+00  2.40653547e-06  2.18201320e-08  2.40653547e-06  5.00000000e-01                                 
 2.63159374e-06  8.35747733e-01  2.63159374e-06  7.83914669e-01  2.63159374e-06  4.97449564e-01  2.63159374e-06  1.80000000e+00  2.63159374e-06  4.06947419e-08  2.63159374e-06  5.00000000e-01                                 
 2.99643920e-06  8.35921427e-01  2.99643920e-06  7.84073466e-01  2.99643920e-06  4.99416109e-01  2.99643920e-06  1.80000000e+00  2.99643920e-06  2.32852493e-08  2.99643920e-06  5.00000000e-01                                 
 3.42196144e-06  8.35716793e-01  3.42196144e-06  7.83886958e-01  3.42196144e-06  5.01493505e-01  3.42196144e-06  1.80000000e+00  3.42196144e-06  3.89835222e-08  3.42196144e-06  5.00000000e-01                                 
 4.05448272e-06  8.35938289e-01  4.05448272e-06  7.84088518e-01  4.05448272e-06  4.98962616e-01  4.05448272e-06  1.80000000e+00  4.05448272e-06  2.45783854e-08  4.05448272e-06  5.00000000e-01                                 
 4.70834324e-06  8.35708035e-01  4.70834324e-06  7.83879168e-01  4.70834324e-06  5.00555078e-01  4.70834324e-06  1.80000000e+00  4.70834324e-06  3.81164981e-08  4.70834324e-06  5.00000000e-01                                 
 5.70834324e-06  8.35943050e-01  5.70834324e-06  7.84092723e-01  5.70834324e-06  5.00161606e-01  5.70834324e-06  1.80000000e+00  5.70834324e-06  2.52139767e-08  5.70834324e-06  5.00000000e-01                                 
 6.70834324e-06  8.35705895e-01  6.70834324e-06  7.83877302e-01  6.70834324e-06  4.99719798e-01  6.70834324e-06  1.80000000e+00  6.70834324e-06  3.76366605e-08  6.70834324e-06  5.00000000e-01                                 
 7.70834324e-06  8.35943904e-01  7.70834324e-06  7.84093431e-01  7.70834324e-06  5.00748447e-01  7.70834324e-06  1.80000000e+00  7.70834324e-06  2.57004325e-08  7.70834324e-06  5.00000000e-01                                 
 8.70834324e-06  8.35706129e-01  8.70834324e-06  7.83877573e-01  8.70834324e-06  4.99417487e-01  8.70834324e-06  1.80000000e+00  8.70834324e-06  3.71312120e-08  8.70834324e-06  5.00000000e-01                                 
 9.70834324e-06  8.35942529e-01  9.70834324e-06  7.84092135e-01  9.70834324e-06  5.00795839e-01  9.70834324e-06  1.80000000e+00  9.70834324e-06  2.62299936e-08  9.70834324e-06  5.00000000e-01                                 
 1.00005000e-05  8.35713435e-01  1.00005000e-05  7.83884276e-01  1.00005000e-05  4.99863634e-01  1.00005000e-05  1.80000000e+00  1.00005000e-05  3.58928558e-08  1.00005000e-05  5.00000000e-01                                 
 1.00005500e-05  8.35713851e-01  1.00005500e-05  7.83884678e-01  1.00005500e-05  4.91838589e-01  1.00005500e-05  1.62000000e+00  1.00005500e-05 -6.68770111e-05  1.00005500e-05  5.00000000e-01                                 
 1.00006500e-05  8.35714703e-01  1.00006500e-05  7.83885487e-01  1.00006500e-05  4.78258172e-01  1.00006500e-05  1.26000000e+00  1.00006500e-05 -4.61434954e-05  1.00006500e-05  5.00000000e-01                                 
 1.00008500e-05  8.35716426e-01  1.00008500e-05  7.83887101e-01  1.00008500e-05  4.78014310e-01  1.00008500e-05  5.40000000e-01  1.00008500e-05 -4.11051779e-04  1.00008500e-05  5.00000000e-01                                 
 1.00010000e-05  8.35717571e-01  1.00010000e-05  7.83888208e-01  1.00010000e-05  4.42489898e-01  1.00010000e-05  0.00000000e+00  1.00010000e-05  1.54787448e+00  1.00010000e-05  5.00000000e-01                                 
 1.00010143e-05  8.35717619e-01  1.00010143e-05  7.83888280e-01  1.00010143e-05  4.24179678e-01  1.00010143e-05  0.00000000e+00  1.00010143e-05  1.67612729e+00  1.00010143e-05  5.00000000e-01                                 
 1.00010430e-05  8.35717723e-01  1.00010430e-05  7.83888420e-01  1.00010430e-05  3.79285358e-01  1.00010430e-05  0.00000000e+00  1.00010430e-05  1.79961310e+00  1.00010430e-05  5.00000000e-01                                 
 1.00011003e-05  8.35718139e-01  1.00011003e-05  7.83888772e-01  1.00011003e-05  2.95914138e-01  1.00011003e-05  0.00000000e+00  1.00011003e-05  1.79725042e+00  1.00011003e-05  5.00000000e-01                                 
 1.00011730e-05  8.35718891e-01  1.00011730e-05  7.83889376e-01  1.00011730e-05  2.47306110e-01  1.00011730e-05  0.00000000e+00  1.00011730e-05  1.79802200e+00  1.00011730e-05  5.00000000e-01                                 
 1.00012742e-05  8.35719923e-01  1.00012742e-05  7.83890307e-01  1.00012742e-05  2.32418714e-01  1.00012742e-05  0.00000000e+00  1.00012742e-05  1.80039589e+00  1.00012742e-05  5.00000000e-01                                 
 1.00014344e-05  8.35721435e-01  1.00014344e-05  7.83891706e-01  1.00014344e-05  2.34389044e-01  1.00014344e-05  0.00000000e+00  1.00014344e-05  1.79906382e+00  1.00014344e-05  5.00000000e-01                                 
