 time            v(vbep)         time            v(vben)         time            v(vout)         time            v(vphi1)        time            v(vphi2)        time            v(vref)         yes             currtemp       
 0.00000000e+00  5.25529856e-01  0.00000000e+00  4.57847474e-01  0.00000000e+00  3.32080330e-01  0.00000000e+00  0.00000000e+00  0.00000000e+00  1.79997299e+00  0.00000000e+00  4.57847474e-01  1.00000000e+00  9.90000000e+01 
 5.00000000e-12  5.25513847e-01  5.00000000e-12  4.57834177e-01  5.00000000e-12  3.32627292e-01  5.00000000e-12  1.80000000e-02  5.00000000e-12  1.80008412e+00  5.00000000e-12  4.57834177e-01                                 
 1.00000000e-11  5.25498015e-01  1.00000000e-11  4.57821141e-01  1.00000000e-11  3.33076650e-01  1.00000000e-11  3.60000000e-02  1.00000000e-11  1.80014488e+00  1.00000000e-11  4.57821141e-01                                 
 2.00000000e-11  5.25466439e-01  2.00000000e-11  4.57795135e-01  2.00000000e-11  3.33825425e-01  2.00000000e-11  7.20000000e-02  2.00000000e-11  1.80020434e+00  2.00000000e-11  4.57795135e-01                                 
 4.00000000e-11  5.25403450e-01  4.00000000e-11  4.57743245e-01  4.00000000e-11  3.34716354e-01  4.00000000e-11  1.44000000e-01  4.00000000e-11  1.80016761e+00  4.00000000e-11  4.57743245e-01                                 
 8.00000000e-11  5.25277805e-01  8.00000000e-11  4.57639700e-01  8.00000000e-11  3.35456267e-01  8.00000000e-11  2.88000000e-01  8.00000000e-11  1.80007915e+00  8.00000000e-11  4.57639700e-01                                 
 1.60000000e-10  5.25027870e-01  1.60000000e-10  4.57433537e-01  1.60000000e-10  3.36013617e-01  1.60000000e-10  5.76000000e-01  1.60000000e-10  1.80003503e+00  1.60000000e-10  4.57433537e-01                                 
 3.20000000e-10  5.24533195e-01  3.20000000e-10  4.57024793e-01  3.20000000e-10  3.35399445e-01  3.20000000e-10  1.15200000e+00  3.20000000e-10  1.80036058e+00  3.20000000e-10  4.57024793e-01                                 
 5.00000000e-10  5.23984692e-01  5.00000000e-10  4.56570470e-01  5.00000000e-10  5.52945657e-01  5.00000000e-10  1.80000000e+00  5.00000000e-10  2.02867792e-01  5.00000000e-10  4.56570470e-01                                 
 5.23080187e-10  5.23915035e-01  5.23080187e-10  4.56512683e-01  5.23080187e-10  6.07246268e-01  5.23080187e-10  1.80000000e+00  5.23080187e-10  5.20731236e-02  5.23080187e-10  4.56512683e-01                                 
 5.69240562e-10  5.23775996e-01  5.69240562e-10  4.56397297e-01  5.69240562e-10  7.08142168e-01  5.69240562e-10  1.80000000e+00  5.69240562e-10 -1.83061904e-02  5.69240562e-10  4.56397297e-01                                 
 6.61561311e-10  5.23499566e-01  6.61561311e-10  4.56167674e-01  6.61561311e-10  8.70701175e-01  6.61561311e-10  1.80000000e+00  6.61561311e-10  1.59139325e-02  6.61561311e-10  4.56167674e-01                                 
 7.79943823e-10  5.23148235e-01  7.79943823e-10  4.55875415e-01  7.79943823e-10  1.03369031e+00  7.79943823e-10  1.80000000e+00  7.79943823e-10 -1.12194697e-02  7.79943823e-10  4.55875415e-01                                 
 9.70028111e-10  5.22591220e-01  9.70028111e-10  4.55411107e-01  9.70028111e-10  1.24421599e+00  9.70028111e-10  1.80000000e+00  9.70028111e-10  1.14568734e-02  9.70028111e-10  4.55411107e-01                                 
 1.33065556e-09  5.21557513e-01  1.33065556e-09  4.54546415e-01  1.33065556e-09  1.52339564e+00  1.33065556e-09  1.80000000e+00  1.33065556e-09 -9.50982679e-03  1.33065556e-09  4.54546415e-01                                 
 1.89722443e-09  5.19990981e-01  1.89722443e-09  4.53228646e-01  1.89722443e-09  1.72548408e+00  1.89722443e-09  1.80000000e+00  1.89722443e-09  9.75448065e-03  1.89722443e-09  4.53228646e-01                                 
 2.19049793e-09  5.19206389e-01  2.19049793e-09  4.52565286e-01  2.19049793e-09  1.75972292e+00  2.19049793e-09  1.80000000e+00  2.19049793e-09 -8.69851612e-03  2.19049793e-09  4.52565286e-01                                 
 2.54846601e-09  5.18271394e-01  2.54846601e-09  4.51771938e-01  2.54846601e-09  1.77812368e+00  2.54846601e-09  1.80000000e+00  2.54846601e-09  8.30893038e-03  2.54846601e-09  4.51771938e-01                                 
 2.93820557e-09  5.17280420e-01  2.93820557e-09  4.50927781e-01  2.93820557e-09  1.78511222e+00  2.93820557e-09  1.80000000e+00  2.93820557e-09 -7.69094197e-03  2.93820557e-09  4.50927781e-01                                 
 3.63979586e-09  5.15562452e-01  3.63979586e-09  4.49456532e-01  3.63979586e-09  1.78801824e+00  3.63979586e-09  1.80000000e+00  3.63979586e-09  7.52484566e-03  3.63979586e-09  4.49456532e-01                                 
 4.40880518e-09  5.13769324e-01  4.40880518e-09  4.47910525e-01  4.40880518e-09  1.78627699e+00  4.40880518e-09  1.80000000e+00  4.40880518e-09 -7.21208064e-03  4.40880518e-09  4.47910525e-01                                 
 5.93525265e-09  5.10449970e-01  5.93525265e-09  4.45022674e-01  5.93525265e-09  1.78305257e+00  5.93525265e-09  1.80000000e+00  5.93525265e-09  7.18545531e-03  5.93525265e-09  4.45022674e-01                                 
 7.91690925e-09  5.06546949e-01  7.91690925e-09  4.41585738e-01  7.91690925e-09  1.77846059e+00  7.91690925e-09  1.80000000e+00  7.91690925e-09 -7.01636945e-03  7.91690925e-09  4.41585738e-01                                 
 9.65737980e-09  5.03436555e-01  9.65737980e-09  4.38816310e-01  9.65737980e-09  1.77491570e+00  9.65737980e-09  1.80000000e+00  9.65737980e-09  6.99306782e-03  9.65737980e-09  4.38816310e-01                                 
 1.11311748e-08  5.00998437e-01  1.11311748e-08  4.36627835e-01  1.11311748e-08  1.77154641e+00  1.11311748e-08  1.80000000e+00  1.11311748e-08 -6.81235533e-03  1.11311748e-08  4.36627835e-01                                 
 1.26060544e-08  4.98714442e-01  1.26060544e-08  4.34564448e-01  1.26060544e-08  1.76879512e+00  1.26060544e-08  1.80000000e+00  1.26060544e-08  6.76627581e-03  1.26060544e-08  4.34564448e-01                                 
 1.41624083e-08  4.96454287e-01  1.41624083e-08  4.32510454e-01  1.41624083e-08  1.76540010e+00  1.41624083e-08  1.80000000e+00  1.41624083e-08 -6.60039624e-03  1.41624083e-08  4.32510454e-01                                 
 1.56885398e-08  4.94372124e-01  1.56885398e-08  4.30607779e-01  1.56885398e-08  1.76265101e+00  1.56885398e-08  1.80000000e+00  1.56885398e-08  6.55806671e-03  1.56885398e-08  4.30607779e-01                                 
 1.78665637e-08  4.91603552e-01  1.78665637e-08  4.28062858e-01  1.78665637e-08  1.75815587e+00  1.78665637e-08  1.80000000e+00  1.78665637e-08 -6.42613291e-03  1.78665637e-08  4.28062858e-01                                 
 2.04255807e-08  4.88619695e-01  2.04255807e-08  4.25300903e-01  2.04255807e-08  1.75357021e+00  2.04255807e-08  1.80000000e+00  2.04255807e-08  6.42589286e-03  2.04255807e-08  4.25300903e-01                                 
 2.42607209e-08  4.84604678e-01  2.42607209e-08  4.21553712e-01  2.42607209e-08  1.74630689e+00  2.42607209e-08  1.80000000e+00  2.42607209e-08 -6.32614877e-03  2.42607209e-08  4.21553712e-01                                 
 2.92963987e-08  4.80006099e-01  2.92963987e-08  4.17219003e-01  2.92963987e-08  1.73780697e+00  2.92963987e-08  1.80000000e+00  2.92963987e-08  6.35616405e-03  2.92963987e-08  4.17219003e-01                                 
 3.85524206e-08  4.72962640e-01  3.85524206e-08  4.10501693e-01  3.85524206e-08  1.72231033e+00  3.85524206e-08  1.80000000e+00  3.85524206e-08 -6.27927549e-03  3.85524206e-08  4.10501693e-01                                 
 5.64647315e-08  4.62498131e-01  5.64647315e-08  4.00386433e-01  5.64647315e-08  1.69534712e+00  5.64647315e-08  1.80000000e+00  5.64647315e-08  6.33212759e-03  5.64647315e-08  4.00386433e-01                                 
 9.22893534e-08  4.46822174e-01  9.22893534e-08  3.85250255e-01  9.22893534e-08  1.64455685e+00  9.22893534e-08  1.80000000e+00  9.22893534e-08 -6.26619996e-03  9.22893534e-08  3.85250255e-01                                 
 1.25918657e-07  4.33516393e-01  1.25918657e-07  3.72864987e-01  1.25918657e-07  1.59809032e+00  1.25918657e-07  1.80000000e+00  1.25918657e-07  6.32371026e-03  1.25918657e-07  3.72864987e-01                                 
 1.93177263e-07  4.10274336e-01  1.93177263e-07  3.51769075e-01  1.93177263e-07  1.50587855e+00  1.93177263e-07  1.80000000e+00  1.93177263e-07 -6.25936776e-03  1.93177263e-07  3.51769075e-01                                 
 2.56653080e-07  3.91248247e-01  2.56653080e-07  3.34949229e-01  2.56653080e-07  1.42086671e+00  2.56653080e-07  1.80000000e+00  2.56653080e-07  6.31937669e-03  2.56653080e-07  3.34949229e-01                                 
 3.83604713e-07  3.50140520e-01  3.83604713e-07  3.00097718e-01  3.83604713e-07  1.24602751e+00  3.83604713e-07  1.80000000e+00  3.83604713e-07 -6.25595282e-03  3.83604713e-07  3.00097718e-01                                 
 5.07562390e-07  3.17479585e-01  5.07562390e-07  2.73065410e-01  5.07562390e-07  1.09180820e+00  5.07562390e-07  1.80000000e+00  5.07562390e-07  6.31743951e-03  5.07562390e-07  2.73065410e-01                                 
 5.38551809e-07  3.36562464e-01  5.38551809e-07  2.88235005e-01  5.38551809e-07  1.08179534e+00  5.38551809e-07  1.80000000e+00  5.38551809e-07  2.07160401e-05  5.38551809e-07  2.88235005e-01                                 
 6.00530648e-07  5.66507105e-01  6.00530648e-07  4.94619403e-01  6.00530648e-07  1.23882604e+00  6.00530648e-07  1.80000000e+00  6.00530648e-07  3.18854631e-05  6.00530648e-07  4.94619403e-01                                 
 6.62045550e-07  6.61274332e-01  6.62045550e-07  5.87627085e-01  6.62045550e-07  1.26585759e+00  6.62045550e-07  1.80000000e+00  6.62045550e-07  1.26999058e-05  6.62045550e-07  5.87627085e-01                                 
 7.35497765e-07  6.94887570e-01  7.35497765e-07  6.15807325e-01  7.35497765e-07  1.21743806e+00  7.35497765e-07  1.80000000e+00  7.35497765e-07  2.60421556e-05  7.35497765e-07  6.15807325e-01                                 
 7.47438549e-07  6.95626811e-01  7.47438549e-07  6.16417353e-01  7.47438549e-07  1.20667254e+00  7.47438549e-07  1.80000000e+00  7.47438549e-07  1.84916785e-05  7.47438549e-07  6.16417353e-01                                 
 7.71320117e-07  6.95939475e-01  7.71320117e-07  6.16673159e-01  7.71320117e-07  1.18207335e+00  7.71320117e-07  1.80000000e+00  7.71320117e-07  1.80754522e-05  7.71320117e-07  6.16673159e-01                                 
 8.19083255e-07  6.91427759e-01  8.19083255e-07  6.13067660e-01  8.19083255e-07  1.12931359e+00  8.19083255e-07  1.80000000e+00  8.19083255e-07  1.79948181e-05  8.19083255e-07  6.13067660e-01                                 
 8.75049459e-07  6.65931821e-01  8.75049459e-07  5.91745429e-01  8.75049459e-07  1.05434057e+00  8.75049459e-07  1.80000000e+00  8.75049459e-07  1.64021517e-05  8.75049459e-07  5.91745429e-01                                 
 9.38242934e-07  6.64389920e-01  9.38242934e-07  5.90319790e-01  9.38242934e-07  1.00290845e+00  9.38242934e-07  1.80000000e+00  9.38242934e-07  2.03425926e-05  9.38242934e-07  5.90319790e-01                                 
 1.00145219e-06  6.88856250e-01  1.00145219e-06  6.10976551e-01  1.00145219e-06  9.80680653e-01  1.00145219e-06  1.80000000e+00  1.00145219e-06  1.85961921e-05  1.00145219e-06  6.10976551e-01                                 
 1.01221250e-06  6.87374494e-01  1.01221250e-06  6.09780740e-01  1.01221250e-06  9.71923416e-01  1.01221250e-06  1.80000000e+00  1.01221250e-06  1.81741388e-05  1.01221250e-06  6.09780740e-01                                 
 1.03373312e-06  6.81885227e-01  1.03373312e-06  6.05275765e-01  1.03373312e-06  9.52480058e-01  1.03373312e-06  1.80000000e+00  1.03373312e-06  1.76163864e-05  1.03373312e-06  6.05275765e-01                                 
 1.07677436e-06  6.70000730e-01  1.07677436e-06  5.95227083e-01  1.07677436e-06  9.13864494e-01  1.07677436e-06  1.80000000e+00  1.07677436e-06  1.81026739e-05  1.07677436e-06  5.95227083e-01                                 
 1.14314260e-06  6.74238954e-01  1.14314260e-06  5.98825625e-01  1.14314260e-06  8.76142525e-01  1.14314260e-06  1.80000000e+00  1.14314260e-06  1.93464751e-05  1.14314260e-06  5.98825625e-01                                 
 1.22824778e-06  6.81782598e-01  1.22824778e-06  6.05175704e-01  1.22824778e-06  8.31227098e-01  1.22824778e-06  1.80000000e+00  1.22824778e-06  1.82676863e-05  1.22824778e-06  6.05175704e-01                                 
 1.32229207e-06  6.72515334e-01  1.32229207e-06  5.97378036e-01  1.32229207e-06  7.67535450e-01  1.32229207e-06  1.80000000e+00  1.32229207e-06  1.84850698e-05  1.32229207e-06  5.97378036e-01                                 
 1.44401577e-06  6.77268509e-01  1.44401577e-06  6.01390230e-01  1.44401577e-06  7.03857889e-01  1.44401577e-06  1.80000000e+00  1.44401577e-06  1.90090939e-05  1.44401577e-06  6.01390230e-01                                 
 1.56965832e-06  6.78136407e-01  1.56965832e-06  6.02137241e-01  1.56965832e-06  6.46362664e-01  1.56965832e-06  1.80000000e+00  1.56965832e-06  1.84717232e-05  1.56965832e-06  6.02137241e-01                                 
 1.76694332e-06  6.73898652e-01  1.76694332e-06  5.98543435e-01  1.76694332e-06  5.93900219e-01  1.76694332e-06  1.80000000e+00  1.76694332e-06  1.91091682e-05  1.76694332e-06  5.98543435e-01                                 
 1.79469865e-06  6.76063968e-01  1.79469865e-06  6.00380401e-01  1.79469865e-06  5.93248565e-01  1.79469865e-06  1.80000000e+00  1.79469865e-06  1.90923492e-05  1.79469865e-06  6.00380401e-01                                 
 1.85020932e-06  6.77957336e-01  1.85020932e-06  6.01978814e-01  1.85020932e-06  5.90732620e-01  1.85020932e-06  1.80000000e+00  1.85020932e-06  1.89048086e-05  1.85020932e-06  6.01978814e-01                                 
 1.93601111e-06  6.75869398e-01  1.93601111e-06  6.00221870e-01  1.93601111e-06  5.95789087e-01  1.93601111e-06  1.80000000e+00  1.93601111e-06  1.89636579e-05  1.93601111e-06  6.00221870e-01                                 
 2.02557394e-06  6.76051938e-01  2.02557394e-06  6.00371854e-01  2.02557394e-06  6.02385941e-01  2.02557394e-06  1.80000000e+00  2.02557394e-06  1.90081270e-05  2.02557394e-06  6.00371854e-01                                 
 2.15498246e-06  6.77299644e-01  2.15498246e-06  6.01426873e-01  2.15498246e-06  6.00651946e-01  2.15498246e-06  1.80000000e+00  2.15498246e-06  1.89218645e-05  2.15498246e-06  6.01426873e-01                                 
 2.28732162e-06  6.75697155e-01  2.28732162e-06  6.00074273e-01  2.28732162e-06  6.00554205e-01  2.28732162e-06  1.80000000e+00  2.28732162e-06  1.89355926e-05  2.28732162e-06  6.00074273e-01                                 
 2.45431831e-06  6.77026208e-01  2.45431831e-06  6.01194829e-01  2.45431831e-06  6.01345827e-01  2.45431831e-06  1.80000000e+00  2.45431831e-06  1.90027358e-05  2.45431831e-06  6.01194829e-01                                 
 2.76021792e-06  6.76124492e-01  2.76021792e-06  6.00436376e-01  2.76021792e-06  6.00690736e-01  2.76021792e-06  1.80000000e+00  2.76021792e-06  1.88886507e-05  2.76021792e-06  6.00436376e-01                                 
 3.24931122e-06  6.76732596e-01  3.24931122e-06  6.00947075e-01  3.24931122e-06  6.01158129e-01  3.24931122e-06  1.80000000e+00  3.24931122e-06  1.90209289e-05  3.24931122e-06  6.00947075e-01                                 
 4.11910217e-06  6.76308876e-01  4.11910217e-06  6.00592118e-01  4.11910217e-06  6.00825484e-01  4.11910217e-06  1.80000000e+00  4.11910217e-06  1.88812106e-05  4.11910217e-06  6.00592118e-01                                 
 5.11910217e-06  6.76610714e-01  5.11910217e-06  6.00844261e-01  5.11910217e-06  6.01064692e-01  5.11910217e-06  1.80000000e+00  5.11910217e-06  1.90242477e-05  5.11910217e-06  6.00844261e-01                                 
 6.11910217e-06  6.76420758e-01  6.11910217e-06  6.00686545e-01  6.11910217e-06  6.00914567e-01  6.11910217e-06  1.80000000e+00  6.11910217e-06  1.88792191e-05  6.11910217e-06  6.00686545e-01                                 
 7.11910217e-06  6.76502360e-01  7.11910217e-06  6.00752877e-01  7.11910217e-06  6.00976714e-01  7.11910217e-06  1.80000000e+00  7.11910217e-06  1.90252386e-05  7.11910217e-06  6.00752877e-01                                 
 8.11910217e-06  6.76525650e-01  8.11910217e-06  6.00775007e-01  8.11910217e-06  6.01001286e-01  8.11910217e-06  1.80000000e+00  8.11910217e-06  1.88791994e-05  8.11910217e-06  6.00775007e-01                                 
 9.11910217e-06  6.76401971e-01  9.11910217e-06  6.00668223e-01  9.11910217e-06  6.00892231e-01  9.11910217e-06  1.80000000e+00  9.11910217e-06  1.90243211e-05  9.11910217e-06  6.00668223e-01                                 
 1.00005000e-05  6.76626762e-01  1.00005000e-05  6.00860213e-01  1.00005000e-05  6.01087436e-01  1.00005000e-05  1.80000000e+00  1.00005000e-05  1.88811933e-05  1.00005000e-05  6.00860213e-01                                 
 1.00005500e-05  6.76625564e-01  1.00005500e-05  6.00859212e-01  1.00005500e-05  5.94416583e-01  1.00005500e-05  1.62000000e+00  1.00005500e-05 -1.17655905e-04  1.00005500e-05  6.00859212e-01                                 
 1.00006500e-05  6.76623207e-01  1.00006500e-05  6.00857221e-01  1.00006500e-05  5.82648992e-01  1.00006500e-05  1.26000000e+00  1.00006500e-05 -9.99743257e-05  1.00006500e-05  6.00857221e-01                                 
 1.00008500e-05  6.76618528e-01  1.00008500e-05  6.00853257e-01  1.00008500e-05  5.73349958e-01  1.00008500e-05  5.40000000e-01  1.00008500e-05  7.82641118e-02  1.00008500e-05  6.00853257e-01                                 
 1.00010000e-05  6.76614989e-01  1.00010000e-05  6.00850274e-01  1.00010000e-05  5.55219093e-01  1.00010000e-05  0.00000000e+00  1.00010000e-05  1.57048380e+00  1.00010000e-05  6.00850274e-01                                 
 1.00010246e-05  6.76614396e-01  1.00010246e-05  6.00849776e-01  1.00010246e-05  5.43342417e-01  1.00010246e-05  0.00000000e+00  1.00010246e-05  1.71093036e+00  1.00010246e-05  6.00849776e-01                                 
 1.00010739e-05  6.76613227e-01  1.00010739e-05  6.00848787e-01  1.00010739e-05  5.23390515e-01  1.00010739e-05  0.00000000e+00  1.00010739e-05  1.81739378e+00  1.00010739e-05  6.00848787e-01                                 
 1.00011725e-05  6.76610930e-01  1.00011725e-05  6.00846836e-01  1.00011725e-05  5.09838156e-01  1.00011725e-05  0.00000000e+00  1.00011725e-05  1.79011530e+00  1.00011725e-05  6.00846836e-01                                 
 1.00013161e-05  6.76607560e-01  1.00013161e-05  6.00843994e-01  1.00013161e-05  5.12047264e-01  1.00013161e-05  0.00000000e+00  1.00013161e-05  1.80651095e+00  1.00013161e-05  6.00843994e-01                                 
 1.00014718e-05  6.76603881e-01  1.00014718e-05  6.00840893e-01  1.00014718e-05  5.11267125e-01  1.00014718e-05  0.00000000e+00  1.00014718e-05  1.79552321e+00  1.00014718e-05  6.00840893e-01                                 
 1.00017831e-05  6.76596496e-01  1.00017831e-05  6.00834664e-01  1.00017831e-05  5.11750990e-01  1.00017831e-05  0.00000000e+00  1.00017831e-05  1.80370049e+00  1.00017831e-05  6.00834664e-01                                 
 1.00024058e-05  6.76581731e-01  1.00024058e-05  6.00822209e-01  1.00024058e-05  5.11376747e-01  1.00024058e-05  0.00000000e+00  1.00024058e-05  1.79661990e+00  1.00024058e-05  6.00822209e-01                                 
 1.00036512e-05  6.76552633e-01  1.00036512e-05  6.00797650e-01  1.00036512e-05  5.11873272e-01  1.00036512e-05  0.00000000e+00  1.00036512e-05  1.80321710e+00  1.00036512e-05  6.00797650e-01                                 
