 time            v(vbep)         time            v(vben)         time            v(vout)         time            v(vphi1)        time            v(vphi2)        time            v(vref)         yes             currtemp       
 0.00000000e+00  7.76457382e-01  0.00000000e+00  7.31453060e-01  0.00000000e+00  9.73119907e-02  0.00000000e+00  0.00000000e+00  0.00000000e+00  1.79996515e+00  0.00000000e+00  7.31453060e-01  1.00000000e+00 -2.70000000e+01 
 5.00000000e-12  7.76440392e-01  5.00000000e-12  7.31438899e-01  5.00000000e-12  9.77409672e-02  5.00000000e-12  1.80000000e-02  5.00000000e-12  1.80005851e+00  5.00000000e-12  7.31438899e-01                                 
 1.00000000e-11  7.76423695e-01  1.00000000e-11  7.31425040e-01  1.00000000e-11  9.80874731e-02  1.00000000e-11  3.60000000e-02  1.00000000e-11  1.80011091e+00  1.00000000e-11  7.31425040e-01                                 
 2.00000000e-11  7.76390452e-01  2.00000000e-11  7.31397397e-01  2.00000000e-11  9.86622959e-02  2.00000000e-11  7.20000000e-02  2.00000000e-11  1.80016679e+00  2.00000000e-11  7.31397397e-01                                 
 4.00000000e-11  7.76324211e-01  4.00000000e-11  7.31342244e-01  4.00000000e-11  9.93718211e-02  4.00000000e-11  1.44000000e-01  4.00000000e-11  1.80015826e+00  4.00000000e-11  7.31342244e-01                                 
 8.00000000e-11  7.76192118e-01  8.00000000e-11  7.31232215e-01  8.00000000e-11  1.00175324e-01  8.00000000e-11  2.88000000e-01  8.00000000e-11  1.80011261e+00  8.00000000e-11  7.31232215e-01                                 
 1.60000000e-10  7.75929837e-01  1.60000000e-10  7.31013459e-01  1.60000000e-10  1.01390587e-01  1.60000000e-10  5.76000000e-01  1.60000000e-10  1.80008370e+00  1.60000000e-10  7.31013459e-01                                 
 3.20000000e-10  7.75413141e-01  3.20000000e-10  7.30581482e-01  3.20000000e-10  1.16418239e-01  3.20000000e-10  1.15200000e+00  3.20000000e-10  1.80009082e+00  3.20000000e-10  7.30581482e-01                                 
 5.00000000e-10  7.74844419e-01  5.00000000e-10  7.30104390e-01  5.00000000e-10  3.89638070e-01  5.00000000e-10  1.80000000e+00  5.00000000e-10  1.21792680e-01  5.00000000e-10  7.30104390e-01                                 
 5.20470353e-10  7.74780664e-01  5.20470353e-10  7.30050792e-01  5.20470353e-10  4.47096332e-01  5.20470353e-10  1.80000000e+00  5.20470353e-10  2.42892044e-02  5.20470353e-10  7.30050792e-01                                 
 5.61411058e-10  7.74653478e-01  5.61411058e-10  7.29943824e-01  5.61411058e-10  5.52006325e-01  5.61411058e-10  1.80000000e+00  5.61411058e-10 -1.04399455e-02  5.61411058e-10  7.29943824e-01                                 
 6.43292469e-10  7.74401072e-01  6.43292469e-10  7.29731296e-01  6.43292469e-10  7.14261443e-01  6.43292469e-10  1.80000000e+00  6.43292469e-10  9.52563755e-03  6.43292469e-10  7.29731296e-01                                 
 7.60413256e-10  7.74044481e-01  7.60413256e-10  7.29430488e-01  7.60413256e-10  8.79674762e-01  7.60413256e-10  1.80000000e+00  7.60413256e-10 -7.65691944e-03  7.60413256e-10  7.29430488e-01                                 
 9.41314862e-10  7.73503597e-01  9.41314862e-10  7.28972996e-01  9.41314862e-10  1.06626982e+00  9.41314862e-10  1.80000000e+00  9.41314862e-10  7.85621718e-03  9.41314862e-10  7.28972996e-01                                 
 1.19703785e-09  7.72758609e-01  1.19703785e-09  7.28340486e-01  1.19703785e-09  1.27535673e+00  1.19703785e-09  1.80000000e+00  1.19703785e-09 -6.70860165e-03  1.19703785e-09  7.28340486e-01                                 
 1.63802233e-09  7.71524111e-01  1.63802233e-09  7.27286465e-01  1.63802233e-09  1.50752325e+00  1.63802233e-09  1.80000000e+00  1.63802233e-09  6.97096334e-03  1.63802233e-09  7.27286465e-01                                 
 2.25057833e-09  7.69905171e-01  2.25057833e-09  7.25893324e-01  2.25057833e-09  1.63776081e+00  2.25057833e-09  1.80000000e+00  2.25057833e-09 -6.57601244e-03  2.25057833e-09  7.25893324e-01                                 
 2.59541152e-09  7.69038900e-01  2.59541152e-09  7.25142802e-01  2.59541152e-09  1.66157990e+00  2.59541152e-09  1.80000000e+00  2.59541152e-09  6.39989688e-03  2.59541152e-09  7.25142802e-01                                 
 3.01966211e-09  7.68013004e-01  3.01966211e-09  7.24249678e-01  3.01966211e-09  1.69297705e+00  3.01966211e-09  1.80000000e+00  3.01966211e-09 -6.06449955e-03  3.01966211e-09  7.24249678e-01                                 
 3.46296381e-09  7.66984495e-01  3.46296381e-09  7.23349711e-01  3.46296381e-09  1.71128127e+00  3.46296381e-09  1.80000000e+00  3.46296381e-09  5.93535574e-03  3.46296381e-09  7.23349711e-01                                 
 4.34956722e-09  7.65044834e-01  4.34956722e-09  7.21640870e-01  4.34956722e-09  1.72586094e+00  4.34956722e-09  1.80000000e+00  4.34956722e-09 -5.78846097e-03  4.34956722e-09  7.21640870e-01                                 
 5.59371163e-09  7.62550103e-01  5.59371163e-09  7.19421921e-01  5.59371163e-09  1.72810992e+00  5.59371163e-09  1.80000000e+00  5.59371163e-09  5.74837159e-03  5.59371163e-09  7.19421921e-01                                 
 6.97045484e-09  7.60047886e-01  6.97045484e-09  7.17174013e-01  6.97045484e-09  1.72543428e+00  6.97045484e-09  1.80000000e+00  6.97045484e-09 -5.66233530e-03  6.97045484e-09  7.17174013e-01                                 
 9.25170545e-09  7.56361824e-01  9.25170545e-09  7.13828019e-01  9.25170545e-09  1.72133853e+00  9.25170545e-09  1.80000000e+00  9.25170545e-09  5.64703725e-03  9.25170545e-09  7.13828019e-01                                 
 1.37269313e-08  7.50301180e-01  1.37269313e-08  7.08256139e-01  1.37269313e-08  1.71385700e+00  1.37269313e-08  1.80000000e+00  1.37269313e-08 -5.60595365e-03  1.37269313e-08  7.08256139e-01                                 
 2.22336804e-08  7.41433413e-01  2.22336804e-08  6.99989138e-01  2.22336804e-08  1.69885447e+00  2.22336804e-08  1.80000000e+00  2.22336804e-08  5.61899826e-03  2.22336804e-08  6.99989138e-01                                 
 2.37479345e-08  7.40137216e-01  2.37479345e-08  6.98769431e-01  2.37479345e-08  1.69548920e+00  2.37479345e-08  1.80000000e+00  2.37479345e-08 -5.54296823e-03  2.37479345e-08  6.98769431e-01                                 
 2.54789706e-08  7.38736123e-01  2.54789706e-08  6.97447421e-01  2.54789706e-08  1.69217393e+00  2.54789706e-08  1.80000000e+00  2.54789706e-08  5.51479515e-03  2.54789706e-08  6.97447421e-01                                 
 2.76640723e-08  7.37089388e-01  2.76640723e-08  6.95887050e-01  2.76640723e-08  1.68769585e+00  2.76640723e-08  1.80000000e+00  2.76640723e-08 -5.45705367e-03  2.76640723e-08  6.95887050e-01                                 
 3.20342755e-08  7.34231271e-01  3.20342755e-08  6.93146344e-01  3.20342755e-08  1.67985560e+00  3.20342755e-08  1.80000000e+00  3.20342755e-08  5.45822141e-03  3.20342755e-08  6.93146344e-01                                 
 4.07498984e-08  7.30858296e-01  4.07498984e-08  6.89638773e-01  4.07498984e-08  1.66921153e+00  4.07498984e-08  1.80000000e+00  4.07498984e-08 -5.42768782e-03  4.07498984e-08  6.89638773e-01                                 
 5.44620863e-08  7.30136003e-01  5.44620863e-08  6.87998036e-01  5.44620863e-08  1.67780459e+00  5.44620863e-08  1.80000000e+00  5.44620863e-08  5.44517760e-03  5.44620863e-08  6.87998036e-01                                 
 6.71485315e-08  7.27505805e-01  6.71485315e-08  6.85122348e-01  6.71485315e-08  1.66183809e+00  6.71485315e-08  1.80000000e+00  6.71485315e-08 -5.41783652e-03  6.71485315e-08  6.85122348e-01                                 
 7.98342903e-08  7.22461370e-01  7.98342903e-08  6.80442218e-01  7.98342903e-08  1.64470696e+00  7.98342903e-08  1.80000000e+00  7.98342903e-08  5.43210406e-03  7.98342903e-08  6.80442218e-01                                 
 9.57743685e-08  7.17949567e-01  9.57743685e-08  6.76109911e-01  9.57743685e-08  1.62477188e+00  9.57743685e-08  1.80000000e+00  9.57743685e-08 -5.40612758e-03  9.57743685e-08  6.76109911e-01                                 
 1.11858593e-07  7.14332603e-01  1.11858593e-07  6.72576932e-01  1.11858593e-07  1.60698514e+00  1.11858593e-07  1.80000000e+00  1.11858593e-07  5.42220746e-03  1.11858593e-07  6.72576932e-01                                 
 1.40705365e-07  7.07881731e-01  1.40705365e-07  6.66444245e-01  1.40705365e-07  1.57335128e+00  1.40705365e-07  1.80000000e+00  1.40705365e-07 -5.39838823e-03  1.40705365e-07  6.66444245e-01                                 
 1.90353524e-07  6.97694645e-01  1.90353524e-07  6.56971969e-01  1.90353524e-07  1.51787449e+00  1.90353524e-07  1.80000000e+00  1.90353524e-07  5.41787556e-03  1.90353524e-07  6.56971969e-01                                 
 2.48199931e-07  6.88123623e-01  2.48199931e-07  6.48138200e-01  2.48199931e-07  1.45317158e+00  2.48199931e-07  1.80000000e+00  2.48199931e-07 -5.39523854e-03  2.48199931e-07  6.48138200e-01                                 
 3.44557408e-07  6.75019001e-01  3.44557408e-07  6.36208493e-01  3.44557408e-07  1.34877638e+00  3.44557408e-07  1.80000000e+00  3.44557408e-07  5.41575398e-03  3.44557408e-07  6.36208493e-01                                 
 5.37272360e-07  6.53706206e-01  5.37272360e-07  6.17304327e-01  5.37272360e-07  1.13663213e+00  5.37272360e-07  1.80000000e+00  5.37272360e-07 -5.39370834e-03  5.37272360e-07  6.17304327e-01                                 
 9.22702266e-07  6.17563679e-01  9.22702266e-07  5.86568096e-01  9.22702266e-07  7.93486807e-01  9.22702266e-07  1.80000000e+00  9.22702266e-07  5.41546839e-03  9.22702266e-07  5.86568096e-01                                 
 1.34934449e-06  5.87280780e-01  1.34934449e-06  5.61544830e-01  1.34934449e-06  5.88468216e-01  1.34934449e-06  1.80000000e+00  1.34934449e-06 -5.39319860e-03  1.34934449e-06  5.61544830e-01                                 
 1.36181784e-06  5.86503476e-01  1.36181784e-06  5.60908988e-01  1.36181784e-06  5.86286815e-01  1.36181784e-06  1.80000000e+00  1.36181784e-06 -1.48800250e-06  1.36181784e-06  5.60908988e-01                                 
 1.38676455e-06  5.84960787e-01  1.38676455e-06  5.59647367e-01  1.38676455e-06  5.81813737e-01  1.38676455e-06  1.80000000e+00  1.38676455e-06  1.34420991e-06  1.38676455e-06  5.59647367e-01                                 
 1.43665796e-06  5.82021214e-01  1.43665796e-06  5.57243756e-01  1.43665796e-06  5.74413875e-01  1.43665796e-06  1.80000000e+00  1.43665796e-06 -1.47032619e-06  1.43665796e-06  5.57243756e-01                                 
 1.53644480e-06  5.76828251e-01  1.53644480e-06  5.52995842e-01  1.53644480e-06  5.63863750e-01  1.53644480e-06  1.80000000e+00  1.53644480e-06  1.36630836e-06  1.53644480e-06  5.52995842e-01                                 
 1.65526395e-06  5.72507196e-01  1.65526395e-06  5.49442479e-01  1.65526395e-06  5.56308960e-01  1.65526395e-06  1.80000000e+00  1.65526395e-06 -1.43026599e-06  1.65526395e-06  5.49442479e-01                                 
 1.81491297e-06  5.74029349e-01  1.81491297e-06  5.50548458e-01  1.81491297e-06  5.55249652e-01  1.81491297e-06  1.80000000e+00  1.81491297e-06  1.45647158e-06  1.81491297e-06  5.50548458e-01                                 
 1.84142095e-06  5.75797146e-01  1.84142095e-06  5.51945827e-01  1.84142095e-06  5.56618502e-01  1.84142095e-06  1.80000000e+00  1.84142095e-06  6.72626061e-08  1.84142095e-06  5.51945827e-01                                 
 1.89443689e-06  5.80967699e-01  1.89443689e-06  5.56049181e-01  1.89443689e-06  5.60892084e-01  1.89443689e-06  1.80000000e+00  1.89443689e-06  1.24462852e-07  1.89443689e-06  5.56049181e-01                                 
 2.00046878e-06  6.19166908e-01  2.00046878e-06  5.86532013e-01  2.00046878e-06  5.94735326e-01  2.00046878e-06  1.80000000e+00  2.00046878e-06  5.60859026e-07  2.00046878e-06  5.86532013e-01                                 
 2.02171718e-06  6.38206371e-01  2.02171718e-06  6.01738795e-01  2.02171718e-06  6.11737378e-01  2.02171718e-06  1.80000000e+00  2.02171718e-06  8.58548633e-07  2.02171718e-06  6.01738795e-01                                 
 2.06421397e-06  7.10538309e-01  2.06421397e-06  6.60296218e-01  2.06421397e-06  6.76400995e-01  2.06421397e-06  1.80000000e+00  2.06421397e-06  2.55247508e-06  2.06421397e-06  6.60296218e-01                                 
 2.07483817e-06  7.44281740e-01  2.07483817e-06  6.89790603e-01  2.07483817e-06  7.06463708e-01  2.07483817e-06  1.80000000e+00  2.07483817e-06  3.53108669e-06  2.07483817e-06  6.89790603e-01                                 
 2.09608656e-06  7.95750636e-01  2.09608656e-06  7.46004818e-01  2.09608656e-06  7.51440919e-01  2.09608656e-06  1.80000000e+00  2.09608656e-06  3.10591993e-06  2.09608656e-06  7.46004818e-01                                 
 2.13858335e-06  8.49421338e-01  2.13858335e-06  8.02708446e-01  2.13858335e-06  7.90998529e-01  2.13858335e-06  1.80000000e+00  2.13858335e-06  5.27478559e-07  2.13858335e-06  8.02708446e-01                                 
 2.18148295e-06  9.01904386e-01  2.18148295e-06  8.47321604e-01  2.18148295e-06  8.24993407e-01  2.18148295e-06  1.80000000e+00  2.18148295e-06  2.72332271e-06  2.18148295e-06  8.47321604e-01                                 
 2.22567415e-06  9.49271153e-01  2.22567415e-06  8.78134055e-01  2.22567415e-06  8.86124580e-01  2.22567415e-06  1.80000000e+00  2.22567415e-06  5.34610229e-07  2.22567415e-06  8.78134055e-01                                 
 2.25640624e-06  9.51288614e-01  2.25640624e-06  8.79543112e-01  2.25640624e-06  8.76114912e-01  2.25640624e-06  1.80000000e+00  2.25640624e-06 -8.04586193e-07  2.25640624e-06  8.79543112e-01                                 
 2.29075751e-06  9.48053056e-01  2.29075751e-06  8.77506967e-01  2.29075751e-06  8.76076653e-01  2.29075751e-06  1.80000000e+00  2.29075751e-06  6.94646685e-07  2.29075751e-06  8.77506967e-01                                 
 2.33754356e-06  9.50468827e-01  2.33754356e-06  8.79031956e-01  2.33754356e-06  8.80520079e-01  2.33754356e-06  1.80000000e+00  2.33754356e-06 -5.05055105e-07  2.33754356e-06  8.79031956e-01                                 
 2.38374047e-06  9.47183462e-01  2.38374047e-06  8.77055132e-01  2.38374047e-06  8.72725661e-01  2.38374047e-06  1.80000000e+00  2.38374047e-06  2.32029502e-07  2.38374047e-06  8.77055132e-01                                 
 2.44325190e-06  9.48875147e-01  2.44325190e-06  8.78100613e-01  2.44325190e-06  8.80824932e-01  2.44325190e-06  1.80000000e+00  2.44325190e-06 -2.68454518e-08  2.44325190e-06  8.78100613e-01                                 
 2.51067278e-06  9.45873840e-01  2.51067278e-06  8.76328448e-01  2.51067278e-06  8.71244861e-01  2.51067278e-06  1.80000000e+00  2.51067278e-06 -1.81586173e-07  2.51067278e-06  8.76328448e-01                                 
 2.59394377e-06  9.46704822e-01  2.59394377e-06  8.76846703e-01  2.59394377e-06  8.79391511e-01  2.59394377e-06  1.80000000e+00  2.59394377e-06  3.17915055e-07  2.59394377e-06  8.76846703e-01                                 
 2.69788082e-06  9.43606097e-01  2.69788082e-06  8.75026863e-01  2.69788082e-06  8.69866720e-01  2.69788082e-06  1.80000000e+00  2.69788082e-06 -4.50130075e-07  2.69788082e-06  8.75026863e-01                                 
 2.82972391e-06  9.43280134e-01  2.82972391e-06  8.74855181e-01  2.82972391e-06  8.76850874e-01  2.82972391e-06  1.80000000e+00  2.82972391e-06  5.17841954e-07  2.82972391e-06  8.74855181e-01                                 
 2.99903368e-06  9.39143862e-01  2.99903368e-06  8.72395716e-01  2.99903368e-06  8.67338423e-01  2.99903368e-06  1.80000000e+00  2.99903368e-06 -6.03899122e-07  2.99903368e-06  8.72395716e-01                                 
 3.22307233e-06  9.36339649e-01  3.22307233e-06  8.70709103e-01  3.22307233e-06  8.72077887e-01  3.22307233e-06  1.80000000e+00  3.22307233e-06  6.19979031e-07  3.22307233e-06  8.70709103e-01                                 
 3.51286350e-06  9.27261221e-01  3.51286350e-06  8.65033483e-01  3.51286350e-06  8.60097723e-01  3.51286350e-06  1.80000000e+00  3.51286350e-06 -7.02611506e-07  3.51286350e-06  8.65033483e-01                                 
 3.87839178e-06  9.02186219e-01  3.87839178e-06  8.47664322e-01  3.87839178e-06  8.46615467e-01  3.87839178e-06  1.80000000e+00  3.87839178e-06  5.54791876e-07  3.87839178e-06  8.47664322e-01                                 
 3.93898943e-06  8.93039441e-01  3.93898943e-06  8.40679875e-01  3.93898943e-06  8.37600834e-01  3.93898943e-06  1.80000000e+00  3.93898943e-06 -2.11017609e-07  3.93898943e-06  8.40679875e-01                                 
 4.06018472e-06  8.76265196e-01  4.06018472e-06  8.26874050e-01  4.06018472e-06  8.24577353e-01  4.06018472e-06  1.80000000e+00  4.06018472e-06 -1.56418411e-07  4.06018472e-06  8.26874050e-01                                 
 4.26191072e-06  8.62441721e-01  4.26191072e-06  8.14656321e-01  4.26191072e-06  8.14261088e-01  4.26191072e-06  1.80000000e+00  4.26191072e-06 -2.09221193e-08  4.26191072e-06  8.14656321e-01                                 
 4.48437923e-06  8.62751330e-01  4.48437923e-06  8.14930030e-01  4.48437923e-06  8.14887558e-01  4.48437923e-06  1.80000000e+00  4.48437923e-06  4.08534268e-08  4.48437923e-06  8.14930030e-01                                 
 4.74104173e-06  8.62797748e-01  4.74104173e-06  8.14979326e-01  4.74104173e-06  8.15011306e-01  4.74104173e-06  1.80000000e+00  4.74104173e-06 -2.46626183e-08  4.74104173e-06  8.14979326e-01                                 
 5.10493921e-06  8.62658715e-01  5.10493921e-06  8.14846318e-01  5.10493921e-06  8.14803895e-01  5.10493921e-06  1.80000000e+00  5.10493921e-06  3.86298784e-08  5.10493921e-06  8.14846318e-01                                 
 5.83273416e-06  8.62822816e-01  5.83273416e-06  8.15002504e-01  5.83273416e-06  8.15032164e-01  5.83273416e-06  1.80000000e+00  5.83273416e-06 -2.25377896e-08  5.83273416e-06  8.15002504e-01                                 
 6.83273416e-06  8.62653770e-01  6.83273416e-06  8.14842175e-01  6.83273416e-06  8.14800017e-01  6.83273416e-06  1.80000000e+00  6.83273416e-06  3.72790030e-08  6.83273416e-06  8.14842175e-01                                 
 7.83273416e-06  8.62824499e-01  7.83273416e-06  8.15003721e-01  7.83273416e-06  8.15033881e-01  7.83273416e-06  1.80000000e+00  7.83273416e-06 -2.13793474e-08  7.83273416e-06  8.15003721e-01                                 
 8.83273416e-06  8.62651740e-01  8.83273416e-06  8.14840266e-01  8.83273416e-06  8.14798616e-01  8.83273416e-06  1.80000000e+00  8.83273416e-06  3.61113696e-08  8.83273416e-06  8.14840266e-01                                 
 9.83273416e-06  8.62825031e-01  9.83273416e-06  8.15004155e-01  9.83273416e-06  8.15034014e-01  9.83273416e-06  1.80000000e+00  9.83273416e-06 -2.02051659e-08  9.83273416e-06  8.15004155e-01                                 
 1.00005000e-05  8.62654955e-01  1.00005000e-05  8.14843164e-01  1.00005000e-05  8.14803151e-01  1.00005000e-05  1.80000000e+00  1.00005000e-05  3.20875682e-08  1.00005000e-05  8.14843164e-01                                 
 1.00005500e-05  8.62656030e-01  1.00005500e-05  8.14844403e-01  1.00005500e-05  8.08285242e-01  1.00005500e-05  1.62000000e+00  1.00005500e-05 -8.65813148e-05  1.00005500e-05  8.14844403e-01                                 
 1.00006500e-05  8.62658587e-01  1.00006500e-05  8.14846947e-01  1.00006500e-05  8.00159273e-01  1.00006500e-05  1.26000000e+00  1.00006500e-05 -2.75612617e-05  1.00006500e-05  8.14846947e-01                                 
 1.00008500e-05  8.62663433e-01  1.00008500e-05  8.14851643e-01  1.00008500e-05  8.02710382e-01  1.00008500e-05  5.40000000e-01  1.00008500e-05  3.50928714e-05  1.00008500e-05  8.14851643e-01                                 
