 time            v(vbep)         time            v(vben)         time            v(vout)         time            v(vphi1)        time            v(vphi2)        time            v(vref)         yes             currtemp       
 0.00000000e+00  6.91478245e-01  0.00000000e+00  6.37136557e-01  0.00000000e+00  8.93336824e-01  0.00000000e+00  0.00000000e+00  0.00000000e+00  1.79995580e+00  0.00000000e+00  6.37136557e-01  1.00000000e+00  2.40000000e+01 
 5.00000000e-12  6.91452271e-01  5.00000000e-12  6.37115006e-01  5.00000000e-12  8.94041328e-01  5.00000000e-12  1.80000000e-02  5.00000000e-12  1.80007984e+00  5.00000000e-12  6.37115006e-01                                 
 1.00000000e-11  6.91426924e-01  1.00000000e-11  6.37093992e-01  1.00000000e-11  8.94677605e-01  1.00000000e-11  3.60000000e-02  1.00000000e-11  1.80015397e+00  1.00000000e-11  6.37093992e-01                                 
 2.00000000e-11  6.91376606e-01  2.00000000e-11  6.37052118e-01  2.00000000e-11  8.95837668e-01  2.00000000e-11  7.20000000e-02  2.00000000e-11  1.80023746e+00  2.00000000e-11  6.37052118e-01                                 
 4.00000000e-11  6.91276616e-01  4.00000000e-11  6.36968680e-01  4.00000000e-11  8.97651677e-01  4.00000000e-11  1.44000000e-01  4.00000000e-11  1.80022944e+00  4.00000000e-11  6.36968680e-01                                 
 8.00000000e-11  6.91077566e-01  8.00000000e-11  6.36802509e-01  8.00000000e-11  8.99919103e-01  8.00000000e-11  2.88000000e-01  8.00000000e-11  1.80012947e+00  8.00000000e-11  6.36802509e-01                                 
 1.60000000e-10  6.90683467e-01  1.60000000e-10  6.36472972e-01  1.60000000e-10  9.01790018e-01  1.60000000e-10  5.76000000e-01  1.60000000e-10  1.80002878e+00  1.60000000e-10  6.36472972e-01                                 
 3.20000000e-10  6.89910387e-01  3.20000000e-10  6.35824741e-01  3.20000000e-10  8.92982646e-01  3.20000000e-10  1.15200000e+00  3.20000000e-10  1.80024540e+00  3.20000000e-10  6.35824741e-01                                 
 5.00000000e-10  6.89063961e-01  5.00000000e-10  6.35112176e-01  5.00000000e-10  9.96285711e-01  5.00000000e-10  1.80000000e+00  5.00000000e-10  1.43810895e-01  5.00000000e-10  6.35112176e-01                                 
 5.21150168e-10  6.88966247e-01  5.21150168e-10  6.35029710e-01  5.21150168e-10  1.02287527e+00  5.21150168e-10  1.80000000e+00  5.21150168e-10  3.45210932e-02  5.21150168e-10  6.35029710e-01                                 
 5.63450505e-10  6.88771446e-01  5.63450505e-10  6.34865223e-01  5.63450505e-10  1.07567322e+00  5.63450505e-10  1.80000000e+00  5.63450505e-10 -1.32905580e-02  5.63450505e-10  6.34865223e-01                                 
 6.48051178e-10  6.88385636e-01  6.48051178e-10  6.34539002e-01  6.48051178e-10  1.17225727e+00  6.48051178e-10  1.80000000e+00  6.48051178e-10  1.14814992e-02  6.48051178e-10  6.34539002e-01                                 
 7.67791409e-10  6.87848016e-01  7.67791409e-10  6.34083425e-01  7.67791409e-10  1.29620270e+00  7.67791409e-10  1.80000000e+00  7.67791409e-10 -8.74738154e-03  7.67791409e-10  6.34083425e-01                                 
 9.50504431e-10  6.87045967e-01  9.50504431e-10  6.33401645e-01  9.50504431e-10  1.45620601e+00  9.50504431e-10  1.80000000e+00  9.50504431e-10  8.80975704e-03  9.50504431e-10  6.33401645e-01                                 
 1.31593048e-09  6.85503856e-01  1.31593048e-09  6.32083802e-01  1.31593048e-09  1.67018283e+00  1.31593048e-09  1.80000000e+00  1.31593048e-09 -7.65469413e-03  1.31593048e-09  6.32083802e-01                                 
 1.75370621e-09  6.83756785e-01  1.75370621e-09  6.30579783e-01  1.75370621e-09  1.79070178e+00  1.75370621e-09  1.80000000e+00  1.75370621e-09  7.69010649e-03  1.75370621e-09  6.30579783e-01                                 
 2.09802235e-09  6.82452859e-01  2.09802235e-09  6.29449683e-01  2.09802235e-09  1.82531559e+00  2.09802235e-09  1.80000000e+00  2.09802235e-09 -7.10160661e-03  2.09802235e-09  6.29449683e-01                                 
 2.48920607e-09  6.81038950e-01  2.48920607e-09  6.28217223e-01  2.48920607e-09  1.84071383e+00  2.48920607e-09  1.80000000e+00  2.48920607e-09  6.84514068e-03  2.48920607e-09  6.28217223e-01                                 
 2.92939773e-09  6.79526154e-01  2.92939773e-09  6.26890646e-01  2.92939773e-09  1.84517593e+00  2.92939773e-09  1.80000000e+00  2.92939773e-09 -6.49833963e-03  2.92939773e-09  6.26890646e-01                                 
 3.62900101e-09  6.77272624e-01  3.62900101e-09  6.24900029e-01  3.62900101e-09  1.84567425e+00  3.62900101e-09  1.80000000e+00  3.62900101e-09  6.35497709e-03  3.62900101e-09  6.24900029e-01                                 
 4.56488103e-09  6.74508967e-01  4.56488103e-09  6.22435930e-01  4.56488103e-09  1.84284735e+00  4.56488103e-09  1.80000000e+00  4.56488103e-09 -6.19674731e-03  4.56488103e-09  6.22435930e-01                                 
 6.29457595e-09  6.70001993e-01  6.29457595e-09  6.18368204e-01  6.29457595e-09  1.83869500e+00  6.29457595e-09  1.80000000e+00  6.29457595e-09  6.15247184e-03  6.29457595e-09  6.18368204e-01                                 
 9.43277646e-09  6.63263967e-01  9.43277646e-09  6.12184780e-01  9.43277646e-09  1.83171432e+00  9.43277646e-09  1.80000000e+00  9.43277646e-09 -6.08743643e-03  9.43277646e-09  6.12184780e-01                                 
 1.38280359e-08  6.55882541e-01  1.38280359e-08  6.05287631e-01  1.38280359e-08  1.82371183e+00  1.38280359e-08  1.80000000e+00  1.38280359e-08  6.08814327e-03  1.38280359e-08  6.05287631e-01                                 
 1.55978969e-08  6.53394944e-01  1.55978969e-08  6.02936838e-01  1.55978969e-08  1.82066263e+00  1.55978969e-08  1.80000000e+00  1.55978969e-08 -5.99834525e-03  1.55978969e-08  6.02936838e-01                                 
 1.67065412e-08  6.51937606e-01  1.67065412e-08  6.01555181e-01  1.67065412e-08  1.81919455e+00  1.67065412e-08  1.80000000e+00  1.67065412e-08  5.91633544e-03  1.67065412e-08  6.01555181e-01                                 
 1.82869197e-08  6.49974440e-01  1.82869197e-08  5.99689488e-01  1.82869197e-08  1.81659128e+00  1.82869197e-08  1.80000000e+00  1.82869197e-08 -5.82276605e-03  1.82869197e-08  5.99689488e-01                                 
 2.09094110e-08  6.46970573e-01  2.09094110e-08  5.96825966e-01  2.09094110e-08  1.81315222e+00  2.09094110e-08  1.80000000e+00  2.09094110e-08  5.80090352e-03  2.09094110e-08  5.96825966e-01                                 
 2.39602558e-08  6.43805448e-01  2.39602558e-08  5.93799378e-01  2.39602558e-08  1.80874087e+00  2.39602558e-08  1.80000000e+00  2.39602558e-08 -5.74343379e-03  2.39602558e-08  5.93799378e-01                                 
 2.80576470e-08  6.39949714e-01  2.80576470e-08  5.90110255e-01  2.80576470e-08  1.80301106e+00  2.80576470e-08  1.80000000e+00  2.80576470e-08  5.73708820e-03  2.80576470e-08  5.90110255e-01                                 
 3.33752442e-08  6.35212277e-01  3.33752442e-08  5.85622525e-01  3.33752442e-08  1.79371333e+00  3.33752442e-08  1.80000000e+00  3.33752442e-08 -5.69594259e-03  3.33752442e-08  5.85622525e-01                                 
 4.26843853e-08  6.26698837e-01  4.26843853e-08  5.77778073e-01  4.26843853e-08  1.77599252e+00  4.26843853e-08  1.80000000e+00  4.26843853e-08  5.70423487e-03  4.26843853e-08  5.77778073e-01                                 
 5.79263857e-08  6.16323972e-01  5.79263857e-08  5.68105902e-01  5.79263857e-08  1.74395998e+00  5.79263857e-08  1.80000000e+00  5.79263857e-08 -5.67665423e-03  5.79263857e-08  5.68105902e-01                                 
 7.35755140e-08  6.07591242e-01  7.35755140e-08  5.60014449e-01  7.35755140e-08  1.71479086e+00  7.35755140e-08  1.80000000e+00  7.35755140e-08  5.69071760e-03  7.35755140e-08  5.60014449e-01                                 
 1.04873771e-07  5.95909102e-01  1.04873771e-07  5.48954035e-01  1.04873771e-07  1.66357053e+00  1.04873771e-07  1.80000000e+00  1.04873771e-07 -5.66554648e-03  1.04873771e-07  5.48954035e-01                                 
 1.38139961e-07  5.98112867e-01  1.38139961e-07  5.49217275e-01  1.38139961e-07  1.65530617e+00  1.38139961e-07  1.80000000e+00  1.38139961e-07  5.68656606e-03  1.38139961e-07  5.49217275e-01                                 
 1.62212449e-07  5.97669512e-01  1.62212449e-07  5.47974651e-01  1.62212449e-07  1.63439301e+00  1.62212449e-07  1.80000000e+00  1.62212449e-07 -5.65877725e-03  1.62212449e-07  5.47974651e-01                                 
 1.85611192e-07  5.90323126e-01  1.85611192e-07  5.41411644e-01  1.85611192e-07  1.60254304e+00  1.85611192e-07  1.80000000e+00  1.85611192e-07  5.67631412e-03  1.85611192e-07  5.41411644e-01                                 
 2.06751252e-07  5.84559026e-01  2.06751252e-07  5.36247368e-01  2.06751252e-07  1.57315367e+00  2.06751252e-07  1.80000000e+00  2.06751252e-07 -5.64908397e-03  2.06751252e-07  5.36247368e-01                                 
 2.29254977e-07  5.78602463e-01  2.29254977e-07  5.30958888e-01  2.29254977e-07  1.54604722e+00  2.29254977e-07  1.80000000e+00  2.29254977e-07  5.66669708e-03  2.29254977e-07  5.30958888e-01                                 
 2.64231901e-07  5.68675576e-01  2.64231901e-07  5.22328424e-01  2.64231901e-07  1.49982431e+00  2.64231901e-07  1.80000000e+00  2.64231901e-07 -5.64139338e-03  2.64231901e-07  5.22328424e-01                                 
 3.09744096e-07  5.57040498e-01  3.09744096e-07  5.12293689e-01  3.09744096e-07  1.44414943e+00  3.09744096e-07  1.80000000e+00  3.09744096e-07  5.66148392e-03  3.09744096e-07  5.12293689e-01                                 
 3.98063335e-07  5.28705918e-01  3.98063335e-07  4.88720010e-01  3.98063335e-07  1.32552714e+00  3.98063335e-07  1.80000000e+00  3.98063335e-07 -5.63821804e-03  3.98063335e-07  4.88720010e-01                                 
 4.87487693e-07  5.06052485e-01  4.87487693e-07  4.70078440e-01  4.87487693e-07  1.21368049e+00  4.87487693e-07  1.80000000e+00  4.87487693e-07  5.65940932e-03  4.87487693e-07  4.70078440e-01                                 
 5.76522758e-07  4.66816984e-01  5.76522758e-07  4.38525538e-01  5.76522758e-07  1.08106600e+00  5.76522758e-07  1.80000000e+00  5.76522758e-07 -5.63645883e-03  5.76522758e-07  4.38525538e-01                                 
 6.69988475e-07  7.32365002e-01  6.69988475e-07  6.76081239e-01  6.69988475e-07  1.24218453e+00  6.69988475e-07  1.80000000e+00  6.69988475e-07  5.66874936e-03  6.69988475e-07  6.76081239e-01                                 
 6.81735176e-07  7.52764084e-01  6.81735176e-07  6.96395387e-01  6.81735176e-07  1.24981380e+00  6.81735176e-07  1.80000000e+00  6.81735176e-07  6.16699540e-06  6.81735176e-07  6.96395387e-01                                 
 7.05228578e-07  7.76431235e-01  7.05228578e-07  7.18927716e-01  7.05228578e-07  1.24860157e+00  7.05228578e-07  1.80000000e+00  7.05228578e-07 -2.03166943e-06  7.05228578e-07  7.18927716e-01                                 
 7.52215383e-07  7.93507901e-01  7.52215383e-07  7.34245451e-01  7.52215383e-07  1.21620485e+00  7.52215383e-07  1.80000000e+00  7.52215383e-07  3.25086371e-06  7.52215383e-07  7.34245451e-01                                 
 8.15506981e-07  7.98493569e-01  8.15506981e-07  7.38585955e-01  8.15506981e-07  1.15570523e+00  8.15506981e-07  1.80000000e+00  8.15506981e-07 -3.26040780e-06  8.15506981e-07  7.38585955e-01                                 
 8.78124314e-07  8.01540541e-01  8.78124314e-07  7.41165458e-01  8.78124314e-07  1.09309356e+00  8.78124314e-07  1.80000000e+00  8.78124314e-07  3.11017412e-06  8.78124314e-07  7.41165458e-01                                 
 8.88535522e-07  8.01922325e-01  8.88535522e-07  7.41497525e-01  8.88535522e-07  1.08276210e+00  8.88535522e-07  1.80000000e+00  8.88535522e-07 -7.80942927e-08  8.88535522e-07  7.41497525e-01                                 
 9.09357939e-07  8.02630548e-01  9.09357939e-07  7.42097656e-01  9.09357939e-07  1.06180730e+00  9.09357939e-07  1.80000000e+00  9.09357939e-07 -1.06684761e-07  9.09357939e-07  7.42097656e-01                                 
 9.51002773e-07  8.02230763e-01  9.51002773e-07  7.41763774e-01  9.51002773e-07  1.01880206e+00  9.51002773e-07  1.80000000e+00  9.51002773e-07 -2.34538078e-07  9.51002773e-07  7.41763774e-01                                 
 9.91440825e-07  7.84010393e-01  9.91440825e-07  7.25895783e-01  9.91440825e-07  9.64246460e-01  9.91440825e-07  1.80000000e+00  9.91440825e-07 -1.85608802e-06  9.91440825e-07  7.25895783e-01                                 
 1.03407969e-06  7.72035861e-01  1.03407969e-06  7.14856494e-01  1.03407969e-06  9.19247028e-01  1.03407969e-06  1.80000000e+00  1.03407969e-06  6.18988632e-07  1.03407969e-06  7.14856494e-01                                 
 1.07974001e-06  7.91980439e-01  1.07974001e-06  7.32905860e-01  1.07974001e-06  9.03346348e-01  1.07974001e-06  1.80000000e+00  1.07974001e-06  1.25638472e-06  1.07974001e-06  7.32905860e-01                                 
 1.12727357e-06  7.97874219e-01  1.12727357e-06  7.38051487e-01  1.12727357e-06  8.76235152e-01  1.12727357e-06  1.80000000e+00  1.12727357e-06 -6.33464128e-07  1.12727357e-06  7.38051487e-01                                 
 1.18594558e-06  7.87226800e-01  1.18594558e-06  7.28737247e-01  1.18594558e-06  8.30721380e-01  1.18594558e-06  1.80000000e+00  1.18594558e-06  7.40032656e-08  1.18594558e-06  7.28737247e-01                                 
 1.25689738e-06  7.83302100e-01  1.25689738e-06  7.25194175e-01  1.25689738e-06  7.89649719e-01  1.25689738e-06  1.80000000e+00  1.25689738e-06 -1.83744799e-08  1.25689738e-06  7.25194175e-01                                 
 1.33472156e-06  7.94223546e-01  1.33472156e-06  7.34883219e-01  1.33472156e-06  7.69486212e-01  1.33472156e-06  1.80000000e+00  1.33472156e-06  1.00173622e-06  1.33472156e-06  7.34883219e-01                                 
 1.43747603e-06  7.88523029e-01  1.43747603e-06  7.29888305e-01  1.43747603e-06  7.40994773e-01  1.43747603e-06  1.80000000e+00  1.43747603e-06 -6.86033708e-07  1.43747603e-06  7.29888305e-01                                 
 1.54159083e-06  7.86085560e-01  1.54159083e-06  7.27692146e-01  1.54159083e-06  7.25947673e-01  1.54159083e-06  1.80000000e+00  1.54159083e-06  1.20282372e-06  1.54159083e-06  7.27692146e-01                                 
 1.69133525e-06  7.93191521e-01  1.69133525e-06  7.33991228e-01  1.69133525e-06  7.23061542e-01  1.69133525e-06  1.80000000e+00  1.69133525e-06 -3.55883443e-07  1.69133525e-06  7.33991228e-01                                 
 1.86332248e-06  7.85747382e-01  1.86332248e-06  7.27400515e-01  1.86332248e-06  7.25062432e-01  1.86332248e-06  1.80000000e+00  1.86332248e-06  9.15593719e-07  1.86332248e-06  7.27400515e-01                                 
 2.02484828e-06  7.91007583e-01  2.02484828e-06  7.32067413e-01  2.02484828e-06  7.36432224e-01  2.02484828e-06  1.80000000e+00  2.02484828e-06 -6.18006894e-08  2.02484828e-06  7.32067413e-01                                 
 2.20102420e-06  7.89277538e-01  2.20102420e-06  7.30549846e-01  2.20102420e-06  7.27344239e-01  2.20102420e-06  1.80000000e+00  2.20102420e-06  6.89910038e-07  2.20102420e-06  7.30549846e-01                                 
 2.38072131e-06  7.87958302e-01  2.38072131e-06  7.29368942e-01  2.38072131e-06  7.30041694e-01  2.38072131e-06  1.80000000e+00  2.38072131e-06 -5.99996984e-09  2.38072131e-06  7.29368942e-01                                 
 2.56854505e-06  7.91436478e-01  2.56854505e-06  7.32452392e-01  2.56854505e-06  7.33095790e-01  2.56854505e-06  1.80000000e+00  2.56854505e-06  7.75052426e-07  2.56854505e-06  7.32452392e-01                                 
 2.60062947e-06  7.89609172e-01  2.60062947e-06  7.30840958e-01  2.60062947e-06  7.30835421e-01  2.60062947e-06  1.80000000e+00  2.60062947e-06  2.29906343e-07  2.60062947e-06  7.30840958e-01                                 
 2.66479832e-06  7.88201781e-01  2.66479832e-06  7.29589327e-01  2.66479832e-06  7.29326031e-01  2.66479832e-06  1.80000000e+00  2.66479832e-06  3.77462582e-07  2.66479832e-06  7.29589327e-01                                 
 2.79313601e-06  7.90091493e-01  2.79313601e-06  7.31263170e-01  2.79313601e-06  7.31515636e-01  2.79313601e-06  1.80000000e+00  2.79313601e-06  3.80917269e-07  2.79313601e-06  7.31263170e-01                                 
 3.03853486e-06  7.88854188e-01  3.03853486e-06  7.30170994e-01  3.03853486e-06  7.30180853e-01  3.03853486e-06  1.80000000e+00  3.03853486e-06  2.95357811e-07  3.03853486e-06  7.30170994e-01                                 
 3.31813562e-06  7.89487245e-01  3.31813562e-06  7.30728183e-01  3.31813562e-06  7.30865176e-01  3.31813562e-06  1.80000000e+00  3.31813562e-06  4.10869657e-07  3.31813562e-06  7.30728183e-01                                 
 3.87733714e-06  7.89303279e-01  3.87733714e-06  7.30568926e-01  3.87733714e-06  7.30639245e-01  3.87733714e-06  1.80000000e+00  3.87733714e-06  2.84784023e-07  3.87733714e-06  7.30568926e-01                                 
 4.87733714e-06  7.89260949e-01  4.87733714e-06  7.30527797e-01  4.87733714e-06  7.30639944e-01  4.87733714e-06  1.80000000e+00  4.87733714e-06  4.12023703e-07  4.87733714e-06  7.30527797e-01                                 
 5.87733714e-06  7.89455054e-01  5.87733714e-06  7.30703232e-01  5.87733714e-06  7.30788971e-01  5.87733714e-06  1.80000000e+00  5.87733714e-06  2.85757798e-07  5.87733714e-06  7.30703232e-01                                 
 6.87733714e-06  7.89116885e-01  6.87733714e-06  7.30400244e-01  6.87733714e-06  7.30498508e-01  6.87733714e-06  1.80000000e+00  6.87733714e-06  4.09846447e-07  6.87733714e-06  7.30400244e-01                                 
 7.87733714e-06  7.89590370e-01  7.87733714e-06  7.30822867e-01  7.87733714e-06  7.30921020e-01  7.87733714e-06  1.80000000e+00  7.87733714e-06  2.89070230e-07  7.87733714e-06  7.30822867e-01                                 
 8.87733714e-06  7.88989930e-01  8.87733714e-06  7.30287861e-01  8.87733714e-06  7.30375069e-01  8.87733714e-06  1.80000000e+00  8.87733714e-06  4.05469589e-07  8.87733714e-06  7.30287861e-01                                 
 9.87733714e-06  7.89705272e-01  9.87733714e-06  7.30924343e-01  9.87733714e-06  7.31032266e-01  9.87733714e-06  1.80000000e+00  9.87733714e-06  2.94427573e-07  9.87733714e-06  7.30924343e-01                                 
 1.00005000e-05  7.88706602e-01  1.00005000e-05  7.30037617e-01  1.00005000e-05  7.30101949e-01  1.00005000e-05  1.80000000e+00  1.00005000e-05  3.69638925e-07  1.00005000e-05  7.30037617e-01                                 
 1.00005500e-05  7.88707038e-01  1.00005500e-05  7.30038005e-01  1.00005500e-05  7.23090979e-01  1.00005500e-05  1.62000000e+00  1.00005500e-05 -1.13775841e-04  1.00005500e-05  7.30038005e-01                                 
 1.00006500e-05  7.88707949e-01  1.00006500e-05  7.30038811e-01  1.00006500e-05  7.12891566e-01  1.00006500e-05  1.26000000e+00  1.00006500e-05 -6.32554498e-05  1.00006500e-05  7.30038811e-01                                 
 1.00008500e-05  7.88709903e-01  1.00008500e-05  7.30040544e-01  1.00008500e-05  7.10136028e-01  1.00008500e-05  5.40000000e-01  1.00008500e-05 -2.10127168e-03  1.00008500e-05  7.30040544e-01                                 
 1.00010000e-05  7.88711442e-01  1.00010000e-05  7.30041910e-01  1.00010000e-05  7.23485565e-01  1.00010000e-05  0.00000000e+00  1.00010000e-05  1.50412563e+00  1.00010000e-05  7.30041910e-01                                 
 1.00010262e-05  7.88711726e-01  1.00010262e-05  7.30042158e-01  1.00010262e-05  7.32951831e-01  1.00010262e-05  0.00000000e+00  1.00010262e-05  1.68968783e+00  1.00010262e-05  7.30042158e-01                                 
