 time            v(vbep)         time            v(vben)         time            v(vout)         time            v(vphi1)        time            v(vphi2)        time            v(vref)         time            v(voutc)        time            v(voutcc)       yes             currtemp       
 0.00000000e+00  8.52755647e-01  0.00000000e+00  8.05683145e-01  0.00000000e+00  1.75951439e+00  0.00000000e+00  0.00000000e+00  0.00000000e+00  1.80000000e+00  0.00000000e+00  8.09766822e-01  0.00000000e+00  1.75951439e+00  0.00000000e+00  1.76401061e+00  1.00000000e+00 -2.70000000e+01 
 1.00000000e-11  8.52776219e-01  1.00000000e-11  8.05746245e-01  1.00000000e-11  1.76035321e+00  1.00000000e-11  1.80000000e-02  1.00000000e-11  1.80024117e+00  1.00000000e-11  8.10278027e-01  1.00000000e-11  1.75996845e+00  1.00000000e-11  1.76401948e+00                                 
 2.00000000e-11  8.52782106e-01  2.00000000e-11  8.05786322e-01  2.00000000e-11  1.76094215e+00  2.00000000e-11  3.60000000e-02  2.00000000e-11  1.80034480e+00  2.00000000e-11  8.10668215e-01  2.00000000e-11  1.76033021e+00  2.00000000e-11  1.76402311e+00                                 
 4.00000000e-11  8.52782264e-01  4.00000000e-11  8.05839125e-01  4.00000000e-11  1.76176191e+00  4.00000000e-11  7.20000000e-02  4.00000000e-11  1.80039835e+00  4.00000000e-11  8.11251993e-01  4.00000000e-11  1.76090011e+00  4.00000000e-11  1.76402407e+00                                 
 8.00000000e-11  8.52771881e-01  8.00000000e-11  8.05870878e-01  8.00000000e-11  1.76226011e+00  8.00000000e-11  1.44000000e-01  8.00000000e-11  1.80021556e+00  8.00000000e-11  8.11742156e-01  8.00000000e-11  1.76148694e+00  8.00000000e-11  1.76401306e+00                                 
 1.60000000e-10  8.52768541e-01  1.60000000e-10  8.05869935e-01  1.60000000e-10  1.76215398e+00  1.60000000e-10  2.88000000e-01  1.60000000e-10  1.80002412e+00  1.60000000e-10  8.11836665e-01  1.60000000e-10  1.76180948e+00  1.60000000e-10  1.76399828e+00                                 
 3.20000000e-10  8.52766511e-01  3.20000000e-10  8.05866495e-01  3.20000000e-10  1.76189469e+00  3.20000000e-10  5.76000000e-01  3.20000000e-10  1.80002958e+00  3.20000000e-10  8.11811084e-01  3.20000000e-10  1.76192661e+00  3.20000000e-10  1.76399527e+00                                 
 6.40000000e-10  8.52699593e-01  6.40000000e-10  8.05687567e-01  6.40000000e-10  1.75323077e+00  6.40000000e-10  1.15200000e+00  6.40000000e-10  1.81354183e+00  6.40000000e-10  8.11665272e-01  6.40000000e-10  1.76573967e+00  6.40000000e-10  1.76401988e+00                                 
 9.91078539e-10  8.53040895e-01  9.91078539e-10  8.05660101e-01  9.91078539e-10  1.71986122e+00  9.91078539e-10  1.78394137e+00  9.91078539e-10  7.21540498e-02  9.91078539e-10  8.10077244e-01  9.91078539e-10  1.75154322e+00  9.91078539e-10  1.76387557e+00                                 
 1.00000000e-09  8.53066927e-01  1.00000000e-09  8.05727703e-01  1.00000000e-09  1.71948253e+00  1.00000000e-09  1.80000000e+00  1.00000000e-09  2.30915958e-02  1.00000000e-09  8.10970079e-01  1.00000000e-09  1.75164484e+00  1.00000000e-09  1.76390698e+00                                 
 1.01784292e-09  8.53065571e-01  1.01784292e-09  8.05760026e-01  1.01784292e-09  1.71945566e+00  1.01784292e-09  1.80000000e+00  1.01784292e-09  8.13997785e-03  1.01784292e-09  8.12419513e-01  1.01784292e-09  1.75274629e+00  1.01784292e-09  1.76395924e+00                                 
 1.05352877e-09  8.53129525e-01  1.05352877e-09  8.05806159e-01  1.05352877e-09  1.71887442e+00  1.05352877e-09  1.80000000e+00  1.05352877e-09 -1.29172264e-03  1.05352877e-09  8.14186007e-01  1.05352877e-09  1.75422083e+00  1.05352877e-09  1.76400490e+00                                 
 1.12490046e-09  8.53328266e-01  1.12490046e-09  8.05764768e-01  1.12490046e-09  1.71479255e+00  1.12490046e-09  1.80000000e+00  1.12490046e-09  2.04212536e-03  1.12490046e-09  8.14474718e-01  1.12490046e-09  1.75454722e+00  1.12490046e-09  1.76397637e+00                                 
 1.26764384e-09  8.53519318e-01  1.26764384e-09  8.05689661e-01  1.26764384e-09  1.70642616e+00  1.26764384e-09  1.80000000e+00  1.26764384e-09 -9.90168162e-04  1.26764384e-09  8.14808048e-01  1.26764384e-09  1.75476734e+00  1.26764384e-09  1.76398729e+00                                 
 1.48461864e-09  8.53551426e-01  1.48461864e-09  8.05687560e-01  1.48461864e-09  1.70197258e+00  1.48461864e-09  1.80000000e+00  1.48461864e-09  1.08978501e-03  1.48461864e-09  8.15400011e-01  1.48461864e-09  1.75529671e+00  1.48461864e-09  1.76399511e+00                                 
 1.73355267e-09  8.53403760e-01  1.73355267e-09  8.05665075e-01  1.73355267e-09  1.70329362e+00  1.73355267e-09  1.80000000e+00  1.73355267e-09 -9.80337308e-04  1.73355267e-09  8.15133170e-01  1.73355267e-09  1.75503503e+00  1.73355267e-09  1.76399356e+00                                 
 1.97627339e-09  8.53247398e-01  1.97627339e-09  8.05675919e-01  1.97627339e-09  1.70599833e+00  1.97627339e-09  1.80000000e+00  1.97627339e-09  8.19425320e-04  1.97627339e-09  8.15068765e-01  1.97627339e-09  1.75500935e+00  1.97627339e-09  1.76400104e+00                                 
 2.32891443e-09  8.53043355e-01  2.32891443e-09  8.05664943e-01  2.32891443e-09  1.70971662e+00  2.32891443e-09  1.80000000e+00  2.32891443e-09 -8.14580184e-04  2.32891443e-09  8.14608965e-01  2.32891443e-09  1.75459454e+00  2.32891443e-09  1.76399585e+00                                 
 2.96873444e-09  8.52800338e-01  2.96873444e-09  8.05672767e-01  2.96873444e-09  1.71591344e+00  2.96873444e-09  1.80000000e+00  2.96873444e-09  7.22363678e-04  2.96873444e-09  8.14121512e-01  2.96873444e-09  1.75420816e+00  2.96873444e-09  1.76399764e+00                                 
 4.24837446e-09  8.52612398e-01  4.24837446e-09  8.05664387e-01  4.24837446e-09  1.72527724e+00  4.24837446e-09  1.80000000e+00  4.24837446e-09 -7.59429485e-04  4.24837446e-09  8.12943260e-01  4.24837446e-09  1.75319154e+00  4.24837446e-09  1.76397149e+00                                 
 6.80765450e-09  8.52643123e-01  6.80765450e-09  8.05676916e-01  6.80765450e-09  1.73618837e+00  6.80765450e-09  1.80000000e+00  6.80765450e-09  7.06762250e-04  6.80765450e-09  8.11464124e-01  6.80765450e-09  1.75197002e+00  6.80765450e-09  1.76389898e+00                                 
 9.72724941e-09  8.52713160e-01  9.72724941e-09  8.05674466e-01  9.72724941e-09  1.74047614e+00  9.72724941e-09  1.80000000e+00  9.72724941e-09 -7.34263120e-04  9.72724941e-09  8.10324897e-01  9.72724941e-09  1.75098728e+00  9.72724941e-09  1.76376069e+00                                 
 1.25586562e-08  8.52728505e-01  1.25586562e-08  8.05684843e-01  1.25586562e-08  1.74119666e+00  1.25586562e-08  1.80000000e+00  1.25586562e-08  6.99862063e-04  1.25586562e-08  8.09914004e-01  1.25586562e-08  1.75066271e+00  1.25586562e-08  1.76360826e+00                                 
 1.57967042e-08  8.52738438e-01  1.57967042e-08  8.05678473e-01  1.57967042e-08  1.74032474e+00  1.57967042e-08  1.80000000e+00  1.57967042e-08 -7.16200585e-04  1.57967042e-08  8.09527236e-01  1.57967042e-08  1.75030973e+00  1.57967042e-08  1.76340455e+00                                 
 1.97751997e-08  8.52739076e-01  1.97751997e-08  8.05686718e-01  1.97751997e-08  1.73953854e+00  1.97751997e-08  1.80000000e+00  1.97751997e-08  6.95312855e-04  1.97751997e-08  8.09491515e-01  1.97751997e-08  1.75029428e+00  1.97751997e-08  1.76315680e+00                                 
 2.50810895e-08  8.52738798e-01  2.50810895e-08  8.05679431e-01  2.50810895e-08  1.73868151e+00  2.50810895e-08  1.80000000e+00  2.50810895e-08 -6.99841572e-04  2.50810895e-08  8.09353033e-01  2.50810895e-08  1.75014143e+00  2.50810895e-08  1.76281474e+00                                 
 3.21722373e-08  8.52752045e-01  3.21722373e-08  8.05686952e-01  3.21722373e-08  1.73561470e+00  3.21722373e-08  1.80000000e+00  3.21722373e-08  6.94048185e-04  3.21722373e-08  8.09474440e-01  3.21722373e-08  1.75024671e+00  3.21722373e-08  1.76238473e+00                                 
 4.26180738e-08  8.52756369e-01  4.26180738e-08  8.05679523e-01  4.26180738e-08  1.72757935e+00  4.26180738e-08  1.80000000e+00  4.26180738e-08 -6.93590969e-04  4.26180738e-08  8.09428255e-01  4.26180738e-08  1.75015872e+00  4.26180738e-08  1.76177558e+00                                 
 5.98313130e-08  8.52757606e-01  5.98313130e-08  8.05686916e-01  5.98313130e-08  1.71243540e+00  5.98313130e-08  1.80000000e+00  5.98313130e-08  6.91395203e-04  5.98313130e-08  8.09598520e-01  5.98313130e-08  1.75028843e+00  5.98313130e-08  1.76087869e+00                                 
 8.18191077e-08  8.52756059e-01  8.18191077e-08  8.05679489e-01  8.18191077e-08  1.69105458e+00  8.18191077e-08  1.80000000e+00  8.18191077e-08 -6.91792631e-04  8.18191077e-08  8.09566951e-01  8.18191077e-08  1.75020454e+00  8.18191077e-08  1.75987558e+00                                 
 1.25794697e-07  8.52756403e-01  1.25794697e-07  8.05686855e-01  1.25794697e-07  1.64404332e+00  1.25794697e-07  1.80000000e+00  1.25794697e-07  6.89939675e-04  1.25794697e-07  8.09744756e-01  1.25794697e-07  1.75032960e+00  1.25794697e-07  1.75831935e+00                                 
 2.13745876e-07  8.52755361e-01  2.13745876e-07  8.05679456e-01  2.13745876e-07  1.54288153e+00  2.13745876e-07  1.80000000e+00  2.13745876e-07 -6.91271820e-04  2.13745876e-07  8.09706337e-01  2.13745876e-07  1.75022573e+00  2.13745876e-07  1.75641519e+00                                 
 3.89648234e-07  8.52755989e-01  3.89648234e-07  8.05686836e-01  3.89648234e-07  1.34122569e+00  3.89648234e-07  1.80000000e+00  3.89648234e-07  6.89647085e-04  3.89648234e-07  8.09817734e-01  3.89648234e-07  1.75030547e+00  3.89648234e-07  1.75503058e+00                                 
 7.41452949e-07  8.52755306e-01  7.41452949e-07  8.05679454e-01  7.41452949e-07  9.59226481e-01  7.41452949e-07  1.80000000e+00  7.41452949e-07 -6.90879029e-04  7.41452949e-07  8.09716839e-01  7.41452949e-07  1.75017607e+00  7.41452949e-07  1.75473158e+00                                 
 1.01796905e-06  8.52756003e-01  1.01796905e-06  8.05686836e-01  1.01796905e-06  8.13304659e-01  1.01796905e-06  1.80000000e+00  1.01796905e-06  6.90577429e-04  1.01796905e-06  8.09816000e-01  1.01796905e-06  1.75027066e+00  1.01796905e-06  1.75477389e+00                                 
 1.21446234e-06  8.52755282e-01  1.21446234e-06  8.05679458e-01  1.21446234e-06  8.13848717e-01  1.21446234e-06  1.80000000e+00  1.21446234e-06 -6.90131748e-04  1.21446234e-06  8.09718743e-01  1.21446234e-06  1.75015748e+00  1.21446234e-06  1.75475720e+00                                 
 1.31851061e-06  8.52755943e-01  1.31851061e-06  8.05686823e-01  1.31851061e-06  8.14043264e-01  1.31851061e-06  1.80000000e+00  1.31851061e-06  6.91186872e-04  1.31851061e-06  8.09814625e-01  1.31851061e-06  1.75025606e+00  1.31851061e-06  1.75475726e+00                                 
 1.41644948e-06  8.52755433e-01  1.41644948e-06  8.05679482e-01  1.41644948e-06  8.13727474e-01  1.41644948e-06  1.80000000e+00  1.41644948e-06 -6.89757298e-04  1.41644948e-06  8.09718946e-01  1.41644948e-06  1.75014869e+00  1.41644948e-06  1.75474755e+00                                 
 1.58915234e-06  8.52755829e-01  1.58915234e-06  8.05686803e-01  1.58915234e-06  8.14069302e-01  1.58915234e-06  1.80000000e+00  1.58915234e-06  6.89995075e-04  1.58915234e-06  8.09814750e-01  1.58915234e-06  1.75024413e+00  1.58915234e-06  1.75474512e+00                                 
 1.76412637e-06  8.52755493e-01  1.76412637e-06  8.05679492e-01  1.76412637e-06  8.13786437e-01  1.76412637e-06  1.80000000e+00  1.76412637e-06 -6.89544856e-04  1.76412637e-06  8.09718837e-01  1.76412637e-06  1.75013316e+00  1.76412637e-06  1.75473213e+00                                 
 2.02879792e-06  8.52755787e-01  2.02879792e-06  8.05686795e-01  2.02879792e-06  8.14043652e-01  2.02879792e-06  1.80000000e+00  2.02879792e-06  6.89820125e-04  2.02879792e-06  8.09814817e-01  2.02879792e-06  1.75022466e+00  2.02879792e-06  1.75472566e+00                                 
 2.38632047e-06  8.52755518e-01  2.38632047e-06  8.05679498e-01  2.38632047e-06  8.13799109e-01  2.38632047e-06  1.80000000e+00  2.38632047e-06 -6.89424067e-04  2.38632047e-06  8.09718800e-01  2.38632047e-06  1.75010549e+00  2.38632047e-06  1.75470462e+00                                 
 2.87180683e-06  8.52755771e-01  2.87180683e-06  8.05686791e-01  2.87180683e-06  8.14034810e-01  2.87180683e-06  1.80000000e+00  2.87180683e-06  6.89731009e-04  2.87180683e-06  8.09814844e-01  2.87180683e-06  1.75018723e+00  2.87180683e-06  1.75468838e+00                                 
 3.59711685e-06  8.52755530e-01  3.59711685e-06  8.05679501e-01  3.59711685e-06  8.13804725e-01  3.59711685e-06  1.80000000e+00  3.59711685e-06 -6.89361084e-04  3.59711685e-06  8.09718783e-01  3.59711685e-06  1.75005174e+00  3.59711685e-06  1.75465112e+00                                 
 4.60213250e-06  8.52755763e-01  4.60213250e-06  8.05686789e-01  4.60213250e-06  8.14030924e-01  4.60213250e-06  1.80000000e+00  4.60213250e-06  6.89687539e-04  4.60213250e-06  8.09814855e-01  4.60213250e-06  1.75011045e+00  4.60213250e-06  1.75461195e+00                                 
 5.80213250e-06  8.52755533e-01  5.80213250e-06  8.05679501e-01  5.80213250e-06  8.13807517e-01  5.80213250e-06  1.80000000e+00  5.80213250e-06 -6.89327659e-04  5.80213250e-06  8.09718773e-01  5.80213250e-06  1.74995381e+00  5.80213250e-06  1.75455366e+00                                 
 6.00100000e-06  8.52755749e-01  6.00100000e-06  8.05686787e-01  6.00100000e-06  8.14022075e-01  6.00100000e-06  1.80000000e+00  6.00100000e-06  6.89820851e-04  6.00100000e-06  8.09814903e-01  6.00100000e-06  1.75004834e+00  6.00100000e-06  1.75455007e+00                                 
 6.00110000e-06  8.52727179e-01  6.00110000e-06  8.05472220e-01  6.00110000e-06  8.11852699e-01  6.00110000e-06  1.62000000e+00  6.00110000e-06 -4.95282783e-05  6.00110000e-06  8.07842224e-01  6.00110000e-06  1.74837627e+00  6.00110000e-06  1.75453082e+00                                 
 6.00130000e-06  8.52754530e-01  6.00130000e-06  8.05541669e-01  6.00130000e-06  8.12664926e-01  6.00130000e-06  1.26000000e+00  6.00130000e-06  1.32189723e-05  6.00130000e-06  8.08247150e-01  6.00130000e-06  1.74871905e+00  6.00130000e-06  1.75455670e+00                                 
 6.00170000e-06  8.52778720e-01  6.00170000e-06  8.05600463e-01  6.00170000e-06  8.13804873e-01  6.00170000e-06  5.40000000e-01  6.00170000e-06 -1.12474951e-03  6.00170000e-06  8.07728532e-01  6.00170000e-06  1.74393730e+00  6.00170000e-06  1.75451063e+00                                 
 6.00200000e-06  8.52753689e-01  6.00200000e-06  8.03203110e-01  6.00200000e-06  8.65123433e-01  6.00200000e-06  0.00000000e+00  6.00200000e-06  1.57663133e+00  6.00200000e-06  7.75125021e-01  6.00200000e-06  1.53514181e+00  6.00200000e-06  1.75352222e+00                                 
 6.00205165e-06  8.52759569e-01  6.00205165e-06  8.03170933e-01  6.00205165e-06  8.63743386e-01  6.00205165e-06  0.00000000e+00  6.00205165e-06  1.72882882e+00  6.00205165e-06  7.74194644e-01  6.00205165e-06  1.47544920e+00  6.00205165e-06  1.75384116e+00                                 
 6.00215494e-06  8.52754252e-01  6.00215494e-06  8.03473749e-01  6.00215494e-06  8.52763996e-01  6.00215494e-06  0.00000000e+00  6.00215494e-06  1.82128713e+00  6.00215494e-06  7.77664307e-01  6.00215494e-06  1.36610564e+00  6.00215494e-06  1.75441504e+00                                 
 6.00231309e-06  8.52754429e-01  6.00231309e-06  8.04298327e-01  6.00231309e-06  8.37857426e-01  6.00231309e-06  0.00000000e+00  6.00231309e-06  1.78663572e+00  6.00231309e-06  7.88084754e-01  6.00231309e-06  1.24806915e+00  6.00231309e-06  1.75454384e+00                                 
 6.00248675e-06  8.52755561e-01  6.00248675e-06  8.04624245e-01  6.00248675e-06  8.34667148e-01  6.00248675e-06  0.00000000e+00  6.00248675e-06  1.80654072e+00  6.00248675e-06  7.91885086e-01  6.00248675e-06  1.16246573e+00  6.00248675e-06  1.75460211e+00                                 
 6.00275508e-06  8.52753758e-01  6.00275508e-06  8.04988827e-01  6.00275508e-06  8.27659468e-01  6.00275508e-06  0.00000000e+00  6.00275508e-06  1.79483937e+00  6.00275508e-06  7.96003937e-01  6.00275508e-06  1.06880026e+00  6.00275508e-06  1.75466638e+00                                 
 6.00302199e-06  8.52755991e-01  6.00302199e-06  8.05268435e-01  6.00302199e-06  8.26051581e-01  6.00302199e-06  0.00000000e+00  6.00302199e-06  1.80325059e+00  6.00302199e-06  7.99092481e-01  6.00302199e-06  1.00188411e+00  6.00302199e-06  1.75475211e+00                                 
 6.00355580e-06  8.52754006e-01  6.00355580e-06  8.05542795e-01  6.00355580e-06  8.21949761e-01  6.00355580e-06  0.00000000e+00  6.00355580e-06  1.79688726e+00  6.00355580e-06  8.01834736e-01  6.00355580e-06  8.95693524e-01  6.00355580e-06  1.75482467e+00                                 
 6.00409324e-06  8.52756463e-01  6.00409324e-06  8.05924294e-01  6.00409324e-06  8.17810323e-01  6.00409324e-06  0.00000000e+00  6.00409324e-06  1.80229458e+00  6.00409324e-06  8.06584085e-01  6.00409324e-06  8.38494567e-01  6.00409324e-06  1.75482719e+00                                 
 6.00484944e-06  8.52754353e-01  6.00484944e-06  8.06090920e-01  6.00484944e-06  8.14238777e-01  6.00484944e-06  0.00000000e+00  6.00484944e-06  1.79790487e+00  6.00484944e-06  8.09193755e-01  6.00484944e-06  8.14632410e-01  6.00484944e-06  1.75462922e+00                                 
 6.00552378e-06  8.52756708e-01  6.00552378e-06  8.06111200e-01  6.00552378e-06  8.14273746e-01  6.00552378e-06  0.00000000e+00  6.00552378e-06  1.80182675e+00  6.00552378e-06  8.10320140e-01  6.00552378e-06  8.14718938e-01  6.00552378e-06  1.75433472e+00                                 
 6.00632021e-06  8.52754510e-01  6.00632021e-06  8.05986183e-01  6.00632021e-06  8.14392180e-01  6.00632021e-06  0.00000000e+00  6.00632021e-06  1.79837973e+00  6.00632021e-06  8.09858763e-01  6.00632021e-06  8.14091334e-01  6.00632021e-06  1.75386305e+00                                 
 6.00734224e-06  8.52756760e-01  6.00734224e-06  8.05933441e-01  6.00734224e-06  8.14967102e-01  6.00734224e-06  0.00000000e+00  6.00734224e-06  1.80147471e+00  6.00734224e-06  8.10463271e-01  6.00734224e-06  8.15049751e-01  6.00734224e-06  1.75321473e+00                                 
 6.00938631e-06  8.52754553e-01  6.00938631e-06  8.05779539e-01  6.00938631e-06  8.15920063e-01  6.00938631e-06  0.00000000e+00  6.00938631e-06  1.79859482e+00  6.00938631e-06  8.10041734e-01  6.00938631e-06  8.15583772e-01  6.00938631e-06  1.75179519e+00                                 
 6.01347445e-06  8.52756750e-01  6.01347445e-06  8.05735715e-01  6.01347445e-06  8.18433545e-01  6.01347445e-06  0.00000000e+00  6.01347445e-06  1.80137389e+00  6.01347445e-06  8.10564486e-01  6.01347445e-06  8.18446111e-01  6.01347445e-06  1.74890591e+00                                 
 6.02165072e-06  8.52754550e-01  6.02165072e-06  8.05671136e-01  6.02165072e-06  8.23584356e-01  6.02165072e-06  0.00000000e+00  6.02165072e-06  1.79864425e+00  6.02165072e-06  8.10043739e-01  6.02165072e-06  8.23185013e-01  6.02165072e-06  1.74308101e+00                                 
 6.03800327e-06  8.52756746e-01  6.03800327e-06  8.05695642e-01  6.03800327e-06  8.34324084e-01  6.03800327e-06  0.00000000e+00  6.03800327e-06  1.80134974e+00  6.03800327e-06  8.10384982e-01  6.03800327e-06  8.34321157e-01  6.03800327e-06  1.73089652e+00                                 
 6.06866037e-06  8.52754551e-01  6.06866037e-06  8.05665320e-01  6.06866037e-06  8.53268720e-01  6.06866037e-06  0.00000000e+00  6.06866037e-06  1.79865628e+00  6.06866037e-06  8.09762714e-01  6.06866037e-06  8.52733717e-01  6.06866037e-06  1.70503409e+00                                 
