 time            v(vbep)         time            v(vben)         time            v(vout)         time            v(vphi1)        time            v(vphi2)        time            v(vref)         yes             currtemp       
 0.00000000e+00  5.46168344e-01  0.00000000e+00  4.80051513e-01  0.00000000e+00  2.95897073e-01  0.00000000e+00  0.00000000e+00  0.00000000e+00  1.79997076e+00  0.00000000e+00  4.80051513e-01  1.00000000e+00  9.00000000e+01 
 5.00000000e-12  5.46151357e-01  5.00000000e-12  4.80037402e-01  5.00000000e-12  2.96431353e-01  5.00000000e-12  1.80000000e-02  5.00000000e-12  1.80008028e+00  5.00000000e-12  4.80037402e-01                                 
 1.00000000e-11  5.46134577e-01  1.00000000e-11  4.80023575e-01  1.00000000e-11  2.96868760e-01  1.00000000e-11  3.60000000e-02  1.00000000e-11  1.80014027e+00  1.00000000e-11  4.80023575e-01                                 
 2.00000000e-11  5.46101119e-01  2.00000000e-11  4.79995994e-01  2.00000000e-11  2.97595961e-01  2.00000000e-11  7.20000000e-02  2.00000000e-11  1.80019926e+00  2.00000000e-11  4.79995994e-01                                 
 4.00000000e-11  5.46034392e-01  4.00000000e-11  4.79940966e-01  4.00000000e-11  2.98456242e-01  4.00000000e-11  1.44000000e-01  4.00000000e-11  1.80016456e+00  4.00000000e-11  4.79940966e-01                                 
 8.00000000e-11  5.45901310e-01  8.00000000e-11  4.79831175e-01  8.00000000e-11  2.99175917e-01  8.00000000e-11  2.88000000e-01  8.00000000e-11  1.80007973e+00  8.00000000e-11  4.79831175e-01                                 
 1.60000000e-10  5.45636678e-01  1.60000000e-10  4.79612640e-01  1.60000000e-10  2.99762633e-01  1.60000000e-10  5.76000000e-01  1.60000000e-10  1.80003703e+00  1.60000000e-10  4.79612640e-01                                 
 3.20000000e-10  5.45113299e-01  3.20000000e-10  4.79179640e-01  3.20000000e-10  3.01346352e-01  3.20000000e-10  1.15200000e+00  3.20000000e-10  1.80034907e+00  3.20000000e-10  4.79179640e-01                                 
 5.00000000e-10  5.44533612e-01  5.00000000e-10  4.78698814e-01  5.00000000e-10  5.30373008e-01  5.00000000e-10  1.80000000e+00  5.00000000e-10  1.96660595e-01  5.00000000e-10  4.78698814e-01                                 
 5.22860866e-10  5.44460749e-01  5.22860866e-10  4.78638276e-01  5.22860866e-10  5.86371387e-01  5.22860866e-10  1.80000000e+00  5.22860866e-10  4.97296338e-02  5.22860866e-10  4.78638276e-01                                 
 5.68582598e-10  5.44315326e-01  5.68582598e-10  4.78517408e-01  5.68582598e-10  6.90147692e-01  5.68582598e-10  1.80000000e+00  5.68582598e-10 -1.77813616e-02  5.68582598e-10  4.78517408e-01                                 
 6.60026061e-10  5.44026304e-01  6.60026061e-10  4.78276950e-01  6.60026061e-10  8.56440445e-01  6.60026061e-10  1.80000000e+00  6.60026061e-10  1.55476769e-02  6.60026061e-10  4.78276950e-01                                 
 7.77992187e-10  5.43656963e-01  7.77992187e-10  4.77969203e-01  7.77992187e-10  1.02286577e+00  7.77992187e-10  1.80000000e+00  7.77992187e-10 -1.10257735e-02  7.77992187e-10  4.77969203e-01                                 
 9.67210287e-10  5.43072511e-01  9.67210287e-10  4.77481169e-01  9.67210287e-10  1.23667242e+00  9.67210287e-10  1.80000000e+00  9.67210287e-10  1.12879014e-02  9.67210287e-10  4.77481169e-01                                 
 1.31298821e-09  5.42028789e-01  1.31298821e-09  4.76606479e-01  1.31298821e-09  1.51373245e+00  1.31298821e-09  1.80000000e+00  1.31298821e-09 -9.35564439e-03  1.31298821e-09  4.76606479e-01                                 
 1.88502176e-09  5.40366850e-01  1.88502176e-09  4.75205524e-01  1.88502176e-09  1.73008372e+00  1.88502176e-09  1.80000000e+00  1.88502176e-09  9.62176427e-03  1.88502176e-09  4.75205524e-01                                 
 2.17223440e-09  5.39561346e-01  2.17223440e-09  4.74522867e-01  2.17223440e-09  1.76556617e+00  2.17223440e-09  1.80000000e+00  2.17223440e-09 -8.59125906e-03  2.17223440e-09  4.74522867e-01                                 
 2.51696432e-09  5.38618250e-01  2.51696432e-09  4.73720693e-01  2.51696432e-09  1.78481206e+00  2.51696432e-09  1.80000000e+00  2.51696432e-09  8.19463704e-03  2.51696432e-09  4.73720693e-01                                 
 2.90091740e-09  5.37596790e-01  2.90091740e-09  4.72848377e-01  2.90091740e-09  1.79257120e+00  2.90091740e-09  1.80000000e+00  2.90091740e-09 -7.60060937e-03  2.90091740e-09  4.72848377e-01                                 
 3.57933614e-09  5.35861062e-01  3.57933614e-09  4.71358043e-01  3.57933614e-09  1.79588028e+00  3.57933614e-09  1.80000000e+00  3.57933614e-09  7.42402131e-03  3.57933614e-09  4.71358043e-01                                 
 4.32763943e-09  5.34041058e-01  4.32763943e-09  4.69784639e-01  4.32763943e-09  1.79430296e+00  4.32763943e-09  1.80000000e+00  4.32763943e-09 -7.12964343e-03  4.32763943e-09  4.69784639e-01                                 
 5.75699589e-09  5.30801994e-01  5.75699589e-09  4.66959276e-01  5.75699589e-09  1.79109272e+00  5.75699589e-09  1.80000000e+00  5.75699589e-09  7.08370171e-03  5.75699589e-09  4.66959276e-01                                 
 7.88018573e-09  5.26472223e-01  7.88018573e-09  4.63135115e-01  7.88018573e-09  1.78594010e+00  7.88018573e-09  1.80000000e+00  7.88018573e-09 -6.93681265e-03  7.88018573e-09  4.63135115e-01                                 
 9.36782430e-09  5.23728556e-01  9.36782430e-09  4.60684500e-01  9.36782430e-09  1.78287352e+00  9.36782430e-09  1.80000000e+00  9.36782430e-09  6.88974777e-03  9.36782430e-09  4.60684500e-01                                 
 1.09001671e-08  5.21107979e-01  1.09001671e-08  4.58325967e-01  1.09001671e-08  1.77931934e+00  1.09001671e-08  1.80000000e+00  1.09001671e-08 -6.72987253e-03  1.09001671e-08  4.58325967e-01                                 
 1.24695286e-08  5.18611774e-01  1.24695286e-08  4.56063989e-01  1.24695286e-08  1.77632356e+00  1.24695286e-08  1.80000000e+00  1.24695286e-08  6.68247393e-03  1.24695286e-08  4.56063989e-01                                 
 1.41291954e-08  5.16152747e-01  1.41291954e-08  4.53821678e-01  1.41291954e-08  1.77271008e+00  1.41291954e-08  1.80000000e+00  1.41291954e-08 -6.53923122e-03  1.41291954e-08  4.53821678e-01                                 
 1.56490311e-08  5.14045873e-01  1.56490311e-08  4.51889690e-01  1.56490311e-08  1.76995856e+00  1.56490311e-08  1.80000000e+00  1.56490311e-08  6.48803514e-03  1.56490311e-08  4.51889690e-01                                 
 1.76705220e-08  5.11432714e-01  1.76705220e-08  4.49480043e-01  1.76705220e-08  1.76576551e+00  1.76705220e-08  1.80000000e+00  1.76705220e-08 -6.36597065e-03  1.76705220e-08  4.49480043e-01                                 
 2.01497847e-08  5.08488020e-01  2.01497847e-08  4.46746917e-01  2.01497847e-08  1.76130606e+00  2.01497847e-08  1.80000000e+00  2.01497847e-08  6.35367226e-03  2.01497847e-08  4.46746917e-01                                 
 2.36845171e-08  5.04711302e-01  2.36845171e-08  4.43213972e-01  2.36845171e-08  1.75457056e+00  2.36845171e-08  1.80000000e+00  2.36845171e-08 -6.26474894e-03  2.36845171e-08  4.43213972e-01                                 
 2.85035652e-08  5.00213140e-01  2.85035652e-08  4.38965457e-01  2.85035652e-08  1.74643366e+00  2.85035652e-08  1.80000000e+00  2.85035652e-08  6.28206806e-03  2.85035652e-08  4.38965457e-01                                 
 3.63948643e-08  4.94030268e-01  3.63948643e-08  4.33059296e-01  3.63948643e-08  1.73322772e+00  3.63948643e-08  1.80000000e+00  3.63948643e-08 -6.21570150e-03  3.63948643e-08  4.33059296e-01                                 
 5.21025257e-08  4.84394172e-01  5.21025257e-08  4.23741352e-01  5.21025257e-08  1.70940556e+00  5.21025257e-08  1.80000000e+00  5.21025257e-08  6.25506733e-03  5.21025257e-08  4.23741352e-01                                 
 8.35178486e-08  4.70751971e-01  8.35178486e-08  4.10390059e-01  8.35178486e-08  1.66528282e+00  8.35178486e-08  1.80000000e+00  8.35178486e-08 -6.20129400e-03  8.35178486e-08  4.10390059e-01                                 
 1.24090899e-07  4.55977039e-01  1.24090899e-07  3.96359560e-01  1.24090899e-07  1.61079891e+00  1.24090899e-07  1.80000000e+00  1.24090899e-07  6.24725878e-03  1.24090899e-07  3.96359560e-01                                 
 1.83549611e-07  4.35543808e-01  1.83549611e-07  3.77757601e-01  1.83549611e-07  1.53004197e+00  1.83549611e-07  1.80000000e+00  1.83549611e-07 -6.19528176e-03  1.83549611e-07  3.77757601e-01                                 
 2.64408141e-07  4.11706631e-01  2.64408141e-07  3.56632196e-01  2.64408141e-07  1.42276468e+00  2.64408141e-07  1.80000000e+00  2.64408141e-07  6.24330714e-03  2.64408141e-07  3.56632196e-01                                 
 3.44288846e-07  3.87788546e-01  3.44288846e-07  3.36189841e-01  3.44288846e-07  1.31469651e+00  3.44288846e-07  1.80000000e+00  3.44288846e-07 -6.19174646e-03  3.44288846e-07  3.36189841e-01                                 
 4.92969757e-07  3.37358469e-01  4.92969757e-07  2.94530073e-01  4.92969757e-07  1.11411817e+00  4.92969757e-07  1.80000000e+00  4.92969757e-07  6.24055366e-03  4.92969757e-07  2.94530073e-01                                 
 5.30139984e-07  3.30828055e-01  5.30139984e-07  2.89180910e-01  5.30139984e-07  1.07355000e+00  5.30139984e-07  1.80000000e+00  5.30139984e-07  1.28931735e-05  5.30139984e-07  2.89180910e-01                                 
 6.04480440e-07  5.50233402e-01  6.04480440e-07  4.78908832e-01  6.04480440e-07  1.20833457e+00  6.04480440e-07  1.80000000e+00  6.04480440e-07  2.33678917e-05  6.04480440e-07  4.78908832e-01                                 
 6.78376181e-07  6.75214600e-01  6.78376181e-07  6.03463357e-01  6.78376181e-07  1.25128140e+00  6.78376181e-07  1.80000000e+00  6.78376181e-07  9.44188650e-06  6.78376181e-07  6.03463357e-01                                 
 6.89710987e-07  6.82170176e-01  6.89710987e-07  6.09645032e-01  6.89710987e-07  1.24503354e+00  6.89710987e-07  1.80000000e+00  6.89710987e-07  1.36218282e-05  6.89710987e-07  6.09645032e-01                                 
 7.12380598e-07  6.93371621e-01  7.12380598e-07  6.19242540e-01  7.12380598e-07  1.23153053e+00  7.12380598e-07  1.80000000e+00  7.12380598e-07  1.31231566e-05  7.12380598e-07  6.19242540e-01                                 
 7.57719821e-07  7.03279492e-01  7.57719821e-07  6.27460483e-01  7.57719821e-07  1.19313431e+00  7.57719821e-07  1.80000000e+00  7.57719821e-07  1.22627882e-05  7.57719821e-07  6.27460483e-01                                 
 7.65351315e-07  7.03810530e-01  7.65351315e-07  6.27894283e-01  7.65351315e-07  1.18560132e+00  7.65351315e-07  1.80000000e+00  7.65351315e-07  1.23281090e-05  7.65351315e-07  6.27894283e-01                                 
 7.80614301e-07  7.04718186e-01  7.80614301e-07  6.28633223e-01  7.80614301e-07  1.17052134e+00  7.80614301e-07  1.80000000e+00  7.80614301e-07  1.22928420e-05  7.80614301e-07  6.28633223e-01                                 
 8.11140274e-07  7.05858568e-01  8.11140274e-07  6.29558073e-01  8.11140274e-07  1.14023911e+00  8.11140274e-07  1.80000000e+00  8.11140274e-07  1.22469690e-05  8.11140274e-07  6.29558073e-01                                 
 8.72192219e-07  6.96699341e-01  8.72192219e-07  6.22061895e-01  8.72192219e-07  1.07272958e+00  8.72192219e-07  1.80000000e+00  8.72192219e-07  1.14763696e-05  8.72192219e-07  6.22061895e-01                                 
 9.32218347e-07  6.79116775e-01  9.32218347e-07  6.07026839e-01  9.32218347e-07  1.00607973e+00  9.32218347e-07  1.80000000e+00  9.32218347e-07  1.17265983e-05  9.32218347e-07  6.07026839e-01                                 
 1.01028546e-06  6.88466951e-01  1.01028546e-06  6.15083179e-01  1.01028546e-06  9.58390180e-01  1.01028546e-06  1.80000000e+00  1.01028546e-06  1.36522867e-05  1.01028546e-06  6.15083179e-01                                 
 1.09498516e-06  6.99645917e-01  1.09498516e-06  6.24491416e-01  1.09498516e-06  9.12960046e-01  1.09498516e-06  1.80000000e+00  1.09498516e-06  1.18780233e-05  1.09498516e-06  6.24491416e-01                                 
 1.18618925e-06  6.81446960e-01  1.18618925e-06  6.09065751e-01  1.18618925e-06  8.39975703e-01  1.18618925e-06  1.80000000e+00  1.18618925e-06  1.21385012e-05  1.18618925e-06  6.09065751e-01                                 
 1.27843498e-06  6.90315376e-01  1.27843498e-06  6.16655942e-01  1.27843498e-06  7.93355466e-01  1.27843498e-06  1.80000000e+00  1.27843498e-06  1.33441247e-05  1.27843498e-06  6.16655942e-01                                 
 1.37288053e-06  6.95509519e-01  1.37288053e-06  6.21067635e-01  1.37288053e-06  7.43886442e-01  1.37288053e-06  1.80000000e+00  1.37288053e-06  1.19963178e-05  1.37288053e-06  6.21067635e-01                                 
 1.50873304e-06  6.83683686e-01  1.50873304e-06  6.10985014e-01  1.50873304e-06  6.65242442e-01  1.50873304e-06  1.80000000e+00  1.50873304e-06  1.28044525e-05  1.50873304e-06  6.10985014e-01                                 
 1.66179340e-06  6.94526369e-01  1.66179340e-06  6.20230163e-01  1.66179340e-06  6.28583833e-01  1.66179340e-06  1.80000000e+00  1.66179340e-06  1.29368078e-05  1.66179340e-06  6.20230163e-01                                 
 1.81409134e-06  6.87950713e-01  1.81409134e-06  6.14667312e-01  1.81409134e-06  6.05395010e-01  1.81409134e-06  1.80000000e+00  1.81409134e-06  1.24655395e-05  1.81409134e-06  6.14667312e-01                                 
 1.99367633e-06  6.90160053e-01  1.99367633e-06  6.16540913e-01  1.99367633e-06  6.16535340e-01  1.99367633e-06  1.80000000e+00  1.99367633e-06  1.33265882e-05  1.99367633e-06  6.16540913e-01                                 
 2.16524857e-06  6.91945085e-01  2.16524857e-06  6.18061320e-01  2.16524857e-06  6.20992720e-01  2.16524857e-06  1.80000000e+00  2.16524857e-06  1.24241842e-05  2.16524857e-06  6.18061320e-01                                 
 2.34653620e-06  6.87478716e-01  2.34653620e-06  6.14258135e-01  2.34653620e-06  6.11771591e-01  2.34653620e-06  1.80000000e+00  2.34653620e-06  1.31333790e-05  2.34653620e-06  6.14258135e-01                                 
 2.58418620e-06  6.92853553e-01  2.58418620e-06  6.18822957e-01  2.58418620e-06  6.20741846e-01  2.58418620e-06  1.80000000e+00  2.58418620e-06  1.26747642e-05  2.58418620e-06  6.18822957e-01                                 
 2.83932434e-06  6.87626956e-01  2.83932434e-06  6.14389460e-01  2.83932434e-06  6.13436834e-01  2.83932434e-06  1.80000000e+00  2.83932434e-06  1.29162383e-05  2.83932434e-06  6.14389460e-01                                 
 3.16739705e-06  6.92203765e-01  3.16739705e-06  6.18271758e-01  3.16739705e-06  6.19276543e-01  3.16739705e-06  1.80000000e+00  3.16739705e-06  1.28429038e-05  3.16739705e-06  6.18271758e-01                                 
 3.59844248e-06  6.88459889e-01  3.59844248e-06  6.15103568e-01  3.59844248e-06  6.14726270e-01  3.59844248e-06  1.80000000e+00  3.59844248e-06  1.28074532e-05  3.59844248e-06  6.15103568e-01                                 
 4.13575603e-06  6.91502301e-01  4.13575603e-06  6.17679559e-01  4.13575603e-06  6.18322777e-01  4.13575603e-06  1.80000000e+00  4.13575603e-06  1.29113058e-05  4.13575603e-06  6.17679559e-01                                 
 4.90373399e-06  6.89074958e-01  4.90373399e-06  6.15628944e-01  4.90373399e-06  6.15491470e-01  4.90373399e-06  1.80000000e+00  4.90373399e-06  1.27655325e-05  4.90373399e-06  6.15628944e-01                                 
 5.90373399e-06  6.91063923e-01  5.90373399e-06  6.17306581e-01  5.90373399e-06  6.17793973e-01  5.90373399e-06  1.80000000e+00  5.90373399e-06  1.29357408e-05  5.90373399e-06  6.17306581e-01                                 
 6.90373399e-06  6.89469781e-01  6.90373399e-06  6.15965464e-01  6.90373399e-06  6.15952555e-01  6.90373399e-06  1.80000000e+00  6.90373399e-06  1.27485341e-05  6.90373399e-06  6.15965464e-01                                 
 7.90373399e-06  6.90681991e-01  7.90373399e-06  6.16982257e-01  7.90373399e-06  6.17354498e-01  7.90373399e-06  1.80000000e+00  7.90373399e-06  1.29490758e-05  7.90373399e-06  6.16982257e-01                                 
 8.90373399e-06  6.89857714e-01  8.90373399e-06  6.16295573e-01  8.90373399e-06  6.16389365e-01  8.90373399e-06  1.80000000e+00  8.90373399e-06  1.27388168e-05  8.90373399e-06  6.16295573e-01                                 
 9.90373399e-06  6.90309067e-01  9.90373399e-06  6.16665700e-01  9.90373399e-06  6.16939395e-01  9.90373399e-06  1.80000000e+00  9.90373399e-06  1.29552312e-05  9.90373399e-06  6.16665700e-01                                 
 1.00005000e-05  6.91432773e-01  1.00005000e-05  6.17629993e-01  1.00005000e-05  6.18078155e-01  1.00005000e-05  1.80000000e+00  1.00005000e-05  1.27893160e-05  1.00005000e-05  6.17629993e-01                                 
 1.00005500e-05  6.91426626e-01  1.00005500e-05  6.17624402e-01  1.00005500e-05  6.11322454e-01  1.00005500e-05  1.62000000e+00  1.00005500e-05 -1.22551551e-04  1.00005500e-05  6.17624402e-01                                 
 1.00006500e-05  6.91413807e-01  1.00006500e-05  6.17613415e-01  1.00006500e-05  5.99601860e-01  1.00006500e-05  1.26000000e+00  1.00006500e-05 -1.01180049e-04  1.00006500e-05  6.17613415e-01                                 
 1.00008500e-05  6.91390007e-01  1.00008500e-05  6.17593344e-01  1.00008500e-05  5.90160845e-01  1.00008500e-05  5.40000000e-01  1.00008500e-05  4.44247243e-02  1.00008500e-05  6.17593344e-01                                 
 1.00010000e-05  6.91374064e-01  1.00010000e-05  6.17579695e-01  1.00010000e-05  5.57047527e-01  1.00010000e-05  0.00000000e+00  1.00010000e-05  1.55716822e+00  1.00010000e-05  6.17579695e-01                                 
 1.00010247e-05  6.91371506e-01  1.00010247e-05  6.17577544e-01  1.00010247e-05  5.40335577e-01  1.00010247e-05  0.00000000e+00  1.00010247e-05  1.70550678e+00  1.00010247e-05  6.17577544e-01                                 
 1.00010742e-05  6.91366519e-01  1.00010742e-05  6.17573303e-01  1.00010742e-05  5.14080001e-01  1.00010742e-05  0.00000000e+00  1.00010742e-05  1.81820082e+00  1.00010742e-05  6.17573303e-01                                 
 1.00011731e-05  6.91356959e-01  1.00011731e-05  6.17565121e-01  1.00011731e-05  4.98404874e-01  1.00011731e-05  0.00000000e+00  1.00011731e-05  1.78985896e+00  1.00011731e-05  6.17565121e-01                                 
 1.00013138e-05  6.91343946e-01  1.00013138e-05  6.17554015e-01  1.00013138e-05  5.02032181e-01  1.00013138e-05  0.00000000e+00  1.00013138e-05  1.80671206e+00  1.00013138e-05  6.17554015e-01                                 
 1.00014672e-05  6.91330461e-01  1.00014672e-05  6.17542487e-01  1.00014672e-05  5.01531390e-01  1.00014672e-05  0.00000000e+00  1.00014672e-05  1.79549602e+00  1.00014672e-05  6.17542487e-01                                 
 1.00017536e-05  6.91306695e-01  1.00017536e-05  6.17522171e-01  1.00017536e-05  5.02311011e-01  1.00017536e-05  0.00000000e+00  1.00017536e-05  1.80366944e+00  1.00017536e-05  6.17522171e-01                                 
 1.00023266e-05  6.91262718e-01  1.00023266e-05  6.17484614e-01  1.00023266e-05  5.01923760e-01  1.00023266e-05  0.00000000e+00  1.00023266e-05  1.79668277e+00  1.00023266e-05  6.17484614e-01                                 
 1.00031898e-05  6.91200724e-01  1.00031898e-05  6.17431844e-01  1.00031898e-05  5.02210294e-01  1.00031898e-05  0.00000000e+00  1.00031898e-05  1.80308560e+00  1.00031898e-05  6.17431844e-01                                 
 1.00049163e-05  6.91079918e-01  1.00049163e-05  6.17329394e-01  1.00049163e-05  5.02079978e-01  1.00049163e-05  0.00000000e+00  1.00049163e-05  1.79700943e+00  1.00049163e-05  6.17329394e-01                                 
