 time            v(vbep)         time            v(vben)         time            v(vout)         time            v(vphi1)        time            v(vphi2)        time            v(vref)         time            v(voutc)        time            v(voutcc)       yes             currtemp       
 0.00000000e+00  7.91505546e-01  0.00000000e+00  7.35723481e-01  0.00000000e+00  1.64029011e+00  0.00000000e+00  0.00000000e+00  0.00000000e+00  1.80000000e+00  0.00000000e+00  7.38610768e-01  0.00000000e+00  1.64029011e+00  0.00000000e+00  1.64626723e+00  1.00000000e+00  1.50000000e+01 
 1.00000000e-11  7.91529866e-01  1.00000000e-11  7.35794397e-01  1.00000000e-11  1.64108626e+00  1.00000000e-11  1.80000000e-02  1.00000000e-11  1.80024849e+00  1.00000000e-11  7.39137174e-01  1.00000000e-11  1.64075662e+00  1.00000000e-11  1.64628095e+00                                 
 2.00000000e-11  7.91536528e-01  2.00000000e-11  7.35839014e-01  2.00000000e-11  1.64159274e+00  2.00000000e-11  3.60000000e-02  2.00000000e-11  1.80034895e+00  2.00000000e-11  7.39530302e-01  2.00000000e-11  1.64111402e+00  2.00000000e-11  1.64628647e+00                                 
 4.00000000e-11  7.91536343e-01  4.00000000e-11  7.35897715e-01  4.00000000e-11  1.64222582e+00  4.00000000e-11  7.20000000e-02  4.00000000e-11  1.80039021e+00  4.00000000e-11  7.40106697e-01  4.00000000e-11  1.64165292e+00  4.00000000e-11  1.64628886e+00                                 
 8.00000000e-11  7.91524381e-01  8.00000000e-11  7.35934476e-01  8.00000000e-11  1.64241796e+00  8.00000000e-11  1.44000000e-01  8.00000000e-11  1.80018989e+00  8.00000000e-11  7.40553587e-01  8.00000000e-11  1.64211302e+00  8.00000000e-11  1.64627829e+00                                 
 1.60000000e-10  7.91521188e-01  1.60000000e-10  7.35941811e-01  1.60000000e-10  1.64210759e+00  1.60000000e-10  2.88000000e-01  1.60000000e-10  1.80000517e+00  1.60000000e-10  7.40609677e-01  1.60000000e-10  1.64220126e+00  1.60000000e-10  1.64626780e+00                                 
 3.20000000e-10  7.91517968e-01  3.20000000e-10  7.35944336e-01  3.20000000e-10  1.64176873e+00  3.20000000e-10  5.76000000e-01  3.20000000e-10  1.80000269e+00  3.20000000e-10  7.40515754e-01  3.20000000e-10  1.64199960e+00  3.20000000e-10  1.64626480e+00                                 
 6.40000000e-10  7.91439846e-01  6.40000000e-10  7.35643787e-01  6.40000000e-10  1.63814679e+00  6.40000000e-10  1.15200000e+00  6.40000000e-10  1.81281752e+00  6.40000000e-10  7.39128520e-01  6.40000000e-10  1.64706842e+00  6.40000000e-10  1.64629430e+00                                 
 9.99791630e-10  7.92026895e-01  9.99791630e-10  7.35779695e-01  9.99791630e-10  1.61003335e+00  9.99791630e-10  1.79962493e+00  9.99791630e-10  8.39884045e-02  9.99791630e-10  7.45453360e-01  9.99791630e-10  1.64192726e+00  9.99791630e-10  1.64621881e+00                                 
 1.00000000e-09  7.92027161e-01  1.00000000e-09  7.35779322e-01  1.00000000e-09  1.61001293e+00  1.00000000e-09  1.80000000e+00  1.00000000e-09  8.22543249e-02  1.00000000e-09  7.45464330e-01  1.00000000e-09  1.64191230e+00  1.00000000e-09  1.64621848e+00                                 
 1.00041674e-09  7.92024475e-01  1.00041674e-09  7.35772820e-01  1.00041674e-09  1.60993793e+00  1.00041674e-09  1.80000000e+00  1.00041674e-09  7.89296024e-02  1.00041674e-09  7.45457688e-01  1.00041674e-09  1.64185942e+00  1.00041674e-09  1.64621670e+00                                 
 1.00125022e-09  7.92020883e-01  1.00125022e-09  7.35764081e-01  1.00125022e-09  1.60980766e+00  1.00125022e-09  1.80000000e+00  1.00125022e-09  7.25564382e-02  1.00125022e-09  7.45458021e-01  1.00125022e-09  1.64177037e+00  1.00125022e-09  1.64621468e+00                                 
 1.00291718e-09  7.92014308e-01  1.00291718e-09  7.35752639e-01  1.00291718e-09  1.60960863e+00  1.00291718e-09  1.80000000e+00  1.00291718e-09  6.12723972e-02  1.00291718e-09  7.45503184e-01  1.00291718e-09  1.64165238e+00  1.00291718e-09  1.64621356e+00                                 
 1.00625111e-09  7.92002897e-01  1.00625111e-09  7.35745174e-01  1.00625111e-09  1.60939531e+00  1.00625111e-09  1.80000000e+00  1.00625111e-09  4.35814287e-02  1.00625111e-09  7.45725240e-01  1.00625111e-09  1.64160163e+00  1.00625111e-09  1.64621941e+00                                 
 1.01291895e-09  7.91988210e-01  1.01291895e-09  7.35764069e-01  1.01291895e-09  1.60941784e+00  1.01291895e-09  1.80000000e+00  1.01291895e-09  2.18015617e-02  1.01291895e-09  7.46457948e-01  1.01291895e-09  1.64194752e+00  1.01291895e-09  1.64624544e+00                                 
 1.02625464e-09  7.91983814e-01  1.02625464e-09  7.35834673e-01  1.02625464e-09  1.60999727e+00  1.02625464e-09  1.80000000e+00  1.02625464e-09  5.11761306e-03  1.02625464e-09  7.48060939e-01  1.02625464e-09  1.64314037e+00  1.02625464e-09  1.64629249e+00                                 
 1.05292603e-09  7.92015695e-01  1.05292603e-09  7.35913117e-01  1.05292603e-09  1.61067292e+00  1.05292603e-09  1.80000000e+00  1.05292603e-09  6.24869867e-04  1.05292603e-09  7.49987925e-01  1.05292603e-09  1.64479924e+00  1.05292603e-09  1.64630937e+00                                 
 1.10626880e-09  7.92087499e-01  1.10626880e-09  7.35881734e-01  1.10626880e-09  1.61023346e+00  1.10626880e-09  1.80000000e+00  1.10626880e-09  8.78651645e-04  1.10626880e-09  7.50980911e-01  1.10626880e-09  1.64569058e+00  1.10626880e-09  1.64627737e+00                                 
 1.21295433e-09  7.92196567e-01  1.21295433e-09  7.35789647e-01  1.21295433e-09  1.60850530e+00  1.21295433e-09  1.80000000e+00  1.21295433e-09  2.81526974e-04  1.21295433e-09  7.51522946e-01  1.21295433e-09  1.64613983e+00  1.21295433e-09  1.64627901e+00                                 
 1.42632541e-09  7.92292135e-01  1.42632541e-09  7.35756483e-01  1.42632541e-09  1.60585389e+00  1.42632541e-09  1.80000000e+00  1.42632541e-09  2.80465099e-04  1.42632541e-09  7.51651082e-01  1.42632541e-09  1.64624866e+00  1.42632541e-09  1.64627922e+00                                 
 1.69756814e-09  7.92191372e-01  1.69756814e-09  7.35735051e-01  1.69756814e-09  1.60538168e+00  1.69756814e-09  1.80000000e+00  1.69756814e-09 -1.43993654e-04  1.69756814e-09  7.50650008e-01  1.69756814e-09  1.64539352e+00  1.69756814e-09  1.64628734e+00                                 
 2.01654017e-09  7.91985024e-01  2.01654017e-09  7.35723141e-01  2.01654017e-09  1.60661429e+00  2.01654017e-09  1.80000000e+00  2.01654017e-09  7.52722581e-05  2.01654017e-09  7.49557156e-01  2.01654017e-09  1.64446875e+00  2.01654017e-09  1.64631011e+00                                 
 2.34484135e-09  7.91789921e-01  2.34484135e-09  7.35708804e-01  2.34484135e-09  1.60779709e+00  2.34484135e-09  1.80000000e+00  2.34484135e-09 -1.54044815e-04  2.34484135e-09  7.48396316e-01  2.34484135e-09  1.64347814e+00  2.34484135e-09  1.64633547e+00                                 
 2.88034081e-09  7.91582307e-01  2.88034081e-09  7.35700111e-01  2.88034081e-09  1.60942471e+00  2.88034081e-09  1.80000000e+00  2.88034081e-09  5.69453825e-05  2.88034081e-09  7.46714855e-01  2.88034081e-09  1.64205103e+00  2.88034081e-09  1.64638220e+00                                 
 3.91889513e-09  7.91417361e-01  3.91889513e-09  7.35692986e-01  3.91889513e-09  1.61103264e+00  3.91889513e-09  1.80000000e+00  3.91889513e-09 -1.41967659e-04  3.91889513e-09  7.43900428e-01  3.91889513e-09  1.63965359e+00  3.91889513e-09  1.64645129e+00                                 
 5.99600378e-09  7.91397685e-01  5.99600378e-09  7.35705737e-01  5.99600378e-09  1.61085267e+00  5.99600378e-09  1.80000000e+00  5.99600378e-09  6.00487392e-05  5.99600378e-09  7.40276878e-01  5.99600378e-09  1.63657576e+00  5.99600378e-09  1.64648129e+00                                 
 7.88751041e-09  7.91408893e-01  7.88751041e-09  7.35714998e-01  7.88751041e-09  1.60923802e+00  7.88751041e-09  1.80000000e+00  7.88751041e-09 -1.20535946e-04  7.88751041e-09  7.38601247e-01  7.88751041e-09  1.63514912e+00  7.88751041e-09  1.64637975e+00                                 
 9.55220938e-09  7.91397147e-01  9.55220938e-09  7.35720914e-01  9.55220938e-09  1.60833092e+00  9.55220938e-09  1.80000000e+00  9.55220938e-09  8.00427624e-05  9.55220938e-09  7.37908911e-01  9.55220938e-09  1.63456286e+00  9.55220938e-09  1.64622425e+00                                 
 1.14327589e-08  7.91408242e-01  1.14327589e-08  7.35721355e-01  1.14327589e-08  1.60662998e+00  1.14327589e-08  1.80000000e+00  1.14327589e-08 -1.01726619e-04  1.14327589e-08  7.37505102e-01  1.14327589e-08  1.63421308e+00  1.14327589e-08  1.64600627e+00                                 
 1.38905419e-08  7.91440429e-01  1.38905419e-08  7.35723550e-01  1.38905419e-08  1.60280286e+00  1.38905419e-08  1.80000000e+00  1.38905419e-08  8.61093830e-05  1.38905419e-08  7.37373721e-01  1.38905419e-08  1.63409602e+00  1.38905419e-08  1.64570244e+00                                 
 1.70326106e-08  7.91475295e-01  1.70326106e-08  7.35722418e-01  1.70326106e-08  1.59559909e+00  1.70326106e-08  1.80000000e+00  1.70326106e-08 -9.44294438e-05  1.70326106e-08  7.37388082e-01  1.70326106e-08  1.63409138e+00  1.70326106e-08  1.64531435e+00                                 
 2.11703822e-08  7.91501230e-01  2.11703822e-08  7.35724250e-01  2.11703822e-08  1.58412532e+00  2.11703822e-08  1.80000000e+00  2.11703822e-08  8.68746177e-05  2.11703822e-08  7.37570372e-01  2.11703822e-08  1.63422979e+00  2.11703822e-08  1.64484465e+00                                 
 2.69094212e-08  7.91510848e-01  2.69094212e-08  7.35723029e-01  2.69094212e-08  1.56671456e+00  2.69094212e-08  1.80000000e+00  2.69094212e-08 -9.23296455e-05  2.69094212e-08  7.37776435e-01  2.69094212e-08  1.63437822e+00  2.69094212e-08  1.64427405e+00                                 
 3.60068127e-08  7.91512025e-01  3.60068127e-08  7.35724390e-01  3.60068127e-08  1.53813031e+00  3.60068127e-08  1.80000000e+00  3.60068127e-08  8.62507838e-05  3.60068127e-08  7.38072697e-01  3.60068127e-08  1.63460459e+00  3.60068127e-08  1.64354725e+00                                 
 5.15093765e-08  7.91508152e-01  5.15093765e-08  7.35722822e-01  5.15093765e-08  1.48860079e+00  5.15093765e-08  1.80000000e+00  5.15093765e-08 -9.19849258e-05  5.15093765e-08  7.38330282e-01  5.15093765e-08  1.63479118e+00  5.15093765e-08  1.64266719e+00                                 
 7.86614338e-08  7.91507027e-01  7.86614338e-08  7.35724193e-01  7.86614338e-08  1.40144935e+00  7.86614338e-08  1.80000000e+00  7.86614338e-08  8.58845352e-05  7.86614338e-08  7.38553180e-01  7.86614338e-08  1.63495965e+00  7.86614338e-08  1.64179627e+00                                 
 1.32965549e-07  7.91505130e-01  1.32965549e-07  7.35722773e-01  1.32965549e-07  1.22792561e+00  1.32965549e-07  1.80000000e+00  1.32965549e-07 -9.18002235e-05  1.32965549e-07  7.38605815e-01  1.32965549e-07  1.63498652e+00  1.32965549e-07  1.64114378e+00                                 
 2.03375426e-07  7.91505984e-01  2.03375426e-07  7.35724191e-01  2.03375426e-07  1.00702406e+00  2.03375426e-07  1.80000000e+00  2.03375426e-07  8.61579657e-05  2.03375426e-07  7.38619648e-01  2.03375426e-07  1.63499573e+00  2.03375426e-07  1.64099310e+00                                 
 2.82434176e-07  7.91505093e-01  2.82434176e-07  7.35722765e-01  2.82434176e-07  8.03616709e-01  2.82434176e-07  1.80000000e+00  2.82434176e-07 -8.97037785e-05  2.82434176e-07  7.38599072e-01  2.82434176e-07  1.63497139e+00  2.82434176e-07  1.64097025e+00                                 
 3.59469221e-07  7.91506536e-01  3.59469221e-07  7.35724241e-01  3.59469221e-07  7.34335838e-01  3.59469221e-07  1.80000000e+00  3.59469221e-07  8.90128032e-05  3.59469221e-07  7.38624346e-01  3.59469221e-07  1.63499269e+00  3.59469221e-07  1.64096961e+00                                 
 4.31504965e-07  7.91503776e-01  4.31504965e-07  7.35722678e-01  4.31504965e-07  7.43377022e-01  4.31504965e-07  1.80000000e+00  4.31504965e-07 -8.84882457e-05  4.31504965e-07  7.38598710e-01  4.31504965e-07  1.63496523e+00  4.31504965e-07  1.64096547e+00                                 
 4.69522397e-07  7.91507684e-01  4.69522397e-07  7.35724300e-01  4.69522397e-07  7.41636671e-01  4.69522397e-07  1.80000000e+00  4.69522397e-07  8.87696959e-05  4.69522397e-07  7.38621864e-01  4.69522397e-07  1.63498625e+00  4.69522397e-07  1.64096463e+00                                 
 5.15729564e-07  7.91503454e-01  5.15729564e-07  7.35722668e-01  5.15729564e-07  7.41531529e-01  5.15729564e-07  1.80000000e+00  5.15729564e-07 -8.84821422e-05  5.15729564e-07  7.38599693e-01  5.15729564e-07  1.63496275e+00  5.15729564e-07  1.64096145e+00                                 
 5.80781840e-07  7.91507584e-01  5.80781840e-07  7.35724293e-01  5.80781840e-07  7.41574235e-01  5.80781840e-07  1.80000000e+00  5.80781840e-07  8.87313879e-05  5.80781840e-07  7.38621860e-01  5.80781840e-07  1.63498190e+00  5.80781840e-07  1.64096027e+00                                 
 6.63319685e-07  7.91503562e-01  6.63319685e-07  7.35722672e-01  6.63319685e-07  7.41514921e-01  6.63319685e-07  1.80000000e+00  6.63319685e-07 -8.84271492e-05  6.63319685e-07  7.38599682e-01  6.63319685e-07  1.63495699e+00  6.63319685e-07  1.64095569e+00                                 
 8.28395375e-07  7.91507503e-01  8.28395375e-07  7.35724291e-01  8.28395375e-07  7.41578201e-01  8.28395375e-07  1.80000000e+00  8.28395375e-07  8.87154050e-05  8.28395375e-07  7.38621864e-01  8.28395375e-07  1.63497225e+00  8.28395375e-07  1.64095062e+00                                 
 1.05521944e-06  7.91503613e-01  1.05521944e-06  7.35722674e-01  1.05521944e-06  7.41513029e-01  1.05521944e-06  1.80000000e+00  1.05521944e-06 -8.84169000e-05  1.05521944e-06  7.38599684e-01  1.05521944e-06  1.63494168e+00  1.05521944e-06  1.64094041e+00                                 
 1.46437190e-06  7.91507469e-01  1.46437190e-06  7.35724289e-01  1.46437190e-06  7.41581292e-01  1.46437190e-06  1.80000000e+00  1.46437190e-06  8.86895546e-05  1.46437190e-06  7.38621862e-01  1.46437190e-06  1.63494737e+00  1.46437190e-06  1.64092580e+00                                 
 2.14216338e-06  7.91503633e-01  2.14216338e-06  7.35722676e-01  2.14216338e-06  7.41512278e-01  2.14216338e-06  1.80000000e+00  2.14216338e-06 -8.84487726e-05  2.14216338e-06  7.38599687e-01  2.14216338e-06  1.63489922e+00  2.14216338e-06  1.64089802e+00                                 
 3.31523960e-06  7.91507458e-01  3.31523960e-06  7.35724289e-01  3.31523960e-06  7.41581927e-01  3.31523960e-06  1.80000000e+00  3.31523960e-06  8.86805812e-05  3.31523960e-06  7.38621861e-01  3.31523960e-06  1.63487514e+00  3.31523960e-06  1.64085369e+00                                 
 4.51523960e-06  7.91503640e-01  4.51523960e-06  7.35722674e-01  4.51523960e-06  7.41512153e-01  4.51523960e-06  1.80000000e+00  4.51523960e-06 -8.83589329e-05  4.51523960e-06  7.38599684e-01  4.51523960e-06  1.63480659e+00  4.51523960e-06  1.64080556e+00                                 
 5.71523960e-06  7.91507448e-01  5.71523960e-06  7.35724288e-01  5.71523960e-06  7.41582589e-01  5.71523960e-06  1.80000000e+00  5.71523960e-06  8.86479220e-05  5.71523960e-06  7.38621857e-01  5.71523960e-06  1.63478145e+00  5.71523960e-06  1.64076017e+00                                 
 6.00100000e-06  7.91503662e-01  6.00100000e-06  7.35722675e-01  6.00100000e-06  7.41511348e-01  6.00100000e-06  1.80000000e+00  6.00100000e-06 -8.82742904e-05  6.00100000e-06  7.38599684e-01  6.00100000e-06  1.63474859e+00  6.00100000e-06  1.64074767e+00                                 
 6.00110000e-06  7.91465916e-01  6.00110000e-06  7.35483567e-01  6.00110000e-06  7.39583881e-01  6.00110000e-06  1.62000000e+00  6.00110000e-06 -1.07205173e-04  6.00110000e-06  7.36898789e-01  6.00110000e-06  1.63330300e+00  6.00110000e-06  1.64073599e+00                                 
 6.00130000e-06  7.91498016e-01  6.00130000e-06  7.35510051e-01  6.00130000e-06  7.40064761e-01  6.00130000e-06  1.26000000e+00  6.00130000e-06  3.88272135e-05  6.00130000e-06  7.36989328e-01  6.00130000e-06  1.63338269e+00  6.00130000e-06  1.64075509e+00                                 
 6.00170000e-06  7.91542820e-01  6.00170000e-06  7.35387093e-01  6.00170000e-06  7.51828292e-01  6.00170000e-06  5.40000000e-01  6.00170000e-06  1.29729828e+00  6.00170000e-06  7.34001846e-01  6.00170000e-06  1.58998317e+00  6.00170000e-06  1.64055543e+00                                 
 6.00200000e-06  7.91493254e-01  6.00200000e-06  7.32997111e-01  6.00200000e-06  7.84991883e-01  6.00200000e-06  0.00000000e+00  6.00200000e-06  1.83198158e+00  6.00200000e-06  7.07924446e-01  6.00200000e-06  1.30152948e+00  6.00200000e-06  1.64006895e+00                                 
 6.00204082e-06  7.91504155e-01  6.00204082e-06  7.32952005e-01  6.00204082e-06  7.81655419e-01  6.00204082e-06  0.00000000e+00  6.00204082e-06  1.81087149e+00  6.00204082e-06  7.07645262e-01  6.00204082e-06  1.25153148e+00  6.00204082e-06  1.64046781e+00                                 
 6.00212245e-06  7.91506822e-01  6.00212245e-06  7.33059047e-01  6.00212245e-06  7.75001711e-01  6.00212245e-06  0.00000000e+00  6.00212245e-06  1.79515181e+00  6.00212245e-06  7.09509486e-01  6.00212245e-06  1.16611075e+00  6.00212245e-06  1.64088245e+00                                 
 6.00228571e-06  7.91503520e-01  6.00228571e-06  7.33391052e-01  6.00228571e-06  7.68839179e-01  6.00228571e-06  0.00000000e+00  6.00228571e-06  1.80110968e+00  6.00228571e-06  7.13918599e-01  6.00228571e-06  1.03928951e+00  6.00228571e-06  1.64086951e+00                                 
 6.00248400e-06  7.91505208e-01  6.00248400e-06  7.33757009e-01  6.00248400e-06  7.64097688e-01  6.00248400e-06  0.00000000e+00  6.00248400e-06  1.79845548e+00  6.00248400e-06  7.17524241e-01  6.00248400e-06  9.22377029e-01  6.00248400e-06  1.64101655e+00                                 
 6.00271991e-06  7.91503413e-01  6.00271991e-06  7.34466265e-01  6.00271991e-06  7.56753169e-01  6.00271991e-06  0.00000000e+00  6.00271991e-06  1.80015547e+00  6.00271991e-06  7.24302416e-01  6.00271991e-06  8.27416206e-01  6.00271991e-06  1.64102220e+00                                 
 6.00312534e-06  7.91505233e-01  6.00312534e-06  7.35574509e-01  6.00312534e-06  7.46030511e-01  6.00312534e-06  0.00000000e+00  6.00312534e-06  1.79950908e+00  6.00312534e-06  7.34011076e-01  6.00312534e-06  7.55875272e-01  6.00312534e-06  1.64097873e+00                                 
 6.00341664e-06  7.91503996e-01  6.00341664e-06  7.36038956e-01  6.00341664e-06  7.42890123e-01  6.00341664e-06  0.00000000e+00  6.00341664e-06  1.80037714e+00  6.00341664e-06  7.37560195e-01  6.00341664e-06  7.46725326e-01  6.00341664e-06  1.64067262e+00                                 
 6.00375989e-06  7.91505568e-01  6.00375989e-06  7.36214543e-01  6.00375989e-06  7.42614452e-01  6.00375989e-06  0.00000000e+00  6.00375989e-06  1.79976426e+00  6.00375989e-06  7.38536591e-01  6.00375989e-06  7.43001045e-01  6.00375989e-06  1.64015337e+00                                 
 6.00413808e-06  7.91504552e-01  6.00413808e-06  7.36287765e-01  6.00413808e-06  7.42313258e-01  6.00413808e-06  0.00000000e+00  6.00413808e-06  1.80018738e+00  6.00413808e-06  7.39320720e-01  6.00413808e-06  7.42718610e-01  6.00413808e-06  1.63935812e+00                                 
 6.00489445e-06  7.91505924e-01  6.00489445e-06  7.36222643e-01  6.00489445e-06  7.43742696e-01  6.00489445e-06  0.00000000e+00  6.00489445e-06  1.79986154e+00  6.00489445e-06  7.39401396e-01  6.00489445e-06  7.43180641e-01  6.00489445e-06  1.63757725e+00                                 
 6.00605702e-06  7.91504937e-01  6.00605702e-06  7.36120324e-01  6.00605702e-06  7.45328333e-01  6.00605702e-06  0.00000000e+00  6.00605702e-06  1.80013759e+00  6.00605702e-06  7.39767134e-01  6.00605702e-06  7.45386326e-01  6.00605702e-06  1.63449815e+00                                 
