 time            v(vbep)         time            v(vben)         time            v(vout)         time            v(vphi1)        time            v(vphi2)        time            v(vref)         yes             currtemp       
 0.00000000e+00  7.84235751e-01  0.00000000e+00  7.34087858e-01  0.00000000e+00  1.00711803e+00  0.00000000e+00  0.00000000e+00  0.00000000e+00  1.79972112e+00  0.00000000e+00  5.00000000e-01  1.00000000e+00 -1.00000000e+00 
 5.00000000e-12  7.84096296e-01  5.00000000e-12  7.33989010e-01  5.00000000e-12  1.00783802e+00  5.00000000e-12  1.80000000e-02  5.00000000e-12  1.79987385e+00  5.00000000e-12  5.00000000e-01                                 
 1.00000000e-11  7.83976651e-01  1.00000000e-11  7.33900457e-01  1.00000000e-11  1.00848496e+00  1.00000000e-11  3.60000000e-02  1.00000000e-11  1.79996683e+00  1.00000000e-11  5.00000000e-01                                 
 2.00000000e-11  7.83757527e-01  2.00000000e-11  7.33726848e-01  2.00000000e-11  1.00966383e+00  2.00000000e-11  7.20000000e-02  2.00000000e-11  1.80008891e+00  2.00000000e-11  5.00000000e-01                                 
 4.00000000e-11  7.83365071e-01  4.00000000e-11  7.33384950e-01  4.00000000e-11  1.01149021e+00  4.00000000e-11  1.44000000e-01  4.00000000e-11  1.80012198e+00  4.00000000e-11  5.00000000e-01                                 
 8.00000000e-11  7.82600703e-01  8.00000000e-11  7.32709218e-01  8.00000000e-11  1.01375717e+00  8.00000000e-11  2.88000000e-01  8.00000000e-11  1.80006325e+00  8.00000000e-11  5.00000000e-01                                 
 1.60000000e-10  7.81110654e-01  1.60000000e-10  7.31391272e-01  1.60000000e-10  1.01568056e+00  1.60000000e-10  5.76000000e-01  1.60000000e-10  1.80000890e+00  1.60000000e-10  5.00000000e-01                                 
 3.20000000e-10  7.78277219e-01  3.20000000e-10  7.28879006e-01  3.20000000e-10  1.00734673e+00  3.20000000e-10  1.15200000e+00  3.20000000e-10  1.80032477e+00  3.20000000e-10  5.00000000e-01                                 
 5.00000000e-10  7.75310821e-01  5.00000000e-10  7.26238932e-01  5.00000000e-10  1.18997310e+00  5.00000000e-10  1.80000000e+00  5.00000000e-10  9.98809284e-02  5.00000000e-10  5.00000000e-01                                 
 5.20824697e-10  7.74984248e-01  5.20824697e-10  7.25947466e-01  5.20824697e-10  1.23093880e+00  5.20824697e-10  1.80000000e+00  5.20824697e-10  1.80150836e-02  5.20824697e-10  5.00000000e-01                                 
 5.62474092e-10  7.74335768e-01  5.62474092e-10  7.25368201e-01  5.62474092e-10  1.30565282e+00  5.62474092e-10  1.80000000e+00  5.62474092e-10 -8.55068701e-03  5.62474092e-10  5.00000000e-01                                 
 6.45772882e-10  7.73070336e-01  6.45772882e-10  7.24236600e-01  6.45772882e-10  1.42878378e+00  6.45772882e-10  1.80000000e+00  6.45772882e-10  7.37530963e-03  6.45772882e-10  5.00000000e-01                                 
 7.68729093e-10  7.71277172e-01  7.68729093e-10  7.22629146e-01  7.68729093e-10  1.57448887e+00  7.68729093e-10  1.80000000e+00  7.68729093e-10 -6.50947181e-03  7.68729093e-10  5.00000000e-01                                 
 9.57145712e-10  7.68687961e-01  9.57145712e-10  7.20300095e-01  9.57145712e-10  1.73953617e+00  9.57145712e-10  1.80000000e+00  9.57145712e-10  6.19117840e-03  9.57145712e-10  5.00000000e-01                                 
 1.33397895e-09  7.64005633e-01  1.33397895e-09  7.16063429e-01  1.33397895e-09  1.92729125e+00  1.33397895e-09  1.80000000e+00  1.33397895e-09 -5.87736660e-03  1.33397895e-09  5.00000000e-01                                 
 1.61010038e-09  7.60953788e-01  1.61010038e-09  7.13281373e-01  1.61010038e-09  1.98539732e+00  1.61010038e-09  1.80000000e+00  1.61010038e-09  5.70149261e-03  1.61010038e-09  5.00000000e-01                                 
 1.91625529e-09  7.57875159e-01  1.91625529e-09  7.10458285e-01  1.91625529e-09  2.01395069e+00  1.91625529e-09  1.80000000e+00  1.91625529e-09 -5.40239876e-03  1.91625529e-09  5.00000000e-01                                 
 2.23934746e-09  7.54922267e-01  2.23934746e-09  7.07735203e-01  2.23934746e-09  2.02501821e+00  2.23934746e-09  1.80000000e+00  2.23934746e-09  5.24806051e-03  2.23934746e-09  5.00000000e-01                                 
 2.73502306e-09  7.50874806e-01  2.73502306e-09  7.03978428e-01  2.73502306e-09  2.02823393e+00  2.73502306e-09  1.80000000e+00  2.73502306e-09 -5.07471840e-03  2.73502306e-09  5.00000000e-01                                 
 3.35617574e-09  7.46470333e-01  3.35617574e-09  6.99858613e-01  3.35617574e-09  2.02541215e+00  3.35617574e-09  1.80000000e+00  3.35617574e-09  5.00733777e-03  3.35617574e-09  5.00000000e-01                                 
 4.41314456e-09  7.40215026e-01  4.41314456e-09  6.93954315e-01  4.41314456e-09  2.01929168e+00  4.41314456e-09  1.80000000e+00  4.41314456e-09 -4.92011525e-03  4.41314456e-09  5.00000000e-01                                 
 6.04589620e-09  7.32643981e-01  6.04589620e-09  6.86728880e-01  6.04589620e-09  2.01179975e+00  6.04589620e-09  1.80000000e+00  6.04589620e-09  4.91193247e-03  6.04589620e-09  5.00000000e-01                                 
 9.12167950e-09  7.22307010e-01  9.12167950e-09  6.76743905e-01  9.12167950e-09  2.00188189e+00  9.12167950e-09  1.80000000e+00  9.12167950e-09 -4.85686123e-03  9.12167950e-09  5.00000000e-01                                 
 1.05453496e-08  7.18705921e-01  1.05453496e-08  6.73230597e-01  1.05453496e-08  1.99844531e+00  1.05453496e-08  1.80000000e+00  1.05453496e-08  4.84211535e-03  1.05453496e-08  5.00000000e-01                                 
 1.24186561e-08  7.14617648e-01  1.24186561e-08  6.69226977e-01  1.24186561e-08  1.99456408e+00  1.24186561e-08  1.80000000e+00  1.24186561e-08 -4.78694842e-03  1.24186561e-08  5.00000000e-01                                 
 1.43914965e-08  7.10919105e-01  1.43914965e-08  6.65592523e-01  1.43914965e-08  1.99108176e+00  1.43914965e-08  1.80000000e+00  1.43914965e-08  4.77778037e-03  1.43914965e-08  5.00000000e-01                                 
 1.78582737e-08  7.05468257e-01  1.78582737e-08  6.60217584e-01  1.78582737e-08  1.98593750e+00  1.78582737e-08  1.80000000e+00  1.78582737e-08 -4.74107723e-03  1.78582737e-08  5.00000000e-01                                 
 2.14254954e-08  7.00875492e-01  2.14254954e-08  6.55672777e-01  2.14254954e-08  1.98163995e+00  2.14254954e-08  1.80000000e+00  2.14254954e-08  4.74373724e-03  2.14254954e-08  5.00000000e-01                                 
 2.85599388e-08  6.93573353e-01  2.85599388e-08  6.48423040e-01  2.85599388e-08  1.97478797e+00  2.85599388e-08  1.80000000e+00  2.85599388e-08 -4.71623878e-03  2.85599388e-08  5.00000000e-01                                 
 3.64474565e-08  6.87421754e-01  3.64474565e-08  6.42294516e-01  3.64474565e-08  1.96904902e+00  3.64474565e-08  1.80000000e+00  3.64474565e-08  4.72825984e-03  3.64474565e-08  5.00000000e-01                                 
 5.22224917e-08  6.78281642e-01  5.22224917e-08  6.33162137e-01  5.22224917e-08  1.96049375e+00  5.22224917e-08  1.80000000e+00  5.22224917e-08 -4.70495416e-03  5.22224917e-08  5.00000000e-01                                 
 7.65362548e-08  6.68647317e-01  7.65362548e-08  6.23498884e-01  7.65362548e-08  1.95161588e+00  7.65362548e-08  1.80000000e+00  7.65362548e-08  4.72232055e-03  7.65362548e-08  5.00000000e-01                                 
 1.14348081e-07  6.59236220e-01  1.14348081e-07  6.13893036e-01  1.14348081e-07  1.94478624e+00  1.14348081e-07  1.80000000e+00  1.14348081e-07 -4.70103926e-03  1.14348081e-07  5.00000000e-01                                 
 1.45927659e-07  6.54063915e-01  1.45927659e-07  6.08505445e-01  1.45927659e-07  1.94222579e+00  1.45927659e-07  1.80000000e+00  1.45927659e-07  4.71901638e-03  1.45927659e-07  5.00000000e-01                                 
 1.78881145e-07  6.49520373e-01  1.78881145e-07  6.03826875e-01  1.78881145e-07  1.93874656e+00  1.78881145e-07  1.80000000e+00  1.78881145e-07 -4.69743700e-03  1.78881145e-07  5.00000000e-01                                 
 2.10121295e-07  6.44552460e-01  2.10121295e-07  5.99035415e-01  2.10121295e-07  1.91928428e+00  2.10121295e-07  1.80000000e+00  2.10121295e-07  4.71535785e-03  2.10121295e-07  5.00000000e-01                                 
 2.46610251e-07  6.34194366e-01  2.46610251e-07  5.89977046e-01  2.46610251e-07  1.86990611e+00  2.46610251e-07  1.80000000e+00  2.46610251e-07 -4.69411716e-03  2.46610251e-07  5.00000000e-01                                 
 2.79196072e-07  6.23677005e-01  2.79196072e-07  5.81001264e-01  2.79196072e-07  1.81362991e+00  2.79196072e-07  1.80000000e+00  2.79196072e-07  4.71196594e-03  2.79196072e-07  5.00000000e-01                                 
 3.12908413e-07  6.20205780e-01  3.12908413e-07  5.77677944e-01  3.12908413e-07  1.77678406e+00  3.12908413e-07  1.80000000e+00  3.12908413e-07 -4.69046292e-03  3.12908413e-07  5.00000000e-01                                 
 3.48557579e-07  6.24810576e-01  3.48557579e-07  5.80769450e-01  3.48557579e-07  1.76569545e+00  3.48557579e-07  1.80000000e+00  3.48557579e-07  4.70881590e-03  3.48557579e-07  5.00000000e-01                                 
 3.71409163e-07  6.21947317e-01  3.71409163e-07  5.78158305e-01  3.71409163e-07  1.74144553e+00  3.71409163e-07  1.80000000e+00  3.71409163e-07 -4.68659718e-03  3.71409163e-07  5.00000000e-01                                 
 3.98691900e-07  6.14499141e-01  3.98691900e-07  5.71880246e-01  3.98691900e-07  1.70744336e+00  3.98691900e-07  1.80000000e+00  3.98691900e-07  4.70408275e-03  3.98691900e-07  5.00000000e-01                                 
 4.24049291e-07  6.10011056e-01  4.24049291e-07  5.68010363e-01  4.24049291e-07  1.67924930e+00  4.24049291e-07  1.80000000e+00  4.24049291e-07 -4.68219688e-03  4.24049291e-07  5.00000000e-01                                 
 4.52187954e-07  6.03727770e-01  4.52187954e-07  5.62715593e-01  4.52187954e-07  1.64584591e+00  4.52187954e-07  1.80000000e+00  4.52187954e-07  4.69974403e-03  4.52187954e-07  5.00000000e-01                                 
 4.94453783e-07  5.94746225e-01  4.94453783e-07  5.55187384e-01  4.94453783e-07  1.59621438e+00  4.94453783e-07  1.80000000e+00  4.94453783e-07 -4.67882904e-03  4.94453783e-07  5.00000000e-01                                 
 5.64531311e-07  5.76884196e-01  5.64531311e-07  5.40494934e-01  5.64531311e-07  1.50894948e+00  5.64531311e-07  1.80000000e+00  5.64531311e-07  4.69754155e-03  5.64531311e-07  5.00000000e-01                                 
 6.78222952e-07  5.45906838e-01  6.78222952e-07  5.15366837e-01  6.78222952e-07  1.36472557e+00  6.78222952e-07  1.80000000e+00  6.78222952e-07 -4.67753322e-03  6.78222952e-07  5.00000000e-01                                 
 8.03241013e-07  5.07171701e-01  8.03241013e-07  4.84305226e-01  8.03241013e-07  1.19869634e+00  8.03241013e-07  1.80000000e+00  8.03241013e-07  4.69656098e-03  8.03241013e-07  5.00000000e-01                                 
 8.11369840e-07  5.05407268e-01  8.11369840e-07  4.82897762e-01  8.11369840e-07  1.18868936e+00  8.11369840e-07  1.80000000e+00  8.11369840e-07  1.77596838e-06  8.11369840e-07  5.00000000e-01                                 
 8.27627493e-07  5.04739175e-01  8.27627493e-07  4.82374108e-01  8.27627493e-07  1.17104499e+00  8.27627493e-07  1.80000000e+00  8.27627493e-07 -1.70072208e-06  8.27627493e-07  5.00000000e-01                                 
 8.47986740e-07  5.18907329e-01  8.47986740e-07  4.93729072e-01  8.47986740e-07  1.16331922e+00  8.47986740e-07  1.80000000e+00  8.47986740e-07  2.31174795e-06  8.47986740e-07  5.00000000e-01                                 
 8.66874893e-07  5.62942653e-01  8.66874893e-07  5.28965479e-01  8.66874893e-07  1.18621554e+00  8.66874893e-07  1.80000000e+00  8.66874893e-07 -4.69420218e-07  8.66874893e-07  5.00000000e-01                                 
 8.93754192e-07  7.27648690e-01  8.93754192e-07  6.70374517e-01  8.93754192e-07  1.31602035e+00  8.93754192e-07  1.80000000e+00  8.93754192e-07  5.80506538e-06  8.93754192e-07  5.00000000e-01                                 
 9.16698103e-07  7.90824817e-01  9.16698103e-07  7.39020167e-01  9.16698103e-07  1.35550639e+00  9.16698103e-07  1.80000000e+00  9.16698103e-07 -2.18015547e-06  9.16698103e-07  5.00000000e-01                                 
 9.42563034e-07  8.19761596e-01  9.42563034e-07  7.67071324e-01  9.42563034e-07  1.35352246e+00  9.42563034e-07  1.80000000e+00  9.42563034e-07  3.52227503e-06  9.42563034e-07  5.00000000e-01                                 
 9.74016520e-07  8.42049226e-01  9.74016520e-07  7.86503448e-01  9.74016520e-07  1.34497149e+00  9.74016520e-07  1.80000000e+00  9.74016520e-07 -2.43650609e-06  9.74016520e-07  5.00000000e-01                                 
 1.00759399e-06  8.60407187e-01  1.00759399e-06  8.01395492e-01  1.00759399e-06  1.32402849e+00  1.00759399e-06  1.80000000e+00  1.00759399e-06  3.09589939e-06  1.00759399e-06  5.00000000e-01                                 
 1.03944425e-06  8.93869975e-01  1.03944425e-06  8.25024172e-01  1.03944425e-06  1.32388066e+00  1.03944425e-06  1.80000000e+00  1.03944425e-06 -1.74120461e-06  1.03944425e-06  5.00000000e-01                                 
 1.07376684e-06  9.20524352e-01  1.07376684e-06  8.41551008e-01  1.07376684e-06  1.30748639e+00  1.07376684e-06  1.80000000e+00  1.07376684e-06  2.65211668e-06  1.07376684e-06  5.00000000e-01                                 
 1.10503052e-06  9.13950174e-01  1.10503052e-06  8.37882694e-01  1.10503052e-06  1.27475687e+00  1.10503052e-06  1.80000000e+00  1.10503052e-06 -2.57330986e-06  1.10503052e-06  5.00000000e-01                                 
 1.13680635e-06  9.13270081e-01  1.13680635e-06  8.37227425e-01  1.13680635e-06  1.23693854e+00  1.13680635e-06  1.80000000e+00  1.13680635e-06  2.50125019e-06  1.13680635e-06  5.00000000e-01                                 
 1.16563967e-06  9.12351787e-01  1.16563967e-06  8.36917878e-01  1.16563967e-06  1.21040408e+00  1.16563967e-06  1.80000000e+00  1.16563967e-06 -2.29193500e-06  1.16563967e-06  5.00000000e-01                                 
 1.22330630e-06  9.04768979e-01  1.22330630e-06  8.32073276e-01  1.22330630e-06  1.14021878e+00  1.22330630e-06  1.80000000e+00  1.22330630e-06  2.21173900e-06  1.22330630e-06  5.00000000e-01                                 
 1.28363666e-06  8.96969564e-01  1.28363666e-06  8.27349728e-01  1.28363666e-06  1.07216930e+00  1.28363666e-06  1.80000000e+00  1.28363666e-06 -2.20455502e-06  1.28363666e-06  5.00000000e-01                                 
 1.36417731e-06  8.56635997e-01  1.36417731e-06  7.98384377e-01  1.36417731e-06  9.50993672e-01  1.36417731e-06  1.80000000e+00  1.36417731e-06  1.73492602e-06  1.36417731e-06  5.00000000e-01                                 
 1.37504083e-06  8.49881109e-01  1.37504083e-06  7.93117770e-01  1.37504083e-06  9.36783673e-01  1.37504083e-06  1.80000000e+00  1.37504083e-06 -2.91749661e-07  1.37504083e-06  5.00000000e-01                                 
 1.39676786e-06  8.34174549e-01  1.39676786e-06  7.79913871e-01  1.39676786e-06  9.07462248e-01  1.39676786e-06  1.80000000e+00  1.39676786e-06 -4.51538732e-07  1.39676786e-06  5.00000000e-01                                 
 1.44022191e-06  8.18396389e-01  1.44022191e-06  7.65723109e-01  1.44022191e-06  8.62530380e-01  1.44022191e-06  1.80000000e+00  1.44022191e-06  1.00078717e-07  1.44022191e-06  5.00000000e-01                                 
 1.48788196e-06  8.25601771e-01  1.48788196e-06  7.72286624e-01  1.48788196e-06  8.35595424e-01  1.48788196e-06  1.80000000e+00  1.48788196e-06  1.84629673e-07  1.48788196e-06  5.00000000e-01                                 
 1.54881097e-06  8.29286758e-01  1.54881097e-06  7.75560330e-01  1.54881097e-06  8.01236485e-01  1.54881097e-06  1.80000000e+00  1.54881097e-06  1.81234344e-08  1.54881097e-06  5.00000000e-01                                 
 1.61379460e-06  8.23860860e-01  1.61379460e-06  7.70737533e-01  1.61379460e-06  7.61188244e-01  1.61379460e-06  1.80000000e+00  1.61379460e-06 -8.96384769e-09  1.61379460e-06  5.00000000e-01                                 
 1.73549197e-06  8.26015607e-01  1.73549197e-06  7.72634838e-01  1.73549197e-06  7.04336872e-01  1.73549197e-06  1.80000000e+00  1.73549197e-06  1.40555802e-07  1.73549197e-06  5.00000000e-01                                 
 1.84647076e-06  8.26907111e-01  1.84647076e-06  7.73471450e-01  1.84647076e-06  6.56161591e-01  1.84647076e-06  1.80000000e+00  1.84647076e-06 -1.76617457e-08  1.84647076e-06  5.00000000e-01                                 
 2.06620590e-06  8.24271113e-01  2.06620590e-06  7.71069798e-01  2.06620590e-06  5.66760478e-01  2.06620590e-06  1.80000000e+00  2.06620590e-06  1.13434866e-07  2.06620590e-06  5.00000000e-01                                 
 2.35905070e-06  8.27507150e-01  2.35905070e-06  7.74003732e-01  2.35905070e-06  5.07922581e-01  2.35905070e-06  1.80000000e+00  2.35905070e-06  1.36584213e-08  2.35905070e-06  5.00000000e-01                                 
 2.39902268e-06  8.25908239e-01  2.39902268e-06  7.72561564e-01  2.39902268e-06  5.04730061e-01  2.39902268e-06  1.80000000e+00  2.39902268e-06  3.19846691e-08  2.39902268e-06  5.00000000e-01                                 
 2.47896664e-06  8.25298177e-01  2.47896664e-06  7.72010183e-01  2.47896664e-06  5.01323869e-01  2.47896664e-06  1.80000000e+00  2.47896664e-06  6.82721892e-08  2.47896664e-06  5.00000000e-01                                 
 2.63885456e-06  8.26250741e-01  2.63885456e-06  7.72866668e-01  2.63885456e-06  4.98384189e-01  2.63885456e-06  1.80000000e+00  2.63885456e-06  4.97005968e-08  2.63885456e-06  5.00000000e-01                                 
 2.85887618e-06  8.25354805e-01  2.85887618e-06  7.72062222e-01  2.85887618e-06  4.94597814e-01  2.85887618e-06  1.80000000e+00  2.85887618e-06  5.56846035e-08  2.85887618e-06  5.00000000e-01                                 
 3.09966604e-06  8.26106070e-01  3.09966604e-06  7.72736308e-01  3.09966604e-06  4.95131547e-01  3.09966604e-06  1.80000000e+00  3.09966604e-06  5.84488008e-08  3.09966604e-06  5.00000000e-01                                 
 3.14810521e-06  8.25893328e-01  3.14810521e-06  7.72545934e-01  3.14810521e-06  4.96108836e-01  3.14810521e-06  1.80000000e+00  3.14810521e-06  5.32038393e-08  3.14810521e-06  5.00000000e-01                                 
 3.24498355e-06  8.25673736e-01  3.24498355e-06  7.72348825e-01  3.24498355e-06  4.99321760e-01  3.24498355e-06  1.80000000e+00  3.24498355e-06  5.49118456e-08  3.24498355e-06  5.00000000e-01                                 
 3.43874024e-06  8.25842128e-01  3.43874024e-06  7.72499681e-01  3.43874024e-06  5.01996821e-01  3.43874024e-06  1.80000000e+00  3.43874024e-06  5.53813562e-08  3.43874024e-06  5.00000000e-01                                 
 3.77144016e-06  8.25721738e-01  3.77144016e-06  7.72392013e-01  3.77144016e-06  4.99003114e-01  3.77144016e-06  1.80000000e+00  3.77144016e-06  5.45699342e-08  3.77144016e-06  5.00000000e-01                                 
 4.14040571e-06  8.25805744e-01  4.14040571e-06  7.72467000e-01  4.14040571e-06  5.00369141e-01  4.14040571e-06  1.80000000e+00  4.14040571e-06  5.59890188e-08  4.14040571e-06  5.00000000e-01                                 
 4.86725920e-06  8.25747677e-01  4.86725920e-06  7.72415306e-01  4.86725920e-06  5.00217866e-01  4.86725920e-06  1.80000000e+00  4.86725920e-06  5.40922270e-08  4.86725920e-06  5.00000000e-01                                 
 5.86725920e-06  8.25791042e-01  5.86725920e-06  7.72453806e-01  5.86725920e-06  4.99883839e-01  5.86725920e-06  1.80000000e+00  5.86725920e-06  5.62260420e-08  5.86725920e-06  5.00000000e-01                                 
