 time            v(vbep)         time            v(vben)         time            v(vout)         time            v(vphi1)        time            v(vphi2)        time            v(vref)         time            v(voutc)        time            v(voutcc)       yes             currtemp       
 0.00000000e+00  7.51026221e-01  0.00000000e+00  6.89523628e-01  0.00000000e+00  1.55765609e+00  0.00000000e+00  0.00000000e+00  0.00000000e+00  1.80000000e+00  0.00000000e+00  6.91383149e-01  0.00000000e+00  1.55765608e+00  0.00000000e+00  1.56446293e+00  1.00000000e+00  4.20000000e+01 
 1.00000000e-11  7.51051319e-01  1.00000000e-11  6.89595051e-01  1.00000000e-11  1.55843458e+00  1.00000000e-11  1.80000000e-02  1.00000000e-11  1.80025193e+00  1.00000000e-11  6.91915453e-01  1.00000000e-11  1.55812688e+00  1.00000000e-11  1.56447659e+00                                 
 2.00000000e-11  7.51058191e-01  2.00000000e-11  6.89639734e-01  2.00000000e-11  1.55891165e+00  2.00000000e-11  3.60000000e-02  2.00000000e-11  1.80035170e+00  2.00000000e-11  6.92310450e-01  2.00000000e-11  1.55848285e+00  2.00000000e-11  1.56448163e+00                                 
 4.00000000e-11  7.51058170e-01  4.00000000e-11  6.89698570e-01  4.00000000e-11  1.55948466e+00  4.00000000e-11  7.20000000e-02  4.00000000e-11  1.80038982e+00  4.00000000e-11  6.92888037e-01  4.00000000e-11  1.55901333e+00  4.00000000e-11  1.56448315e+00                                 
 8.00000000e-11  7.51046389e-01  8.00000000e-11  6.89736380e-01  8.00000000e-11  1.55959920e+00  8.00000000e-11  1.44000000e-01  8.00000000e-11  1.80018587e+00  8.00000000e-11  6.93335471e-01  8.00000000e-11  1.55944545e+00  8.00000000e-11  1.56447251e+00                                 
 1.60000000e-10  7.51043554e-01  1.60000000e-10  6.89747084e-01  1.60000000e-10  1.55926480e+00  1.60000000e-10  2.88000000e-01  1.60000000e-10  1.80000444e+00  1.60000000e-10  6.93410556e-01  1.60000000e-10  1.55949656e+00  1.60000000e-10  1.56446297e+00                                 
 3.20000000e-10  7.51039577e-01  3.20000000e-10  6.89744332e-01  3.20000000e-10  1.55889302e+00  3.20000000e-10  5.76000000e-01  3.20000000e-10  1.79998895e+00  3.20000000e-10  6.93267616e-01  3.20000000e-10  1.55919198e+00  3.20000000e-10  1.56445866e+00                                 
 6.40000000e-10  7.50956496e-01  6.40000000e-10  6.89362651e-01  6.40000000e-10  1.55675345e+00  6.40000000e-10  1.15200000e+00  6.40000000e-10  1.81137360e+00  6.40000000e-10  6.91013567e-01  6.40000000e-10  1.56382539e+00  6.40000000e-10  1.56448685e+00                                 
 1.00000000e-09  7.51584067e-01  1.00000000e-09  6.89633492e-01  1.00000000e-09  1.53253756e+00  1.00000000e-09  1.80000000e+00  1.00000000e-09  9.42325193e-02  1.00000000e-09  7.02685311e-01  1.00000000e-09  1.56454140e+00  1.00000000e-09  1.56445318e+00                                 
 1.03656246e-09  7.51628394e-01  1.03656246e-09  6.89667142e-01  1.03656246e-09  1.53149320e+00  1.03656246e-09  1.80000000e+00  1.03656246e-09  2.12181349e-02  1.03656246e-09  7.05675809e-01  1.03656246e-09  1.56618228e+00  1.03656246e-09  1.56448972e+00                                 
 1.10968739e-09  7.51744862e-01  1.10968739e-09  6.89733075e-01  1.10968739e-09  1.53051852e+00  1.10968739e-09  1.80000000e+00  1.10968739e-09 -1.01438866e-02  1.10968739e-09  7.09547157e-01  1.10968739e-09  1.56919625e+00  1.10968739e-09  1.56451503e+00                                 
 1.25593725e-09  7.51857155e-01  1.25593725e-09  6.89603440e-01  1.25593725e-09  1.52835545e+00  1.25593725e-09  1.80000000e+00  1.25593725e-09  8.42372994e-03  1.25593725e-09  7.09788040e-01  1.25593725e-09  1.56966056e+00  1.25593725e-09  1.56446798e+00                                 
 1.46180098e-09  7.51840605e-01  1.46180098e-09  6.89579601e-01  1.46180098e-09  1.52759816e+00  1.46180098e-09  1.80000000e+00  1.46180098e-09 -6.52012586e-03  1.46180098e-09  7.09196429e-01  1.46180098e-09  1.56894862e+00  1.46180098e-09  1.56450069e+00                                 
 1.68609519e-09  7.51750046e-01  1.68609519e-09  6.89574910e-01  1.68609519e-09  1.52741305e+00  1.68609519e-09  1.80000000e+00  1.68609519e-09  5.59199175e-03  1.68609519e-09  7.07863525e-01  1.68609519e-09  1.56799290e+00  1.68609519e-09  1.56451100e+00                                 
 2.06219875e-09  7.51499971e-01  2.06219875e-09  6.89528492e-01  2.06219875e-09  1.52743445e+00  2.06219875e-09  1.80000000e+00  2.06219875e-09 -5.05858776e-03  2.06219875e-09  7.05625392e-01  2.06219875e-09  1.56592421e+00  2.06219875e-09  1.56460119e+00                                 
 2.47892458e-09  7.51287812e-01  2.47892458e-09  6.89533062e-01  2.47892458e-09  1.52770258e+00  2.47892458e-09  1.80000000e+00  2.47892458e-09  4.52347946e-03  2.47892458e-09  7.03546655e-01  2.47892458e-09  1.56429280e+00  2.47892458e-09  1.56469017e+00                                 
 3.13598334e-09  7.51063083e-01  3.13598334e-09  6.89489177e-01  3.13598334e-09  1.52709417e+00  3.13598334e-09  1.80000000e+00  3.13598334e-09 -4.35449593e-03  3.13598334e-09  7.00264663e-01  3.13598334e-09  1.56135542e+00  3.13598334e-09  1.56484907e+00                                 
 4.10113115e-09  7.50934434e-01  4.10113115e-09  6.89506706e-01  4.10113115e-09  1.52621057e+00  4.10113115e-09  1.80000000e+00  4.10113115e-09  4.10347527e-03  4.10113115e-09  6.96863761e-01  4.10113115e-09  1.55858166e+00  4.10113115e-09  1.56501284e+00                                 
 6.03142676e-09  7.50831340e-01  6.03142676e-09  6.89486040e-01  6.03142676e-09  1.52348545e+00  6.03142676e-09  1.80000000e+00  6.03142676e-09 -4.07195009e-03  6.03142676e-09  6.92214867e-01  6.03142676e-09  1.55449618e+00  6.03142676e-09  1.56512976e+00                                 
 7.66776858e-09  7.50849652e-01  7.66776858e-09  6.89522930e-01  7.66776858e-09  1.52059600e+00  7.66776858e-09  1.80000000e+00  7.66776858e-09  3.95581100e-03  7.66776858e-09  6.90677654e-01  7.66776858e-09  1.55331131e+00  7.66776858e-09  1.56501800e+00                                 
 9.12172927e-09  7.50871237e-01  9.12172927e-09  6.89500962e-01  9.12172927e-09  1.51633139e+00  9.12172927e-09  1.80000000e+00  9.12172927e-09 -3.86544990e-03  9.12172927e-09  6.89728426e-01  9.12172927e-09  1.55238191e+00  9.12172927e-09  1.56483519e+00                                 
 1.07256434e-08  7.50920935e-01  1.07256434e-08  6.89532116e-01  1.07256434e-08  1.51091278e+00  1.07256434e-08  1.80000000e+00  1.07256434e-08  3.76921622e-03  1.07256434e-08  6.89605871e-01  1.07256434e-08  1.55238987e+00  1.07256434e-08  1.56458044e+00                                 
 1.28935406e-08  7.50959646e-01  1.28935406e-08  6.89507404e-01  1.28935406e-08  1.50148182e+00  1.28935406e-08  1.80000000e+00  1.28935406e-08 -3.70639056e-03  1.28935406e-08  6.89296989e-01  1.28935406e-08  1.55200088e+00  1.28935406e-08  1.56422473e+00                                 
 1.55792753e-08  7.51008283e-01  1.55792753e-08  6.89536519e-01  1.55792753e-08  1.48880000e+00  1.55792753e-08  1.80000000e+00  1.55792753e-08  3.65472399e-03  1.55792753e-08  6.89669392e-01  1.55792753e-08  1.55241495e+00  1.55792753e-08  1.56379365e+00                                 
 1.91593910e-08  7.51024744e-01  1.91593910e-08  6.89510055e-01  1.91593910e-08  1.46997506e+00  1.91593910e-08  1.80000000e+00  1.91593910e-08 -3.61514835e-03  1.91593910e-08  6.89738182e-01  1.91593910e-08  1.55233998e+00  1.91593910e-08  1.56328840e+00                                 
 2.39934261e-08  7.51042357e-01  2.39934261e-08  6.89537886e-01  2.39934261e-08  1.44417326e+00  2.39934261e-08  1.80000000e+00  2.39934261e-08  3.58880175e-03  2.39934261e-08  6.90340712e-01  2.39934261e-08  1.55294062e+00  2.39934261e-08  1.56272165e+00                                 
 3.16905219e-08  7.51031784e-01  3.16905219e-08  6.89510426e-01  3.16905219e-08  1.40189351e+00  3.16905219e-08  1.80000000e+00  3.16905219e-08 -3.56954808e-03  3.16905219e-08  6.90540729e-01  3.16905219e-08  1.55297497e+00  3.16905219e-08  1.56205770e+00                                 
 4.51247688e-08  7.51034922e-01  4.51247688e-08  6.89537566e-01  4.51247688e-08  1.32860710e+00  4.51247688e-08  1.80000000e+00  4.51247688e-08  3.56113491e-03  4.51247688e-08  6.91186896e-01  4.51247688e-08  1.55361301e+00  4.51247688e-08  1.56134581e+00                                 
 7.01931102e-08  7.51022706e-01  7.01931102e-08  6.89509931e-01  7.01931102e-08  1.19173954e+00  7.01931102e-08  1.80000000e+00  7.01931102e-08 -3.55421058e-03  7.01931102e-08  6.91222382e-01  7.01931102e-08  1.55352008e+00  7.01931102e-08  1.56077962e+00                                 
 1.06322576e-07  7.51030499e-01  1.06322576e-07  6.89537326e-01  1.06322576e-07  9.97390967e-01  1.06322576e-07  1.80000000e+00  1.06322576e-07  3.55261131e-03  1.06322576e-07  6.91499814e-01  1.06322576e-07  1.55386264e+00  1.06322576e-07  1.56057249e+00                                 
 1.56869192e-07  7.51021849e-01  1.56869192e-07  6.89509884e-01  1.56869192e-07  7.69372972e-01  1.56869192e-07  1.80000000e+00  1.56869192e-07 -3.54491419e-03  1.56869192e-07  6.91264261e-01  1.56869192e-07  1.55354914e+00  1.56869192e-07  1.56052472e+00                                 
 2.01364345e-07  7.51032462e-01  2.01364345e-07  6.89537497e-01  2.01364345e-07  6.89375810e-01  2.01364345e-07  1.80000000e+00  2.01364345e-07  3.55274689e-03  2.01364345e-07  6.91504156e-01  2.01364345e-07  1.55386141e+00  2.01364345e-07  1.56051758e+00                                 
 2.44802499e-07  7.51017840e-01  2.44802499e-07  6.89509666e-01  2.44802499e-07  6.93808415e-01  2.44802499e-07  1.80000000e+00  2.44802499e-07 -3.53666470e-03  2.44802499e-07  6.91266057e-01  2.44802499e-07  1.55354747e+00  2.44802499e-07  1.56051817e+00                                 
 2.64921515e-07  7.51034695e-01  2.64921515e-07  6.89537544e-01  2.64921515e-07  6.93553979e-01  2.64921515e-07  1.80000000e+00  2.64921515e-07  3.54332509e-03  2.64921515e-07  6.91499373e-01  2.64921515e-07  1.55385496e+00  2.64921515e-07  1.56051460e+00                                 
 2.94930428e-07  7.51018273e-01  2.94930428e-07  6.89509731e-01  2.94930428e-07  6.93138129e-01  2.94930428e-07  1.80000000e+00  2.94930428e-07 -3.52608327e-03  2.94930428e-07  6.91266487e-01  2.94930428e-07  1.55354617e+00  2.94930428e-07  1.56051470e+00                                 
 3.44991156e-07  7.51033905e-01  3.44991156e-07  6.89537508e-01  3.44991156e-07  6.93432705e-01  3.44991156e-07  1.80000000e+00  3.44991156e-07  3.53650443e-03  3.44991156e-07  6.91499854e-01  3.44991156e-07  1.55385245e+00  3.44991156e-07  1.56051110e+00                                 
 4.09392885e-07  7.51018738e-01  4.09392885e-07  6.89509743e-01  4.09392885e-07  6.93128720e-01  4.09392885e-07  1.80000000e+00  4.09392885e-07 -3.52157338e-03  4.09392885e-07  6.91266344e-01  4.09392885e-07  1.55354212e+00  4.09392885e-07  1.56051050e+00                                 
 5.38196342e-07  7.51033604e-01  5.38196342e-07  6.89537501e-01  5.38196342e-07  6.93435658e-01  5.38196342e-07  1.80000000e+00  5.38196342e-07  3.53352240e-03  5.38196342e-07  6.91499935e-01  5.38196342e-07  1.55384572e+00  5.38196342e-07  1.56050434e+00                                 
 7.59706938e-07  7.51018894e-01  7.59706938e-07  6.89509745e-01  7.59706938e-07  6.93127646e-01  7.59706938e-07  1.80000000e+00  7.59706938e-07 -3.52000405e-03  7.59706938e-07  6.91266304e-01  7.59706938e-07  1.55352986e+00  7.59706938e-07  1.56049827e+00                                 
 1.15302286e-06  7.51033515e-01  1.15302286e-06  6.89537500e-01  1.15302286e-06  6.93436037e-01  1.15302286e-06  1.80000000e+00  1.15302286e-06  3.53261976e-03  1.15302286e-06  6.91499957e-01  1.15302286e-06  1.55382421e+00  1.15302286e-06  1.56048287e+00                                 
 1.91209883e-06  7.51018943e-01  1.91209883e-06  6.89509746e-01  1.91209883e-06  6.93127438e-01  1.91209883e-06  1.80000000e+00  1.91209883e-06 -3.51950735e-03  1.91209883e-06  6.91266293e-01  1.91209883e-06  1.55348952e+00  1.91209883e-06  1.56045799e+00                                 
 3.11209883e-06  7.51033488e-01  3.11209883e-06  6.89537500e-01  3.11209883e-06  6.93436117e-01  3.11209883e-06  1.80000000e+00  3.11209883e-06  3.53234485e-03  3.11209883e-06  6.91499964e-01  3.11209883e-06  1.55375568e+00  3.11209883e-06  1.56041443e+00                                 
 4.31209883e-06  7.51018964e-01  4.31209883e-06  6.89509746e-01  4.31209883e-06  6.93127367e-01  4.31209883e-06  1.80000000e+00  4.31209883e-06 -3.51931411e-03  4.31209883e-06  6.91266288e-01  4.31209883e-06  1.55340566e+00  4.31209883e-06  1.56037424e+00                                 
 5.51209883e-06  7.51033468e-01  5.51209883e-06  6.89537500e-01  5.51209883e-06  6.93436170e-01  5.51209883e-06  1.80000000e+00  5.51209883e-06  3.53213206e-03  5.51209883e-06  6.91499969e-01  5.51209883e-06  1.55367182e+00  5.51209883e-06  1.56033068e+00                                 
 6.00100000e-06  7.51018999e-01  6.00100000e-06  6.89509747e-01  6.00100000e-06  6.93127264e-01  6.00100000e-06  1.80000000e+00  6.00100000e-06 -3.51895193e-03  6.00100000e-06  6.91266280e-01  6.00100000e-06  1.55334659e+00  6.00100000e-06  1.56031526e+00                                 
 6.00110000e-06  7.50978457e-01  6.00110000e-06  6.89283443e-01  6.00110000e-06  6.91404138e-01  6.00110000e-06  1.62000000e+00  6.00110000e-06 -3.88383107e-04  6.00110000e-06  6.89780520e-01  6.00110000e-06  1.55212821e+00  6.00110000e-06  1.56030451e+00                                 
 6.00130000e-06  7.51012281e-01  6.00130000e-06  6.89288727e-01  6.00130000e-06  6.91650832e-01  6.00130000e-06  1.26000000e+00  6.00130000e-06  2.57082235e-04  6.00130000e-06  6.89653783e-01  6.00130000e-06  1.55203017e+00  6.00130000e-06  1.56031899e+00                                 
 6.00165859e-06  7.51068304e-01  6.00165859e-06  6.89505370e-01  6.00165859e-06  6.93728043e-01  6.00165859e-06  6.14538596e-01  6.00165859e-06 -2.03005912e-03  6.00165859e-06  6.90339968e-01  6.00165859e-06  1.54989453e+00  6.00165859e-06  1.56030093e+00                                 
 6.00200000e-06  7.51015574e-01  6.00200000e-06  6.87858502e-01  6.00200000e-06  7.26101750e-01  6.00200000e-06  0.00000000e+00  6.00200000e-06  1.59565824e+00  6.00200000e-06  6.72736619e-01  6.00200000e-06  1.36233586e+00  6.00200000e-06  1.55970206e+00                                 
 6.00204097e-06  7.51029263e-01  6.00204097e-06  6.87517802e-01  6.00204097e-06  7.31973773e-01  6.00204097e-06  0.00000000e+00  6.00204097e-06  1.72032809e+00  6.00204097e-06  6.68943684e-01  6.00204097e-06  1.30472551e+00  6.00204097e-06  1.55972377e+00                                 
 6.00212292e-06  7.51027859e-01  6.00212292e-06  6.86846900e-01  6.00212292e-06  7.35997200e-01  6.00212292e-06  0.00000000e+00  6.00212292e-06  1.81371121e+00  6.00212292e-06  6.61754492e-01  6.00212292e-06  1.18435055e+00  6.00212292e-06  1.56007665e+00                                 
 6.00226725e-06  7.51023887e-01  6.00226725e-06  6.86733316e-01  6.00226725e-06  7.27063740e-01  6.00226725e-06  0.00000000e+00  6.00226725e-06  1.79010044e+00  6.00226725e-06  6.61457486e-01  6.00226725e-06  1.01243091e+00  6.00226725e-06  1.56053652e+00                                 
 6.00241373e-06  7.51026505e-01  6.00241373e-06  6.87081081e-01  6.00241373e-06  7.22525856e-01  6.00241373e-06  0.00000000e+00  6.00241373e-06  1.80331248e+00  6.00241373e-06  6.65693995e-01  6.00241373e-06  8.92540158e-01  6.00241373e-06  1.56051156e+00                                 
 6.00260351e-06  7.51022798e-01  6.00260351e-06  6.87720065e-01  6.00260351e-06  7.13364411e-01  6.00260351e-06  0.00000000e+00  6.00260351e-06  1.79678126e+00  6.00260351e-06  6.72061436e-01  6.00260351e-06  7.84933260e-01  6.00260351e-06  1.56068347e+00                                 
 6.00282416e-06  7.51026257e-01  6.00282416e-06  6.88771860e-01  6.00282416e-06  7.02199859e-01  6.00282416e-06  0.00000000e+00  6.00282416e-06  1.80149273e+00  6.00282416e-06  6.82316812e-01  6.00282416e-06  7.27118844e-01  6.00282416e-06  1.56065772e+00                                 
 6.00303472e-06  7.51023260e-01  6.00303472e-06  6.89346710e-01  6.00303472e-06  6.97615892e-01  6.00303472e-06  0.00000000e+00  6.00303472e-06  1.79905587e+00  6.00303472e-06  6.86869067e-01  6.00303472e-06  7.05705708e-01  6.00303472e-06  1.56048724e+00                                 
 6.00333108e-06  7.51026510e-01  6.00333108e-06  6.89853880e-01  6.00333108e-06  6.94311076e-01  6.00333108e-06  0.00000000e+00  6.00333108e-06  1.80071551e+00  6.00333108e-06  6.90833178e-01  6.00333108e-06  6.96925615e-01  6.00333108e-06  1.55978096e+00                                 
 6.00360691e-06  7.51024090e-01  6.00360691e-06  6.89971382e-01  6.00360691e-06  6.94454202e-01  6.00360691e-06  0.00000000e+00  6.00360691e-06  1.79955833e+00  6.00360691e-06  6.91438958e-01  6.00360691e-06  6.94511491e-01  6.00360691e-06  1.55891367e+00                                 
 6.00408939e-06  7.51026894e-01  6.00408939e-06  6.90061167e-01  6.00408939e-06  6.94515062e-01  6.00408939e-06  0.00000000e+00  6.00408939e-06  1.80037922e+00  6.00408939e-06  6.92467584e-01  6.00408939e-06  6.94774440e-01  6.00408939e-06  1.55703459e+00                                 
 6.00473778e-06  7.51024786e-01  6.00473778e-06  6.89990387e-01  6.00473778e-06  6.96407140e-01  6.00473778e-06  0.00000000e+00  6.00473778e-06  1.79970561e+00  6.00473778e-06  6.92345012e-01  6.00473778e-06  6.95735770e-01  6.00473778e-06  1.55425003e+00                                 
 6.00603456e-06  7.51027240e-01  6.00603456e-06  6.89914182e-01  6.00603456e-06  6.99176951e-01  6.00603456e-06  0.00000000e+00  6.00603456e-06  1.80029112e+00  6.00603456e-06  6.92813991e-01  6.00603456e-06  6.99245358e-01  6.00603456e-06  1.54818091e+00                                 
 6.00852494e-06  7.51025092e-01  6.00852494e-06  6.89718377e-01  6.00852494e-06  7.06172577e-01  6.00852494e-06  0.00000000e+00  6.00852494e-06  1.79974451e+00  6.00852494e-06  6.92478202e-01  6.00852494e-06  7.05417657e-01  6.00852494e-06  1.53593585e+00                                 
 6.01350570e-06  7.51027324e-01  6.01350570e-06  6.89553594e-01  6.01350570e-06  7.18845843e-01  6.01350570e-06  0.00000000e+00  6.01350570e-06  1.80027087e+00  6.01350570e-06  6.92505141e-01  6.01350570e-06  7.18882649e-01  6.01350570e-06  1.51101873e+00                                 
 6.02346722e-06  7.51025124e-01  6.02346722e-06  6.89481321e-01  6.02346722e-06  7.44586582e-01  6.02346722e-06  0.00000000e+00  6.02346722e-06  1.79975322e+00  6.02346722e-06  6.91774204e-01  6.02346722e-06  7.43729055e-01  6.02346722e-06  1.46321382e+00                                 
 6.04309074e-06  7.51027315e-01  6.04309074e-06  6.89537894e-01  6.04309074e-06  7.90537365e-01  6.04309074e-06  0.00000000e+00  6.04309074e-06  1.80026489e+00  6.04309074e-06  6.91659707e-01  6.04309074e-06  7.90652111e-01  6.04309074e-06  1.37759785e+00                                 
 6.08233778e-06  7.51025128e-01  6.08233778e-06  6.89506534e-01  6.08233778e-06  8.71214642e-01  6.08233778e-06  0.00000000e+00  6.08233778e-06  1.79975248e+00  6.08233778e-06  6.91213400e-01  6.08233778e-06  8.69500017e-01  6.08233778e-06  1.23060799e+00                                 
 6.15325466e-06  7.51027313e-01  6.15325466e-06  6.89540440e-01  6.15325466e-06  9.80550047e-01  6.15325466e-06  0.00000000e+00  6.15325466e-06  1.80025888e+00  6.15325466e-06  6.91527357e-01  6.15325466e-06  9.81616071e-01  6.15325466e-06  1.04866342e+00                                 
 6.26621784e-06  7.51025129e-01  6.26621784e-06  6.89507075e-01  6.26621784e-06  1.08919076e+00  6.26621784e-06  0.00000000e+00  6.26621784e-06  1.79974739e+00  6.26621784e-06  6.91226702e-01  6.26621784e-06  1.08686809e+00  6.26621784e-06  1.04113870e+00                                 
