 time            v(vbep)         time            v(vben)         time            v(vout)         time            v(vphi1)        time            v(vphi2)        time            v(vref)         time            v(voutc)        time            v(voutcc)       yes             currtemp       
 0.00000000e+00  6.89921091e-01  0.00000000e+00  6.19713387e-01  0.00000000e+00  1.42815561e+00  0.00000000e+00  0.00000000e+00  0.00000000e+00  1.79999999e+00  0.00000000e+00  6.19319428e-01  0.00000000e+00  1.42815560e+00  0.00000000e+00  1.43620447e+00  1.00000000e+00  8.20000000e+01 
 1.00000000e-11  6.89946289e-01  1.00000000e-11  6.19786532e-01  1.00000000e-11  1.42890226e+00  1.00000000e-11  1.80000000e-02  1.00000000e-11  1.80025195e+00  1.00000000e-11  6.19846620e-01  1.00000000e-11  1.42861966e+00  1.00000000e-11  1.43621824e+00                                 
 2.00000000e-11  6.89953019e-01  2.00000000e-11  6.19831239e-01  2.00000000e-11  1.42934379e+00  2.00000000e-11  3.60000000e-02  2.00000000e-11  1.80034912e+00  2.00000000e-11  6.20234678e-01  2.00000000e-11  1.42896553e+00  2.00000000e-11  1.43622304e+00                                 
 4.00000000e-11  6.89952835e-01  4.00000000e-11  6.19889030e-01  4.00000000e-11  1.42985301e+00  4.00000000e-11  7.20000000e-02  4.00000000e-11  1.80038198e+00  4.00000000e-11  6.20799541e-01  4.00000000e-11  1.42947465e+00  4.00000000e-11  1.43622422e+00                                 
 8.00000000e-11  6.89941153e-01  8.00000000e-11  6.19923735e-01  8.00000000e-11  1.42990239e+00  8.00000000e-11  1.44000000e-01  8.00000000e-11  1.80017572e+00  8.00000000e-11  6.21236114e-01  8.00000000e-11  1.42987367e+00  8.00000000e-11  1.43621400e+00                                 
 1.60000000e-10  6.89938419e-01  1.60000000e-10  6.19931345e-01  1.60000000e-10  1.42956781e+00  1.60000000e-10  2.88000000e-01  1.60000000e-10  1.80000524e+00  1.60000000e-10  6.21333742e-01  1.60000000e-10  1.42991121e+00  1.60000000e-10  1.43620510e+00                                 
 3.20000000e-10  6.89933248e-01  3.20000000e-10  6.19918204e-01  3.20000000e-10  1.42919410e+00  3.20000000e-10  5.76000000e-01  3.20000000e-10  1.79998033e+00  3.20000000e-10  6.21171609e-01  3.20000000e-10  1.42956397e+00  3.20000000e-10  1.43619975e+00                                 
 6.40000000e-10  6.89851811e-01  6.40000000e-10  6.19444925e-01  6.40000000e-10  1.42758670e+00  6.40000000e-10  1.15200000e+00  6.40000000e-10  1.80770909e+00  6.40000000e-10  6.17848736e-01  6.40000000e-10  1.43207215e+00  6.40000000e-10  1.43621957e+00                                 
 1.00000000e-09  6.90370335e-01  1.00000000e-09  6.19946891e-01  1.00000000e-09  1.40962502e+00  1.00000000e-09  1.80000000e+00  1.00000000e-09  1.13104656e-01  1.00000000e-09  6.34961359e-01  1.00000000e-09  1.43974591e+00  1.00000000e-09  1.43624551e+00                                 
 1.03794046e-09  6.90454279e-01  1.03794046e-09  6.19931237e-01  1.03794046e-09  1.40788479e+00  1.03794046e-09  1.80000000e+00  1.03794046e-09  2.75667889e-02  1.03794046e-09  6.37952290e-01  1.03794046e-09  1.44130825e+00  1.03794046e-09  1.43625650e+00                                 
 1.11382139e-09  6.90642017e-01  1.11382139e-09  6.19932077e-01  1.11382139e-09  1.40565986e+00  1.11382139e-09  1.80000000e+00  1.11382139e-09 -1.24636817e-02  1.11382139e-09  6.41555756e-01  1.11382139e-09  1.44406188e+00  1.11382139e-09  1.43626227e+00                                 
 1.26558324e-09  6.90769699e-01  1.26558324e-09  6.19764810e-01  1.26558324e-09  1.40225791e+00  1.26558324e-09  1.80000000e+00  1.26558324e-09  9.63127958e-03  1.26558324e-09  6.40916739e-01  1.26558324e-09  1.44381867e+00  1.26558324e-09  1.43622031e+00                                 
 1.44819933e-09  6.90729081e-01  1.44819933e-09  6.19757250e-01  1.44819933e-09  1.40118428e+00  1.44819933e-09  1.80000000e+00  1.44819933e-09 -7.27708533e-03  1.44819933e-09  6.39639561e-01  1.44819933e-09  1.44249935e+00  1.44819933e-09  1.43626531e+00                                 
 1.65276338e-09  6.90615434e-01  1.65276338e-09  6.19757298e-01  1.65276338e-09  1.40072426e+00  1.65276338e-09  1.80000000e+00  1.65276338e-09  5.88101163e-03  1.65276338e-09  6.37835643e-01  1.65276338e-09  1.44115024e+00  1.65276338e-09  1.43631434e+00                                 
 2.01306784e-09  6.90353488e-01  2.01306784e-09  6.19720855e-01  2.01306784e-09  1.39995168e+00  2.01306784e-09  1.80000000e+00  2.01306784e-09 -5.21359720e-03  2.01306784e-09  6.34791627e-01  2.01306784e-09  1.43838308e+00  2.01306784e-09  1.43647069e+00                                 
 2.60334295e-09  6.90060069e-01  2.60334295e-09  6.19730071e-01  2.60334295e-09  1.39871540e+00  2.60334295e-09  1.80000000e+00  2.60334295e-09  4.79372898e-03  2.60334295e-09  6.30790202e-01  2.60334295e-09  1.43510910e+00  2.60334295e-09  1.43672051e+00                                 
 3.55898897e-09  6.89808159e-01  3.55898897e-09  6.19685053e-01  3.55898897e-09  1.39516824e+00  3.55898897e-09  1.80000000e+00  3.55898897e-09 -4.61200813e-03  3.55898897e-09  6.25519921e-01  3.55898897e-09  1.43046595e+00  3.55898897e-09  1.43705728e+00                                 
 5.13055429e-09  6.89717899e-01  5.13055429e-09  6.19703137e-01  5.13055429e-09  1.38827735e+00  5.13055429e-09  1.80000000e+00  5.13055429e-09  4.46455567e-03  5.13055429e-09  6.20763831e-01  5.13055429e-09  1.42654932e+00  5.13055429e-09  1.43727869e+00                                 
 6.46442979e-09  6.89720899e-01  6.46442979e-09  6.19675909e-01  6.46442979e-09  1.38081001e+00  6.46442979e-09  1.80000000e+00  6.46442979e-09 -4.32780531e-03  6.46442979e-09  6.18562929e-01  6.46442979e-09  1.42454501e+00  6.46442979e-09  1.43721460e+00                                 
 7.67068873e-09  6.89767734e-01  7.67068873e-09  6.19709199e-01  7.67068873e-09  1.37350155e+00  7.67068873e-09  1.80000000e+00  7.67068873e-09  4.17202464e-03  7.67068873e-09  6.17891361e-01  7.67068873e-09  1.42410096e+00  7.67068873e-09  1.43703171e+00                                 
 8.99653651e-09  6.89797145e-01  8.99653651e-09  6.19684936e-01  8.99653651e-09  1.36407466e+00  8.99653651e-09  1.80000000e+00  8.99653651e-09 -4.03538049e-03  8.99653651e-09  6.17224965e-01  8.99653651e-09  1.42340364e+00  8.99653651e-09  1.43677830e+00                                 
 1.07846035e-08  6.89857518e-01  1.07846035e-08  6.19720362e-01  1.07846035e-08  1.35072117e+00  1.07846035e-08  1.80000000e+00  1.07846035e-08  3.94260393e-03  1.07846035e-08  6.17290890e-01  1.07846035e-08  1.42356944e+00  1.07846035e-08  1.43640257e+00                                 
 1.29748706e-08  6.89885979e-01  1.29748706e-08  6.19694794e-01  1.29748706e-08  1.33273099e+00  1.29748706e-08  1.80000000e+00  1.29748706e-08 -3.85883179e-03  1.29748706e-08  6.17158318e-01  1.29748706e-08  1.42332009e+00  1.29748706e-08  1.43595867e+00                                 
 1.59068144e-08  6.89926706e-01  1.59068144e-08  6.19727528e-01  1.59068144e-08  1.30809607e+00  1.59068144e-08  1.80000000e+00  1.59068144e-08  3.80981723e-03  1.59068144e-08  6.17665476e-01  1.59068144e-08  1.42384673e+00  1.59068144e-08  1.43542817e+00                                 
 1.98024984e-08  6.89927211e-01  1.98024984e-08  6.19698800e-01  1.98024984e-08  1.27403732e+00  1.98024984e-08  1.80000000e+00  1.98024984e-08 -3.75930557e-03  1.98024984e-08  6.17798883e-01  1.98024984e-08  1.42382064e+00  1.98024984e-08  1.43485741e+00                                 
 2.59961797e-08  6.89939912e-01  2.59961797e-08  6.19729373e-01  2.59961797e-08  1.21997171e+00  2.59961797e-08  1.80000000e+00  2.59961797e-08  3.74171187e-03  2.59961797e-08  6.18488974e-01  2.59961797e-08  1.42449848e+00  2.59961797e-08  1.43420404e+00                                 
 3.64616651e-08  6.89921414e-01  3.64616651e-08  6.19699075e-01  3.64616651e-08  1.12828343e+00  3.64616651e-08  1.80000000e+00  3.64616651e-08 -3.71752863e-03  3.64616651e-08  6.18721859e-01  3.64616651e-08  1.42456305e+00  3.64616651e-08  1.43357749e+00                                 
 5.13645947e-08  6.89928529e-01  5.13645947e-08  6.19728741e-01  5.13645947e-08  9.99701140e-01  5.13645947e-08  1.80000000e+00  5.13645947e-08  3.71598458e-03  5.13645947e-08  6.19264209e-01  5.13645947e-08  1.42513186e+00  5.13645947e-08  1.43322823e+00                                 
 8.11704538e-08  6.89914706e-01  8.11704538e-08  6.19698200e-01  8.11704538e-08  7.55431420e-01  8.11704538e-08  1.80000000e+00  8.11704538e-08 -3.69870594e-03  8.11704538e-08  6.19187461e-01  8.11704538e-08  1.42495251e+00  8.11704538e-08  1.43311651e+00                                 
 1.08877361e-07  6.89932429e-01  1.08877361e-07  6.19728973e-01  1.08877361e-07  6.31113623e-01  1.08877361e-07  1.80000000e+00  1.08877361e-07  3.71535634e-03  1.08877361e-07  6.19447810e-01  1.08877361e-07  1.42528864e+00  1.08877361e-07  1.43315850e+00                                 
 1.35815137e-07  6.89906834e-01  1.35815137e-07  6.19697719e-01  1.35815137e-07  6.19076153e-01  1.35815137e-07  1.80000000e+00  1.35815137e-07 -3.68079956e-03  1.35815137e-07  6.19200973e-01  1.35815137e-07  1.42496442e+00  1.35815137e-07  1.43317452e+00                                 
 1.50735314e-07  6.89932045e-01  1.50735314e-07  6.19728863e-01  1.50735314e-07  6.19354525e-01  1.50735314e-07  1.80000000e+00  1.50735314e-07  3.69992920e-03  1.50735314e-07  6.19441232e-01  1.50735314e-07  1.42528186e+00  1.50735314e-07  1.43317478e+00                                 
 1.70016761e-07  6.89911133e-01  1.70016761e-07  6.19697883e-01  1.70016761e-07  6.18737807e-01  1.70016761e-07  1.80000000e+00  1.70016761e-07 -3.66259467e-03  1.70016761e-07  6.19198092e-01  1.70016761e-07  1.42496114e+00  1.70016761e-07  1.43317480e+00                                 
 2.08579655e-07  6.89930552e-01  2.08579655e-07  6.19728878e-01  2.08579655e-07  6.19087074e-01  2.08579655e-07  1.80000000e+00  2.08579655e-07  3.68798521e-03  2.08579655e-07  6.19440954e-01  2.08579655e-07  1.42527960e+00  2.08579655e-07  1.43317288e+00                                 
 2.85705444e-07  6.89911840e-01  2.85705444e-07  6.19697885e-01  2.85705444e-07  6.18708956e-01  2.85705444e-07  1.80000000e+00  2.85705444e-07 -3.65665058e-03  2.85705444e-07  6.19197820e-01  2.85705444e-07  1.42495736e+00  2.85705444e-07  1.43317083e+00                                 
 4.39957023e-07  6.89930245e-01  4.39957023e-07  6.19728880e-01  4.39957023e-07  6.19078996e-01  4.39957023e-07  1.80000000e+00  4.39957023e-07  3.68500108e-03  4.39957023e-07  6.19441012e-01  4.39957023e-07  1.42527236e+00  4.39957023e-07  1.43316557e+00                                 
 7.48460179e-07  6.89911986e-01  7.48460179e-07  6.19697884e-01  7.48460179e-07  6.18712421e-01  7.48460179e-07  1.80000000e+00  7.48460179e-07 -3.65516958e-03  7.48460179e-07  6.19197796e-01  7.48460179e-07  1.42494290e+00  7.48460179e-07  1.43315640e+00                                 
 1.36546649e-06  6.89930173e-01  1.36546649e-06  6.19728880e-01  1.36546649e-06  6.19077092e-01  1.36546649e-06  1.80000000e+00  1.36546649e-06  3.68425538e-03  1.36546649e-06  6.19441023e-01  1.36546649e-06  1.42524345e+00  1.36546649e-06  1.43313669e+00                                 
 2.56546649e-06  6.89912022e-01  2.56546649e-06  6.19697884e-01  2.56546649e-06  6.18713411e-01  2.56546649e-06  1.80000000e+00  2.56546649e-06 -3.65479729e-03  2.56546649e-06  6.19197791e-01  2.56546649e-06  1.42488610e+00  2.56546649e-06  1.43309967e+00                                 
 3.76546649e-06  6.89930149e-01  3.76546649e-06  6.19728880e-01  3.76546649e-06  6.19076006e-01  3.76546649e-06  1.80000000e+00  3.76546649e-06  3.68400015e-03  3.76546649e-06  6.19441027e-01  3.76546649e-06  1.42516836e+00  3.76546649e-06  1.43306169e+00                                 
 4.96546649e-06  6.89912045e-01  4.96546649e-06  6.19697884e-01  4.96546649e-06  6.18713649e-01  4.96546649e-06  1.80000000e+00  4.96546649e-06 -3.65455739e-03  4.96546649e-06  6.19197787e-01  4.96546649e-06  1.42481105e+00  4.96546649e-06  1.43302471e+00                                 
 6.00100000e-06  6.89930123e-01  6.00100000e-06  6.19728880e-01  6.00100000e-06  6.19075190e-01  6.00100000e-06  1.80000000e+00  6.00100000e-06  3.68372429e-03  6.00100000e-06  6.19441030e-01  6.00100000e-06  1.42509850e+00  6.00100000e-06  1.43299191e+00                                 
 6.00110000e-06  6.89873905e-01  6.00110000e-06  6.19476242e-01  6.00110000e-06  6.17260285e-01  6.00110000e-06  1.62000000e+00  6.00110000e-06  2.53510936e-04  6.00110000e-06  6.17804081e-01  6.00110000e-06  1.42364831e+00  6.00110000e-06  1.43298157e+00                                 
 6.00130000e-06  6.89906958e-01  6.00130000e-06  6.19468098e-01  6.00130000e-06  6.17213132e-01  6.00130000e-06  1.26000000e+00  6.00130000e-06 -2.76647898e-04  6.00130000e-06  6.17466462e-01  6.00130000e-06  1.42335318e+00  6.00130000e-06  1.43299669e+00                                 
 6.00164982e-06  6.89975790e-01  6.00164982e-06  6.19660959e-01  6.00164982e-06  6.19179460e-01  6.00164982e-06  6.30332539e-01  6.00164982e-06  2.05375934e-02  6.00164982e-06  6.17617455e-01  6.00164982e-06  1.41998743e+00  6.00164982e-06  1.43297191e+00                                 
 6.00200000e-06  6.89904551e-01  6.00200000e-06  6.18373430e-01  6.00200000e-06  6.51877960e-01  6.00200000e-06  0.00000000e+00  6.00200000e-06  1.61164919e+00  6.00200000e-06  6.04200265e-01  6.00200000e-06  1.21334442e+00  6.00200000e-06  1.43239657e+00                                 
 6.00204673e-06  6.89921538e-01  6.00204673e-06  6.17730873e-01  6.00204673e-06  6.59734739e-01  6.00204673e-06  0.00000000e+00  6.00204673e-06  1.73222142e+00  6.00204673e-06  5.96918889e-01  6.00204673e-06  1.13784774e+00  6.00204673e-06  1.43240441e+00                                 
 6.00214019e-06  6.89924709e-01  6.00214019e-06  6.16771078e-01  6.00214019e-06  6.64815363e-01  6.00214019e-06  0.00000000e+00  6.00214019e-06  1.81520460e+00  6.00214019e-06  5.86177938e-01  6.00214019e-06  9.87655788e-01  6.00214019e-06  1.43285279e+00                                 
 6.00232712e-06  6.89920127e-01  6.00232712e-06  6.17050886e-01  6.00232712e-06  6.51194782e-01  6.00232712e-06  0.00000000e+00  6.00232712e-06  1.78760259e+00  6.00232712e-06  5.89715129e-01  6.00232712e-06  7.73816815e-01  6.00232712e-06  1.43331918e+00                                 
 6.00251324e-06  6.89922530e-01  6.00251324e-06  6.18243941e-01  6.00251324e-06  6.36308302e-01  6.00251324e-06  0.00000000e+00  6.00251324e-06  1.80590619e+00  6.00251324e-06  6.02531072e-01  6.00251324e-06  6.78295110e-01  6.00251324e-06  1.43337332e+00                                 
 6.00267475e-06  6.89919696e-01  6.00267475e-06  6.19013147e-01  6.00267475e-06  6.27283158e-01  6.00267475e-06  0.00000000e+00  6.00267475e-06  1.79662212e+00  6.00267475e-06  6.09848438e-01  6.00267475e-06  6.43788719e-01  6.00267475e-06  1.43332817e+00                                 
 6.00288522e-06  6.89922145e-01  6.00288522e-06  6.19704360e-01  6.00288522e-06  6.22353871e-01  6.00288522e-06  0.00000000e+00  6.00288522e-06  1.80219992e+00  6.00288522e-06  6.16233948e-01  6.00288522e-06  6.28004242e-01  6.00288522e-06  1.43253646e+00                                 
 6.00309291e-06  6.89919996e-01  6.00309291e-06  6.19955779e-01  6.00309291e-06  6.20481541e-01  6.00309291e-06  0.00000000e+00  6.00309291e-06  1.79870487e+00  6.00309291e-06  6.18115213e-01  6.00309291e-06  6.22227798e-01  6.00309291e-06  1.43154819e+00                                 
 6.00339957e-06  6.89922119e-01  6.00339957e-06  6.20152249e-01  6.00339957e-06  6.20172557e-01  6.00339957e-06  0.00000000e+00  6.00339957e-06  1.80100171e+00  6.00339957e-06  6.19921342e-01  6.00339957e-06  6.20600046e-01  6.00339957e-06  1.42964100e+00                                 
 6.00381723e-06  6.89920288e-01  6.00381723e-06  6.20152307e-01  6.00381723e-06  6.20866223e-01  6.00381723e-06  0.00000000e+00  6.00381723e-06  1.79923459e+00  6.00381723e-06  6.20063540e-01  6.00381723e-06  6.20544032e-01  6.00381723e-06  1.42687132e+00                                 
 6.00454791e-06  6.89922116e-01  6.00454791e-06  6.20136744e-01  6.00454791e-06  6.22912825e-01  6.00454791e-06  0.00000000e+00  6.00454791e-06  1.80069908e+00  6.00454791e-06  6.20600953e-01  6.00454791e-06  6.22770241e-01  6.00454791e-06  1.42155164e+00                                 
 6.00571038e-06  6.89920294e-01  6.00571038e-06  6.20029702e-01  6.00571038e-06  6.26348507e-01  6.00571038e-06  0.00000000e+00  6.00571038e-06  1.79938627e+00  6.00571038e-06  6.20376943e-01  6.00571038e-06  6.25921830e-01  6.00571038e-06  1.41270842e+00                                 
 6.00803531e-06  6.89921952e-01  6.00803531e-06  6.19903970e-01  6.00803531e-06  6.33450507e-01  6.00803531e-06  0.00000000e+00  6.00803531e-06  1.80061928e+00  6.00803531e-06  6.20594706e-01  6.00803531e-06  6.33255641e-01  6.00803531e-06  1.39401056e+00                                 
 6.01268517e-06  6.89920221e-01  6.01268517e-06  6.19716064e-01  6.01268517e-06  6.47317018e-01  6.01268517e-06  0.00000000e+00  6.01268517e-06  1.79941780e+00  6.01268517e-06  6.20064036e-01  6.01268517e-06  6.46845689e-01  6.01268517e-06  1.35540399e+00                                 
 6.02047835e-06  6.89921941e-01  6.02047835e-06  6.19703756e-01  6.02047835e-06  6.69938338e-01  6.02047835e-06  0.00000000e+00  6.02047835e-06  1.80059921e+00  6.02047835e-06  6.20002574e-01  6.02047835e-06  6.69706563e-01  6.02047835e-06  1.28928576e+00                                 
 6.03399458e-06  6.89920235e-01  6.03399458e-06  6.19696487e-01  6.03399458e-06  7.07189399e-01  6.03399458e-06  0.00000000e+00  6.03399458e-06  1.79942801e+00  6.03399458e-06  6.19390005e-01  6.03399458e-06  7.06644043e-01  6.03399458e-06  1.17480377e+00                                 
 6.04829649e-06  6.89921943e-01  6.04829649e-06  6.19721094e-01  6.04829649e-06  7.44109712e-01  6.04829649e-06  0.00000000e+00  6.04829649e-06  1.80058983e+00  6.04829649e-06  6.19529906e-01  6.04829649e-06  7.43855293e-01  6.04829649e-06  1.06486685e+00                                 
 6.06951923e-06  6.89920239e-01  6.06951923e-06  6.19702149e-01  6.06951923e-06  7.94314761e-01  6.06951923e-06  0.00000000e+00  6.06951923e-06  1.79943235e+00  6.06951923e-06  6.19185833e-01  6.06951923e-06  7.93568321e-01  6.06951923e-06  9.29841925e-01                                 
 6.10209841e-06  6.89921942e-01  6.10209841e-06  6.19724323e-01  6.10209841e-06  8.61800524e-01  6.10209841e-06  0.00000000e+00  6.10209841e-06  1.80058275e+00  6.10209841e-06  6.19448008e-01  6.10209841e-06  8.61549225e-01  6.10209841e-06  8.50566015e-01                                 
 6.12914619e-06  6.89920241e-01  6.12914619e-06  6.19702334e-01  6.12914619e-06  9.09658851e-01  6.12914619e-06  0.00000000e+00  6.12914619e-06  1.79943290e+00  6.12914619e-06  6.19170974e-01  6.12914619e-06  9.08620251e-01  6.12914619e-06  8.84516403e-01                                 
 6.14660470e-06  6.89921940e-01  6.14660470e-06  6.19724723e-01  6.14660470e-06  9.37058073e-01  6.14660470e-06  0.00000000e+00  6.14660470e-06  1.80057878e+00  6.14660470e-06  6.19451997e-01  6.14660470e-06  9.36858150e-01  6.14660470e-06  9.12475494e-01                                 
 6.16493018e-06  6.89920244e-01  6.16493018e-06  6.19701857e-01  6.16493018e-06  9.63101535e-01  6.16493018e-06  0.00000000e+00  6.16493018e-06  1.79943719e+00  6.16493018e-06  6.19169288e-01  6.16493018e-06  9.61935745e-01  6.16493018e-06  9.39794003e-01                                 
 6.20158113e-06  6.89921938e-01  6.20158113e-06  6.19725067e-01  6.20158113e-06  1.00795185e+00  6.20158113e-06  0.00000000e+00  6.20158113e-06  1.80056992e+00  6.20158113e-06  6.19456359e-01  6.20158113e-06  1.00780455e+00  6.20158113e-06  9.88425061e-01                                 
