 time            v(vbep)         time            v(vben)         time            v(vout)         time            v(vphi1)        time            v(vphi2)        time            v(vref)         yes             currtemp       
 0.00000000e+00  6.96349755e-01  0.00000000e+00  6.42740375e-01  0.00000000e+00  4.73246979e-01  0.00000000e+00  0.00000000e+00  0.00000000e+00  1.79995634e+00  0.00000000e+00  6.42740375e-01  1.00000000e+00  2.00000000e+01 
 5.00000000e-12  6.96326118e-01  5.00000000e-12  6.42720739e-01  5.00000000e-12  4.73775445e-01  5.00000000e-12  1.80000000e-02  5.00000000e-12  1.80006236e+00  5.00000000e-12  6.42720739e-01                                 
 1.00000000e-11  6.96303000e-01  1.00000000e-11  6.42701574e-01  1.00000000e-11  4.74216631e-01  1.00000000e-11  3.60000000e-02  1.00000000e-11  1.80012298e+00  1.00000000e-11  6.42701574e-01                                 
 2.00000000e-11  6.96257062e-01  2.00000000e-11  6.42663375e-01  2.00000000e-11  4.74964728e-01  2.00000000e-11  7.20000000e-02  2.00000000e-11  1.80018705e+00  2.00000000e-11  6.42663375e-01                                 
 4.00000000e-11  6.96165706e-01  4.00000000e-11  6.42587243e-01  4.00000000e-11  4.75910982e-01  4.00000000e-11  1.44000000e-01  4.00000000e-11  1.80016864e+00  4.00000000e-11  6.42587243e-01                                 
 8.00000000e-11  6.95983786e-01  8.00000000e-11  6.42435573e-01  8.00000000e-11  4.76793285e-01  8.00000000e-11  2.88000000e-01  8.00000000e-11  1.80009309e+00  8.00000000e-11  6.42435573e-01                                 
 1.60000000e-10  6.95623344e-01  1.60000000e-10  6.42134607e-01  1.60000000e-10  4.77507860e-01  1.60000000e-10  5.76000000e-01  1.60000000e-10  1.80004351e+00  1.60000000e-10  6.42134607e-01                                 
 3.20000000e-10  6.94915328e-01  3.20000000e-10  6.41541858e-01  3.20000000e-10  4.70477192e-01  3.20000000e-10  1.15200000e+00  3.20000000e-10  1.80014781e+00  3.20000000e-10  6.41541858e-01                                 
 5.00000000e-10  6.94138655e-01  5.00000000e-10  6.40889171e-01  5.00000000e-10  6.44611571e-01  5.00000000e-10  1.80000000e+00  5.00000000e-10  1.45568140e-01  5.00000000e-10  6.40889171e-01                                 
 5.21238537e-10  6.94048510e-01  5.21238537e-10  6.40813236e-01  5.21238537e-10  6.86132088e-01  5.21238537e-10  1.80000000e+00  5.21238537e-10  3.26713217e-02  5.21238537e-10  6.40813236e-01                                 
 5.63715610e-10  6.93868762e-01  5.63715610e-10  6.40661751e-01  5.63715610e-10  7.63341597e-01  5.63715610e-10  1.80000000e+00  5.63715610e-10 -1.30971730e-02  5.63715610e-10  6.40661751e-01                                 
 6.48669757e-10  6.93512547e-01  6.48669757e-10  6.40361149e-01  6.48669757e-10  8.91522760e-01  6.48669757e-10  1.80000000e+00  6.48669757e-10  1.16205897e-02  6.48669757e-10  6.40361149e-01                                 
 7.66508893e-10  6.93025516e-01  7.66508893e-10  6.39949306e-01  7.66508893e-10  1.04111497e+00  7.66508893e-10  1.80000000e+00  7.66508893e-10 -8.83649499e-03  7.66508893e-10  6.39949306e-01                                 
 9.50808084e-10  6.92279650e-01  9.50808084e-10  6.39316708e-01  9.50808084e-10  1.24093601e+00  9.50808084e-10  1.80000000e+00  9.50808084e-10  9.11263530e-03  9.50808084e-10  6.39316708e-01                                 
 1.31940647e-09  6.90842270e-01  1.31940647e-09  6.38091362e-01  1.31940647e-09  1.53264352e+00  1.31940647e-09  1.80000000e+00  1.31940647e-09 -7.78237826e-03  1.31940647e-09  6.38091362e-01                                 
 1.86942061e-09  6.88820451e-01  1.86942061e-09  6.36354133e-01  1.86942061e-09  1.74881158e+00  1.86942061e-09  1.80000000e+00  1.86942061e-09  8.01758621e-03  1.86942061e-09  6.36354133e-01                                 
 2.18925469e-09  6.87707160e-01  2.18925469e-09  6.35390657e-01  2.18925469e-09  1.79159901e+00  2.18925469e-09  1.80000000e+00  2.18925469e-09 -7.36503350e-03  2.18925469e-09  6.35390657e-01                                 
 2.54411997e-09  6.86520027e-01  2.54411997e-09  6.34358162e-01  2.54411997e-09  1.81251604e+00  2.54411997e-09  1.80000000e+00  2.54411997e-09  7.10533653e-03  2.54411997e-09  6.34358162e-01                                 
 2.93616379e-09  6.85262806e-01  2.93616379e-09  6.33259085e-01  2.93616379e-09  1.82059796e+00  2.93616379e-09  1.80000000e+00  2.93616379e-09 -6.71380728e-03  2.93616379e-09  6.33259085e-01                                 
 3.58384341e-09  6.83297828e-01  3.58384341e-09  6.31530217e-01  3.58384341e-09  1.82367902e+00  3.58384341e-09  1.80000000e+00  3.58384341e-09  6.56820090e-03  3.58384341e-09  6.31530217e-01                                 
 4.36654714e-09  6.81088708e-01  4.36654714e-09  6.29570869e-01  4.36654714e-09  1.82177684e+00  4.36654714e-09  1.80000000e+00  4.36654714e-09 -6.38436174e-03  4.36654714e-09  6.29570869e-01                                 
 5.75954340e-09  6.77526601e-01  5.75954340e-09  6.26379519e-01  5.75954340e-09  1.81840499e+00  5.75954340e-09  1.80000000e+00  5.75954340e-09  6.32835224e-03  5.75954340e-09  6.26379519e-01                                 
 7.93504654e-09  6.72703799e-01  7.93504654e-09  6.22001191e-01  7.93504654e-09  1.81302785e+00  7.93504654e-09  1.80000000e+00  7.93504654e-09 -6.24823185e-03  7.93504654e-09  6.22001191e-01                                 
 1.22860528e-08  6.64857809e-01  1.22860528e-08  6.14765822e-01  1.22860528e-08  1.80398379e+00  1.22860528e-08  1.80000000e+00  1.22860528e-08  6.25161521e-03  1.22860528e-08  6.14765822e-01                                 
 1.47285536e-08  6.61222891e-01  1.47285536e-08  6.11370984e-01  1.47285536e-08  1.79900951e+00  1.47285536e-08  1.80000000e+00  1.47285536e-08 -6.17828331e-03  1.47285536e-08  6.11370984e-01                                 
 1.61394185e-08  6.59293915e-01  1.61394185e-08  6.09562630e-01  1.61394185e-08  1.79684856e+00  1.61394185e-08  1.80000000e+00  1.61394185e-08  6.12200004e-03  1.61394185e-08  6.09562630e-01                                 
 1.80171010e-08  6.56880534e-01  1.80171010e-08  6.07295726e-01  1.80171010e-08  1.79327894e+00  1.80171010e-08  1.80000000e+00  1.80171010e-08 -6.03878414e-03  1.80171010e-08  6.07295726e-01                                 
 1.97313828e-08  6.54809616e-01  1.97313828e-08  6.05347594e-01  1.97313828e-08  1.79055688e+00  1.97313828e-08  1.80000000e+00  1.97313828e-08  5.99669947e-03  1.97313828e-08  6.05347594e-01                                 
 2.24438603e-08  6.51744554e-01  2.24438603e-08  6.02461755e-01  2.24438603e-08  1.78530966e+00  2.24438603e-08  1.80000000e+00  2.24438603e-08 -5.93413294e-03  2.24438603e-08  6.02461755e-01                                 
 2.53839477e-08  6.48666786e-01  2.53839477e-08  5.99563342e-01  2.53839477e-08  1.77964728e+00  2.53839477e-08  1.80000000e+00  2.53839477e-08  5.91870795e-03  2.53839477e-08  5.99563342e-01                                 
 3.06727516e-08  6.43620313e-01  3.06727516e-08  5.94816207e-01  3.06727516e-08  1.76722911e+00  3.06727516e-08  1.80000000e+00  3.06727516e-08 -5.87693742e-03  3.06727516e-08  5.94816207e-01                                 
 3.60587838e-08  6.38997151e-01  3.60587838e-08  5.90477867e-01  3.60587838e-08  1.75550797e+00  3.60587838e-08  1.80000000e+00  3.60587838e-08  5.87847526e-03  3.60587838e-08  5.90477867e-01                                 
 4.68308483e-08  6.30869749e-01  4.68308483e-08  5.82883080e-01  4.68308483e-08  1.73268136e+00  4.68308483e-08  1.80000000e+00  4.68308483e-08 -5.84687603e-03  4.68308483e-08  5.82883080e-01                                 
 6.44966744e-08  6.20133804e-01  6.44966744e-08  5.72877514e-01  6.44966744e-08  1.69638699e+00  6.44966744e-08  1.80000000e+00  6.44966744e-08  5.86283862e-03  6.44966744e-08  5.72877514e-01                                 
 8.48922523e-08  6.12256100e-01  8.48922523e-08  5.65294570e-01  8.48922523e-08  1.66374441e+00  8.48922523e-08  1.80000000e+00  8.48922523e-08 -5.83462555e-03  8.48922523e-08  5.65294570e-01                                 
 1.08527445e-07  6.14572190e-01  1.08527445e-07  5.65856911e-01  1.08527445e-07  1.66627917e+00  1.08527445e-07  1.80000000e+00  1.08527445e-07  5.85595016e-03  1.08527445e-07  5.65856911e-01                                 
 1.25733744e-07  6.14650016e-01  1.25733744e-07  5.65142365e-01  1.25733744e-07  1.65081394e+00  1.25733744e-07  1.80000000e+00  1.25733744e-07 -5.82537662e-03  1.25733744e-07  5.65142365e-01                                 
 1.42800722e-07  6.09769246e-01  1.42800722e-07  5.60607443e-01  1.42800722e-07  1.62791595e+00  1.42800722e-07  1.80000000e+00  1.42800722e-07  5.84256996e-03  1.42800722e-07  5.60607443e-01                                 
 1.58082366e-07  6.06805139e-01  1.58082366e-07  5.57715820e-01  1.58082366e-07  1.60857384e+00  1.58082366e-07  1.80000000e+00  1.58082366e-07 -5.81205558e-03  1.58082366e-07  5.57715820e-01                                 
 1.74638146e-07  6.02530951e-01  1.74638146e-07  5.53793621e-01  1.74638146e-07  1.58981002e+00  1.74638146e-07  1.80000000e+00  1.74638146e-07  5.82927528e-03  1.74638146e-07  5.53793621e-01                                 
 2.03135921e-07  5.93691776e-01  2.03135921e-07  5.45971908e-01  2.03135921e-07  1.55179177e+00  2.03135921e-07  1.80000000e+00  2.03135921e-07 -5.80237074e-03  2.03135921e-07  5.45971908e-01                                 
 2.45034530e-07  5.81801508e-01  2.45034530e-07  5.35545154e-01  2.45034530e-07  1.50003447e+00  2.45034530e-07  1.80000000e+00  2.45034530e-07  5.82323257e-03  2.45034530e-07  5.35545154e-01                                 
 3.04506494e-07  5.65258846e-01  3.04506494e-07  5.21335078e-01  3.04506494e-07  1.42282808e+00  3.04506494e-07  1.80000000e+00  3.04506494e-07 -5.79808700e-03  3.04506494e-07  5.21335078e-01                                 
 4.23450422e-07  5.27290604e-01  4.23450422e-07  4.89859536e-01  4.23450422e-07  1.26699993e+00  4.23450422e-07  1.80000000e+00  4.23450422e-07  5.82056664e-03  4.23450422e-07  4.89859536e-01                                 
 4.48636895e-07  5.17751953e-01  4.48636895e-07  4.82136468e-01  4.48636895e-07  1.23119605e+00  4.48636895e-07  1.80000000e+00  4.48636895e-07  2.26684033e-07  4.48636895e-07  4.82136468e-01                                 
 4.99009841e-07  4.95903576e-01  4.99009841e-07  4.64528796e-01  4.99009841e-07  1.15810277e+00  4.99009841e-07  1.80000000e+00  4.99009841e-07 -1.98473272e-06  4.99009841e-07  4.64528796e-01                                 
 5.99755735e-07  6.95885550e-01  5.99755735e-07  6.39411012e-01  5.99755735e-07  1.24587126e+00  5.99755735e-07  1.80000000e+00  5.99755735e-07  7.78664853e-06  5.99755735e-07  6.39411012e-01                                 
 6.12227280e-07  7.29013183e-01  6.12227280e-07  6.73204266e-01  6.12227280e-07  1.26516678e+00  6.12227280e-07  1.80000000e+00  6.12227280e-07  4.87738339e-06  6.12227280e-07  6.73204266e-01                                 
 6.37170372e-07  7.65638561e-01  6.37170372e-07  7.09979006e-01  6.37170372e-07  1.27512027e+00  6.37170372e-07  1.80000000e+00  6.37170372e-07  4.93911908e-07  6.37170372e-07  7.09979006e-01                                 
 6.87056555e-07  7.96781534e-01  6.87056555e-07  7.38701243e-01  6.87056555e-07  1.25310489e+00  6.87056555e-07  1.80000000e+00  6.87056555e-07  1.44733531e-06  6.87056555e-07  7.38701243e-01                                 
 7.49405503e-07  8.04125303e-01  7.49405503e-07  7.45147435e-01  7.49405503e-07  1.19650778e+00  7.49405503e-07  1.80000000e+00  7.49405503e-07 -1.48072056e-06  7.49405503e-07  7.45147435e-01                                 
 8.18990310e-07  8.07740868e-01  8.18990310e-07  7.48203770e-01  8.18990310e-07  1.12719105e+00  8.18990310e-07  1.80000000e+00  8.18990310e-07  1.16259125e-06  8.18990310e-07  7.48203770e-01                                 
 8.27183986e-07  8.08298132e-01  8.27183986e-07  7.48688736e-01  8.27183986e-07  1.11947919e+00  8.27183986e-07  1.80000000e+00  8.27183986e-07 -9.04532841e-08  8.27183986e-07  7.48688736e-01                                 
 8.43571337e-07  8.09168015e-01  8.43571337e-07  7.49426917e-01  8.43571337e-07  1.10330462e+00  8.43571337e-07  1.80000000e+00  8.43571337e-07 -1.96322787e-07  8.43571337e-07  7.49426917e-01                                 
 8.76346040e-07  8.08460063e-01  8.76346040e-07  7.48835001e-01  8.76346040e-07  1.06839792e+00  8.76346040e-07  1.80000000e+00  8.76346040e-07 -3.76490626e-07  8.76346040e-07  7.48835001e-01                                 
 8.82769200e-07  8.06369134e-01  8.82769200e-07  7.47073974e-01  8.82769200e-07  1.05982744e+00  8.82769200e-07  1.80000000e+00  8.82769200e-07 -8.49646108e-07  8.82769200e-07  7.47073974e-01                                 
 8.95615521e-07  7.99343987e-01  8.95615521e-07  7.41029721e-01  8.95615521e-07  1.03994999e+00  8.95615521e-07  1.80000000e+00  8.95615521e-07 -1.70530206e-06  8.95615521e-07  7.41029721e-01                                 
 9.21308163e-07  7.85407490e-01  9.21308163e-07  7.28528870e-01  9.21308163e-07  1.00027320e+00  9.21308163e-07  1.80000000e+00  9.21308163e-07 -8.46719772e-07  9.21308163e-07  7.28528870e-01                                 
 9.55026631e-07  7.86496129e-01  9.55026631e-07  7.29486861e-01  9.55026631e-07  9.69108339e-01  9.55026631e-07  1.80000000e+00  9.55026631e-07  6.08955456e-07  9.55026631e-07  7.29486861e-01                                 
 1.00318253e-06  7.97562917e-01  1.00318253e-06  7.39412471e-01  1.00318253e-06  9.38467508e-01  1.00318253e-06  1.80000000e+00  1.00318253e-06  2.86820661e-08  1.00318253e-06  7.39412471e-01                                 
 1.06228981e-06  7.99553821e-01  1.06228981e-06  7.41174888e-01  1.06228981e-06  8.96071979e-01  1.06228981e-06  1.80000000e+00  1.06228981e-06 -2.62433827e-08  1.06228981e-06  7.41174888e-01                                 
 1.14295835e-06  7.91910501e-01  1.14295835e-06  7.34404983e-01  1.14295835e-06  8.37281223e-01  1.14295835e-06  1.80000000e+00  1.14295835e-06 -3.26047971e-07  1.14295835e-06  7.34404983e-01                                 
 1.25103766e-06  7.94806364e-01  1.25103766e-06  7.36976585e-01  1.25103766e-06  7.86531449e-01  1.25103766e-06  1.80000000e+00  1.25103766e-06  5.77426293e-07  1.25103766e-06  7.36976585e-01                                 
 1.37364834e-06  7.97961013e-01  1.37364834e-06  7.39776740e-01  1.37364834e-06  7.54587804e-01  1.37364834e-06  1.80000000e+00  1.37364834e-06 -1.53178264e-07  1.37364834e-06  7.39776740e-01                                 
 1.39824075e-06  7.95556908e-01  1.39824075e-06  7.37656044e-01  1.39824075e-06  7.48579289e-01  1.39824075e-06  1.80000000e+00  1.39824075e-06  3.54759213e-08  1.39824075e-06  7.37656044e-01                                 
 1.44742558e-06  7.93350468e-01  1.44742558e-06  7.35687225e-01  1.44742558e-06  7.39891258e-01  1.44742558e-06  1.80000000e+00  1.44742558e-06  2.40306383e-07  1.44742558e-06  7.35687225e-01                                 
 1.54579524e-06  7.96064614e-01  1.54579524e-06  7.38097470e-01  1.54579524e-06  7.33258489e-01  1.54579524e-06  1.80000000e+00  1.54579524e-06  3.26820580e-07  1.54579524e-06  7.38097470e-01                                 
 1.56454856e-06  7.96240121e-01  1.56454856e-06  7.38254606e-01  1.56454856e-06  7.32220121e-01  1.56454856e-06  1.80000000e+00  1.56454856e-06  2.60769830e-07  1.56454856e-06  7.38254606e-01                                 
 1.60205521e-06  7.95772204e-01  1.60205521e-06  7.37843024e-01  1.60205521e-06  7.29596722e-01  1.60205521e-06  1.80000000e+00  1.60205521e-06  1.85847515e-07  1.60205521e-06  7.37843024e-01                                 
 1.67706850e-06  7.94425872e-01  1.67706850e-06  7.36646172e-01  1.67706850e-06  7.32258882e-01  1.67706850e-06  1.80000000e+00  1.67706850e-06  3.19667408e-07  1.67706850e-06  7.36646172e-01                                 
 1.79044876e-06  7.95566156e-01  1.79044876e-06  7.37657334e-01  1.79044876e-06  7.40945967e-01  1.79044876e-06  1.80000000e+00  1.79044876e-06  2.88807115e-07  1.79044876e-06  7.37657334e-01                                 
 1.89294375e-06  7.95399900e-01  1.89294375e-06  7.37512528e-01  1.89294375e-06  7.37029447e-01  1.89294375e-06  1.80000000e+00  1.89294375e-06  2.07666442e-07  1.89294375e-06  7.37512528e-01                                 
 2.03821332e-06  7.94761648e-01  2.03821332e-06  7.36943732e-01  2.03821332e-06  7.36277191e-01  2.03821332e-06  1.80000000e+00  2.03821332e-06  3.07403064e-07  2.03821332e-06  7.36943732e-01                                 
 2.18330890e-06  7.95689762e-01  2.18330890e-06  7.37768202e-01  2.18330890e-06  7.38721304e-01  2.18330890e-06  1.80000000e+00  2.18330890e-06  2.50741801e-07  2.18330890e-06  7.37768202e-01                                 
 2.41195354e-06  7.94796678e-01  2.41195354e-06  7.36976035e-01  2.41195354e-06  7.36424813e-01  2.41195354e-06  1.80000000e+00  2.41195354e-06  2.60740333e-07  2.41195354e-06  7.36976035e-01                                 
 2.70571815e-06  7.95512986e-01  2.70571815e-06  7.37610850e-01  2.70571815e-06  7.38136366e-01  2.70571815e-06  1.80000000e+00  2.70571815e-06  2.79528097e-07  2.70571815e-06  7.37610850e-01                                 
 3.07830470e-06  7.94993079e-01  3.07830470e-06  7.37150909e-01  3.07830470e-06  7.36936935e-01  3.07830470e-06  1.80000000e+00  3.07830470e-06  2.43604572e-07  3.07830470e-06  7.37150909e-01                                 
 3.69101035e-06  7.95359230e-01  3.69101035e-06  7.37474299e-01  3.69101035e-06  7.37797656e-01  3.69101035e-06  1.80000000e+00  3.69101035e-06  2.88397420e-07  3.69101035e-06  7.37474299e-01                                 
 4.60127290e-06  7.95095098e-01  4.60127290e-06  7.37241572e-01  4.60127290e-06  7.37136806e-01  4.60127290e-06  1.80000000e+00  4.60127290e-06  2.39612278e-07  4.60127290e-06  7.37241572e-01                                 
 5.60127290e-06  7.95281274e-01  5.60127290e-06  7.37405102e-01  5.60127290e-06  7.37656522e-01  5.60127290e-06  1.80000000e+00  5.60127290e-06  2.90598895e-07  5.60127290e-06  7.37405102e-01                                 
 6.60127290e-06  7.95173872e-01  6.60127290e-06  7.37311623e-01  6.60127290e-06  7.37266255e-01  6.60127290e-06  1.80000000e+00  6.60127290e-06  2.38172140e-07  6.60127290e-06  7.37311623e-01                                 
 7.60127290e-06  7.95207960e-01  7.60127290e-06  7.37340065e-01  7.60127290e-06  7.37536511e-01  7.60127290e-06  1.80000000e+00  7.60127290e-06  2.91421520e-07  7.60127290e-06  7.37340065e-01                                 
 8.60127290e-06  7.95240279e-01  8.60127290e-06  7.37370431e-01  8.60127290e-06  7.37370490e-01  8.60127290e-06  1.80000000e+00  8.60127290e-06  2.37912622e-07  8.60127290e-06  7.37370431e-01                                 
 9.60127290e-06  7.95138229e-01  9.60127290e-06  7.37278182e-01  9.60127290e-06  7.37436458e-01  9.60127290e-06  1.80000000e+00  9.60127290e-06  2.91142420e-07  9.60127290e-06  7.37278182e-01                                 
 1.00005000e-05  7.95353479e-01  1.00005000e-05  7.37470870e-01  1.00005000e-05  7.37528022e-01  1.00005000e-05  1.80000000e+00  1.00005000e-05  2.39987810e-07  1.00005000e-05  7.37470870e-01                                 
 1.00005500e-05  7.95352795e-01  1.00005500e-05  7.37470241e-01  1.00005500e-05  7.30530218e-01  1.00005500e-05  1.62000000e+00  1.00005500e-05 -1.12596670e-04  1.00005500e-05  7.37470241e-01                                 
 1.00006500e-05  7.95351410e-01  1.00006500e-05  7.37468994e-01  1.00006500e-05  7.20486175e-01  1.00006500e-05  1.26000000e+00  1.00006500e-05 -5.95843396e-05  1.00006500e-05  7.37468994e-01                                 
