 time            v(vbep)         time            v(vben)         time            v(vout)         time            v(vphi1)        time            v(vphi2)        time            v(vref)         time            v(voutc)        time            v(voutcc)       yes             currtemp       
 0.00000000e+00  8.44109436e-01  0.00000000e+00  7.95808474e-01  0.00000000e+00  1.74394807e+00  0.00000000e+00  0.00000000e+00  0.00000000e+00  1.80000000e+00  0.00000000e+00  7.99771109e-01  0.00000000e+00  1.74394807e+00  0.00000000e+00  1.74868527e+00  1.00000000e+00 -2.10000000e+01 
 1.00000000e-11  8.44130669e-01  1.00000000e-11  7.95873449e-01  1.00000000e-11  1.74478068e+00  1.00000000e-11  1.80000000e-02  1.00000000e-11  1.80024254e+00  1.00000000e-11  8.00285214e-01  1.00000000e-11  1.74440471e+00  1.00000000e-11  1.74869848e+00                                 
 2.00000000e-11  8.44136683e-01  2.00000000e-11  7.95914580e-01  2.00000000e-11  1.74535509e+00  2.00000000e-11  3.60000000e-02  2.00000000e-11  1.80034552e+00  2.00000000e-11  8.00675857e-01  2.00000000e-11  1.74476581e+00  2.00000000e-11  1.74870486e+00                                 
 4.00000000e-11  8.44136743e-01  4.00000000e-11  7.95968588e-01  4.00000000e-11  1.74613938e+00  4.00000000e-11  7.20000000e-02  4.00000000e-11  1.80039641e+00  4.00000000e-11  8.01257452e-01  4.00000000e-11  1.74532962e+00  4.00000000e-11  1.74870943e+00                                 
 8.00000000e-11  8.44126006e-01  8.00000000e-11  7.96000614e-01  8.00000000e-11  1.74657094e+00  8.00000000e-11  1.44000000e-01  8.00000000e-11  1.80020932e+00  8.00000000e-11  8.01735559e-01  8.00000000e-11  1.74588890e+00  8.00000000e-11  1.74870045e+00                                 
 1.60000000e-10  8.44122641e-01  1.60000000e-10  7.95999604e-01  1.60000000e-10  1.74640848e+00  1.60000000e-10  2.88000000e-01  1.60000000e-10  1.80001915e+00  1.60000000e-10  8.01815299e-01  1.60000000e-10  1.74615603e+00  1.60000000e-10  1.74868677e+00                                 
 3.20000000e-10  8.44120436e-01  3.20000000e-10  7.95996811e-01  3.20000000e-10  1.74612854e+00  3.20000000e-10  5.76000000e-01  3.20000000e-10  1.80002559e+00  3.20000000e-10  8.01783847e-01  3.20000000e-10  1.74620680e+00  3.20000000e-10  1.74868417e+00                                 
 6.40000000e-10  8.44052007e-01  6.40000000e-10  7.95809249e-01  6.40000000e-10  1.73840777e+00  6.40000000e-10  1.15200000e+00  6.40000000e-10  1.81355667e+00  6.40000000e-10  8.01552764e-01  6.40000000e-10  1.75038005e+00  6.40000000e-10  1.74871042e+00                                 
 9.93417158e-10  8.44421218e-01  9.93417158e-10  7.95800768e-01  9.93417158e-10  1.70633502e+00  9.93417158e-10  1.78815088e+00  9.93417158e-10  7.35513615e-02  9.93417158e-10  8.00986018e-01  9.93417158e-10  1.73740114e+00  9.93417158e-10  1.74857683e+00                                 
 1.00000000e-09  8.44442107e-01  1.00000000e-09  7.95845287e-01  1.00000000e-09  1.70598456e+00  1.00000000e-09  1.80000000e+00  1.00000000e-09  3.34775086e-02  1.00000000e-09  8.01579292e-01  1.00000000e-09  1.73736138e+00  1.00000000e-09  1.74859590e+00                                 
 1.01316568e-09  8.44429597e-01  1.01316568e-09  7.95869513e-01  1.01316568e-09  1.70600268e+00  1.01316568e-09  1.80000000e+00  1.01316568e-09  1.37343846e-02  1.01316568e-09  8.02752470e-01  1.01316568e-09  1.73814328e+00  1.01316568e-09  1.74863989e+00                                 
 1.03949705e-09  8.44453031e-01  1.03949705e-09  7.95927209e-01  1.03949705e-09  1.70611480e+00  1.03949705e-09  1.80000000e+00  1.03949705e-09 -1.33687339e-03  1.03949705e-09  8.04575994e-01  1.03949705e-09  1.73957993e+00  1.03949705e-09  1.74869444e+00                                 
 1.09215978e-09  8.44597097e-01  1.09215978e-09  7.95930215e-01  1.09215978e-09  1.70442096e+00  1.09215978e-09  1.80000000e+00  1.09215978e-09  2.18558002e-03  1.09215978e-09  8.05493285e-01  1.09215978e-09  1.74047140e+00  1.09215978e-09  1.74868215e+00                                 
 1.19748525e-09  8.44795614e-01  1.19748525e-09  7.95835520e-01  1.19748525e-09  1.69831591e+00  1.19748525e-09  1.80000000e+00  1.19748525e-09 -7.32136212e-04  1.19748525e-09  8.05576592e-01  1.19748525e-09  1.74048969e+00  1.19748525e-09  1.74866863e+00                                 
 1.40813619e-09  8.44922317e-01  1.40813619e-09  7.95816867e-01  1.40813619e-09  1.69137506e+00  1.40813619e-09  1.80000000e+00  1.40813619e-09  1.05709788e-03  1.40813619e-09  8.06444475e-01  1.40813619e-09  1.74124395e+00  1.40813619e-09  1.74869229e+00                                 
 1.63421258e-09  8.44831901e-01  1.63421258e-09  7.95795496e-01  1.63421258e-09  1.69089880e+00  1.63421258e-09  1.80000000e+00  1.63421258e-09 -8.78000744e-04  1.63421258e-09  8.06199289e-01  1.63421258e-09  1.74100382e+00  1.63421258e-09  1.74867971e+00                                 
 1.88689094e-09  8.44662673e-01  1.88689094e-09  7.95802171e-01  1.88689094e-09  1.69315961e+00  1.88689094e-09  1.80000000e+00  1.88689094e-09  7.42569987e-04  1.88689094e-09  8.06083438e-01  1.88689094e-09  1.74093097e+00  1.88689094e-09  1.74869452e+00                                 
 2.17163943e-09  8.44488039e-01  2.17163943e-09  7.95792912e-01  2.17163943e-09  1.69573766e+00  2.17163943e-09  1.80000000e+00  2.17163943e-09 -7.28551415e-04  2.17163943e-09  8.05626031e-01  2.17163943e-09  1.74052094e+00  2.17163943e-09  1.74868452e+00                                 
 2.68962022e-09  8.44242646e-01  2.68962022e-09  7.95797538e-01  2.68962022e-09  1.70037660e+00  2.68962022e-09  1.80000000e+00  2.68962022e-09  6.30323900e-04  2.68962022e-09  8.05131925e-01  2.68962022e-09  1.74012528e+00  2.68962022e-09  1.74869251e+00                                 
 3.71115754e-09  8.44015558e-01  3.71115754e-09  7.95788956e-01  3.71115754e-09  1.70748921e+00  3.71115754e-09  1.80000000e+00  3.71115754e-09 -6.68986822e-04  3.71115754e-09  8.03930459e-01  3.71115754e-09  1.73909053e+00  3.71115754e-09  1.74867143e+00                                 
 5.75423219e-09  8.43968598e-01  5.75423219e-09  7.95797455e-01  5.75423219e-09  1.71679003e+00  5.75423219e-09  1.80000000e+00  5.75423219e-09  6.09646420e-04  5.75423219e-09  8.02285652e-01  5.75423219e-09  1.73772344e+00  5.75423219e-09  1.74862534e+00                                 
 9.14897252e-09  8.44062673e-01  9.14897252e-09  7.95799196e-01  9.14897252e-09  1.72239127e+00  9.14897252e-09  1.80000000e+00  9.14897252e-09 -6.44750578e-04  9.14897252e-09  8.00463272e-01  9.14897252e-09  1.73616532e+00  9.14897252e-09  1.74845461e+00                                 
 1.19372789e-08  8.44074672e-01  1.19372789e-08  7.95809018e-01  1.19372789e-08  1.72276014e+00  1.19372789e-08  1.80000000e+00  1.19372789e-08  6.06713551e-04  1.19372789e-08  7.99904465e-01  1.19372789e-08  1.73571163e+00  1.19372789e-08  1.74828207e+00                                 
 1.49829131e-08  8.44089251e-01  1.49829131e-08  7.95804526e-01  1.49829131e-08  1.72161796e+00  1.49829131e-08  1.80000000e+00  1.49829131e-08 -6.26714484e-04  1.49829131e-08  7.99461354e-01  1.49829131e-08  1.73531303e+00  1.49829131e-08  1.74805175e+00                                 
 1.82774921e-08  8.44084750e-01  1.82774921e-08  7.95811321e-01  1.82774921e-08  1.72075779e+00  1.82774921e-08  1.80000000e+00  1.82774921e-08  6.03029410e-04  1.82774921e-08  7.99405789e-01  1.82774921e-08  1.73527808e+00  1.82774921e-08  1.74780880e+00                                 
 2.31575315e-08  8.44089755e-01  2.31575315e-08  7.95805538e-01  2.31575315e-08  1.71954509e+00  2.31575315e-08  1.80000000e+00  2.31575315e-08 -6.09050168e-04  2.31575315e-08  7.99251784e-01  2.31575315e-08  1.73511445e+00  2.31575315e-08  1.74742974e+00                                 
 2.91553468e-08  8.44101120e-01  2.91553468e-08  7.95811547e-01  2.91553468e-08  1.71610148e+00  2.91553468e-08  1.80000000e+00  2.91553468e-08  6.02193162e-04  2.91553468e-08  7.99371834e-01  2.91553468e-08  1.73521637e+00  2.91553468e-08  1.74699831e+00                                 
 3.82877414e-08  8.44111934e-01  3.82877414e-08  7.95805605e-01  3.82877414e-08  1.70742007e+00  3.82877414e-08  1.80000000e+00  3.82877414e-08 -6.02346018e-04  3.82877414e-08  7.99343989e-01  3.82877414e-08  1.73514683e+00  3.82877414e-08  1.74636690e+00                                 
 5.16094263e-08  8.44109955e-01  5.16094263e-08  7.95811535e-01  5.16094263e-08  1.69290272e+00  5.16094263e-08  1.80000000e+00  5.16094263e-08  5.99509621e-04  5.16094263e-08  7.99525999e-01  5.16094263e-08  1.73528740e+00  5.16094263e-08  1.74555990e+00                                 
 7.12553380e-08  8.44112259e-01  7.12553380e-08  7.95805562e-01  7.12553380e-08  1.66964437e+00  7.12553380e-08  1.80000000e+00  7.12553380e-08 -6.00353721e-04  7.12553380e-08  7.99524710e-01  7.12553380e-08  1.73523119e+00  7.12553380e-08  1.74453191e+00                                 
 1.09562540e-07  8.44108301e-01  1.09562540e-07  7.95811458e-01  1.09562540e-07  1.62085325e+00  1.09562540e-07  1.80000000e+00  1.09562540e-07  5.98042862e-04  1.09562540e-07  7.99726776e-01  1.09562540e-07  1.73537585e+00  1.09562540e-07  1.74304652e+00                                 
 1.86176945e-07  8.44111249e-01  1.86176945e-07  7.95805515e-01  1.86176945e-07  1.51816870e+00  1.86176945e-07  1.80000000e+00  1.86176945e-07 -5.99796092e-04  1.86176945e-07  7.99710112e-01  1.86176945e-07  1.73529888e+00  1.86176945e-07  1.74133827e+00                                 
 3.39405754e-07  8.44107705e-01  3.39405754e-07  7.95811435e-01  3.39405754e-07  1.31422003e+00  3.39405754e-07  1.80000000e+00  3.39405754e-07  5.97754009e-04  3.39405754e-07  7.99820920e-01  3.39405754e-07  1.73538269e+00  3.39405754e-07  1.74023398e+00                                 
 6.05037235e-07  8.44111168e-01  6.05037235e-07  7.95805513e-01  6.05037235e-07  9.75617178e-01  6.05037235e-07  1.80000000e+00  6.05037235e-07 -5.99382856e-04  6.05037235e-07  7.99722630e-01  6.05037235e-07  1.73526519e+00  6.05037235e-07  1.74006829e+00                                 
 8.57233050e-07  8.44107720e-01  8.57233050e-07  7.95811435e-01  8.57233050e-07  8.07535322e-01  8.57233050e-07  1.80000000e+00  8.57233050e-07  5.98823178e-04  8.57233050e-07  7.99818627e-01  8.57233050e-07  1.73535478e+00  8.57233050e-07  1.74008765e+00                                 
 1.06115361e-06  8.44111149e-01  1.06115361e-06  7.95805516e-01  1.06115361e-06  8.02449078e-01  1.06115361e-06  1.80000000e+00  1.06115361e-06 -5.98473868e-04  1.06115361e-06  7.99724781e-01  1.06115361e-06  1.73524725e+00  1.06115361e-06  1.74006892e+00                                 
 1.16787258e-06  8.44107615e-01  1.16787258e-06  7.95811418e-01  1.16787258e-06  8.03985841e-01  1.16787258e-06  1.80000000e+00  1.16787258e-06  5.99158405e-04  1.16787258e-06  7.99817042e-01  1.16787258e-06  1.73533976e+00  1.16787258e-06  1.74007156e+00                                 
 1.27467097e-06  8.44111362e-01  1.27467097e-06  7.95805543e-01  1.27467097e-06  8.03537666e-01  1.27467097e-06  1.80000000e+00  1.27467097e-06 -5.98161553e-04  1.27467097e-06  7.99725088e-01  1.27467097e-06  1.73523819e+00  1.27467097e-06  1.74005909e+00                                 
 1.42567258e-06  8.44107454e-01  1.42567258e-06  7.95811397e-01  1.42567258e-06  8.03989536e-01  1.42567258e-06  1.80000000e+00  1.42567258e-06  5.98335773e-04  1.42567258e-06  7.99817205e-01  1.42567258e-06  1.73532862e+00  1.42567258e-06  1.74006037e+00                                 
 1.57951474e-06  8.44111463e-01  1.57951474e-06  7.95805558e-01  1.57951474e-06  8.03654505e-01  1.57951474e-06  1.80000000e+00  1.57951474e-06 -5.97941998e-04  1.57951474e-06  7.99724938e-01  1.57951474e-06  1.73522473e+00  1.57951474e-06  1.74004585e+00                                 
 1.80306511e-06  8.44107384e-01  1.80306511e-06  7.95811387e-01  1.80306511e-06  8.03946200e-01  1.80306511e-06  1.80000000e+00  1.80306511e-06  5.98152623e-04  1.80306511e-06  7.99817305e-01  1.80306511e-06  1.73531218e+00  1.80306511e-06  1.74004390e+00                                 
 2.07910255e-06  8.44111505e-01  2.07910255e-06  7.95805565e-01  2.07910255e-06  8.03674930e-01  2.07910255e-06  1.80000000e+00  2.07910255e-06 -5.97807526e-04  2.07910255e-06  7.99724876e-01  2.07910255e-06  1.73520281e+00  2.07910255e-06  1.74002407e+00                                 
 2.45286004e-06  8.44107354e-01  2.45286004e-06  7.95811381e-01  2.45286004e-06  8.03932001e-01  2.45286004e-06  1.80000000e+00  2.45286004e-06  5.98048235e-04  2.45286004e-06  7.99817347e-01  2.45286004e-06  1.73528375e+00  2.45286004e-06  1.74001554e+00                                 
 2.97295726e-06  8.44111525e-01  2.97295726e-06  7.95805569e-01  2.97295726e-06  8.03684069e-01  2.97295726e-06  1.80000000e+00  2.97295726e-06 -5.97731529e-04  2.97295726e-06  7.99724849e-01  2.97295726e-06  1.73516365e+00  2.97295726e-06  1.73998508e+00                                 
 3.74538599e-06  8.44107344e-01  3.74538599e-06  7.95811379e-01  3.74538599e-06  8.03925748e-01  3.74538599e-06  1.80000000e+00  3.74538599e-06  5.97995097e-04  3.74538599e-06  7.99817366e-01  3.74538599e-06  1.73522720e+00  3.74538599e-06  1.73995918e+00                                 
 4.94538599e-06  8.44111532e-01  4.94538599e-06  7.95805570e-01  4.94538599e-06  8.03687931e-01  4.94538599e-06  1.80000000e+00  4.94538599e-06 -5.97696440e-04  4.94538599e-06  7.99724837e-01  4.94538599e-06  1.73507732e+00  4.94538599e-06  1.73989907e+00                                 
 6.00100000e-06  8.44107338e-01  6.00100000e-06  7.95811378e-01  6.00100000e-06  8.03916982e-01  6.00100000e-06  1.80000000e+00  6.00100000e-06  5.99052779e-04  6.00100000e-06  7.99817446e-01  6.00100000e-06  1.73512861e+00  6.00100000e-06  1.73986083e+00                                 
 6.00110000e-06  8.44079812e-01  6.00110000e-06  7.95592238e-01  6.00110000e-06  8.01773141e-01  6.00110000e-06  1.62000000e+00  6.00110000e-06 -5.60922657e-05  6.00110000e-06  7.97879561e-01  6.00110000e-06  1.73348429e+00  6.00110000e-06  1.73984143e+00                                 
 6.00130000e-06  8.44108368e-01  6.00130000e-06  7.95658583e-01  6.00130000e-06  8.02544611e-01  6.00130000e-06  1.26000000e+00  6.00130000e-06  1.60402752e-05  6.00130000e-06  7.98249133e-01  6.00130000e-06  1.73379795e+00  6.00130000e-06  1.73986570e+00                                 
 6.00170000e-06  8.44134267e-01  6.00170000e-06  7.95701204e-01  6.00170000e-06  8.03671599e-01  6.00170000e-06  5.40000000e-01  6.00170000e-06  1.05531234e-02  6.00170000e-06  7.97453773e-01  6.00170000e-06  1.72778720e+00  6.00170000e-06  1.73981507e+00                                 
 6.00200000e-06  8.44106432e-01  6.00200000e-06  7.93373389e-01  6.00200000e-06  8.53938313e-01  6.00200000e-06  0.00000000e+00  6.00200000e-06  1.58390183e+00  6.00200000e-06  7.67061364e-01  6.00200000e-06  1.52148438e+00  6.00200000e-06  1.73889546e+00                                 
 6.00205117e-06  8.44112737e-01  6.00205117e-06  7.93352335e-01  6.00205117e-06  8.51998066e-01  6.00205117e-06  0.00000000e+00  6.00205117e-06  1.73046488e+00  6.00205117e-06  7.66421258e-01  6.00205117e-06  1.46236028e+00  6.00205117e-06  1.73919343e+00                                 
 6.00215350e-06  8.44108342e-01  6.00215350e-06  7.93567819e-01  6.00215350e-06  8.41921102e-01  6.00215350e-06  0.00000000e+00  6.00215350e-06  1.82038608e+00  6.00215350e-06  7.68856289e-01  6.00215350e-06  1.35132685e+00  6.00215350e-06  1.73973326e+00                                 
 6.00230781e-06  8.44108340e-01  6.00230781e-06  7.94289924e-01  6.00230781e-06  8.28360718e-01  6.00230781e-06  0.00000000e+00  6.00230781e-06  1.78720034e+00  6.00230781e-06  7.77742978e-01  6.00230781e-06  1.23090428e+00  6.00230781e-06  1.73987362e+00                                 
 6.00247756e-06  8.44109325e-01  6.00247756e-06  7.94615030e-01  6.00247756e-06  8.24944381e-01  6.00247756e-06  0.00000000e+00  6.00247756e-06  1.80610413e+00  6.00247756e-06  7.81422081e-01  6.00247756e-06  1.14300983e+00  6.00247756e-06  1.73994118e+00                                 
 6.00275268e-06  8.44107649e-01  6.00275268e-06  7.94985970e-01  6.00275268e-06  8.18382238e-01  6.00275268e-06  0.00000000e+00  6.00275268e-06  1.79506671e+00  6.00275268e-06  7.85314624e-01  6.00275268e-06  1.03998918e+00  6.00275268e-06  1.74002148e+00                                 
 6.00300133e-06  8.44109656e-01  6.00300133e-06  7.95281162e-01  6.00300133e-06  8.16641439e-01  6.00300133e-06  0.00000000e+00  6.00300133e-06  1.80296542e+00  6.00300133e-06  7.88393985e-01  6.00300133e-06  9.71807489e-01  6.00300133e-06  1.74010584e+00                                 
 6.00349863e-06  8.44107862e-01  6.00349863e-06  7.95635401e-01  6.00349863e-06  8.11870906e-01  6.00349863e-06  0.00000000e+00  6.00349863e-06  1.79709150e+00  6.00349863e-06  7.91835885e-01  6.00349863e-06  8.67828543e-01  6.00349863e-06  1.74015663e+00                                 
 6.00406074e-06  8.44110124e-01  6.00406074e-06  7.96130406e-01  6.00406074e-06  8.06343423e-01  6.00406074e-06  0.00000000e+00  6.00406074e-06  1.80219880e+00  6.00406074e-06  7.97711986e-01  6.00406074e-06  8.16939417e-01  6.00406074e-06  1.74010900e+00                                 
 6.00459012e-06  8.44108197e-01  6.00459012e-06  7.96227397e-01  6.00459012e-06  8.04387795e-01  6.00459012e-06  0.00000000e+00  6.00459012e-06  1.79813763e+00  6.00459012e-06  7.99094664e-01  6.00459012e-06  8.05742343e-01  6.00459012e-06  1.73989730e+00                                 
 6.00518455e-06  8.44110353e-01  6.00518455e-06  7.96268503e-01  6.00518455e-06  8.04158086e-01  6.00518455e-06  0.00000000e+00  6.00518455e-06  1.80159076e+00  6.00518455e-06  8.00299779e-01  6.00518455e-06  8.04636120e-01  6.00518455e-06  1.73955554e+00                                 
 6.00585459e-06  8.44108390e-01  6.00585459e-06  7.96160487e-01  6.00585459e-06  8.04370352e-01  6.00585459e-06  0.00000000e+00  6.00585459e-06  1.79862300e+00  6.00585459e-06  7.99921959e-01  6.00585459e-06  8.04065391e-01  6.00585459e-06  1.73904813e+00                                 
 6.00708570e-06  8.44110436e-01  6.00708570e-06  7.96080048e-01  6.00708570e-06  8.05069023e-01  6.00708570e-06  0.00000000e+00  6.00708570e-06  1.80127771e+00  6.00708570e-06  8.00529719e-01  6.00708570e-06  8.05160552e-01  6.00708570e-06  1.73803191e+00                                 
 6.00954792e-06  8.44108452e-01  6.00954792e-06  7.95904541e-01  6.00954792e-06  8.06686587e-01  6.00954792e-06  0.00000000e+00  6.00954792e-06  1.79877464e+00  6.00954792e-06  8.00148751e-01  6.00954792e-06  8.06290996e-01  6.00954792e-06  1.73581504e+00                                 
 6.01447237e-06  8.44110429e-01  6.01447237e-06  7.95857201e-01  6.01447237e-06  8.10391390e-01  6.01447237e-06  0.00000000e+00  6.01447237e-06  1.80120595e+00  6.01447237e-06  8.00626948e-01  6.01447237e-06  8.10413829e-01  6.01447237e-06  1.73134028e+00                                 
 6.02432125e-06  8.44108450e-01  6.02432125e-06  7.95789794e-01  6.02432125e-06  8.18225438e-01  6.02432125e-06  0.00000000e+00  6.02432125e-06  1.79881000e+00  6.02432125e-06  8.00069308e-01  6.02432125e-06  8.17752810e-01  6.02432125e-06  1.72235183e+00                                 
 6.04252258e-06  8.44110425e-01  6.04252258e-06  7.95820531e-01  6.04252258e-06  8.32531306e-01  6.04252258e-06  0.00000000e+00  6.04252258e-06  1.80118805e+00  6.04252258e-06  8.00359940e-01  6.04252258e-06  8.32557261e-01  6.04252258e-06  1.70482053e+00                                 
 6.07706073e-06  8.44108450e-01  6.07706073e-06  7.95791851e-01  6.07706073e-06  8.58061009e-01  6.07706073e-06  0.00000000e+00  6.07706073e-06  1.79881906e+00  6.07706073e-06  7.99726125e-01  6.07706073e-06  8.57368140e-01  6.07706073e-06  1.66782830e+00                                 
