 time            v(vbep)         time            v(vben)         time            v(vout)         time            v(vphi1)        time            v(vphi2)        time            v(vref)         time            v(voutc)        time            v(voutcc)       yes             currtemp       
 0.00000000e+00  7.69125447e-01  0.00000000e+00  7.10176921e-01  0.00000000e+00  1.59491189e+00  0.00000000e+00  0.00000000e+00  0.00000000e+00  1.80000000e+00  0.00000000e+00  7.12542147e-01  0.00000000e+00  1.59491188e+00  0.00000000e+00  1.60135340e+00  1.00000000e+00  3.00000000e+01 
 1.00000000e-11  7.69150370e-01  1.00000000e-11  7.10248090e-01  1.00000000e-11  1.59569786e+00  1.00000000e-11  1.80000000e-02  1.00000000e-11  1.80025057e+00  1.00000000e-11  7.13072167e-01  1.00000000e-11  1.59538111e+00  1.00000000e-11  1.60136731e+00                                 
 2.00000000e-11  7.69157188e-01  2.00000000e-11  7.10292804e-01  2.00000000e-11  1.59618671e+00  2.00000000e-11  3.60000000e-02  2.00000000e-11  1.80035064e+00  2.00000000e-11  7.13466490e-01  2.00000000e-11  1.59573779e+00  2.00000000e-11  1.60137266e+00                                 
 4.00000000e-11  7.69157080e-01  4.00000000e-11  7.10351789e-01  4.00000000e-11  1.59678320e+00  4.00000000e-11  7.20000000e-02  4.00000000e-11  1.80038997e+00  4.00000000e-11  7.14043596e-01  4.00000000e-11  1.59627168e+00  4.00000000e-11  1.60137465e+00                                 
 8.00000000e-11  7.69145140e-01  8.00000000e-11  7.10389753e-01  8.00000000e-11  1.59692667e+00  8.00000000e-11  1.44000000e-01  8.00000000e-11  1.80018723e+00  8.00000000e-11  7.14489999e-01  8.00000000e-11  1.59671392e+00  8.00000000e-11  1.60136402e+00                                 
 1.60000000e-10  7.69142153e-01  1.60000000e-10  7.10400090e-01  1.60000000e-10  1.59659937e+00  1.60000000e-10  2.88000000e-01  1.60000000e-10  1.80000399e+00  1.60000000e-10  7.14554563e-01  1.60000000e-10  1.59677593e+00  1.60000000e-10  1.60135414e+00                                 
 3.20000000e-10  7.69138520e-01  3.20000000e-10  7.10400989e-01  3.20000000e-10  1.59624214e+00  3.20000000e-10  5.76000000e-01  3.20000000e-10  1.79999440e+00  3.20000000e-10  7.14430408e-01  3.20000000e-10  1.59651057e+00  3.20000000e-10  1.60135041e+00                                 
 6.40000000e-10  7.69057064e-01  6.40000000e-10  7.10051482e-01  6.40000000e-10  1.59358351e+00  6.40000000e-10  1.15200000e+00  6.40000000e-10  1.81209513e+00  6.40000000e-10  7.12537874e-01  6.40000000e-10  1.60143371e+00  6.40000000e-10  1.60137951e+00                                 
 1.00000000e-09  7.69687878e-01  1.00000000e-09  7.10258955e-01  1.00000000e-09  1.56738448e+00  1.00000000e-09  1.80000000e+00  1.00000000e-09  8.94747098e-02  1.00000000e-09  7.21786053e-01  1.00000000e-09  1.59950539e+00  1.00000000e-09  1.60132676e+00                                 
 1.03627692e-09  7.69705509e-01  1.03627692e-09  7.10300641e-01  1.03627692e-09  1.56670614e+00  1.03627692e-09  1.80000000e+00  1.03627692e-09  1.96746993e-02  1.03627692e-09  7.24581986e-01  1.03627692e-09  1.60101326e+00  1.03627692e-09  1.60136915e+00                                 
 1.10883075e-09  7.69781209e-01  1.10883075e-09  7.10374152e-01  1.10883075e-09  1.56651868e+00  1.10883075e-09  1.80000000e+00  1.10883075e-09 -9.45245691e-03  1.10883075e-09  7.28201832e-01  1.10883075e-09  1.60383012e+00  1.10883075e-09  1.60139965e+00                                 
 1.25393841e-09  7.69901776e-01  1.25393841e-09  7.10247625e-01  1.25393841e-09  1.56474869e+00  1.25393841e-09  1.80000000e+00  1.25393841e-09  8.09080947e-03  1.25393841e-09  7.28427838e-01  1.25393841e-09  1.60426321e+00  1.25393841e-09  1.60135384e+00                                 
 1.47859781e-09  7.69906514e-01  1.47859781e-09  7.10220910e-01  1.47859781e-09  1.56348744e+00  1.47859781e-09  1.80000000e+00  1.47859781e-09 -6.36435083e-03  1.47859781e-09  7.28009190e-01  1.47859781e-09  1.60370370e+00  1.47859781e-09  1.60138600e+00                                 
 1.71652019e-09  7.69813897e-01  1.71652019e-09  7.10215085e-01  1.71652019e-09  1.56346218e+00  1.71652019e-09  1.80000000e+00  1.71652019e-09  5.53723124e-03  1.71652019e-09  7.26765559e-01  1.71652019e-09  1.60282155e+00  1.71652019e-09  1.60138544e+00                                 
 2.06994584e-09  7.69575953e-01  2.06994584e-09  7.10173522e-01  2.06994584e-09  1.56397477e+00  2.06994584e-09  1.80000000e+00  2.06994584e-09 -5.00912735e-03  2.06994584e-09  7.24968371e-01  2.06994584e-09  1.60113350e+00  2.06994584e-09  1.60144902e+00                                 
 2.44130380e-09  7.69383908e-01  2.44130380e-09  7.10179990e-01  2.44130380e-09  1.56484191e+00  2.44130380e-09  1.80000000e+00  2.44130380e-09  4.44876929e-03  2.44130380e-09  7.23395362e-01  2.44130380e-09  1.59993438e+00  2.44130380e-09  1.60149693e+00                                 
 3.06823979e-09  7.69163967e-01  3.06823979e-09  7.10139925e-01  3.06823979e-09  1.56511269e+00  3.06823979e-09  1.80000000e+00  3.06823979e-09 -4.28051567e-03  3.06823979e-09  7.20647264e-01  3.06823979e-09  1.59745868e+00  3.06823979e-09  1.60160354e+00                                 
 4.04797757e-09  7.69045393e-01  4.04797757e-09  7.10158855e-01  4.04797757e-09  1.56506007e+00  4.04797757e-09  1.80000000e+00  4.04797757e-09  4.03589894e-03  4.04797757e-09  7.17627199e-01  4.04797757e-09  1.59501036e+00  4.04797757e-09  1.60171467e+00                                 
 6.00745311e-09  7.68976852e-01  6.00745311e-09  7.10142736e-01  6.00745311e-09  1.56299114e+00  6.00745311e-09  1.80000000e+00  6.00745311e-09 -4.02572664e-03  6.00745311e-09  7.13465457e-01  6.00745311e-09  1.59134399e+00  6.00745311e-09  1.60178572e+00                                 
 7.64770617e-09  7.68967280e-01  7.64770617e-09  7.10178770e-01  7.64770617e-09  1.56179810e+00  7.64770617e-09  1.80000000e+00  7.64770617e-09  3.90560310e-03  7.64770617e-09  7.12120084e-01  7.64770617e-09  1.59032113e+00  7.64770617e-09  1.60168069e+00                                 
 9.20401286e-09  7.68980938e-01  9.20401286e-09  7.10157571e-01  9.20401286e-09  1.55911471e+00  9.20401286e-09  1.80000000e+00  9.20401286e-09 -3.82960995e-03  9.20401286e-09  7.11217751e-01  9.20401286e-09  1.58943379e+00  9.20401286e-09  1.60151077e+00                                 
 1.08724562e-08  7.69020159e-01  1.08724562e-08  7.10186536e-01  1.08724562e-08  1.55553646e+00  1.08724562e-08  1.80000000e+00  1.08724562e-08  3.74076718e-03  1.08724562e-08  7.11117534e-01  1.08724562e-08  1.58946050e+00  1.08724562e-08  1.60127857e+00                                 
 1.32182180e-08  7.69061267e-01  1.32182180e-08  7.10162133e-01  1.32182180e-08  1.54801085e+00  1.32182180e-08  1.80000000e+00  1.32182180e-08 -3.68482018e-03  1.32182180e-08  7.10816692e-01  1.32182180e-08  1.58908053e+00  1.32182180e-08  1.60094226e+00                                 
 1.60760700e-08  7.69104910e-01  1.60760700e-08  7.10189414e-01  1.60760700e-08  1.53766455e+00  1.60760700e-08  1.80000000e+00  1.60760700e-08  3.64014554e-03  1.60760700e-08  7.11153733e-01  1.60760700e-08  1.58946488e+00  1.60760700e-08  1.60053747e+00                                 
 2.00570870e-08  7.69125072e-01  2.00570870e-08  7.10163950e-01  2.00570870e-08  1.52105565e+00  2.00570870e-08  1.80000000e+00  2.00570870e-08 -3.60424308e-03  2.00570870e-08  7.11186418e-01  2.00570870e-08  1.58936012e+00  2.00570870e-08  1.60003863e+00                                 
 2.54408123e-08  7.69137456e-01  2.54408123e-08  7.10190432e-01  2.54408123e-08  1.49819662e+00  2.54408123e-08  1.80000000e+00  2.54408123e-08  3.58364886e-03  2.54408123e-08  7.11717049e-01  2.54408123e-08  1.58989870e+00  2.54408123e-08  1.59946884e+00                                 
 3.45983242e-08  7.69130412e-01  3.45983242e-08  7.10164112e-01  3.45983242e-08  1.45794412e+00  3.45983242e-08  1.80000000e+00  3.45983242e-08 -3.56613236e-03  3.45983242e-08  7.11865858e-01  3.45983242e-08  1.58988749e+00  3.45983242e-08  1.59874353e+00                                 
 4.83539057e-08  7.69131311e-01  4.83539057e-08  7.10190118e-01  4.83539057e-08  1.39785656e+00  4.83539057e-08  1.80000000e+00  4.83539057e-08  3.56004800e-03  4.83539057e-08  7.12393309e-01  4.83539057e-08  1.59042377e+00  4.83539057e-08  1.59803384e+00                                 
 7.58650686e-08  7.69123891e-01  7.58650686e-08  7.10163824e-01  7.58650686e-08  1.27706233e+00  7.58650686e-08  1.80000000e+00  7.58650686e-08 -3.55218179e-03  7.58650686e-08  7.12392381e-01  7.58650686e-08  1.59029571e+00  7.58650686e-08  1.59733997e+00                                 
 1.20362665e-07  7.69127768e-01  1.20362665e-07  7.10190012e-01  1.20362665e-07  1.08417031e+00  1.20362665e-07  1.80000000e+00  1.20362665e-07  3.55276808e-03  1.20362665e-07  7.12656501e-01  1.20362665e-07  1.59062303e+00  1.20362665e-07  1.59700175e+00                                 
 1.82974338e-07  7.69122987e-01  1.82974338e-07  7.10163798e-01  1.82974338e-07  8.32928885e-01  1.82974338e-07  1.80000000e+00  1.82974338e-07 -3.54582229e-03  1.82974338e-07  7.12428219e-01  1.82974338e-07  1.59031482e+00  1.82974338e-07  1.59692359e+00                                 
 2.41828166e-07  7.69128905e-01  2.41828166e-07  7.10190086e-01  2.41828166e-07  7.16487681e-01  2.41828166e-07  1.80000000e+00  2.41828166e-07  3.55314319e-03  2.41828166e-07  7.12655588e-01  2.41828166e-07  1.59061532e+00  2.41828166e-07  1.59691302e+00                                 
 2.95088958e-07  7.69121033e-01  2.95088958e-07  7.10163749e-01  2.95088958e-07  7.14391545e-01  2.95088958e-07  1.80000000e+00  2.95088958e-07 -3.53880303e-03  2.95088958e-07  7.12432327e-01  2.95088958e-07  1.59031390e+00  2.95088958e-07  1.59691439e+00                                 
 3.20971526e-07  7.69129484e-01  3.20971526e-07  7.10189975e-01  3.20971526e-07  7.15174766e-01  3.20971526e-07  1.80000000e+00  3.20971526e-07  3.54613092e-03  3.20971526e-07  7.12651840e-01  3.20971526e-07  1.59060913e+00  3.20971526e-07  1.59691040e+00                                 
 3.58133299e-07  7.69121710e-01  3.58133299e-07  7.10163903e-01  3.58133299e-07  7.14710808e-01  3.58133299e-07  1.80000000e+00  3.58133299e-07 -3.53079188e-03  3.58133299e-07  7.12431809e-01  3.58133299e-07  1.59031121e+00  3.58133299e-07  1.59691060e+00                                 
 4.32456844e-07  7.69129085e-01  4.32456844e-07  7.10189917e-01  4.32456844e-07  7.15180681e-01  4.32456844e-07  1.80000000e+00  4.32456844e-07  3.54116551e-03  4.32456844e-07  7.12652611e-01  4.32456844e-07  1.59060559e+00  4.32456844e-07  1.59690567e+00                                 
 5.59414386e-07  7.69121862e-01  5.59414386e-07  7.10163920e-01  5.59414386e-07  7.14727424e-01  5.59414386e-07  1.80000000e+00  5.59414386e-07 -3.52818290e-03  5.59414386e-07  7.12431556e-01  5.59414386e-07  1.59030364e+00  5.59414386e-07  1.59690310e+00                                 
 8.13329470e-07  7.69129008e-01  8.13329470e-07  7.10189911e-01  8.13329470e-07  7.15172054e-01  8.13329470e-07  1.80000000e+00  8.13329470e-07  3.53971446e-03  8.13329470e-07  7.12652737e-01  8.13329470e-07  1.59059166e+00  8.13329470e-07  1.59689167e+00                                 
 1.32115964e-06  7.69121899e-01  1.32115964e-06  7.10163923e-01  1.32115964e-06  7.14731562e-01  1.32115964e-06  1.80000000e+00  1.32115964e-06 -3.52745206e-03  1.32115964e-06  7.12431497e-01  1.32115964e-06  1.59027554e+00  1.32115964e-06  1.59687510e+00                                 
 2.33681997e-06  7.69128990e-01  2.33681997e-06  7.10189910e-01  2.33681997e-06  7.15170028e-01  2.33681997e-06  1.80000000e+00  2.33681997e-06  3.53935178e-03  2.33681997e-06  7.12652767e-01  2.33681997e-06  1.59053554e+00  2.33681997e-06  1.59683561e+00                                 
 3.53681997e-06  7.69121910e-01  3.53681997e-06  7.10163923e-01  3.53681997e-06  7.14732812e-01  3.53681997e-06  1.80000000e+00  3.53681997e-06 -3.52725294e-03  3.53681997e-06  7.12431479e-01  3.53681997e-06  1.59019388e+00  3.53681997e-06  1.59679357e+00                                 
 4.73681997e-06  7.69128980e-01  4.73681997e-06  7.10189909e-01  4.73681997e-06  7.15168921e-01  4.73681997e-06  1.80000000e+00  4.73681997e-06  3.53914887e-03  4.73681997e-06  7.12652782e-01  4.73681997e-06  1.59044715e+00  4.73681997e-06  1.59674735e+00                                 
 5.93681997e-06  7.69121920e-01  5.93681997e-06  7.10163924e-01  5.93681997e-06  7.14733932e-01  5.93681997e-06  1.80000000e+00  5.93681997e-06 -3.52705224e-03  5.93681997e-06  7.12431463e-01  5.93681997e-06  1.59010551e+00  5.93681997e-06  1.59670535e+00                                 
 6.00100000e-06  7.69128890e-01  6.00100000e-06  7.10189904e-01  6.00100000e-06  7.15158606e-01  6.00100000e-06  1.80000000e+00  6.00100000e-06  3.53713417e-03  6.00100000e-06  7.12652924e-01  6.00100000e-06  1.59040070e+00  6.00100000e-06  1.59670087e+00                                 
 6.00110000e-06  7.69084346e-01  6.00110000e-06  7.09936036e-01  6.00110000e-06  7.13177871e-01  6.00110000e-06  1.62000000e+00  6.00110000e-06  1.83386664e-04  6.00110000e-06  7.10892158e-01  6.00110000e-06  1.58884941e+00  6.00110000e-06  1.59668954e+00                                 
 6.00130000e-06  7.69115781e-01  6.00130000e-06  7.09946488e-01  6.00130000e-06  7.13493986e-01  6.00130000e-06  1.26000000e+00  6.00130000e-06 -2.13912198e-04  6.00130000e-06  7.10858464e-01  6.00130000e-06  1.58881531e+00  6.00130000e-06  1.59670852e+00                                 
 6.00170000e-06  7.69169989e-01  6.00170000e-06  7.09547218e-01  6.00170000e-06  7.30426283e-01  6.00170000e-06  5.40000000e-01  6.00170000e-06  1.50192009e+00  6.00170000e-06  7.04707991e-01  6.00170000e-06  1.51059309e+00  6.00170000e-06  1.59640332e+00                                 
 6.00200000e-06  7.69110456e-01  6.00200000e-06  7.07194203e-01  6.00200000e-06  7.60013434e-01  6.00200000e-06  0.00000000e+00  6.00200000e-06  1.86896402e+00  6.00200000e-06  6.79800974e-01  6.00200000e-06  1.18419616e+00  6.00200000e-06  1.59623840e+00                                 
 6.00203742e-06  7.69122893e-01  6.00203742e-06  7.07244713e-01  6.00203742e-06  7.54834252e-01  6.00203742e-06  0.00000000e+00  6.00203742e-06  1.82633807e+00  6.00203742e-06  6.80653723e-01  6.00203742e-06  1.13933235e+00  6.00203742e-06  1.59659931e+00                                 
 6.00211225e-06  7.69128465e-01  6.00211225e-06  7.07471363e-01  6.00211225e-06  7.47099942e-01  6.00211225e-06  0.00000000e+00  6.00211225e-06  1.79245276e+00  6.00211225e-06  6.83847217e-01  6.00211225e-06  1.06367072e+00  6.00211225e-06  1.59690978e+00                                 
 6.00226191e-06  7.69124177e-01  6.00226191e-06  7.07781000e-01  6.00226191e-06  7.43078491e-01  6.00226191e-06  0.00000000e+00  6.00226191e-06  1.80232219e+00  6.00226191e-06  6.87734571e-01  6.00226191e-06  9.46984581e-01  6.00226191e-06  1.59684727e+00                                 
 6.00246952e-06  7.69125678e-01  6.00246952e-06  7.08311878e-01  6.00246952e-06  7.35780809e-01  6.00246952e-06  0.00000000e+00  6.00246952e-06  1.79745349e+00  6.00246952e-06  6.92872185e-01  6.00246952e-06  8.27914774e-01  6.00246952e-06  1.59698445e+00                                 
 6.00268856e-06  7.69123918e-01  6.00268856e-06  7.09240895e-01  6.00268856e-06  7.25863368e-01  6.00268856e-06  0.00000000e+00  6.00268856e-06  1.80086567e+00  6.00268856e-06  7.01852583e-01  6.00268856e-06  7.60932150e-01  6.00268856e-06  1.59695659e+00                                 
 6.00295047e-06  7.69125209e-01  6.00295047e-06  7.09995504e-01  6.00295047e-06  7.19365995e-01  6.00295047e-06  0.00000000e+00  6.00295047e-06  1.79931008e+00  6.00295047e-06  7.08019371e-01  6.00295047e-06  7.28750136e-01  6.00295047e-06  1.59684335e+00                                 
 6.00323246e-06  7.69124360e-01  6.00323246e-06  7.10477601e-01  6.00323246e-06  7.16264599e-01  6.00323246e-06  0.00000000e+00  6.00323246e-06  1.80048917e+00  6.00323246e-06  7.11614403e-01  6.00323246e-06  7.19422427e-01  6.00323246e-06  1.59635576e+00                                 
 6.00354567e-06  7.69125449e-01  6.00354567e-06  7.10652498e-01  6.00354567e-06  7.16020392e-01  6.00354567e-06  0.00000000e+00  6.00354567e-06  1.79971386e+00  6.00354567e-06  7.12608296e-01  6.00354567e-06  7.16340518e-01  6.00354567e-06  1.59561834e+00                                 
 6.00396647e-06  7.69124863e-01  6.00396647e-06  7.10731175e-01  6.00396647e-06  7.15977388e-01  6.00396647e-06  0.00000000e+00  6.00396647e-06  1.80022788e+00  6.00396647e-06  7.13416875e-01  6.00396647e-06  7.16192174e-01  6.00396647e-06  1.59433212e+00                                 
 6.00467411e-06  7.69125771e-01  6.00467411e-06  7.10674112e-01  6.00467411e-06  7.17610107e-01  6.00467411e-06  0.00000000e+00  6.00467411e-06  1.79983771e+00  6.00467411e-06  7.13507942e-01  6.00467411e-06  7.17085121e-01  6.00467411e-06  1.59193339e+00                                 
 6.00588812e-06  7.69125136e-01  6.00588812e-06  7.10579434e-01  6.00588812e-06  7.19897389e-01  6.00588812e-06  0.00000000e+00  6.00588812e-06  1.80016082e+00  6.00588812e-06  7.13835623e-01  6.00588812e-06  7.19858448e-01  6.00588812e-06  1.58739677e+00                                 
 6.00831615e-06  7.69125803e-01  6.00831615e-06  7.10395699e-01  6.00831615e-06  7.25888494e-01  6.00831615e-06  0.00000000e+00  6.00831615e-06  1.79986984e+00  6.00831615e-06  7.13688208e-01  6.00831615e-06  7.25278908e-01  6.00831615e-06  1.57794732e+00                                 
 6.01317221e-06  7.69125101e-01  6.01317221e-06  7.10214294e-01  6.01317221e-06  7.37071412e-01  6.01317221e-06  0.00000000e+00  6.01317221e-06  1.80014471e+00  6.01317221e-06  7.13618117e-01  6.01317221e-06  7.36979874e-01  6.01317221e-06  1.55887865e+00                                 
 6.02288433e-06  7.69125788e-01  6.02288433e-06  7.10138885e-01  6.02288433e-06  7.59696238e-01  6.02288433e-06  0.00000000e+00  6.02288433e-06  1.79987666e+00  6.02288433e-06  7.13056958e-01  6.02288433e-06  7.59004068e-01  6.02288433e-06  1.52208442e+00                                 
 6.04230856e-06  7.69125105e-01  6.04230856e-06  7.10184907e-01  6.04230856e-06  8.00791070e-01  6.04230856e-06  0.00000000e+00  6.04230856e-06  1.80013980e+00  6.04230856e-06  7.12794525e-01  6.04230856e-06  8.00723017e-01  6.04230856e-06  1.45364108e+00                                 
 6.08115703e-06  7.69125789e-01  6.08115703e-06  7.10165277e-01  6.08115703e-06  8.72620700e-01  6.08115703e-06  0.00000000e+00  6.08115703e-06  1.79987575e+00  6.08115703e-06  7.12447577e-01  6.08115703e-06  8.71288750e-01  6.08115703e-06  1.33250947e+00                                 
 6.15885397e-06  7.69125107e-01  6.15885397e-06  7.10188096e-01  6.15885397e-06  9.78614721e-01  6.15885397e-06  0.00000000e+00  6.15885397e-06  1.80013436e+00  6.15885397e-06  7.12614702e-01  6.15885397e-06  9.79066754e-01  6.15885397e-06  1.12728471e+00                                 
 6.25898176e-06  7.69125789e-01  6.25898176e-06  7.10166156e-01  6.25898176e-06  1.06416770e+00  6.25898176e-06  0.00000000e+00  6.25898176e-06  1.79987135e+00  6.25898176e-06  7.12456555e-01  6.25898176e-06  1.06221481e+00  6.25898176e-06  1.04215831e+00                                 
 6.35285721e-06  7.69125107e-01  6.35285721e-06  7.10187335e-01  6.35285721e-06  1.11002734e+00  6.35285721e-06  0.00000000e+00  6.35285721e-06  1.80013121e+00  6.35285721e-06  7.12621183e-01  6.35285721e-06  1.11090455e+00  6.35285721e-06  1.10059217e+00                                 
 6.43443857e-06  7.69125788e-01  6.43443857e-06  7.10166871e-01  6.43443857e-06  1.13483918e+00  6.43443857e-06  0.00000000e+00  6.43443857e-06  1.79987048e+00  6.43443857e-06  7.12457178e-01  6.43443857e-06  1.13368836e+00  6.43443857e-06  1.13125548e+00                                 
