 time            v(vbep)         time            v(vben)         time            v(vout)         time            v(vphi1)        time            v(vphi2)        time            v(vref)         yes             currtemp       
 0.00000000e+00  5.74752746e-01  0.00000000e+00  5.10561381e-01  0.00000000e+00  2.62573503e-01  0.00000000e+00  0.00000000e+00  0.00000000e+00  1.79996392e+00  0.00000000e+00  5.10561381e-01  1.00000000e+00  7.90000000e+01 
 5.00000000e-12  5.74732419e-01  5.00000000e-12  5.10544501e-01  5.00000000e-12  2.63094688e-01  5.00000000e-12  1.80000000e-02  5.00000000e-12  1.80007202e+00  5.00000000e-12  5.10544501e-01                                 
 1.00000000e-11  5.74712403e-01  1.00000000e-11  5.10527985e-01  1.00000000e-11  2.63519974e-01  1.00000000e-11  3.60000000e-02  1.00000000e-11  1.80013178e+00  1.00000000e-11  5.10527985e-01                                 
 2.00000000e-11  5.74672533e-01  2.00000000e-11  5.10495050e-01  2.00000000e-11  2.64225442e-01  2.00000000e-11  7.20000000e-02  2.00000000e-11  1.80019132e+00  2.00000000e-11  5.10495050e-01                                 
 4.00000000e-11  5.74593083e-01  4.00000000e-11  5.10429361e-01  4.00000000e-11  2.65055396e-01  4.00000000e-11  1.44000000e-01  4.00000000e-11  1.80015999e+00  4.00000000e-11  5.10429361e-01                                 
 8.00000000e-11  5.74434706e-01  8.00000000e-11  5.10298361e-01  8.00000000e-11  2.65752316e-01  8.00000000e-11  2.88000000e-01  8.00000000e-11  1.80007917e+00  8.00000000e-11  5.10298361e-01                                 
 1.60000000e-10  5.74120135e-01  1.60000000e-10  5.10037860e-01  1.60000000e-10  2.66352583e-01  1.60000000e-10  5.76000000e-01  1.60000000e-10  1.80003747e+00  1.60000000e-10  5.10037860e-01                                 
 3.20000000e-10  5.73499365e-01  3.20000000e-10  5.09522697e-01  3.20000000e-10  2.70366053e-01  3.20000000e-10  1.15200000e+00  3.20000000e-10  1.80033026e+00  3.20000000e-10  5.09522697e-01                                 
 5.00000000e-10  5.72813993e-01  5.00000000e-10  5.08952203e-01  5.00000000e-10  5.10972040e-01  5.00000000e-10  1.80000000e+00  5.00000000e-10  1.88973333e-01  5.00000000e-10  5.08952203e-01                                 
 5.22596236e-10  5.72729020e-01  5.22596236e-10  5.08881334e-01  5.22596236e-10  5.68434807e-01  5.22596236e-10  1.80000000e+00  5.22596236e-10  4.69449546e-02  5.22596236e-10  5.08881334e-01                                 
 5.67788709e-10  5.72559486e-01  5.67788709e-10  5.08739885e-01  5.67788709e-10  6.74704286e-01  5.67788709e-10  1.80000000e+00  5.67788709e-10 -1.71128943e-02  5.67788709e-10  5.08739885e-01                                 
 6.58173653e-10  5.72222911e-01  6.58173653e-10  5.08458745e-01  6.58173653e-10  8.44310857e-01  6.58173653e-10  1.80000000e+00  6.58173653e-10  1.50558881e-02  6.58173653e-10  5.08458745e-01                                 
 7.75766044e-10  5.71789889e-01  7.75766044e-10  5.08096417e-01  7.75766044e-10  1.01455967e+00  7.75766044e-10  1.80000000e+00  7.75766044e-10 -1.07512555e-02  7.75766044e-10  5.08096417e-01                                 
 9.63971953e-10  5.71107902e-01  9.63971953e-10  5.07524360e-01  9.63971953e-10  1.23223489e+00  9.63971953e-10  1.80000000e+00  9.63971953e-10  1.10459096e-02  9.63971953e-10  5.07524360e-01                                 
 1.29745633e-09  5.69931380e-01  1.29745633e-09  5.06533495e-01  1.29745633e-09  1.50924366e+00  1.29745633e-09  1.80000000e+00  1.29745633e-09 -9.14684908e-03  1.29745633e-09  5.06533495e-01                                 
 1.87321432e-09  5.67989177e-01  1.87321432e-09  5.04887005e-01  1.87321432e-09  1.73959801e+00  1.87321432e-09  1.80000000e+00  1.87321432e-09  9.43254713e-03  1.87321432e-09  5.04887005e-01                                 
 2.16657335e-09  5.67040513e-01  2.16657335e-09  5.04077837e-01  2.16657335e-09  1.77727720e+00  2.16657335e-09  1.80000000e+00  2.16657335e-09 -8.46782314e-03  2.16657335e-09  5.04077837e-01                                 
 2.50442692e-09  5.65979321e-01  2.50442692e-09  5.03169012e-01  2.50442692e-09  1.79700336e+00  2.50442692e-09  1.80000000e+00  2.50442692e-09  8.07573172e-03  2.50442692e-09  5.03169012e-01                                 
 2.88257544e-09  5.64829048e-01  2.88257544e-09  5.02179594e-01  2.88257544e-09  1.80508399e+00  2.88257544e-09  1.80000000e+00  2.88257544e-09 -7.50897746e-03  2.88257544e-09  5.02179594e-01                                 
 3.54652032e-09  5.62897257e-01  3.54652032e-09  5.00508254e-01  3.54652032e-09  1.80830098e+00  3.54652032e-09  1.80000000e+00  3.54652032e-09  7.32660236e-03  3.54652032e-09  5.00508254e-01                                 
 4.28950525e-09  5.60856644e-01  4.28950525e-09  4.98729803e-01  4.28950525e-09  1.80636506e+00  4.28950525e-09  1.80000000e+00  4.28950525e-09 -7.05441918e-03  4.28950525e-09  4.98729803e-01                                 
 5.65594395e-09  5.57388334e-01  5.65594395e-09  4.95678801e-01  5.65594395e-09  1.80295447e+00  5.65594395e-09  1.80000000e+00  5.65594395e-09  6.99280969e-03  5.65594395e-09  4.95678801e-01                                 
 7.69437991e-09  5.52776545e-01  7.69437991e-09  4.91570506e-01  7.69437991e-09  1.79712749e+00  7.69437991e-09  1.80000000e+00  7.69437991e-09 -6.85929886e-03  7.69437991e-09  4.91570506e-01                                 
 9.20384498e-09  5.49719568e-01  9.20384498e-09  4.88816226e-01  9.20384498e-09  1.79397689e+00  9.20384498e-09  1.80000000e+00  9.20384498e-09  6.80915044e-03  9.20384498e-09  4.88816226e-01                                 
 1.09519009e-08  5.46480861e-01  1.09519009e-08  4.85874694e-01  1.09519009e-08  1.78974528e+00  1.09519009e-08  1.80000000e+00  1.09519009e-08 -6.67640071e-03  1.09519009e-08  4.85874694e-01                                 
 1.25278185e-08  5.43796287e-01  1.25278185e-08  4.83419315e-01  1.25278185e-08  1.78662570e+00  1.25278185e-08  1.80000000e+00  1.25278185e-08  6.62353307e-03  1.25278185e-08  4.83419315e-01                                 
 1.40424507e-08  5.41395485e-01  1.40424507e-08  4.81211317e-01  1.40424507e-08  1.78318203e+00  1.40424507e-08  1.80000000e+00  1.40424507e-08 -6.48625002e-03  1.40424507e-08  4.81211317e-01                                 
 1.56634033e-08  5.38995998e-01  1.56634033e-08  4.78993701e-01  1.56634033e-08  1.78017144e+00  1.56634033e-08  1.80000000e+00  1.56634033e-08  6.43500997e-03  1.56634033e-08  4.78993701e-01                                 
 1.74744638e-08  5.36498339e-01  1.74744638e-08  4.76674237e-01  1.74744638e-08  1.77630284e+00  1.74744638e-08  1.80000000e+00  1.74744638e-08 -6.31828265e-03  1.74744638e-08  4.76674237e-01                                 
 2.00210639e-08  5.33272056e-01  2.00210639e-08  4.73661536e-01  2.00210639e-08  1.77160662e+00  2.00210639e-08  1.80000000e+00  2.00210639e-08  6.29961702e-03  2.00210639e-08  4.73661536e-01                                 
 2.30391194e-08  5.29826905e-01  2.30391194e-08  4.70422642e-01  2.30391194e-08  1.76563287e+00  2.30391194e-08  1.80000000e+00  2.30391194e-08 -6.21616060e-03  2.30391194e-08  4.70422642e-01                                 
 2.78387870e-08  5.25054851e-01  2.78387870e-08  4.65894941e-01  2.78387870e-08  1.75731262e+00  2.78387870e-08  1.80000000e+00  2.78387870e-08  6.22418754e-03  2.78387870e-08  4.65894941e-01                                 
 3.41048473e-08  5.19862944e-01  3.41048473e-08  4.60906747e-01  3.41048473e-08  1.74681933e+00  3.41048473e-08  1.80000000e+00  3.41048473e-08 -6.16445918e-03  3.41048473e-08  4.60906747e-01                                 
 4.66369678e-08  5.11637910e-01  4.66369678e-08  4.52900776e-01  4.66369678e-08  1.72799281e+00  4.66369678e-08  1.80000000e+00  4.66369678e-08  6.19155253e-03  4.66369678e-08  4.52900776e-01                                 
 7.17012088e-08  4.99560275e-01  7.17012088e-08  4.41038655e-01  7.17012088e-08  1.69211191e+00  7.17012088e-08  1.80000000e+00  7.17012088e-08 -6.14737825e-03  7.17012088e-08  4.41038655e-01                                 
 1.02954093e-07  4.88937664e-01  1.02954093e-07  4.30541133e-01  1.02954093e-07  1.65134808e+00  1.02954093e-07  1.80000000e+00  1.02954093e-07  6.18222456e-03  1.02954093e-07  4.30541133e-01                                 
 1.47413537e-07  4.74856733e-01  1.47413537e-07  4.17215862e-01  1.47413537e-07  1.59310273e+00  1.47413537e-07  1.80000000e+00  1.47413537e-07 -6.13982427e-03  1.47413537e-07  4.17215862e-01                                 
 1.92927669e-07  4.57943672e-01  1.92927669e-07  4.02177224e-01  1.92927669e-07  1.53091975e+00  1.92927669e-07  1.80000000e+00  1.92927669e-07  6.17596248e-03  1.92927669e-07  4.02177224e-01                                 
 2.51600547e-07  4.37032155e-01  2.51600547e-07  3.84042925e-01  2.51600547e-07  1.44959315e+00  2.51600547e-07  1.80000000e+00  2.51600547e-07 -6.13448081e-03  2.51600547e-07  3.84042925e-01                                 
 3.17609693e-07  4.12263118e-01  3.17609693e-07  3.63183729e-01  3.17609693e-07  1.35681369e+00  3.17609693e-07  1.80000000e+00  3.17609693e-07  6.17155424e-03  3.17609693e-07  3.63183729e-01                                 
 4.49627983e-07  3.61389103e-01  4.49627983e-07  3.21484144e-01  4.49627983e-07  1.16910368e+00  4.49627983e-07  1.80000000e+00  4.49627983e-07 -6.13128771e-03  4.49627983e-07  3.21484144e-01                                 
 4.82632556e-07  4.17395840e-01  4.82632556e-07  3.66079220e-01  4.82632556e-07  1.18787205e+00  4.82632556e-07  1.80000000e+00  4.82632556e-07  9.17036471e-06  4.82632556e-07  3.66079220e-01                                 
 4.90883699e-07  4.42069151e-01  4.90883699e-07  3.85717001e-01  4.90883699e-07  1.20253421e+00  4.90883699e-07  1.80000000e+00  4.90883699e-07  1.25224723e-05  4.90883699e-07  3.85717001e-01                                 
 5.07385985e-07  5.27955099e-01  5.07385985e-07  4.55608837e-01  5.07385985e-07  1.26625570e+00  5.07385985e-07  1.80000000e+00  5.07385985e-07  2.13284536e-05  5.07385985e-07  4.55608837e-01                                 
 5.40390558e-07  6.53676109e-01  5.40390558e-07  5.85811030e-01  5.40390558e-07  1.35245751e+00  5.40390558e-07  1.80000000e+00  5.40390558e-07  1.09016208e-05  5.40390558e-07  5.85811030e-01                                 
 5.86561284e-07  7.03858245e-01  5.86561284e-07  6.33435586e-01  5.86561284e-07  1.35069293e+00  5.86561284e-07  1.80000000e+00  5.86561284e-07  8.61753526e-06  5.86561284e-07  6.33435586e-01                                 
 6.43640523e-07  7.19714030e-01  6.43640523e-07  6.46439894e-01  6.43640523e-07  1.30567444e+00  6.43640523e-07  1.80000000e+00  6.43640523e-07  6.89584937e-06  6.43640523e-07  6.46439894e-01                                 
 6.98660606e-07  7.20758240e-01  6.98660606e-07  6.47589466e-01  6.98660606e-07  1.24762724e+00  6.98660606e-07  1.80000000e+00  6.98660606e-07  7.39071186e-06  6.98660606e-07  6.47589466e-01                                 
 7.62813380e-07  7.20102180e-01  7.62813380e-07  6.46777152e-01  7.62813380e-07  1.17984001e+00  7.62813380e-07  1.80000000e+00  7.62813380e-07  6.78271915e-06  7.62813380e-07  6.46777152e-01                                 
 8.32615463e-07  7.00708478e-01  8.32615463e-07  6.30737111e-01  8.32615463e-07  1.09006818e+00  8.32615463e-07  1.80000000e+00  8.32615463e-07  6.19606250e-06  8.32615463e-07  6.30737111e-01                                 
 9.08219621e-07  6.98527150e-01  9.08219621e-07  6.28339653e-01  9.08219621e-07  1.01998194e+00  9.08219621e-07  1.80000000e+00  9.08219621e-07  8.10342863e-06  9.08219621e-07  6.28339653e-01                                 
 9.94274411e-07  7.16762406e-01  9.94274411e-07  6.44288808e-01  9.94274411e-07  9.70005174e-01  9.94274411e-07  1.80000000e+00  9.94274411e-07  7.51929073e-06  9.94274411e-07  6.44288808e-01                                 
 1.08509884e-06  7.02360067e-01  1.08509884e-06  6.31761174e-01  1.08509884e-06  8.96761041e-01  1.08509884e-06  1.80000000e+00  1.08509884e-06  6.52660442e-06  1.08509884e-06  6.31761174e-01                                 
 1.16859553e-06  7.02316523e-01  1.16859553e-06  6.32053565e-01  1.16859553e-06  8.44801995e-01  1.16859553e-06  1.80000000e+00  1.16859553e-06  8.33719055e-06  1.16859553e-06  6.32053565e-01                                 
 1.26404616e-06  7.13413326e-01  1.26404616e-06  6.41235032e-01  1.26404616e-06  7.98559119e-01  1.26404616e-06  1.80000000e+00  1.26404616e-06  7.10433482e-06  1.26404616e-06  6.41235032e-01                                 
 1.39032872e-06  7.01716234e-01  1.39032872e-06  6.31548223e-01  1.39032872e-06  7.16765677e-01  1.39032872e-06  1.80000000e+00  1.39032872e-06  7.47871698e-06  1.39032872e-06  6.31548223e-01                                 
 1.51685984e-06  7.08087474e-01  1.51685984e-06  6.36704290e-01  1.51685984e-06  6.69786776e-01  1.51685984e-06  1.80000000e+00  1.51685984e-06  7.91037804e-06  1.51685984e-06  6.36704290e-01                                 
 1.65655166e-06  7.08471926e-01  1.65655166e-06  6.37332266e-01  1.65655166e-06  6.38553098e-01  1.65655166e-06  1.80000000e+00  1.65655166e-06  7.46622028e-06  1.65655166e-06  6.37332266e-01                                 
 1.68200282e-06  7.06295152e-01  1.68200282e-06  6.35333040e-01  1.68200282e-06  6.33601373e-01  1.68200282e-06  1.80000000e+00  1.68200282e-06  7.53626720e-06  1.68200282e-06  6.35333040e-01                                 
 1.73290516e-06  7.05047310e-01  1.73290516e-06  6.34246167e-01  1.73290516e-06  6.26845175e-01  1.73290516e-06  1.80000000e+00  1.73290516e-06  7.81705196e-06  1.73290516e-06  6.34246167e-01                                 
 1.83470982e-06  7.08288622e-01  1.83470982e-06  6.37031002e-01  1.83470982e-06  6.29856454e-01  1.83470982e-06  1.80000000e+00  1.83470982e-06  7.87584472e-06  1.83470982e-06  6.37031002e-01                                 
 1.93678389e-06  7.06547034e-01  1.93678389e-06  6.35539613e-01  1.93678389e-06  6.36621748e-01  1.93678389e-06  1.80000000e+00  1.93678389e-06  7.66935993e-06  1.93678389e-06  6.35539613e-01                                 
 2.07864229e-06  7.06454650e-01  2.07864229e-06  6.35461735e-01  2.07864229e-06  6.35457031e-01  2.07864229e-06  1.80000000e+00  2.07864229e-06  7.87018868e-06  2.07864229e-06  6.35461735e-01                                 
 2.21251339e-06  7.07761734e-01  2.21251339e-06  6.36577680e-01  2.21251339e-06  6.36550406e-01  2.21251339e-06  1.80000000e+00  2.21251339e-06  7.72492294e-06  2.21251339e-06  6.36577680e-01                                 
 2.43495658e-06  7.05947922e-01  2.43495658e-06  6.35028853e-01  2.43495658e-06  6.35522052e-01  2.43495658e-06  1.80000000e+00  2.43495658e-06  7.79200718e-06  2.43495658e-06  6.35028853e-01                                 
 2.71615322e-06  7.07732948e-01  2.71615322e-06  6.36551706e-01  2.71615322e-06  6.36412536e-01  2.71615322e-06  1.80000000e+00  2.71615322e-06  7.78514137e-06  2.71615322e-06  6.36551706e-01                                 
 3.10523453e-06  7.06125537e-01  3.10523453e-06  6.35182293e-01  3.10523453e-06  6.35701942e-01  3.10523453e-06  1.80000000e+00  3.10523453e-06  7.74920099e-06  3.10523453e-06  6.35182293e-01                                 
 3.69377187e-06  7.07549551e-01  3.69377187e-06  6.36394440e-01  3.69377187e-06  6.36254144e-01  3.69377187e-06  1.80000000e+00  3.69377187e-06  7.81156487e-06  3.69377187e-06  6.36394440e-01                                 
 4.51114695e-06  7.06279901e-01  4.51114695e-06  6.35315070e-01  4.51114695e-06  6.35828782e-01  4.51114695e-06  1.80000000e+00  4.51114695e-06  7.73335958e-06  4.51114695e-06  6.35315070e-01                                 
 5.51114695e-06  7.07425409e-01  5.51114695e-06  6.36288106e-01  5.51114695e-06  6.36153422e-01  5.51114695e-06  1.80000000e+00  5.51114695e-06  7.82221027e-06  5.51114695e-06  6.36288106e-01                                 
 6.51114695e-06  7.06400074e-01  6.51114695e-06  6.35418300e-01  6.51114695e-06  6.35926140e-01  6.51114695e-06  1.80000000e+00  6.51114695e-06  7.72489540e-06  6.51114695e-06  6.35418300e-01                                 
 7.51114695e-06  7.07304205e-01  7.51114695e-06  6.36184319e-01  7.51114695e-06  6.36055190e-01  7.51114695e-06  1.80000000e+00  7.51114695e-06  7.82963148e-06  7.51114695e-06  6.36184319e-01                                 
 8.51114695e-06  7.06526238e-01  8.51114695e-06  6.35526576e-01  8.51114695e-06  6.36028723e-01  8.51114695e-06  1.80000000e+00  8.51114695e-06  7.71854208e-06  8.51114695e-06  6.35526576e-01                                 
 9.51114695e-06  7.07178849e-01  9.51114695e-06  6.36076994e-01  9.51114695e-06  6.35953469e-01  9.51114695e-06  1.80000000e+00  9.51114695e-06  7.83489996e-06  9.51114695e-06  6.36076994e-01                                 
 1.00005000e-05  7.06718835e-01  1.00005000e-05  6.35691686e-01  1.00005000e-05  6.36183494e-01  1.00005000e-05  1.80000000e+00  1.00005000e-05  7.71303916e-06  1.00005000e-05  6.35691686e-01                                 
 1.00005500e-05  7.06717931e-01  1.00005500e-05  6.35690708e-01  1.00005500e-05  6.29352600e-01  1.00005500e-05  1.62000000e+00  1.00005500e-05 -1.24684426e-04  1.00005500e-05  6.35690708e-01                                 
 1.00006500e-05  7.06716079e-01  1.00006500e-05  6.35688750e-01  1.00006500e-05  6.17755722e-01  1.00006500e-05  1.26000000e+00  1.00006500e-05 -9.88297469e-05  1.00006500e-05  6.35688750e-01                                 
 1.00008500e-05  7.06712204e-01  1.00008500e-05  6.35684831e-01  1.00008500e-05  6.08638850e-01  1.00008500e-05  5.40000000e-01  1.00008500e-05  1.84571181e-02  1.00008500e-05  6.35684831e-01                                 
 1.00010000e-05  7.06709126e-01  1.00010000e-05  6.35681850e-01  1.00010000e-05  5.57799179e-01  1.00010000e-05  0.00000000e+00  1.00010000e-05  1.54380547e+00  1.00010000e-05  6.35681850e-01                                 
 1.00010249e-05  7.06708592e-01  1.00010249e-05  6.35681347e-01  1.00010249e-05  5.35559981e-01  1.00010249e-05  0.00000000e+00  1.00010249e-05  1.70013500e+00  1.00010249e-05  6.35681347e-01                                 
 1.00010746e-05  7.06707558e-01  1.00010746e-05  6.35680356e-01  1.00010746e-05  5.02560382e-01  1.00010746e-05  0.00000000e+00  1.00010746e-05  1.81901910e+00  1.00010746e-05  6.35680356e-01                                 
 1.00011742e-05  7.06705511e-01  1.00011742e-05  6.35678408e-01  1.00011742e-05  4.85540923e-01  1.00011742e-05  0.00000000e+00  1.00011742e-05  1.78961259e+00  1.00011742e-05  6.35678408e-01                                 
 1.00013167e-05  7.06702466e-01  1.00013167e-05  6.35675597e-01  1.00013167e-05  4.91142923e-01  1.00013167e-05  0.00000000e+00  1.00013167e-05  1.80700487e+00  1.00013167e-05  6.35675597e-01                                 
 1.00014710e-05  7.06699070e-01  1.00014710e-05  6.35672503e-01  1.00014710e-05  4.91058126e-01  1.00014710e-05  0.00000000e+00  1.00014710e-05  1.79538499e+00  1.00014710e-05  6.35672503e-01                                 
 1.00017475e-05  7.06692831e-01  1.00017475e-05  6.35666910e-01  1.00017475e-05  4.92354820e-01  1.00017475e-05  0.00000000e+00  1.00017475e-05  1.80373476e+00  1.00017475e-05  6.35666910e-01                                 
 1.00022791e-05  7.06680588e-01  1.00022791e-05  6.35656130e-01  1.00022791e-05  4.92094545e-01  1.00022791e-05  0.00000000e+00  1.00022791e-05  1.79666361e+00  1.00022791e-05  6.35656130e-01                                 
 1.00029220e-05  7.06665730e-01  1.00029220e-05  6.35643233e-01  1.00029220e-05  4.92399942e-01  1.00029220e-05  0.00000000e+00  1.00029220e-05  1.80302030e+00  1.00029220e-05  6.35643233e-01                                 
