 time            v(vbep)         time            v(vben)         time            v(vout)         time            v(vphi1)        time            v(vphi2)        time            v(vref)         yes             currtemp       
 0.00000000e+00  8.70966718e-01  0.00000000e+00  8.18951347e-01  0.00000000e+00  1.00691490e+00  0.00000000e+00  0.00000000e+00  0.00000000e+00  1.79678689e+00  0.00000000e+00  5.00000000e-01  1.00000000e+00 -1.70000000e+01 
 5.00000000e-12  8.69643300e-01  5.00000000e-12  8.18418925e-01  5.00000000e-12  1.00759007e+00  5.00000000e-12  1.80000000e-02  5.00000000e-12  1.79765651e+00  5.00000000e-12  5.00000000e-01                                 
 1.00000000e-11  8.68681459e-01  1.00000000e-11  8.18148659e-01  1.00000000e-11  1.00819481e+00  1.00000000e-11  3.60000000e-02  1.00000000e-11  1.79832476e+00  1.00000000e-11  5.00000000e-01                                 
 2.00000000e-11  8.67230738e-01  2.00000000e-11  8.17724172e-01  2.00000000e-11  1.00930034e+00  2.00000000e-11  7.20000000e-02  2.00000000e-11  1.79932041e+00  2.00000000e-11  5.00000000e-01                                 
 4.00000000e-11  8.65782624e-01  4.00000000e-11  8.17004004e-01  4.00000000e-11  1.01103595e+00  4.00000000e-11  1.44000000e-01  4.00000000e-11  1.80001125e+00  4.00000000e-11  5.00000000e-01                                 
 8.00000000e-11  8.64085802e-01  8.00000000e-11  8.15546685e-01  8.00000000e-11  1.01339899e+00  8.00000000e-11  2.88000000e-01  8.00000000e-11  1.80004331e+00  8.00000000e-11  5.00000000e-01                                 
 1.60000000e-10  8.60960050e-01  1.60000000e-10  8.12694139e-01  1.60000000e-10  1.01641611e+00  1.60000000e-10  5.76000000e-01  1.60000000e-10  1.79998510e+00  1.60000000e-10  5.00000000e-01                                 
 3.20000000e-10  8.54829940e-01  3.20000000e-10  8.07111263e-01  3.20000000e-10  1.00976696e+00  3.20000000e-10  1.15200000e+00  3.20000000e-10  1.80032289e+00  3.20000000e-10  5.00000000e-01                                 
 5.00000000e-10  8.48331634e-01  5.00000000e-10  8.01132220e-01  5.00000000e-10  1.17314497e+00  5.00000000e-10  1.80000000e+00  5.00000000e-10  9.31279718e-02  5.00000000e-10  5.00000000e-01                                 
 5.20597482e-10  8.47619479e-01  5.20597482e-10  8.00477876e-01  5.20597482e-10  1.20913051e+00  5.20597482e-10  1.80000000e+00  5.20597482e-10  1.63234546e-02  5.20597482e-10  5.00000000e-01                                 
 5.61792445e-10  8.46205565e-01  5.61792445e-10  7.99171619e-01  5.61792445e-10  1.27384612e+00  5.61792445e-10  1.80000000e+00  5.61792445e-10 -7.53584380e-03  5.61792445e-10  5.00000000e-01                                 
 6.44182373e-10  8.43438031e-01  6.44182373e-10  7.96608894e-01  6.44182373e-10  1.37748225e+00  6.44182373e-10  1.80000000e+00  6.44182373e-10  6.77350872e-03  6.44182373e-10  5.00000000e-01                                 
 7.68039662e-10  8.39428349e-01  7.68039662e-10  7.92888447e-01  7.68039662e-10  1.49982031e+00  7.68039662e-10  1.80000000e+00  7.68039662e-10 -5.89882398e-03  7.68039662e-10  5.00000000e-01                                 
 9.55362036e-10  8.33705945e-01  9.55362036e-10  7.87564615e-01  9.55362036e-10  1.63489302e+00  9.55362036e-10  1.80000000e+00  9.55362036e-10  5.68705975e-03  9.55362036e-10  5.00000000e-01                                 
 1.33000678e-09  8.23391825e-01  1.33000678e-09  7.77947391e-01  1.33000678e-09  1.78912006e+00  1.33000678e-09  1.80000000e+00  1.33000678e-09 -5.39889825e-03  1.33000678e-09  5.00000000e-01                                 
 1.62735273e-09  8.16427246e-01  1.62735273e-09  7.71435851e-01  1.62735273e-09  1.84042193e+00  1.62735273e-09  1.80000000e+00  1.62735273e-09  5.25809799e-03  1.62735273e-09  5.00000000e-01                                 
 1.97795465e-09  8.09349222e-01  1.97795465e-09  7.64787186e-01  1.97795465e-09  1.86472944e+00  1.97795465e-09  1.80000000e+00  1.97795465e-09 -5.00500217e-03  1.97795465e-09  5.00000000e-01                                 
 2.30334509e-09  8.03715412e-01  2.30334509e-09  7.59481239e-01  2.30334509e-09  1.87128245e+00  2.30334509e-09  1.80000000e+00  2.30334509e-09  4.90283124e-03  2.30334509e-09  5.00000000e-01                                 
 2.62146400e-09  7.98934044e-01  2.62146400e-09  7.54953212e-01  2.62146400e-09  1.87192332e+00  2.62146400e-09  1.80000000e+00  2.62146400e-09 -4.66672442e-03  2.62146400e-09  5.00000000e-01                                 
 3.02370889e-09  7.93684396e-01  3.02370889e-09  7.49966899e-01  3.02370889e-09  1.86999270e+00  3.02370889e-09  1.80000000e+00  3.02370889e-09  4.56114189e-03  3.02370889e-09  5.00000000e-01                                 
 3.46259961e-09  7.88791364e-01  3.46259961e-09  7.45292362e-01  3.46259961e-09  1.86695891e+00  3.46259961e-09  1.80000000e+00  3.46259961e-09 -4.42217047e-03  3.46259961e-09  5.00000000e-01                                 
 4.21669753e-09  7.81822458e-01  4.21669753e-09  7.38602462e-01  4.21669753e-09  1.86209442e+00  4.21669753e-09  1.80000000e+00  4.21669753e-09  4.36306909e-03  4.21669753e-09  5.00000000e-01                                 
 5.25483055e-09  7.74350898e-01  5.25483055e-09  7.31375562e-01  5.25483055e-09  1.85673810e+00  5.25483055e-09  1.80000000e+00  5.25483055e-09 -4.30423719e-03  5.25483055e-09  5.00000000e-01                                 
 7.08354393e-09  7.64673704e-01  7.08354393e-09  7.21944438e-01  7.08354393e-09  1.84998833e+00  7.08354393e-09  1.80000000e+00  7.08354393e-09  4.28744184e-03  7.08354393e-09  5.00000000e-01                                 
 1.02669434e-08  7.53378933e-01  1.02669434e-08  7.10841082e-01  1.02669434e-08  1.84221159e+00  1.02669434e-08  1.80000000e+00  1.02669434e-08 -4.25874195e-03  1.02669434e-08  5.00000000e-01                                 
 1.66337422e-08  7.39590682e-01  1.66337422e-08  6.97176869e-01  1.66337422e-08  1.83283904e+00  1.66337422e-08  1.80000000e+00  1.66337422e-08  4.26517970e-03  1.66337422e-08  5.00000000e-01                                 
 2.77527135e-08  7.25999946e-01  2.77527135e-08  6.83616528e-01  2.77527135e-08  1.82361333e+00  2.77527135e-08  1.80000000e+00  2.77527135e-08 -4.24547840e-03  2.77527135e-08  5.00000000e-01                                 
 4.51803864e-08  7.13775539e-01  4.51803864e-08  6.71363340e-01  4.51803864e-08  1.81530259e+00  4.51803864e-08  1.80000000e+00  4.51803864e-08  4.25836743e-03  4.51803864e-08  5.00000000e-01                                 
 7.38717492e-08  7.01794138e-01  7.38717492e-08  6.59317623e-01  7.38717492e-08  1.80706695e+00  7.38717492e-08  1.80000000e+00  7.38717492e-08 -4.24067450e-03  7.38717492e-08  5.00000000e-01                                 
 1.21822312e-07  6.90049987e-01  1.21822312e-07  6.47428761e-01  1.21822312e-07  1.80233385e+00  1.21822312e-07  1.80000000e+00  1.21822312e-07  4.25578271e-03  1.21822312e-07  5.00000000e-01                                 
 1.85662155e-07  6.81600780e-01  1.85662155e-07  6.38585431e-01  1.85662155e-07  1.81716040e+00  1.85662155e-07  1.80000000e+00  1.85662155e-07 -4.23885875e-03  1.85662155e-07  5.00000000e-01                                 
 2.26745892e-07  6.77574470e-01  2.26745892e-07  6.34393752e-01  2.26745892e-07  1.76917135e+00  2.26745892e-07  1.80000000e+00  2.26745892e-07  4.25383987e-03  2.26745892e-07  5.00000000e-01                                 
 2.64590146e-07  6.71238057e-01  2.64590146e-07  6.28593390e-01  2.64590146e-07  1.65402236e+00  2.64590146e-07  1.80000000e+00  2.64590146e-07 -4.23643710e-03  2.64590146e-07  5.00000000e-01                                 
 2.92351122e-07  6.61690279e-01  2.92351122e-07  6.20523404e-01  2.92351122e-07  1.59167017e+00  2.92351122e-07  1.80000000e+00  2.92351122e-07  4.25065323e-03  2.92351122e-07  5.00000000e-01                                 
 3.21968039e-07  6.53588172e-01  3.21968039e-07  6.13633599e-01  3.21968039e-07  1.45886971e+00  3.21968039e-07  1.80000000e+00  3.21968039e-07 -4.23302366e-03  3.21968039e-07  5.00000000e-01                                 
 3.46238961e-07  6.49963357e-01  3.46238961e-07  6.10421945e-01  3.46238961e-07  1.33937663e+00  3.46238961e-07  1.80000000e+00  3.46238961e-07  4.24712300e-03  3.46238961e-07  5.00000000e-01                                 
 3.71745014e-07  6.56690563e-01  3.71745014e-07  6.15420519e-01  3.71745014e-07  1.25686987e+00  3.71745014e-07  1.80000000e+00  3.71745014e-07 -4.22884274e-03  3.71745014e-07  5.00000000e-01                                 
 3.89110538e-07  6.56977281e-01  3.89110538e-07  6.15416853e-01  3.89110538e-07  1.14757478e+00  3.89110538e-07  1.80000000e+00  3.89110538e-07  4.24221156e-03  3.89110538e-07  5.00000000e-01                                 
 4.09203621e-07  6.50363748e-01  4.09203621e-07  6.09916564e-01  4.09203621e-07  1.02268259e+00  4.09203621e-07  1.80000000e+00  4.09203621e-07 -4.22390684e-03  4.09203621e-07  5.00000000e-01                                 
 4.26458568e-07  6.47692825e-01  4.26458568e-07  6.07596799e-01  4.26458568e-07  9.23210289e-01  4.26458568e-07  1.80000000e+00  4.26458568e-07  4.23707870e-03  4.26458568e-07  5.00000000e-01                                 
 4.44466324e-07  6.44378999e-01  4.44466324e-07  6.04770467e-01  4.44466324e-07  8.40771655e-01  4.44466324e-07  1.80000000e+00  4.44466324e-07 -4.21844363e-03  4.44466324e-07  5.00000000e-01                                 
 4.65377239e-07  6.40386233e-01  4.65377239e-07  6.01389223e-01  4.65377239e-07  7.62933788e-01  4.65377239e-07  1.80000000e+00  4.65377239e-07  4.23204553e-03  4.65377239e-07  5.00000000e-01                                 
 4.87839821e-07  6.35789485e-01  4.87839821e-07  5.97531624e-01  4.87839821e-07  7.07460360e-01  4.87839821e-07  1.80000000e+00  4.87839821e-07 -4.21401140e-03  4.87839821e-07  5.00000000e-01                                 
 5.32764985e-07  6.27212883e-01  5.32764985e-07  5.90358027e-01  5.32764985e-07  6.26874452e-01  5.32764985e-07  1.80000000e+00  5.32764985e-07  4.22881182e-03  5.32764985e-07  5.00000000e-01                                 
 5.73227803e-07  6.17588685e-01  5.73227803e-07  5.82444424e-01  5.73227803e-07  5.63456521e-01  5.73227803e-07  1.80000000e+00  5.73227803e-07 -4.21179024e-03  5.73227803e-07  5.00000000e-01                                 
 6.50333300e-07  6.00033780e-01  6.50333300e-07  5.68111405e-01  6.50333300e-07  4.99046728e-01  6.50333300e-07  1.80000000e+00  6.50333300e-07  4.22699912e-03  6.50333300e-07  5.00000000e-01                                 
 7.37242755e-07  5.76315967e-01  7.37242755e-07  5.48975171e-01  7.37242755e-07  4.77263360e-01  7.37242755e-07  1.80000000e+00  7.37242755e-07 -4.21065044e-03  7.37242755e-07  5.00000000e-01                                 
 8.17075081e-07  5.51220529e-01  8.17075081e-07  5.28849966e-01  8.17075081e-07  4.60894182e-01  8.17075081e-07  1.80000000e+00  8.17075081e-07  4.22581790e-03  8.17075081e-07  5.00000000e-01                                 
 8.28387014e-07  5.47350783e-01  8.28387014e-07  5.25753365e-01  8.28387014e-07  4.58931841e-01  8.28387014e-07  1.80000000e+00  8.28387014e-07  9.91390305e-07  8.28387014e-07  5.00000000e-01                                 
 8.51010879e-07  5.39503312e-01  8.51010879e-07  5.19475261e-01  8.51010879e-07  4.54204910e-01  8.51010879e-07  1.80000000e+00  8.51010879e-07 -1.20007848e-06  8.51010879e-07  5.00000000e-01                                 
 8.96258610e-07  5.29517183e-01  8.96258610e-07  5.11495284e-01  8.96258610e-07  4.56239982e-01  8.96258610e-07  1.80000000e+00  8.96258610e-07  1.07886862e-06  8.96258610e-07  5.00000000e-01                                 
 9.45582634e-07  5.71396962e-01  9.45582634e-07  5.45041262e-01  9.45582634e-07  5.41308626e-01  9.45582634e-07  1.80000000e+00  9.45582634e-07 -4.57721527e-07  9.45582634e-07  5.00000000e-01                                 
 9.52018394e-07  5.86939158e-01  9.52018394e-07  5.57477854e-01  9.52018394e-07  5.60184350e-01  9.52018394e-07  1.80000000e+00  9.52018394e-07  8.66371766e-07  9.52018394e-07  5.00000000e-01                                 
 9.64889914e-07  6.29849037e-01  9.64889914e-07  5.91795408e-01  9.64889914e-07  6.02642011e-01  9.64889914e-07  1.80000000e+00  9.64889914e-07  1.57985142e-06  9.64889914e-07  5.00000000e-01                                 
 9.81104668e-07  7.29654291e-01  9.81104668e-07  6.73894736e-01  9.81104668e-07  6.48021725e-01  9.81104668e-07  1.80000000e+00  9.81104668e-07  3.34546523e-06  9.81104668e-07  5.00000000e-01                                 
 9.96215951e-07  7.96422211e-01  9.96215951e-07  7.45422078e-01  9.96215951e-07  6.26247255e-01  9.96215951e-07  1.80000000e+00  9.96215951e-07  1.30402655e-06  9.96215951e-07  5.00000000e-01                                 
 1.01605276e-06  8.25456414e-01  1.01605276e-06  7.77478077e-01  1.01605276e-06  5.71403122e-01  1.01605276e-06  1.80000000e+00  1.01605276e-06  4.96612729e-07  1.01605276e-06  5.00000000e-01                                 
 1.03692363e-06  8.49230811e-01  1.03692363e-06  7.99012228e-01  1.03692363e-06  5.44488730e-01  1.03692363e-06  1.80000000e+00  1.03692363e-06  8.11414403e-07  1.03692363e-06  5.00000000e-01                                 
 1.06727128e-06  8.79068597e-01  1.06727128e-06  8.24490101e-01  1.06727128e-06  5.31439379e-01  1.06727128e-06  1.80000000e+00  1.06727128e-06  3.83960927e-07  1.06727128e-06  5.00000000e-01                                 
 1.09568031e-06  9.14955142e-01  1.09568031e-06  8.49930372e-01  1.09568031e-06  5.31632468e-01  1.09568031e-06  1.80000000e+00  1.09568031e-06  9.98061646e-07  1.09568031e-06  5.00000000e-01                                 
 1.12678994e-06  9.59529096e-01  1.12678994e-06  8.75537560e-01  1.12678994e-06  5.31694074e-01  1.12678994e-06  1.80000000e+00  1.12678994e-06  6.01509014e-07  1.12678994e-06  5.00000000e-01                                 
 1.15252367e-06  9.69589950e-01  1.15252367e-06  8.80820210e-01  1.15252367e-06  5.18950227e-01  1.15252367e-06  1.80000000e+00  1.15252367e-06 -7.18460171e-08  1.15252367e-06  5.00000000e-01                                 
 1.18293639e-06  9.62827555e-01  1.18293639e-06  8.77422616e-01  1.18293639e-06  5.03987027e-01  1.18293639e-06  1.80000000e+00  1.18293639e-06 -6.72236147e-08  1.18293639e-06  5.00000000e-01                                 
 1.21225527e-06  9.66009837e-01  1.21225527e-06  8.78973324e-01  1.21225527e-06  5.04537994e-01  1.21225527e-06  1.80000000e+00  1.21225527e-06  1.82089569e-07  1.21225527e-06  5.00000000e-01                                 
 1.24477557e-06  9.63804074e-01  1.24477557e-06  8.77962708e-01  1.24477557e-06  5.04468141e-01  1.24477557e-06  1.80000000e+00  1.24477557e-06 -1.73641170e-07  1.24477557e-06  5.00000000e-01                                 
 1.29034572e-06  9.64089417e-01  1.29034572e-06  8.78004296e-01  1.29034572e-06  5.04270737e-01  1.29034572e-06  1.80000000e+00  1.29034572e-06  1.74596758e-07  1.29034572e-06  5.00000000e-01                                 
 1.35248927e-06  9.63029148e-01  1.35248927e-06  8.77580591e-01  1.35248927e-06  5.03427687e-01  1.35248927e-06  1.80000000e+00  1.35248927e-06 -1.38881664e-07  1.35248927e-06  5.00000000e-01                                 
 1.46655011e-06  9.61780838e-01  1.46655011e-06  8.76849638e-01  1.46655011e-06  4.99305470e-01  1.46655011e-06  1.80000000e+00  1.46655011e-06  1.45678243e-07  1.46655011e-06  5.00000000e-01                                 
 1.68746263e-06  9.59240846e-01  1.68746263e-06  8.75669971e-01  1.68746263e-06  4.98565195e-01  1.68746263e-06  1.80000000e+00  1.68746263e-06 -1.20631257e-07  1.68746263e-06  5.00000000e-01                                 
 2.00512471e-06  9.55534232e-01  2.00512471e-06  8.73651894e-01  2.00512471e-06  4.99541544e-01  2.00512471e-06  1.80000000e+00  2.00512471e-06  1.34693650e-07  2.00512471e-06  5.00000000e-01                                 
 2.47522772e-06  9.50292931e-01  2.47522772e-06  8.71002383e-01  2.47522772e-06  5.00981527e-01  2.47522772e-06  1.80000000e+00  2.47522772e-06 -1.13265983e-07  2.47522772e-06  5.00000000e-01                                 
 3.04086772e-06  9.43070310e-01  3.04086772e-06  8.66940503e-01  3.04086772e-06  4.98600774e-01  3.04086772e-06  1.80000000e+00  3.04086772e-06  1.28122172e-07  3.04086772e-06  5.00000000e-01                                 
 3.16586772e-06  9.41341849e-01  3.16586772e-06  8.66039553e-01  3.16586772e-06  4.99327995e-01  3.16586772e-06  1.80000000e+00  3.16586772e-06  1.01899227e-08  3.16586772e-06  5.00000000e-01                                 
 3.41586772e-06  9.37270580e-01  3.41586772e-06  8.63731587e-01  3.41586772e-06  4.99871319e-01  3.41586772e-06  1.80000000e+00  3.41586772e-06  2.87580208e-09  3.41586772e-06  5.00000000e-01                                 
 3.47836772e-06  9.36091111e-01  3.47836772e-06  8.63053013e-01  3.47836772e-06  4.99876708e-01  3.47836772e-06  1.80000000e+00  3.47836772e-06  4.99423726e-09  3.47836772e-06  5.00000000e-01                                 
 3.60336772e-06  9.33517859e-01  3.60336772e-06  8.61558466e-01  3.60336772e-06  4.99739205e-01  3.60336772e-06  1.80000000e+00  3.60336772e-06  3.19852784e-09  3.60336772e-06  5.00000000e-01                                 
 3.85336772e-06  9.26346883e-01  3.85336772e-06  8.57284509e-01  3.85336772e-06  4.99000013e-01  3.85336772e-06  1.80000000e+00  3.85336772e-06 -4.00685936e-09  3.85336772e-06  5.00000000e-01                                 
 3.91586772e-06  9.23740942e-01  3.91586772e-06  8.55690525e-01  3.91586772e-06  4.98718365e-01  3.91586772e-06  1.80000000e+00  3.91586772e-06 -7.67233779e-09  3.91586772e-06  5.00000000e-01                                 
 4.04086772e-06  9.17193299e-01  4.04086772e-06  8.51586106e-01  4.04086772e-06  4.97835664e-01  4.04086772e-06  1.80000000e+00  4.04086772e-06 -1.97053526e-08  4.04086772e-06  5.00000000e-01                                 
 4.07211772e-06  9.14938504e-01  4.07211772e-06  8.50139980e-01  4.07211772e-06  4.97453148e-01  4.07211772e-06  1.80000000e+00  4.07211772e-06 -2.48048816e-08  4.07211772e-06  5.00000000e-01                                 
 4.13461772e-06  9.09644906e-01  4.13461772e-06  8.46672956e-01  4.13461772e-06  4.96418155e-01  4.13461772e-06  1.80000000e+00  4.13461772e-06 -3.90560121e-08  4.13461772e-06  5.00000000e-01                                 
 4.25961772e-06  8.89054337e-01  4.25961772e-06  8.32184852e-01  4.25961772e-06  4.91335973e-01  4.25961772e-06  1.80000000e+00  4.25961772e-06 -1.15996740e-07  4.25961772e-06  5.00000000e-01                                 
 4.37485971e-06  8.60768227e-01  4.37485971e-06  8.09425865e-01  4.37485971e-06  4.92198166e-01  4.37485971e-06  1.80000000e+00  4.37485971e-06 -1.35660909e-07  4.37485971e-06  5.00000000e-01                                 
 4.51180377e-06  8.45845358e-01  4.51180377e-06  7.96186026e-01  4.51180377e-06  5.11056567e-01  4.51180377e-06  1.80000000e+00  4.51180377e-06  3.87714616e-08  4.51180377e-06  5.00000000e-01                                 
 4.65673505e-06  8.49958537e-01  4.65673505e-06  7.99891182e-01  4.65673505e-06  5.03914442e-01  4.65673505e-06  1.80000000e+00  4.65673505e-06  2.33517970e-08  4.65673505e-06  5.00000000e-01                                 
 4.81945199e-06  8.48258755e-01  4.81945199e-06  7.98380003e-01  4.81945199e-06  4.82923425e-01  4.81945199e-06  1.80000000e+00  4.81945199e-06 -3.03187605e-09  4.81945199e-06  5.00000000e-01                                 
 4.96397861e-06  8.48512198e-01  4.96397861e-06  7.98586253e-01  4.96397861e-06  5.06216877e-01  4.96397861e-06  1.80000000e+00  4.96397861e-06  3.64403533e-08  4.96397861e-06  5.00000000e-01                                 
