 time            v(vbep)         time            v(vben)         time            v(vout)         time            v(vphi1)        time            v(vphi2)        time            v(vref)         time            v(voutc)        time            v(voutcc)       yes             currtemp       
 0.00000000e+00  7.29739655e-01  0.00000000e+00  6.65228820e-01  0.00000000e+00  1.51712707e+00  0.00000000e+00  0.00000000e+00  0.00000000e+00  1.79999999e+00  0.00000000e+00  6.66384668e-01  0.00000000e+00  1.51712706e+00  0.00000000e+00  1.52435589e+00  1.00000000e+00  5.60000000e+01 
 1.00000000e-11  7.29764766e-01  1.00000000e-11  6.65300926e-01  1.00000000e-11  1.51789733e+00  1.00000000e-11  1.80000000e-02  1.00000000e-11  1.80025337e+00  1.00000000e-11  6.66918800e-01  1.00000000e-11  1.51759888e+00  1.00000000e-11  1.52436962e+00                                 
 2.00000000e-11  7.29771622e-01  2.00000000e-11  6.65345730e-01  2.00000000e-11  1.51836269e+00  2.00000000e-11  3.60000000e-02  2.00000000e-11  1.80035290e+00  2.00000000e-11  6.67314192e-01  2.00000000e-11  1.51795384e+00  2.00000000e-11  1.52437456e+00                                 
 4.00000000e-11  7.29771635e-01  4.00000000e-11  6.65404464e-01  4.00000000e-11  1.51891326e+00  4.00000000e-11  7.20000000e-02  4.00000000e-11  1.80038982e+00  4.00000000e-11  6.67892058e-01  4.00000000e-11  1.51848077e+00  4.00000000e-11  1.52437591e+00                                 
 8.00000000e-11  7.29760014e-01  8.00000000e-11  6.65441676e-01  8.00000000e-11  1.51900236e+00  8.00000000e-11  1.44000000e-01  8.00000000e-11  1.80018457e+00  8.00000000e-11  6.68341366e-01  8.00000000e-11  1.51890440e+00  8.00000000e-11  1.52436536e+00                                 
 1.60000000e-10  7.29757271e-01  1.60000000e-10  6.65451871e-01  1.60000000e-10  1.51866546e+00  1.60000000e-10  2.88000000e-01  1.60000000e-10  1.80000524e+00  1.60000000e-10  6.68429711e-01  1.60000000e-10  1.51894973e+00  1.60000000e-10  1.52435606e+00                                 
 3.20000000e-10  7.29752863e-01  3.20000000e-10  6.65444403e-01  3.20000000e-10  1.51828228e+00  3.20000000e-10  5.76000000e-01  3.20000000e-10  1.79998347e+00  3.20000000e-10  6.68268400e-01  3.20000000e-10  1.51861081e+00  3.20000000e-10  1.52435116e+00                                 
 6.40000000e-10  7.29669489e-01  6.40000000e-10  6.65031291e-01  6.40000000e-10  1.51648716e+00  6.40000000e-10  1.15200000e+00  6.40000000e-10  1.81035116e+00  6.40000000e-10  6.65646366e-01  6.40000000e-10  1.52270606e+00  6.40000000e-10  1.52437749e+00                                 
 1.00000000e-09  7.30263455e-01  1.00000000e-09  6.65381007e-01  1.00000000e-09  1.49468512e+00  1.00000000e-09  1.80000000e+00  1.00000000e-09  1.00268456e-01  1.00000000e-09  6.80009988e-01  1.00000000e-09  1.52640458e+00  1.00000000e-09  1.52436635e+00                                 
 1.03696085e-09  7.30328685e-01  1.03696085e-09  6.65401290e-01  1.03696085e-09  1.49336701e+00  1.03696085e-09  1.80000000e+00  1.03696085e-09  2.32214460e-02  1.03696085e-09  6.83171064e-01  1.03696085e-09  1.52815706e+00  1.03696085e-09  1.52439523e+00                                 
 1.11088254e-09  7.30484160e-01  1.11088254e-09  6.65449910e-01  1.11088254e-09  1.49174080e+00  1.11088254e-09  1.80000000e+00  1.11088254e-09 -1.09535142e-02  1.11088254e-09  6.87209326e-01  1.11088254e-09  1.53129680e+00  1.11088254e-09  1.52441379e+00                                 
 1.25872592e-09  7.30612095e-01  1.25872592e-09  6.65308623e-01  1.25872592e-09  1.48883823e+00  1.25872592e-09  1.80000000e+00  1.25872592e-09  8.80485048e-03  1.25872592e-09  6.87298723e-01  1.25872592e-09  1.53165105e+00  1.25872592e-09  1.52436586e+00                                 
 1.44948992e-09  7.30584122e-01  1.44948992e-09  6.65289052e-01  1.44948992e-09  1.48807532e+00  1.44948992e-09  1.80000000e+00  1.44948992e-09 -6.74615282e-03  1.44948992e-09  6.86420208e-01  1.44948992e-09  1.53068778e+00  1.44948992e-09  1.52440100e+00                                 
 1.66222585e-09  7.30485222e-01  1.66222585e-09  6.65285425e-01  1.66222585e-09  1.48785677e+00  1.66222585e-09  1.80000000e+00  1.66222585e-09  5.64547619e-03  1.66222585e-09  6.84858680e-01  1.66222585e-09  1.52953974e+00  1.66222585e-09  1.52442516e+00                                 
 2.01709767e-09  7.30236704e-01  2.01709767e-09  6.65239319e-01  2.01709767e-09  1.48759261e+00  2.01709767e-09  1.80000000e+00  2.01709767e-09 -5.05408693e-03  2.01709767e-09  6.82240675e-01  2.01709767e-09  1.52714293e+00  2.01709767e-09  1.52453894e+00                                 
 2.50664103e-09  7.29976900e-01  2.50664103e-09  6.65242223e-01  2.50664103e-09  1.48751447e+00  2.50664103e-09  1.80000000e+00  2.50664103e-09  4.56950128e-03  2.50664103e-09  6.79227837e-01  2.50664103e-09  1.52471097e+00  2.50664103e-09  1.52469164e+00                                 
 3.21069354e-09  7.29729078e-01  3.21069354e-09  6.65196277e-01  3.21069354e-09  1.48659716e+00  3.21069354e-09  1.80000000e+00  3.21069354e-09 -4.39111637e-03  3.21069354e-09  6.75167393e-01  3.21069354e-09  1.52110438e+00  3.21069354e-09  1.52491444e+00                                 
 4.28658432e-09  7.29583355e-01  4.28658432e-09  6.65213647e-01  4.28658432e-09  1.48521594e+00  4.28658432e-09  1.80000000e+00  4.28658432e-09  4.17290955e-03  4.28658432e-09  6.70998653e-01  4.28658432e-09  1.51767551e+00  4.28658432e-09  1.52513754e+00                                 
 5.90675756e-09  7.29519294e-01  5.90675756e-09  6.65188652e-01  5.90675756e-09  1.48135445e+00  5.90675756e-09  1.80000000e+00  5.90675756e-09 -4.10308853e-03  5.90675756e-09  6.66893960e-01  5.90675756e-09  1.51405197e+00  5.90675756e-09  1.52523685e+00                                 
 7.34504695e-09  7.29554418e-01  7.34504695e-09  6.65224050e-01  7.34504695e-09  1.47690924e+00  7.34504695e-09  1.80000000e+00  7.34504695e-09  3.97354759e-03  7.34504695e-09  6.65446359e-01  7.34504695e-09  1.51294386e+00  7.34504695e-09  1.52512071e+00                                 
 8.92849832e-09  7.29590250e-01  8.92849832e-09  6.65202139e-01  8.92849832e-09  1.47002926e+00  8.92849832e-09  1.80000000e+00  8.92849832e-09 -3.88362303e-03  8.92849832e-09  6.64388128e-01  8.92849832e-09  1.51191977e+00  8.92849832e-09  1.52488578e+00                                 
 1.03541518e-08  7.29643464e-01  1.03541518e-08  6.65235132e-01  1.03541518e-08  1.46317516e+00  1.03541518e-08  1.80000000e+00  1.03541518e-08  3.77197230e-03  1.03541518e-08  6.64345814e-01  1.03541518e-08  1.51199549e+00  1.03541518e-08  1.52462274e+00                                 
 1.25338187e-08  7.29683829e-01  1.25338187e-08  6.65210742e-01  1.25338187e-08  1.45073827e+00  1.25338187e-08  1.80000000e+00  1.25338187e-08 -3.70586353e-03  1.25338187e-08  6.64077587e-01  1.25338187e-08  1.51163840e+00  1.25338187e-08  1.52421447e+00                                 
 1.49448105e-08  7.29729075e-01  1.49448105e-08  6.65241846e-01  1.49448105e-08  1.43621960e+00  1.49448105e-08  1.80000000e+00  1.49448105e-08  3.64510717e-03  1.49448105e-08  6.64497582e-01  1.49448105e-08  1.51209239e+00  1.49448105e-08  1.52378180e+00                                 
 1.86316741e-08  7.29742112e-01  1.86316741e-08  6.65214742e-01  1.86316741e-08  1.41219054e+00  1.86316741e-08  1.80000000e+00  1.86316741e-08 -3.60552742e-03  1.86316741e-08  6.64624928e-01  1.86316741e-08  1.51206459e+00  1.86316741e-08  1.52321101e+00                                 
 2.31832821e-08  7.29758202e-01  2.31832821e-08  6.65243942e-01  2.31832821e-08  1.38213986e+00  2.31832821e-08  1.80000000e+00  2.31832821e-08  3.57513607e-03  2.31832821e-08  6.65264458e-01  2.31832821e-08  1.51269692e+00  2.31832821e-08  1.52264460e+00                                 
 3.14406279e-08  7.29744347e-01  3.14406279e-08  6.65215280e-01  3.14406279e-08  1.32632684e+00  3.14406279e-08  1.80000000e+00  3.14406279e-08 -3.55727742e-03  3.14406279e-08  6.65535155e-01  3.14406279e-08  1.51279069e+00  3.14406279e-08  1.52192780e+00                                 
 4.42310421e-08  7.29748803e-01  4.42310421e-08  6.65243548e-01  4.42310421e-08  1.24026509e+00  4.42310421e-08  1.80000000e+00  4.42310421e-08  3.54689080e-03  4.42310421e-08  6.66192737e-01  4.42310421e-08  1.51344278e+00  4.42310421e-08  1.52131188e+00                                 
 6.98118704e-08  7.29734977e-01  6.98118704e-08  6.65214514e-01  6.98118704e-08  1.06851787e+00  6.98118704e-08  1.80000000e+00  6.98118704e-08 -3.54059554e-03  6.98118704e-08  6.66231479e-01  6.98118704e-08  1.51335733e+00  6.98118704e-08  1.52086898e+00                                 
 1.02844913e-07  7.29743946e-01  1.02844913e-07  6.65243093e-01  1.02844913e-07  8.53590015e-01  1.02844913e-07  1.80000000e+00  1.02844913e-07  3.53862662e-03  1.02844913e-07  6.66501789e-01  1.02844913e-07  1.51369621e+00  1.02844913e-07  1.52078442e+00                                 
 1.35262151e-07  7.29737982e-01  1.35262151e-07  6.65214582e-01  1.35262151e-07  7.06600240e-01  1.35262151e-07  1.80000000e+00  1.35262151e-07 -3.52629976e-03  1.35262151e-07  6.66264513e-01  1.35262151e-07  1.51338312e+00  1.35262151e-07  1.52077673e+00                                 
 1.60421344e-07  7.29741310e-01  1.60421344e-07  6.65243283e-01  1.60421344e-07  6.71432520e-01  1.60421344e-07  1.80000000e+00  1.60421344e-07  3.53448655e-03  1.60421344e-07  6.66511243e-01  1.60421344e-07  1.51370178e+00  1.60421344e-07  1.52077531e+00                                 
 1.84094409e-07  7.29735753e-01  1.84094409e-07  6.65214149e-01  1.84094409e-07  6.67963042e-01  1.84094409e-07  1.80000000e+00  1.84094409e-07 -3.51356866e-03  1.84094409e-07  6.66263148e-01  1.84094409e-07  1.51338049e+00  1.84094409e-07  1.52077590e+00                                 
 2.08118957e-07  7.29743274e-01  2.08118957e-07  6.65243482e-01  2.08118957e-07  6.67678140e-01  2.08118957e-07  1.80000000e+00  2.08118957e-07  3.52333346e-03  2.08118957e-07  6.66506811e-01  2.08118957e-07  1.51369621e+00  2.08118957e-07  1.52077271e+00                                 
 2.33225642e-07  7.29735763e-01  2.33225642e-07  6.65214141e-01  2.33225642e-07  6.67517848e-01  2.33225642e-07  1.80000000e+00  2.33225642e-07 -3.50263069e-03  2.33225642e-07  6.66262867e-01  2.33225642e-07  1.51337871e+00  2.33225642e-07  1.52077238e+00                                 
 2.83439013e-07  7.29743633e-01  2.83439013e-07  6.65243485e-01  2.83439013e-07  6.67625982e-01  2.83439013e-07  1.80000000e+00  2.83439013e-07  3.51529271e-03  2.83439013e-07  6.66506370e-01  2.83439013e-07  1.51369317e+00  2.83439013e-07  1.52076913e+00                                 
 3.83865754e-07  7.29735634e-01  3.83865754e-07  6.65214149e-01  3.83865754e-07  6.67509794e-01  3.83865754e-07  1.80000000e+00  3.83865754e-07 -3.49862409e-03  3.83865754e-07  6.66262948e-01  3.83865754e-07  1.51337383e+00  3.83865754e-07  1.52076683e+00                                 
 5.84719237e-07  7.29743699e-01  5.84719237e-07  6.65243480e-01  5.84719237e-07  6.67628319e-01  5.84719237e-07  1.80000000e+00  5.84719237e-07  3.51328562e-03  5.84719237e-07  6.66506331e-01  5.84719237e-07  1.51368311e+00  5.84719237e-07  1.52075913e+00                                 
 9.86426203e-07  7.29735601e-01  9.86426203e-07  6.65214151e-01  9.86426203e-07  6.67508761e-01  9.86426203e-07  1.80000000e+00  9.86426203e-07 -3.49762764e-03  9.86426203e-07  6.66262965e-01  9.86426203e-07  1.51335384e+00  9.86426203e-07  1.52074684e+00                                 
 1.78984013e-06  7.29743715e-01  1.78984013e-06  6.65243479e-01  1.78984013e-06  6.67628807e-01  1.78984013e-06  1.80000000e+00  1.78984013e-06  3.51278408e-03  1.78984013e-06  6.66506323e-01  1.78984013e-06  1.51364308e+00  1.78984013e-06  1.52071917e+00                                 
 2.98984013e-06  7.29735593e-01  2.98984013e-06  6.65214152e-01  2.98984013e-06  6.67508494e-01  2.98984013e-06  1.80000000e+00  2.98984013e-06 -3.49736162e-03  2.98984013e-06  6.66262971e-01  2.98984013e-06  1.51328734e+00  2.98984013e-06  1.52068041e+00                                 
 4.18984013e-06  7.29743723e-01  4.18984013e-06  6.65243479e-01  4.18984013e-06  6.67629018e-01  4.18984013e-06  1.80000000e+00  4.18984013e-06  3.51256113e-03  4.18984013e-06  6.66506319e-01  4.18984013e-06  1.51356340e+00  4.18984013e-06  1.52063960e+00                                 
 5.38984013e-06  7.29735585e-01  5.38984013e-06  6.65214152e-01  5.38984013e-06  6.67508284e-01  5.38984013e-06  1.80000000e+00  5.38984013e-06 -3.49714513e-03  5.38984013e-06  6.66262975e-01  5.38984013e-06  1.51320768e+00  5.38984013e-06  1.52060084e+00                                 
 6.00100000e-06  7.29743733e-01  6.00100000e-06  6.65243478e-01  6.00100000e-06  6.67629321e-01  6.00100000e-06  1.80000000e+00  6.00100000e-06  3.51222955e-03  6.00100000e-06  6.66506313e-01  6.00100000e-06  1.51350328e+00  6.00100000e-06  1.52057956e+00                                 
 6.00110000e-06  7.29691705e-01  6.00110000e-06  6.64991070e-01  6.00110000e-06  6.65756809e-01  6.00110000e-06  1.62000000e+00  6.00110000e-06  2.07445068e-04  6.00110000e-06  6.64818493e-01  6.00110000e-06  1.51201155e+00  6.00110000e-06  1.52056875e+00                                 
 6.00130000e-06  7.29724121e-01  6.00130000e-06  6.64989112e-01  6.00130000e-06  6.65877434e-01  6.00130000e-06  1.26000000e+00  6.00130000e-06 -2.42082317e-04  6.00130000e-06  6.64601449e-01  6.00130000e-06  1.51182010e+00  6.00130000e-06  1.52058533e+00                                 
 6.00165694e-06  7.29787295e-01  6.00165694e-06  6.65185768e-01  6.00165694e-06  6.67864558e-01  6.00165694e-06  6.17508203e-01  6.00165694e-06  3.67422142e-03  6.00165694e-06  6.64947949e-01  6.00165694e-06  1.50884635e+00  6.00165694e-06  1.52056170e+00                                 
 6.00200000e-06  7.29726308e-01  6.00200000e-06  6.63727988e-01  6.00200000e-06  7.00345375e-01  6.00200000e-06  0.00000000e+00  6.00200000e-06  1.60090909e+00  6.00200000e-06  6.49527547e-01  6.00200000e-06  1.31624555e+00  6.00200000e-06  1.51998217e+00                                 
 6.00204111e-06  7.29741445e-01  6.00204111e-06  6.63282989e-01  6.00204111e-06  7.06868019e-01  6.00204111e-06  0.00000000e+00  6.00204111e-06  1.72253663e+00  6.00204111e-06  6.44485103e-01  6.00204111e-06  1.25493506e+00  6.00204111e-06  1.51998795e+00                                 
 6.00212332e-06  7.29742150e-01  6.00212332e-06  6.62482876e-01  6.00212332e-06  7.11579671e-01  6.00212332e-06  0.00000000e+00  6.00212332e-06  1.81336591e+00  6.00212332e-06  6.35668085e-01  6.00212332e-06  1.12822529e+00  6.00212332e-06  1.52035691e+00                                 
 6.00228775e-06  7.29737730e-01  6.00228775e-06  6.62358499e-01  6.00228775e-06  7.02485489e-01  6.00228775e-06  0.00000000e+00  6.00228775e-06  1.78947581e+00  6.00228775e-06  6.35139594e-01  6.00228775e-06  9.27053015e-01  6.00228775e-06  1.52084155e+00                                 
 6.00244288e-06  7.29740231e-01  6.00244288e-06  6.62953921e-01  6.00244288e-06  6.95004347e-01  6.00244288e-06  0.00000000e+00  6.00244288e-06  1.80376916e+00  6.00244288e-06  6.41953931e-01  6.00244288e-06  8.08204041e-01  6.00244288e-06  1.52080797e+00                                 
 6.00262952e-06  7.29736904e-01  6.00262952e-06  6.63824481e-01  6.00262952e-06  6.83019014e-01  6.00262952e-06  0.00000000e+00  6.00262952e-06  1.79675707e+00  6.00262952e-06  6.50639891e-01  6.00262952e-06  7.24503337e-01  6.00262952e-06  1.52102115e+00                                 
 6.00285476e-06  7.29739991e-01  6.00285476e-06  6.64846717e-01  6.00285476e-06  6.73380946e-01  6.00285476e-06  0.00000000e+00  6.00285476e-06  1.80189972e+00  6.00285476e-06  6.60388542e-01  6.00285476e-06  6.86770237e-01  6.00285476e-06  1.52080696e+00                                 
 6.00307377e-06  7.29737316e-01  6.00307377e-06  6.65291442e-01  6.00307377e-06  6.70244440e-01  6.00307377e-06  0.00000000e+00  6.00307377e-06  1.79885986e+00  6.00307377e-06  6.63695275e-01  6.00307377e-06  6.74037956e-01  6.00307377e-06  1.52034454e+00                                 
 6.00332600e-06  7.29740181e-01  6.00332600e-06  6.65611672e-01  6.00332600e-06  6.68524796e-01  6.00332600e-06  0.00000000e+00  6.00332600e-06  1.80083065e+00  6.00332600e-06  6.66320786e-01  6.00332600e-06  6.70302939e-01  6.00332600e-06  1.51938224e+00                                 
 6.00366013e-06  7.29737982e-01  6.00366013e-06  6.65688439e-01  6.00366013e-06  6.68891393e-01  6.00366013e-06  0.00000000e+00  6.00366013e-06  1.79942378e+00  6.00366013e-06  6.66770048e-01  6.00366013e-06  6.68570404e-01  6.00366013e-06  1.51793068e+00                                 
 6.00419784e-06  7.29740513e-01  6.00419784e-06  6.65732718e-01  6.00419784e-06  6.69567832e-01  6.00419784e-06  0.00000000e+00  6.00419784e-06  1.80050522e+00  6.00419784e-06  6.67631075e-01  6.00419784e-06  6.69719335e-01  6.00419784e-06  1.51517190e+00                                 
 6.00505740e-06  7.29738475e-01  6.00505740e-06  6.65638260e-01  6.00505740e-06  6.72161244e-01  6.00505740e-06  0.00000000e+00  6.00505740e-06  1.79957621e+00  6.00505740e-06  6.67423941e-01  6.00505740e-06  6.71487422e-01  6.00505740e-06  1.51045490e+00                                 
 6.00662992e-06  7.29740692e-01  6.00662992e-06  6.65554167e-01  6.00662992e-06  6.76203142e-01  6.00662992e-06  0.00000000e+00  6.00662992e-06  1.80042096e+00  6.00662992e-06  6.67859496e-01  6.00662992e-06  6.76230753e-01  6.00662992e-06  1.50118233e+00                                 
 6.00977497e-06  7.29738590e-01  6.00977497e-06  6.65338101e-01  6.00977497e-06  6.85505723e-01  6.00977497e-06  0.00000000e+00  6.00977497e-06  1.79961608e+00  6.00977497e-06  6.67361619e-01  6.00977497e-06  6.84770637e-01  6.00977497e-06  1.48185752e+00                                 
 6.01606506e-06  7.29740704e-01  6.01606506e-06  6.65222268e-01  6.01606506e-06  7.02685037e-01  6.01606506e-06  0.00000000e+00  6.01606506e-06  1.80040051e+00  6.01606506e-06  6.67364581e-01  6.01606506e-06  7.02703023e-01  6.01606506e-06  1.44206126e+00                                 
 6.02864523e-06  7.29738603e-01  6.02864523e-06  6.65200402e-01  6.02864523e-06  7.36477898e-01  6.02864523e-06  0.00000000e+00  6.02864523e-06  1.79962476e+00  6.02864523e-06  6.66556779e-01  6.02864523e-06  7.35625228e-01  6.02864523e-06  1.36660827e+00                                 
 6.04358083e-06  7.29740702e-01  6.04358083e-06  6.65239404e-01  6.04358083e-06  7.73179247e-01  6.04358083e-06  0.00000000e+00  6.04358083e-06  1.80039335e+00  6.04358083e-06  6.66673160e-01  6.04358083e-06  7.73258565e-01  6.04358083e-06  1.28591674e+00                                 
 6.07345201e-06  7.29738610e-01  6.07345201e-06  6.65213876e-01  6.07345201e-06  8.39645275e-01  6.07345201e-06  0.00000000e+00  6.07345201e-06  1.79962611e+00  6.07345201e-06  6.66202540e-01  6.07345201e-06  8.38278910e-01  6.07345201e-06  1.14485690e+00                                 
 6.11977133e-06  7.29740701e-01  6.11977133e-06  6.65243714e-01  6.11977133e-06  9.23206426e-01  6.11977133e-06  0.00000000e+00  6.11977133e-06  1.80038737e+00  6.11977133e-06  6.66549498e-01  6.11977133e-06  9.23699282e-01  6.11977133e-06  9.93943888e-01                                 
 6.21240995e-06  7.29738611e-01  6.21240995e-06  6.65213956e-01  6.21240995e-06  1.03938130e+00  6.21240995e-06  0.00000000e+00  6.21240995e-06  1.79962169e+00  6.21240995e-06  6.66202662e-01  6.21240995e-06  1.03679526e+00  6.21240995e-06  9.86067614e-01                                 
 6.27200336e-06  7.29740700e-01  6.27200336e-06  6.65243747e-01  6.27200336e-06  1.08546834e+00  6.27200336e-06  0.00000000e+00  6.27200336e-06  1.80038249e+00  6.27200336e-06  6.66558855e-01  6.27200336e-06  1.08671241e+00  6.27200336e-06  1.07229380e+00                                 
