 time            v(vbep)         time            v(vben)         time            v(vout)         time            v(vphi1)        time            v(vphi2)        time            v(vref)         time            v(voutc)        time            v(voutcc)       yes             currtemp       
 0.00000000e+00  7.01374318e-01  0.00000000e+00  6.29687729e-01  0.00000000e+00  1.45345441e+00  0.00000000e+00  0.00000000e+00  0.00000000e+00  1.79999999e+00  0.00000000e+00  6.29561251e-01  0.00000000e+00  1.45345439e+00  0.00000000e+00  1.46147185e+00  1.00000000e+00  8.20000000e+01 
 5.00000000e-12  7.01395885e-01  5.00000000e-12  6.29742749e-01  5.00000000e-12  1.45406222e+00  5.00000000e-12  1.80000000e-02  5.00000000e-12  1.80018674e+00  5.00000000e-12  6.29949720e-01  5.00000000e-12  1.45379941e+00  5.00000000e-12  1.46148487e+00                                 
 1.00000000e-11  7.01405281e-01  1.00000000e-11  6.29778565e-01  1.00000000e-11  1.45449224e+00  1.00000000e-11  3.60000000e-02  1.00000000e-11  1.80027057e+00  1.00000000e-11  6.30253742e-01  1.00000000e-11  1.45407044e+00  1.00000000e-11  1.46149149e+00                                 
 2.00000000e-11  7.01411467e-01  2.00000000e-11  6.29827895e-01  2.00000000e-11  1.45509977e+00  2.00000000e-11  7.20000000e-02  2.00000000e-11  1.80032231e+00  2.00000000e-11  6.30728616e-01  2.00000000e-11  1.45449637e+00  2.00000000e-11  1.46149735e+00                                 
 4.00000000e-11  7.01399503e-01  4.00000000e-11  6.29862468e-01  4.00000000e-11  1.45546674e+00  4.00000000e-11  1.44000000e-01  4.00000000e-11  1.80018782e+00  4.00000000e-11  6.31183201e-01  4.00000000e-11  1.45491499e+00  4.00000000e-11  1.46149088e+00                                 
 8.00000000e-11  7.01386584e-01  8.00000000e-11  6.29867218e-01  8.00000000e-11  1.45530529e+00  8.00000000e-11  2.88000000e-01  8.00000000e-11  1.80003049e+00  8.00000000e-11  6.31332007e-01  8.00000000e-11  1.45507476e+00  8.00000000e-11  1.46147731e+00                                 
 1.60000000e-10  7.01386438e-01  1.60000000e-10  6.29851960e-01  1.60000000e-10  1.45481093e+00  1.60000000e-10  5.76000000e-01  1.60000000e-10  1.80000805e+00  1.60000000e-10  6.31149629e-01  1.60000000e-10  1.45492585e+00  1.60000000e-10  1.46147140e+00                                 
 3.20000000e-10  7.01319433e-01  3.20000000e-10  6.29407105e-01  3.20000000e-10  1.45141310e+00  3.20000000e-10  1.15200000e+00  3.20000000e-10  1.80071037e+00  3.20000000e-10  6.27327286e-01  3.20000000e-10  1.45181231e+00  3.20000000e-10  1.46144248e+00                                 
 5.00000000e-10  7.01347969e-01  5.00000000e-10  6.29947771e-01  5.00000000e-10  1.44995094e+00  5.00000000e-10  1.80000000e+00  5.00000000e-10  1.84255815e-01  5.00000000e-10  6.35587371e-01  5.00000000e-10  1.45913662e+00  5.00000000e-10  1.46154690e+00                                 
 5.21914458e-10  7.01355110e-01  5.21914458e-10  6.29962948e-01  5.21914458e-10  1.44918549e+00  5.21914458e-10  1.80000000e+00  5.21914458e-10  5.18855407e-02  5.21914458e-10  6.37368077e-01  5.21914458e-10  1.46010894e+00  5.21914458e-10  1.46153018e+00                                 
 5.65743374e-10  7.01457371e-01  5.65743374e-10  6.30009582e-01  5.65743374e-10  1.44842846e+00  5.65743374e-10  1.80000000e+00  5.65743374e-10 -1.74361198e-02  5.65743374e-10  6.39901484e-01  5.65743374e-10  1.46223128e+00  5.65743374e-10  1.46152296e+00                                 
 6.53401207e-10  7.01583687e-01  6.53401207e-10  6.29832565e-01  6.53401207e-10  1.44535849e+00  6.53401207e-10  1.80000000e+00  6.53401207e-10  1.32771746e-02  6.53401207e-10  6.40163942e-01  6.53401207e-10  1.46270389e+00  6.53401207e-10  1.46147265e+00                                 
 7.74188430e-10  7.01640285e-01  7.74188430e-10  6.29777991e-01  7.74188430e-10  1.44336160e+00  7.74188430e-10  1.80000000e+00  7.74188430e-10 -1.03207043e-02  7.74188430e-10  6.41607246e-01  7.74188430e-10  1.46379040e+00  7.74188430e-10  1.46148533e+00                                 
 9.54377182e-10  7.01710394e-01  9.54377182e-10  6.29745604e-01  9.54377182e-10  1.44181707e+00  9.54377182e-10  1.80000000e+00  9.54377182e-10  9.20115335e-03  9.54377182e-10  6.42305290e-01  9.54377182e-10  1.46456572e+00  9.54377182e-10  1.46146576e+00                                 
 1.31475469e-09  7.01657612e-01  1.31475469e-09  6.29675839e-01  1.31475469e-09  1.43928438e+00  1.31475469e-09  1.80000000e+00  1.31475469e-09 -8.40133189e-03  1.31475469e-09  6.41475399e-01  1.31475469e-09  1.46370419e+00  1.31475469e-09  1.46152575e+00                                 
 1.67594469e-09  7.01596279e-01  1.67594469e-09  6.29701767e-01  1.67594469e-09  1.43764350e+00  1.67594469e-09  1.80000000e+00  1.67594469e-09  7.90570334e-03  1.67594469e-09  6.40814606e-01  1.67594469e-09  1.46325532e+00  1.67594469e-09  1.46162048e+00                                 
 2.33070417e-09  7.01450778e-01  2.33070417e-09  6.29660258e-01  2.33070417e-09  1.43362775e+00  2.33070417e-09  1.80000000e+00  2.33070417e-09 -7.55981659e-03  2.33070417e-09  6.38643995e-01  2.33070417e-09  1.46122595e+00  2.33070417e-09  1.46184087e+00                                 
 3.15153074e-09  7.01381955e-01  3.15153074e-09  6.29691815e-01  3.15153074e-09  1.42904311e+00  3.15153074e-09  1.80000000e+00  3.15153074e-09  7.35445743e-03  3.15153074e-09  6.36949375e-01  3.15153074e-09  1.45985919e+00  3.15153074e-09  1.46211280e+00                                 
 4.58147836e-09  7.01307131e-01  4.58147836e-09  6.29653024e-01  4.58147836e-09  1.41959684e+00  4.58147836e-09  1.80000000e+00  4.58147836e-09 -7.19650319e-03  4.58147836e-09  6.33566416e-01  4.58147836e-09  1.45678167e+00  4.58147836e-09  1.46248197e+00                                 
 6.74077118e-09  7.01315897e-01  6.74077118e-09  6.29692567e-01  6.74077118e-09  1.40531630e+00  6.74077118e-09  1.80000000e+00  6.74077118e-09  7.14393874e-03  6.74077118e-09  6.30933495e-01  6.74077118e-09  1.45460116e+00  6.74077118e-09  1.46274968e+00                                 
 9.50439501e-09  7.01314025e-01  9.50439501e-09  6.29663536e-01  9.50439501e-09  1.38486708e+00  9.50439501e-09  1.80000000e+00  9.50439501e-09 -7.04282154e-03  9.50439501e-09  6.28540434e-01  9.50439501e-09  1.45239697e+00  9.50439501e-09  1.46272295e+00                                 
 1.19547541e-08  7.01350098e-01  1.19547541e-08  6.29703869e-01  1.19547541e-08  1.36625447e+00  1.19547541e-08  1.80000000e+00  1.19547541e-08  7.00800355e-03  1.19547541e-08  6.28236683e-01  1.19547541e-08  1.45223928e+00  1.19547541e-08  1.46252707e+00                                 
 1.46186716e-08  7.01346753e-01  1.46186716e-08  6.29669409e-01  1.46186716e-08  1.34436618e+00  1.46186716e-08  1.80000000e+00  1.46186716e-08 -6.90283155e-03  1.46186716e-08  6.27601460e-01  1.46186716e-08  1.45156002e+00  1.46186716e-08  1.46225704e+00                                 
 1.71218483e-08  7.01374372e-01  1.71218483e-08  6.29706272e-01  1.71218483e-08  1.32385638e+00  1.71218483e-08  1.80000000e+00  1.71218483e-08  6.87259538e-03  1.71218483e-08  6.28044004e-01  1.71218483e-08  1.45204761e+00  1.71218483e-08  1.46201028e+00                                 
 2.08055106e-08  7.01365279e-01  2.08055106e-08  6.29669992e-01  2.08055106e-08  1.29220447e+00  2.08055106e-08  1.80000000e+00  2.08055106e-08 -6.78594278e-03  2.08055106e-08  6.27850286e-01  2.08055106e-08  1.45175302e+00  2.08055106e-08  1.46169051e+00                                 
 2.50260584e-08  7.01387378e-01  2.50260584e-08  6.29706455e-01  2.50260584e-08  1.25613965e+00  2.50260584e-08  1.80000000e+00  2.50260584e-08  6.78530469e-03  2.50260584e-08  6.28559930e-01  2.50260584e-08  1.45247209e+00  2.50260584e-08  1.46141835e+00                                 
 3.12481139e-08  7.01371112e-01  3.12481139e-08  6.29669945e-01  3.12481139e-08  1.20173338e+00  3.12481139e-08  1.80000000e+00  3.12481139e-08 -6.71780817e-03  3.12481139e-08  6.28534966e-01  3.12481139e-08  1.45233067e+00  3.12481139e-08  1.46116038e+00                                 
 3.93774439e-08  7.01387333e-01  3.93774439e-08  6.29706336e-01  3.93774439e-08  1.13133509e+00  3.93774439e-08  1.80000000e+00  3.93774439e-08  6.73710542e-03  3.93774439e-08  6.29284746e-01  3.93774439e-08  1.45309184e+00  3.93774439e-08  1.46101830e+00                                 
 5.38331840e-08  7.01367068e-01  5.38331840e-08  6.29669617e-01  5.38331840e-08  1.00595290e+00  5.38331840e-08  1.80000000e+00  5.38331840e-08 -6.68505839e-03  5.38331840e-08  6.29185052e-01  5.38331840e-08  1.45289734e+00  5.38331840e-08  1.46100056e+00                                 
 7.59979926e-08  7.01381701e-01  7.59979926e-08  6.29705908e-01  7.59979926e-08  8.19070867e-01  7.59979926e-08  1.80000000e+00  7.59979926e-08  6.71841655e-03  7.59979926e-08  6.29732679e-01  7.59979926e-08  1.45349100e+00  7.59979926e-08  1.46113611e+00                                 
 9.61423071e-08  7.01370157e-01  9.61423071e-08  6.29669564e-01  9.61423071e-08  6.82706187e-01  9.61423071e-08  1.80000000e+00  9.61423071e-08 -6.66588250e-03  9.61423071e-08  6.29346767e-01  9.61423071e-08  1.45304672e+00  9.61423071e-08  1.46122540e+00                                 
 1.15398235e-07  7.01381774e-01  1.15398235e-07  6.29706377e-01  1.15398235e-07  6.34194297e-01  1.15398235e-07  1.80000000e+00  1.15398235e-07  6.70638663e-03  1.15398235e-07  6.29776442e-01  1.15398235e-07  1.45353202e+00  1.15398235e-07  1.46127600e+00                                 
 1.33237782e-07  7.01363775e-01  1.33237782e-07  6.29668802e-01  1.33237782e-07  6.30357778e-01  1.33237782e-07  1.80000000e+00  1.33237782e-07 -6.64674398e-03  1.33237782e-07  6.29356261e-01  1.33237782e-07  1.45305580e+00  1.33237782e-07  1.46129386e+00                                 
 1.46497730e-07  7.01382756e-01  1.46497730e-07  6.29706584e-01  1.46497730e-07  6.29623438e-01  1.46497730e-07  1.80000000e+00  1.46497730e-07  6.68478221e-03  1.46497730e-07  6.29769751e-01  1.46497730e-07  1.45352569e+00  1.46497730e-07  1.46130338e+00                                 
 1.63494398e-07  7.01365568e-01  1.63494398e-07  6.29668843e-01  1.63494398e-07  6.29643086e-01  1.63494398e-07  1.80000000e+00  1.63494398e-07 -6.62476452e-03  1.63494398e-07  6.29354271e-01  1.63494398e-07  1.45305346e+00  1.63494398e-07  1.46130295e+00                                 
 1.97487734e-07  7.01382922e-01  1.97487734e-07  6.29706578e-01  1.97487734e-07  6.29386818e-01  1.97487734e-07  1.80000000e+00  1.97487734e-07  6.67027996e-03  1.97487734e-07  6.29768432e-01  1.97487734e-07  1.45352289e+00  1.97487734e-07  1.46130774e+00                                 
 2.58068333e-07  7.01365747e-01  2.58068333e-07  6.29668873e-01  2.58068333e-07  6.29536702e-01  2.58068333e-07  1.80000000e+00  2.58068333e-07 -6.61722737e-03  2.58068333e-07  6.29353965e-01  2.58068333e-07  1.45305028e+00  2.58068333e-07  1.46130236e+00                                 
 3.63073974e-07  7.01382875e-01  3.63073974e-07  6.29706565e-01  3.63073974e-07  6.29398819e-01  3.63073974e-07  1.80000000e+00  3.63073974e-07  6.66599595e-03  3.63073974e-07  6.29768424e-01  3.63073974e-07  1.45351759e+00  3.63073974e-07  1.46130271e+00                                 
 5.67297162e-07  7.01365769e-01  5.67297162e-07  6.29668880e-01  5.67297162e-07  6.29525263e-01  5.67297162e-07  1.80000000e+00  5.67297162e-07 -6.61485282e-03  5.67297162e-07  6.29353972e-01  5.67297162e-07  1.45304048e+00  5.67297162e-07  1.46129251e+00                                 
 9.27275897e-07  7.01382864e-01  9.27275897e-07  6.29706561e-01  9.27275897e-07  6.29401890e-01  9.27275897e-07  1.80000000e+00  9.27275897e-07  6.66473649e-03  9.27275897e-07  6.29768420e-01  9.27275897e-07  1.45349965e+00  9.27275897e-07  1.46128482e+00                                 
 1.64723337e-06  7.01365774e-01  1.64723337e-06  6.29668882e-01  1.64723337e-06  6.29522199e-01  1.64723337e-06  1.80000000e+00  1.64723337e-06 -6.61416380e-03  1.64723337e-06  6.29353974e-01  1.64723337e-06  1.45300615e+00  1.64723337e-06  1.46125822e+00                                 
 2.64723337e-06  7.01382861e-01  2.64723337e-06  6.29706560e-01  2.64723337e-06  6.29404046e-01  2.64723337e-06  1.80000000e+00  2.64723337e-06  6.66435186e-03  2.64723337e-06  6.29768419e-01  2.64723337e-06  1.45344495e+00  2.64723337e-06  1.46123020e+00                                 
 3.64723337e-06  7.01365777e-01  3.64723337e-06  6.29668883e-01  3.64723337e-06  6.29521442e-01  3.64723337e-06  1.80000000e+00  3.64723337e-06 -6.61398059e-03  3.64723337e-06  6.29353976e-01  3.64723337e-06  1.45294254e+00  3.64723337e-06  1.46119469e+00                                 
 4.64723337e-06  7.01382859e-01  4.64723337e-06  6.29706559e-01  4.64723337e-06  6.29405463e-01  4.64723337e-06  1.80000000e+00  4.64723337e-06  6.66402781e-03  4.64723337e-06  6.29768418e-01  4.64723337e-06  1.45338133e+00  4.64723337e-06  1.46116666e+00                                 
 5.64723337e-06  7.01365779e-01  5.64723337e-06  6.29668884e-01  5.64723337e-06  6.29520070e-01  5.64723337e-06  1.80000000e+00  5.64723337e-06 -6.61365606e-03  5.64723337e-06  6.29353976e-01  5.64723337e-06  1.45287898e+00  5.64723337e-06  1.46113120e+00                                 
 6.64723337e-06  7.01382856e-01  6.64723337e-06  6.29706558e-01  6.64723337e-06  6.29406266e-01  6.64723337e-06  1.80000000e+00  6.64723337e-06  6.66369988e-03  6.64723337e-06  6.29768417e-01  6.64723337e-06  1.45331782e+00  6.64723337e-06  1.46110323e+00                                 
 7.64723337e-06  7.01365781e-01  7.64723337e-06  6.29668884e-01  7.64723337e-06  6.29518710e-01  7.64723337e-06  1.80000000e+00  7.64723337e-06 -6.61333156e-03  7.64723337e-06  6.29353977e-01  7.64723337e-06  1.45281548e+00  7.64723337e-06  1.46106778e+00                                 
 8.64723337e-06  7.01382854e-01  8.64723337e-06  6.29706557e-01  8.64723337e-06  6.29407055e-01  8.64723337e-06  1.80000000e+00  8.64723337e-06  6.66337197e-03  8.64723337e-06  6.29768416e-01  8.64723337e-06  1.45325428e+00  8.64723337e-06  1.46103977e+00                                 
 9.64723337e-06  7.01365784e-01  9.64723337e-06  6.29668886e-01  9.64723337e-06  6.29517360e-01  9.64723337e-06  1.80000000e+00  9.64723337e-06 -6.61300708e-03  9.64723337e-06  6.29353978e-01  9.64723337e-06  1.45275191e+00  9.64723337e-06  1.46100428e+00                                 
 1.00005000e-05  7.01382850e-01  1.00005000e-05  6.29706556e-01  1.00005000e-05  6.29408981e-01  1.00005000e-05  1.80000000e+00  1.00005000e-05  6.66274557e-03  1.00005000e-05  6.29768414e-01  1.00005000e-05  1.45321125e+00  1.00005000e-05  1.46099681e+00                                 
 1.00005500e-05  7.01337371e-01  1.00005500e-05  6.29497550e-01  1.00005500e-05  6.27570585e-01  1.00005500e-05  1.62000000e+00  1.00005500e-05  6.39414325e-04  1.00005500e-05  6.28095289e-01  1.00005500e-05  1.45169601e+00  1.00005500e-05  1.46097690e+00                                 
 1.00006500e-05  7.01360358e-01  1.00006500e-05  6.29462838e-01  1.00006500e-05  6.27427058e-01  1.00006500e-05  1.26000000e+00  1.00006500e-05 -5.49546274e-04  1.00006500e-05  6.27596025e-01  1.00006500e-05  1.45124987e+00  1.00006500e-05  1.46099597e+00                                 
 1.00008500e-05  7.01417177e-01  1.00008500e-05  6.29637775e-01  1.00008500e-05  6.29644400e-01  1.00008500e-05  5.40000000e-01  1.00008500e-05  2.85819269e-02  1.00008500e-05  6.28079542e-01  1.00008500e-05  1.44966053e+00  1.00008500e-05  1.46098215e+00                                 
 1.00010000e-05  7.01355673e-01  1.00010000e-05  6.29005183e-01  1.00010000e-05  6.50469375e-01  1.00010000e-05  0.00000000e+00  1.00010000e-05  1.54300206e+00  1.00010000e-05  6.21156534e-01  1.00010000e-05  1.39329234e+00  1.00010000e-05  1.46051975e+00                                 
 1.00010248e-05  7.01374184e-01  1.00010248e-05  6.28597995e-01  1.00010248e-05  6.56347687e-01  1.00010248e-05  0.00000000e+00  1.00010248e-05  1.70126947e+00  1.00010248e-05  6.16270216e-01  1.00010248e-05  1.36444587e+00  1.00010248e-05  1.46029774e+00                                 
 1.00010745e-05  7.01378691e-01  1.00010745e-05  6.27863728e-01  1.00010745e-05  6.62078127e-01  1.00010745e-05  0.00000000e+00  1.00010745e-05  1.81895084e+00  1.00010745e-05  6.07358585e-01  1.00010745e-05  1.30118207e+00  1.00010745e-05  1.46014109e+00                                 
 1.00011737e-05  7.01372163e-01  1.00011737e-05  6.27710947e-01  1.00011737e-05  6.57690895e-01  1.00011737e-05  0.00000000e+00  1.00011737e-05  1.78791737e+00  1.00011737e-05  6.05573568e-01  1.00011737e-05  1.19093071e+00  1.00011737e-05  1.46071051e+00                                 
 1.00013034e-05  7.01376948e-01  1.00013034e-05  6.27977123e-01  1.00013034e-05  6.54763551e-01  1.00013034e-05  0.00000000e+00  1.00013034e-05  1.80645440e+00  1.00013034e-05  6.09196168e-01  1.00013034e-05  1.07801818e+00  1.00013034e-05  1.46110081e+00                                 
 1.00015213e-05  7.01371840e-01  1.00015213e-05  6.28125270e-01  1.00015213e-05  6.51133925e-01  1.00015213e-05  0.00000000e+00  1.00015213e-05  1.79417657e+00  1.00015213e-05  6.09873855e-01  1.00015213e-05  9.19819064e-01  1.00015213e-05  1.46132598e+00                                 
 1.00017966e-05  7.01376152e-01  1.00017966e-05  6.28768251e-01  1.00017966e-05  6.44665391e-01  1.00017966e-05  0.00000000e+00  1.00017966e-05  1.80404700e+00  1.00017966e-05  6.16225391e-01  1.00017966e-05  7.82321365e-01  1.00017966e-05  1.46116822e+00                                 
 1.00022077e-05  7.01372197e-01  1.00022077e-05  6.29503287e-01  1.00022077e-05  6.36305991e-01  1.00022077e-05  0.00000000e+00  1.00022077e-05  1.79605956e+00  1.00022077e-05  6.23065274e-01  1.00022077e-05  6.72037054e-01  1.00022077e-05  1.46013057e+00                                 
 1.00026323e-05  7.01376034e-01  1.00026323e-05  6.30071492e-01  1.00026323e-05  6.31680454e-01  1.00026323e-05  0.00000000e+00  1.00026323e-05  1.80334357e+00  1.00026323e-05  6.29121475e-01  1.00026323e-05  6.40269312e-01  1.00026323e-05  1.45801519e+00                                 
 1.00030301e-05  7.01372543e-01  1.00030301e-05  6.30096284e-01  1.00030301e-05  6.32238771e-01  1.00030301e-05  0.00000000e+00  1.00030301e-05  1.79710884e+00  1.00030301e-05  6.29420306e-01  1.00030301e-05  6.32792647e-01  1.00030301e-05  1.45550525e+00                                 
 1.00034471e-05  7.01375878e-01  1.00034471e-05  6.30178890e-01  1.00034471e-05  6.32356462e-01  1.00034471e-05  0.00000000e+00  1.00034471e-05  1.80252146e+00  1.00034471e-05  6.31016697e-01  1.00034471e-05  6.33109999e-01  1.00034471e-05  1.45261383e+00                                 
 1.00040702e-05  7.01372785e-01  1.00040702e-05  6.30052770e-01  1.00040702e-05  6.34820206e-01  1.00040702e-05  0.00000000e+00  1.00040702e-05  1.79771357e+00  1.00040702e-05  6.30342659e-01  1.00040702e-05  6.33415937e-01  1.00040702e-05  1.44808611e+00                                 
 1.00051789e-05  7.01375802e-01  1.00051789e-05  6.30015375e-01  1.00051789e-05  6.37680805e-01  1.00051789e-05  0.00000000e+00  1.00051789e-05  1.80217690e+00  1.00051789e-05  6.31283547e-01  1.00051789e-05  6.37678069e-01  1.00051789e-05  1.43964835e+00                                 
 1.00072939e-05  7.01372858e-01  1.00072939e-05  6.29795640e-01  1.00072939e-05  6.45036828e-01  1.00072939e-05  0.00000000e+00  1.00072939e-05  1.79789098e+00  1.00072939e-05  6.30373883e-01  1.00072939e-05  6.43531738e-01  1.00072939e-05  1.42283367e+00                                 
 1.00115239e-05  7.01375771e-01  1.00115239e-05  6.29723146e-01  1.00115239e-05  6.57662881e-01  1.00115239e-05  0.00000000e+00  1.00115239e-05  1.80208797e+00  1.00115239e-05  6.30927840e-01  1.00115239e-05  6.57589523e-01  1.00115239e-05  1.38792152e+00                                 
