 time            v(vbep)         time            v(vben)         time            v(vout)         time            v(vphi1)        time            v(vphi2)        time            v(vref)         yes             currtemp       
 0.00000000e+00  7.81620496e-01  0.00000000e+00  7.37692965e-01  0.00000000e+00  6.64169539e-02  0.00000000e+00  0.00000000e+00  0.00000000e+00  1.79997870e+00  0.00000000e+00  5.00000000e-01  1.00000000e+00 -3.30000000e+01 
 5.00000000e-12  7.81607494e-01  5.00000000e-12  7.37682115e-01  5.00000000e-12  6.68530674e-02  5.00000000e-12  1.80000000e-02  5.00000000e-12  1.80005313e+00  5.00000000e-12  5.00000000e-01                                 
 1.00000000e-11  7.81594659e-01  1.00000000e-11  7.37671472e-01  1.00000000e-11  6.72412964e-02  1.00000000e-11  3.60000000e-02  1.00000000e-11  1.80008851e+00  1.00000000e-11  5.00000000e-01                                 
 2.00000000e-11  7.81569074e-01  2.00000000e-11  7.37650241e-01  2.00000000e-11  6.79494812e-02  2.00000000e-11  7.20000000e-02  2.00000000e-11  1.80011971e+00  2.00000000e-11  5.00000000e-01                                 
 4.00000000e-11  7.81518057e-01  4.00000000e-11  7.37607881e-01  4.00000000e-11  6.90478854e-02  4.00000000e-11  1.44000000e-01  4.00000000e-11  1.80009916e+00  4.00000000e-11  5.00000000e-01                                 
 8.00000000e-11  7.81416318e-01  8.00000000e-11  7.37523369e-01  8.00000000e-11  7.05096206e-02  8.00000000e-11  2.88000000e-01  8.00000000e-11  1.80005684e+00  8.00000000e-11  5.00000000e-01                                 
 1.60000000e-10  7.81214092e-01  1.60000000e-10  7.37355202e-01  1.60000000e-10  7.23165536e-02  1.60000000e-10  5.76000000e-01  1.60000000e-10  1.80002001e+00  1.60000000e-10  5.00000000e-01                                 
 3.20000000e-10  7.80814525e-01  3.20000000e-10  7.37022254e-01  3.20000000e-10  1.10631848e-01  3.20000000e-10  1.15200000e+00  3.20000000e-10  1.79980228e+00  3.20000000e-10  5.00000000e-01                                 
 5.00000000e-10  7.80372779e-01  5.00000000e-10  7.36653100e-01  5.00000000e-10  4.96665617e-01  5.00000000e-10  1.80000000e+00  5.00000000e-10  8.72893589e-02  5.00000000e-10  5.00000000e-01                                 
 5.20664549e-10  7.80322641e-01  5.20664549e-10  7.36611124e-01  5.20664549e-10  5.65218525e-01  5.20664549e-10  1.80000000e+00  5.20664549e-10  1.43624186e-02  5.20664549e-10  5.00000000e-01                                 
 5.61993647e-10  7.80222569e-01  5.61993647e-10  7.36527314e-01  5.61993647e-10  6.86633201e-01  5.61993647e-10  1.80000000e+00  5.61993647e-10 -6.91396070e-03  5.61993647e-10  5.00000000e-01                                 
 6.44651843e-10  7.80023667e-01  6.44651843e-10  7.36360569e-01  6.44651843e-10  8.66961959e-01  6.44651843e-10  1.80000000e+00  6.44651843e-10  6.12831811e-03  6.44651843e-10  5.00000000e-01                                 
 7.69881041e-10  7.79725453e-01  7.69881041e-10  7.36110154e-01  7.69881041e-10  1.07092272e+00  7.69881041e-10  1.80000000e+00  7.69881041e-10 -5.47142021e-03  7.69881041e-10  5.00000000e-01                                 
 9.56762576e-10  7.79287272e-01  9.56762576e-10  7.35741315e-01  9.56762576e-10  1.31858801e+00  9.56762576e-10  1.80000000e+00  9.56762576e-10  5.24444745e-03  9.56762576e-10  5.00000000e-01                                 
 1.32596233e-09  7.78444697e-01  1.32596233e-09  7.35029149e-01  1.32596233e-09  1.66402101e+00  1.32596233e-09  1.80000000e+00  1.32596233e-09 -5.01192276e-03  1.32596233e-09  5.00000000e-01                                 
 2.01539038e-09  7.76947119e-01  2.01539038e-09  7.33754124e-01  2.01539038e-09  1.90068428e+00  2.01539038e-09  1.80000000e+00  2.01539038e-09  4.99707490e-03  2.01539038e-09  5.00000000e-01                                 
 2.24987566e-09  7.76459128e-01  2.24987566e-09  7.33336033e-01  2.24987566e-09  1.91510150e+00  2.24987566e-09  1.80000000e+00  2.24987566e-09 -4.71013865e-03  2.24987566e-09  5.00000000e-01                                 
 2.54484603e-09  7.75859308e-01  2.54484603e-09  7.32820467e-01  2.54484603e-09  1.92246263e+00  2.54484603e-09  1.80000000e+00  2.54484603e-09  4.58357848e-03  2.54484603e-09  5.00000000e-01                                 
 2.89032879e-09  7.75175706e-01  2.89032879e-09  7.32230684e-01  2.89032879e-09  1.92843538e+00  2.89032879e-09  1.80000000e+00  2.89032879e-09 -4.40351031e-03  2.89032879e-09  5.00000000e-01                                 
 3.58129429e-09  7.73864938e-01  3.58129429e-09  7.31093503e-01  3.58129429e-09  1.93474077e+00  3.58129429e-09  1.80000000e+00  3.58129429e-09  4.36776955e-03  3.58129429e-09  5.00000000e-01                                 
 4.96322530e-09  7.71441256e-01  4.96322530e-09  7.28970145e-01  4.96322530e-09  1.93033539e+00  4.96322530e-09  1.80000000e+00  4.96322530e-09 -4.30846808e-03  4.96322530e-09  5.00000000e-01                                 
 7.01857721e-09  7.68239864e-01  7.01857721e-09  7.26126653e-01  7.01857721e-09  1.91654676e+00  7.01857721e-09  1.80000000e+00  7.01857721e-09  4.31597996e-03  7.01857721e-09  5.00000000e-01                                 
 9.03275163e-09  7.65476501e-01  9.03275163e-09  7.23638808e-01  9.03275163e-09  1.90583062e+00  9.03275163e-09  1.80000000e+00  9.03275163e-09 -4.26185178e-03  9.03275163e-09  5.00000000e-01                                 
 1.03847003e-08  7.63789144e-01  1.03847003e-08  7.22105706e-01  1.03847003e-08  1.89970898e+00  1.03847003e-08  1.80000000e+00  1.03847003e-08  4.25251001e-03  1.03847003e-08  5.00000000e-01                                 
 1.23078817e-08  7.61579701e-01  1.23078817e-08  7.20083792e-01  1.23078817e-08  1.89263269e+00  1.23078817e-08  1.80000000e+00  1.23078817e-08 -4.20706481e-03  1.23078817e-08  5.00000000e-01                                 
 1.48877791e-08  7.58916432e-01  1.48877791e-08  7.17625276e-01  1.48877791e-08  1.88440667e+00  1.48877791e-08  1.80000000e+00  1.48877791e-08  4.20799131e-03  1.48877791e-08  5.00000000e-01                                 
 1.85284718e-08  7.55637911e-01  1.85284718e-08  7.14566995e-01  1.85284718e-08  1.87510309e+00  1.85284718e-08  1.80000000e+00  1.85284718e-08 -4.17830613e-03  1.85284718e-08  5.00000000e-01                                 
 2.38677250e-08  7.51589239e-01  2.38677250e-08  7.10744633e-01  2.38677250e-08  1.86390715e+00  2.38677250e-08  1.80000000e+00  2.38677250e-08  4.18622928e-03  2.38677250e-08  5.00000000e-01                                 
 3.18984377e-08  7.46509250e-01  3.18984377e-08  7.05910456e-01  3.18984377e-08  1.85025013e+00  3.18984377e-08  1.80000000e+00  3.18984377e-08 -4.16425649e-03  3.18984377e-08  5.00000000e-01                                 
 4.62366180e-08  7.38891706e-01  4.62366180e-08  6.98682248e-01  4.62366180e-08  1.82869967e+00  4.62366180e-08  1.80000000e+00  4.62366180e-08  4.17741169e-03  4.62366180e-08  5.00000000e-01                                 
 7.49129788e-08  7.27264919e-01  7.49129788e-08  6.87685713e-01  7.49129788e-08  1.79145582e+00  7.49129788e-08  1.80000000e+00  7.49129788e-08 -4.15951378e-03  7.49129788e-08  5.00000000e-01                                 
 1.13397299e-07  7.16476090e-01  1.13397299e-07  6.77467324e-01  1.13397299e-07  1.74770243e+00  1.13397299e-07  1.80000000e+00  1.13397299e-07  4.17475675e-03  1.13397299e-07  5.00000000e-01                                 
 1.53002944e-07  7.08172295e-01  1.53002944e-07  6.69638396e-01  1.53002944e-07  1.70460679e+00  1.53002944e-07  1.80000000e+00  1.53002944e-07 -4.15716078e-03  1.53002944e-07  5.00000000e-01                                 
 2.30746962e-07  6.95788716e-01  2.30746962e-07  6.58051823e-01  2.30746962e-07  1.62131913e+00  2.30746962e-07  1.80000000e+00  2.30746962e-07  4.17307895e-03  2.30746962e-07  5.00000000e-01                                 
 3.05882363e-07  6.86774062e-01  3.05882363e-07  6.49701552e-01  3.05882363e-07  1.54204461e+00  3.05882363e-07  1.80000000e+00  3.05882363e-07 -4.15593760e-03  3.05882363e-07  5.00000000e-01                                 
 4.56153165e-07  6.72831753e-01  4.56153165e-07  6.36939231e-01  4.56153165e-07  1.38307365e+00  4.56153165e-07  1.80000000e+00  4.56153165e-07  4.17220410e-03  4.56153165e-07  5.00000000e-01                                 
 7.56694768e-07  6.52957050e-01  7.56694768e-07  6.19081743e-01  7.56694768e-07  1.05855506e+00  7.56694768e-07  1.80000000e+00  7.56694768e-07 -4.15534805e-03  7.56694768e-07  5.00000000e-01                                 
 1.27304970e-06  6.30936675e-01  1.27304970e-06  5.99646165e-01  1.27304970e-06  7.08176591e-01  1.27304970e-06  1.80000000e+00  1.27304970e-06  4.17198723e-03  1.27304970e-06  5.00000000e-01                                 
 1.77467035e-06  6.17647487e-01  1.77467035e-06  5.87986231e-01  1.77467035e-06  5.39932069e-01  1.77467035e-06  1.80000000e+00  1.77467035e-06 -4.15531342e-03  1.77467035e-06  5.00000000e-01                                 
 1.80586831e-06  6.17012629e-01  1.80586831e-06  5.87427144e-01  1.80586831e-06  5.33843991e-01  1.80586831e-06  1.80000000e+00  1.80586831e-06 -3.38197077e-07  1.80586831e-06  5.00000000e-01                                 
 1.86826423e-06  6.15762749e-01  1.86826423e-06  5.86326582e-01  1.86826423e-06  5.24101182e-01  1.86826423e-06  1.80000000e+00  1.86826423e-06  3.37737494e-07  1.86826423e-06  5.00000000e-01                                 
 1.99305608e-06  6.13400041e-01  1.99305608e-06  5.84244965e-01  1.99305608e-06  5.13746079e-01  1.99305608e-06  1.80000000e+00  1.99305608e-06 -3.37606863e-07  1.99305608e-06  5.00000000e-01                                 
 2.24263976e-06  6.09223392e-01  2.24263976e-06  5.80553600e-01  2.24263976e-06  5.05526673e-01  2.24263976e-06  1.80000000e+00  2.24263976e-06  3.37114035e-07  2.24263976e-06  5.00000000e-01                                 
 2.48382815e-06  6.05820901e-01  2.48382815e-06  5.77527361e-01  2.48382815e-06  5.01918542e-01  2.48382815e-06  1.80000000e+00  2.48382815e-06 -3.35816718e-07  2.48382815e-06  5.00000000e-01                                 
 2.95871862e-06  6.00745173e-01  2.95871862e-06  5.72935618e-01  2.95871862e-06  4.97379977e-01  2.95871862e-06  1.80000000e+00  2.95871862e-06  3.39394572e-07  2.95871862e-06  5.00000000e-01                                 
 3.42088073e-06  5.98072566e-01  3.42088073e-06  5.70341972e-01  3.42088073e-06  4.95189016e-01  3.42088073e-06  1.80000000e+00  3.42088073e-06 -3.32551281e-07  3.42088073e-06  5.00000000e-01                                 
 3.53642126e-06  5.97906841e-01  3.53642126e-06  5.70103216e-01  3.53642126e-06  4.95103033e-01  3.53642126e-06  1.80000000e+00  3.53642126e-06  4.83321143e-09  3.53642126e-06  5.00000000e-01                                 
 3.76750231e-06  5.98064791e-01  3.76750231e-06  5.70020118e-01  3.76750231e-06  4.95388570e-01  3.76750231e-06  1.80000000e+00  3.76750231e-06  6.22339630e-09  3.76750231e-06  5.00000000e-01                                 
 4.22966442e-06  6.04887069e-01  4.22966442e-06  5.75064416e-01  4.22966442e-06  5.02073129e-01  4.22966442e-06  1.80000000e+00  4.22966442e-06  1.39720540e-08  4.22966442e-06  5.00000000e-01                                 
 4.34520495e-06  6.10271914e-01  4.34520495e-06  5.79267463e-01  4.34520495e-06  5.06989949e-01  4.34520495e-06  1.80000000e+00  4.34520495e-06  2.04832929e-08  4.34520495e-06  5.00000000e-01                                 
 4.37409008e-06  6.11808698e-01  4.37409008e-06  5.80470696e-01  4.37409008e-06  5.08314133e-01  4.37409008e-06  1.80000000e+00  4.37409008e-06  2.26560653e-08  4.37409008e-06  5.00000000e-01                                 
 4.43186034e-06  6.15423487e-01  4.43186034e-06  5.83310441e-01  4.43186034e-06  5.10969874e-01  4.43186034e-06  1.80000000e+00  4.43186034e-06  2.87561244e-08  4.43186034e-06  5.00000000e-01                                 
 4.54740087e-06  6.28940265e-01  4.54740087e-06  5.94024772e-01  4.54740087e-06  5.17718397e-01  4.54740087e-06  1.80000000e+00  4.54740087e-06  5.86185942e-08  4.54740087e-06  5.00000000e-01                                 
 4.57628600e-06  6.35076561e-01  4.57628600e-06  5.98912286e-01  4.57628600e-06  5.20524894e-01  4.57628600e-06  1.80000000e+00  4.57628600e-06  7.55896366e-08  4.57628600e-06  5.00000000e-01                                 
 4.63405626e-06  6.52873520e-01  4.63405626e-06  6.13122620e-01  4.63405626e-06  5.29166597e-01  4.63405626e-06  1.80000000e+00  4.63405626e-06  1.40793303e-07  4.63405626e-06  5.00000000e-01                                 
 4.64849883e-06  6.60086122e-01  4.64849883e-06  6.18896317e-01  4.64849883e-06  5.32901390e-01  4.64849883e-06  1.80000000e+00  4.64849883e-06  1.73832653e-07  4.64849883e-06  5.00000000e-01                                 
 4.67738396e-06  6.78702539e-01  4.67738396e-06  6.33836204e-01  4.67738396e-06  5.42978137e-01  4.67738396e-06  1.80000000e+00  4.67738396e-06  2.77276780e-07  4.67738396e-06  5.00000000e-01                                 
 4.73515423e-06  7.89297116e-01  4.73515423e-06  7.40179621e-01  4.73515423e-06  6.16700051e-01  4.73515423e-06  1.80000000e+00  4.73515423e-06  1.26683151e-06  4.73515423e-06  5.00000000e-01                                 
 4.74196958e-06  8.04118103e-01  4.74196958e-06  7.56935647e-01  4.74196958e-06  6.26258056e-01  4.74196958e-06  1.80000000e+00  4.74196958e-06  1.09443349e-06  4.74196958e-06  5.00000000e-01                                 
 4.75560029e-06  8.25969666e-01  4.75560029e-06  7.80926922e-01  4.75560029e-06  6.39258468e-01  4.75560029e-06  1.80000000e+00  4.75560029e-06  6.37804276e-07  4.75560029e-06  5.00000000e-01                                 
 4.78286171e-06  8.61101955e-01  4.78286171e-06  8.15236075e-01  4.78286171e-06  6.59540637e-01  4.78286171e-06  1.80000000e+00  4.78286171e-06  6.88909854e-07  4.78286171e-06  5.00000000e-01                                 
 4.81244272e-06  8.98582593e-01  4.81244272e-06  8.47981936e-01  4.81244272e-06  6.80526227e-01  4.81244272e-06  1.80000000e+00  4.81244272e-06  5.77525383e-07  4.81244272e-06  5.00000000e-01                                 
 4.84664558e-06  9.44514378e-01  4.84664558e-06  8.79829305e-01  4.84664558e-06  7.01134131e-01  4.84664558e-06  1.80000000e+00  4.84664558e-06  6.31907219e-07  4.84664558e-06  5.00000000e-01                                 
 4.85206247e-06  9.48641118e-01  4.85206247e-06  8.82359867e-01  4.85206247e-06  7.02903965e-01  4.85206247e-06  1.80000000e+00  4.85206247e-06  4.59015070e-07  4.85206247e-06  5.00000000e-01                                 
 4.86289625e-06  9.51059803e-01  4.86289625e-06  8.83921705e-01  4.86289625e-06  7.02022621e-01  4.86289625e-06  1.80000000e+00  4.86289625e-06  6.76114142e-08  4.86289625e-06  5.00000000e-01                                 
 4.88179665e-06  9.49102046e-01  4.88179665e-06  8.82746507e-01  4.88179665e-06  6.93995653e-01  4.88179665e-06  1.80000000e+00  4.88179665e-06  8.10419968e-09  4.88179665e-06  5.00000000e-01                                 
 4.90192299e-06  9.49814521e-01  4.90192299e-06  8.83155653e-01  4.90192299e-06  6.87502678e-01  4.90192299e-06  1.80000000e+00  4.90192299e-06  3.87819002e-08  4.90192299e-06  5.00000000e-01                                 
 4.92727741e-06  9.49043485e-01  4.92727741e-06  8.82731430e-01  4.92727741e-06  6.78288394e-01  4.92727741e-06  1.80000000e+00  4.92727741e-06 -3.21606035e-08  4.92727741e-06  5.00000000e-01                                 
 4.97270658e-06  9.48737577e-01  4.97270658e-06  8.82520702e-01  4.97270658e-06  6.62937292e-01  4.97270658e-06  1.80000000e+00  4.97270658e-06  4.04737740e-08  4.97270658e-06  5.00000000e-01                                 
 5.04155251e-06  9.47794766e-01  5.04155251e-06  8.81999720e-01  5.04155251e-06  6.40896178e-01  5.04155251e-06  1.80000000e+00  5.04155251e-06 -3.29148951e-08  5.04155251e-06  5.00000000e-01                                 
 5.17924436e-06  9.46172655e-01  5.17924436e-06  8.81005333e-01  5.17924436e-06  5.99995723e-01  5.17924436e-06  1.80000000e+00  5.17924436e-06  3.62659157e-08  5.17924436e-06  5.00000000e-01                                 
 5.45462805e-06  9.42327277e-01  5.45462805e-06  8.78724586e-01  5.45462805e-06  5.35200062e-01  5.45462805e-06  1.80000000e+00  5.45462805e-06 -3.20711100e-08  5.45462805e-06  5.00000000e-01                                 
 5.90056470e-06  9.34132181e-01  5.90056470e-06  8.73563971e-01  5.90056470e-06  4.89950124e-01  5.90056470e-06  1.80000000e+00  5.90056470e-06  3.19867486e-08  5.90056470e-06  5.00000000e-01                                 
 5.95529138e-06  9.32822806e-01  5.95529138e-06  8.72741698e-01  5.95529138e-06  4.89001118e-01  5.95529138e-06  1.80000000e+00  5.95529138e-06 -5.47526494e-09  5.95529138e-06  5.00000000e-01                                 
 6.06474473e-06  9.29995144e-01  6.06474473e-06  8.70898652e-01  6.06474473e-06  4.86487119e-01  6.06474473e-06  1.80000000e+00  6.06474473e-06 -1.02322256e-08  6.06474473e-06  5.00000000e-01                                 
 6.28365144e-06  9.22524577e-01  6.28365144e-06  8.65869590e-01  6.28365144e-06  4.83277709e-01  6.28365144e-06  1.80000000e+00  6.28365144e-06 -1.24939509e-08  6.28365144e-06  5.00000000e-01                                 
 6.53662647e-06  9.07991955e-01  6.53662647e-06  8.55390756e-01  6.53662647e-06  4.84925036e-01  6.53662647e-06  1.80000000e+00  6.53662647e-06 -3.44491922e-08  6.53662647e-06  5.00000000e-01                                 
 6.86636905e-06  8.82918592e-01  6.86636905e-06  8.35045099e-01  6.86636905e-06  4.81983421e-01  6.86636905e-06  1.80000000e+00  6.86636905e-06 -3.80409796e-08  6.86636905e-06  5.00000000e-01                                 
 7.24767562e-06  8.69801866e-01  7.24767562e-06  8.23363922e-01  7.24767562e-06  4.89363133e-01  7.24767562e-06  1.80000000e+00  7.24767562e-06  1.12652318e-08  7.24767562e-06  5.00000000e-01                                 
 7.71390555e-06  8.71677008e-01  7.71390555e-06  8.25066510e-01  7.71390555e-06  5.04826577e-01  7.71390555e-06  1.80000000e+00  7.71390555e-06  3.37890975e-09  7.71390555e-06  5.00000000e-01                                 
 7.77159843e-06  8.71487394e-01  7.77159843e-06  8.24896759e-01  7.77159843e-06  5.04742338e-01  7.77159843e-06  1.80000000e+00  7.77159843e-06  3.75092196e-09  7.77159843e-06  5.00000000e-01                                 
 7.88698419e-06  8.71222402e-01  7.88698419e-06  8.24656052e-01  7.88698419e-06  5.04631847e-01  7.88698419e-06  1.80000000e+00  7.88698419e-06  4.64234729e-09  7.88698419e-06  5.00000000e-01                                 
 8.11775571e-06  8.71112919e-01  8.11775571e-06  8.24556403e-01  8.11775571e-06  5.04669802e-01  8.11775571e-06  1.80000000e+00  8.11775571e-06  5.75172743e-09  8.11775571e-06  5.00000000e-01                                 
 8.57929876e-06  8.71127752e-01  8.57929876e-06  8.24569981e-01  8.57929876e-06  5.04720886e-01  8.57929876e-06  1.80000000e+00  8.57929876e-06  5.22365236e-09  8.57929876e-06  5.00000000e-01                                 
 9.25371807e-06  8.71119061e-01  9.25371807e-06  8.24561992e-01  9.25371807e-06  5.04310987e-01  9.25371807e-06  1.80000000e+00  9.25371807e-06  5.69427498e-09  9.25371807e-06  5.00000000e-01                                 
 1.00005000e-05  8.71125497e-01  1.00005000e-05  8.24567929e-01  1.00005000e-05  5.03879178e-01  1.00005000e-05  1.80000000e+00  1.00005000e-05  5.26556082e-09  1.00005000e-05  5.00000000e-01                                 
 1.00005500e-05  8.71125467e-01  1.00005500e-05  8.24567906e-01  1.00005500e-05  4.95955157e-01  1.00005500e-05  1.62000000e+00  1.00005500e-05 -5.85240265e-05  1.00005500e-05  5.00000000e-01                                 
