 time            v(vbep)         time            v(vben)         time            v(vout)         time            v(vphi1)        time            v(vphi2)        time            v(vref)         yes             currtemp       
 0.00000000e+00  6.68693936e-01  0.00000000e+00  6.11804488e-01  0.00000000e+00  1.03456264e+00  0.00000000e+00  0.00000000e+00  0.00000000e+00  1.79995050e+00  0.00000000e+00  6.11804488e-01  1.00000000e+00  3.80000000e+01 
 5.00000000e-12  6.68664018e-01  5.00000000e-12  6.11779724e-01  5.00000000e-12  1.03529497e+00  5.00000000e-12  1.80000000e-02  5.00000000e-12  1.80007707e+00  5.00000000e-12  6.11779724e-01                                 
 1.00000000e-11  6.68634922e-01  1.00000000e-11  6.11755620e-01  1.00000000e-11  1.03596230e+00  1.00000000e-11  3.60000000e-02  1.00000000e-11  1.80015261e+00  1.00000000e-11  6.11755620e-01                                 
 2.00000000e-11  6.68577235e-01  2.00000000e-11  6.11707603e-01  2.00000000e-11  1.03719433e+00  2.00000000e-11  7.20000000e-02  2.00000000e-11  1.80023765e+00  2.00000000e-11  6.11707603e-01                                 
 4.00000000e-11  6.68462727e-01  4.00000000e-11  6.11611955e-01  4.00000000e-11  1.03918469e+00  4.00000000e-11  1.44000000e-01  4.00000000e-11  1.80022994e+00  4.00000000e-11  6.11611955e-01                                 
 8.00000000e-11  6.68234858e-01  8.00000000e-11  6.11421535e-01  8.00000000e-11  1.04185422e+00  8.00000000e-11  2.88000000e-01  8.00000000e-11  1.80013286e+00  8.00000000e-11  6.11421535e-01                                 
 1.60000000e-10  6.67784076e-01  1.60000000e-10  6.11044180e-01  1.60000000e-10  1.04410295e+00  1.60000000e-10  5.76000000e-01  1.60000000e-10  1.80002113e+00  1.60000000e-10  6.11044180e-01                                 
 3.20000000e-10  6.66901141e-01  3.20000000e-10  6.10302904e-01  3.20000000e-10  1.03666782e+00  3.20000000e-10  1.15200000e+00  3.20000000e-10  1.80028019e+00  3.20000000e-10  6.10302904e-01                                 
 5.00000000e-10  6.65936498e-01  5.00000000e-10  6.09489613e-01  5.00000000e-10  1.13998340e+00  5.00000000e-10  1.80000000e+00  5.00000000e-10  1.53401137e-01  5.00000000e-10  6.09489613e-01                                 
 5.21408810e-10  6.65823935e-01  5.21408810e-10  6.09394462e-01  5.21408810e-10  1.16618304e+00  5.21408810e-10  1.80000000e+00  5.21408810e-10  3.84891481e-02  5.21408810e-10  6.09394462e-01                                 
 5.64226430e-10  6.65599596e-01  5.64226430e-10  6.09204720e-01  5.64226430e-10  1.21837771e+00  5.64226430e-10  1.80000000e+00  5.64226430e-10 -1.43689627e-02  5.64226430e-10  6.09204720e-01                                 
 6.49861669e-10  6.65155668e-01  6.49861669e-10  6.08828703e-01  6.49861669e-10  1.31263069e+00  6.49861669e-10  1.80000000e+00  6.49861669e-10  1.22278776e-02  6.49861669e-10  6.08828703e-01                                 
 7.70040621e-10  6.64543085e-01  7.70040621e-10  6.08308631e-01  7.70040621e-10  1.42827427e+00  7.70040621e-10  1.80000000e+00  7.70040621e-10 -9.25335630e-03  7.70040621e-10  6.08308631e-01                                 
 9.51873904e-10  6.63638405e-01  9.51873904e-10  6.07538058e-01  9.51873904e-10  1.57025559e+00  9.51873904e-10  1.80000000e+00  9.51873904e-10  9.16739055e-03  9.51873904e-10  6.07538058e-01                                 
 1.31554047e-09  6.61903548e-01  1.31554047e-09  6.06052194e-01  1.31554047e-09  1.74888558e+00  1.31554047e-09  1.80000000e+00  1.31554047e-09 -8.01734234e-03  1.31554047e-09  6.06052194e-01                                 
 1.66875336e-09  6.60306916e-01  1.66875336e-09  6.04675161e-01  1.66875336e-09  1.82904173e+00  1.66875336e-09  1.80000000e+00  1.66875336e-09  7.89339394e-03  1.66875336e-09  6.04675161e-01                                 
 2.05572601e-09  6.58647739e-01  2.05572601e-09  6.03234741e-01  2.05572601e-09  1.86305725e+00  2.05572601e-09  1.80000000e+00  2.05572601e-09 -7.31985466e-03  2.05572601e-09  6.03234741e-01                                 
 2.40601129e-09  6.57219872e-01  2.40601129e-09  6.01987550e-01  2.40601129e-09  1.87393108e+00  2.40601129e-09  1.80000000e+00  2.40601129e-09  6.98241314e-03  2.40601129e-09  6.01987550e-01                                 
 2.92321656e-09  6.55226197e-01  2.92321656e-09  6.00234918e-01  2.92321656e-09  1.87757936e+00  2.92321656e-09  1.80000000e+00  2.92321656e-09 -6.65791672e-03  2.92321656e-09  6.00234918e-01                                 
 3.57500708e-09  6.52886788e-01  3.57500708e-09  5.98162077e-01  3.57500708e-09  1.87701646e+00  3.57500708e-09  1.80000000e+00  3.57500708e-09  6.48446162e-03  3.57500708e-09  5.98162077e-01                                 
 4.69373977e-09  6.49247488e-01  4.69373977e-09  5.94904749e-01  4.69373977e-09  1.87335653e+00  4.69373977e-09  1.80000000e+00  4.69373977e-09 -6.33690920e-03  4.69373977e-09  5.94904749e-01                                 
 6.41891630e-09  6.44375863e-01  6.41891630e-09  5.90485662e-01  6.41891630e-09  1.86902071e+00  6.41891630e-09  1.80000000e+00  6.41891630e-09  6.28793347e-03  6.41891630e-09  5.90485662e-01                                 
 9.86926936e-09  6.36487806e-01  9.86926936e-09  5.83206064e-01  9.86926936e-09  1.86104538e+00  9.86926936e-09  1.80000000e+00  9.86926936e-09 -6.21970017e-03  9.86926936e-09  5.83206064e-01                                 
 1.23478051e-08  6.31943654e-01  1.23478051e-08  5.78941413e-01  1.23478051e-08  1.85649278e+00  1.23478051e-08  1.80000000e+00  1.23478051e-08  6.19704261e-03  1.23478051e-08  5.78941413e-01                                 
 1.40669701e-08  6.29172433e-01  1.40669701e-08  5.76319445e-01  1.40669701e-08  1.85325922e+00  1.40669701e-08  1.80000000e+00  1.40669701e-08 -6.09801503e-03  1.40669701e-08  5.76319445e-01                                 
 1.55478670e-08  6.26982878e-01  1.55478670e-08  5.74237785e-01  1.55478670e-08  1.85106824e+00  1.55478670e-08  1.80000000e+00  1.55478670e-08  6.03760444e-03  1.55478670e-08  5.74237785e-01                                 
 1.73194391e-08  6.24563721e-01  1.73194391e-08  5.71928514e-01  1.73194391e-08  1.84793747e+00  1.73194391e-08  1.80000000e+00  1.73194391e-08 -5.94516117e-03  1.73194391e-08  5.71928514e-01                                 
 1.93458828e-08  6.22022305e-01  1.93458828e-08  5.69492946e-01  1.93458828e-08  1.84500635e+00  1.93458828e-08  1.80000000e+00  1.93458828e-08  5.90713278e-03  1.93458828e-08  5.69492946e-01                                 
 2.17919874e-08  6.19219229e-01  2.17919874e-08  5.66796777e-01  2.17919874e-08  1.84089395e+00  2.17919874e-08  1.80000000e+00  2.17919874e-08 -5.83598475e-03  2.17919874e-08  5.66796777e-01                                 
 2.53765172e-08  6.15520598e-01  2.53765172e-08  5.63227740e-01  2.53765172e-08  1.83566749e+00  2.53765172e-08  1.80000000e+00  2.53765172e-08  5.82424768e-03  2.53765172e-08  5.63227740e-01                                 
 2.94087873e-08  6.11796110e-01  2.94087873e-08  5.59628144e-01  2.94087873e-08  1.82949867e+00  2.94087873e-08  1.80000000e+00  2.94087873e-08 -5.77294674e-03  2.94087873e-08  5.59628144e-01                                 
 3.61118717e-08  6.06238710e-01  3.61118717e-08  5.54274995e-01  3.61118717e-08  1.82110902e+00  3.61118717e-08  1.80000000e+00  3.61118717e-08  5.77742320e-03  3.61118717e-08  5.54274995e-01                                 
 4.72431380e-08  5.98193381e-01  4.72431380e-08  5.46583669e-01  4.72431380e-08  1.80925699e+00  4.72431380e-08  1.80000000e+00  4.72431380e-08 -5.74420454e-03  4.72431380e-08  5.46583669e-01                                 
 5.76906785e-08  5.91552918e-01  5.76906785e-08  5.40303891e-01  5.76906785e-08  1.80010981e+00  5.76906785e-08  1.80000000e+00  5.76906785e-08  5.75597812e-03  5.76906785e-08  5.40303891e-01                                 
 6.95585329e-08  5.83229500e-01  6.95585329e-08  5.32738218e-01  6.95585329e-08  1.77611721e+00  6.95585329e-08  1.80000000e+00  6.95585329e-08 -5.72468537e-03  6.95585329e-08  5.32738218e-01                                 
 8.37398599e-08  5.75440449e-01  8.37398599e-08  5.25586178e-01  8.37398599e-08  1.74830476e+00  8.37398599e-08  1.80000000e+00  8.37398599e-08  5.73842152e-03  8.37398599e-08  5.25586178e-01                                 
 9.83603447e-08  5.68376925e-01  9.83603447e-08  5.19135593e-01  9.83603447e-08  1.72269155e+00  9.83603447e-08  1.80000000e+00  9.83603447e-08 -5.70812525e-03  9.83603447e-08  5.19135593e-01                                 
 1.22395356e-07  5.59307628e-01  1.22395356e-07  5.10782574e-01  1.22395356e-07  1.68127383e+00  1.22395356e-07  1.80000000e+00  1.22395356e-07  5.72593261e-03  1.22395356e-07  5.10782574e-01                                 
 1.48076193e-07  5.61985393e-01  1.48076193e-07  5.11828392e-01  1.48076193e-07  1.67757111e+00  1.48076193e-07  1.80000000e+00  1.48076193e-07 -5.69571980e-03  1.48076193e-07  5.11828392e-01                                 
 1.68650383e-07  5.63693175e-01  1.68650383e-07  5.12412850e-01  1.68650383e-07  1.66203595e+00  1.68650383e-07  1.80000000e+00  1.68650383e-07  5.71493202e-03  1.68650383e-07  5.12412850e-01                                 
 1.90584824e-07  5.58879231e-01  1.90584824e-07  5.07879829e-01  1.90584824e-07  1.63323489e+00  1.90584824e-07  1.80000000e+00  1.90584824e-07 -5.68622643e-03  1.90584824e-07  5.07879829e-01                                 
 2.09646523e-07  5.54767433e-01  2.09646523e-07  5.04061311e-01  2.09646523e-07  1.61008340e+00  2.09646523e-07  1.80000000e+00  2.09646523e-07  5.70370078e-03  2.09646523e-07  5.04061311e-01                                 
 2.29683521e-07  5.49486080e-01  2.29683521e-07  4.99343121e-01  2.29683521e-07  1.58604692e+00  2.29683521e-07  1.80000000e+00  2.29683521e-07 -5.67458940e-03  2.29683521e-07  4.99343121e-01                                 
 2.65298114e-07  5.39638705e-01  2.65298114e-07  4.90711501e-01  2.65298114e-07  1.54003094e+00  2.65298114e-07  1.80000000e+00  2.65298114e-07  5.69458324e-03  2.65298114e-07  4.90711501e-01                                 
 3.12029790e-07  5.27576489e-01  3.12029790e-07  4.80258637e-01  3.12029790e-07  1.48187697e+00  3.12029790e-07  1.80000000e+00  3.12029790e-07 -5.66877302e-03  3.12029790e-07  4.80258637e-01                                 
 3.96262240e-07  5.02925482e-01  3.96262240e-07  4.59544162e-01  3.96262240e-07  1.37109390e+00  3.96262240e-07  1.80000000e+00  3.96262240e-07  5.69063943e-03  3.96262240e-07  4.59544162e-01                                 
 4.89393657e-07  4.82834660e-01  4.89393657e-07  4.42769844e-01  4.89393657e-07  1.25646566e+00  4.89393657e-07  1.80000000e+00  4.89393657e-07 -5.66594905e-03  4.89393657e-07  4.42769844e-01                                 
 5.84161304e-07  4.41740650e-01  5.84161304e-07  4.09605267e-01  5.84161304e-07  1.11722009e+00  5.84161304e-07  1.80000000e+00  5.84161304e-07  5.68750054e-03  5.84161304e-07  4.09605267e-01                                 
 5.95074409e-07  4.36327390e-01  5.95074409e-07  4.05265354e-01  5.95074409e-07  1.10118025e+00  5.95074409e-07  1.80000000e+00  5.95074409e-07  2.11551009e-06  5.95074409e-07  4.05265354e-01                                 
 6.16900621e-07  4.26220073e-01  6.16900621e-07  3.97166505e-01  6.16900621e-07  1.06885721e+00  6.16900621e-07  1.80000000e+00  6.16900621e-07 -3.03333283e-06  6.16900621e-07  3.97166505e-01                                 
 6.60553044e-07  4.46457287e-01  6.60553044e-07  4.13378510e-01  6.60553044e-07  1.04342401e+00  6.60553044e-07  1.80000000e+00  6.60553044e-07  5.22854596e-06  6.60553044e-07  4.13378510e-01                                 
 7.47857890e-07  7.38915094e-01  7.47857890e-07  6.79269593e-01  7.47857890e-07  1.23581533e+00  7.47857890e-07  1.80000000e+00  7.47857890e-07  8.96289553e-06  7.47857890e-07  6.79269593e-01                                 
 7.60800449e-07  7.51965250e-01  7.60800449e-07  6.91731600e-01  7.60800449e-07  1.23610711e+00  7.60800449e-07  1.80000000e+00  7.60800449e-07  2.77979802e-06  7.60800449e-07  6.91731600e-01                                 
 7.86685566e-07  7.67361112e-01  7.86685566e-07  7.05687698e-01  7.86685566e-07  1.22418604e+00  7.86685566e-07  1.80000000e+00  7.86685566e-07  6.18141148e-07  7.86685566e-07  7.05687698e-01                                 
 8.38455800e-07  7.76459955e-01  8.38455800e-07  7.13595342e-01  8.38455800e-07  1.17874613e+00  8.38455800e-07  1.80000000e+00  8.38455800e-07  7.83287623e-07  8.38455800e-07  7.13595342e-01                                 
 8.48993141e-07  7.77072589e-01  8.48993141e-07  7.14123748e-01  8.48993141e-07  1.16843002e+00  8.48993141e-07  1.80000000e+00  8.48993141e-07  4.39066022e-07  8.48993141e-07  7.14123748e-01                                 
 8.70067821e-07  7.78241541e-01  8.70067821e-07  7.15120752e-01  8.70067821e-07  1.14756236e+00  8.70067821e-07  1.80000000e+00  8.70067821e-07  4.16558341e-07  8.70067821e-07  7.15120752e-01                                 
 9.12217183e-07  7.79823313e-01  9.12217183e-07  7.16462748e-01  9.12217183e-07  1.10513688e+00  9.12217183e-07  1.80000000e+00  9.12217183e-07  3.65157284e-07  9.12217183e-07  7.16462748e-01                                 
 9.63955879e-07  7.81101915e-01  9.63955879e-07  7.17541498e-01  9.63955879e-07  1.05314433e+00  9.63955879e-07  1.80000000e+00  9.63955879e-07  3.87294638e-07  9.63955879e-07  7.17541498e-01                                 
 1.03499165e-06  7.76587430e-01  1.03499165e-06  7.13721524e-01  1.03499165e-06  9.81289795e-01  1.03499165e-06  1.80000000e+00  1.03499165e-06  7.31831477e-08  1.03499165e-06  7.13721524e-01                                 
 1.10162798e-06  7.57746112e-01  1.10162798e-06  6.97116445e-01  1.10162798e-06  9.12877951e-01  1.10162798e-06  1.80000000e+00  1.10162798e-06 -3.78994269e-07  1.10162798e-06  6.97116445e-01                                 
 1.17077675e-06  7.59394731e-01  1.17077675e-06  6.98558265e-01  1.17077675e-06  8.68755196e-01  1.17077675e-06  1.80000000e+00  1.17077675e-06  1.58587219e-06  1.17077675e-06  6.98558265e-01                                 
 1.23432946e-06  7.80250833e-01  1.23432946e-06  7.16812800e-01  1.23432946e-06  8.48683301e-01  1.23432946e-06  1.80000000e+00  1.23432946e-06  1.03182729e-06  1.23432946e-06  7.16812800e-01                                 
 1.30320825e-06  7.70092939e-01  1.30320825e-06  7.08127404e-01  1.30320825e-06  8.00194245e-01  1.30320825e-06  1.80000000e+00  1.30320825e-06 -4.46568784e-07  1.30320825e-06  7.08127404e-01                                 
 1.31197365e-06  7.66616797e-01  1.31197365e-06  7.05062245e-01  1.31197365e-06  7.92278949e-01  1.31197365e-06  1.80000000e+00  1.31197365e-06 -2.36115902e-07  1.31197365e-06  7.05062245e-01                                 
 1.32950445e-06  7.61801070e-01  1.32950445e-06  7.00758712e-01  1.32950445e-06  7.78565490e-01  1.32950445e-06  1.80000000e+00  1.32950445e-06  3.10699432e-07  1.32950445e-06  7.00758712e-01                                 
 1.36456606e-06  7.62894314e-01  1.36456606e-06  7.01718824e-01  1.36456606e-06  7.62436556e-01  1.36456606e-06  1.80000000e+00  1.36456606e-06  1.15208072e-06  1.36456606e-06  7.01718824e-01                                 
 1.43468926e-06  7.72339030e-01  1.43468926e-06  7.10047690e-01  1.43468926e-06  7.44647373e-01  1.43468926e-06  1.80000000e+00  1.43468926e-06  8.62156713e-07  1.43468926e-06  7.10047690e-01                                 
 1.50155448e-06  7.69842389e-01  1.50155448e-06  7.07885673e-01  1.50155448e-06  7.25472804e-01  1.50155448e-06  1.80000000e+00  1.50155448e-06  5.10247750e-07  1.50155448e-06  7.07885673e-01                                 
 1.61191066e-06  7.65559047e-01  1.61191066e-06  7.04097801e-01  1.61191066e-06  7.04280234e-01  1.61191066e-06  1.80000000e+00  1.61191066e-06  9.29713266e-07  1.61191066e-06  7.04097801e-01                                 
 1.74967759e-06  7.71097928e-01  1.74967759e-06  7.08973558e-01  1.74967759e-06  6.98266981e-01  1.74967759e-06  1.80000000e+00  1.74967759e-06  9.06139401e-07  1.74967759e-06  7.08973558e-01                                 
 1.90871073e-06  7.67091532e-01  1.90871073e-06  7.05461337e-01  1.90871073e-06  7.00055613e-01  1.90871073e-06  1.80000000e+00  1.90871073e-06  7.33844780e-07  1.90871073e-06  7.05461337e-01                                 
 1.93059294e-06  7.66954000e-01  1.93059294e-06  7.05337809e-01  1.93059294e-06  7.02284674e-01  1.93059294e-06  1.80000000e+00  1.93059294e-06  8.84711289e-07  1.93059294e-06  7.05337809e-01                                 
 1.97435737e-06  7.67991812e-01  1.97435737e-06  7.06249553e-01  1.97435737e-06  7.06051412e-01  1.97435737e-06  1.80000000e+00  1.97435737e-06  9.79757995e-07  1.97435737e-06  7.06249553e-01                                 
 2.06188621e-06  7.69721092e-01  2.06188621e-06  7.07771213e-01  2.06188621e-06  7.08144874e-01  2.06188621e-06  1.80000000e+00  2.06188621e-06  8.28600474e-07  2.06188621e-06  7.07771213e-01                                 
 2.20345785e-06  7.67705521e-01  2.20345785e-06  7.06001241e-01  2.20345785e-06  7.05983308e-01  2.20345785e-06  1.80000000e+00  2.20345785e-06  8.29839131e-07  2.20345785e-06  7.06001241e-01                                 
 2.35305055e-06  7.68923204e-01  2.35305055e-06  7.07069468e-01  2.35305055e-06  7.07247862e-01  2.35305055e-06  1.80000000e+00  2.35305055e-06  9.25907427e-07  2.35305055e-06  7.07069468e-01                                 
 2.65223594e-06  7.68525448e-01  2.65223594e-06  7.06723811e-01  2.65223594e-06  7.06807573e-01  2.65223594e-06  1.80000000e+00  2.65223594e-06  7.88989907e-07  2.65223594e-06  7.06723811e-01                                 
 3.11592003e-06  7.68473132e-01  3.11592003e-06  7.06673973e-01  3.11592003e-06  7.06810182e-01  3.11592003e-06  1.80000000e+00  3.11592003e-06  9.31044643e-07  3.11592003e-06  7.06673973e-01                                 
 4.00565038e-06  7.68775290e-01  4.00565038e-06  7.06943142e-01  4.00565038e-06  7.07048935e-01  4.00565038e-06  1.80000000e+00  4.00565038e-06  7.91012895e-07  4.00565038e-06  7.06943142e-01                                 
 5.00565038e-06  7.68322806e-01  5.00565038e-06  7.06541901e-01  5.00565038e-06  7.06665238e-01  5.00565038e-06  1.80000000e+00  5.00565038e-06  9.27583386e-07  5.00565038e-06  7.06541901e-01                                 
 6.00565038e-06  7.68903952e-01  6.00565038e-06  7.07055974e-01  6.00565038e-06  7.07172974e-01  6.00565038e-06  1.80000000e+00  6.00565038e-06  7.95511660e-07  6.00565038e-06  7.07055974e-01                                 
 7.00565038e-06  7.68204460e-01  7.00565038e-06  7.06437958e-01  7.00565038e-06  7.06551013e-01  7.00565038e-06  1.80000000e+00  7.00565038e-06  9.22021166e-07  7.00565038e-06  7.06437958e-01                                 
 8.00565038e-06  7.69009150e-01  8.00565038e-06  7.07148123e-01  8.00565038e-06  7.07274448e-01  8.00565038e-06  1.80000000e+00  8.00565038e-06  8.02035739e-07  8.00565038e-06  7.07148123e-01                                 
 9.00565038e-06  7.68109378e-01  9.00565038e-06  7.06354497e-01  9.00565038e-06  7.06459200e-01  9.00565038e-06  1.80000000e+00  9.00565038e-06  9.14635911e-07  9.00565038e-06  7.06354497e-01                                 
 1.00005000e-05  7.69090140e-01  1.00005000e-05  7.07218970e-01  1.00005000e-05  7.07352647e-01  1.00005000e-05  1.80000000e+00  1.00005000e-05  8.10199426e-07  1.00005000e-05  7.07218970e-01                                 
 1.00005500e-05  7.69088903e-01  1.00005500e-05  7.07217883e-01  1.00005500e-05  7.00341898e-01  1.00005500e-05  1.62000000e+00  1.00005500e-05 -1.18977070e-04  1.00005500e-05  7.07217883e-01                                 
