 time            v(vbep)         time            v(vben)         time            v(vout)         time            v(vphi1)        time            v(vphi2)        time            v(vref)         yes             currtemp       
 0.00000000e+00  7.28165182e-01  0.00000000e+00  6.76922191e-01  0.00000000e+00  1.08232813e+00  0.00000000e+00  0.00000000e+00  0.00000000e+00  1.79994833e+00  0.00000000e+00  6.76922191e-01  1.00000000e+00  7.00000000e+00 
 5.00000000e-12  7.28134789e-01  5.00000000e-12  6.76897052e-01  5.00000000e-12  1.08306602e+00  5.00000000e-12  1.80000000e-02  5.00000000e-12  1.80007120e+00  5.00000000e-12  6.76897052e-01                                 
 1.00000000e-11  7.28105342e-01  1.00000000e-11  6.76872613e-01  1.00000000e-11  1.08374390e+00  1.00000000e-11  3.60000000e-02  1.00000000e-11  1.80014487e+00  1.00000000e-11  6.76872613e-01                                 
 2.00000000e-11  7.28047048e-01  2.00000000e-11  6.76823942e-01  2.00000000e-11  1.08500581e+00  2.00000000e-11  7.20000000e-02  2.00000000e-11  1.80022879e+00  2.00000000e-11  6.76823942e-01                                 
 4.00000000e-11  7.27931492e-01  4.00000000e-11  6.76727023e-01  4.00000000e-11  1.08709543e+00  4.00000000e-11  1.44000000e-01  4.00000000e-11  1.80022738e+00  4.00000000e-11  6.76727023e-01                                 
 8.00000000e-11  7.27701639e-01  8.00000000e-11  6.76534163e-01  8.00000000e-11  1.09002055e+00  8.00000000e-11  2.88000000e-01  8.00000000e-11  1.80014109e+00  8.00000000e-11  6.76534163e-01                                 
 1.60000000e-10  7.27247456e-01  1.60000000e-10  6.76152360e-01  1.60000000e-10  1.09267731e+00  1.60000000e-10  5.76000000e-01  1.60000000e-10  1.80003226e+00  1.60000000e-10  6.76152360e-01                                 
 3.20000000e-10  7.26359774e-01  3.20000000e-10  6.75403827e-01  3.20000000e-10  1.08348137e+00  3.20000000e-10  1.15200000e+00  3.20000000e-10  1.80028299e+00  3.20000000e-10  6.75403827e-01                                 
 5.00000000e-10  7.25392873e-01  5.00000000e-10  6.74584827e-01  5.00000000e-10  1.16807665e+00  5.00000000e-10  1.80000000e+00  5.00000000e-10  1.33731591e-01  5.00000000e-10  6.74584827e-01                                 
 5.20774399e-10  7.25283593e-01  5.20774399e-10  6.74492007e-01  5.20774399e-10  1.19047155e+00  5.20774399e-10  1.80000000e+00  5.20774399e-10  3.15717331e-02  5.20774399e-10  6.74492007e-01                                 
 5.62323197e-10  7.25065845e-01  5.62323197e-10  6.74306947e-01  5.62323197e-10  1.23512708e+00  5.62323197e-10  1.80000000e+00  5.62323197e-10 -1.24480228e-02  5.62323197e-10  6.74306947e-01                                 
 6.45420792e-10  7.24635259e-01  6.45420792e-10  6.73940453e-01  6.45420792e-10  1.31597390e+00  6.45420792e-10  1.80000000e+00  6.45420792e-10  1.07013968e-02  6.45420792e-10  6.73940453e-01                                 
 7.65425879e-10  7.24024687e-01  7.65425879e-10  6.73419506e-01  7.65425879e-10  1.41942993e+00  7.65425879e-10  1.80000000e+00  7.65425879e-10 -8.37394217e-03  7.65425879e-10  6.73419506e-01                                 
 9.45152306e-10  7.23134041e-01  9.45152306e-10  6.72656992e-01  9.45152306e-10  1.54707447e+00  9.45152306e-10  1.80000000e+00  9.45152306e-10  8.28759903e-03  9.45152306e-10  6.72656992e-01                                 
 1.30460516e-09  7.21431897e-01  1.30460516e-09  6.71191351e-01  1.30460516e-09  1.71253977e+00  1.30460516e-09  1.80000000e+00  1.30460516e-09 -7.34386847e-03  1.30460516e-09  6.71191351e-01                                 
 1.67969380e-09  7.19759295e-01  1.67969380e-09  6.69740387e-01  1.67969380e-09  1.79495563e+00  1.67969380e-09  1.80000000e+00  1.67969380e-09  7.27654924e-03  1.67969380e-09  6.69740387e-01                                 
 2.08504854e-09  7.18057814e-01  2.08504854e-09  6.68253702e-01  2.08504854e-09  1.82927229e+00  2.08504854e-09  1.80000000e+00  2.08504854e-09 -6.81561825e-03  2.08504854e-09  6.68253702e-01                                 
 2.45844065e-09  7.16578162e-01  2.45844065e-09  6.66952256e-01  2.45844065e-09  1.84017314e+00  2.45844065e-09  1.80000000e+00  2.45844065e-09  6.55708600e-03  2.45844065e-09  6.66952256e-01                                 
 2.99197411e-09  7.14592270e-01  2.99197411e-09  6.65193573e-01  2.99197411e-09  1.84361351e+00  2.99197411e-09  1.80000000e+00  2.99197411e-09 -6.29201932e-03  2.99197411e-09  6.65193573e-01                                 
 3.68577920e-09  7.12207532e-01  3.68577920e-09  6.63064090e-01  3.68577920e-09  1.84296654e+00  3.68577920e-09  1.80000000e+00  3.68577920e-09  6.15685794e-03  3.68577920e-09  6.63064090e-01                                 
 4.86340197e-09  7.08579908e-01  4.86340197e-09  6.59790425e-01  4.86340197e-09  1.83937179e+00  4.86340197e-09  1.80000000e+00  4.86340197e-09 -6.03598628e-03  4.86340197e-09  6.59790425e-01                                 
 6.74458003e-09  7.03631811e-01  6.74458003e-09  6.55262813e-01  6.74458003e-09  1.83494199e+00  6.74458003e-09  1.80000000e+00  6.74458003e-09  6.00035434e-03  6.74458003e-09  6.55262813e-01                                 
 1.05069361e-08  6.95808356e-01  1.05069361e-08  6.47977205e-01  1.05069361e-08  1.82744310e+00  1.05069361e-08  1.80000000e+00  1.05069361e-08 -5.94673374e-03  1.05069361e-08  6.47977205e-01                                 
 1.69090560e-08  6.86237076e-01  1.69090560e-08  6.38876946e-01  1.69090560e-08  1.81910134e+00  1.69090560e-08  1.80000000e+00  1.69090560e-08  5.95573128e-03  1.69090560e-08  6.38876946e-01                                 
 1.80101967e-08  6.84930456e-01  1.80101967e-08  6.37617744e-01  1.80101967e-08  1.81769995e+00  1.80101967e-08  1.80000000e+00  1.80101967e-08 -5.83435362e-03  1.80101967e-08  6.37617744e-01                                 
 1.93022641e-08  6.83478383e-01  1.93022641e-08  6.36215042e-01  1.93022641e-08  1.81669297e+00  1.93022641e-08  1.80000000e+00  1.93022641e-08  5.77313285e-03  1.93022641e-08  6.36215042e-01                                 
 2.09174071e-08  6.81772870e-01  2.09174071e-08  6.34563221e-01  2.09174071e-08  1.81496149e+00  2.09174071e-08  1.80000000e+00  2.09174071e-08 -5.68649213e-03  2.09174071e-08  6.34563221e-01                                 
 2.41476930e-08  6.78667999e-01  2.41476930e-08  6.31545154e-01  2.41476930e-08  1.81248921e+00  2.41476930e-08  1.80000000e+00  2.41476930e-08  5.67531171e-03  2.41476930e-08  6.31545154e-01                                 
 3.06082649e-08  6.73389289e-01  3.06082649e-08  6.26385501e-01  3.06082649e-08  1.80705456e+00  3.06082649e-08  1.80000000e+00  3.06082649e-08 -5.63794185e-03  3.06082649e-08  6.26385501e-01                                 
 3.77222291e-08  6.68616527e-01  3.77222291e-08  6.21694576e-01  3.77222291e-08  1.80007481e+00  3.77222291e-08  1.80000000e+00  3.77222291e-08  5.64469368e-03  3.77222291e-08  6.21694576e-01                                 
 4.70814285e-08  6.63331885e-01  4.70814285e-08  6.16499026e-01  4.70814285e-08  1.78777685e+00  4.70814285e-08  1.80000000e+00  4.70814285e-08 -5.61240660e-03  4.70814285e-08  6.16499026e-01                                 
 6.19206649e-08  6.55672107e-01  6.19206649e-08  6.09128099e-01  6.19206649e-08  1.77309925e+00  6.19206649e-08  1.80000000e+00  6.19206649e-08  5.62720203e-03  6.19206649e-08  6.09128099e-01                                 
 7.53323507e-08  6.49849901e-01  7.53323507e-08  6.03557254e-01  7.53323507e-08  1.76359796e+00  7.53323507e-08  1.80000000e+00  7.53323507e-08 -5.59736632e-03  7.53323507e-08  6.03557254e-01                                 
 8.96216731e-08  6.42444421e-01  8.96216731e-08  5.96831625e-01  8.96216731e-08  1.74132707e+00  8.96216731e-08  1.80000000e+00  8.96216731e-08  5.61126378e-03  8.96216731e-08  5.96831625e-01                                 
 1.06376121e-07  6.34766940e-01  1.06376121e-07  5.89897450e-01  1.06376121e-07  1.71118574e+00  1.06376121e-07  1.80000000e+00  1.06376121e-07 -5.58420858e-03  1.06376121e-07  5.89897450e-01                                 
 1.23770617e-07  6.27797871e-01  1.23770617e-07  5.83628480e-01  1.23770617e-07  1.68173896e+00  1.23770617e-07  1.80000000e+00  1.23770617e-07  5.59958499e-03  1.23770617e-07  5.83628480e-01                                 
 1.58351043e-07  6.19927164e-01  1.58351043e-07  5.76166205e-01  1.58351043e-07  1.63522750e+00  1.58351043e-07  1.80000000e+00  1.58351043e-07 -5.57471095e-03  1.58351043e-07  5.76166205e-01                                 
 1.90798263e-07  6.24568892e-01  1.90798263e-07  5.78870491e-01  1.90798263e-07  1.62856492e+00  1.90798263e-07  1.80000000e+00  1.90798263e-07  5.59553849e-03  1.90798263e-07  5.78870491e-01                                 
 2.14931316e-07  6.22311814e-01  2.14931316e-07  5.76436462e-01  2.14931316e-07  1.60433664e+00  2.14931316e-07  1.80000000e+00  2.14931316e-07 -5.56884638e-03  2.14931316e-07  5.76436462e-01                                 
 2.37564100e-07  6.14299186e-01  2.37564100e-07  5.69552619e-01  2.37564100e-07  1.57512955e+00  2.37564100e-07  1.80000000e+00  2.37564100e-07  5.58606465e-03  2.37564100e-07  5.69552619e-01                                 
 2.60264634e-07  6.09398175e-01  2.60264634e-07  5.65190536e-01  2.60264634e-07  1.54545375e+00  2.60264634e-07  1.80000000e+00  2.60264634e-07 -5.55973431e-03  2.60264634e-07  5.65190536e-01                                 
 2.84392855e-07  6.03786679e-01  2.84392855e-07  5.60288620e-01  2.84392855e-07  1.51766031e+00  2.84392855e-07  1.80000000e+00  2.84392855e-07  5.57761244e-03  2.84392855e-07  5.60288620e-01                                 
 3.21713735e-07  5.94409696e-01  3.21713735e-07  5.52250631e-01  3.21713735e-07  1.46924749e+00  3.21713735e-07  1.80000000e+00  3.21713735e-07 -5.55313316e-03  3.21713735e-07  5.52250631e-01                                 
 3.72299474e-07  5.83719710e-01  3.72299474e-07  5.43109150e-01  3.72299474e-07  1.41007820e+00  3.72299474e-07  1.80000000e+00  3.72299474e-07  5.57319492e-03  3.72299474e-07  5.43109150e-01                                 
 4.40875022e-07  5.61829675e-01  4.40875022e-07  5.25088759e-01  4.40875022e-07  1.31777521e+00  4.40875022e-07  1.80000000e+00  4.40875022e-07 -5.55013531e-03  4.40875022e-07  5.25088759e-01                                 
 5.09876171e-07  5.41637276e-01  5.09876171e-07  5.08637557e-01  5.09876171e-07  1.23055017e+00  5.09876171e-07  1.80000000e+00  5.09876171e-07  5.57048758e-03  5.09876171e-07  5.08637557e-01                                 
 5.90391265e-07  5.09394076e-01  5.90391265e-07  4.82714632e-01  5.90391265e-07  1.11331014e+00  5.90391265e-07  1.80000000e+00  5.90391265e-07 -5.54783301e-03  5.90391265e-07  4.82714632e-01                                 
 6.04813331e-07  5.02930926e-01  6.04813331e-07  4.77542321e-01  6.04813331e-07  1.09333714e+00  6.04813331e-07  1.80000000e+00  6.04813331e-07 -2.62517166e-06  6.04813331e-07  4.77542321e-01                                 
 6.33657462e-07  4.91154016e-01  6.33657462e-07  4.68123514e-01  6.33657462e-07  1.05134251e+00  6.33657462e-07  1.80000000e+00  6.33657462e-07  6.52600238e-07  6.33657462e-07  4.68123514e-01                                 
 6.91345725e-07  5.84116435e-01  6.91345725e-07  5.42382527e-01  6.91345725e-07  1.08185689e+00  6.91345725e-07  1.80000000e+00  6.91345725e-07  3.46619937e-06  6.91345725e-07  5.42382527e-01                                 
 6.99925166e-07  6.30802487e-01  6.99925166e-07  5.79708605e-01  6.99925166e-07  1.11882659e+00  6.99925166e-07  1.80000000e+00  6.99925166e-07  8.23755243e-06  6.99925166e-07  5.79708605e-01                                 
 7.17084049e-07  7.28567212e-01  7.17084049e-07  6.69650119e-01  7.17084049e-07  1.19651391e+00  7.17084049e-07  1.80000000e+00  7.17084049e-07  1.18079014e-05  7.17084049e-07  6.69650119e-01                                 
 7.51401816e-07  7.91175653e-01  7.51401816e-07  7.37943557e-01  7.51401816e-07  1.22438190e+00  7.51401816e-07  1.80000000e+00  7.51401816e-07 -4.41552448e-06  7.51401816e-07  7.37943557e-01                                 
 7.91997240e-07  8.23075727e-01  7.91997240e-07  7.66878801e-01  7.91997240e-07  1.21053955e+00  7.91997240e-07  1.80000000e+00  7.91997240e-07  6.80108294e-06  7.91997240e-07  7.66878801e-01                                 
 8.40109364e-07  8.36112684e-01  8.40109364e-07  7.77954069e-01  8.40109364e-07  1.17660313e+00  8.40109364e-07  1.80000000e+00  8.40109364e-07 -6.38001001e-06  8.40109364e-07  7.77954069e-01                                 
 8.78605818e-07  8.47613103e-01  8.78605818e-07  7.87055545e-01  8.78605818e-07  1.14441379e+00  8.78605818e-07  1.80000000e+00  8.78605818e-07  6.65123766e-06  8.78605818e-07  7.87055545e-01                                 
 9.21441881e-07  8.39939129e-01  9.21441881e-07  7.81131010e-01  9.21441881e-07  1.09635389e+00  9.21441881e-07  1.80000000e+00  9.21441881e-07 -7.97919698e-06  9.21441881e-07  7.81131010e-01                                 
 9.65248497e-07  8.01614822e-01  9.65248497e-07  7.47657053e-01  9.65248497e-07  1.01010108e+00  9.65248497e-07  1.80000000e+00  9.65248497e-07  3.57756894e-06  9.65248497e-07  7.47657053e-01                                 
 1.00400712e-06  7.97765273e-01  1.00400712e-06  7.44149860e-01  1.00400712e-06  9.69132153e-01  1.00400712e-06  1.80000000e+00  1.00400712e-06 -4.59686212e-06  1.00400712e-06  7.44149860e-01                                 
 1.04451101e-06  8.17830995e-01  1.04451101e-06  7.62302992e-01  1.04451101e-06  9.49609066e-01  1.04451101e-06  1.80000000e+00  1.04451101e-06  5.96356881e-06  1.04451101e-06  7.62302992e-01                                 
 1.08908896e-06  8.25887778e-01  1.08908896e-06  7.69403262e-01  1.08908896e-06  9.21897749e-01  1.08908896e-06  1.80000000e+00  1.08908896e-06 -5.66852720e-06  1.08908896e-06  7.69403262e-01                                 
 1.09594174e-06  8.23321589e-01  1.09594174e-06  7.67188808e-01  1.09594174e-06  9.14169974e-01  1.09594174e-06  1.80000000e+00  1.09594174e-06 -9.89162380e-07  1.09594174e-06  7.67188808e-01                                 
 1.10964730e-06  8.17389536e-01  1.10964730e-06  7.62005735e-01  1.10964730e-06  8.99077782e-01  1.10964730e-06  1.80000000e+00  1.10964730e-06 -1.07519028e-06  1.10964730e-06  7.62005735e-01                                 
 1.13705842e-06  8.08303893e-01  1.13705842e-06  7.53842508e-01  1.13705842e-06  8.71850958e-01  1.13705842e-06  1.80000000e+00  1.13705842e-06 -5.70059554e-07  1.13705842e-06  7.53842508e-01                                 
 1.18355044e-06  8.11047918e-01  1.18355044e-06  7.56299514e-01  1.18355044e-06  8.43687510e-01  1.18355044e-06  1.80000000e+00  1.18355044e-06  5.08092496e-07  1.18355044e-06  7.56299514e-01                                 
 1.24459607e-06  8.18477705e-01  1.24459607e-06  7.62940263e-01  1.24459607e-06  8.18100709e-01  1.24459607e-06  1.80000000e+00  1.24459607e-06 -2.06155751e-07  1.24459607e-06  7.62940263e-01                                 
 1.31655893e-06  8.13445729e-01  1.31655893e-06  7.58478696e-01  1.31655893e-06  7.87313281e-01  1.31655893e-06  1.80000000e+00  1.31655893e-06 -1.04496175e-07  1.31655893e-06  7.58478696e-01                                 
 1.42688256e-06  8.12259139e-01  1.42688256e-06  7.57401944e-01  1.42688256e-06  7.63697915e-01  1.42688256e-06  1.80000000e+00  1.42688256e-06  1.36577817e-07  1.42688256e-06  7.57401944e-01                                 
 1.53961699e-06  8.17253615e-01  1.53961699e-06  7.61860097e-01  1.53961699e-06  7.57051558e-01  1.53961699e-06  1.80000000e+00  1.53961699e-06  1.75649394e-07  1.53961699e-06  7.61860097e-01                                 
 1.56069498e-06  8.15451062e-01  1.56069498e-06  7.60266253e-01  1.56069498e-06  7.54105604e-01  1.56069498e-06  1.80000000e+00  1.56069498e-06 -7.85006246e-08  1.56069498e-06  7.60266253e-01                                 
 1.60285094e-06  8.12884782e-01  1.60285094e-06  7.57971344e-01  1.60285094e-06  7.49404661e-01  1.60285094e-06  1.80000000e+00  1.60285094e-06  1.61850998e-08  1.60285094e-06  7.57971344e-01                                 
 1.68716288e-06  8.14170347e-01  1.68716288e-06  7.59116150e-01  1.68716288e-06  7.47567577e-01  1.68716288e-06  1.80000000e+00  1.68716288e-06  2.24976788e-07  1.68716288e-06  7.59116150e-01                                 
 1.81755720e-06  8.14935008e-01  1.81755720e-06  7.59805017e-01  1.81755720e-06  7.57651758e-01  1.81755720e-06  1.80000000e+00  1.81755720e-06  5.23619623e-08  1.81755720e-06  7.59805017e-01                                 
 1.95272792e-06  8.13150960e-01  1.95272792e-06  7.58206338e-01  1.95272792e-06  7.61566860e-01  1.95272792e-06  1.80000000e+00  1.95272792e-06  1.24059894e-07  1.95272792e-06  7.58206338e-01                                 
 2.11114420e-06  8.15178705e-01  2.11114420e-06  7.60019056e-01  2.11114420e-06  7.57951667e-01  2.11114420e-06  1.80000000e+00  2.11114420e-06  1.08403558e-07  2.11114420e-06  7.60019056e-01                                 
 2.28635571e-06  8.13461416e-01  2.28635571e-06  7.58487078e-01  2.28635571e-06  7.59050010e-01  2.28635571e-06  1.80000000e+00  2.28635571e-06  7.00835985e-08  2.28635571e-06  7.58487078e-01                                 
 2.45473159e-06  8.14544580e-01  2.45473159e-06  7.59452129e-01  2.45473159e-06  7.59759406e-01  2.45473159e-06  1.80000000e+00  2.45473159e-06  1.56912647e-07  2.45473159e-06  7.59452129e-01                                 
 2.72790481e-06  8.14097184e-01  2.72790481e-06  7.59056574e-01  2.72790481e-06  7.58780607e-01  2.72790481e-06  1.80000000e+00  2.72790481e-06  4.14826102e-08  2.72790481e-06  7.59056574e-01                                 
 3.17091647e-06  8.14151302e-01  3.17091647e-06  7.59100865e-01  3.17091647e-06  7.59519393e-01  3.17091647e-06  1.80000000e+00  3.17091647e-06  1.64574516e-07  3.17091647e-06  7.59100865e-01                                 
 3.75088436e-06  8.14348358e-01  3.75088436e-06  7.59280838e-01  3.75088436e-06  7.59029336e-01  3.75088436e-06  1.80000000e+00  3.75088436e-06  4.13953733e-08  3.75088436e-06  7.59280838e-01                                 
 4.62248361e-06  8.13982995e-01  4.62248361e-06  7.58950573e-01  4.62248361e-06  7.59327302e-01  4.62248361e-06  1.80000000e+00  4.62248361e-06  1.62344351e-07  4.62248361e-06  7.58950573e-01                                 
 5.62248361e-06  8.14465306e-01  5.62248361e-06  7.59385101e-01  5.62248361e-06  7.59173720e-01  5.62248361e-06  1.80000000e+00  5.62248361e-06  4.43628875e-08  5.62248361e-06  7.59385101e-01                                 
 6.62248361e-06  8.13881510e-01  6.62248361e-06  7.58859981e-01  6.62248361e-06  7.59194185e-01  6.62248361e-06  1.80000000e+00  6.62248361e-06  1.58685792e-07  6.62248361e-06  7.58859981e-01                                 
 7.62248361e-06  8.14559091e-01  7.62248361e-06  7.59468623e-01  7.62248361e-06  7.59301339e-01  7.62248361e-06  1.80000000e+00  7.62248361e-06  4.88006005e-08  7.62248361e-06  7.59468623e-01                                 
 8.62248361e-06  8.13794950e-01  8.62248361e-06  7.58782751e-01  8.62248361e-06  7.59072737e-01  8.62248361e-06  1.80000000e+00  8.62248361e-06  1.53523692e-07  8.62248361e-06  7.58782751e-01                                 
 9.62248361e-06  8.14636707e-01  9.62248361e-06  7.59537663e-01  9.62248361e-06  7.59414307e-01  9.62248361e-06  1.80000000e+00  9.62248361e-06  5.46263432e-08  9.62248361e-06  7.59537663e-01                                 
 1.00005000e-05  8.13681195e-01  1.00005000e-05  7.58681395e-01  1.00005000e-05  7.58895291e-01  1.00005000e-05  1.80000000e+00  1.00005000e-05  1.41094117e-07  1.00005000e-05  7.58681395e-01                                 
