 time            v(vbep)         time            v(vben)         time            v(vout)         time            v(vphi1)        time            v(vphi2)        time            v(vref)         yes             currtemp       
 0.00000000e+00  5.66262963e-01  0.00000000e+00  5.01723074e-01  0.00000000e+00  2.64498635e-01  0.00000000e+00  0.00000000e+00  0.00000000e+00  1.79996873e+00  0.00000000e+00  5.01723074e-01  1.00000000e+00  8.10000000e+01 
 5.00000000e-12  5.66245137e-01  5.00000000e-12  5.01708262e-01  5.00000000e-12  2.65022045e-01  5.00000000e-12  1.80000000e-02  5.00000000e-12  1.80007681e+00  5.00000000e-12  5.01708262e-01                                 
 1.00000000e-11  5.66227545e-01  1.00000000e-11  5.01693757e-01  1.00000000e-11  2.65449273e-01  1.00000000e-11  3.60000000e-02  1.00000000e-11  1.80013614e+00  1.00000000e-11  5.01693757e-01                                 
 2.00000000e-11  5.66192479e-01  2.00000000e-11  5.01664823e-01  2.00000000e-11  2.66158184e-01  2.00000000e-11  7.20000000e-02  2.00000000e-11  1.80019479e+00  2.00000000e-11  5.01664823e-01                                 
 4.00000000e-11  5.66122562e-01  4.00000000e-11  5.01607101e-01  4.00000000e-11  2.66993286e-01  4.00000000e-11  1.44000000e-01  4.00000000e-11  1.80016210e+00  4.00000000e-11  5.01607101e-01                                 
 8.00000000e-11  5.65983137e-01  8.00000000e-11  5.01491950e-01  8.00000000e-11  2.67698672e-01  8.00000000e-11  2.88000000e-01  8.00000000e-11  1.80008058e+00  8.00000000e-11  5.01491950e-01                                 
 1.60000000e-10  5.65705985e-01  1.60000000e-10  5.01262811e-01  1.60000000e-10  2.68316648e-01  1.60000000e-10  5.76000000e-01  1.60000000e-10  1.80003909e+00  1.60000000e-10  5.01262811e-01                                 
 3.20000000e-10  5.65158224e-01  3.20000000e-10  5.00809068e-01  3.20000000e-10  2.72183902e-01  3.20000000e-10  1.15200000e+00  3.20000000e-10  1.80033947e+00  3.20000000e-10  5.00809068e-01                                 
 5.00000000e-10  5.64552157e-01  5.00000000e-10  5.00305655e-01  5.00000000e-10  5.11601252e-01  5.00000000e-10  1.80000000e+00  5.00000000e-10  1.90533685e-01  5.00000000e-10  5.00305655e-01                                 
 5.22645494e-10  5.64476747e-01  5.22645494e-10  5.00242907e-01  5.22645494e-10  5.68966008e-01  5.22645494e-10  1.80000000e+00  5.22645494e-10  4.74633802e-02  5.22645494e-10  5.00242907e-01                                 
 5.67936482e-10  5.64326256e-01  5.67936482e-10  5.00117640e-01  5.67936482e-10  6.75037928e-01  5.67936482e-10  1.80000000e+00  5.67936482e-10 -1.72532850e-02  5.67936482e-10  5.00117640e-01                                 
 6.58518459e-10  5.64027259e-01  6.58518459e-10  4.99868497e-01  6.58518459e-10  8.44195725e-01  6.58518459e-10  1.80000000e+00  6.58518459e-10  1.51639271e-02  6.58518459e-10  4.99868497e-01                                 
 7.76125795e-10  5.63642913e-01  7.76125795e-10  4.99547731e-01  7.76125795e-10  1.01342578e+00  7.76125795e-10  1.80000000e+00  7.76125795e-10 -1.08209987e-02  7.76125795e-10  4.99547731e-01                                 
 9.64496346e-10  5.63036085e-01  9.64496346e-10  4.99040143e-01  9.64496346e-10  1.22972242e+00  9.64496346e-10  1.80000000e+00  9.64496346e-10  1.11043131e-02  9.64496346e-10  4.99040143e-01                                 
 1.29863512e-09  5.61985117e-01  1.29863512e-09  4.98157792e-01  1.29863512e-09  1.50512652e+00  1.29863512e-09  1.80000000e+00  1.29863512e-09 -9.19715258e-03  1.29863512e-09  4.98157792e-01                                 
 1.87508861e-09  5.60243491e-01  1.87508861e-09  4.96686701e-01  1.87508861e-09  1.73392111e+00  1.87508861e-09  1.80000000e+00  1.87508861e-09  9.48121714e-03  1.87508861e-09  4.96686701e-01                                 
 2.16932558e-09  5.59387624e-01  2.16932558e-09  4.95959669e-01  2.16932558e-09  1.77167626e+00  2.16932558e-09  1.80000000e+00  2.16932558e-09 -8.50739630e-03  2.16932558e-09  4.95959669e-01                                 
 2.50958365e-09  5.58423670e-01  2.50958365e-09  4.95137709e-01  2.50958365e-09  1.79130775e+00  2.50958365e-09  1.80000000e+00  2.50958365e-09  8.11553990e-03  2.50958365e-09  4.95137709e-01                                 
 2.88980867e-09  5.57377459e-01  2.88980867e-09  4.94241939e-01  2.88980867e-09  1.79933188e+00  2.88980867e-09  1.80000000e+00  2.88980867e-09 -7.54399703e-03  2.88980867e-09  4.94241939e-01                                 
 3.55390655e-09  5.55622626e-01  3.55390655e-09  4.92731159e-01  3.55390655e-09  1.80274207e+00  3.55390655e-09  1.80000000e+00  3.55390655e-09  7.36213481e-03  3.55390655e-09  4.92731159e-01                                 
 4.29634291e-09  5.53761222e-01  4.29634291e-09  4.91117472e-01  4.29634291e-09  1.80117723e+00  4.29634291e-09  1.80000000e+00  4.29634291e-09 -7.08420644e-03  4.29634291e-09  4.91117472e-01                                 
 5.68344845e-09  5.50528136e-01  5.68344845e-09  4.88289266e-01  5.68344845e-09  1.79811607e+00  5.68344845e-09  1.80000000e+00  5.68344845e-09  7.02691872e-03  5.68344845e-09  4.88289266e-01                                 
 7.75850642e-09  5.46185958e-01  7.75850642e-09  4.84443362e-01  7.75850642e-09  1.79264441e+00  7.75850642e-09  1.80000000e+00  7.75850642e-09 -6.89107088e-03  7.75850642e-09  4.84443362e-01                                 
 9.22964536e-09  5.43409187e-01  9.22964536e-09  4.81956246e-01  9.22964536e-09  1.78967137e+00  9.22964536e-09  1.80000000e+00  9.22964536e-09  6.83892890e-03  9.22964536e-09  4.81956246e-01                                 
 1.09022025e-08  5.40498628e-01  1.09022025e-08  4.79328665e-01  1.09022025e-08  1.78572370e+00  1.09022025e-08  1.80000000e+00  1.09022025e-08 -6.69935313e-03  1.09022025e-08  4.79328665e-01                                 
 1.24850901e-08  5.37952394e-01  1.24850901e-08  4.77013545e-01  1.24850901e-08  1.78270099e+00  1.24850901e-08  1.80000000e+00  1.24850901e-08  6.64794322e-03  1.24850901e-08  4.77013545e-01                                 
 1.40012422e-08  5.35678555e-01  1.40012422e-08  4.74933783e-01  1.40012422e-08  1.77934432e+00  1.40012422e-08  1.80000000e+00  1.40012422e-08 -6.50781932e-03  1.40012422e-08  4.74933783e-01                                 
 1.56124133e-08  5.33418315e-01  1.56124133e-08  4.72855374e-01  1.56124133e-08  1.77642224e+00  1.56124133e-08  1.80000000e+00  1.56124133e-08  6.45707277e-03  1.56124133e-08  4.72855374e-01                                 
 1.74438277e-08  5.31022721e-01  1.74438277e-08  4.70640669e-01  1.74438277e-08  1.77258498e+00  1.74438277e-08  1.80000000e+00  1.74438277e-08 -6.33855835e-03  1.74438277e-08  4.70640669e-01                                 
 1.99866805e-08  5.27965178e-01  1.99866805e-08  4.67796421e-01  1.99866805e-08  1.76800339e+00  1.99866805e-08  1.80000000e+00  1.99866805e-08  6.32116584e-03  1.99866805e-08  4.67796421e-01                                 
 2.30726262e-08  5.24618706e-01  2.30726262e-08  4.64660138e-01  2.30726262e-08  1.76205984e+00  2.30726262e-08  1.80000000e+00  2.30726262e-08 -6.23639876e-03  2.30726262e-08  4.64660138e-01                                 
 2.78771035e-08  5.20057164e-01  2.78771035e-08  4.60345132e-01  2.78771035e-08  1.75393861e+00  2.78771035e-08  1.80000000e+00  2.78771035e-08  6.24601674e-03  2.78771035e-08  4.60345132e-01                                 
 3.43815430e-08  5.14843990e-01  3.43815430e-08  4.55357826e-01  3.43815430e-08  1.74306156e+00  3.43815430e-08  1.80000000e+00  3.43815430e-08 -6.18514891e-03  3.43815430e-08  4.55357826e-01                                 
 4.73904220e-08  5.06479925e-01  4.73904220e-08  4.47264253e-01  4.73904220e-08  1.72327282e+00  4.73904220e-08  1.80000000e+00  4.73904220e-08  6.21422314e-03  4.73904220e-08  4.47264253e-01                                 
 7.34081799e-08  4.94208635e-01  7.34081799e-08  4.35268775e-01  7.34081799e-08  1.68614185e+00  7.34081799e-08  1.80000000e+00  7.34081799e-08 -6.16849449e-03  7.34081799e-08  4.35268775e-01                                 
 1.14172009e-07  4.80441767e-01  1.14172009e-07  4.21826908e-01  1.14172009e-07  1.63287470e+00  1.14172009e-07  1.80000000e+00  1.14172009e-07  6.20601637e-03  1.14172009e-07  4.21826908e-01                                 
 1.56135676e-07  4.66546637e-01  1.56135676e-07  4.08945075e-01  1.56135676e-07  1.57702236e+00  1.56135676e-07  1.80000000e+00  1.56135676e-07 -6.16178157e-03  1.56135676e-07  4.08945075e-01                                 
 2.20934466e-07  4.46400956e-01  2.20934466e-07  3.90860183e-01  2.20934466e-07  1.49138480e+00  2.20934466e-07  1.80000000e+00  2.20934466e-07  6.20068820e-03  2.20934466e-07  3.90860183e-01                                 
 2.91840115e-07  4.26831456e-01  2.91840115e-07  3.73710844e-01  2.91840115e-07  1.39790828e+00  2.91840115e-07  1.80000000e+00  2.91840115e-07 -6.15760581e-03  2.91840115e-07  3.73710844e-01                                 
 4.12985691e-07  3.89694362e-01  4.12985691e-07  3.42451263e-01  4.12985691e-07  1.23468777e+00  4.12985691e-07  1.80000000e+00  4.12985691e-07  6.19755838e-03  4.12985691e-07  3.42451263e-01                                 
 6.03238292e-07  6.15400308e-01  6.03238292e-07  5.48837843e-01  6.03238292e-07  1.24753035e+00  6.03238292e-07  1.80000000e+00  6.03238292e-07 -6.14960016e-03  6.03238292e-07  5.48837843e-01                                 
 7.59643160e-07  7.23727594e-01  7.59643160e-07  6.48785438e-01  7.59643160e-07  1.18696740e+00  7.59643160e-07  1.80000000e+00  7.59643160e-07  6.19432265e-03  7.59643160e-07  6.48785438e-01                                 
 7.79107708e-07  7.24138141e-01  7.79107708e-07  6.49127345e-01  7.79107708e-07  1.16634107e+00  7.79107708e-07  1.80000000e+00  7.79107708e-07  9.86912658e-06  7.79107708e-07  6.49127345e-01                                 
 8.18036805e-07  7.24339376e-01  8.18036805e-07  6.49290138e-01  8.18036805e-07  1.12643381e+00  8.18036805e-07  1.80000000e+00  8.18036805e-07  5.93960336e-06  8.18036805e-07  6.49290138e-01                                 
 8.68054783e-07  7.04515545e-01  8.68054783e-07  6.32945661e-01  8.68054783e-07  1.05949799e+00  8.68054783e-07  1.80000000e+00  8.68054783e-07  8.07632711e-06  8.68054783e-07  6.32945661e-01                                 
 9.23201294e-07  6.81571552e-01  9.23201294e-07  6.12673166e-01  9.23201294e-07  9.91681641e-01  9.23201294e-07  1.80000000e+00  9.23201294e-07  5.99686938e-06  9.23201294e-07  6.12673166e-01                                 
 9.85708022e-07  7.02766583e-01  9.85708022e-07  6.31379912e-01  9.85708022e-07  9.65364079e-01  9.85708022e-07  1.80000000e+00  9.85708022e-07  1.18012951e-05  9.85708022e-07  6.31379912e-01                                 
 1.04878588e-06  7.18883729e-01  1.04878588e-06  6.44877690e-01  1.04878588e-06  9.37004591e-01  1.04878588e-06  1.80000000e+00  1.04878588e-06  5.65859552e-06  1.04878588e-06  6.44877690e-01                                 
 1.12904899e-06  6.95061125e-01  1.12904899e-06  6.24753657e-01  1.12904899e-06  8.64570587e-01  1.12904899e-06  1.80000000e+00  1.12904899e-06  9.32450651e-06  1.12904899e-06  6.24753657e-01                                 
 1.19891405e-06  6.94043663e-01  1.19891405e-06  6.23789951e-01  1.19891405e-06  8.21515047e-01  1.19891405e-06  1.80000000e+00  1.19891405e-06  7.01878367e-06  1.19891405e-06  6.23789951e-01                                 
 1.27111854e-06  7.14727130e-01  1.27111854e-06  6.41480215e-01  1.27111854e-06  7.97716926e-01  1.27111854e-06  1.80000000e+00  1.27111854e-06  1.07355672e-05  1.27111854e-06  6.41480215e-01                                 
 1.34465244e-06  7.01392106e-01  1.34465244e-06  6.30238416e-01  1.34465244e-06  7.43602789e-01  1.34465244e-06  1.80000000e+00  1.34465244e-06  4.94633059e-06  1.34465244e-06  6.30238416e-01                                 
 1.42011653e-06  6.97726676e-01  1.42011653e-06  6.27038571e-01  1.42011653e-06  6.99987826e-01  1.42011653e-06  1.80000000e+00  1.42011653e-06  1.13982610e-05  1.42011653e-06  6.27038571e-01                                 
 1.50439090e-06  7.09223052e-01  1.50439090e-06  6.36881639e-01  1.50439090e-06  6.74908375e-01  1.50439090e-06  1.80000000e+00  1.50439090e-06  5.90245287e-06  1.50439090e-06  6.36881639e-01                                 
 1.61328914e-06  7.01902960e-01  1.61328914e-06  6.30674730e-01  1.61328914e-06  6.39813514e-01  1.61328914e-06  1.80000000e+00  1.61328914e-06  1.06553094e-05  1.61328914e-06  6.30674730e-01                                 
 1.72387592e-06  7.01796456e-01  1.72387592e-06  6.30559388e-01  1.72387592e-06  6.24444170e-01  1.72387592e-06  1.80000000e+00  1.72387592e-06  6.30320170e-06  1.72387592e-06  6.30559388e-01                                 
 1.87116388e-06  7.07407656e-01  1.87116388e-06  6.35364864e-01  1.87116388e-06  6.30344621e-01  1.87116388e-06  1.80000000e+00  1.87116388e-06  1.09469445e-05  1.87116388e-06  6.35364864e-01                                 
 2.03886127e-06  6.99975228e-01  2.03886127e-06  6.28997560e-01  2.03886127e-06  6.31944957e-01  2.03886127e-06  1.80000000e+00  2.03886127e-06  5.97847466e-06  2.03886127e-06  6.28997560e-01                                 
 2.21605452e-06  7.06631763e-01  2.21605452e-06  6.34700100e-01  2.21605452e-06  6.33661133e-01  2.21605452e-06  1.80000000e+00  2.21605452e-06  1.12407946e-05  2.21605452e-06  6.34700100e-01                                 
 2.41591920e-06  7.02083963e-01  2.41591920e-06  6.30821217e-01  2.41591920e-06  6.31285444e-01  2.41591920e-06  1.80000000e+00  2.41591920e-06  5.74686645e-06  2.41591920e-06  6.30821217e-01                                 
 2.64091915e-06  7.04431438e-01  2.64091915e-06  6.32825336e-01  2.64091915e-06  6.33151284e-01  2.64091915e-06  1.80000000e+00  2.64091915e-06  1.13730823e-05  2.64091915e-06  6.32825336e-01                                 
 2.98417903e-06  7.03957970e-01  2.98417903e-06  6.32427790e-01  2.98417903e-06  6.32383535e-01  2.98417903e-06  1.80000000e+00  2.98417903e-06  5.69873753e-06  2.98417903e-06  6.32427790e-01                                 
 3.46612074e-06  7.03298186e-01  3.46612074e-06  6.31856518e-01  3.46612074e-06  6.32304517e-01  3.46612074e-06  1.80000000e+00  3.46612074e-06  1.13727622e-05  3.46612074e-06  6.31856518e-01                                 
 4.14301864e-06  7.04673993e-01  4.14301864e-06  6.33038416e-01  4.14301864e-06  6.32974996e-01  4.14301864e-06  1.80000000e+00  4.14301864e-06  5.71335855e-06  4.14301864e-06  6.33038416e-01                                 
 5.12699890e-06  7.02837400e-01  5.12699890e-06  6.31462051e-01  5.12699890e-06  6.31899268e-01  5.12699890e-06  1.80000000e+00  5.12699890e-06  1.13560378e-05  5.12699890e-06  6.31462051e-01                                 
 6.12699890e-06  7.04995169e-01  6.12699890e-06  6.33311630e-01  6.12699890e-06  6.33264587e-01  6.12699890e-06  1.80000000e+00  6.12699890e-06  5.73063641e-06  6.12699890e-06  6.33311630e-01                                 
 7.12699890e-06  7.02539248e-01  7.12699890e-06  6.31206743e-01  7.12699890e-06  6.31625029e-01  7.12699890e-06  1.80000000e+00  7.12699890e-06  1.13362121e-05  7.12699890e-06  6.31206743e-01                                 
 8.12699890e-06  7.05245440e-01  8.12699890e-06  6.33524134e-01  8.12699890e-06  6.33499209e-01  8.12699890e-06  1.80000000e+00  8.12699890e-06  5.75283692e-06  8.12699890e-06  6.33524134e-01                                 
 9.12699890e-06  7.02310615e-01  9.12699890e-06  6.31011038e-01  9.12699890e-06  6.31405413e-01  9.12699890e-06  1.80000000e+00  9.12699890e-06  1.13119331e-05  9.12699890e-06  6.31011038e-01                                 
 1.00005000e-05  7.05436070e-01  1.00005000e-05  6.33685624e-01  1.00005000e-05  6.33688598e-01  1.00005000e-05  1.80000000e+00  1.00005000e-05  5.78089174e-06  1.00005000e-05  6.33685624e-01                                 
 1.00005500e-05  7.05437327e-01  1.00005500e-05  6.33688629e-01  1.00005500e-05  6.26896901e-01  1.00005500e-05  1.62000000e+00  1.00005500e-05 -1.24529799e-04  1.00005500e-05  6.33688629e-01                                 
 1.00006500e-05  7.05444082e-01  1.00006500e-05  6.33694740e-01  1.00006500e-05  6.15376801e-01  1.00006500e-05  1.26000000e+00  1.00006500e-05 -9.80852668e-05  1.00006500e-05  6.33694740e-01                                 
 1.00008500e-05  7.05454877e-01  1.00008500e-05  6.33702669e-01  1.00008500e-05  6.06473539e-01  1.00008500e-05  5.40000000e-01  1.00008500e-05  2.21921309e-02  1.00008500e-05  6.33702669e-01                                 
 1.00010000e-05  7.05457630e-01  1.00010000e-05  6.33705249e-01  1.00010000e-05  5.58933012e-01  1.00010000e-05  0.00000000e+00  1.00010000e-05  1.54617312e+00  1.00010000e-05  6.33705249e-01                                 
 1.00010249e-05  7.05458025e-01  1.00010249e-05  6.33705427e-01  1.00010249e-05  5.37603396e-01  1.00010249e-05  0.00000000e+00  1.00010249e-05  1.70107359e+00  1.00010249e-05  6.33705427e-01                                 
 1.00010746e-05  7.05458457e-01  1.00010746e-05  6.33705664e-01  1.00010746e-05  5.05618840e-01  1.00010746e-05  0.00000000e+00  1.00010746e-05  1.81887541e+00  1.00010746e-05  6.33705664e-01                                 
 1.00011740e-05  7.05458326e-01  1.00011740e-05  6.33705528e-01  1.00011740e-05  4.88607937e-01  1.00011740e-05  0.00000000e+00  1.00011740e-05  1.78964609e+00  1.00011740e-05  6.33705528e-01                                 
 1.00013164e-05  7.05456577e-01  1.00013164e-05  6.33704026e-01  1.00013164e-05  4.93878153e-01  1.00013164e-05  0.00000000e+00  1.00013164e-05  1.80696249e+00  1.00013164e-05  6.33704026e-01                                 
 1.00014707e-05  7.05452791e-01  1.00014707e-05  6.33700891e-01  1.00014707e-05  4.93755667e-01  1.00014707e-05  0.00000000e+00  1.00014707e-05  1.79539703e+00  1.00014707e-05  6.33700891e-01                                 
 1.00017483e-05  7.05442454e-01  1.00017483e-05  6.33692284e-01  1.00017483e-05  4.95022400e-01  1.00017483e-05  0.00000000e+00  1.00017483e-05  1.80372883e+00  1.00017483e-05  6.33692284e-01                                 
 1.00023036e-05  7.05412824e-01  1.00023036e-05  6.33667575e-01  1.00023036e-05  4.94866535e-01  1.00023036e-05  0.00000000e+00  1.00023036e-05  1.79665114e+00  1.00023036e-05  6.33667575e-01                                 
 1.00029676e-05  7.05368725e-01  1.00029676e-05  6.33630532e-01  1.00029676e-05  4.95301623e-01  1.00029676e-05  0.00000000e+00  1.00029676e-05  1.80304332e+00  1.00029676e-05  6.33630532e-01                                 
 1.00042957e-05  7.05270464e-01  1.00042957e-05  6.33547444e-01  1.00042957e-05  4.95348042e-01  1.00042957e-05  0.00000000e+00  1.00042957e-05  1.79708319e+00  1.00042957e-05  6.33547444e-01                                 
 1.00069518e-05  7.05062418e-01  1.00069518e-05  6.33370561e-01  1.00069518e-05  4.96562302e-01  1.00069518e-05  0.00000000e+00  1.00069518e-05  1.80284178e+00  1.00069518e-05  6.33370561e-01                                 
 1.00122640e-05  7.04636387e-01  1.00122640e-05  6.33007546e-01  1.00122640e-05  4.98591894e-01  1.00122640e-05  0.00000000e+00  1.00122640e-05  1.79718222e+00  1.00122640e-05  6.33007546e-01                                 
 1.00228883e-05  7.03827037e-01  1.00228883e-05  6.32316081e-01  1.00228883e-05  5.08042873e-01  1.00228883e-05  0.00000000e+00  1.00228883e-05  1.80279540e+00  1.00228883e-05  6.32316081e-01                                 
 1.00441371e-05  7.02787625e-01  1.00441371e-05  6.31423829e-01  1.00441371e-05  5.51839688e-01  1.00441371e-05  0.00000000e+00  1.00441371e-05  1.79721198e+00  1.00441371e-05  6.31423829e-01                                 
