 time            v(vbep)         time            v(vben)         time            v(vout)         time            v(vphi1)        time            v(vphi2)        time            v(vref)         yes             currtemp       
 0.00000000e+00  6.92782067e-01  0.00000000e+00  6.38623205e-01  0.00000000e+00  8.20799510e-01  0.00000000e+00  0.00000000e+00  0.00000000e+00  1.79995612e+00  0.00000000e+00  6.38623205e-01  1.00000000e+00  2.30000000e+01 
 5.00000000e-12  6.92756633e-01  5.00000000e-12  6.38602095e-01  5.00000000e-12  8.21472313e-01  5.00000000e-12  1.80000000e-02  5.00000000e-12  1.80007681e+00  5.00000000e-12  6.38602095e-01                                 
 1.00000000e-11  6.92731800e-01  1.00000000e-11  6.38581507e-01  1.00000000e-11  8.22071367e-01  1.00000000e-11  3.60000000e-02  1.00000000e-11  1.80014848e+00  1.00000000e-11  6.38581507e-01                                 
 2.00000000e-11  6.92682490e-01  2.00000000e-11  6.38540478e-01  2.00000000e-11  8.23146570e-01  2.00000000e-11  7.20000000e-02  2.00000000e-11  1.80022809e+00  2.00000000e-11  6.38540478e-01                                 
 4.00000000e-11  6.92584486e-01  4.00000000e-11  6.38458721e-01  4.00000000e-11  8.24755943e-01  4.00000000e-11  1.44000000e-01  4.00000000e-11  1.80021642e+00  4.00000000e-11  6.38458721e-01                                 
 8.00000000e-11  6.92389378e-01  8.00000000e-11  6.38295885e-01  8.00000000e-11  8.26615412e-01  8.00000000e-11  2.88000000e-01  8.00000000e-11  1.80011755e+00  8.00000000e-11  6.38295885e-01                                 
 1.60000000e-10  6.92003025e-01  1.60000000e-10  6.37972920e-01  1.60000000e-10  8.27987343e-01  1.60000000e-10  5.76000000e-01  1.60000000e-10  1.80002876e+00  1.60000000e-10  6.37972920e-01                                 
 3.20000000e-10  6.91244923e-01  3.20000000e-10  6.37337452e-01  3.20000000e-10  8.19116335e-01  3.20000000e-10  1.15200000e+00  3.20000000e-10  1.80023230e+00  3.20000000e-10  6.37337452e-01                                 
 5.00000000e-10  6.90414562e-01  5.00000000e-10  6.36638667e-01  5.00000000e-10  9.28250876e-01  5.00000000e-10  1.80000000e+00  5.00000000e-10  1.43404088e-01  5.00000000e-10  6.36638667e-01                                 
 5.21156689e-10  6.90318648e-01  5.21156689e-10  6.36557752e-01  5.21156689e-10  9.56035976e-01  5.21156689e-10  1.80000000e+00  5.21156689e-10  3.39431774e-02  5.21156689e-10  6.36557752e-01                                 
 5.63470067e-10  6.90127428e-01  5.63470067e-10  6.36396353e-01  5.63470067e-10  1.01076506e+00  5.63470067e-10  1.80000000e+00  5.63470067e-10 -1.31472552e-02  5.63470067e-10  6.36396353e-01                                 
 6.48096822e-10  6.89748658e-01  6.48096822e-10  6.36076216e-01  6.48096822e-10  1.11058851e+00  6.48096822e-10  1.80000000e+00  6.48096822e-10  1.14246263e-02  6.48096822e-10  6.36076216e-01                                 
 7.67565568e-10  6.89222083e-01  7.67565568e-10  6.35630192e-01  7.67565568e-10  1.23967407e+00  7.67565568e-10  1.80000000e+00  7.67565568e-10 -8.69408531e-03  7.67565568e-10  6.35630192e-01                                 
 9.50968730e-10  6.88431523e-01  9.50968730e-10  6.34958487e-01  9.50968730e-10  1.40992716e+00  9.50968730e-10  1.80000000e+00  9.50968730e-10  8.81896654e-03  9.50968730e-10  6.34958487e-01                                 
 1.31777505e-09  6.86910898e-01  1.31777505e-09  6.33659640e-01  1.31777505e-09  1.64252745e+00  1.31777505e-09  1.80000000e+00  1.31777505e-09 -7.62540910e-03  1.31777505e-09  6.33659640e-01                                 
 1.80189946e-09  6.85017206e-01  1.80189946e-09  6.32029698e-01  1.80189946e-09  1.78601818e+00  1.80189946e-09  1.80000000e+00  1.80189946e-09  7.71864319e-03  1.80189946e-09  6.32029698e-01                                 
 2.13677961e-09  6.83776359e-01  2.13677961e-09  6.30954181e-01  2.13677961e-09  1.81993111e+00  2.13677961e-09  1.80000000e+00  2.13677961e-09 -7.12174415e-03  2.13677961e-09  6.30954181e-01                                 
 2.54283489e-09  6.82339531e-01  2.54283489e-09  6.29701727e-01  2.54283489e-09  1.83614924e+00  2.54283489e-09  1.80000000e+00  2.54283489e-09  6.88115658e-03  2.54283489e-09  6.29701727e-01                                 
 2.95821937e-09  6.80940108e-01  2.95821937e-09  6.28474719e-01  2.95821937e-09  1.84040120e+00  2.95821937e-09  1.80000000e+00  2.95821937e-09 -6.51892186e-03  2.95821937e-09  6.28474719e-01                                 
 3.68897670e-09  6.78630466e-01  3.68897670e-09  6.26435007e-01  3.68897670e-09  1.84108105e+00  3.68897670e-09  1.80000000e+00  3.68897670e-09  6.38496475e-03  3.68897670e-09  6.26435007e-01                                 
 4.58683353e-09  6.76025253e-01  4.58683353e-09  6.24112931e-01  4.58683353e-09  1.83833989e+00  4.58683353e-09  1.80000000e+00  4.58683353e-09 -6.22205930e-03  4.58683353e-09  6.24112931e-01                                 
 6.38114945e-09  6.71425244e-01  6.38114945e-09  6.19963194e-01  6.38114945e-09  1.83405283e+00  6.38114945e-09  1.80000000e+00  6.38114945e-09  6.18105380e-03  6.38114945e-09  6.19963194e-01                                 
 9.35403400e-09  6.65113863e-01  9.35403400e-09  6.14175460e-01  9.35403400e-09  1.82737101e+00  9.35403400e-09  1.80000000e+00  9.35403400e-09 -6.11405314e-03  9.35403400e-09  6.14175460e-01                                 
 1.37601794e-08  6.57725368e-01  1.37601794e-08  6.07282410e-01  1.37601794e-08  1.81914321e+00  1.37601794e-08  1.80000000e+00  1.37601794e-08  6.11528112e-03  1.37601794e-08  6.07282410e-01                                 
 1.55836813e-08  6.55163599e-01  1.55836813e-08  6.04865626e-01  1.55836813e-08  1.81594489e+00  1.55836813e-08  1.80000000e+00  1.55836813e-08 -6.02766634e-03  1.55836813e-08  6.04865626e-01                                 
 1.66985510e-08  6.53698216e-01  1.66985510e-08  6.03478916e-01  1.66985510e-08  1.81443194e+00  1.66985510e-08  1.80000000e+00  1.66985510e-08  5.94719182e-03  1.66985510e-08  6.03478916e-01                                 
 1.82794327e-08  6.51730179e-01  1.82794327e-08  6.01612688e-01  1.82794327e-08  1.81177024e+00  1.82794327e-08  1.80000000e+00  1.82794327e-08 -5.85393222e-03  1.82794327e-08  6.01612688e-01                                 
 2.08401925e-08  6.48770099e-01  2.08401925e-08  5.98799784e-01  2.08401925e-08  1.80827412e+00  2.08401925e-08  1.80000000e+00  2.08401925e-08  5.83149372e-03  2.08401925e-08  5.98799784e-01                                 
 2.38973226e-08  6.45519628e-01  2.38973226e-08  5.95708807e-01  2.38973226e-08  1.80352871e+00  2.38973226e-08  1.80000000e+00  2.38973226e-08 -5.77430618e-03  2.38973226e-08  5.95708807e-01                                 
 2.78978360e-08  6.41523998e-01  2.78978360e-08  5.91928226e-01  2.78978360e-08  1.79733358e+00  2.78978360e-08  1.80000000e+00  2.78978360e-08  5.76740276e-03  2.78978360e-08  5.91928226e-01                                 
 3.31894694e-08  6.36252170e-01  3.31894694e-08  5.87025188e-01  3.31894694e-08  1.78725553e+00  3.31894694e-08  1.80000000e+00  3.31894694e-08 -5.72652194e-03  3.31894694e-08  5.87025188e-01                                 
 4.21194383e-08  6.28744950e-01  4.21194383e-08  5.80019804e-01  4.21194383e-08  1.76987307e+00  4.21194383e-08  1.80000000e+00  4.21194383e-08  5.73473531e-03  4.21194383e-08  5.80019804e-01                                 
 5.84187892e-08  6.17909956e-01  5.84187892e-08  5.69888980e-01  5.84187892e-08  1.73521687e+00  5.84187892e-08  1.80000000e+00  5.84187892e-08 -5.70746360e-03  5.84187892e-08  5.69888980e-01                                 
 8.54932819e-08  6.03879308e-01  8.54932819e-08  5.56886138e-01  8.54932819e-08  1.68537440e+00  8.54932819e-08  1.80000000e+00  8.54932819e-08  5.72481303e-03  8.54932819e-08  5.56886138e-01                                 
 1.11052223e-07  6.00581962e-01  1.11052223e-07  5.52925483e-01  1.11052223e-07  1.65982767e+00  1.11052223e-07  1.80000000e+00  1.11052223e-07 -5.69744246e-03  1.11052223e-07  5.52925483e-01                                 
 1.42826638e-07  6.01766732e-01  1.42826638e-07  5.52498078e-01  1.42826638e-07  1.64599894e+00  1.42826638e-07  1.80000000e+00  1.42826638e-07  5.71819858e-03  1.42826638e-07  5.52498078e-01                                 
 1.61915411e-07  5.99052211e-01  1.61915411e-07  5.49661006e-01  1.61915411e-07  1.62441705e+00  1.61915411e-07  1.80000000e+00  1.61915411e-07 -5.68966938e-03  1.61915411e-07  5.49661006e-01                                 
 1.85366849e-07  5.92965388e-01  1.85366849e-07  5.44096018e-01  1.85366849e-07  1.59507665e+00  1.85366849e-07  1.80000000e+00  1.85366849e-07  5.70765009e-03  1.85366849e-07  5.44096018e-01                                 
 2.11122703e-07  5.85458099e-01  2.11122703e-07  5.37432603e-01  2.11122703e-07  1.56140555e+00  2.11122703e-07  1.80000000e+00  2.11122703e-07 -5.68114410e-03  2.11122703e-07  5.37432603e-01                                 
 2.39279603e-07  5.77587213e-01  2.39279603e-07  5.30515065e-01  2.39279603e-07  1.52667302e+00  2.39279603e-07  1.80000000e+00  2.39279603e-07  5.69983701e-03  2.39279603e-07  5.30515065e-01                                 
 2.94466040e-07  5.62617601e-01  2.94466040e-07  5.17565916e-01  2.94466040e-07  1.45600947e+00  2.94466040e-07  1.80000000e+00  2.94466040e-07 -5.67531997e-03  2.94466040e-07  5.17565916e-01                                 
 3.78172799e-07  5.37832131e-01  3.78172799e-07  4.96770049e-01  3.78172799e-07  1.34811473e+00  3.78172799e-07  1.80000000e+00  3.78172799e-07  5.69662035e-03  3.78172799e-07  4.96770049e-01                                 
 5.23127404e-07  4.90441615e-01  5.23127404e-07  4.58099223e-01  5.23127404e-07  1.15251562e+00  5.23127404e-07  1.80000000e+00  5.23127404e-07 -5.67360586e-03  5.23127404e-07  4.58099223e-01                                 
 6.58740431e-07  7.36847900e-01  6.58740431e-07  6.80958314e-01  6.58740431e-07  1.24998551e+00  6.58740431e-07  1.80000000e+00  6.58740431e-07  5.70266178e-03  6.58740431e-07  6.80958314e-01                                 
 6.80000667e-07  7.59502443e-01  6.80000667e-07  7.03240369e-01  6.80000667e-07  1.24985667e+00  6.80000667e-07  1.80000000e+00  6.80000667e-07  3.48691762e-06  6.80000667e-07  7.03240369e-01                                 
 7.22521141e-07  7.85290247e-01  7.22521141e-07  7.27344506e-01  7.22521141e-07  1.23083705e+00  7.22521141e-07  1.80000000e+00  7.22521141e-07 -1.24677848e-06  7.22521141e-07  7.27344506e-01                                 
 8.07562087e-07  8.01450798e-01  8.07562087e-07  7.41536015e-01  8.07562087e-07  1.15815902e+00  8.07562087e-07  1.80000000e+00  8.07562087e-07  1.65692323e-06  8.07562087e-07  7.41536015e-01                                 
 8.18705781e-07  8.02033381e-01  8.18705781e-07  7.42036869e-01  8.18705781e-07  1.14722391e+00  8.18705781e-07  1.80000000e+00  8.18705781e-07 -8.08569666e-08  8.18705781e-07  7.42036869e-01                                 
 8.40993169e-07  8.03072205e-01  8.40993169e-07  7.42920788e-01  8.40993169e-07  1.12503985e+00  8.40993169e-07  1.80000000e+00  8.40993169e-07 -1.15247721e-07  8.40993169e-07  7.42920788e-01                                 
 8.85567946e-07  8.04554609e-01  8.85567946e-07  7.44174532e-01  8.85567946e-07  1.07996157e+00  8.85567946e-07  1.80000000e+00  8.85567946e-07 -1.31117355e-07  8.85567946e-07  7.44174532e-01                                 
 9.41044559e-07  8.02693892e-01  9.41044559e-07  7.42607805e-01  9.41044559e-07  1.02109738e+00  9.41044559e-07  1.80000000e+00  9.41044559e-07 -3.61031306e-07  9.41044559e-07  7.42607805e-01                                 
 9.49834402e-07  7.99466439e-01  9.49834402e-07  7.39865806e-01  9.49834402e-07  1.00939303e+00  9.49834402e-07  1.80000000e+00  9.49834402e-07 -9.08419920e-07  9.49834402e-07  7.39865806e-01                                 
 9.67414086e-07  7.90197491e-01  9.67414086e-07  7.31783853e-01  9.67414086e-07  9.83908982e-01  9.67414086e-07  1.80000000e+00  9.67414086e-07 -1.55131763e-06  9.67414086e-07  7.31783853e-01                                 
 1.00257345e-06  7.79352291e-01  1.00257345e-06  7.21953066e-01  1.00257345e-06  9.43351502e-01  1.00257345e-06  1.80000000e+00  1.00257345e-06  9.60732474e-08  1.00257345e-06  7.21953066e-01                                 
 1.04470566e-06  7.88198015e-01  1.04470566e-06  7.29948037e-01  1.04470566e-06  9.18399256e-01  1.04470566e-06  1.80000000e+00  1.04470566e-06  7.22867923e-07  1.04470566e-06  7.29948037e-01                                 
 1.10658951e-06  7.96254487e-01  1.10658951e-06  7.37066998e-01  1.10658951e-06  8.81882462e-01  1.10658951e-06  1.80000000e+00  1.10658951e-06 -1.52777571e-07  1.10658951e-06  7.37066998e-01                                 
 1.16953217e-06  7.90632248e-01  1.16953217e-06  7.32140872e-01  1.16953217e-06  8.37461455e-01  1.16953217e-06  1.80000000e+00  1.16953217e-06 -7.92559361e-08  1.16953217e-06  7.32140872e-01                                 
 1.26652562e-06  7.87285603e-01  1.26652562e-06  7.29141851e-01  1.26652562e-06  7.84895457e-01  1.26652562e-06  1.80000000e+00  1.26652562e-06  1.94113707e-07  1.26652562e-06  7.29141851e-01                                 
 1.37040043e-06  7.94366498e-01  1.37040043e-06  7.35419283e-01  1.37040043e-06  7.57563869e-01  1.37040043e-06  1.80000000e+00  1.37040043e-06  4.96042249e-07  1.37040043e-06  7.35419283e-01                                 
 1.51777617e-06  7.88559517e-01  1.51777617e-06  7.30293265e-01  1.51777617e-06  7.29307218e-01  1.51777617e-06  1.80000000e+00  1.51777617e-06 -1.07353801e-07  1.51777617e-06  7.30293265e-01                                 
 1.68060255e-06  7.90985991e-01  1.68060255e-06  7.32436828e-01  1.68060255e-06  7.21404692e-01  1.68060255e-06  1.80000000e+00  1.68060255e-06  7.75530962e-07  1.68060255e-06  7.32436828e-01                                 
 1.84252297e-06  7.92227780e-01  1.84252297e-06  7.33546958e-01  1.84252297e-06  7.32496387e-01  1.84252297e-06  1.80000000e+00  1.84252297e-06 -4.88204325e-08  1.84252297e-06  7.33546958e-01                                 
 2.02721736e-06  7.88472711e-01  2.02721736e-06  7.30205580e-01  2.02721736e-06  7.34437339e-01  2.02721736e-06  1.80000000e+00  2.02721736e-06  6.35785033e-07  2.02721736e-06  7.30205580e-01                                 
 2.21236147e-06  7.93127234e-01  2.21236147e-06  7.34333628e-01  2.21236147e-06  7.30620163e-01  2.21236147e-06  1.80000000e+00  2.21236147e-06  8.62145192e-08  2.21236147e-06  7.34333628e-01                                 
 2.39688140e-06  7.88810674e-01  2.39688140e-06  7.30512856e-01  2.39688140e-06  7.31332388e-01  2.39688140e-06  1.80000000e+00  2.39688140e-06  4.90399911e-07  2.39688140e-06  7.30512856e-01                                 
 2.58868829e-06  7.91865575e-01  2.58868829e-06  7.33217939e-01  2.58868829e-06  7.33761441e-01  2.58868829e-06  1.80000000e+00  2.58868829e-06  2.20978006e-07  2.58868829e-06  7.33217939e-01                                 
 2.82172787e-06  7.90475101e-01  2.82172787e-06  7.31995448e-01  2.82172787e-06  7.31512612e-01  2.82172787e-06  1.80000000e+00  2.82172787e-06  4.04888318e-07  2.82172787e-06  7.31995448e-01                                 
 3.24493180e-06  7.90696147e-01  3.24493180e-06  7.32182901e-01  3.24493180e-06  7.32835928e-01  3.24493180e-06  1.80000000e+00  3.24493180e-06  2.49538426e-07  3.24493180e-06  7.32182901e-01                                 
 3.71217960e-06  7.91235777e-01  3.71217960e-06  7.32669141e-01  3.71217960e-06  7.32302813e-01  3.71217960e-06  1.80000000e+00  3.71217960e-06  4.05125300e-07  3.71217960e-06  7.32669141e-01                                 
 4.42660039e-06  7.90147232e-01  4.42660039e-06  7.31696349e-01  4.42660039e-06  7.32209319e-01  4.42660039e-06  1.80000000e+00  4.42660039e-06  2.40559217e-07  4.42660039e-06  7.31696349e-01                                 
 5.38105566e-06  7.91569448e-01  5.38105566e-06  7.32963826e-01  5.38105566e-06  7.32696433e-01  5.38105566e-06  1.80000000e+00  5.38105566e-06  4.16075563e-07  5.38105566e-06  7.32963826e-01                                 
 6.38105566e-06  7.89887245e-01  6.38105566e-06  7.31465816e-01  6.38105566e-06  7.31892437e-01  6.38105566e-06  1.80000000e+00  6.38105566e-06  2.28724535e-07  6.38105566e-06  7.31465816e-01                                 
 7.38105566e-06  7.91788484e-01  7.38105566e-06  7.33156918e-01  7.38105566e-06  7.32969007e-01  7.38105566e-06  1.80000000e+00  7.38105566e-06  4.29637043e-07  7.38105566e-06  7.33156918e-01                                 
 8.38105566e-06  7.89685012e-01  8.38105566e-06  7.31286538e-01  8.38105566e-06  7.31634479e-01  8.38105566e-06  1.80000000e+00  8.38105566e-06  2.13417226e-07  8.38105566e-06  7.31286538e-01                                 
 9.38105566e-06  7.91954334e-01  9.38105566e-06  7.33302850e-01  9.38105566e-06  7.33186280e-01  9.38105566e-06  1.80000000e+00  9.38105566e-06  4.46475850e-07  9.38105566e-06  7.33302850e-01                                 
 1.00005000e-05  7.89506457e-01  1.00005000e-05  7.31128582e-01  1.00005000e-05  7.31388300e-01  1.00005000e-05  1.80000000e+00  1.00005000e-05  1.89290086e-07  1.00005000e-05  7.31128582e-01                                 
 1.00005500e-05  7.89510620e-01  1.00005500e-05  7.31132853e-01  1.00005500e-05  7.24364099e-01  1.00005500e-05  1.62000000e+00  1.00005500e-05 -1.13403747e-04  1.00005500e-05  7.31132853e-01                                 
 1.00006500e-05  7.89520256e-01  1.00006500e-05  7.31141371e-01  1.00006500e-05  7.14158536e-01  1.00006500e-05  1.26000000e+00  1.00006500e-05 -6.25851772e-05  1.00006500e-05  7.31141371e-01                                 
 1.00008500e-05  7.89538261e-01  1.00008500e-05  7.31156701e-01  1.00008500e-05  7.11495260e-01  1.00008500e-05  5.40000000e-01  1.00008500e-05 -2.00531702e-03  1.00008500e-05  7.31156701e-01                                 
 1.00010000e-05  7.89549738e-01  1.00010000e-05  7.31166859e-01  1.00010000e-05  7.23674232e-01  1.00010000e-05  0.00000000e+00  1.00010000e-05  1.50421117e+00  1.00010000e-05  7.31166859e-01                                 
 1.00010262e-05  7.89551704e-01  1.00010262e-05  7.31168530e-01  1.00010262e-05  7.31658714e-01  1.00010262e-05  0.00000000e+00  1.00010262e-05  1.68964342e+00  1.00010262e-05  7.31168530e-01                                 
 1.00010786e-05  7.89555466e-01  1.00010786e-05  7.31171804e-01  1.00010786e-05  7.49381649e-01  1.00010786e-05  0.00000000e+00  1.00010786e-05  1.82392623e+00  1.00010786e-05  7.31171804e-01                                 
 1.00011833e-05  7.89562521e-01  1.00011833e-05  7.31178034e-01  1.00011833e-05  7.72494550e-01  1.00011833e-05  0.00000000e+00  1.00011833e-05  1.78676366e+00  1.00011833e-05  7.31178034e-01                                 
 1.00013193e-05  7.89571144e-01  1.00013193e-05  7.31185633e-01  1.00013193e-05  7.81639602e-01  1.00013193e-05  0.00000000e+00  1.00013193e-05  1.80770392e+00  1.00013193e-05  7.31185633e-01                                 
 1.00015248e-05  7.89583170e-01  1.00015248e-05  7.31196303e-01  1.00015248e-05  7.87590416e-01  1.00015248e-05  0.00000000e+00  1.00015248e-05  1.79403904e+00  1.00015248e-05  7.31196303e-01                                 
 1.00018079e-05  7.89598317e-01  1.00018079e-05  7.31209787e-01  1.00018079e-05  7.90503708e-01  1.00018079e-05  0.00000000e+00  1.00018079e-05  1.80440935e+00  1.00018079e-05  7.31209787e-01                                 
 1.00023739e-05  7.89625501e-01  1.00023739e-05  7.31234095e-01  1.00023739e-05  7.93101160e-01  1.00023739e-05  0.00000000e+00  1.00023739e-05  1.79596194e+00  1.00023739e-05  7.31234095e-01                                 
