 time            v(vbep)         time            v(vben)         time            v(vout)         time            v(vphi1)        time            v(vphi2)        time            v(vref)         yes             currtemp       
 0.00000000e+00  8.80842951e-01  0.00000000e+00  8.35746704e-01  0.00000000e+00  7.44657847e-01  0.00000000e+00  0.00000000e+00  0.00000000e+00  1.80000000e+00  0.00000000e+00  5.00000000e-01  1.00000000e+00 -4.00000000e+01 
 5.00000000e-12  8.80842977e-01  5.00000000e-12  8.35746716e-01  5.00000000e-12  7.45210780e-01  5.00000000e-12  1.80000000e-02  5.00000000e-12  1.80007757e+00  5.00000000e-12  5.00000000e-01                                 
 1.00000000e-11  8.80842990e-01  1.00000000e-11  8.35746721e-01  1.00000000e-11  7.45685927e-01  1.00000000e-11  3.60000000e-02  1.00000000e-11  1.80010844e+00  1.00000000e-11  5.00000000e-01                                 
 2.00000000e-11  8.80843004e-01  2.00000000e-11  8.35746728e-01  2.00000000e-11  7.46502496e-01  2.00000000e-11  7.20000000e-02  2.00000000e-11  1.80012367e+00  2.00000000e-11  5.00000000e-01                                 
 4.00000000e-11  8.80843000e-01  4.00000000e-11  8.35746733e-01  4.00000000e-11  7.47617392e-01  4.00000000e-11  1.44000000e-01  4.00000000e-11  1.80007058e+00  4.00000000e-11  5.00000000e-01                                 
 8.00000000e-11  8.80842980e-01  8.00000000e-11  8.35746732e-01  8.00000000e-11  7.48892702e-01  8.00000000e-11  2.88000000e-01  8.00000000e-11  1.80000885e+00  8.00000000e-11  5.00000000e-01                                 
 1.60000000e-10  8.80842962e-01  1.60000000e-10  8.35746719e-01  1.60000000e-10  7.50713513e-01  1.60000000e-10  5.76000000e-01  1.60000000e-10  1.79999886e+00  1.60000000e-10  5.00000000e-01                                 
 3.20000000e-10  8.80842818e-01  3.20000000e-10  8.35746616e-01  3.20000000e-10  7.40381873e-01  3.20000000e-10  1.15200000e+00  3.20000000e-10  1.80025669e+00  3.20000000e-10  5.00000000e-01                                 
 5.00000000e-10  8.80843349e-01  5.00000000e-10  8.35746942e-01  5.00000000e-10  8.47512774e-01  5.00000000e-10  1.80000000e+00  5.00000000e-10  8.35586911e-02  5.00000000e-10  5.00000000e-01                                 
 5.20197762e-10  8.80843121e-01  5.20197762e-10  8.35746856e-01  5.20197762e-10  8.66832148e-01  5.20197762e-10  1.80000000e+00  5.20197762e-10  1.39524959e-02  5.20197762e-10  5.00000000e-01                                 
 5.60593286e-10  8.80842716e-01  5.60593286e-10  8.35746659e-01  5.60593286e-10  8.96820451e-01  5.60593286e-10  1.80000000e+00  5.60593286e-10 -6.32085134e-03  5.60593286e-10  5.00000000e-01                                 
 6.41384334e-10  8.80842225e-01  6.41384334e-10  8.35746234e-01  6.41384334e-10  9.28545350e-01  6.41384334e-10  1.80000000e+00  6.41384334e-10  5.85732232e-03  6.41384334e-10  5.00000000e-01                                 
 7.66380192e-10  8.80842068e-01  7.66380192e-10  8.35745954e-01  7.66380192e-10  9.54325157e-01  7.66380192e-10  1.80000000e+00  7.66380192e-10 -5.13070013e-03  7.66380192e-10  5.00000000e-01                                 
 9.51584747e-10  8.80842846e-01  9.51584747e-10  8.35746466e-01  9.51584747e-10  9.76152247e-01  9.51584747e-10  1.80000000e+00  9.51584747e-10  4.96893341e-03  9.51584747e-10  5.00000000e-01                                 
 1.29652393e-09  8.80844873e-01  1.29652393e-09  8.35748213e-01  1.29652393e-09  1.00294089e+00  1.29652393e-09  1.80000000e+00  1.29652393e-09 -4.70393605e-03  1.29652393e-09  5.00000000e-01                                 
 1.68255608e-09  8.80844146e-01  1.68255608e-09  8.35747923e-01  1.68255608e-09  1.02361234e+00  1.68255608e-09  1.80000000e+00  1.68255608e-09  4.66024812e-03  1.68255608e-09  5.00000000e-01                                 
 2.04822704e-09  8.80841349e-01  2.04822704e-09  8.35745541e-01  2.04822704e-09  1.03862671e+00  2.04822704e-09  1.80000000e+00  2.04822704e-09 -4.46248635e-03  2.04822704e-09  5.00000000e-01                                 
 2.43163020e-09  8.80838702e-01  2.43163020e-09  8.35743155e-01  2.43163020e-09  1.05195245e+00  2.43163020e-09  1.80000000e+00  2.43163020e-09  4.37887027e-03  2.43163020e-09  5.00000000e-01                                 
 3.06617501e-09  8.80839036e-01  3.06617501e-09  8.35743082e-01  3.06617501e-09  1.07069082e+00  3.06617501e-09  1.80000000e+00  3.06617501e-09 -4.27141506e-03  3.06617501e-09  5.00000000e-01                                 
 4.18744975e-09  8.80855009e-01  4.18744975e-09  8.35756751e-01  4.18744975e-09  1.09526636e+00  4.18744975e-09  1.80000000e+00  4.18744975e-09  4.25422674e-03  4.18744975e-09  5.00000000e-01                                 
 5.96874463e-09  8.80904256e-01  5.96874463e-09  8.35800712e-01  5.96874463e-09  1.11710144e+00  5.96874463e-09  1.80000000e+00  5.96874463e-09 -4.20788971e-03  5.96874463e-09  5.00000000e-01                                 
 8.75790133e-09  8.80980821e-01  8.75790133e-09  8.35870785e-01  8.75790133e-09  1.12493641e+00  8.75790133e-09  1.80000000e+00  8.75790133e-09  4.20972771e-03  8.75790133e-09  5.00000000e-01                                 
 1.19886838e-08  8.81023584e-01  1.19886838e-08  8.35910834e-01  1.19886838e-08  1.11587494e+00  1.19886838e-08  1.80000000e+00  1.19886838e-08 -4.17754141e-03  1.19886838e-08  5.00000000e-01                                 
 1.59723159e-08  8.81018418e-01  1.59723159e-08  8.35906914e-01  1.59723159e-08  1.09660360e+00  1.59723159e-08  1.80000000e+00  1.59723159e-08  4.18371618e-03  1.59723159e-08  5.00000000e-01                                 
 2.17415804e-08  8.80978841e-01  2.17415804e-08  8.35870934e-01  2.17415804e-08  1.06389145e+00  2.17415804e-08  1.80000000e+00  2.17415804e-08 -4.15804775e-03  2.17415804e-08  5.00000000e-01                                 
 3.30103767e-08  8.80908529e-01  3.30103767e-08  8.35806780e-01  3.30103767e-08  9.92877927e-01  3.30103767e-08  1.80000000e+00  3.30103767e-08  4.17167737e-03  3.30103767e-08  5.00000000e-01                                 
 4.77808276e-08  8.80842882e-01  4.77808276e-08  8.35746854e-01  4.77808276e-08  9.10651542e-01  4.77808276e-08  1.80000000e+00  4.77808276e-08 -4.15095310e-03  4.77808276e-08  5.00000000e-01                                 
 6.48401146e-08  8.80812053e-01  6.48401146e-08  8.35718564e-01  6.48401146e-08  8.36457119e-01  6.48401146e-08  1.80000000e+00  6.48401146e-08  4.16592480e-03  6.48401146e-08  5.00000000e-01                                 
 8.42966499e-08  8.80797425e-01  8.42966499e-08  8.35705287e-01  8.42966499e-08  7.53805062e-01  8.42966499e-08  1.80000000e+00  8.42966499e-08 -4.14595725e-03  8.42966499e-08  5.00000000e-01                                 
 1.02285608e-07  8.80799191e-01  1.02285608e-07  8.35706753e-01  1.02285608e-07  7.02346995e-01  1.02285608e-07  1.80000000e+00  1.02285608e-07  4.16100637e-03  1.02285608e-07  5.00000000e-01                                 
 1.35775718e-07  8.80856932e-01  1.35775718e-07  8.35759311e-01  1.35775718e-07  6.53261973e-01  1.35775718e-07  1.80000000e+00  1.35775718e-07 -4.14210788e-03  1.35775718e-07  5.00000000e-01                                 
 1.84349303e-07  8.80845417e-01  1.84349303e-07  8.35749107e-01  1.84349303e-07  5.97988203e-01  1.84349303e-07  1.80000000e+00  1.84349303e-07  4.15864029e-03  1.84349303e-07  5.00000000e-01                                 
 2.30123775e-07  8.80830296e-01  2.30123775e-07  8.35735062e-01  2.30123775e-07  5.56099843e-01  2.30123775e-07  1.80000000e+00  2.30123775e-07 -4.14012875e-03  2.30123775e-07  5.00000000e-01                                 
 3.21672720e-07  8.80843917e-01  3.21672720e-07  8.35747675e-01  3.21672720e-07  5.13819596e-01  3.21672720e-07  1.80000000e+00  3.21672720e-07  4.15712040e-03  3.21672720e-07  5.00000000e-01                                 
 5.04770610e-07  8.80834495e-01  5.04770610e-07  8.35738915e-01  5.04770610e-07  4.98520257e-01  5.04770610e-07  1.80000000e+00  5.04770610e-07 -4.13941087e-03  5.04770610e-07  5.00000000e-01                                 
 5.28895758e-07  8.80840071e-01  5.28895758e-07  8.35744064e-01  5.28895758e-07  4.98717039e-01  5.28895758e-07  1.80000000e+00  5.28895758e-07 -4.50955819e-07  5.28895758e-07  5.00000000e-01                                 
 5.77146052e-07  8.80842387e-01  5.77146052e-07  8.35746199e-01  5.77146052e-07  4.99896096e-01  5.77146052e-07  1.80000000e+00  5.77146052e-07  4.61217246e-07  5.77146052e-07  5.00000000e-01                                 
 6.73646641e-07  8.80841397e-01  6.73646641e-07  8.35745281e-01  6.73646641e-07  5.01839713e-01  6.73646641e-07  1.80000000e+00  6.73646641e-07 -4.50760164e-07  6.73646641e-07  5.00000000e-01                                 
 8.66647818e-07  8.80843348e-01  8.66647818e-07  8.35747072e-01  8.66647818e-07  5.05053983e-01  8.66647818e-07  1.80000000e+00  8.66647818e-07  4.58967218e-07  8.66647818e-07  5.00000000e-01                                 
 1.12538265e-06  8.80842363e-01  1.12538265e-06  8.35746163e-01  1.12538265e-06  5.07446289e-01  1.12538265e-06  1.80000000e+00  1.12538265e-06 -4.50753128e-07  1.12538265e-06  5.00000000e-01                                 
 1.60113478e-06  8.80843482e-01  1.60113478e-06  8.35747194e-01  1.60113478e-06  5.07112107e-01  1.60113478e-06  1.80000000e+00  1.60113478e-06  4.58966745e-07  1.60113478e-06  5.00000000e-01                                 
 2.55263905e-06  8.80842419e-01  2.55263905e-06  8.35746214e-01  2.55263905e-06  5.06091098e-01  2.55263905e-06  1.80000000e+00  2.55263905e-06 -4.50717644e-07  2.55263905e-06  5.00000000e-01                                 
 3.45834191e-06  8.80843446e-01  3.45834191e-06  8.35747160e-01  3.45834191e-06  5.06082928e-01  3.45834191e-06  1.80000000e+00  3.45834191e-06  4.58945560e-07  3.45834191e-06  5.00000000e-01                                 
 4.45834191e-06  8.80842453e-01  4.45834191e-06  8.35746245e-01  4.45834191e-06  5.05564807e-01  4.45834191e-06  1.80000000e+00  4.45834191e-06 -4.50699805e-07  4.45834191e-06  5.00000000e-01                                 
 5.45834191e-06  8.80843418e-01  5.45834191e-06  8.35747134e-01  5.45834191e-06  5.05434027e-01  5.45834191e-06  1.80000000e+00  5.45834191e-06  4.58930233e-07  5.45834191e-06  5.00000000e-01                                 
 6.45834191e-06  8.80842505e-01  6.45834191e-06  8.35746293e-01  6.45834191e-06  5.05219570e-01  6.45834191e-06  1.80000000e+00  6.45834191e-06 -4.50685278e-07  6.45834191e-06  5.00000000e-01                                 
 7.45834191e-06  8.80843383e-01  7.45834191e-06  8.35747102e-01  7.45834191e-06  5.05060863e-01  7.45834191e-06  1.80000000e+00  7.45834191e-06  4.58915172e-07  7.45834191e-06  5.00000000e-01                                 
 8.45834191e-06  8.80842535e-01  8.45834191e-06  8.35746321e-01  8.45834191e-06  5.04933781e-01  8.45834191e-06  1.80000000e+00  8.45834191e-06 -4.50675961e-07  8.45834191e-06  5.00000000e-01                                 
 9.45834191e-06  8.80843359e-01  9.45834191e-06  8.35747080e-01  9.45834191e-06  5.04799276e-01  9.45834191e-06  1.80000000e+00  9.45834191e-06  4.58900783e-07  9.45834191e-06  5.00000000e-01                                 
 1.00005000e-05  8.80842574e-01  1.00005000e-05  8.35746357e-01  1.00005000e-05  5.04754056e-01  1.00005000e-05  1.80000000e+00  1.00005000e-05 -4.50652905e-07  1.00005000e-05  5.00000000e-01                                 
 1.00005500e-05  8.80842560e-01  1.00005500e-05  8.35746349e-01  1.00005500e-05  4.96928995e-01  1.00005500e-05  1.62000000e+00  1.00005500e-05 -6.27136828e-05  1.00005500e-05  5.00000000e-01                                 
 1.00006500e-05  8.80842563e-01  1.00006500e-05  8.35746349e-01  1.00006500e-05  4.83740873e-01  1.00006500e-05  1.26000000e+00  1.00006500e-05 -3.74206781e-05  1.00006500e-05  5.00000000e-01                                 
 1.00008500e-05  8.80842623e-01  1.00008500e-05  8.35746392e-01  1.00008500e-05  4.83522203e-01  1.00008500e-05  5.40000000e-01  1.00008500e-05  1.42125564e-04  1.00008500e-05  5.00000000e-01                                 
 1.00010000e-05  8.80842555e-01  1.00010000e-05  8.35746360e-01  1.00010000e-05  4.53349416e-01  1.00010000e-05  0.00000000e+00  1.00010000e-05  1.53937926e+00  1.00010000e-05  5.00000000e-01                                 
 1.00010130e-05  8.80842492e-01  1.00010130e-05  8.35746327e-01  1.00010130e-05  4.38036739e-01  1.00010130e-05  0.00000000e+00  1.00010130e-05  1.66453211e+00  1.00010130e-05  5.00000000e-01                                 
 1.00010390e-05  8.80842361e-01  1.00010390e-05  8.35746253e-01  1.00010390e-05  3.97437116e-01  1.00010390e-05  0.00000000e+00  1.00010390e-05  1.79263258e+00  1.00010390e-05  5.00000000e-01                                 
 1.00010909e-05  8.80842319e-01  1.00010909e-05  8.35746180e-01  1.00010909e-05  3.20342988e-01  1.00010909e-05  0.00000000e+00  1.00010909e-05  1.79837870e+00  1.00010909e-05  5.00000000e-01                                 
 1.00011496e-05  8.80842495e-01  1.00011496e-05  8.35746241e-01  1.00011496e-05  2.84146727e-01  1.00011496e-05  0.00000000e+00  1.00011496e-05  1.79634247e+00  1.00011496e-05  5.00000000e-01                                 
 1.00012292e-05  8.80842687e-01  1.00012292e-05  8.35746397e-01  1.00012292e-05  2.75453772e-01  1.00012292e-05  0.00000000e+00  1.00012292e-05  1.80130135e+00  1.00012292e-05  5.00000000e-01                                 
 1.00013715e-05  8.80842933e-01  1.00013715e-05  8.35746630e-01  1.00013715e-05  2.74052955e-01  1.00013715e-05  0.00000000e+00  1.00013715e-05  1.79858960e+00  1.00013715e-05  5.00000000e-01                                 
 1.00015021e-05  8.80843009e-01  1.00015021e-05  8.35746726e-01  1.00015021e-05  2.73275807e-01  1.00015021e-05  0.00000000e+00  1.00015021e-05  1.80127442e+00  1.00015021e-05  5.00000000e-01                                 
 1.00017201e-05  8.80842937e-01  1.00017201e-05  8.35746694e-01  1.00017201e-05  2.72062391e-01  1.00017201e-05  0.00000000e+00  1.00017201e-05  1.79882857e+00  1.00017201e-05  5.00000000e-01                                 
 1.00020681e-05  8.80842533e-01  1.00020681e-05  8.35746368e-01  1.00020681e-05  2.71142849e-01  1.00020681e-05  0.00000000e+00  1.00020681e-05  1.80112454e+00  1.00020681e-05  5.00000000e-01                                 
 1.00027643e-05  8.80841895e-01  1.00027643e-05  8.35745782e-01  1.00027643e-05  2.70160138e-01  1.00027643e-05  0.00000000e+00  1.00027643e-05  1.79890660e+00  1.00027643e-05  5.00000000e-01                                 
 1.00041566e-05  8.80843933e-01  1.00041566e-05  8.35747475e-01  1.00041566e-05  2.69998452e-01  1.00041566e-05  0.00000000e+00  1.00041566e-05  1.80108460e+00  1.00041566e-05  5.00000000e-01                                 
 1.00069411e-05  8.80856633e-01  1.00069411e-05  8.35758830e-01  1.00069411e-05  2.70408027e-01  1.00069411e-05  0.00000000e+00  1.00069411e-05  1.79892549e+00  1.00069411e-05  5.00000000e-01                                 
 1.00125102e-05  8.80875327e-01  1.00125102e-05  8.35776104e-01  1.00125102e-05  2.71472612e-01  1.00125102e-05  0.00000000e+00  1.00125102e-05  1.80107504e+00  1.00125102e-05  5.00000000e-01                                 
 1.00236485e-05  8.80866722e-01  1.00236485e-05  8.35768531e-01  1.00236485e-05  2.73435729e-01  1.00236485e-05  0.00000000e+00  1.00236485e-05  1.79893024e+00  1.00236485e-05  5.00000000e-01                                 
 1.00414093e-05  8.80842717e-01  1.00414093e-05  8.35746495e-01  1.00414093e-05  2.83905720e-01  1.00414093e-05  0.00000000e+00  1.00414093e-05  1.80107248e+00  1.00414093e-05  5.00000000e-01                                 
 1.00662695e-05  8.80832813e-01  1.00662695e-05  8.35737507e-01  1.00662695e-05  3.11754914e-01  1.00662695e-05  0.00000000e+00  1.00662695e-05  1.79893190e+00  1.00662695e-05  5.00000000e-01                                 
 1.00907516e-05  8.80837849e-01  1.00907516e-05  8.35741994e-01  1.00907516e-05  3.93249416e-01  1.00907516e-05  0.00000000e+00  1.00907516e-05  1.80107109e+00  1.00907516e-05  5.00000000e-01                                 
 1.01258640e-05  8.80844136e-01  1.01258640e-05  8.35747821e-01  1.01258640e-05  4.82093443e-01  1.01258640e-05  0.00000000e+00  1.01258640e-05  1.79893307e+00  1.01258640e-05  5.00000000e-01                                 
 1.01610028e-05  8.80839944e-01  1.01610028e-05  8.35743943e-01  1.01610028e-05  4.81116597e-01  1.01610028e-05  0.00000000e+00  1.01610028e-05  1.80107011e+00  1.01610028e-05  5.00000000e-01                                 
 1.02018489e-05  8.80843582e-01  1.02018489e-05  8.35747289e-01  1.02018489e-05  4.80981814e-01  1.02018489e-05  0.00000000e+00  1.02018489e-05  1.79893398e+00  1.02018489e-05  5.00000000e-01                                 
 1.02477556e-05  8.80840891e-01  1.02477556e-05  8.35744825e-01  1.02477556e-05  4.84185247e-01  1.02477556e-05  0.00000000e+00  1.02477556e-05  1.80106931e+00  1.02477556e-05  5.00000000e-01                                 
 1.03395689e-05  8.80843404e-01  1.03395689e-05  8.35747116e-01  1.03395689e-05  5.05475378e-01  1.03395689e-05  0.00000000e+00  1.03395689e-05  1.79893455e+00  1.03395689e-05  5.00000000e-01                                 
 1.04905491e-05  8.80841799e-01  1.04905491e-05  8.35745656e-01  1.04905491e-05  5.45079301e-01  1.04905491e-05  0.00000000e+00  1.04905491e-05  1.80106900e+00  1.04905491e-05  5.00000000e-01                                 
 1.05243501e-05  8.80842706e-01  1.05243501e-05  8.35746480e-01  1.05243501e-05  5.49516286e-01  1.05243501e-05  0.00000000e+00  1.05243501e-05  1.80000011e+00  1.05243501e-05  5.00000000e-01                                 
 1.05919521e-05  8.80842968e-01  1.05919521e-05  8.35746721e-01  1.05919521e-05  5.57578135e-01  1.05919521e-05  0.00000000e+00  1.05919521e-05  1.79999988e+00  1.05919521e-05  5.00000000e-01                                 
 1.07271561e-05  8.80842845e-01  1.07271561e-05  8.35746606e-01  1.07271561e-05  5.69053677e-01  1.07271561e-05  0.00000000e+00  1.07271561e-05  1.80000011e+00  1.07271561e-05  5.00000000e-01                                 
 1.09975641e-05  8.80843047e-01  1.09975641e-05  8.35746793e-01  1.09975641e-05  5.72106201e-01  1.09975641e-05  0.00000000e+00  1.09975641e-05  1.79999988e+00  1.09975641e-05  5.00000000e-01                                 
 1.13797783e-05  8.80842868e-01  1.13797783e-05  8.35746628e-01  1.13797783e-05  5.65995788e-01  1.13797783e-05  0.00000000e+00  1.13797783e-05  1.80000011e+00  1.13797783e-05  5.00000000e-01                                 
 1.18516273e-05  8.80843007e-01  1.18516273e-05  8.35746755e-01  1.18516273e-05  5.68283876e-01  1.18516273e-05  0.00000000e+00  1.18516273e-05  1.79999988e+00  1.18516273e-05  5.00000000e-01                                 
 1.25391164e-05  8.80842881e-01  1.25391164e-05  8.35746640e-01  1.25391164e-05  5.65826382e-01  1.25391164e-05  0.00000000e+00  1.25391164e-05  1.80000011e+00  1.25391164e-05  5.00000000e-01                                 
 1.35391164e-05  8.80842997e-01  1.35391164e-05  8.35746747e-01  1.35391164e-05  5.64707985e-01  1.35391164e-05  0.00000000e+00  1.35391164e-05  1.79999988e+00  1.35391164e-05  5.00000000e-01                                 
 1.45391164e-05  8.80842899e-01  1.45391164e-05  8.35746656e-01  1.45391164e-05  5.63999622e-01  1.45391164e-05  0.00000000e+00  1.45391164e-05  1.80000011e+00  1.45391164e-05  5.00000000e-01                                 
 1.55391164e-05  8.80843001e-01  1.55391164e-05  8.35746751e-01  1.55391164e-05  5.63020889e-01  1.55391164e-05  0.00000000e+00  1.55391164e-05  1.79999988e+00  1.55391164e-05  5.00000000e-01                                 
