 time            v(vbep)         time            v(vben)         time            v(vout)         time            v(vphi1)        time            v(vphi2)        time            v(vref)         yes             currtemp       
 0.00000000e+00  5.61803967e-01  0.00000000e+00  4.97089306e-01  0.00000000e+00  1.66853302e-01  0.00000000e+00  0.00000000e+00  0.00000000e+00  1.79997772e+00  0.00000000e+00  5.00000000e-01  1.00000000e+00  8.20000000e+01 
 5.00000000e-12  5.61787380e-01  5.00000000e-12  4.97075521e-01  5.00000000e-12  1.67442647e-01  5.00000000e-12  1.80000000e-02  5.00000000e-12  1.80007141e+00  5.00000000e-12  5.00000000e-01                                 
 1.00000000e-11  5.61770992e-01  1.00000000e-11  4.97062013e-01  1.00000000e-11  1.67971839e-01  1.00000000e-11  3.60000000e-02  1.00000000e-11  1.80011776e+00  1.00000000e-11  5.00000000e-01                                 
 2.00000000e-11  5.61738318e-01  2.00000000e-11  4.97035067e-01  2.00000000e-11  1.68938611e-01  2.00000000e-11  7.20000000e-02  2.00000000e-11  1.80015843e+00  2.00000000e-11  5.00000000e-01                                 
 4.00000000e-11  5.61673150e-01  4.00000000e-11  4.96981303e-01  4.00000000e-11  1.70457097e-01  4.00000000e-11  1.44000000e-01  4.00000000e-11  1.80012839e+00  4.00000000e-11  5.00000000e-01                                 
 8.00000000e-11  5.61543172e-01  8.00000000e-11  4.96874031e-01  8.00000000e-11  1.72507853e-01  8.00000000e-11  2.88000000e-01  8.00000000e-11  1.80007574e+00  8.00000000e-11  5.00000000e-01                                 
 1.60000000e-10  5.61284696e-01  1.60000000e-10  4.96660496e-01  1.60000000e-10  1.74981962e-01  1.60000000e-10  5.76000000e-01  1.60000000e-10  1.80003179e+00  1.60000000e-10  5.00000000e-01                                 
 3.20000000e-10  5.60773445e-01  3.20000000e-10  4.96237369e-01  3.20000000e-10  1.96461532e-01  3.20000000e-10  1.15200000e+00  3.20000000e-10  1.80026458e+00  3.20000000e-10  5.00000000e-01                                 
 5.00000000e-10  5.60207156e-01  5.00000000e-10  4.95767482e-01  5.00000000e-10  4.78159452e-01  5.00000000e-10  1.80000000e+00  5.00000000e-10  1.37884313e-01  5.00000000e-10  5.00000000e-01                                 
 5.22683551e-10  5.60136526e-01  5.22683551e-10  4.95708778e-01  5.22683551e-10  5.39041196e-01  5.22683551e-10  1.80000000e+00  5.22683551e-10  2.92505922e-02  5.22683551e-10  5.00000000e-01                                 
 5.68050652e-10  5.59995557e-01  5.68050652e-10  4.95591571e-01  5.68050652e-10  6.51984693e-01  5.68050652e-10  1.80000000e+00  5.68050652e-10 -1.33288196e-02  5.68050652e-10  5.00000000e-01                                 
 6.58784856e-10  5.59715370e-01  6.58784856e-10  4.95358381e-01  6.58784856e-10  8.32369204e-01  6.58784856e-10  1.80000000e+00  6.58784856e-10  1.08256618e-02  6.58784856e-10  5.00000000e-01                                 
 7.81778577e-10  5.59339198e-01  7.81778577e-10  4.95044826e-01  7.81778577e-10  1.01620523e+00  7.81778577e-10  1.80000000e+00  7.81778577e-10 -9.15069401e-03  7.81778577e-10  5.00000000e-01                                 
 9.79377497e-10  5.58743306e-01  9.79377497e-10  4.94547011e-01  9.79377497e-10  1.24428033e+00  9.79377497e-10  1.80000000e+00  9.79377497e-10  8.50221486e-03  9.79377497e-10  5.00000000e-01                                 
 1.29618531e-09  5.57808823e-01  1.29618531e-09  4.93763621e-01  1.29618531e-09  1.50590890e+00  1.29618531e-09  1.80000000e+00  1.29618531e-09 -7.89678496e-03  1.29618531e-09  5.00000000e-01                                 
 1.89826179e-09  5.56099255e-01  1.89826179e-09  4.92322116e-01  1.89826179e-09  1.73813793e+00  1.89826179e-09  1.80000000e+00  1.89826179e-09  7.79352534e-03  1.89826179e-09  5.00000000e-01                                 
 2.17861394e-09  5.55331533e-01  2.17861394e-09  4.91671206e-01  2.17861394e-09  1.77020978e+00  2.17861394e-09  1.80000000e+00  2.17861394e-09 -7.21200291e-03  2.17861394e-09  5.00000000e-01                                 
 2.50992647e-09  5.54445767e-01  2.50992647e-09  4.90917577e-01  2.50992647e-09  1.78658948e+00  2.50992647e-09  1.80000000e+00  2.50992647e-09  6.92558946e-03  2.50992647e-09  5.00000000e-01                                 
 2.88484216e-09  5.53470157e-01  2.88484216e-09  4.90084286e-01  2.88484216e-09  1.79377131e+00  2.88484216e-09  1.80000000e+00  2.88484216e-09 -6.53364740e-03  2.88484216e-09  5.00000000e-01                                 
 3.58139417e-09  5.51727401e-01  3.58139417e-09  4.88587649e-01  3.58139417e-09  1.79638202e+00  3.58139417e-09  1.80000000e+00  3.58139417e-09  6.44077552e-03  3.58139417e-09  5.00000000e-01                                 
 4.34334713e-09  5.49917051e-01  4.34334713e-09  4.87022102e-01  4.34334713e-09  1.79505647e+00  4.34334713e-09  1.80000000e+00  4.34334713e-09 -6.23272090e-03  4.34334713e-09  5.00000000e-01                                 
 5.80585436e-09  5.46684234e-01  5.80585436e-09  4.84200882e-01  5.80585436e-09  1.79169331e+00  5.80585436e-09  1.80000000e+00  5.80585436e-09  6.22301206e-03  5.80585436e-09  5.00000000e-01                                 
 8.06556282e-09  5.42208025e-01  8.06556282e-09  4.80243962e-01  8.06556282e-09  1.78653955e+00  8.06556282e-09  1.80000000e+00  8.06556282e-09 -6.11035338e-03  8.06556282e-09  5.00000000e-01                                 
 9.58502466e-09  5.39496781e-01  9.58502466e-09  4.77819297e-01  9.58502466e-09  1.78319335e+00  9.58502466e-09  1.80000000e+00  9.58502466e-09  6.09816201e-03  9.58502466e-09  5.00000000e-01                                 
 1.13861899e-08  5.36534324e-01  1.13861899e-08  4.75148562e-01  1.13861899e-08  1.77944285e+00  1.13861899e-08  1.80000000e+00  1.13861899e-08 -5.98746827e-03  1.13861899e-08  5.00000000e-01                                 
 1.33893399e-08  5.33513780e-01  1.33893399e-08  4.72403624e-01  1.33893399e-08  1.77544445e+00  1.33893399e-08  1.80000000e+00  1.33893399e-08  5.98404329e-03  1.33893399e-08  5.00000000e-01                                 
 1.54068190e-08  5.30722331e-01  1.54068190e-08  4.69848037e-01  1.54068190e-08  1.77147753e+00  1.54068190e-08  1.80000000e+00  1.54068190e-08 -5.88637583e-03  1.54068190e-08  5.00000000e-01                                 
 1.77636394e-08  5.27734495e-01  1.77636394e-08  4.67093267e-01  1.77636394e-08  1.76698673e+00  1.77636394e-08  1.80000000e+00  1.77636394e-08  5.88828437e-03  1.77636394e-08  5.00000000e-01                                 
 2.07570950e-08  5.24302107e-01  2.07570950e-08  4.63904083e-01  2.07570950e-08  1.76136065e+00  2.07570950e-08  1.80000000e+00  2.07570950e-08 -5.80958401e-03  2.07570950e-08  5.00000000e-01                                 
 2.54231886e-08  5.19612753e-01  2.54231886e-08  4.59504673e-01  2.54231886e-08  1.75306612e+00  2.54231886e-08  1.80000000e+00  2.54231886e-08  5.83244194e-03  2.54231886e-08  5.00000000e-01                                 
 3.25689547e-08  5.13610198e-01  3.25689547e-08  4.53803238e-01  3.25689547e-08  1.74110533e+00  3.25689547e-08  1.80000000e+00  3.25689547e-08 -5.77383279e-03  3.25689547e-08  5.00000000e-01                                 
 4.68604870e-08  5.04241329e-01  4.68604870e-08  4.44779713e-01  4.68604870e-08  1.71882606e+00  4.68604870e-08  1.80000000e+00  4.68604870e-08  5.81147609e-03  4.68604870e-08  5.00000000e-01                                 
 7.54435516e-08  4.90986067e-01  7.54435516e-08  4.31839786e-01  7.54435516e-08  1.67812653e+00  7.54435516e-08  1.80000000e+00  7.54435516e-08 -5.76316556e-03  7.54435516e-08  5.00000000e-01                                 
 1.19522690e-07  4.74851393e-01  1.19522690e-07  4.16433092e-01  1.19522690e-07  1.61873684e+00  1.19522690e-07  1.80000000e+00  1.19522690e-07  5.80583116e-03  1.19522690e-07  5.00000000e-01                                 
 1.65053514e-07  4.59249028e-01  1.65053514e-07  4.02150433e-01  1.65053514e-07  1.55743733e+00  1.65053514e-07  1.80000000e+00  1.65053514e-07 -5.75869982e-03  1.65053514e-07  5.00000000e-01                                 
 2.34314472e-07  4.38704551e-01  2.34314472e-07  3.83757061e-01  2.34314472e-07  1.46567850e+00  2.34314472e-07  1.80000000e+00  2.34314472e-07  5.80226153e-03  2.34314472e-07  5.00000000e-01                                 
 3.08747131e-07  4.17602215e-01  3.08747131e-07  3.65455092e-01  3.08747131e-07  1.36662285e+00  3.08747131e-07  1.80000000e+00  3.08747131e-07 -5.75590499e-03  3.08747131e-07  5.00000000e-01                                 
 4.34022558e-07  3.77635376e-01  4.34022558e-07  3.32080951e-01  4.34022558e-07  1.19561976e+00  4.34022558e-07  1.80000000e+00  4.34022558e-07  5.80010782e-03  4.34022558e-07  5.00000000e-01                                 
 4.65341414e-07  3.66003248e-01  4.65341414e-07  3.22603670e-01  4.65341414e-07  1.15194459e+00  4.65341414e-07  1.80000000e+00  4.65341414e-07  9.56046383e-06  4.65341414e-07  5.00000000e-01                                 
 5.27979128e-07  3.44250712e-01  5.27979128e-07  3.04923496e-01  5.27979128e-07  1.06922890e+00  5.27979128e-07  1.80000000e+00  5.27979128e-07  7.96434606e-06  5.27979128e-07  5.00000000e-01                                 
 5.91255286e-07  3.76099421e-01  5.91255286e-07  3.30276236e-01  5.91255286e-07  1.04170087e+00  5.91255286e-07  1.80000000e+00  5.91255286e-07  1.04392293e-05  5.91255286e-07  5.00000000e-01                                 
 6.02618405e-07  4.02269238e-01  6.02618405e-07  3.51162859e-01  6.02618405e-07  1.05593271e+00  6.02618405e-07  1.80000000e+00  6.02618405e-07  1.01535806e-05  6.02618405e-07  5.00000000e-01                                 
 6.25344642e-07  4.99201005e-01  6.25344642e-07  4.29210930e-01  6.25344642e-07  1.12580435e+00  6.25344642e-07  1.80000000e+00  6.25344642e-07  1.24645968e-05  6.25344642e-07  5.00000000e-01                                 
 6.53777325e-07  6.25854309e-01  6.53777325e-07  5.56523203e-01  6.53777325e-07  1.21854113e+00  6.53777325e-07  1.80000000e+00  6.53777325e-07  1.17976275e-05  6.53777325e-07  5.00000000e-01                                 
 6.73314959e-07  6.59381930e-01  6.73314959e-07  5.92151245e-01  6.73314959e-07  1.23049271e+00  6.73314959e-07  1.80000000e+00  6.73314959e-07  9.16165518e-06  6.73314959e-07  5.00000000e-01                                 
 6.93245828e-07  6.80708606e-01  6.93245828e-07  6.11256516e-01  6.93245828e-07  1.22939398e+00  6.93245828e-07  1.80000000e+00  6.93245828e-07  1.03803245e-05  6.93245828e-07  5.00000000e-01                                 
 7.18624662e-07  6.97587643e-01  7.18624662e-07  6.26599265e-01  7.18624662e-07  1.21890201e+00  7.18624662e-07  1.80000000e+00  7.18624662e-07  8.67898820e-06  7.18624662e-07  5.00000000e-01                                 
 7.46208949e-07  7.08126126e-01  7.46208949e-07  6.35390740e-01  7.46208949e-07  1.19942705e+00  7.46208949e-07  1.80000000e+00  7.46208949e-07  9.81339784e-06  7.46208949e-07  5.00000000e-01                                 
 8.01377522e-07  7.16961583e-01  8.01377522e-07  6.42858894e-01  8.01377522e-07  1.15033041e+00  8.01377522e-07  1.80000000e+00  8.01377522e-07  8.36010350e-06  8.01377522e-07  5.00000000e-01                                 
 8.61068527e-07  7.17593527e-01  8.61068527e-07  6.43251731e-01  8.61068527e-07  1.09060060e+00  8.61068527e-07  1.80000000e+00  8.61068527e-07  9.53807369e-06  8.61068527e-07  5.00000000e-01                                 
 8.73051039e-07  7.15465182e-01  8.73051039e-07  6.41579190e-01  8.73051039e-07  1.07736076e+00  8.73051039e-07  1.80000000e+00  8.73051039e-07  8.81844695e-06  8.73051039e-07  5.00000000e-01                                 
 8.97016062e-07  7.05302839e-01  8.97016062e-07  6.33147404e-01  8.97016062e-07  1.04595132e+00  8.97016062e-07  1.80000000e+00  8.97016062e-07  8.40269745e-06  8.97016062e-07  5.00000000e-01                                 
 9.39587897e-07  6.89521960e-01  9.39587897e-07  6.19428654e-01  9.39587897e-07  9.96159863e-01  9.39587897e-07  1.80000000e+00  9.39587897e-07  8.86543589e-06  9.39587897e-07  5.00000000e-01                                 
 9.83873432e-07  6.98711491e-01  9.83873432e-07  6.27456628e-01  9.83873432e-07  9.71634296e-01  9.83873432e-07  1.80000000e+00  9.83873432e-07  9.34648961e-06  9.83873432e-07  5.00000000e-01                                 
 1.04928714e-06  7.09658087e-01  1.04928714e-06  6.36767510e-01  1.04928714e-06  9.36284723e-01  1.04928714e-06  1.80000000e+00  1.04928714e-06  8.83331310e-06  1.04928714e-06  5.00000000e-01                                 
 1.11454669e-06  7.00311302e-01  1.11454669e-06  6.28868368e-01  1.11454669e-06  8.86115799e-01  1.11454669e-06  1.80000000e+00  1.11454669e-06  8.82069088e-06  1.11454669e-06  5.00000000e-01                                 
 1.19934088e-06  6.98933961e-01  1.19934088e-06  6.27648966e-01  1.19934088e-06  8.33047916e-01  1.19934088e-06  1.80000000e+00  1.19934088e-06  9.03755642e-06  1.19934088e-06  5.00000000e-01                                 
 1.28931603e-06  7.06585842e-01  1.28931603e-06  6.34198523e-01  1.28931603e-06  7.86347058e-01  1.28931603e-06  1.80000000e+00  1.28931603e-06  8.99237424e-06  1.28931603e-06  5.00000000e-01                                 
 1.44064094e-06  6.99164682e-01  1.44064094e-06  6.27862490e-01  1.44064094e-06  6.93798449e-01  1.44064094e-06  1.80000000e+00  1.44064094e-06  8.81790956e-06  1.44064094e-06  5.00000000e-01                                 
 1.58229947e-06  7.03161645e-01  1.58229947e-06  6.31288647e-01  1.58229947e-06  6.21641635e-01  1.58229947e-06  1.80000000e+00  1.58229947e-06  9.11410857e-06  1.58229947e-06  5.00000000e-01                                 
 1.76926783e-06  7.03022222e-01  1.76926783e-06  6.31172599e-01  1.76926783e-06  5.39777161e-01  1.76926783e-06  1.80000000e+00  1.76926783e-06  8.77799254e-06  1.76926783e-06  5.00000000e-01                                 
 2.04817444e-06  7.00829330e-01  2.04817444e-06  6.29294978e-01  2.04817444e-06  4.87111265e-01  2.04817444e-06  1.80000000e+00  2.04817444e-06  9.09814148e-06  2.04817444e-06  5.00000000e-01                                 
 2.09234729e-06  7.02762662e-01  2.09234729e-06  6.30947646e-01  2.09234729e-06  4.90957218e-01  2.09234729e-06  1.80000000e+00  2.09234729e-06  8.98373966e-06  2.09234729e-06  5.00000000e-01                                 
 2.18069298e-06  7.02948465e-01  2.18069298e-06  6.31110242e-01  2.18069298e-06  4.97596396e-01  2.18069298e-06  1.80000000e+00  2.18069298e-06  8.91108192e-06  2.18069298e-06  5.00000000e-01                                 
 2.35738436e-06  7.01469397e-01  2.35738436e-06  6.29843310e-01  2.35738436e-06  5.01364457e-01  2.35738436e-06  1.80000000e+00  2.35738436e-06  8.96166349e-06  2.35738436e-06  5.00000000e-01                                 
 2.55817715e-06  7.03182218e-01  2.55817715e-06  6.31307751e-01  2.55817715e-06  5.00088695e-01  2.55817715e-06  1.80000000e+00  2.55817715e-06  8.94171682e-06  2.55817715e-06  5.00000000e-01                                 
 2.84729100e-06  7.01566893e-01  2.84729100e-06  6.29928247e-01  2.84729100e-06  4.99969257e-01  2.84729100e-06  1.80000000e+00  2.84729100e-06  8.93761869e-06  2.84729100e-06  5.00000000e-01                                 
 3.30579358e-06  7.02991865e-01  3.30579358e-06  6.31144772e-01  3.30579358e-06  5.00655516e-01  3.30579358e-06  1.80000000e+00  3.30579358e-06  8.95607110e-06  3.30579358e-06  5.00000000e-01                                 
 4.04951991e-06  7.01732368e-01  4.04951991e-06  6.30070445e-01  4.04951991e-06  4.99795326e-01  4.04951991e-06  1.80000000e+00  4.04951991e-06  8.92982530e-06  4.04951991e-06  5.00000000e-01                                 
 5.04951991e-06  7.02871173e-01  5.04951991e-06  6.31041496e-01  5.04951991e-06  5.00704961e-01  5.04951991e-06  1.80000000e+00  5.04951991e-06  8.96061863e-06  5.04951991e-06  5.00000000e-01                                 
 6.04951991e-06  7.01844165e-01  6.04951991e-06  6.30166255e-01  6.04951991e-06  4.99788143e-01  6.04951991e-06  1.80000000e+00  6.04951991e-06  8.92637755e-06  6.04951991e-06  5.00000000e-01                                 
 7.04951991e-06  7.02757438e-01  7.04951991e-06  6.30944267e-01  7.04951991e-06  5.00686306e-01  7.04951991e-06  1.80000000e+00  7.04951991e-06  8.96368212e-06  7.04951991e-06  5.00000000e-01                                 
 8.04951991e-06  7.01963264e-01  8.04951991e-06  6.30268284e-01  8.04951991e-06  4.99829302e-01  8.04951991e-06  1.80000000e+00  8.04951991e-06  8.92370781e-06  8.04951991e-06  5.00000000e-01                                 
 9.04951991e-06  7.02638503e-01  9.04951991e-06  6.30842635e-01  9.04951991e-06  5.00626037e-01  9.04951991e-06  1.80000000e+00  9.04951991e-06  8.96595194e-06  9.04951991e-06  5.00000000e-01                                 
 1.00005000e-05  7.02088037e-01  1.00005000e-05  6.30375081e-01  1.00005000e-05  4.99907941e-01  1.00005000e-05  1.80000000e+00  1.00005000e-05  8.92180255e-06  1.00005000e-05  5.00000000e-01                                 
 1.00005500e-05  7.02086751e-01  1.00005500e-05  6.30373976e-01  1.00005500e-05  4.92486762e-01  1.00005500e-05  1.62000000e+00  1.00005500e-05 -7.71782688e-05  1.00005500e-05  5.00000000e-01                                 
 1.00006500e-05  7.02084204e-01  1.00006500e-05  6.30371785e-01  1.00006500e-05  4.78861228e-01  1.00006500e-05  1.26000000e+00  1.00006500e-05 -6.49688692e-05  1.00006500e-05  5.00000000e-01                                 
 1.00008500e-05  7.02079236e-01  1.00008500e-05  6.30367509e-01  1.00008500e-05  4.77375977e-01  1.00008500e-05  5.40000000e-01  1.00008500e-05  6.87361699e-02  1.00008500e-05  5.00000000e-01                                 
 1.00010000e-05  7.02075509e-01  1.00010000e-05  6.30364323e-01  1.00010000e-05  4.42436420e-01  1.00010000e-05  0.00000000e+00  1.00010000e-05  1.61581984e+00  1.00010000e-05  5.00000000e-01                                 
 1.00010248e-05  7.02074876e-01  1.00010248e-05  6.30363787e-01  1.00010248e-05  4.21996180e-01  1.00010248e-05  0.00000000e+00  1.00010248e-05  1.73820686e+00  1.00010248e-05  5.00000000e-01                                 
 1.00010745e-05  7.02073656e-01  1.00010745e-05  6.30362734e-01  1.00010745e-05  3.85680965e-01  1.00010745e-05  0.00000000e+00  1.00010745e-05  1.81769689e+00  1.00010745e-05  5.00000000e-01                                 
 1.00011738e-05  7.02071343e-01  1.00011738e-05  6.30360714e-01  1.00011738e-05  3.48463450e-01  1.00011738e-05  0.00000000e+00  1.00011738e-05  1.78734819e+00  1.00011738e-05  5.00000000e-01                                 
 1.00013188e-05  7.02068005e-01  1.00013188e-05  6.30357843e-01  1.00013188e-05  3.40245758e-01  1.00013188e-05  0.00000000e+00  1.00013188e-05  1.80853554e+00  1.00013188e-05  5.00000000e-01                                 
 1.00015431e-05  7.02062790e-01  1.00015431e-05  6.30353378e-01  1.00015431e-05  3.40454550e-01  1.00015431e-05  0.00000000e+00  1.00015431e-05  1.79289961e+00  1.00015431e-05  5.00000000e-01                                 
 1.00017764e-05  7.02057312e-01  1.00017764e-05  6.30348689e-01  1.00017764e-05  3.40742760e-01  1.00017764e-05  0.00000000e+00  1.00017764e-05  1.80575030e+00  1.00017764e-05  5.00000000e-01                                 
 1.00021839e-05  7.02047771e-01  1.00021839e-05  6.30340518e-01  1.00021839e-05  3.40579888e-01  1.00021839e-05  0.00000000e+00  1.00021839e-05  1.79484329e+00  1.00021839e-05  5.00000000e-01                                 
 1.00026890e-05  7.02036211e-01  1.00026890e-05  6.30330603e-01  1.00026890e-05  3.40808385e-01  1.00026890e-05  0.00000000e+00  1.00026890e-05  1.80468239e+00  1.00026890e-05  5.00000000e-01                                 
