 time            v(vbep)         time            v(vben)         time            v(vout)         time            v(vphi1)        time            v(vphi2)        time            v(vref)         yes             currtemp       
 0.00000000e+00  6.93592968e-01  0.00000000e+00  6.41062680e-01  0.00000000e+00  9.01426203e-02  0.00000000e+00  0.00000000e+00  0.00000000e+00  1.79997878e+00  0.00000000e+00  5.00000000e-01  1.00000000e+00  1.40000000e+01 
 5.00000000e-12  6.93578876e-01  5.00000000e-12  6.41050935e-01  5.00000000e-12  9.06141631e-02  5.00000000e-12  1.80000000e-02  5.00000000e-12  1.80005853e+00  5.00000000e-12  5.00000000e-01                                 
 1.00000000e-11  6.93564954e-01  1.00000000e-11  6.41039417e-01  1.00000000e-11  9.10369515e-02  1.00000000e-11  3.60000000e-02  1.00000000e-11  1.80009711e+00  1.00000000e-11  5.00000000e-01                                 
 2.00000000e-11  6.93537196e-01  2.00000000e-11  6.41016441e-01  2.00000000e-11  9.18122131e-02  2.00000000e-11  7.20000000e-02  2.00000000e-11  1.80013115e+00  2.00000000e-11  5.00000000e-01                                 
 4.00000000e-11  6.93481832e-01  4.00000000e-11  6.40970593e-01  4.00000000e-11  9.30366017e-02  4.00000000e-11  1.44000000e-01  4.00000000e-11  1.80010872e+00  4.00000000e-11  5.00000000e-01                                 
 8.00000000e-11  6.93371395e-01  8.00000000e-11  6.40879104e-01  8.00000000e-11  9.47141496e-02  8.00000000e-11  2.88000000e-01  8.00000000e-11  1.80006581e+00  8.00000000e-11  5.00000000e-01                                 
 1.60000000e-10  6.93151762e-01  1.60000000e-10  6.40696972e-01  1.60000000e-10  9.68456019e-02  1.60000000e-10  5.76000000e-01  1.60000000e-10  1.80002701e+00  1.60000000e-10  5.00000000e-01                                 
 3.20000000e-10  6.92717369e-01  3.20000000e-10  6.40336075e-01  3.20000000e-10  1.31941878e-01  3.20000000e-10  1.15200000e+00  3.20000000e-10  1.79999565e+00  3.20000000e-10  5.00000000e-01                                 
 5.00000000e-10  6.92236430e-01  5.00000000e-10  6.39935449e-01  5.00000000e-10  4.94801676e-01  5.00000000e-10  1.80000000e+00  5.00000000e-10  1.07239146e-01  5.00000000e-10  5.00000000e-01                                 
 5.21396201e-10  6.92179863e-01  5.21396201e-10  6.39888248e-01  5.21396201e-10  5.63233656e-01  5.21396201e-10  1.80000000e+00  5.21396201e-10  1.97790814e-02  5.21396201e-10  5.00000000e-01                                 
 5.64188602e-10  6.92066952e-01  5.64188602e-10  6.39794001e-01  5.64188602e-10  6.86009891e-01  5.64188602e-10  1.80000000e+00  5.64188602e-10 -9.41972487e-03  5.64188602e-10  5.00000000e-01                                 
 6.49773405e-10  6.91842481e-01  6.49773405e-10  6.39606455e-01  6.49773405e-10  8.72405409e-01  6.49773405e-10  1.80000000e+00  6.49773405e-10  8.06336889e-03  6.49773405e-10  5.00000000e-01                                 
 7.72892379e-10  6.91522677e-01  7.72892379e-10  6.39338848e-01  7.72892379e-10  1.07440954e+00  7.72892379e-10  1.80000000e+00  7.72892379e-10 -7.05521713e-03  7.72892379e-10  5.00000000e-01                                 
 9.63894496e-10  6.91033624e-01  9.63894496e-10  6.38928691e-01  9.63894496e-10  1.32595134e+00  9.63894496e-10  1.80000000e+00  9.63894496e-10  6.67201433e-03  9.63894496e-10  5.00000000e-01                                 
 1.32496983e-09  6.90131652e-01  1.32496983e-09  6.38169345e-01  1.32496983e-09  1.65551386e+00  1.32496983e-09  1.80000000e+00  1.32496983e-09 -6.32376653e-03  1.32496983e-09  5.00000000e-01                                 
 1.97138257e-09  6.88585450e-01  1.97138257e-09  6.36859162e-01  1.97138257e-09  1.87917250e+00  1.97138257e-09  1.80000000e+00  1.97138257e-09  6.27707786e-03  1.97138257e-09  5.00000000e-01                                 
 2.22740360e-09  6.87996180e-01  2.22740360e-09  6.36356971e-01  2.22740360e-09  1.89776821e+00  2.22740360e-09  1.80000000e+00  2.22740360e-09 -5.87970950e-03  2.22740360e-09  5.00000000e-01                                 
 2.54320344e-09  6.87285968e-01  2.54320344e-09  6.35749707e-01  2.54320344e-09  1.90534906e+00  2.54320344e-09  1.80000000e+00  2.54320344e-09  5.68856023e-03  2.54320344e-09  5.00000000e-01                                 
 2.89303536e-09  6.86519685e-01  2.89303536e-09  6.35092076e-01  2.89303536e-09  1.90912671e+00  2.89303536e-09  1.80000000e+00  2.89303536e-09 -5.42669586e-03  2.89303536e-09  5.00000000e-01                                 
 3.59269919e-09  6.85046784e-01  3.59269919e-09  6.33821227e-01  3.59269919e-09  1.91299132e+00  3.59269919e-09  1.80000000e+00  3.59269919e-09  5.36652101e-03  3.59269919e-09  5.00000000e-01                                 
 4.56564022e-09  6.83118842e-01  4.56564022e-09  6.32144602e-01  4.56564022e-09  1.91174257e+00  4.56564022e-09  1.80000000e+00  4.56564022e-09 -5.25839808e-03  4.56564022e-09  5.00000000e-01                                 
 6.51152227e-09  6.79614037e-01  6.51152227e-09  6.29061537e-01  6.51152227e-09  1.90199135e+00  6.51152227e-09  1.80000000e+00  6.51152227e-09  5.25906856e-03  6.51152227e-09  5.00000000e-01                                 
 9.17081248e-09  6.75430415e-01  9.17081248e-09  6.25325781e-01  9.17081248e-09  1.88959946e+00  9.17081248e-09  1.80000000e+00  9.17081248e-09 -5.19362139e-03  9.17081248e-09  5.00000000e-01                                 
 1.05702962e-08  6.73459591e-01  1.05702962e-08  6.23545650e-01  1.05702962e-08  1.88453396e+00  1.05702962e-08  1.80000000e+00  1.05702962e-08  5.17583562e-03  1.05702962e-08  5.00000000e-01                                 
 1.24510811e-08  6.71011534e-01  1.24510811e-08  6.21318663e-01  1.24510811e-08  1.87843408e+00  1.24510811e-08  1.80000000e+00  1.24510811e-08 -5.11190412e-03  1.24510811e-08  5.00000000e-01                                 
 1.44546222e-08  6.68624848e-01  1.44546222e-08  6.19130959e-01  1.44546222e-08  1.87266152e+00  1.44546222e-08  1.80000000e+00  1.44546222e-08  5.10284107e-03  1.44546222e-08  5.00000000e-01                                 
 1.78719560e-08  6.64992377e-01  1.78719560e-08  6.15770999e-01  1.78719560e-08  1.86401841e+00  1.78719560e-08  1.80000000e+00  1.78719560e-08 -5.05951911e-03  1.78719560e-08  5.00000000e-01                                 
 2.18249828e-08  6.61365089e-01  2.18249828e-08  6.12377307e-01  2.18249828e-08  1.85536834e+00  2.18249828e-08  1.80000000e+00  2.18249828e-08  5.06531573e-03  2.18249828e-08  5.00000000e-01                                 
 2.84848694e-08  6.56280475e-01  2.84848694e-08  6.07556132e-01  2.84848694e-08  1.84293666e+00  2.84848694e-08  1.80000000e+00  2.84848694e-08 -5.03248237e-03  2.84848694e-08  5.00000000e-01                                 
 3.85365053e-08  6.50194385e-01  3.85365053e-08  6.01701432e-01  3.85365053e-08  1.82708821e+00  3.85365053e-08  1.80000000e+00  3.85365053e-08  5.04858558e-03  3.85365053e-08  5.00000000e-01                                 
 5.86397770e-08  6.41003393e-01  5.86397770e-08  5.92764215e-01  5.86397770e-08  1.79889658e+00  5.86397770e-08  1.80000000e+00  5.86397770e-08 -5.02249598e-03  5.86397770e-08  5.00000000e-01                                 
 9.38758867e-08  6.29928082e-01  9.38758867e-08  5.81878520e-01  9.38758867e-08  1.75577077e+00  9.38758867e-08  1.80000000e+00  9.38758867e-08  5.04349215e-03  9.38758867e-08  5.00000000e-01                                 
 1.41258374e-07  6.17660276e-01  1.41258374e-07  5.70176855e-01  1.41258374e-07  1.70012869e+00  1.41258374e-07  1.80000000e+00  1.41258374e-07 -5.01915323e-03  1.41258374e-07  5.00000000e-01                                 
 1.89395744e-07  6.05904709e-01  1.89395744e-07  5.59392636e-01  1.89395744e-07  1.64328076e+00  1.89395744e-07  1.80000000e+00  1.89395744e-07  5.04071689e-03  1.89395744e-07  5.00000000e-01                                 
 2.75262889e-07  5.88315959e-01  2.75262889e-07  5.43556617e-01  2.75262889e-07  1.54276953e+00  2.75262889e-07  1.80000000e+00  2.75262889e-07 -5.01697453e-03  2.75262889e-07  5.00000000e-01                                 
 3.63388242e-07  5.71613900e-01  3.63388242e-07  5.28989425e-01  3.63388242e-07  1.43847720e+00  3.63388242e-07  1.80000000e+00  3.63388242e-07  5.03920878e-03  3.63388242e-07  5.00000000e-01                                 
 5.39638947e-07  5.37774638e-01  5.39638947e-07  5.00523853e-01  5.39638947e-07  1.22699982e+00  5.39638947e-07  1.80000000e+00  5.39638947e-07 -5.01585485e-03  5.39638947e-07  5.00000000e-01                                 
 5.83701623e-07  5.28742714e-01  5.83701623e-07  4.93135203e-01  5.83701623e-07  1.17289595e+00  5.83701623e-07  1.80000000e+00  5.83701623e-07 -2.67110810e-07  5.83701623e-07  5.00000000e-01                                 
 6.71826976e-07  5.09454822e-01  6.71826976e-07  4.77446623e-01  6.71826976e-07  1.06204576e+00  6.71826976e-07  1.80000000e+00  6.71826976e-07  4.34163188e-07  6.71826976e-07  5.00000000e-01                                 
 7.84053394e-07  4.87836854e-01  7.84053394e-07  4.59975722e-01  7.84053394e-07  9.35063639e-01  7.84053394e-07  1.80000000e+00  7.84053394e-07 -2.42533737e-07  7.84053394e-07  5.00000000e-01                                 
 8.09850323e-07  4.86426230e-01  8.09850323e-07  4.58826254e-01  8.09850323e-07  9.14244101e-01  8.09850323e-07  1.80000000e+00  8.09850323e-07  1.50253540e-07  8.09850323e-07  5.00000000e-01                                 
 8.61444181e-07  4.97739687e-01  8.61444181e-07  4.67840531e-01  8.61444181e-07  8.86106202e-01  8.61444181e-07  1.80000000e+00  8.61444181e-07  3.67473485e-07  8.61444181e-07  5.00000000e-01                                 
 8.68502160e-07  5.02397514e-01  8.68502160e-07  4.71561308e-01  8.68502160e-07  8.85131959e-01  8.68502160e-07  1.80000000e+00  8.68502160e-07  4.34258378e-07  8.68502160e-07  5.00000000e-01                                 
 8.82618117e-07  5.14571116e-01  8.82618117e-07  4.81285482e-01  8.82618117e-07  8.85599152e-01  8.82618117e-07  1.80000000e+00  8.82618117e-07  5.98933800e-07  8.82618117e-07  5.00000000e-01                                 
 9.10850032e-07  5.69409203e-01  9.10850032e-07  5.25055659e-01  9.10850032e-07  9.11426758e-01  9.10850032e-07  1.80000000e+00  9.10850032e-07  1.33708905e-06  9.10850032e-07  5.00000000e-01                                 
 9.38048803e-07  6.90347138e-01  9.38048803e-07  6.29271262e-01  9.38048803e-07  9.93760004e-01  9.38048803e-07  1.80000000e+00  9.38048803e-07  3.15272446e-06  9.38048803e-07  5.00000000e-01                                 
 9.66238472e-07  7.57619533e-01  9.66238472e-07  7.02920543e-01  9.66238472e-07  1.03267208e+00  9.66238472e-07  1.80000000e+00  9.66238472e-07  2.70378133e-07  9.66238472e-07  5.00000000e-01                                 
 9.98167970e-07  7.85567389e-01  9.98167970e-07  7.30729296e-01  9.98167970e-07  1.02717031e+00  9.98167970e-07  1.80000000e+00  9.98167970e-07  1.18815776e-06  9.98167970e-07  5.00000000e-01                                 
 1.03848401e-06  8.04991830e-01  1.03848401e-06  7.48203107e-01  1.03848401e-06  1.00539415e+00  1.03848401e-06  1.80000000e+00  1.03848401e-06 -1.84052832e-07  1.03848401e-06  5.00000000e-01                                 
 1.08064684e-06  8.14486227e-01  1.08064684e-06  7.56656044e-01  1.08064684e-06  9.73046987e-01  1.08064684e-06  1.80000000e+00  1.08064684e-06  8.03572090e-07  1.08064684e-06  5.00000000e-01                                 
 1.13528777e-06  8.22203888e-01  1.13528777e-06  7.63054153e-01  1.13528777e-06  9.33594347e-01  1.13528777e-06  1.80000000e+00  1.13528777e-06 -2.53774718e-07  1.13528777e-06  5.00000000e-01                                 
 1.19406161e-06  8.11787891e-01  1.19406161e-06  7.54372317e-01  1.19406161e-06  8.81275627e-01  1.19406161e-06  1.80000000e+00  1.19406161e-06  3.75332301e-07  1.19406161e-06  5.00000000e-01                                 
 1.26361925e-06  7.89837346e-01  1.26361925e-06  7.34428918e-01  1.26361925e-06  8.18497891e-01  1.26361925e-06  1.80000000e+00  1.26361925e-06 -4.28241136e-07  1.26361925e-06  5.00000000e-01                                 
 1.33530300e-06  7.99579671e-01  1.33530300e-06  7.43547527e-01  1.33530300e-06  7.86269433e-01  1.33530300e-06  1.80000000e+00  1.33530300e-06  9.27308759e-07  1.33530300e-06  5.00000000e-01                                 
 1.34376402e-06  8.03133741e-01  1.34376402e-06  7.46646175e-01  1.34376402e-06  7.85152415e-01  1.34376402e-06  1.80000000e+00  1.34376402e-06  4.66939308e-07  1.34376402e-06  5.00000000e-01                                 
 1.36068606e-06  8.09012613e-01  1.36068606e-06  7.51836796e-01  1.36068606e-06  7.81212650e-01  1.36068606e-06  1.80000000e+00  1.36068606e-06  3.44171748e-07  1.36068606e-06  5.00000000e-01                                 
 1.39453016e-06  8.17021073e-01  1.39453016e-06  7.58752838e-01  1.39453016e-06  7.70212808e-01  1.39453016e-06  1.80000000e+00  1.39453016e-06  3.15875487e-07  1.39453016e-06  5.00000000e-01                                 
 1.44080886e-06  8.07771873e-01  1.44080886e-06  7.50803861e-01  1.44080886e-06  7.38445499e-01  1.44080886e-06  1.80000000e+00  1.44080886e-06 -2.03555879e-07  1.44080886e-06  5.00000000e-01                                 
 1.44720310e-06  8.03637340e-01  1.44720310e-06  7.47149447e-01  1.44720310e-06  7.31616060e-01  1.44720310e-06  1.80000000e+00  1.44720310e-06 -2.35975471e-07  1.44720310e-06  5.00000000e-01                                 
 1.45999159e-06  7.96777631e-01  1.45999159e-06  7.40957768e-01  1.45999159e-06  7.19250255e-01  1.45999159e-06  1.80000000e+00  1.45999159e-06 -1.27850757e-07  1.45999159e-06  5.00000000e-01                                 
 1.48556856e-06  7.94047460e-01  1.48556856e-06  7.38427672e-01  1.48556856e-06  7.04563917e-01  1.48556856e-06  1.80000000e+00  1.48556856e-06  2.92890842e-07  1.48556856e-06  5.00000000e-01                                 
 1.53672250e-06  8.04731233e-01  1.53672250e-06  7.48071880e-01  1.53672250e-06  6.89666654e-01  1.53672250e-06  1.80000000e+00  1.53672250e-06  3.19769978e-07  1.53672250e-06  5.00000000e-01                                 
 1.58798521e-06  8.09285757e-01  1.58798521e-06  7.52099492e-01  1.58798521e-06  6.69550844e-01  1.58798521e-06  1.80000000e+00  1.58798521e-06  1.52868048e-07  1.58798521e-06  5.00000000e-01                                 
 1.66637800e-06  8.01468047e-01  1.66637800e-06  7.45181819e-01  1.66637800e-06  6.27313372e-01  1.66637800e-06  1.80000000e+00  1.66637800e-06  6.50596879e-08  1.66637800e-06  5.00000000e-01                                 
 1.76848239e-06  8.02220332e-01  1.76848239e-06  7.45836097e-01  1.76848239e-06  5.84482429e-01  1.76848239e-06  1.80000000e+00  1.76848239e-06  2.85568948e-07  1.76848239e-06  5.00000000e-01                                 
 1.87382835e-06  8.07883827e-01  1.87382835e-06  7.50872376e-01  1.87382835e-06  5.49174788e-01  1.87382835e-06  1.80000000e+00  1.87382835e-06  1.34147338e-07  1.87382835e-06  5.00000000e-01                                 
 2.03777032e-06  8.00187146e-01  2.03777032e-06  7.44022343e-01  2.03777032e-06  5.07145880e-01  2.03777032e-06  1.80000000e+00  2.03777032e-06  1.54178976e-07  2.03777032e-06  5.00000000e-01                                 
 2.20485922e-06  8.06330440e-01  2.20485922e-06  7.49495280e-01  2.20485922e-06  5.02129766e-01  2.20485922e-06  1.80000000e+00  2.20485922e-06  2.38032055e-07  2.20485922e-06  5.00000000e-01                                 
 2.40984370e-06  8.02899060e-01  2.40984370e-06  7.46461169e-01  2.40984370e-06  4.93766799e-01  2.40984370e-06  1.80000000e+00  2.40984370e-06  8.79866262e-08  2.40984370e-06  5.00000000e-01                                 
 2.64022898e-06  8.03813490e-01  2.64022898e-06  7.47260646e-01  2.64022898e-06  5.01936214e-01  2.64022898e-06  1.80000000e+00  2.64022898e-06  2.61035476e-07  2.64022898e-06  5.00000000e-01                                 
 2.89358869e-06  8.05132814e-01  2.89358869e-06  7.48448606e-01  2.89358869e-06  5.02201342e-01  2.89358869e-06  1.80000000e+00  2.89358869e-06  9.15456210e-08  2.89358869e-06  5.00000000e-01                                 
 3.25280794e-06  8.02276073e-01  3.25280794e-06  7.45889466e-01  3.25280794e-06  4.96368654e-01  3.25280794e-06  1.80000000e+00  3.25280794e-06  2.42863817e-07  3.25280794e-06  5.00000000e-01                                 
 3.61792320e-06  8.06026492e-01  3.61792320e-06  7.49237648e-01  3.61792320e-06  5.03814296e-01  3.61792320e-06  1.80000000e+00  3.61792320e-06  1.16305689e-07  3.61792320e-06  5.00000000e-01                                 
 4.08306960e-06  8.01682774e-01  4.08306960e-06  7.45360262e-01  4.08306960e-06  4.96570305e-01  4.08306960e-06  1.80000000e+00  4.08306960e-06  2.16207425e-07  4.08306960e-06  5.00000000e-01                                 
 4.78109756e-06  8.06264774e-01  4.78109756e-06  7.49446418e-01  4.78109756e-06  5.03430237e-01  4.78109756e-06  1.80000000e+00  4.78109756e-06  1.37904980e-07  4.78109756e-06  5.00000000e-01                                 
 5.56768726e-06  8.01586176e-01  5.56768726e-06  7.45275124e-01  5.56768726e-06  4.97045476e-01  5.56768726e-06  1.80000000e+00  5.56768726e-06  1.99248872e-07  5.56768726e-06  5.00000000e-01                                 
 6.56768726e-06  8.06281719e-01  6.56768726e-06  7.49460208e-01  6.56768726e-06  5.03043052e-01  6.56768726e-06  1.80000000e+00  6.56768726e-06  1.52295953e-07  6.56768726e-06  5.00000000e-01                                 
 7.56768726e-06  8.01617513e-01  7.56768726e-06  7.45304354e-01  7.56768726e-06  4.97419202e-01  7.56768726e-06  1.80000000e+00  7.56768726e-06  1.86628666e-07  7.56768726e-06  5.00000000e-01                                 
 8.56768726e-06  8.06218288e-01  8.56768726e-06  7.49403177e-01  8.56768726e-06  5.02693177e-01  8.56768726e-06  1.80000000e+00  8.56768726e-06  1.64752536e-07  8.56768726e-06  5.00000000e-01                                 
 9.56768726e-06  8.01726465e-01  9.56768726e-06  7.45403137e-01  9.56768726e-06  4.97772914e-01  9.56768726e-06  1.80000000e+00  9.56768726e-06  1.74442686e-07  9.56768726e-06  5.00000000e-01                                 
 1.00005000e-05  8.05964556e-01  1.00005000e-05  7.49177340e-01  1.00005000e-05  5.02156497e-01  1.00005000e-05  1.80000000e+00  1.00005000e-05  1.83781164e-07  1.00005000e-05  5.00000000e-01                                 
 1.00005500e-05  8.05964630e-01  1.00005500e-05  7.49177359e-01  1.00005500e-05  4.94143936e-01  1.00005500e-05  1.62000000e+00  1.00005500e-05 -7.34396805e-05  1.00005500e-05  5.00000000e-01                                 
 1.00006500e-05  8.05964701e-01  1.00006500e-05  7.49177420e-01  1.00006500e-05  4.80436889e-01  1.00006500e-05  1.26000000e+00  1.00006500e-05 -5.31096653e-05  1.00006500e-05  5.00000000e-01                                 
 1.00008500e-05  8.05965051e-01  1.00008500e-05  7.49177776e-01  1.00008500e-05  4.79332530e-01  1.00008500e-05  5.40000000e-01  1.00008500e-05 -1.69698790e-03  1.00008500e-05  5.00000000e-01                                 
 1.00010000e-05  8.05965412e-01  1.00010000e-05  7.49178126e-01  1.00010000e-05  4.41364903e-01  1.00010000e-05  0.00000000e+00  1.00010000e-05  1.55978111e+00  1.00010000e-05  5.00000000e-01                                 
 1.00010168e-05  8.05965399e-01  1.00010168e-05  7.49178141e-01  1.00010168e-05  4.19987048e-01  1.00010168e-05  0.00000000e+00  1.00010168e-05  1.69285105e+00  1.00010168e-05  5.00000000e-01                                 
 1.00010503e-05  8.05965414e-01  1.00010503e-05  7.49178184e-01  1.00010503e-05  3.72937970e-01  1.00010503e-05  0.00000000e+00  1.00010503e-05  1.80808566e+00  1.00010503e-05  5.00000000e-01                                 
