 time            v(vbep)         time            v(vben)         time            v(vout)         time            v(vphi1)        time            v(vphi2)        time            v(vref)         time            v(voutc)        time            v(voutcc)       yes             currtemp       
 0.00000000e+00  6.91456761e-01  0.00000000e+00  6.21471364e-01  0.00000000e+00  1.42872904e+00  0.00000000e+00  0.00000000e+00  0.00000000e+00  1.79999999e+00  0.00000000e+00  6.21141551e-01  0.00000000e+00  1.42872903e+00  0.00000000e+00  1.43674915e+00  1.00000000e+00  8.10000000e+01 
 1.00000000e-11  6.91481949e-01  1.00000000e-11  6.21544519e-01  1.00000000e-11  1.42947653e+00  1.00000000e-11  1.80000000e-02  1.00000000e-11  1.80025220e+00  1.00000000e-11  6.21669511e-01  1.00000000e-11  1.42919376e+00  1.00000000e-11  1.43676174e+00                                 
 2.00000000e-11  6.91488684e-01  2.00000000e-11  6.21589264e-01  2.00000000e-11  1.42991878e+00  2.00000000e-11  3.60000000e-02  2.00000000e-11  1.80034955e+00  2.00000000e-11  6.22058208e-01  2.00000000e-11  1.42954018e+00  2.00000000e-11  1.43676593e+00                                 
 4.00000000e-11  6.91488511e-01  4.00000000e-11  6.21647143e-01  4.00000000e-11  1.43042916e+00  4.00000000e-11  7.20000000e-02  4.00000000e-11  1.80038264e+00  4.00000000e-11  6.22624155e-01  4.00000000e-11  1.43005028e+00  4.00000000e-11  1.43676643e+00                                 
 8.00000000e-11  6.91476837e-01  8.00000000e-11  6.21682016e-01  8.00000000e-11  1.43047927e+00  8.00000000e-11  1.44000000e-01  8.00000000e-11  1.80017642e+00  8.00000000e-11  6.23062028e-01  8.00000000e-11  1.43045047e+00  8.00000000e-11  1.43675612e+00                                 
 1.60000000e-10  6.91474104e-01  1.60000000e-10  6.21689834e-01  1.60000000e-10  1.43014349e+00  1.60000000e-10  2.88000000e-01  1.60000000e-10  1.80000557e+00  1.60000000e-10  6.23160567e-01  1.60000000e-10  1.43048856e+00  1.60000000e-10  1.43674723e+00                                 
 3.20000000e-10  6.91468959e-01  3.20000000e-10  6.21676858e-01  3.20000000e-10  1.42976616e+00  3.20000000e-10  5.76000000e-01  3.20000000e-10  1.79998020e+00  3.20000000e-10  6.22997914e-01  3.20000000e-10  1.43013935e+00  3.20000000e-10  1.43674185e+00                                 
 6.40000000e-10  6.91387438e-01  6.40000000e-10  6.21206131e-01  6.40000000e-10  1.42816996e+00  6.40000000e-10  1.15200000e+00  6.40000000e-10  1.80783772e+00  6.40000000e-10  6.19705565e-01  6.40000000e-10  1.43273955e+00  6.40000000e-10  1.43676212e+00                                 
 1.00000000e-09  6.91901687e-01  1.00000000e-09  6.21701275e-01  1.00000000e-09  1.41031136e+00  1.00000000e-09  1.80000000e+00  1.00000000e-09  1.12503635e-01  1.00000000e-09  6.36908134e-01  1.00000000e-09  1.44042444e+00  1.00000000e-09  1.43678723e+00                                 
 1.03789174e-09  6.91984939e-01  1.03789174e-09  6.21687321e-01  1.03789174e-09  1.40860359e+00  1.03789174e-09  1.80000000e+00  1.03789174e-09  2.73629130e-02  1.03789174e-09  6.39946085e-01  1.03789174e-09  1.44202863e+00  1.03789174e-09  1.43679908e+00                                 
 1.11367521e-09  6.92172049e-01  1.11367521e-09  6.21690385e-01  1.11367521e-09  1.40639564e+00  1.11367521e-09  1.80000000e+00  1.11367521e-09 -1.24021943e-02  1.11367521e-09  6.43630082e-01  1.11367521e-09  1.44485146e+00  1.11367521e-09  1.43680530e+00                                 
 1.26524216e-09  6.92301275e-01  1.26524216e-09  6.21524127e-01  1.26524216e-09  1.40297022e+00  1.26524216e-09  1.80000000e+00  1.26524216e-09  9.59249656e-03  1.26524216e-09  6.43078070e-01  1.26524216e-09  1.44468215e+00  1.26524216e-09  1.43676271e+00                                 
 1.44707666e-09  6.92263367e-01  1.44707666e-09  6.21516308e-01  1.44707666e-09  1.40188456e+00  1.44707666e-09  1.80000000e+00  1.44707666e-09 -7.24330223e-03  1.44707666e-09  6.41850863e-01  1.44707666e-09  1.44340651e+00  1.44707666e-09  1.43680726e+00                                 
 1.65122213e-09  6.92152633e-01  1.65122213e-09  6.21516700e-01  1.65122213e-09  1.40140352e+00  1.65122213e-09  1.80000000e+00  1.65122213e-09  5.85809301e-03  1.65122213e-09  6.40084635e-01  1.65122213e-09  1.44208917e+00  1.65122213e-09  1.43685590e+00                                 
 2.00832444e-09  6.91895225e-01  2.00832444e-09  6.21480041e-01  2.00832444e-09  1.40062059e+00  2.00832444e-09  1.80000000e+00  2.00832444e-09 -5.18844287e-03  2.00832444e-09  6.37097674e-01  2.00832444e-09  1.43937129e+00  2.00832444e-09  1.43701192e+00                                 
 2.59659336e-09  6.91603338e-01  2.59659336e-09  6.21489044e-01  2.59659336e-09  1.39938224e+00  2.59659336e-09  1.80000000e+00  2.59659336e-09  4.77071987e-03  2.59659336e-09  6.33117271e-01  2.59659336e-09  1.43611436e+00  2.59659336e-09  1.43726525e+00                                 
 3.53873875e-09  6.91352431e-01  3.53873875e-09  6.21443468e-01  3.53873875e-09  1.39590885e+00  3.53873875e-09  1.80000000e+00  3.53873875e-09 -4.58818569e-03  3.53873875e-09  6.27838597e-01  3.53873875e-09  1.43146402e+00  3.53873875e-09  1.43761037e+00                                 
 5.26454145e-09  6.91253116e-01  5.26454145e-09  6.21460415e-01  5.26454145e-09  1.38835226e+00  5.26454145e-09  1.80000000e+00  5.26454145e-09  4.45285538e-03  5.26454145e-09  6.22514514e-01  5.26454145e-09  1.42706251e+00  5.26454145e-09  1.43786479e+00                                 
 6.65903461e-09  6.91261161e-01  6.65903461e-09  6.21433906e-01  6.65903461e-09  1.38053903e+00  6.65903461e-09  1.80000000e+00  6.65903461e-09 -4.32279383e-03  6.65903461e-09  6.20273957e-01  6.65903461e-09  1.42502480e+00  6.65903461e-09  1.43778939e+00                                 
 7.85674745e-09  6.91307850e-01  7.85674745e-09  6.21467288e-01  7.85674745e-09  1.37329532e+00  7.85674745e-09  1.80000000e+00  7.85674745e-09  4.16667063e-03  7.85674745e-09  6.19635049e-01  7.85674745e-09  1.42460820e+00  7.85674745e-09  1.43760104e+00                                 
 9.19600790e-09  6.91336462e-01  9.19600790e-09  6.21443245e-01  9.19600790e-09  1.36383867e+00  9.19600790e-09  1.80000000e+00  9.19600790e-09 -4.03218798e-03  9.19600790e-09  6.18969741e-01  9.19600790e-09  1.42391153e+00  9.19600790e-09  1.43734071e+00                                 
 1.10042588e-08  6.91395411e-01  1.10042588e-08  6.21478600e-01  1.10042588e-08  1.35045719e+00  1.10042588e-08  1.80000000e+00  1.10042588e-08  3.94050383e-03  1.10042588e-08  6.19036712e-01  1.10042588e-08  1.42407771e+00  1.10042588e-08  1.43695629e+00                                 
 1.32292599e-08  6.91422737e-01  1.32292599e-08  6.21453039e-01  1.32292599e-08  1.33237504e+00  1.32292599e-08  1.80000000e+00  1.32292599e-08 -3.85866759e-03  1.32292599e-08  6.18909056e-01  1.32292599e-08  1.42383199e+00  1.32292599e-08  1.43650133e+00                                 
 1.61637745e-08  6.91462391e-01  1.61637745e-08  6.21485571e-01  1.61637745e-08  1.30798459e+00  1.61637745e-08  1.80000000e+00  1.61637745e-08  3.80938682e-03  1.61637745e-08  6.19424923e-01  1.61637745e-08  1.42436587e+00  1.61637745e-08  1.43596610e+00                                 
 2.00559666e-08  6.91462748e-01  2.00559666e-08  6.21456842e-01  2.00559666e-08  1.27431622e+00  2.00559666e-08  1.80000000e+00  2.00559666e-08 -3.75950712e-03  2.00559666e-08  6.19570063e-01  2.00559666e-08  1.42434961e+00  2.00559666e-08  1.43539169e+00                                 
 2.61355049e-08  6.91475680e-01  2.61355049e-08  6.21487329e-01  2.61355049e-08  1.22177993e+00  2.61355049e-08  1.80000000e+00  2.61355049e-08  3.74097301e-03  2.61355049e-08  6.20270283e-01  2.61355049e-08  1.42503636e+00  2.61355049e-08  1.43474432e+00                                 
 3.68621757e-08  6.91457184e-01  3.68621757e-08  6.21457096e-01  3.68621757e-08  1.12868686e+00  3.68621757e-08  1.80000000e+00  3.68621757e-08 -3.71775503e-03  3.68621757e-08  6.20533438e-01  3.68621757e-08  1.42512615e+00  3.68621757e-08  1.43410023e+00                                 
 5.15366331e-08  6.91464253e-01  5.15366331e-08  6.21486697e-01  5.15366331e-08  1.00320025e+00  5.15366331e-08  1.80000000e+00  5.15366331e-08  3.71551664e-03  5.15366331e-08  6.21080146e-01  5.15366331e-08  1.42569920e+00  5.15366331e-08  1.43376268e+00                                 
 8.08855480e-08  6.91450253e-01  8.08855480e-08  6.21456212e-01  8.08855480e-08  7.63537429e-01  8.08855480e-08  1.80000000e+00  8.08855480e-08 -3.69894464e-03  8.08855480e-08  6.21008492e-01  8.08855480e-08  1.42552444e+00  8.08855480e-08  1.43365718e+00                                 
 1.08498981e-07  6.91468380e-01  1.08498981e-07  6.21486883e-01  1.08498981e-07  6.35582488e-01  1.08498981e-07  1.80000000e+00  1.08498981e-07  3.71450052e-03  1.08498981e-07  6.21268631e-01  1.08498981e-07  1.42586054e+00  1.08498981e-07  1.43370073e+00                                 
 1.35581514e-07  6.91442452e-01  1.35581514e-07  6.21455814e-01  1.35581514e-07  6.20884684e-01  1.35581514e-07  1.80000000e+00  1.35581514e-07 -3.68093108e-03  1.35581514e-07  6.21024293e-01  1.35581514e-07  1.42553845e+00  1.35581514e-07  1.43371818e+00                                 
 1.51105878e-07  6.91467544e-01  1.51105878e-07  6.21486688e-01  1.51105878e-07  6.21309696e-01  1.51105878e-07  1.80000000e+00  1.51105878e-07  3.69968394e-03  1.51105878e-07  6.21262642e-01  1.51105878e-07  1.42585430e+00  1.51105878e-07  1.43371885e+00                                 
 1.70359830e-07  6.91446937e-01  1.70359830e-07  6.21456014e-01  1.70359830e-07  6.20571309e-01  1.70359830e-07  1.80000000e+00  1.70359830e-07 -3.66318439e-03  1.70359830e-07  6.21020818e-01  1.70359830e-07  1.42553466e+00  1.70359830e-07  1.43371898e+00                                 
 2.05978466e-07  6.91466068e-01  2.05978466e-07  6.21486703e-01  2.05978466e-07  6.21025727e-01  2.05978466e-07  1.80000000e+00  2.05978466e-07  3.68745219e-03  2.05978466e-07  6.21262546e-01  2.05978466e-07  1.42585230e+00  2.05978466e-07  1.43371721e+00                                 
 2.77215739e-07  6.91447665e-01  2.77215739e-07  6.21456012e-01  2.77215739e-07  6.20557425e-01  2.77215739e-07  1.80000000e+00  2.77215739e-07 -3.65677737e-03  2.77215739e-07  6.21020457e-01  2.77215739e-07  1.42553112e+00  2.77215739e-07  1.43371541e+00                                 
 4.19690285e-07  6.91465760e-01  4.19690285e-07  6.21486707e-01  4.19690285e-07  6.21012412e-01  4.19690285e-07  1.80000000e+00  4.19690285e-07  3.68423542e-03  4.19690285e-07  6.21262630e-01  4.19690285e-07  1.42584569e+00  4.19690285e-07  1.43371050e+00                                 
 7.04639377e-07  6.91447809e-01  7.04639377e-07  6.21456010e-01  7.04639377e-07  6.20563485e-01  7.04639377e-07  1.80000000e+00  7.04639377e-07 -3.65518100e-03  7.04639377e-07  6.21020420e-01  7.04639377e-07  1.42551785e+00  7.04639377e-07  1.43370218e+00                                 
 1.27453756e-06  6.91465690e-01  1.27453756e-06  6.21486708e-01  1.27453756e-06  6.21009226e-01  1.27453756e-06  1.80000000e+00  1.27453756e-06  3.68343162e-03  1.27453756e-06  6.21262647e-01  1.27453756e-06  1.42581915e+00  1.27453756e-06  1.43368398e+00                                 
 2.41433393e-06  6.91447844e-01  2.41433393e-06  6.21456010e-01  2.41433393e-06  6.20565065e-01  2.41433393e-06  1.80000000e+00  2.41433393e-06 -3.65478199e-03  2.41433393e-06  6.21020412e-01  2.41433393e-06  1.42546472e+00  2.41433393e-06  1.43364912e+00                                 
 3.61433393e-06  6.91465668e-01  3.61433393e-06  6.21486709e-01  3.61433393e-06  6.21007452e-01  3.61433393e-06  1.80000000e+00  3.61433393e-06  3.68317081e-03  3.61433393e-06  6.21262652e-01  3.61433393e-06  1.42574646e+00  3.61433393e-06  1.43361137e+00                                 
 4.81433393e-06  6.91447866e-01  4.81433393e-06  6.21456009e-01  4.81433393e-06  6.20565242e-01  4.81433393e-06  1.80000000e+00  4.81433393e-06 -3.65454474e-03  4.81433393e-06  6.21020407e-01  4.81433393e-06  1.42539025e+00  4.81433393e-06  1.43357474e+00                                 
 6.00100000e-06  6.91465646e-01  6.00100000e-06  6.21486709e-01  6.00100000e-06  6.21006413e-01  6.00100000e-06  1.80000000e+00  6.00100000e-06  3.68291494e-03  6.00100000e-06  6.21262658e-01  6.00100000e-06  1.42567248e+00  6.00100000e-06  1.43353747e+00                                 
 6.00110000e-06  6.91409481e-01  6.00110000e-06  6.21234116e-01  6.00110000e-06  6.19184633e-01  6.00110000e-06  1.62000000e+00  6.00110000e-06  2.52131731e-04  6.00110000e-06  6.19624061e-01  6.00110000e-06  1.42422079e+00  6.00110000e-06  1.43352715e+00                                 
 6.00130000e-06  6.91442449e-01  6.00130000e-06  6.21226187e-01  6.00130000e-06  6.19132418e-01  6.00130000e-06  1.26000000e+00  6.00130000e-06 -2.76003182e-04  6.00130000e-06  6.19290203e-01  6.00130000e-06  1.42392885e+00  6.00130000e-06  1.43354232e+00                                 
 6.00165005e-06  6.91511134e-01  6.00165005e-06  6.21419344e-01  6.00165005e-06  6.21089799e-01  6.00165005e-06  6.29901225e-01  6.00165005e-06  1.95334480e-02  6.00165005e-06  6.19450108e-01  6.00165005e-06  1.42058126e+00  6.00165005e-06  1.43351761e+00                                 
 6.00200000e-06  6.91440271e-01  6.00200000e-06  6.20139759e-01  6.00200000e-06  6.53570658e-01  6.00200000e-06  0.00000000e+00  6.00200000e-06  1.61120121e+00  6.00200000e-06  6.06120111e-01  6.00200000e-06  1.21568094e+00  6.00200000e-06  1.43294474e+00                                 
 6.00204676e-06  6.91457203e-01  6.00204676e-06  6.19501947e-01  6.00204676e-06  6.61412647e-01  6.00204676e-06  0.00000000e+00  6.00204676e-06  1.73209672e+00  6.00204676e-06  5.98891610e-01  6.00204676e-06  1.14054451e+00  6.00204676e-06  1.43295025e+00                                 
 6.00214029e-06  6.91460257e-01  6.00214029e-06  6.18545159e-01  6.00214029e-06  6.66499331e-01  6.00214029e-06  0.00000000e+00  6.00214029e-06  1.81526699e+00  6.00214029e-06  5.88191210e-01  6.00214029e-06  9.90894727e-01  6.00214029e-06  1.43339561e+00                                 
 6.00232733e-06  6.91455705e-01  6.00232733e-06  6.18810084e-01  6.00232733e-06  6.53076011e-01  6.00232733e-06  0.00000000e+00  6.00232733e-06  1.78757530e+00  6.00232733e-06  5.91584385e-01  6.00232733e-06  7.77095593e-01  6.00232733e-06  1.43386261e+00                                 
 6.00251306e-06  6.91458113e-01  6.00251306e-06  6.19987978e-01  6.00251306e-06  6.38360315e-01  6.00251306e-06  0.00000000e+00  6.00251306e-06  1.80589565e+00  6.00251306e-06  6.04249080e-01  6.00251306e-06  6.81125794e-01  6.00251306e-06  1.43391546e+00                                 
 6.00267683e-06  6.91455277e-01  6.00267683e-06  6.20766306e-01  6.00267683e-06  6.29190956e-01  6.00267683e-06  0.00000000e+00  6.00267683e-06  1.79658704e+00  6.00267683e-06  6.11657760e-01  6.00267683e-06  6.45778947e-01  6.00267683e-06  1.43387948e+00                                 
 6.00288764e-06  6.91457754e-01  6.00288764e-06  6.21458427e-01  6.00288764e-06  6.24262532e-01  6.00288764e-06  0.00000000e+00  6.00288764e-06  1.80222096e+00  6.00288764e-06  6.18043699e-01  6.00288764e-06  6.29944613e-01  6.00288764e-06  1.43310040e+00                                 
 6.00309667e-06  6.91455595e-01  6.00309667e-06  6.21711892e-01  6.00309667e-06  6.22376978e-01  6.00309667e-06  0.00000000e+00  6.00309667e-06  1.79868787e+00  6.00309667e-06  6.19933206e-01  6.00309667e-06  6.24123749e-01  6.00309667e-06  1.43212064e+00                                 
 6.00340150e-06  6.91457750e-01  6.00340150e-06  6.21908567e-01  6.00340150e-06  6.22070165e-01  6.00340150e-06  0.00000000e+00  6.00340150e-06  1.80101176e+00  6.00340150e-06  6.21734783e-01  6.00340150e-06  6.22507036e-01  6.00340150e-06  1.43024460e+00                                 
 6.00382143e-06  6.91455912e-01  6.00382143e-06  6.21909805e-01  6.00382143e-06  6.22762081e-01  6.00382143e-06  0.00000000e+00  6.00382143e-06  1.79922602e+00  6.00382143e-06  6.21883158e-01  6.00382143e-06  6.22438074e-01  6.00382143e-06  1.42748830e+00                                 
 6.00454988e-06  6.91457775e-01  6.00454988e-06  6.21894870e-01  6.00454988e-06  6.24804525e-01  6.00454988e-06  0.00000000e+00  6.00454988e-06  1.80070617e+00  6.00454988e-06  6.22423106e-01  6.00454988e-06  6.24660752e-01  6.00454988e-06  1.42223203e+00                                 
 6.00571726e-06  6.91455946e-01  6.00571726e-06  6.21787633e-01  6.00571726e-06  6.28259025e-01  6.00571726e-06  0.00000000e+00  6.00571726e-06  1.79937997e+00  6.00571726e-06  6.22199220e-01  6.00571726e-06  6.27829476e-01  6.00571726e-06  1.41343430e+00                                 
 6.00805203e-06  6.91457632e-01  6.00805203e-06  6.21661826e-01  6.00805203e-06  6.35406546e-01  6.00805203e-06  0.00000000e+00  6.00805203e-06  1.80062573e+00  6.00805203e-06  6.22418514e-01  6.00805203e-06  6.35209298e-01  6.00805203e-06  1.39483801e+00                                 
 6.01272157e-06  6.91455882e-01  6.01272157e-06  6.21473605e-01  6.01272157e-06  6.49367305e-01  6.01272157e-06  0.00000000e+00  6.01272157e-06  1.79941150e+00  6.01272157e-06  6.21884839e-01  6.01272157e-06  6.48892399e-01  6.01272157e-06  1.35643437e+00                                 
 6.02064049e-06  6.91457622e-01  6.02064049e-06  6.21461594e-01  6.02064049e-06  6.72422205e-01  6.02064049e-06  0.00000000e+00  6.02064049e-06  1.80060559e+00  6.02064049e-06  6.21820300e-01  6.02064049e-06  6.72187698e-01  6.02064049e-06  1.28985867e+00                                 
 6.03416969e-06  6.91455894e-01  6.03416969e-06  6.21454551e-01  6.03416969e-06  7.09856435e-01  6.03416969e-06  0.00000000e+00  6.03416969e-06  1.79942176e+00  6.03416969e-06  6.21208779e-01  6.03416969e-06  7.09306148e-01  6.03416969e-06  1.17678818e+00                                 
 6.04838013e-06  6.91457623e-01  6.04838013e-06  6.21479101e-01  6.04838013e-06  7.46756297e-01  6.04838013e-06  0.00000000e+00  6.04838013e-06  1.80059611e+00  6.04838013e-06  6.21352444e-01  6.04838013e-06  7.46495722e-01  6.04838013e-06  1.06937430e+00                                 
 6.06958624e-06  6.91455899e-01  6.06958624e-06  6.21460087e-01  6.06958624e-06  7.97346054e-01  6.06958624e-06  0.00000000e+00  6.06958624e-06  1.79942624e+00  6.06958624e-06  6.21007266e-01  6.06958624e-06  7.96586027e-01  6.06958624e-06  9.36035436e-01                                 
 6.10233011e-06  6.91457622e-01  6.10233011e-06  6.21482346e-01  6.10233011e-06  8.65966556e-01  6.10233011e-06  0.00000000e+00  6.10233011e-06  1.80058900e+00  6.10233011e-06  6.21270987e-01  6.10233011e-06  8.65695604e-01  6.10233011e-06  8.55797075e-01                                 
 6.13257411e-06  6.91455901e-01  6.13257411e-06  6.21460275e-01  6.13257411e-06  9.19896717e-01  6.13257411e-06  0.00000000e+00  6.13257411e-06  1.79942648e+00  6.13257411e-06  6.20992620e-01  6.13257411e-06  9.18790290e-01  6.13257411e-06  8.93237681e-01                                 
 6.15234289e-06  6.91457620e-01  6.15234289e-06  6.21482702e-01  6.15234289e-06  9.50793189e-01  6.15234289e-06  0.00000000e+00  6.15234289e-06  1.80058244e+00  6.15234289e-06  6.21274886e-01  6.15234289e-06  9.50539697e-01  6.15234289e-06  9.25487198e-01                                 
 6.17317231e-06  6.91455904e-01  6.17317231e-06  6.21459827e-01  6.17317231e-06  9.79963600e-01  6.17317231e-06  0.00000000e+00  6.17317231e-06  1.79943000e+00  6.17317231e-06  6.20991209e-01  6.17317231e-06  9.78721964e-01  6.17317231e-06  9.56479734e-01                                 
 6.21483115e-06  6.91457619e-01  6.21483115e-06  6.21483036e-01  6.21483115e-06  1.02937703e+00  6.21483115e-06  0.00000000e+00  6.21483115e-06  1.80057676e+00  6.21483115e-06  6.21279294e-01  6.21483115e-06  1.02925634e+00  6.21483115e-06  1.01019237e+00                                 
