 time            v(vbep)         time            v(vben)         time            v(vout)         time            v(vphi1)        time            v(vphi2)        time            v(vref)         time            v(voutc)        time            v(voutcc)       yes             currtemp       
 0.00000000e+00  7.50449376e-01  0.00000000e+00  6.86347195e-01  0.00000000e+00  1.55123644e+00  0.00000000e+00  0.00000000e+00  0.00000000e+00  1.80000000e+00  0.00000000e+00  6.88068756e-01  0.00000000e+00  1.55123642e+00  0.00000000e+00  1.55823451e+00  1.00000000e+00  4.90000000e+01 
 5.00000000e-12  7.50471183e-01  5.00000000e-12  6.86401217e-01  5.00000000e-12  1.55185911e+00  5.00000000e-12  1.80000000e-02  5.00000000e-12  1.80018528e+00  5.00000000e-12  6.88460716e-01  5.00000000e-12  1.55158458e+00  5.00000000e-12  1.55824759e+00                                 
 1.00000000e-11  7.50480767e-01  1.00000000e-11  6.86436847e-01  1.00000000e-11  1.55230800e+00  1.00000000e-11  3.60000000e-02  1.00000000e-11  1.80026920e+00  1.00000000e-11  6.88768717e-01  1.00000000e-11  1.55185956e+00  1.00000000e-11  1.55825444e+00                                 
 2.00000000e-11  7.50487144e-01  2.00000000e-11  6.86486428e-01  2.00000000e-11  1.55295436e+00  2.00000000e-11  7.20000000e-02  2.00000000e-11  1.80032245e+00  2.00000000e-11  6.89250613e-01  2.00000000e-11  1.55229325e+00  2.00000000e-11  1.55826076e+00                                 
 4.00000000e-11  7.50475023e-01  4.00000000e-11  6.86522552e-01  4.00000000e-11  1.55338135e+00  4.00000000e-11  1.44000000e-01  4.00000000e-11  1.80019187e+00  4.00000000e-11  6.89713514e-01  4.00000000e-11  1.55272500e+00  4.00000000e-11  1.55825455e+00                                 
 8.00000000e-11  7.50461544e-01  8.00000000e-11  6.86528103e-01  8.00000000e-11  1.55324628e+00  8.00000000e-11  2.88000000e-01  8.00000000e-11  1.80003016e+00  8.00000000e-11  6.89848596e-01  8.00000000e-11  1.55288649e+00  8.00000000e-11  1.55823991e+00                                 
 1.60000000e-10  7.50462085e-01  1.60000000e-10  6.86515560e-01  1.60000000e-10  1.55275790e+00  1.60000000e-10  5.76000000e-01  1.60000000e-10  1.80000939e+00  1.60000000e-10  6.89648248e-01  1.60000000e-10  1.55274528e+00  1.60000000e-10  1.55823442e+00                                 
 3.20000000e-10  7.50394933e-01  3.20000000e-10  6.86072951e-01  3.20000000e-10  1.54902363e+00  3.20000000e-10  1.15200000e+00  3.20000000e-10  1.80073172e+00  3.20000000e-10  6.85814585e-01  3.20000000e-10  1.54961406e+00  3.20000000e-10  1.55820453e+00                                 
 5.00000000e-10  7.50478432e-01  5.00000000e-10  6.86548538e-01  5.00000000e-10  1.54545526e+00  5.00000000e-10  1.80000000e+00  5.00000000e-10  1.63143520e-01  5.00000000e-10  6.92272953e-01  5.00000000e-10  1.55513543e+00  5.00000000e-10  1.55829466e+00                                 
 5.21174851e-10  7.50479955e-01  5.21174851e-10  6.86582339e-01  5.21174851e-10  1.54480268e+00  5.21174851e-10  1.80000000e+00  5.21174851e-10  4.37084251e-02  5.21174851e-10  6.93879622e-01  5.21174851e-10  1.55603801e+00  5.21174851e-10  1.55828444e+00                                 
 5.63524554e-10  7.50558129e-01  5.63524554e-10  6.86649469e-01  5.63524554e-10  1.54418608e+00  5.63524554e-10  1.80000000e+00  5.63524554e-10 -1.55371559e-02  5.63524554e-10  6.96069526e-01  5.63524554e-10  1.55791607e+00  5.63524554e-10  1.55828042e+00                                 
 6.48223960e-10  7.50667486e-01  6.48223960e-10  6.86486598e-01  6.48223960e-10  1.54123917e+00  6.48223960e-10  1.80000000e+00  6.48223960e-10  1.21660166e-02  6.48223960e-10  6.95646680e-01  6.48223960e-10  1.55776877e+00  6.48223960e-10  1.55822879e+00                                 
 7.67491372e-10  7.50711244e-01  7.67491372e-10  6.86449199e-01  7.67491372e-10  1.53960779e+00  7.67491372e-10  1.80000000e+00  7.67491372e-10 -9.56604097e-03  7.67491372e-10  6.96894651e-01  7.67491372e-10  1.55869233e+00  7.67491372e-10  1.55825300e+00                                 
 9.45168185e-10  7.50768897e-01  9.45168185e-10  6.86416452e-01  9.45168185e-10  1.53857950e+00  9.45168185e-10  1.80000000e+00  9.45168185e-10  8.73609709e-03  9.45168185e-10  6.97680765e-01  9.45168185e-10  1.55953320e+00  9.45168185e-10  1.55822589e+00                                 
 1.30052181e-09  7.50736978e-01  1.30052181e-09  6.86341218e-01  1.30052181e-09  1.53667699e+00  1.30052181e-09  1.80000000e+00  1.30052181e-09 -7.95050284e-03  1.30052181e-09  6.97313425e-01  1.30052181e-09  1.55908345e+00  1.30052181e-09  1.55825405e+00                                 
 1.71234699e-09  7.50680559e-01  1.71234699e-09  6.86357149e-01  1.71234699e-09  1.53539507e+00  1.71234699e-09  1.80000000e+00  1.71234699e-09  7.62708926e-03  1.71234699e-09  6.96978768e-01  1.71234699e-09  1.55891729e+00  1.71234699e-09  1.55830084e+00                                 
 2.36059289e-09  7.50545642e-01  2.36059289e-09  6.86317787e-01  2.36059289e-09  1.53286485e+00  2.36059289e-09  1.80000000e+00  2.36059289e-09 -7.32186594e-03  2.36059289e-09  6.95423867e-01  2.36059289e-09  1.55743380e+00  2.36059289e-09  1.55842361e+00                                 
 3.04869433e-09  7.50482110e-01  3.04869433e-09  6.86347759e-01  3.04869433e-09  1.53077093e+00  3.04869433e-09  1.80000000e+00  3.04869433e-09  7.08873583e-03  3.04869433e-09  6.94602466e-01  3.04869433e-09  1.55682932e+00  3.04869433e-09  1.55855700e+00                                 
 4.07029511e-09  7.50416058e-01  4.07029511e-09  6.86314230e-01  4.07029511e-09  1.52656982e+00  4.07029511e-09  1.80000000e+00  4.07029511e-09 -6.92716265e-03  4.07029511e-09  6.92570228e-01  4.07029511e-09  1.55493599e+00  4.07029511e-09  1.55874374e+00                                 
 5.56401342e-09  7.50408620e-01  5.56401342e-09  6.86349679e-01  5.56401342e-09  1.52102346e+00  5.56401342e-09  1.80000000e+00  5.56401342e-09  6.82572644e-03  5.56401342e-09  6.91013688e-01  5.56401342e-09  1.55368690e+00  5.56401342e-09  1.55894692e+00                                 
 8.55145002e-09  7.50385679e-01  8.55145002e-09  6.86324800e-01  8.55145002e-09  1.50836099e+00  8.55145002e-09  1.80000000e+00  8.55145002e-09 -6.76237458e-03  8.55145002e-09  6.88097651e-01  8.55145002e-09  1.55103206e+00  8.55145002e-09  1.55911034e+00                                 
 1.18172782e-08  7.50410522e-01  1.18172782e-08  6.86362411e-01  1.18172782e-08  1.49390803e+00  1.18172782e-08  1.80000000e+00  1.18172782e-08  6.73484788e-03  1.18172782e-08  6.87280972e-01  1.18172782e-08  1.55042909e+00  1.18172782e-08  1.55903642e+00                                 
 1.43253177e-08  7.50410707e-01  1.43253177e-08  6.86330597e-01  1.43253177e-08  1.48108421e+00  1.43253177e-08  1.80000000e+00  1.43253177e-08 -6.65045967e-03  1.43253177e-08  6.86539850e-01  1.43253177e-08  1.54966838e+00  1.43253177e-08  1.55889455e+00                                 
 1.72563682e-08  7.50437200e-01  1.72563682e-08  6.86363863e-01  1.72563682e-08  1.46593126e+00  1.72563682e-08  1.80000000e+00  1.72563682e-08  6.62438438e-03  1.72563682e-08  6.86861313e-01  1.72563682e-08  1.55005008e+00  1.72563682e-08  1.55871215e+00                                 
 2.06251541e-08  7.50435021e-01  2.06251541e-08  6.86331068e-01  2.06251541e-08  1.44687254e+00  2.06251541e-08  1.80000000e+00  2.06251541e-08 -6.55333618e-03  2.06251541e-08  6.86546398e-01  2.06251541e-08  1.54965847e+00  2.06251541e-08  1.55850913e+00                                 
 2.53518025e-08  7.50457132e-01  2.53518025e-08  6.86364005e-01  2.53518025e-08  1.41995762e+00  2.53518025e-08  1.80000000e+00  2.53518025e-08  6.54929701e-03  2.53518025e-08  6.87192848e-01  2.53518025e-08  1.55031982e+00  2.53518025e-08  1.55827800e+00                                 
 3.09163506e-08  7.50447463e-01  3.09163506e-08  6.86331040e-01  3.09163506e-08  1.38675707e+00  3.09163506e-08  1.80000000e+00  3.09163506e-08 -6.49493335e-03  3.09163506e-08  6.87069338e-01  3.09163506e-08  1.55009699e+00  3.09163506e-08  1.55808048e+00                                 
 3.92047866e-08  7.50460903e-01  3.92047866e-08  6.86363893e-01  3.92047866e-08  1.33759544e+00  3.92047866e-08  1.80000000e+00  3.92047866e-08  6.50511248e-03  3.92047866e-08  6.87793923e-01  3.92047866e-08  1.55083024e+00  3.92047866e-08  1.55791788e+00                                 
 5.06178271e-08  7.50445643e-01  5.06178271e-08  6.86330822e-01  5.06178271e-08  1.26891963e+00  5.06178271e-08  1.80000000e+00  5.06178271e-08 -6.46429172e-03  5.06178271e-08  6.87637528e-01  5.06178271e-08  1.55058584e+00  5.06178271e-08  1.55783720e+00                                 
 7.12531902e-08  7.50456797e-01  7.12531902e-08  6.86363691e-01  7.12531902e-08  1.14613152e+00  7.12531902e-08  1.80000000e+00  7.12531902e-08  6.48515384e-03  7.12531902e-08  6.88223585e-01  7.12531902e-08  1.55120613e+00  7.12531902e-08  1.55786244e+00                                 
 1.03139782e-07  7.50442669e-01  1.03139782e-07  6.86330690e-01  1.03139782e-07  9.57877368e-01  1.03139782e-07  1.80000000e+00  1.03139782e-07 -6.45237270e-03  1.03139782e-07  6.87864133e-01  1.03139782e-07  1.55078902e+00  1.03139782e-07  1.55795320e+00                                 
 1.35582595e-07  7.50455378e-01  1.35582595e-07  6.86363620e-01  1.35582595e-07  7.85498847e-01  1.35582595e-07  1.80000000e+00  1.35582595e-07  6.47724500e-03  1.35582595e-07  6.88268170e-01  1.35582595e-07  1.55124746e+00  1.35582595e-07  1.55800045e+00                                 
 1.64900721e-07  7.50446229e-01  1.64900721e-07  6.86330902e-01  1.64900721e-07  6.99484925e-01  1.64900721e-07  1.80000000e+00  1.64900721e-07 -6.43992632e-03  1.64900721e-07  6.87868580e-01  1.64900721e-07  1.55079170e+00  1.64900721e-07  1.55801024e+00                                 
 1.89214173e-07  7.50451778e-01  1.89214173e-07  6.86363509e-01  1.89214173e-07  6.89937559e-01  1.89214173e-07  1.80000000e+00  1.89214173e-07  6.46829609e-03  1.89214173e-07  6.88275955e-01  1.89214173e-07  1.55125248e+00  1.89214173e-07  1.55801834e+00                                 
 2.07583945e-07  7.50444700e-01  2.07583945e-07  6.86330724e-01  2.07583945e-07  6.89866950e-01  2.07583945e-07  1.80000000e+00  2.07583945e-07 -6.42624205e-03  2.07583945e-07  6.87865572e-01  2.07583945e-07  1.55078782e+00  2.07583945e-07  1.55801647e+00                                 
 2.28017348e-07  7.50454277e-01  2.28017348e-07  6.86363649e-01  2.28017348e-07  6.89901628e-01  2.28017348e-07  1.80000000e+00  2.28017348e-07  6.45359247e-03  2.28017348e-07  6.88272353e-01  2.28017348e-07  1.55124783e+00  2.28017348e-07  1.55801865e+00                                 
 2.60073809e-07  7.50444119e-01  2.60073809e-07  6.86330721e-01  2.60073809e-07  6.89761324e-01  2.60073809e-07  1.80000000e+00  2.60073809e-07 -6.41486885e-03  2.60073809e-07  6.87865267e-01  2.60073809e-07  1.55078573e+00  2.60073809e-07  1.55801442e+00                                 
 3.24186732e-07  7.50454757e-01  3.24186732e-07  6.86363650e-01  3.24186732e-07  6.89899780e-01  3.24186732e-07  1.80000000e+00  3.24186732e-07  6.44691924e-03  3.24186732e-07  6.88272093e-01  3.24186732e-07  1.55124407e+00  3.24186732e-07  1.55801491e+00                                 
 4.52412577e-07  7.50443938e-01  4.52412577e-07  6.86330723e-01  4.52412577e-07  6.89752710e-01  4.52412577e-07  1.80000000e+00  4.52412577e-07 -6.41147414e-03  4.52412577e-07  6.87865306e-01  4.52412577e-07  1.55077886e+00  4.52412577e-07  1.55800734e+00                                 
 7.08864266e-07  7.50454843e-01  7.08864266e-07  6.86363649e-01  7.08864266e-07  6.89903620e-01  7.08864266e-07  1.80000000e+00  7.08864266e-07  6.44525921e-03  7.08864266e-07  6.88272077e-01  7.08864266e-07  1.55123019e+00  7.08864266e-07  1.55800109e+00                                 
 1.22176765e-06  7.50443897e-01  1.22176765e-06  6.86330725e-01  1.22176765e-06  6.89750860e-01  1.22176765e-06  1.80000000e+00  1.22176765e-06 -6.41065293e-03  1.22176765e-06  6.87865314e-01  1.22176765e-06  1.55075116e+00  1.22176765e-06  1.55797966e+00                                 
 2.22176765e-06  7.50454863e-01  2.22176765e-06  6.86363649e-01  2.22176765e-06  6.89904534e-01  2.22176765e-06  1.80000000e+00  2.22176765e-06  6.44484336e-03  2.22176765e-06  6.88272073e-01  2.22176765e-06  1.55117571e+00  2.22176765e-06  1.55794669e+00                                 
 3.22176765e-06  7.50443883e-01  3.22176765e-06  6.86330725e-01  3.22176765e-06  6.89750248e-01  3.22176765e-06  1.80000000e+00  3.22176765e-06 -6.41055653e-03  3.22176765e-06  6.87865316e-01  3.22176765e-06  1.55067914e+00  3.22176765e-06  1.55790775e+00                                 
 4.22176765e-06  7.50454877e-01  4.22176765e-06  6.86363648e-01  4.22176765e-06  6.89905145e-01  4.22176765e-06  1.80000000e+00  4.22176765e-06  6.44458699e-03  4.22176765e-06  6.88272071e-01  4.22176765e-06  1.55110367e+00  4.22176765e-06  1.55787476e+00                                 
 5.22176765e-06  7.50443869e-01  5.22176765e-06  6.86330725e-01  5.22176765e-06  6.89749641e-01  5.22176765e-06  1.80000000e+00  5.22176765e-06 -6.41027568e-03  5.22176765e-06  6.87865319e-01  5.22176765e-06  1.55060711e+00  5.22176765e-06  1.55783581e+00                                 
 6.22176765e-06  7.50454891e-01  6.22176765e-06  6.86363648e-01  6.22176765e-06  6.89905745e-01  6.22176765e-06  1.80000000e+00  6.22176765e-06  6.44430325e-03  6.22176765e-06  6.88272069e-01  6.22176765e-06  1.55103164e+00  6.22176765e-06  1.55780284e+00                                 
 7.22176765e-06  7.50443855e-01  7.22176765e-06  6.86330726e-01  7.22176765e-06  6.89749042e-01  7.22176765e-06  1.80000000e+00  7.22176765e-06 -6.40999485e-03  7.22176765e-06  6.87865321e-01  7.22176765e-06  1.55053513e+00  7.22176765e-06  1.55776393e+00                                 
 8.22176765e-06  7.50454904e-01  8.22176765e-06  6.86363648e-01  8.22176765e-06  6.89906337e-01  8.22176765e-06  1.80000000e+00  8.22176765e-06  6.44401953e-03  8.22176765e-06  6.88272066e-01  8.22176765e-06  1.55095967e+00  8.22176765e-06  1.55773098e+00                                 
 9.22176765e-06  7.50443842e-01  9.22176765e-06  6.86330726e-01  9.22176765e-06  6.89748452e-01  9.22176765e-06  1.80000000e+00  9.22176765e-06 -6.40971403e-03  9.22176765e-06  6.87865323e-01  9.22176765e-06  1.55046317e+00  9.22176765e-06  1.55769207e+00                                 
 1.00005000e-05  7.50454919e-01  1.00005000e-05  6.86363647e-01  1.00005000e-05  6.89907004e-01  1.00005000e-05  1.80000000e+00  1.00005000e-05  6.44369754e-03  1.00005000e-05  6.88272063e-01  1.00005000e-05  1.55089569e+00  1.00005000e-05  1.55766709e+00                                 
 1.00005500e-05  7.50413026e-01  1.00005500e-05  6.86157767e-01  1.00005500e-05  6.88016682e-01  1.00005500e-05  1.62000000e+00  1.00005500e-05  5.49274575e-04  1.00005500e-05  6.86557803e-01  1.00005500e-05  1.54934679e+00  1.00005500e-05  1.55764652e+00                                 
 1.00006500e-05  7.50436970e-01  1.00006500e-05  6.86132993e-01  1.00006500e-05  6.88021347e-01  1.00006500e-05  1.26000000e+00  1.00006500e-05 -4.91000545e-04  1.00006500e-05  6.86197757e-01  1.00006500e-05  1.54902376e+00  1.00006500e-05  1.55766796e+00                                 
 1.00008500e-05  7.50484221e-01  1.00008500e-05  6.86330777e-01  1.00008500e-05  6.90313110e-01  1.00008500e-05  5.40000000e-01  1.00008500e-05 -3.11371163e-03  1.00008500e-05  6.87214182e-01  1.00008500e-05  1.54848853e+00  1.00008500e-05  1.55765888e+00                                 
 1.00010000e-05  7.50434816e-01  1.00010000e-05  6.85445450e-01  1.00010000e-05  7.10886172e-01  1.00010000e-05  0.00000000e+00  1.00010000e-05  1.51148964e+00  1.00010000e-05  6.76975054e-01  1.00010000e-05  1.49163418e+00  1.00010000e-05  1.55716601e+00                                 
 1.00010254e-05  7.50452862e-01  1.00010254e-05  6.85119130e-01  1.00010254e-05  7.16841873e-01  1.00010254e-05  0.00000000e+00  1.00010254e-05  1.69013435e+00  1.00010254e-05  6.72969362e-01  1.00010254e-05  1.46513888e+00  1.00010254e-05  1.55699072e+00                                 
 1.00010763e-05  7.50452541e-01  1.00010763e-05  6.84477685e-01  1.00010763e-05  7.22688836e-01  1.00010763e-05  0.00000000e+00  1.00010763e-05  1.82132760e+00  1.00010763e-05  6.65311756e-01  1.00010763e-05  1.40557609e+00  1.00010763e-05  1.55684242e+00                                 
 1.00011780e-05  7.50445590e-01  1.00011780e-05  6.84340967e-01  1.00011780e-05  7.16907014e-01  1.00011780e-05  0.00000000e+00  1.00011780e-05  1.78672823e+00  1.00011780e-05  6.64286130e-01  1.00011780e-05  1.30090497e+00  1.00011780e-05  1.55737566e+00                                 
 1.00013052e-05  7.50452405e-01  1.00013052e-05  6.84654152e-01  1.00013052e-05  7.13425449e-01  1.00013052e-05  0.00000000e+00  1.00013052e-05  1.80702550e+00  1.00013052e-05  6.68766801e-01  1.00013052e-05  1.20046113e+00  1.00013052e-05  1.55774138e+00                                 
 1.00015213e-05  7.50445202e-01  1.00015213e-05  6.84815862e-01  1.00015213e-05  7.09508720e-01  1.00015213e-05  0.00000000e+00  1.00015213e-05  1.79392109e+00  1.00015213e-05  6.69908978e-01  1.00015213e-05  1.05862252e+00  1.00015213e-05  1.55794151e+00                                 
 1.00018305e-05  7.50451727e-01  1.00018305e-05  6.85362616e-01  1.00018305e-05  7.04767656e-01  1.00018305e-05  0.00000000e+00  1.00018305e-05  1.80444542e+00  1.00018305e-05  6.74872979e-01  1.00018305e-05  9.12719895e-01  1.00018305e-05  1.55789619e+00                                 
 1.00022652e-05  7.50445874e-01  1.00022652e-05  6.85913467e-01  1.00022652e-05  6.99471217e-01  1.00022652e-05  0.00000000e+00  1.00022652e-05  1.79572214e+00  1.00022652e-05  6.79191755e-01  1.00022652e-05  7.76798986e-01  1.00022652e-05  1.55737776e+00                                 
 1.00027359e-05  7.50451847e-01  1.00027359e-05  6.86605066e-01  1.00027359e-05  6.93103555e-01  1.00027359e-05  0.00000000e+00  1.00027359e-05  1.80351575e+00  1.00027359e-05  6.86129016e-01  1.00027359e-05  7.14703794e-01  1.00027359e-05  1.55629679e+00                                 
 1.00031272e-05  7.50446486e-01  1.00031272e-05  6.86729367e-01  1.00031272e-05  6.92762775e-01  1.00031272e-05  0.00000000e+00  1.00031272e-05  1.79695931e+00  1.00031272e-05  6.87140503e-01  1.00031272e-05  6.97632879e-01  1.00031272e-05  1.55494294e+00                                 
 1.00036301e-05  7.50451708e-01  1.00036301e-05  6.86878668e-01  1.00036301e-05  6.92071064e-01  1.00036301e-05  0.00000000e+00  1.00036301e-05  1.80266603e+00  1.00036301e-05  6.89335209e-01  1.00036301e-05  6.93735037e-01  1.00036301e-05  1.55283565e+00                                 
 1.00041692e-05  7.50446901e-01  1.00041692e-05  6.86770560e-01  1.00041692e-05  6.94139222e-01  1.00041692e-05  0.00000000e+00  1.00041692e-05  1.79763866e+00  1.00041692e-05  6.88780089e-01  1.00041692e-05  6.92848800e-01  1.00041692e-05  1.55029624e+00                                 
 1.00050772e-05  7.50451610e-01  1.00050772e-05  6.86746740e-01  1.00050772e-05  6.95729822e-01  1.00050772e-05  0.00000000e+00  1.00050772e-05  1.80219889e+00  1.00050772e-05  6.89803240e-01  1.00050772e-05  6.95775264e-01  1.00050772e-05  1.54575990e+00                                 
 1.00064802e-05  7.50447110e-01  1.00064802e-05  6.86556568e-01  1.00064802e-05  7.00500859e-01  1.00064802e-05  0.00000000e+00  1.00064802e-05  1.79790511e+00  1.00064802e-05  6.89027283e-01  1.00064802e-05  6.98886621e-01  1.00064802e-05  1.53836906e+00                                 
 1.00092863e-05  7.50451591e-01  1.00092863e-05  6.86460511e-01  1.00092863e-05  7.07654779e-01  1.00092863e-05  0.00000000e+00  1.00092863e-05  1.80204893e+00  1.00092863e-05  6.89652697e-01  1.00092863e-05  7.07576082e-01  1.00092863e-05  1.52311893e+00                                 
