 time            v(vbep)         time            v(vben)         time            v(vout)         time            v(vphi1)        time            v(vphi2)        time            v(vref)         time            v(voutc)        time            v(voutcc)       yes             currtemp       
 0.00000000e+00  7.38881034e-01  0.00000000e+00  6.75663672e-01  0.00000000e+00  1.53941906e+00  0.00000000e+00  0.00000000e+00  0.00000000e+00  1.80000000e+00  0.00000000e+00  6.77134866e-01  0.00000000e+00  1.53941905e+00  0.00000000e+00  1.54645995e+00  1.00000000e+00  5.00000000e+01 
 1.00000000e-11  7.38906151e-01  1.00000000e-11  6.75735442e-01  1.00000000e-11  1.54019197e+00  1.00000000e-11  1.80000000e-02  1.00000000e-11  1.80025278e+00  1.00000000e-11  6.77668409e-01  1.00000000e-11  1.53989057e+00  1.00000000e-11  1.54647193e+00                                 
 2.00000000e-11  7.38913023e-01  2.00000000e-11  6.75780182e-01  2.00000000e-11  1.54066182e+00  2.00000000e-11  3.60000000e-02  2.00000000e-11  1.80035247e+00  2.00000000e-11  6.78063834e-01  2.00000000e-11  1.54024613e+00  2.00000000e-11  1.54647596e+00                                 
 4.00000000e-11  7.38913035e-01  4.00000000e-11  6.75838966e-01  4.00000000e-11  1.54122140e+00  4.00000000e-11  7.20000000e-02  4.00000000e-11  1.80039003e+00  4.00000000e-11  6.78641985e-01  4.00000000e-11  1.54077490e+00  4.00000000e-11  1.54647630e+00                                 
 8.00000000e-11  7.38901361e-01  8.00000000e-11  6.75876495e-01  8.00000000e-11  1.54132137e+00  8.00000000e-11  1.44000000e-01  8.00000000e-11  1.80018534e+00  8.00000000e-11  6.79091028e-01  8.00000000e-11  1.54120234e+00  8.00000000e-11  1.54646550e+00                                 
 1.60000000e-10  7.38898592e-01  1.60000000e-10  6.75886960e-01  1.60000000e-10  1.54098576e+00  1.60000000e-10  2.88000000e-01  1.60000000e-10  1.80000469e+00  1.60000000e-10  6.79173694e-01  1.60000000e-10  1.54124904e+00  1.60000000e-10  1.54645612e+00                                 
 3.20000000e-10  7.38894372e-01  3.20000000e-10  6.75881327e-01  3.20000000e-10  1.54060777e+00  3.20000000e-10  5.76000000e-01  3.20000000e-10  1.79998543e+00  3.20000000e-10  6.79017982e-01  3.20000000e-10  1.54092149e+00  3.20000000e-10  1.54645142e+00                                 
 6.40000000e-10  7.38810924e-01  6.40000000e-10  6.75483074e-01  6.40000000e-10  1.53864996e+00  6.40000000e-10  1.15200000e+00  6.40000000e-10  1.81080128e+00  6.40000000e-10  6.76568902e-01  6.40000000e-10  1.54524532e+00  6.40000000e-10  1.54647856e+00                                 
 1.00000000e-09  7.39428733e-01  1.00000000e-09  6.75799076e-01  1.00000000e-09  1.51556900e+00  1.00000000e-09  1.80000000e+00  1.00000000e-09  9.76820298e-02  1.00000000e-09  6.89773793e-01  1.00000000e-09  1.54760958e+00  1.00000000e-09  1.54645750e+00                                 
 1.03678503e-09  7.39486039e-01  1.03678503e-09  6.75825348e-01  1.03678503e-09  1.51434943e+00  1.03678503e-09  1.80000000e+00  1.03678503e-09  2.23583977e-02  1.03678503e-09  6.92860612e-01  1.03678503e-09  1.54931210e+00  1.03678503e-09  1.54648980e+00                                 
 1.11035508e-09  7.39626180e-01  1.11035508e-09  6.75881634e-01  1.11035508e-09  1.51298038e+00  1.11035508e-09  1.80000000e+00  1.11035508e-09 -1.06078471e-02  1.11035508e-09  6.96821935e-01  1.11035508e-09  1.55239234e+00  1.11035508e-09  1.54651132e+00                                 
 1.25749519e-09  7.39745888e-01  1.25749519e-09  6.75745339e-01  1.25749519e-09  1.51042872e+00  1.25749519e-09  1.80000000e+00  1.25749519e-09  8.64486325e-03  1.25749519e-09  6.96950383e-01  1.25749519e-09  1.55277186e+00  1.25749519e-09  1.54646352e+00                                 
 1.45418812e-09  7.39718923e-01  1.45418812e-09  6.75723519e-01  1.45418812e-09  1.50977014e+00  1.45418812e-09  1.80000000e+00  1.45418812e-09 -6.65135842e-03  1.45418812e-09  6.96142425e-01  1.45418812e-09  1.55187152e+00  1.45418812e-09  1.54649721e+00                                 
 1.67151264e-09  7.39621441e-01  1.67151264e-09  6.75718784e-01  1.67151264e-09  1.50963154e+00  1.67151264e-09  1.80000000e+00  1.67151264e-09  5.62387039e-03  1.67151264e-09  6.94626474e-01  1.67151264e-09  1.55076134e+00  1.67151264e-09  1.54651487e+00                                 
 2.03456488e-09  7.39370388e-01  2.03456488e-09  6.75671626e-01  2.03456488e-09  1.50953634e+00  2.03456488e-09  1.80000000e+00  2.03456488e-09 -5.06094406e-03  2.03456488e-09  6.92095301e-01  2.03456488e-09  1.54844027e+00  2.03456488e-09  1.54661723e+00                                 
 2.49051100e-09  7.39130929e-01  2.49051100e-09  6.75674667e-01  2.49051100e-09  1.50965474e+00  2.49051100e-09  1.80000000e+00  2.49051100e-09  4.54670171e-03  2.49051100e-09  6.89445166e-01  2.49051100e-09  1.54631966e+00  2.49051100e-09  1.54673782e+00                                 
 3.16417982e-09  7.38892357e-01  3.16417982e-09  6.75629552e-01  3.16417982e-09  1.50895252e+00  3.16417982e-09  1.80000000e+00  3.16417982e-09 -4.37602217e-03  3.16417982e-09  6.85708025e-01  3.16417982e-09  1.54299137e+00  3.16417982e-09  1.54692529e+00                                 
 4.16496787e-09  7.38746247e-01  4.16496787e-09  6.75647371e-01  4.16496787e-09  1.50813397e+00  4.16496787e-09  1.80000000e+00  4.16496787e-09  4.13687019e-03  4.16496787e-09  6.81931987e-01  4.16496787e-09  1.53989768e+00  4.16496787e-09  1.54711142e+00                                 
 5.80944911e-09  7.38662648e-01  5.80944911e-09  6.75623856e-01  5.80944911e-09  1.50532523e+00  5.80944911e-09  1.80000000e+00  5.80944911e-09 -4.07873488e-03  5.80944911e-09  6.77787235e-01  5.80944911e-09  1.53624082e+00  5.80944911e-09  1.54721035e+00                                 
 7.25611808e-09  7.38691344e-01  7.25611808e-09  6.75659565e-01  7.25611808e-09  1.50189989e+00  7.25611808e-09  1.80000000e+00  7.25611808e-09  3.94974020e-03  7.25611808e-09  6.76341623e-01  7.25611808e-09  1.53513387e+00  7.25611808e-09  1.54710478e+00                                 
 8.68322779e-09  7.38720566e-01  8.68322779e-09  6.75637539e-01  8.68322779e-09  1.49669285e+00  8.68322779e-09  1.80000000e+00  8.68322779e-09 -3.85388306e-03  8.68322779e-09  6.75347843e-01  8.68322779e-09  1.53416652e+00  8.68322779e-09  1.54691131e+00                                 
 1.01857689e-08  7.38775699e-01  1.01857689e-08  6.75670132e-01  1.01857689e-08  1.49047096e+00  1.01857689e-08  1.80000000e+00  1.01857689e-08  3.74935024e-03  1.01857689e-08  6.75251608e-01  1.01857689e-08  1.53419640e+00  1.01857689e-08  1.54665346e+00                                 
 1.22744416e-08  7.38817248e-01  1.22744416e-08  6.75645846e-01  1.22744416e-08  1.47978087e+00  1.22744416e-08  1.80000000e+00  1.22744416e-08 -3.68277791e-03  1.22744416e-08  6.74957998e-01  1.22744416e-08  1.53382039e+00  1.22744416e-08  1.54628288e+00                                 
 1.47912518e-08  7.38866642e-01  1.47912518e-08  6.75676430e-01  1.47912518e-08  1.46598425e+00  1.47912518e-08  1.80000000e+00  1.47912518e-08  3.62583367e-03  1.47912518e-08  6.75355495e-01  1.47912518e-08  1.53425498e+00  1.47912518e-08  1.54584950e+00                                 
 1.83069309e-08  7.38881773e-01  1.83069309e-08  6.75649756e-01  1.83069309e-08  1.44484585e+00  1.83069309e-08  1.80000000e+00  1.83069309e-08 -3.58555742e-03  1.83069309e-08  6.75442843e-01  1.83069309e-08  1.53419550e+00  1.83069309e-08  1.54531993e+00                                 
 2.30029673e-08  7.38898799e-01  2.30029673e-08  6.75678458e-01  2.30029673e-08  1.41620519e+00  2.30029673e-08  1.80000000e+00  2.30029673e-08  3.55685204e-03  2.30029673e-08  6.76067128e-01  2.30029673e-08  1.53481341e+00  2.30029673e-08  1.54474067e+00                                 
 3.09111062e-08  7.38886085e-01  3.09111062e-08  6.75650318e-01  3.09111062e-08  1.36675232e+00  3.09111062e-08  1.80000000e+00  3.09111062e-08 -3.53874050e-03  3.09111062e-08  6.76294815e-01  3.09111062e-08  1.53487107e+00  3.09111062e-08  1.54403932e+00                                 
 4.39666454e-08  7.38889951e-01  4.39666454e-08  6.75678072e-01  4.39666454e-08  1.28564185e+00  4.39666454e-08  1.80000000e+00  4.39666454e-08  3.52881958e-03  4.39666454e-08  6.76945628e-01  4.39666454e-08  1.53551387e+00  4.39666454e-08  1.54335826e+00                                 
 7.00777240e-08  7.38876763e-01  7.00777240e-08  6.75649627e-01  7.00777240e-08  1.12370405e+00  7.00777240e-08  1.80000000e+00  7.00777240e-08 -3.52290597e-03  7.00777240e-08  6.76983514e-01  7.00777240e-08  1.53542521e+00  7.00777240e-08  1.54282331e+00                                 
 1.04733712e-07  7.38885402e-01  1.04733712e-07  6.75677702e-01  1.04733712e-07  9.13544516e-01  1.04733712e-07  1.80000000e+00  1.04733712e-07  3.52063065e-03  1.04733712e-07  6.77252678e-01  1.04733712e-07  1.53576126e+00  1.04733712e-07  1.54268230e+00                                 
 1.51401246e-07  7.38877672e-01  1.51401246e-07  6.75649628e-01  1.51401246e-07  7.16535069e-01  1.51401246e-07  1.80000000e+00  1.51401246e-07 -3.51078522e-03  1.51401246e-07  6.77014566e-01  1.51401246e-07  1.53544691e+00  1.51401246e-07  1.54265426e+00                                 
 1.87496090e-07  7.38884899e-01  1.87496090e-07  6.75677884e-01  1.87496090e-07  6.76269464e-01  1.87496090e-07  1.80000000e+00  1.87496090e-07  3.51975312e-03  1.87496090e-07  6.77260261e-01  1.87496090e-07  1.53576376e+00  1.87496090e-07  1.54265113e+00                                 
 2.18162135e-07  7.38875103e-01  2.18162135e-07  6.75649250e-01  2.18162135e-07  6.78684811e-01  2.18162135e-07  1.80000000e+00  2.18162135e-07 -3.50140232e-03  2.18162135e-07  6.77012825e-01  2.18162135e-07  1.53544319e+00  2.18162135e-07  1.54265112e+00                                 
 2.43637305e-07  7.38887201e-01  2.43637305e-07  6.75678138e-01  2.43637305e-07  6.78635651e-01  2.43637305e-07  1.80000000e+00  2.43637305e-07  3.51026825e-03  2.43637305e-07  6.77256243e-01  2.43637305e-07  1.53575822e+00  2.43637305e-07  1.54264758e+00                                 
 2.71254870e-07  7.38874899e-01  2.71254870e-07  6.75649183e-01  2.71254870e-07  6.78615975e-01  2.71254870e-07  1.80000000e+00  2.71254870e-07 -3.49157906e-03  2.71254870e-07  6.77013709e-01  2.71254870e-07  1.53544222e+00  2.71254870e-07  1.54264764e+00                                 
 3.26489998e-07  7.38887117e-01  3.26489998e-07  6.75678149e-01  3.26489998e-07  6.78677780e-01  3.26489998e-07  1.80000000e+00  3.26489998e-07  3.50315369e-03  3.26489998e-07  6.77255877e-01  3.26489998e-07  1.53575495e+00  3.26489998e-07  1.54264420e+00                                 
 4.09303569e-07  7.38874992e-01  4.09303569e-07  6.75649186e-01  4.09303569e-07  6.78596626e-01  4.09303569e-07  1.80000000e+00  4.09303569e-07 -3.48764953e-03  4.09303569e-07  6.77013862e-01  4.09303569e-07  1.53543767e+00  4.09303569e-07  1.54264264e+00                                 
 5.60911762e-07  7.38887050e-01  5.60911762e-07  6.75678145e-01  5.60911762e-07  6.78687967e-01  5.60911762e-07  1.80000000e+00  5.60911762e-07  3.50071062e-03  5.60911762e-07  6.77255798e-01  5.60911762e-07  1.53574681e+00  5.60911762e-07  1.54263619e+00                                 
 8.51606527e-07  7.38875031e-01  8.51606527e-07  6.75649189e-01  8.51606527e-07  6.78591420e-01  8.51606527e-07  1.80000000e+00  8.51606527e-07 -3.48633597e-03  8.51606527e-07  6.77013900e-01  8.51606527e-07  1.53542257e+00  8.51606527e-07  1.54262749e+00                                 
 1.36762881e-06  7.38887028e-01  1.36762881e-06  6.75678143e-01  1.36762881e-06  6.78690554e-01  1.36762881e-06  1.80000000e+00  1.36762881e-06  3.50000718e-03  1.36762881e-06  6.77255779e-01  1.36762881e-06  1.53571914e+00  1.36762881e-06  1.54260859e+00                                 
 2.39967338e-06  7.38875043e-01  2.39967338e-06  6.75649190e-01  2.39967338e-06  6.78590013e-01  2.39967338e-06  1.80000000e+00  2.39967338e-06 -3.48595588e-03  2.39967338e-06  6.77013910e-01  2.39967338e-06  1.53536949e+00  2.39967338e-06  1.54257447e+00                                 
 3.59967338e-06  7.38887021e-01  3.59967338e-06  6.75678142e-01  3.59967338e-06  6.78691389e-01  3.59967338e-06  1.80000000e+00  3.59967338e-06  3.49977200e-03  3.59967338e-06  6.77255773e-01  3.59967338e-06  1.53564254e+00  3.59967338e-06  1.54253211e+00                                 
 4.79967338e-06  7.38875049e-01  4.79967338e-06  6.75649190e-01  4.79967338e-06  6.78589226e-01  4.79967338e-06  1.80000000e+00  4.79967338e-06 -3.48575744e-03  4.79967338e-06  6.77013916e-01  4.79967338e-06  1.53528717e+00  4.79967338e-06  1.54249225e+00                                 
 5.99967338e-06  7.38887014e-01  5.99967338e-06  6.75678142e-01  5.99967338e-06  6.78692147e-01  5.99967338e-06  1.80000000e+00  5.99967338e-06  3.49955407e-03  5.99967338e-06  6.77255767e-01  5.99967338e-06  1.53556029e+00  5.99967338e-06  1.54244997e+00                                 
 6.00100000e-06  7.38876743e-01  6.00100000e-06  6.75649439e-01  6.00100000e-06  6.78515294e-01  6.00100000e-06  1.80000000e+00  6.00100000e-06 -3.38906050e-03  6.00100000e-06  6.77013862e-01  6.00100000e-06  1.53524745e+00  6.00100000e-06  1.54245073e+00                                 
 6.00110000e-06  7.38834333e-01  6.00110000e-06  6.75424391e-01  6.00110000e-06  6.76822569e-01  6.00110000e-06  1.62000000e+00  6.00110000e-06 -3.84743280e-04  6.00110000e-06  6.75555351e-01  6.00110000e-06  1.53404981e+00  6.00110000e-06  1.54244079e+00                                 
 6.00130000e-06  7.38867559e-01  6.00130000e-06  6.75426631e-01  6.00130000e-06  6.77004239e-01  6.00130000e-06  1.26000000e+00  6.00130000e-06  2.48953568e-04  6.00130000e-06  6.75377205e-01  6.00130000e-06  1.53390771e+00  6.00130000e-06  1.54245480e+00                                 
 6.00165473e-06  7.38926523e-01  6.00165473e-06  6.75654763e-01  6.00165473e-06  6.79150412e-01  6.00165473e-06  6.21493815e-01  6.00165473e-06 -1.84205687e-03  6.00165473e-06  6.76142842e-01  6.00165473e-06  1.53190559e+00  6.00165473e-06  1.54243775e+00                                 
 6.00200000e-06  7.38870309e-01  6.00200000e-06  6.74066910e-01  6.00200000e-06  7.10911608e-01  6.00200000e-06  0.00000000e+00  6.00200000e-06  1.59718660e+00  6.00200000e-06  6.59196228e-01  6.00200000e-06  1.34073215e+00  6.00200000e-06  1.54184637e+00                                 
 6.00204076e-06  7.38884653e-01  6.00204076e-06  6.73671475e-01  6.00204076e-06  7.17588682e-01  6.00204076e-06  0.00000000e+00  6.00204076e-06  1.72040501e+00  6.00204076e-06  6.54743126e-01  6.00204076e-06  1.28115323e+00  6.00204076e-06  1.54185657e+00                                 
 6.00212228e-06  7.38883819e-01  6.00212228e-06  6.72933362e-01  6.00212228e-06  7.22487187e-01  6.00212228e-06  0.00000000e+00  6.00212228e-06  1.81334385e+00  6.00212228e-06  6.46712600e-01  6.00212228e-06  1.15729189e+00  6.00212228e-06  1.54221765e+00                                 
 6.00228531e-06  7.38879358e-01  6.00228531e-06  6.72803606e-01  6.00228531e-06  7.13062662e-01  6.00228531e-06  0.00000000e+00  6.00228531e-06  1.78959691e+00  6.00228531e-06  6.46220285e-01  6.00228531e-06  9.59594426e-01  6.00228531e-06  1.54270923e+00                                 
 6.00243519e-06  7.38882011e-01  6.00243519e-06  6.73292574e-01  6.00243519e-06  7.07147771e-01  6.00243519e-06  0.00000000e+00  6.00243519e-06  1.80361460e+00  6.00243519e-06  6.51897099e-01  6.00243519e-06  8.41435589e-01  6.00243519e-06  1.54265971e+00                                 
 6.00262497e-06  7.38878273e-01  6.00262497e-06  6.74101105e-01  6.00262497e-06  6.95907070e-01  6.00262497e-06  0.00000000e+00  6.00262497e-06  1.79672741e+00  6.00262497e-06  6.59975659e-01  6.00262497e-06  7.47119291e-01  6.00262497e-06  1.54286838e+00                                 
 6.00284873e-06  7.38881680e-01  6.00284873e-06  6.75154616e-01  6.00284873e-06  6.85435149e-01  6.00284873e-06  0.00000000e+00  6.00284873e-06  1.80176913e+00  6.00284873e-06  6.70092604e-01  6.00284873e-06  7.02421830e-01  6.00284873e-06  1.54274210e+00                                 
 6.00304921e-06  7.38878626e-01  6.00304921e-06  6.75619966e-01  6.00304921e-06  6.82075200e-01  6.00304921e-06  0.00000000e+00  6.00304921e-06  1.79898541e+00  6.00304921e-06  6.73612499e-01  6.00304921e-06  6.87632127e-01  6.00304921e-06  1.54245228e+00                                 
 6.00332029e-06  7.38881780e-01  6.00332029e-06  6.76023212e-01  6.00332029e-06  6.79598658e-01  6.00332029e-06  0.00000000e+00  6.00332029e-06  1.80074878e+00  6.00332029e-06  6.76833053e-01  6.00332029e-06  6.81800753e-01  6.00332029e-06  1.54159785e+00                                 
 6.00362036e-06  7.38879304e-01  6.00362036e-06  6.76120574e-01  6.00362036e-06  6.79882041e-01  6.00362036e-06  0.00000000e+00  6.00362036e-06  1.79951748e+00  6.00362036e-06  6.77373505e-01  6.00362036e-06  6.79710812e-01  6.00362036e-06  1.54046656e+00                                 
 6.00414081e-06  7.38882038e-01  6.00414081e-06  6.76185783e-01  6.00414081e-06  6.80234159e-01  6.00414081e-06  0.00000000e+00  6.00414081e-06  1.80041846e+00  6.00414081e-06  6.78322124e-01  6.00414081e-06  6.80442247e-01  6.00414081e-06  1.53808550e+00                                 
 6.00487211e-06  7.38879796e-01  6.00487211e-06  6.76103250e-01  6.00487211e-06  6.82470075e-01  6.00487211e-06  0.00000000e+00  6.00487211e-06  1.79966564e+00  6.00487211e-06  6.78154792e-01  6.00487211e-06  6.81780068e-01  6.00487211e-06  1.53446777e+00                                 
 6.00633470e-06  7.38882167e-01  6.00633470e-06  6.76021001e-01  6.00633470e-06  6.85927803e-01  6.00633470e-06  0.00000000e+00  6.00633470e-06  1.80033230e+00  6.00633470e-06  6.78604676e-01  6.00633470e-06  6.85989923e-01  6.00633470e-06  1.52662752e+00                                 
 6.00925990e-06  7.38879885e-01  6.00925990e-06  6.75807544e-01  6.00925990e-06  6.94448032e-01  6.00925990e-06  0.00000000e+00  6.00925990e-06  1.79970350e+00  6.00925990e-06  6.78179949e-01  6.00925990e-06  6.93683513e-01  6.00925990e-06  1.51019564e+00                                 
 6.01511029e-06  7.38882153e-01  6.01511029e-06  6.75665011e-01  6.01511029e-06  7.09935502e-01  6.01511029e-06  0.00000000e+00  6.01511029e-06  1.80031284e+00  6.01511029e-06  6.78167223e-01  6.01511029e-06  7.09983982e-01  6.01511029e-06  1.47657161e+00                                 
 6.02681108e-06  7.38879905e-01  6.02681108e-06  6.75630662e-01  6.02681108e-06  7.40793516e-01  6.02681108e-06  0.00000000e+00  6.02681108e-06  1.79971168e+00  6.02681108e-06  6.77389010e-01  6.02681108e-06  7.39912929e-01  6.02681108e-06  1.41268589e+00                                 
 6.04368063e-06  7.38882154e-01  6.04368063e-06  6.75675091e-01  6.04368063e-06  7.81098160e-01  6.04368063e-06  0.00000000e+00  6.04368063e-06  1.80030640e+00  6.04368063e-06  6.77409731e-01  6.04368063e-06  7.81226480e-01  6.04368063e-06  1.32937132e+00                                 
 6.07741974e-06  7.38879913e-01  6.07741974e-06  6.75648551e-01  6.07741974e-06  8.52856665e-01  6.07741974e-06  0.00000000e+00  6.07741974e-06  1.79971185e+00  6.07741974e-06  6.76962711e-01  6.07741974e-06  8.51331724e-01  6.07741974e-06  1.18491974e+00                                 
 6.13499700e-06  7.38882154e-01  6.13499700e-06  6.75678703e-01  6.13499700e-06  9.47496725e-01  6.13499700e-06  0.00000000e+00  6.13499700e-06  1.80030041e+00  6.13499700e-06  6.77285061e-01  6.13499700e-06  9.48338199e-01  6.13499700e-06  1.01654707e+00                                 
 6.25015153e-06  7.38879913e-01  6.25015153e-06  6.75648737e-01  6.25015153e-06  1.06650962e+00  6.25015153e-06  0.00000000e+00  6.25015153e-06  1.79970666e+00  6.25015153e-06  6.76969965e-01  6.25015153e-06  1.06401437e+00  6.25015153e-06  1.01340897e+00                                 
