 time            v(vbep)         time            v(vben)         time            v(vout)         time            v(vphi1)        time            v(vphi2)        time            v(vref)         yes             currtemp       
 0.00000000e+00  6.37506615e-01  0.00000000e+00  5.77918632e-01  0.00000000e+00  8.86784738e-01  0.00000000e+00  0.00000000e+00  0.00000000e+00  1.79995811e+00  0.00000000e+00  5.00000000e-01  1.00000000e+00  5.30000000e+01 
 5.00000000e-12  6.37478493e-01  5.00000000e-12  5.77895334e-01  5.00000000e-12  8.87527724e-01  5.00000000e-12  1.80000000e-02  5.00000000e-12  1.80006164e+00  5.00000000e-12  5.00000000e-01                                 
 1.00000000e-11  6.37451056e-01  1.00000000e-11  5.77872628e-01  1.00000000e-11  8.88198091e-01  1.00000000e-11  3.60000000e-02  1.00000000e-11  1.80011523e+00  1.00000000e-11  5.00000000e-01                                 
 2.00000000e-11  6.37396586e-01  2.00000000e-11  5.77827385e-01  2.00000000e-11  8.89422060e-01  2.00000000e-11  7.20000000e-02  2.00000000e-11  1.80016523e+00  2.00000000e-11  5.00000000e-01                                 
 4.00000000e-11  6.37288346e-01  4.00000000e-11  5.77737234e-01  4.00000000e-11  8.91338468e-01  4.00000000e-11  1.44000000e-01  4.00000000e-11  1.80013744e+00  4.00000000e-11  5.00000000e-01                                 
 8.00000000e-11  6.37072864e-01  8.00000000e-11  5.77557687e-01  8.00000000e-11  8.93783849e-01  8.00000000e-11  2.88000000e-01  8.00000000e-11  1.80007291e+00  8.00000000e-11  5.00000000e-01                                 
 1.60000000e-10  6.36646173e-01  1.60000000e-10  5.77201579e-01  1.60000000e-10  8.96016265e-01  1.60000000e-10  5.76000000e-01  1.60000000e-10  1.80001730e+00  1.60000000e-10  5.00000000e-01                                 
 3.20000000e-10  6.35808914e-01  3.20000000e-10  5.76500890e-01  3.20000000e-10  8.89453289e-01  3.20000000e-10  1.15200000e+00  3.20000000e-10  1.80039238e+00  3.20000000e-10  5.00000000e-01                                 
 5.00000000e-10  6.34891868e-01  5.00000000e-10  5.75730387e-01  5.00000000e-10  1.05002102e+00  5.00000000e-10  1.80000000e+00  5.00000000e-10  1.23919983e-01  5.00000000e-10  5.00000000e-01                                 
 5.21856503e-10  6.34782450e-01  5.21856503e-10  5.75638224e-01  5.21856503e-10  1.08849430e+00  5.21856503e-10  1.80000000e+00  5.21856503e-10  2.51134845e-02  5.21856503e-10  5.00000000e-01                                 
 5.65569509e-10  6.34564325e-01  5.65569509e-10  5.75454402e-01  5.65569509e-10  1.16060061e+00  5.65569509e-10  1.80000000e+00  5.65569509e-10 -1.16290993e-02  5.65569509e-10  5.00000000e-01                                 
 6.52995521e-10  6.34132393e-01  6.52995521e-10  5.75089883e-01  6.52995521e-10  1.28521642e+00  6.52995521e-10  1.80000000e+00  6.52995521e-10  9.57328299e-03  6.52995521e-10  5.00000000e-01                                 
 7.75224345e-10  6.33537949e-01  7.75224345e-10  5.74587098e-01  7.75224345e-10  1.43267847e+00  7.75224345e-10  1.80000000e+00  7.75224345e-10 -8.27041453e-03  7.75224345e-10  5.00000000e-01                                 
 9.68681645e-10  6.32618666e-01  9.68681645e-10  5.73807046e-01  9.68681645e-10  1.61424729e+00  9.68681645e-10  1.80000000e+00  9.68681645e-10  7.73046792e-03  9.68681645e-10  5.00000000e-01                                 
 1.35559624e-09  6.30854045e-01  1.35559624e-09  5.72301335e-01  1.35559624e-09  1.82862202e+00  1.35559624e-09  1.80000000e+00  1.35559624e-09 -7.29128484e-03  1.35559624e-09  5.00000000e-01                                 
 1.66535193e-09  6.29507987e-01  1.66535193e-09  5.71145309e-01  1.66535193e-09  1.90110176e+00  1.66535193e-09  1.80000000e+00  1.66535193e-09  7.03252176e-03  1.66535193e-09  5.00000000e-01                                 
 1.97340181e-09  6.28223027e-01  1.97340181e-09  5.70035895e-01  1.97340181e-09  1.93156233e+00  1.97340181e-09  1.80000000e+00  1.97340181e-09 -6.59873947e-03  1.97340181e-09  5.00000000e-01                                 
 2.30152786e-09  6.26908713e-01  2.30152786e-09  5.68895345e-01  2.30152786e-09  1.94430631e+00  2.30152786e-09  1.80000000e+00  2.30152786e-09  6.35785089e-03  2.30152786e-09  5.00000000e-01                                 
 2.76714369e-09  6.25131493e-01  2.76714369e-09  5.67344062e-01  2.76714369e-09  1.94927467e+00  2.76714369e-09  1.80000000e+00  2.76714369e-09 -6.09005936e-03  2.76714369e-09  5.00000000e-01                                 
 3.37009156e-09  6.22967980e-01  3.37009156e-09  5.65441944e-01  3.37009156e-09  1.94895421e+00  3.37009156e-09  1.80000000e+00  3.37009156e-09  5.98429896e-03  3.37009156e-09  5.00000000e-01                                 
 4.33023574e-09  6.19799053e-01  4.33023574e-09  5.62630211e-01  4.33023574e-09  1.94606205e+00  4.33023574e-09  1.80000000e+00  4.33023574e-09 -5.84391192e-03  4.33023574e-09  5.00000000e-01                                 
 5.81509433e-09  6.15445908e-01  5.81509433e-09  5.58720859e-01  5.81509433e-09  1.94192459e+00  5.81509433e-09  1.80000000e+00  5.81509433e-09  5.82608936e-03  5.81509433e-09  5.00000000e-01                                 
 8.78481152e-09  6.08179639e-01  8.78481152e-09  5.52089546e-01  8.78481152e-09  1.93426720e+00  8.78481152e-09  1.80000000e+00  8.78481152e-09 -5.74862375e-03  8.78481152e-09  5.00000000e-01                                 
 1.03613733e-08  6.04938106e-01  1.03613733e-08  5.49087242e-01  1.03613733e-08  1.93089531e+00  1.03613733e-08  1.80000000e+00  1.03613733e-08  5.73118304e-03  1.03613733e-08  5.00000000e-01                                 
 1.15778734e-08  6.02648471e-01  1.15778734e-08  5.46953369e-01  1.15778734e-08  1.92839029e+00  1.15778734e-08  1.80000000e+00  1.15778734e-08 -5.62441200e-03  1.15778734e-08  5.00000000e-01                                 
 1.27632633e-08  6.00565563e-01  1.27632633e-08  5.45003694e-01  1.27632633e-08  1.92617601e+00  1.27632633e-08  1.80000000e+00  1.27632633e-08  5.58270938e-03  1.27632633e-08  5.00000000e-01                                 
 1.46497410e-08  5.97502064e-01  1.46497410e-08  5.42123397e-01  1.46497410e-08  1.92269043e+00  1.46497410e-08  1.80000000e+00  1.46497410e-08 -5.50722317e-03  1.46497410e-08  5.00000000e-01                                 
 1.71106093e-08  5.93887338e-01  1.71106093e-08  5.38708071e-01  1.71106093e-08  1.91855894e+00  1.71106093e-08  1.80000000e+00  1.71106093e-08  5.50092766e-03  1.71106093e-08  5.00000000e-01                                 
 2.01205609e-08  5.89925558e-01  2.01205609e-08  5.34948807e-01  2.01205609e-08  1.91373424e+00  2.01205609e-08  1.80000000e+00  2.01205609e-08 -5.44485745e-03  2.01205609e-08  5.00000000e-01                                 
 2.43381660e-08  5.84992938e-01  2.43381660e-08  5.30256127e-01  2.43381660e-08  1.90752219e+00  2.43381660e-08  1.80000000e+00  2.43381660e-08  5.45235973e-03  2.43381660e-08  5.00000000e-01                                 
 3.01275883e-08  5.78868153e-01  3.01275883e-08  5.24457669e-01  3.01275883e-08  1.89835625e+00  3.01275883e-08  1.80000000e+00  3.01275883e-08 -5.41035269e-03  3.01275883e-08  5.00000000e-01                                 
 4.17064330e-08  5.67552723e-01  4.17064330e-08  5.13929912e-01  4.17064330e-08  1.87441784e+00  4.17064330e-08  1.80000000e+00  4.17064330e-08  5.43053803e-03  4.17064330e-08  5.00000000e-01                                 
 6.17257310e-08  5.53180692e-01  6.17257310e-08  5.00497226e-01  6.17257310e-08  1.83007994e+00  6.17257310e-08  1.80000000e+00  6.17257310e-08 -5.39863241e-03  6.17257310e-08  5.00000000e-01                                 
 8.13070572e-08  5.42140041e-01  8.13070572e-08  4.90267213e-01  8.13070572e-08  1.79242833e+00  8.13070572e-08  1.80000000e+00  8.13070572e-08  5.42228988e-03  8.13070572e-08  5.00000000e-01                                 
 1.08460693e-07  5.35563130e-01  1.08460693e-07  4.83433864e-01  1.08460693e-07  1.75723214e+00  1.08460693e-07  1.80000000e+00  1.08460693e-07 -5.39101203e-03  1.08460693e-07  5.00000000e-01                                 
 1.40837956e-07  5.35738834e-01  1.40837956e-07  4.82021149e-01  1.40837956e-07  1.74214798e+00  1.40837956e-07  1.80000000e+00  1.40837956e-07  5.41691613e-03  1.40837956e-07  5.00000000e-01                                 
 1.61856147e-07  5.33116904e-01  1.61856147e-07  4.79107561e-01  1.61856147e-07  1.71858051e+00  1.61856147e-07  1.80000000e+00  1.61856147e-07 -5.38472184e-03  1.61856147e-07  5.00000000e-01                                 
 1.86997750e-07  5.28355303e-01  1.86997750e-07  4.74463525e-01  1.86997750e-07  1.68848595e+00  1.86997750e-07  1.80000000e+00  1.86997750e-07  5.40961860e-03  1.86997750e-07  5.00000000e-01                                 
 2.10777235e-07  5.22983988e-01  2.10777235e-07  4.69483252e-01  2.10777235e-07  1.65963830e+00  2.10777235e-07  1.80000000e+00  2.10777235e-07 -5.37804206e-03  2.10777235e-07  5.00000000e-01                                 
 2.37100105e-07  5.15209310e-01  2.37100105e-07  4.62614262e-01  2.37100105e-07  1.62628962e+00  2.37100105e-07  1.80000000e+00  2.37100105e-07  5.40290914e-03  2.37100105e-07  5.00000000e-01                                 
 2.80464797e-07  5.03078788e-01  2.80464797e-07  4.52006665e-01  2.80464797e-07  1.57066026e+00  2.80464797e-07  1.80000000e+00  2.80464797e-07 -5.37294909e-03  2.80464797e-07  5.00000000e-01                                 
 3.35534051e-07  4.88107936e-01  3.35534051e-07  4.39134161e-01  3.35534051e-07  1.50001287e+00  3.35534051e-07  1.80000000e+00  3.35534051e-07  5.39951351e-03  3.35534051e-07  5.00000000e-01                                 
 4.45672559e-07  4.51829122e-01  4.45672559e-07  4.09011846e-01  4.45672559e-07  1.35038528e+00  4.45672559e-07  1.80000000e+00  4.45672559e-07 -5.37084255e-03  4.45672559e-07  5.00000000e-01                                 
 5.64698296e-07  4.13083606e-01  5.64698296e-07  3.77477508e-01  5.64698296e-07  1.18849627e+00  5.64698296e-07  1.80000000e+00  5.64698296e-07  5.39809298e-03  5.64698296e-07  5.00000000e-01                                 
 5.79919766e-07  4.05487843e-01  5.79919766e-07  3.71377892e-01  5.79919766e-07  1.16499336e+00  5.79919766e-07  1.80000000e+00  5.79919766e-07  3.21902547e-06  5.79919766e-07  5.00000000e-01                                 
 6.10362708e-07  3.92873798e-01  6.10362708e-07  3.61254913e-01  6.10362708e-07  1.12081544e+00  6.10362708e-07  1.80000000e+00  6.10362708e-07  5.20868239e-07  6.10362708e-07  5.00000000e-01                                 
 6.50081901e-07  4.23508378e-01  6.50081901e-07  3.85796372e-01  6.50081901e-07  1.10864944e+00  6.50081901e-07  1.80000000e+00  6.50081901e-07  4.30557379e-06  6.50081901e-07  5.00000000e-01                                 
 6.96656249e-07  6.75227222e-01  6.96656249e-07  6.12403175e-01  6.96656249e-07  1.30109373e+00  6.96656249e-07  1.80000000e+00  6.96656249e-07  5.86271413e-06  6.96656249e-07  5.00000000e-01                                 
 7.31461354e-07  7.41421908e-01  7.31461354e-07  6.76875511e-01  7.31461354e-07  1.33095230e+00  7.31461354e-07  1.80000000e+00  7.31461354e-07  1.44441497e-06  7.31461354e-07  5.00000000e-01                                 
 7.64943127e-07  7.63890193e-01  7.64943127e-07  6.95949866e-01  7.64943127e-07  1.31417303e+00  7.64943127e-07  1.80000000e+00  7.64943127e-07  3.42293009e-06  7.64943127e-07  5.00000000e-01                                 
 7.97616398e-07  7.65781827e-01  7.97616398e-07  6.97591911e-01  7.97616398e-07  1.28476689e+00  7.97616398e-07  1.80000000e+00  7.97616398e-07  1.05194209e-06  7.97616398e-07  5.00000000e-01                                 
 8.33345883e-07  7.64692670e-01  8.33345883e-07  6.96625303e-01  8.33345883e-07  1.24300116e+00  8.33345883e-07  1.80000000e+00  8.33345883e-07  2.85118284e-06  8.33345883e-07  5.00000000e-01                                 
 8.80833575e-07  7.65772193e-01  8.80833575e-07  6.97572601e-01  8.80833575e-07  1.19695834e+00  8.80833575e-07  1.80000000e+00  8.80833575e-07  1.41346606e-06  8.80833575e-07  5.00000000e-01                                 
 9.32051081e-07  7.60010932e-01  9.32051081e-07  6.92782915e-01  9.32051081e-07  1.13463684e+00  9.32051081e-07  1.80000000e+00  9.32051081e-07  2.46903232e-06  9.32051081e-07  5.00000000e-01                                 
 9.83611135e-07  7.33536540e-01  9.83611135e-07  6.69931518e-01  9.83611135e-07  1.05962135e+00  9.83611135e-07  1.80000000e+00  9.83611135e-07  9.66960205e-07  9.83611135e-07  5.00000000e-01                                 
 1.03743259e-06  7.22715642e-01  1.03743259e-06  6.59785767e-01  1.03743259e-06  9.95530002e-01  1.03743259e-06  1.80000000e+00  1.03743259e-06  2.78526246e-06  1.03743259e-06  5.00000000e-01                                 
 1.08776982e-06  7.52234571e-01  1.08776982e-06  6.86253683e-01  1.08776982e-06  9.82327112e-01  1.08776982e-06  1.80000000e+00  1.08776982e-06  2.25511643e-06  1.08776982e-06  5.00000000e-01                                 
 1.14133979e-06  7.57641373e-01  1.14133979e-06  6.90816757e-01  1.14133979e-06  9.43254100e-01  1.14133979e-06  1.80000000e+00  1.14133979e-06  2.01661993e-06  1.14133979e-06  5.00000000e-01                                 
 1.19609097e-06  7.44107007e-01  1.19609097e-06  6.79264887e-01  1.19609097e-06  8.96135913e-01  1.19609097e-06  1.80000000e+00  1.19609097e-06  1.76912519e-06  1.19609097e-06  5.00000000e-01                                 
 1.26238387e-06  7.35744500e-01  1.26238387e-06  6.71760972e-01  1.26238387e-06  8.45950814e-01  1.26238387e-06  1.80000000e+00  1.26238387e-06  2.14242043e-06  1.26238387e-06  5.00000000e-01                                 
 1.33661700e-06  7.53946272e-01  1.33661700e-06  6.87707942e-01  1.33661700e-06  8.19217923e-01  1.33661700e-06  1.80000000e+00  1.33661700e-06  2.36256119e-06  1.33661700e-06  5.00000000e-01                                 
 1.41374200e-06  7.45390510e-01  1.41374200e-06  6.80353667e-01  1.41374200e-06  7.65668699e-01  1.41374200e-06  1.80000000e+00  1.41374200e-06  1.59927173e-06  1.41374200e-06  5.00000000e-01                                 
 1.49277380e-06  7.41618737e-01  1.49277380e-06  6.77025712e-01  1.49277380e-06  7.20010802e-01  1.49277380e-06  1.80000000e+00  1.49277380e-06  2.45365251e-06  1.49277380e-06  5.00000000e-01                                 
 1.59743424e-06  7.49591719e-01  1.59743424e-06  6.83985764e-01  1.59743424e-06  6.69890226e-01  1.59743424e-06  1.80000000e+00  1.59743424e-06  1.78382252e-06  1.59743424e-06  5.00000000e-01                                 
 1.73967249e-06  7.44695381e-01  1.73967249e-06  6.79740319e-01  1.73967249e-06  5.94797444e-01  1.73967249e-06  1.80000000e+00  1.73967249e-06  2.29640849e-06  1.73967249e-06  5.00000000e-01                                 
 1.88845005e-06  7.45139941e-01  1.88845005e-06  6.80118626e-01  1.88845005e-06  5.35486277e-01  1.88845005e-06  1.80000000e+00  1.88845005e-06  1.83037259e-06  1.88845005e-06  5.00000000e-01                                 
 2.10951752e-06  7.48374605e-01  2.10951752e-06  6.82937158e-01  2.10951752e-06  4.96998896e-01  2.10951752e-06  1.80000000e+00  2.10951752e-06  2.32406509e-06  2.10951752e-06  5.00000000e-01                                 
 2.14435164e-06  7.45790689e-01  2.14435164e-06  6.80695896e-01  2.14435164e-06  4.92089516e-01  2.14435164e-06  1.80000000e+00  2.14435164e-06  2.00237468e-06  2.14435164e-06  5.00000000e-01                                 
 2.21401987e-06  7.45072224e-01  2.21401987e-06  6.80061419e-01  2.21401987e-06  4.88202270e-01  2.21401987e-06  1.80000000e+00  2.21401987e-06  2.10674139e-06  2.21401987e-06  5.00000000e-01                                 
 2.33486382e-06  7.47271120e-01  2.33486382e-06  6.81980375e-01  2.33486382e-06  4.93955135e-01  2.33486382e-06  1.80000000e+00  2.33486382e-06  2.04936643e-06  2.33486382e-06  5.00000000e-01                                 
 2.35085635e-06  7.46921628e-01  2.35085635e-06  6.81677045e-01  2.35085635e-06  4.95656822e-01  2.35085635e-06  1.80000000e+00  2.35085635e-06  2.04938856e-06  2.35085635e-06  5.00000000e-01                                 
 2.38284141e-06  7.46132355e-01  2.38284141e-06  6.80990805e-01  2.38284141e-06  4.98118974e-01  2.38284141e-06  1.80000000e+00  2.38284141e-06  2.03755150e-06  2.38284141e-06  5.00000000e-01                                 
 2.44681154e-06  7.45628497e-01  2.44681154e-06  6.80549579e-01  2.44681154e-06  4.99930380e-01  2.44681154e-06  1.80000000e+00  2.44681154e-06  2.07261900e-06  2.44681154e-06  5.00000000e-01                                 
 2.57312301e-06  7.46590283e-01  2.57312301e-06  6.81387644e-01  2.57312301e-06  5.00811625e-01  2.57312301e-06  1.80000000e+00  2.57312301e-06  2.06516139e-06  2.57312301e-06  5.00000000e-01                                 
 2.80490959e-06  7.45844002e-01  2.80490959e-06  6.80738683e-01  2.80490959e-06  4.99764067e-01  2.80490959e-06  1.80000000e+00  2.80490959e-06  2.05595975e-06  2.80490959e-06  5.00000000e-01                                 
 3.14501715e-06  7.46352191e-01  3.14501715e-06  6.81180015e-01  3.14501715e-06  5.00495908e-01  3.14501715e-06  1.80000000e+00  3.14501715e-06  2.07230818e-06  3.14501715e-06  5.00000000e-01                                 
 3.82523227e-06  7.46007889e-01  3.82523227e-06  6.80881699e-01  3.82523227e-06  4.99998878e-01  3.82523227e-06  1.80000000e+00  3.82523227e-06  2.05294071e-06  3.82523227e-06  5.00000000e-01                                 
 4.82523227e-06  7.46259672e-01  4.82523227e-06  6.81099400e-01  4.82523227e-06  5.00360765e-01  4.82523227e-06  1.80000000e+00  4.82523227e-06  2.07344633e-06  4.82523227e-06  5.00000000e-01                                 
 5.82523227e-06  7.46082404e-01  5.82523227e-06  6.80946652e-01  5.82523227e-06  5.00106443e-01  5.82523227e-06  1.80000000e+00  5.82523227e-06  2.05230026e-06  5.82523227e-06  5.00000000e-01                                 
 6.82523227e-06  7.46187009e-01  6.82523227e-06  6.81036107e-01  6.82523227e-06  5.00256076e-01  6.82523227e-06  1.80000000e+00  6.82523227e-06  2.07386299e-06  6.82523227e-06  5.00000000e-01                                 
 7.82523227e-06  7.46153206e-01  7.82523227e-06  6.81008329e-01  7.82523227e-06  5.00207186e-01  7.82523227e-06  1.80000000e+00  7.82523227e-06  2.05210154e-06  7.82523227e-06  5.00000000e-01                                 
 8.82523227e-06  7.46118950e-01  8.82523227e-06  6.80976840e-01  8.82523227e-06  5.00159945e-01  8.82523227e-06  1.80000000e+00  8.82523227e-06  2.07385098e-06  8.82523227e-06  5.00000000e-01                                 
 9.82523227e-06  7.46218103e-01  9.82523227e-06  6.81064820e-01  9.82523227e-06  5.00297966e-01  9.82523227e-06  1.80000000e+00  9.82523227e-06  2.05231509e-06  9.82523227e-06  5.00000000e-01                                 
 1.00005000e-05  7.45949123e-01  1.00005000e-05  6.80829073e-01  1.00005000e-05  4.99928227e-01  1.00005000e-05  1.80000000e+00  1.00005000e-05  2.07134485e-06  1.00005000e-05  5.00000000e-01                                 
 1.00005500e-05  7.45949697e-01  1.00005500e-05  6.80829577e-01  1.00005500e-05  4.92185927e-01  1.00005500e-05  1.62000000e+00  1.00005500e-05 -7.97743758e-05  1.00005500e-05  5.00000000e-01                                 
 1.00006500e-05  7.45950861e-01  1.00006500e-05  6.80830593e-01  1.00006500e-05  4.78402027e-01  1.00006500e-05  1.26000000e+00  1.00006500e-05 -6.40649962e-05  1.00006500e-05  5.00000000e-01                                 
 1.00008500e-05  7.45953221e-01  1.00008500e-05  6.80832646e-01  1.00008500e-05  4.76115844e-01  1.00008500e-05  5.40000000e-01  1.00008500e-05 -7.11364458e-04  1.00008500e-05  5.00000000e-01                                 
