 time            v(vbep)         time            v(vben)         time            v(vout)         time            v(vphi1)        time            v(vphi2)        time            v(vref)         time            v(voutc)        time            v(voutcc)       yes             currtemp       
 0.00000000e+00  6.82239750e-01  0.00000000e+00  6.10916101e-01  0.00000000e+00  1.40501165e+00  0.00000000e+00  0.00000000e+00  0.00000000e+00  1.79999998e+00  0.00000000e+00  6.10196634e-01  0.00000000e+00  1.40501164e+00  0.00000000e+00  1.41322973e+00  1.00000000e+00  8.70000000e+01 
 1.00000000e-11  6.82265003e-01  1.00000000e-11  6.10988958e-01  1.00000000e-11  1.40574889e+00  1.00000000e-11  1.80000000e-02  1.00000000e-11  1.80024964e+00  1.00000000e-11  6.10717743e-01  1.00000000e-11  1.40546985e+00  1.00000000e-11  1.41324340e+00                                 
 2.00000000e-11  6.82271713e-01  2.00000000e-11  6.11033295e-01  2.00000000e-11  1.40618323e+00  2.00000000e-11  3.60000000e-02  2.00000000e-11  1.80034540e+00  2.00000000e-11  6.11100631e-01  2.00000000e-11  1.40581054e+00  2.00000000e-11  1.41324816e+00                                 
 4.00000000e-11  6.82271474e-01  4.00000000e-11  6.11090340e-01  4.00000000e-11  1.40668146e+00  4.00000000e-11  7.20000000e-02  4.00000000e-11  1.80037661e+00  4.00000000e-11  6.11656733e-01  4.00000000e-11  1.40631066e+00  4.00000000e-11  1.41324931e+00                                 
 8.00000000e-11  6.82259746e-01  8.00000000e-11  6.11123934e-01  8.00000000e-11  1.40672292e+00  8.00000000e-11  1.44000000e-01  8.00000000e-11  1.80017111e+00  8.00000000e-11  6.12083616e-01  8.00000000e-11  1.40669943e+00  8.00000000e-11  1.41323922e+00                                 
 1.60000000e-10  6.82257011e-01  1.60000000e-10  6.11130567e-01  1.60000000e-10  1.40639146e+00  1.60000000e-10  2.88000000e-01  1.60000000e-10  1.80000463e+00  1.60000000e-10  6.12177628e-01  1.60000000e-10  1.40673454e+00  1.60000000e-10  1.41323048e+00                                 
 3.20000000e-10  6.82251709e-01  3.20000000e-10  6.11117371e-01  3.20000000e-10  1.40602952e+00  3.20000000e-10  5.76000000e-01  3.20000000e-10  1.79998193e+00  3.20000000e-10  6.12026866e-01  3.20000000e-10  1.40640299e+00  3.20000000e-10  1.41322524e+00                                 
 6.40000000e-10  6.82170641e-01  6.40000000e-10  6.10631163e-01  6.40000000e-10  1.40437866e+00  6.40000000e-10  1.15200000e+00  6.40000000e-10  1.80724269e+00  6.40000000e-10  6.08546935e-01  6.40000000e-10  1.40856430e+00  6.40000000e-10  1.41324342e+00                                 
 1.00000000e-09  6.82695182e-01  1.00000000e-09  6.11158915e-01  1.00000000e-09  1.38655187e+00  1.00000000e-09  1.80000000e+00  1.00000000e-09  1.15911466e-01  1.00000000e-09  6.24978903e-01  1.00000000e-09  1.41614078e+00  1.00000000e-09  1.41327230e+00                                 
 1.03818425e-09  6.82781473e-01  1.03818425e-09  6.11134169e-01  1.03818425e-09  1.38469270e+00  1.03818425e-09  1.80000000e+00  1.03818425e-09  2.85231813e-02  1.03818425e-09  6.27718007e-01  1.03818425e-09  1.41748424e+00  1.03818425e-09  1.41327924e+00                                 
 1.11455275e-09  6.82970961e-01  1.11455275e-09  6.11125370e-01  1.11455275e-09  1.38242936e+00  1.11455275e-09  1.80000000e+00  1.11455275e-09 -1.27592292e-02  1.11455275e-09  6.30954988e-01  1.11455275e-09  1.41992626e+00  1.11455275e-09  1.41328388e+00                                 
 1.26728974e-09  6.83090610e-01  1.26728974e-09  6.10957156e-01  1.26728974e-09  1.37915017e+00  1.26728974e-09  1.80000000e+00  1.26728974e-09  9.80864743e-03  1.26728974e-09  6.30108853e-01  1.26728974e-09  1.41950695e+00  1.26728974e-09  1.41324654e+00                                 
 1.45573682e-09  6.83039404e-01  1.45573682e-09  6.10952203e-01  1.45573682e-09  1.37804707e+00  1.45573682e-09  1.80000000e+00  1.45573682e-09 -7.45262477e-03  1.45573682e-09  6.28854828e-01  1.45573682e-09  1.41820358e+00  1.45573682e-09  1.41329450e+00                                 
 1.66380284e-09  6.82916926e-01  1.66380284e-09  6.10952127e-01  1.66380284e-09  1.37753704e+00  1.66380284e-09  1.80000000e+00  1.66380284e-09  6.01866347e-03  1.66380284e-09  6.27132765e-01  1.66380284e-09  1.41692734e+00  1.66380284e-09  1.41334622e+00                                 
 2.04556834e-09  6.82642950e-01  2.04556834e-09  6.10919166e-01  2.04556834e-09  1.37648453e+00  2.04556834e-09  1.80000000e+00  2.04556834e-09 -5.35677935e-03  2.04556834e-09  6.24176943e-01  2.04556834e-09  1.41423351e+00  2.04556834e-09  1.41350846e+00                                 
 2.66218684e-09  6.82354607e-01  2.66218684e-09  6.10930724e-01  2.66218684e-09  1.37465369e+00  2.66218684e-09  1.80000000e+00  2.66218684e-09  4.94534393e-03  2.66218684e-09  6.20397351e-01  2.66218684e-09  1.41115472e+00  2.66218684e-09  1.41375777e+00                                 
 3.74756904e-09  6.82104907e-01  3.74756904e-09  6.10888169e-01  3.74756904e-09  1.36965579e+00  3.74756904e-09  1.80000000e+00  3.74756904e-09 -4.77052128e-03  3.74756904e-09  6.15190204e-01  3.74756904e-09  1.40656542e+00  3.74756904e-09  1.41409970e+00                                 
 5.24994429e-09  6.82042120e-01  5.24994429e-09  6.10908343e-01  5.24994429e-09  1.36189908e+00  5.24994429e-09  1.80000000e+00  5.24994429e-09  4.61750775e-03  5.24994429e-09  6.11370519e-01  5.24994429e-09  1.40345383e+00  5.24994429e-09  1.41426170e+00                                 
 6.55931335e-09  6.82044797e-01  6.55931335e-09  6.10881289e-01  6.55931335e-09  1.35373149e+00  6.55931335e-09  1.80000000e+00  6.55931335e-09 -4.46534515e-03  6.55931335e-09  6.09466840e-01  6.55931335e-09  1.40169930e+00  6.55931335e-09  1.41418691e+00                                 
 7.87098815e-09  6.82093138e-01  7.87098815e-09  6.10914364e-01  7.87098815e-09  1.34495594e+00  7.87098815e-09  1.80000000e+00  7.87098815e-09  4.31908817e-03  7.87098815e-09  6.08836947e-01  7.87098815e-09  1.40129367e+00  7.87098815e-09  1.41399104e+00                                 
 9.25792781e-09  6.82122402e-01  9.25792781e-09  6.10889887e-01  9.25792781e-09  1.33425674e+00  9.25792781e-09  1.80000000e+00  9.25792781e-09 -4.17711129e-03  9.25792781e-09  6.08244432e-01  9.25792781e-09  1.40065493e+00  9.25792781e-09  1.41373582e+00                                 
 1.11735494e-08  6.82182687e-01  1.11735494e-08  6.10924647e-01  1.11735494e-08  1.31886209e+00  1.11735494e-08  1.80000000e+00  1.11735494e-08  4.09020225e-03  1.11735494e-08  6.08345615e-01  1.11735494e-08  1.40085334e+00  1.11735494e-08  1.41335611e+00                                 
 1.34576094e-08  6.82208860e-01  1.34576094e-08  6.10898435e-01  1.34576094e-08  1.29892617e+00  1.34576094e-08  1.80000000e+00  1.34576094e-08 -4.00115767e-03  1.34576094e-08  6.08237948e-01  1.34576094e-08  1.40062161e+00  1.34576094e-08  1.41292774e+00                                 
 1.66441423e-08  6.82248136e-01  1.66441423e-08  6.10930637e-01  1.66441423e-08  1.27060888e+00  1.66441423e-08  1.80000000e+00  1.66441423e-08  3.95807006e-03  1.66441423e-08  6.08740839e-01  1.66441423e-08  1.40114844e+00  1.66441423e-08  1.41240447e+00                                 
 2.08359816e-08  6.82246622e-01  2.08359816e-08  6.10901604e-01  2.08359816e-08  1.23209743e+00  2.08359816e-08  1.80000000e+00  2.08359816e-08 -3.90394253e-03  2.08359816e-08  6.08862999e-01  2.08359816e-08  1.40111062e+00  2.08359816e-08  1.41186261e+00                                 
 2.78374714e-08  6.82258000e-01  2.78374714e-08  6.10932003e-01  2.78374714e-08  1.16806833e+00  2.78374714e-08  1.80000000e+00  2.78374714e-08  3.89247762e-03  2.78374714e-08  6.09527858e-01  2.78374714e-08  1.40177271e+00  2.78374714e-08  1.41124071e+00                                 
 3.83203120e-08  6.82239309e-01  3.83203120e-08  6.10901641e-01  3.83203120e-08  1.07227215e+00  3.83203120e-08  1.80000000e+00  3.83203120e-08 -3.86287176e-03  3.83203120e-08  6.09683846e-01  3.83203120e-08  1.40177304e+00  3.83203120e-08  1.41074518e+00                                 
 5.47803853e-08  6.82245819e-01  5.47803853e-08  6.10931286e-01  5.47803853e-08  9.24969239e-01  5.47803853e-08  1.80000000e+00  5.47803853e-08  3.86669023e-03  5.47803853e-08  6.10181169e-01  5.47803853e-08  1.40230936e+00  5.47803853e-08  1.41046991e+00                                 
 8.57816775e-08  6.82236409e-01  8.57816775e-08  6.10901053e-01  8.57816775e-08  6.90285438e-01  8.57816775e-08  1.80000000e+00  8.57816775e-08 -3.84145890e-03  8.57816775e-08  6.10072132e-01  8.57816775e-08  1.40209987e+00  8.57816775e-08  1.41042964e+00                                 
 1.10046976e-07  6.82246837e-01  1.10046976e-07  6.10931756e-01  1.10046976e-07  6.15534885e-01  1.10046976e-07  1.80000000e+00  1.10046976e-07  3.86520187e-03  1.10046976e-07  6.10327894e-01  1.10046976e-07  1.40243566e+00  1.10046976e-07  1.41047084e+00                                 
 1.34268354e-07  6.82228579e-01  1.34268354e-07  6.10900072e-01  1.34268354e-07  6.10553795e-01  1.34268354e-07  1.80000000e+00  1.34268354e-07 -3.82367339e-03  1.34268354e-07  6.10075236e-01  1.34268354e-07  1.40210285e+00  1.34268354e-07  1.41048606e+00                                 
 1.48403039e-07  6.82249165e-01  1.48403039e-07  6.10932138e-01  1.48403039e-07  6.09511876e-01  1.48403039e-07  1.80000000e+00  1.48403039e-07  3.84713401e-03  1.48403039e-07  6.10319013e-01  1.48403039e-07  1.40242695e+00  1.48403039e-07  1.41048543e+00                                 
 1.68052761e-07  6.82230976e-01  1.68052761e-07  6.10900045e-01  1.68052761e-07  6.09750465e-01  1.68052761e-07  1.80000000e+00  1.68052761e-07 -3.80379238e-03  1.68052761e-07  6.10075464e-01  1.68052761e-07  1.40210224e+00  1.68052761e-07  1.41048645e+00                                 
 2.07352205e-07  6.82248092e-01  2.07352205e-07  6.10932129e-01  2.07352205e-07  6.09335643e-01  2.07352205e-07  1.80000000e+00  2.07352205e-07  3.83462166e-03  2.07352205e-07  6.10317780e-01  2.07352205e-07  1.40242384e+00  2.07352205e-07  1.41048417e+00                                 
 2.61221819e-07  6.82231686e-01  2.61221819e-07  6.10900075e-01  2.61221819e-07  6.09633806e-01  2.61221819e-07  1.80000000e+00  2.61221819e-07 -3.79662428e-03  2.61221819e-07  6.10075505e-01  2.61221819e-07  1.40209942e+00  2.61221819e-07  1.41048332e+00                                 
 3.68961047e-07  6.82247684e-01  3.68961047e-07  6.10932111e-01  3.68961047e-07  6.09356745e-01  3.68961047e-07  1.80000000e+00  3.68961047e-07  3.83006370e-03  3.68961047e-07  6.10317698e-01  3.68961047e-07  1.40241860e+00  3.68961047e-07  1.41047905e+00                                 
 5.54475909e-07  6.82231890e-01  5.54475909e-07  6.10900085e-01  5.54475909e-07  6.09617342e-01  5.54475909e-07  1.80000000e+00  5.54475909e-07 -3.79424955e-03  5.54475909e-07  6.10075544e-01  5.54475909e-07  1.40209022e+00  5.54475909e-07  1.41047405e+00                                 
 8.76043328e-07  6.82247569e-01  8.76043328e-07  6.10932105e-01  8.76043328e-07  6.09360821e-01  8.76043328e-07  1.80000000e+00  8.76043328e-07  3.82867366e-03  8.76043328e-07  6.10317677e-01  8.76043328e-07  1.40240252e+00  8.76043328e-07  1.41046303e+00                                 
 1.47349242e-06  6.82231954e-01  1.47349242e-06  6.10900088e-01  1.47349242e-06  6.09612823e-01  1.47349242e-06  1.80000000e+00  1.47349242e-06 -3.79347317e-03  1.47349242e-06  6.10075555e-01  1.47349242e-06  1.40206116e+00  1.47349242e-06  1.41044500e+00                                 
 2.66839061e-06  6.82247536e-01  2.66839061e-06  6.10932104e-01  2.66839061e-06  6.09361986e-01  2.66839061e-06  1.80000000e+00  2.66839061e-06  3.82826320e-03  2.66839061e-06  6.10317672e-01  2.66839061e-06  1.40234585e+00  2.66839061e-06  1.41040644e+00                                 
 3.86839061e-06  6.82231976e-01  3.86839061e-06  6.10900089e-01  3.86839061e-06  6.09610879e-01  3.86839061e-06  1.80000000e+00  3.86839061e-06 -3.79319836e-03  3.86839061e-06  6.10075559e-01  3.86839061e-06  1.40198550e+00  3.86839061e-06  1.41036943e+00                                 
 5.06839061e-06  6.82247514e-01  5.06839061e-06  6.10932103e-01  5.06839061e-06  6.09361006e-01  5.06839061e-06  1.80000000e+00  5.06839061e-06  3.82799075e-03  5.06839061e-06  6.10317668e-01  5.06839061e-06  1.40227002e+00  5.06839061e-06  1.41033071e+00                                 
 6.00100000e-06  6.82232001e-01  6.00100000e-06  6.10900090e-01  6.00100000e-06  6.09609272e-01  6.00100000e-06  1.80000000e+00  6.00100000e-06 -3.79289070e-03  6.00100000e-06  6.10075562e-01  6.00100000e-06  1.40191812e+00  6.00100000e-06  1.41030212e+00                                 
 6.00110000e-06  6.82187144e-01  6.00110000e-06  6.10678123e-01  6.00110000e-06  6.07981837e-01  6.00110000e-06  1.62000000e+00  6.00110000e-06 -4.53284868e-04  6.00110000e-06  6.08692011e-01  6.00110000e-06  1.40078836e+00  6.00110000e-06  1.41029301e+00                                 
 6.00130000e-06  6.82221868e-01  6.00130000e-06  6.10671174e-01  6.00130000e-06  6.07846177e-01  6.00130000e-06  1.26000000e+00  6.00130000e-06  2.94279426e-04  6.00130000e-06  6.08336454e-01  6.00130000e-06  1.40049676e+00  6.00130000e-06  1.41030507e+00                                 
 6.00164435e-06  6.82290918e-01  6.00164435e-06  6.10885580e-01  6.00164435e-06  6.09886878e-01  6.00164435e-06  6.40171905e-01  6.00164435e-06  7.64005103e-03  6.00164435e-06  6.08740450e-01  6.00164435e-06  1.39770462e+00  6.00164435e-06  1.41028512e+00                                 
 6.00200000e-06  6.82221491e-01  6.00200000e-06  6.09608854e-01  6.00200000e-06  6.41381223e-01  6.00200000e-06  0.00000000e+00  6.00200000e-06  1.60889553e+00  6.00200000e-06  5.95390699e-01  6.00200000e-06  1.19164164e+00  6.00200000e-06  1.40971353e+00                                 
 6.00204199e-06  6.82238089e-01  6.00204199e-06  6.08995738e-01  6.00204199e-06  6.49700738e-01  6.00204199e-06  0.00000000e+00  6.00204199e-06  1.72614416e+00  6.00204199e-06  5.88442933e-01  6.00204199e-06  1.12334264e+00  6.00204199e-06  1.40969116e+00                                 
 6.00212596e-06  6.82241475e-01  6.00212596e-06  6.08040115e-01  6.00212596e-06  6.56132977e-01  6.00212596e-06  0.00000000e+00  6.00212596e-06  1.81307827e+00  6.00212596e-06  5.77695222e-01  6.00212596e-06  9.85202716e-01  6.00212596e-06  1.41006857e+00                                 
 6.00229390e-06  6.82237007e-01  6.00229390e-06  6.08147446e-01  6.00229390e-06  6.43985359e-01  6.00229390e-06  0.00000000e+00  6.00229390e-06  1.78911208e+00  6.00229390e-06  5.79237935e-01  6.00229390e-06  7.79857958e-01  6.00229390e-06  1.41061129e+00                                 
 6.00246314e-06  6.82239829e-01  6.00246314e-06  6.09249841e-01  6.00246314e-06  6.29433644e-01  6.00246314e-06  0.00000000e+00  6.00246314e-06  1.80440023e+00  6.00246314e-06  5.91254006e-01  6.00246314e-06  6.80080094e-01  6.00246314e-06  1.41068282e+00                                 
 6.00263121e-06  6.82236854e-01  6.00263121e-06  6.10110340e-01  6.00263121e-06  6.18967658e-01  6.00263121e-06  0.00000000e+00  6.00263121e-06  1.79726981e+00  6.00263121e-06  5.99646330e-01  6.00263121e-06  6.37372282e-01  6.00263121e-06  1.41068790e+00                                 
 6.00283021e-06  6.82239703e-01  6.00283021e-06  6.10830220e-01  6.00283021e-06  6.13422130e-01  6.00283021e-06  0.00000000e+00  6.00283021e-06  1.80173292e+00  6.00283021e-06  6.06426577e-01  6.00283021e-06  6.20084667e-01  6.00283021e-06  1.40993286e+00                                 
 6.00303163e-06  6.82237519e-01  6.00303163e-06  6.11115106e-01  6.00303163e-06  6.11358140e-01  6.00303163e-06  0.00000000e+00  6.00303163e-06  1.79903506e+00  6.00303163e-06  6.08668178e-01  6.00303163e-06  6.13438250e-01  6.00303163e-06  1.40895525e+00                                 
 6.00330954e-06  6.82239965e-01  6.00330954e-06  6.11326110e-01  6.00330954e-06  6.10709770e-01  6.00330954e-06  0.00000000e+00  6.00330954e-06  1.80073686e+00  6.00330954e-06  6.10586445e-01  6.00330954e-06  6.11371931e-01  6.00330954e-06  1.40716227e+00                                 
 6.00370713e-06  6.82238233e-01  6.00370713e-06  6.11347118e-01  6.00370713e-06  6.11356374e-01  6.00370713e-06  0.00000000e+00  6.00370713e-06  1.79946062e+00  6.00370713e-06  6.10889033e-01  6.00370713e-06  6.11027972e-01  6.00370713e-06  1.40443363e+00                                 
 6.00436102e-06  6.82240390e-01  6.00436102e-06  6.11338733e-01  6.00436102e-06  6.13052299e-01  6.00436102e-06  0.00000000e+00  6.00436102e-06  1.80049100e+00  6.00436102e-06  6.11409866e-01  6.00436102e-06  6.12958518e-01  6.00436102e-06  1.39948699e+00                                 
 6.00542026e-06  6.82238720e-01  6.00542026e-06  6.11242229e-01  6.00542026e-06  6.16292618e-01  6.00542026e-06  0.00000000e+00  6.00542026e-06  1.79957936e+00  6.00542026e-06  6.11236254e-01  6.00542026e-06  6.15836194e-01  6.00542026e-06  1.39111192e+00                                 
 6.00753876e-06  6.82240613e-01  6.00753876e-06  6.11125179e-01  6.00753876e-06  6.22713006e-01  6.00753876e-06  0.00000000e+00  6.00753876e-06  1.80042706e+00  6.00753876e-06  6.11445050e-01  6.00753876e-06  6.22561851e-01  6.00753876e-06  1.37331986e+00                                 
 6.01177575e-06  6.82238856e-01  6.01177575e-06  6.10935603e-01  6.01177575e-06  6.35593214e-01  6.01177575e-06  0.00000000e+00  6.01177575e-06  1.79960793e+00  6.01177575e-06  6.10978366e-01  6.01177575e-06  6.35096457e-01  6.01177575e-06  1.33655392e+00                                 
 6.01864949e-06  6.82240629e-01  6.01864949e-06  6.10905742e-01  6.01864949e-06  6.55742401e-01  6.01864949e-06  0.00000000e+00  6.01864949e-06  1.80041099e+00  6.01864949e-06  6.10914690e-01  6.01864949e-06  6.55555042e-01  6.01864949e-06  1.27565138e+00                                 
 6.03239696e-06  6.82238865e-01  6.03239696e-06  6.10899762e-01  6.03239696e-06  6.94443704e-01  6.03239696e-06  0.00000000e+00  6.03239696e-06  1.79961563e+00  6.03239696e-06  6.10304750e-01  6.03239696e-06  6.93857849e-01  6.03239696e-06  1.15248887e+00                                 
 6.04663033e-06  6.82240631e-01  6.04663033e-06  6.10922376e-01  6.04663033e-06  7.31865536e-01  6.04663033e-06  0.00000000e+00  6.04663033e-06  1.80040395e+00  6.04663033e-06  6.10398697e-01  6.04663033e-06  7.31664689e-01  6.04663033e-06  1.03406759e+00                                 
 6.06417062e-06  6.82238870e-01  6.06417062e-06  6.10905786e-01  6.06417062e-06  7.74863255e-01  6.06417062e-06  0.00000000e+00  6.06417062e-06  1.79961878e+00  6.06417062e-06  6.10090939e-01  6.06417062e-06  7.74093312e-01  6.06417062e-06  9.12965131e-01                                 
 6.09269647e-06  6.82240630e-01  6.09269647e-06  6.10925755e-01  6.09269647e-06  8.37397250e-01  6.09269647e-06  0.00000000e+00  6.09269647e-06  1.80039798e+00  6.09269647e-06  6.10309676e-01  6.09269647e-06  8.37226631e-01  6.09269647e-06  8.31251833e-01                                 
 6.11924996e-06  6.82238871e-01  6.11924996e-06  6.10906280e-01  6.11924996e-06  8.88318843e-01  6.11924996e-06  0.00000000e+00  6.11924996e-06  1.79961866e+00  6.11924996e-06  6.10065275e-01  6.11924996e-06  8.87264845e-01  6.11924996e-06  8.62384881e-01                                 
 6.13377675e-06  6.82240627e-01  6.13377675e-06  6.10926253e-01  6.13377675e-06  9.13252300e-01  6.13377675e-06  0.00000000e+00  6.13377675e-06  1.80039378e+00  6.13377675e-06  6.10312283e-01  6.13377675e-06  9.13147550e-01  6.13377675e-06  8.88198797e-01                                 
 6.14761294e-06  6.82238875e-01  6.14761294e-06  6.10905645e-01  6.14761294e-06  9.35482491e-01  6.14761294e-06  0.00000000e+00  6.14761294e-06  1.79962247e+00  6.14761294e-06  6.10061832e-01  6.14761294e-06  9.34286128e-01  6.14761294e-06  9.11025332e-01                                 
