 time            v(vbep)         time            v(vben)         time            v(vout)         time            v(vphi1)        time            v(vphi2)        time            v(vref)         yes             currtemp       
 0.00000000e+00  6.62907351e-01  0.00000000e+00  6.05475304e-01  0.00000000e+00  1.01904670e+00  0.00000000e+00  0.00000000e+00  0.00000000e+00  1.79995049e+00  0.00000000e+00  6.05475304e-01  1.00000000e+00  4.10000000e+01 
 5.00000000e-12  6.62877412e-01  5.00000000e-12  6.05450524e-01  5.00000000e-12  1.01977773e+00  5.00000000e-12  1.80000000e-02  5.00000000e-12  1.80007750e+00  5.00000000e-12  6.05450524e-01                                 
 1.00000000e-11  6.62848290e-01  1.00000000e-11  6.05426403e-01  1.00000000e-11  1.02044319e+00  1.00000000e-11  3.60000000e-02  1.00000000e-11  1.80015336e+00  1.00000000e-11  6.05426403e-01                                 
 2.00000000e-11  6.62790545e-01  2.00000000e-11  6.05378351e-01  2.00000000e-11  1.02167029e+00  2.00000000e-11  7.20000000e-02  2.00000000e-11  1.80023876e+00  2.00000000e-11  6.05378351e-01                                 
 4.00000000e-11  6.62675912e-01  4.00000000e-11  6.05282631e-01  4.00000000e-11  1.02364587e+00  4.00000000e-11  1.44000000e-01  4.00000000e-11  1.80023065e+00  4.00000000e-11  6.05282631e-01                                 
 8.00000000e-11  6.62447785e-01  8.00000000e-11  6.05092062e-01  8.00000000e-11  1.02627634e+00  8.00000000e-11  2.88000000e-01  8.00000000e-11  1.80013214e+00  8.00000000e-11  6.05092062e-01                                 
 1.60000000e-10  6.61996457e-01  1.60000000e-10  6.04714384e-01  1.60000000e-10  1.02846969e+00  1.60000000e-10  5.76000000e-01  1.60000000e-10  1.80002013e+00  1.60000000e-10  6.04714384e-01                                 
 3.20000000e-10  6.61112316e-01  3.20000000e-10  6.03972369e-01  3.20000000e-10  1.02117730e+00  3.20000000e-10  1.15200000e+00  3.20000000e-10  1.80027847e+00  3.20000000e-10  6.03972369e-01                                 
 5.00000000e-10  6.60146145e-01  5.00000000e-10  6.03158105e-01  5.00000000e-10  1.12671796e+00  5.00000000e-10  1.80000000e+00  5.00000000e-10  1.55304917e-01  5.00000000e-10  6.03158105e-01                                 
 5.21477776e-10  6.60033027e-01  5.21477776e-10  6.03062523e-01  5.21477776e-10  1.15342671e+00  5.21477776e-10  1.80000000e+00  5.21477776e-10  3.91426628e-02  5.21477776e-10  6.03062523e-01                                 
 5.64433329e-10  6.59807577e-01  5.64433329e-10  6.02871917e-01  5.64433329e-10  1.20664331e+00  5.64433329e-10  1.80000000e+00  5.64433329e-10 -1.45392353e-02  5.64433329e-10  6.02871917e-01                                 
 6.50344435e-10  6.59361431e-01  6.50344435e-10  6.02494173e-01  6.50344435e-10  1.30284537e+00  6.50344435e-10  1.80000000e+00  6.50344435e-10  1.23702068e-02  6.50344435e-10  6.02494173e-01                                 
 7.70562085e-10  6.58747512e-01  7.70562085e-10  6.01973178e-01  7.70562085e-10  1.42066202e+00  7.70562085e-10  1.80000000e+00  7.70562085e-10 -9.32452341e-03  7.70562085e-10  6.01973178e-01                                 
 9.52753827e-10  6.57839236e-01  9.52753827e-10  6.01199864e-01  9.52753827e-10  1.56570402e+00  9.52753827e-10  1.80000000e+00  9.52753827e-10  9.25016621e-03  9.52753827e-10  6.01199864e-01                                 
 1.31713731e-09  6.56097130e-01  1.31713731e-09  5.99708426e-01  1.31713731e-09  1.74827751e+00  1.31713731e-09  1.80000000e+00  1.31713731e-09 -8.07237529e-03  1.31713731e-09  5.99708426e-01                                 
 1.67216876e-09  6.54488450e-01  1.67216876e-09  5.98321596e-01  1.67216876e-09  1.83030625e+00  1.67216876e-09  1.80000000e+00  1.67216876e-09  7.95200906e-03  1.67216876e-09  5.98321596e-01                                 
 2.01923019e-09  6.52992606e-01  2.01923019e-09  5.97023936e-01  2.01923019e-09  1.86232465e+00  2.01923019e-09  1.80000000e+00  2.01923019e-09 -7.31748902e-03  2.01923019e-09  5.97023936e-01                                 
 2.38473889e-09  6.51491803e-01  2.38473889e-09  5.95714319e-01  2.38473889e-09  1.87526462e+00  2.38473889e-09  1.80000000e+00  2.38473889e-09  6.99973264e-03  2.38473889e-09  5.95714319e-01                                 
 2.87015876e-09  6.49605104e-01  2.87015876e-09  5.94057441e-01  2.87015876e-09  1.87931523e+00  2.87015876e-09  1.80000000e+00  2.87015876e-09 -6.65177207e-03  2.87015876e-09  5.94057441e-01                                 
 3.53437631e-09  6.47197793e-01  3.53437631e-09  5.91926899e-01  3.53437631e-09  1.87904458e+00  3.53437631e-09  1.80000000e+00  3.53437631e-09  6.48126864e-03  3.53437631e-09  5.91926899e-01                                 
 4.55019583e-09  6.43846756e-01  4.55019583e-09  5.88931908e-01  4.55019583e-09  1.87566488e+00  4.55019583e-09  1.80000000e+00  4.55019583e-09 -6.32032983e-03  4.55019583e-09  5.88931908e-01                                 
 6.24357611e-09  6.38966234e-01  6.24357611e-09  5.84513369e-01  6.24357611e-09  1.87131804e+00  6.24357611e-09  1.80000000e+00  6.24357611e-09  6.26942812e-03  6.24357611e-09  5.84513369e-01                                 
 9.63033667e-09  6.31050443e-01  9.63033667e-09  5.77221305e-01  9.63033667e-09  1.86325828e+00  9.63033667e-09  1.80000000e+00  9.63033667e-09 -6.20008309e-03  9.63033667e-09  5.77221305e-01                                 
 1.21018600e-08  6.26415187e-01  1.21018600e-08  5.72877988e-01  1.21018600e-08  1.85855402e+00  1.21018600e-08  1.80000000e+00  1.21018600e-08  6.17709843e-03  1.21018600e-08  5.72877988e-01                                 
 1.38345608e-08  6.23562290e-01  1.38345608e-08  5.70182371e-01  1.38345608e-08  1.85521378e+00  1.38345608e-08  1.80000000e+00  1.38345608e-08 -6.07814503e-03  1.38345608e-08  5.70182371e-01                                 
 1.52957698e-08  6.21356958e-01  1.52957698e-08  5.68088304e-01  1.52957698e-08  1.85298816e+00  1.52957698e-08  1.80000000e+00  1.52957698e-08  6.01595589e-03  1.52957698e-08  5.68088304e-01                                 
 1.70545406e-08  6.18904732e-01  1.70545406e-08  5.65750294e-01  1.70545406e-08  1.84980907e+00  1.70545406e-08  1.80000000e+00  1.70545406e-08 -5.92266139e-03  1.70545406e-08  5.65750294e-01                                 
 1.90137809e-08  6.16392943e-01  1.90137809e-08  5.63346080e-01  1.90137809e-08  1.84691938e+00  1.90137809e-08  1.80000000e+00  1.90137809e-08  5.88206881e-03  1.90137809e-08  5.63346080e-01                                 
 2.14308694e-08  6.13557084e-01  2.14308694e-08  5.60621913e-01  2.14308694e-08  1.84279410e+00  2.14308694e-08  1.80000000e+00  2.14308694e-08 -5.81017422e-03  2.14308694e-08  5.60621913e-01                                 
 2.48833091e-08  6.09901931e-01  2.48833091e-08  5.57099726e-01  2.48833091e-08  1.83771888e+00  2.48833091e-08  1.80000000e+00  2.48833091e-08  5.79684537e-03  2.48833091e-08  5.57099726e-01                                 
 2.88990605e-08  6.06088435e-01  2.88990605e-08  5.53419656e-01  2.88990605e-08  1.83159336e+00  2.88990605e-08  1.80000000e+00  2.88990605e-08 -5.74537360e-03  2.88990605e-08  5.53419656e-01                                 
 3.52972923e-08  6.00629413e-01  3.52972923e-08  5.48167918e-01  3.52972923e-08  1.82363097e+00  3.52972923e-08  1.80000000e+00  3.52972923e-08  5.74879768e-03  3.52972923e-08  5.48167918e-01                                 
 4.56691530e-08  5.92906697e-01  4.56691530e-08  5.40785621e-01  4.56691530e-08  1.81252406e+00  4.56691530e-08  1.80000000e+00  4.56691530e-08 -5.71487005e-03  4.56691530e-08  5.40785621e-01                                 
 5.61662332e-08  5.85938016e-01  5.61662332e-08  5.34207038e-01  5.61662332e-08  1.80280621e+00  5.61662332e-08  1.80000000e+00  5.61662332e-08  5.72646222e-03  5.61662332e-08  5.34207038e-01                                 
 6.78527752e-08  5.77554669e-01  6.78527752e-08  5.26579638e-01  6.78527752e-08  1.77897596e+00  6.78527752e-08  1.80000000e+00  6.78527752e-08 -5.69508434e-03  6.78527752e-08  5.26579638e-01                                 
 8.21871510e-08  5.69561853e-01  8.21871510e-08  5.19227703e-01  8.21871510e-08  1.75068149e+00  8.21871510e-08  1.80000000e+00  8.21871510e-08  5.70878372e-03  8.21871510e-08  5.19227703e-01                                 
 9.70767136e-08  5.62277966e-01  9.70767136e-08  5.12566573e-01  9.70767136e-08  1.72439377e+00  9.70767136e-08  1.80000000e+00  9.70767136e-08 -5.67866535e-03  9.70767136e-08  5.12566573e-01                                 
 1.21539439e-07  5.53159618e-01  1.21539439e-07  5.04130589e-01  1.21539439e-07  1.68271210e+00  1.21539439e-07  1.80000000e+00  1.21539439e-07  5.69653590e-03  1.21539439e-07  5.04130589e-01                                 
 1.48169766e-07  5.55962228e-01  1.48169766e-07  5.05219320e-01  1.48169766e-07  1.67884431e+00  1.48169766e-07  1.80000000e+00  1.48169766e-07 -5.66646444e-03  1.48169766e-07  5.05219320e-01                                 
 1.68853610e-07  5.57340666e-01  1.68853610e-07  5.05532347e-01  1.68853610e-07  1.66259135e+00  1.68853610e-07  1.80000000e+00  1.68853610e-07  5.68559480e-03  1.68853610e-07  5.05532347e-01                                 
 1.90326375e-07  5.52492557e-01  1.90326375e-07  5.00981804e-01  1.90326375e-07  1.63375330e+00  1.90326375e-07  1.80000000e+00  1.90326375e-07 -5.65682203e-03  1.90326375e-07  5.00981804e-01                                 
 2.08916721e-07  5.48618742e-01  2.08916721e-07  4.97359431e-01  2.08916721e-07  1.61102512e+00  2.08916721e-07  1.80000000e+00  2.08916721e-07  5.67410505e-03  2.08916721e-07  4.97359431e-01                                 
 2.28905941e-07  5.43348079e-01  2.28905941e-07  4.92644120e-01  2.28905941e-07  1.58724929e+00  2.28905941e-07  1.80000000e+00  2.28905941e-07 -5.64496274e-03  2.28905941e-07  4.92644120e-01                                 
 2.63178732e-07  5.33798156e-01  2.63178732e-07  4.84266075e-01  2.63178732e-07  1.54257175e+00  2.63178732e-07  1.80000000e+00  2.63178732e-07  5.66477210e-03  2.63178732e-07  4.84266075e-01                                 
 3.08515097e-07  5.21998887e-01  3.08515097e-07  4.74027066e-01  3.08515097e-07  1.48622556e+00  3.08515097e-07  1.80000000e+00  3.08515097e-07 -5.63890360e-03  3.08515097e-07  4.74027066e-01                                 
 3.94467282e-07  4.97141054e-01  3.94467282e-07  4.53089911e-01  3.94467282e-07  1.37310820e+00  3.94467282e-07  1.80000000e+00  3.94467282e-07  5.66077130e-03  3.94467282e-07  4.53089911e-01                                 
 4.94511114e-07  4.74577150e-01  4.94511114e-07  4.34278192e-01  4.94511114e-07  1.24899440e+00  4.94511114e-07  1.80000000e+00  4.94511114e-07 -5.63621432e-03  4.94511114e-07  4.34278192e-01                                 
 5.95939564e-07  4.30625293e-01  5.95939564e-07  3.98819328e-01  5.95939564e-07  1.09968187e+00  5.95939564e-07  1.80000000e+00  5.95939564e-07  5.65781852e-03  5.95939564e-07  3.98819328e-01                                 
 6.07650472e-07  4.25251399e-01  6.07650472e-07  3.94512398e-01  6.07650472e-07  1.08313235e+00  6.07650472e-07  1.80000000e+00  6.07650472e-07  2.18380125e-06  6.07650472e-07  3.94512398e-01                                 
 6.31072290e-07  4.17305524e-01  6.31072290e-07  3.88148287e-01  6.31072290e-07  1.05155700e+00  6.31072290e-07  1.80000000e+00  6.31072290e-07 -2.34168208e-06  6.31072290e-07  3.88148287e-01                                 
 6.77915925e-07  5.06804189e-01  6.77915925e-07  4.59695243e-01  6.77915925e-07  1.08931475e+00  6.77915925e-07  1.80000000e+00  6.77915925e-07  9.86243838e-06  6.77915925e-07  4.59695243e-01                                 
 7.60833417e-07  7.45486693e-01  7.60833417e-07  6.84565909e-01  7.60833417e-07  1.23452120e+00  7.60833417e-07  1.80000000e+00  7.60833417e-07  3.48197352e-06  7.60833417e-07  6.84565909e-01                                 
 7.73520562e-07  7.55002357e-01  7.73520562e-07  6.93482325e-01  7.73520562e-07  1.23066094e+00  7.73520562e-07  1.80000000e+00  7.73520562e-07  2.28324055e-06  7.73520562e-07  6.93482325e-01                                 
 7.98894852e-07  7.67026214e-01  7.98894852e-07  7.04174324e-01  7.98894852e-07  1.21582954e+00  7.98894852e-07  1.80000000e+00  7.98894852e-07  8.78446770e-07  7.98894852e-07  7.04174324e-01                                 
 8.49643432e-07  7.73518140e-01  8.49643432e-07  7.09756129e-01  8.49643432e-07  1.16902759e+00  8.49643432e-07  1.80000000e+00  8.49643432e-07  6.40108656e-07  8.49643432e-07  7.09756129e-01                                 
 9.17188303e-07  7.75661637e-01  9.17188303e-07  7.11576438e-01  9.17188303e-07  1.10075486e+00  9.17188303e-07  1.80000000e+00  9.17188303e-07  4.46995589e-07  9.17188303e-07  7.11576438e-01                                 
 9.87216458e-07  7.77055975e-01  9.87216458e-07  7.12745300e-01  9.87216458e-07  1.03108717e+00  9.87216458e-07  1.80000000e+00  9.87216458e-07  6.35549364e-07  9.87216458e-07  7.12745300e-01                                 
 1.00147929e-06  7.77361641e-01  1.00147929e-06  7.13003000e-01  1.00147929e-06  1.01765633e+00  1.00147929e-06  1.80000000e+00  1.00147929e-06  5.80906678e-07  1.00147929e-06  7.13003000e-01                                 
 1.03000496e-06  7.69806258e-01  1.03000496e-06  7.06618664e-01  1.03000496e-06  9.84620264e-01  1.03000496e-06  1.80000000e+00  1.03000496e-06 -6.51007351e-07  1.03000496e-06  7.06618664e-01                                 
 1.07677163e-06  7.52760216e-01  1.07677163e-06  6.91515797e-01  1.07677163e-06  9.31829378e-01  1.07677163e-06  1.80000000e+00  1.07677163e-06  2.50412636e-07  1.07677163e-06  6.91515797e-01                                 
 1.12590894e-06  7.60132796e-01  1.12590894e-06  6.98105665e-01  1.12590894e-06  9.03853439e-01  1.12590894e-06  1.80000000e+00  1.12590894e-06  1.80874395e-06  1.12590894e-06  6.98105665e-01                                 
 1.18975458e-06  7.70614109e-01  1.18975458e-06  7.07280716e-01  1.18975458e-06  8.72008748e-01  1.18975458e-06  1.80000000e+00  1.18975458e-06  3.82777857e-07  1.18975458e-06  7.07280716e-01                                 
 1.26700970e-06  7.62453042e-01  1.26700970e-06  7.00191271e-01  1.26700970e-06  8.18559275e-01  1.26700970e-06  1.80000000e+00  1.26700970e-06  6.71426601e-07  1.26700970e-06  7.00191271e-01                                 
 1.37119153e-06  7.61266554e-01  1.37119153e-06  6.99120674e-01  1.37119153e-06  7.62843264e-01  1.37119153e-06  1.80000000e+00  1.37119153e-06  8.99741407e-07  1.37119153e-06  6.99120674e-01                                 
 1.47027594e-06  7.68106261e-01  1.47027594e-06  7.05122153e-01  1.47027594e-06  7.32545227e-01  1.47027594e-06  1.80000000e+00  1.47027594e-06  1.17906776e-06  1.47027594e-06  7.05122153e-01                                 
 1.63665553e-06  7.60920524e-01  1.63665553e-06  6.98827276e-01  1.63665553e-06  6.96250085e-01  1.63665553e-06  1.80000000e+00  1.63665553e-06  5.67067783e-07  1.63665553e-06  6.98827276e-01                                 
 1.65767452e-06  7.61430522e-01  1.65767452e-06  6.99275194e-01  1.65767452e-06  6.94953979e-01  1.65767452e-06  1.80000000e+00  1.65767452e-06  1.05364070e-06  1.65767452e-06  6.99275194e-01                                 
 1.69971250e-06  7.63677256e-01  1.69971250e-06  7.01252154e-01  1.69971250e-06  6.93790522e-01  1.69971250e-06  1.80000000e+00  1.69971250e-06  1.18646614e-06  1.69971250e-06  7.01252154e-01                                 
 1.78378846e-06  7.65755492e-01  1.78378846e-06  7.03077742e-01  1.78378846e-06  6.90763207e-01  1.78378846e-06  1.80000000e+00  1.78378846e-06  9.43482206e-07  1.78378846e-06  7.03077742e-01                                 
 1.90850206e-06  7.62731735e-01  1.90850206e-06  7.00425937e-01  1.90850206e-06  6.95481082e-01  1.90850206e-06  1.80000000e+00  1.90850206e-06  1.06327338e-06  1.90850206e-06  7.00425937e-01                                 
 2.02701189e-06  7.64531091e-01  2.02701189e-06  7.02003111e-01  2.02701189e-06  7.05458716e-01  2.02701189e-06  1.80000000e+00  2.02701189e-06  1.11532052e-06  2.02701189e-06  7.02003111e-01                                 
 2.17957705e-06  7.64431369e-01  2.17957705e-06  7.01920876e-01  2.17957705e-06  7.00500946e-01  2.17957705e-06  1.80000000e+00  2.17957705e-06  9.22361003e-07  2.17957705e-06  7.01920876e-01                                 
 2.33749561e-06  7.63332147e-01  2.33749561e-06  7.00951591e-01  2.33749561e-06  7.01070830e-01  2.33749561e-06  1.80000000e+00  2.33749561e-06  1.12096883e-06  2.33749561e-06  7.00951591e-01                                 
 2.50647850e-06  7.65004041e-01  2.50647850e-06  7.02420333e-01  2.50647850e-06  7.03076299e-01  2.50647850e-06  1.80000000e+00  2.50647850e-06  9.86844337e-07  2.50647850e-06  7.02420333e-01                                 
 2.84444427e-06  7.63256179e-01  2.84444427e-06  7.00886467e-01  2.84444427e-06  7.00423645e-01  2.84444427e-06  1.80000000e+00  2.84444427e-06  1.05371716e-06  2.84444427e-06  7.00886467e-01                                 
 3.19146296e-06  7.64846713e-01  3.19146296e-06  7.02281641e-01  3.19146296e-06  7.02963479e-01  3.19146296e-06  1.80000000e+00  3.19146296e-06  1.03235557e-06  3.19146296e-06  7.02281641e-01                                 
 3.79119079e-06  7.63451405e-01  3.79119079e-06  7.01058878e-01  3.79119079e-06  7.00650491e-01  3.79119079e-06  1.80000000e+00  3.79119079e-06  1.02113978e-06  3.79119079e-06  7.01058878e-01                                 
 4.57680758e-06  7.64694011e-01  4.57680758e-06  7.02147563e-01  4.57680758e-06  7.02772262e-01  4.57680758e-06  1.80000000e+00  4.57680758e-06  1.05094619e-06  4.57680758e-06  7.02147563e-01                                 
 5.57680758e-06  7.63585014e-01  5.57680758e-06  7.01176582e-01  5.57680758e-06  7.00818544e-01  5.57680758e-06  1.80000000e+00  5.57680758e-06  1.00825115e-06  5.57680758e-06  7.01176582e-01                                 
 6.57680758e-06  7.64573156e-01  6.57680758e-06  7.02041523e-01  6.57680758e-06  7.02617203e-01  6.57680758e-06  1.80000000e+00  6.57680758e-06  1.06106786e-06  6.57680758e-06  7.02041523e-01                                 
 7.57680758e-06  7.63713234e-01  7.57680758e-06  7.01289411e-01  7.57680758e-06  7.00987099e-01  7.57680758e-06  1.80000000e+00  7.57680758e-06  9.99259491e-07  7.57680758e-06  7.01289411e-01                                 
 8.57680758e-06  7.64444760e-01  8.57680758e-06  7.01928866e-01  8.57680758e-06  7.02448543e-01  8.57680758e-06  1.80000000e+00  8.57680758e-06  1.06889107e-06  8.57680758e-06  7.01928866e-01                                 
 9.57680758e-06  7.63845670e-01  9.57680758e-06  7.01405838e-01  9.57680758e-06  7.01155552e-01  9.57680758e-06  1.80000000e+00  9.57680758e-06  9.92620810e-07  9.57680758e-06  7.01405838e-01                                 
 1.00005000e-05  7.64226555e-01  1.00005000e-05  7.01737445e-01  1.00005000e-05  7.02177593e-01  1.00005000e-05  1.80000000e+00  1.00005000e-05  1.07671470e-06  1.00005000e-05  7.01737445e-01                                 
 1.00005500e-05  7.64227663e-01  1.00005500e-05  7.01738412e-01  1.00005500e-05  6.95158846e-01  1.00005500e-05  1.62000000e+00  1.00005500e-05 -1.19924899e-04  1.00005500e-05  7.01738412e-01                                 
 1.00006500e-05  7.64229891e-01  1.00006500e-05  7.01740365e-01  1.00006500e-05  6.84405148e-01  1.00006500e-05  1.26000000e+00  1.00006500e-05 -7.65551570e-05  1.00006500e-05  7.01740365e-01                                 
 1.00008500e-05  7.64234437e-01  1.00008500e-05  7.01744361e-01  1.00008500e-05  6.79052548e-01  1.00008500e-05  5.40000000e-01  1.00008500e-05 -3.69511235e-03  1.00008500e-05  7.01744361e-01                                 
