 time            v(vbep)         time            v(vben)         time            v(vout)         time            v(vphi1)        time            v(vphi2)        time            v(vref)         yes             currtemp       
 0.00000000e+00  5.69402175e-01  0.00000000e+00  5.05037589e-01  0.00000000e+00  2.60434725e-01  0.00000000e+00  0.00000000e+00  0.00000000e+00  1.79996756e+00  0.00000000e+00  5.05037589e-01  1.00000000e+00  8.00000000e+01 
 5.00000000e-12  5.69383756e-01  5.00000000e-12  5.05022287e-01  5.00000000e-12  2.60956710e-01  5.00000000e-12  1.80000000e-02  5.00000000e-12  1.80007553e+00  5.00000000e-12  5.05022287e-01                                 
 1.00000000e-11  5.69365589e-01  1.00000000e-11  5.05007304e-01  1.00000000e-11  2.61382616e-01  1.00000000e-11  3.60000000e-02  1.00000000e-11  1.80013489e+00  1.00000000e-11  5.05007304e-01                                 
 2.00000000e-11  5.69329384e-01  2.00000000e-11  5.04977421e-01  2.00000000e-11  2.62089132e-01  2.00000000e-11  7.20000000e-02  2.00000000e-11  1.80019370e+00  2.00000000e-11  5.04977421e-01                                 
 4.00000000e-11  5.69257203e-01  4.00000000e-11  5.04917807e-01  4.00000000e-11  2.62920763e-01  4.00000000e-11  1.44000000e-01  4.00000000e-11  1.80016143e+00  4.00000000e-11  5.04917807e-01                                 
 8.00000000e-11  5.69113277e-01  8.00000000e-11  5.04798892e-01  8.00000000e-11  2.63622928e-01  8.00000000e-11  2.88000000e-01  8.00000000e-11  1.80008034e+00  8.00000000e-11  5.04798892e-01                                 
 1.60000000e-10  5.68827235e-01  1.60000000e-10  5.04562303e-01  1.60000000e-10  2.64240436e-01  1.60000000e-10  5.76000000e-01  1.60000000e-10  1.80003895e+00  1.60000000e-10  5.04562303e-01                                 
 3.20000000e-10  5.68262117e-01  3.20000000e-10  5.04093960e-01  3.20000000e-10  2.68437373e-01  3.20000000e-10  1.15200000e+00  3.20000000e-10  1.80033818e+00  3.20000000e-10  5.04093960e-01                                 
 5.00000000e-10  5.67637184e-01  5.00000000e-10  5.03574592e-01  5.00000000e-10  5.09287473e-01  5.00000000e-10  1.80000000e+00  5.00000000e-10  1.89841455e-01  5.00000000e-10  5.03574592e-01                                 
 5.22621522e-10  5.67559536e-01  5.22621522e-10  5.03509944e-01  5.22621522e-10  5.66848370e-01  5.22621522e-10  1.80000000e+00  5.22621522e-10  4.72155126e-02  5.22621522e-10  5.03509944e-01                                 
 5.67864566e-10  5.67404588e-01  5.67864566e-10  5.03380889e-01  5.67864566e-10  6.73262990e-01  5.67864566e-10  1.80000000e+00  5.67864566e-10 -1.71920477e-02  5.67864566e-10  5.03380889e-01                                 
 6.58350654e-10  5.67096796e-01  6.58350654e-10  5.03124257e-01  6.58350654e-10  8.42893609e-01  6.58350654e-10  1.80000000e+00  6.58350654e-10  1.51193908e-02  6.58350654e-10  5.03124257e-01                                 
 7.75926039e-10  5.66700949e-01  7.75926039e-10  5.02793672e-01  7.75926039e-10  1.01261204e+00  7.75926039e-10  1.80000000e+00  7.75926039e-10 -1.07946796e-02  7.75926039e-10  5.02793672e-01                                 
 9.64203727e-10  5.66076373e-01  9.64203727e-10  5.02270863e-01  9.64203727e-10  1.22939788e+00  9.64203727e-10  1.80000000e+00  9.64203727e-10  1.10818353e-02  9.64203727e-10  5.02270863e-01                                 
 1.29701683e-09  5.64999140e-01  1.29701683e-09  5.01365739e-01  1.29701683e-09  1.50479858e+00  1.29701683e-09  1.80000000e+00  1.29701683e-09 -9.17646596e-03  1.29701683e-09  5.01365739e-01                                 
 1.87383246e-09  5.63207786e-01  1.87383246e-09  4.99851248e-01  1.87383246e-09  1.73513359e+00  1.87383246e-09  1.80000000e+00  1.87383246e-09  9.46291033e-03  1.87383246e-09  4.99851248e-01                                 
 2.16869194e-09  5.62327181e-01  2.16869194e-09  4.99102417e-01  2.16869194e-09  1.77311396e+00  2.16869194e-09  1.80000000e+00  2.16869194e-09 -8.49499149e-03  2.16869194e-09  4.99102417e-01                                 
 2.50816791e-09  5.61340448e-01  2.50816791e-09  4.98260089e-01  2.50816791e-09  1.79280076e+00  2.50816791e-09  1.80000000e+00  2.50816791e-09  8.10346088e-03  2.50816791e-09  4.98260089e-01                                 
 2.88772634e-09  5.60269704e-01  2.88772634e-09  4.97342224e-01  2.88772634e-09  1.80085743e+00  2.88772634e-09  1.80000000e+00  2.88772634e-09 -7.53419509e-03  2.88772634e-09  4.97342224e-01                                 
 3.55038533e-09  5.58476178e-01  3.55038533e-09  4.95796180e-01  3.55038533e-09  1.80423538e+00  3.55038533e-09  1.80000000e+00  3.55038533e-09  7.35177642e-03  3.55038533e-09  4.95796180e-01                                 
 4.29249875e-09  5.56572772e-01  4.29249875e-09  4.94143847e-01  4.29249875e-09  1.80259154e+00  4.29249875e-09  1.80000000e+00  4.29249875e-09 -7.07594604e-03  4.29249875e-09  4.94143847e-01                                 
 5.67206769e-09  5.53288070e-01  5.67206769e-09  4.91266381e-01  5.67206769e-09  1.79946517e+00  5.67206769e-09  1.80000000e+00  5.67206769e-09  7.01706091e-03  5.67206769e-09  4.91266381e-01                                 
 7.73484181e-09  5.48886495e-01  7.73484181e-09  4.87362135e-01  7.73484181e-09  1.79389308e+00  7.73484181e-09  1.80000000e+00  7.73484181e-09 -6.88226945e-03  7.73484181e-09  4.87362135e-01                                 
 9.22169576e-09  5.46030689e-01  9.22169576e-09  4.84800322e-01  9.22169576e-09  1.79089053e+00  9.22169576e-09  1.80000000e+00  9.22169576e-09  6.83096456e-03  9.22169576e-09  4.84800322e-01                                 
 1.09217730e-08  5.43027307e-01  1.09217730e-08  4.82084572e-01  1.09217730e-08  1.78683300e+00  1.09217730e-08  1.80000000e+00  1.09217730e-08 -6.69413357e-03  1.09217730e-08  4.82084572e-01                                 
 1.25014098e-08  5.40451765e-01  1.25014098e-08  4.79739041e-01  1.25014098e-08  1.78379990e+00  1.25014098e-08  1.80000000e+00  1.25014098e-08  6.64208097e-03  1.25014098e-08  4.79739041e-01                                 
 1.40173635e-08  5.38148514e-01  1.40173635e-08  4.77629206e-01  1.40173635e-08  1.78041859e+00  1.40173635e-08  1.80000000e+00  1.40173635e-08 -6.50320740e-03  1.40173635e-08  4.77629206e-01                                 
 1.56320147e-08  5.35854918e-01  1.56320147e-08  4.75517170e-01  1.56320147e-08  1.77747877e+00  1.56320147e-08  1.80000000e+00  1.56320147e-08  6.45218855e-03  1.56320147e-08  4.75517170e-01                                 
 1.74561050e-08  5.33439582e-01  1.74561050e-08  4.73281374e-01  1.74561050e-08  1.77363705e+00  1.74561050e-08  1.80000000e+00  1.74561050e-08 -6.33451363e-03  1.74561050e-08  4.73281374e-01                                 
 2.00010841e-08  5.30342807e-01  2.00010841e-08  4.70397402e-01  2.00010841e-08  1.76903015e+00  2.00010841e-08  1.80000000e+00  2.00010841e-08  6.31655622e-03  2.00010841e-08  4.70397402e-01                                 
 2.30612602e-08  5.26985894e-01  2.30612602e-08  4.67248240e-01  2.30612602e-08  1.76309964e+00  2.30612602e-08  1.80000000e+00  2.30612602e-08 -6.23242104e-03  2.30612602e-08  4.67248240e-01                                 
 2.78672352e-08  5.22377725e-01  2.78672352e-08  4.62884734e-01  2.78672352e-08  1.75494232e+00  2.78672352e-08  1.80000000e+00  2.78672352e-08  6.24134158e-03  2.78672352e-08  4.62884734e-01                                 
 3.42798715e-08  5.17203642e-01  3.42798715e-08  4.57928202e-01  3.42798715e-08  1.74422129e+00  3.42798715e-08  1.80000000e+00  3.42798715e-08 -6.18105486e-03  3.42798715e-08  4.57928202e-01                                 
 4.71051440e-08  5.08919139e-01  4.71051440e-08  4.49898635e-01  4.71051440e-08  1.72475907e+00  4.71051440e-08  1.80000000e+00  4.71051440e-08  6.20922317e-03  4.71051440e-08  4.49898635e-01                                 
 7.27556891e-08  4.96732711e-01  7.27556891e-08  4.37974169e-01  7.27556891e-08  1.68811121e+00  7.27556891e-08  1.80000000e+00  7.27556891e-08 -6.16424369e-03  7.27556891e-08  4.37974169e-01                                 
 1.14305542e-07  4.83014154e-01  1.14305542e-07  4.24501010e-01  1.14305542e-07  1.63413234e+00  1.14305542e-07  1.80000000e+00  1.14305542e-07  6.20107935e-03  1.14305542e-07  4.24501010e-01                                 
 1.55493174e-07  4.69732139e-01  1.55493174e-07  4.12133545e-01  1.55493174e-07  1.57969585e+00  1.55493174e-07  1.80000000e+00  1.55493174e-07 -6.15755408e-03  1.55493174e-07  4.12133545e-01                                 
 2.22613046e-07  4.48716127e-01  2.22613046e-07  3.93281574e-01  2.22613046e-07  1.49091014e+00  2.22613046e-07  1.80000000e+00  2.22613046e-07  6.19574297e-03  2.22613046e-07  3.93281574e-01                                 
 2.93342622e-07  4.29182912e-01  2.93342622e-07  3.76174789e-01  2.93342622e-07  1.39768756e+00  2.93342622e-07  1.80000000e+00  2.93342622e-07 -6.15345494e-03  2.93342622e-07  3.76174789e-01                                 
 3.99036619e-07  3.96997396e-01  3.99036619e-07  3.49038346e-01  3.99036619e-07  1.25552068e+00  3.99036619e-07  1.80000000e+00  3.99036619e-07  6.19245957e-03  3.99036619e-07  3.49038346e-01                                 
 4.23952625e-07  3.88809538e-01  4.23952625e-07  3.42293545e-01  4.23952625e-07  1.22122215e+00  4.23952625e-07  1.80000000e+00  4.23952625e-07  8.26617329e-06  4.23952625e-07  3.42293545e-01                                 
 4.73784636e-07  3.70091889e-01  4.73784636e-07  3.26990942e-01  4.73784636e-07  1.15117831e+00  4.73784636e-07  1.80000000e+00  4.73784636e-07  5.35245601e-06  4.73784636e-07  3.26990942e-01                                 
 5.73448658e-07  3.59074918e-01  5.73448658e-07  3.17795246e-01  5.73448658e-07  1.04459697e+00  5.73448658e-07  1.80000000e+00  5.73448658e-07  9.35012868e-06  5.73448658e-07  3.17795246e-01                                 
 7.72776703e-07  6.88885106e-01  7.72776703e-07  6.19522054e-01  7.72776703e-07  1.16617804e+00  7.72776703e-07  1.80000000e+00  7.72776703e-07  1.27188651e-05  7.72776703e-07  6.19522054e-01                                 
 7.98212168e-07  7.01972434e-01  7.98212168e-07  6.31134761e-01  7.98212168e-07  1.15306594e+00  7.98212168e-07  1.80000000e+00  7.98212168e-07  8.76344849e-06  7.98212168e-07  6.31134761e-01                                 
 8.49083098e-07  7.18053087e-01  8.49083098e-07  6.44711207e-01  8.49083098e-07  1.11656081e+00  8.49083098e-07  1.80000000e+00  8.49083098e-07  7.76351975e-06  8.49083098e-07  6.44711207e-01                                 
 8.61800831e-07  7.19273038e-01  8.61800831e-07  6.45714963e-01  8.61800831e-07  1.10506825e+00  8.61800831e-07  1.80000000e+00  8.61800831e-07  7.75717635e-06  8.61800831e-07  6.45714963e-01                                 
 8.87236296e-07  7.20979229e-01  8.87236296e-07  6.47110144e-01  8.87236296e-07  1.08186096e+00  8.87236296e-07  1.80000000e+00  8.87236296e-07  7.64897691e-06  8.87236296e-07  6.47110144e-01                                 
 9.38107226e-07  7.14781601e-01  9.38107226e-07  6.42032692e-01  9.38107226e-07  1.03000826e+00  9.38107226e-07  1.80000000e+00  9.38107226e-07  6.97482246e-06  9.38107226e-07  6.42032692e-01                                 
 9.47223846e-07  7.10256652e-01  9.47223846e-07  6.38257732e-01  9.47223846e-07  1.01831571e+00  9.47223846e-07  1.80000000e+00  9.47223846e-07  6.49601564e-06  9.47223846e-07  6.38257732e-01                                 
 9.65457086e-07  7.00716655e-01  9.65457086e-07  6.30102531e-01  9.65457086e-07  9.94987410e-01  9.65457086e-07  1.80000000e+00  9.65457086e-07  6.39441226e-06  9.65457086e-07  6.30102531e-01                                 
 1.00192357e-06  6.95291130e-01  1.00192357e-06  6.25319620e-01  1.00192357e-06  9.63073478e-01  1.00192357e-06  1.80000000e+00  1.00192357e-06  8.32101524e-06  1.00192357e-06  6.25319620e-01                                 
 1.06053673e-06  7.08376250e-01  1.06053673e-06  6.36632518e-01  1.06053673e-06  9.34977544e-01  1.06053673e-06  1.80000000e+00  1.06053673e-06  8.21480472e-06  1.06053673e-06  6.36632518e-01                                 
 1.13475781e-06  7.08392427e-01  1.13475781e-06  6.36666963e-01  1.13475781e-06  8.87354474e-01  1.13475781e-06  1.80000000e+00  1.13475781e-06  7.34826932e-06  1.13475781e-06  6.36666963e-01                                 
 1.20448469e-06  7.01602412e-01  1.20448469e-06  6.30841359e-01  1.20448469e-06  8.38517020e-01  1.20448469e-06  1.80000000e+00  1.20448469e-06  7.82253769e-06  1.20448469e-06  6.30841359e-01                                 
 1.34393846e-06  7.07067688e-01  1.34393846e-06  6.35528394e-01  1.34393846e-06  7.62006734e-01  1.34393846e-06  1.80000000e+00  1.34393846e-06  8.04037852e-06  1.34393846e-06  6.35528394e-01                                 
 1.47293881e-06  7.05834993e-01  1.47293881e-06  6.34484945e-01  1.47293881e-06  6.94155733e-01  1.47293881e-06  1.80000000e+00  1.47293881e-06  7.71954014e-06  1.47293881e-06  6.34484945e-01                                 
 1.65839414e-06  7.03711868e-01  1.65839414e-06  6.32658088e-01  1.65839414e-06  6.35884333e-01  1.65839414e-06  1.80000000e+00  1.65839414e-06  8.26497270e-06  1.65839414e-06  6.32658088e-01                                 
 1.81970110e-06  7.07641344e-01  1.81970110e-06  6.36020011e-01  1.81970110e-06  6.27329552e-01  1.81970110e-06  1.80000000e+00  1.81970110e-06  8.07844971e-06  1.81970110e-06  6.36020011e-01                                 
 1.99639399e-06  7.03085190e-01  1.99639399e-06  6.32124068e-01  1.99639399e-06  6.33174556e-01  1.99639399e-06  1.80000000e+00  1.99639399e-06  8.15672685e-06  1.99639399e-06  6.32124068e-01                                 
 2.16648030e-06  7.06942968e-01  2.16648030e-06  6.35421342e-01  2.16648030e-06  6.37575999e-01  2.16648030e-06  1.80000000e+00  2.16648030e-06  8.24213450e-06  2.16648030e-06  6.35421342e-01                                 
 2.34650447e-06  7.04590098e-01  2.34650447e-06  6.33420885e-01  2.34650447e-06  6.31481857e-01  2.34650447e-06  1.80000000e+00  2.34650447e-06  7.98324277e-06  2.34650447e-06  6.33420885e-01                                 
 2.60218316e-06  7.05513726e-01  2.60218316e-06  6.34200253e-01  2.60218316e-06  6.35840770e-01  2.60218316e-06  1.80000000e+00  2.60218316e-06  8.34175191e-06  2.60218316e-06  6.34200253e-01                                 
 2.85461379e-06  7.05776339e-01  2.85461379e-06  6.34436268e-01  2.85461379e-06  6.33645654e-01  2.85461379e-06  1.80000000e+00  2.85461379e-06  7.95369955e-06  2.85461379e-06  6.34436268e-01                                 
 3.20151660e-06  7.04626274e-01  3.20151660e-06  6.33440870e-01  3.20151660e-06  6.34305355e-01  3.20151660e-06  1.80000000e+00  3.20151660e-06  8.33447259e-06  3.20151660e-06  6.33440870e-01                                 
 3.64983362e-06  7.06292844e-01  3.64983362e-06  6.34876401e-01  3.64983362e-06  6.34577730e-01  3.64983362e-06  1.80000000e+00  3.64983362e-06  7.97795933e-06  3.64983362e-06  6.34876401e-01                                 
 4.27598062e-06  7.04315519e-01  4.27598062e-06  6.33175044e-01  4.27598062e-06  6.33747419e-01  4.27598062e-06  1.80000000e+00  4.27598062e-06  8.30822371e-06  4.27598062e-06  6.33175044e-01                                 
 5.24471303e-06  7.06451354e-01  5.24471303e-06  6.35011007e-01  5.24471303e-06  6.34885172e-01  5.24471303e-06  1.80000000e+00  5.24471303e-06  7.99921974e-06  5.24471303e-06  6.35011007e-01                                 
 6.24471303e-06  7.04216853e-01  6.24471303e-06  6.33090832e-01  6.24471303e-06  6.33546400e-01  6.24471303e-06  1.80000000e+00  6.24471303e-06  8.29027458e-06  6.24471303e-06  6.33090832e-01                                 
 7.24471303e-06  7.06523946e-01  7.24471303e-06  6.35072663e-01  7.24471303e-06  6.35045250e-01  7.24471303e-06  1.80000000e+00  7.24471303e-06  8.01779259e-06  7.24471303e-06  6.35072663e-01                                 
 8.24471303e-06  7.04164802e-01  8.24471303e-06  6.33046839e-01  8.24471303e-06  6.33407488e-01  8.24471303e-06  1.80000000e+00  8.24471303e-06  8.27101853e-06  8.24471303e-06  6.33046839e-01                                 
 9.24471303e-06  7.06552300e-01  9.24471303e-06  6.35096374e-01  9.24471303e-06  6.35150777e-01  9.24471303e-06  1.80000000e+00  9.24471303e-06  8.03752805e-06  9.24471303e-06  6.35096374e-01                                 
 1.00005000e-05  7.04157931e-01  1.00005000e-05  6.33041462e-01  1.00005000e-05  6.33321042e-01  1.00005000e-05  1.80000000e+00  1.00005000e-05  8.24776033e-06  1.00005000e-05  6.33041462e-01                                 
 1.00005500e-05  7.04160619e-01  1.00005500e-05  6.33043784e-01  1.00005500e-05  6.26529993e-01  1.00005500e-05  1.62000000e+00  1.00005500e-05 -1.23738172e-04  1.00005500e-05  6.33043784e-01                                 
 1.00006500e-05  7.04165723e-01  1.00006500e-05  6.33048263e-01  1.00006500e-05  6.14984738e-01  1.00006500e-05  1.26000000e+00  1.00006500e-05 -9.84191977e-05  1.00006500e-05  6.33048263e-01                                 
 1.00008500e-05  7.04174963e-01  1.00008500e-05  6.33056426e-01  1.00008500e-05  6.05975271e-01  1.00008500e-05  5.40000000e-01  1.00008500e-05  2.02979637e-02  1.00008500e-05  6.33056426e-01                                 
 1.00010000e-05  7.04181189e-01  1.00010000e-05  6.33061926e-01  1.00010000e-05  5.55982767e-01  1.00010000e-05  0.00000000e+00  1.00010000e-05  1.54499262e+00  1.00010000e-05  6.33061926e-01                                 
 1.00010249e-05  7.04182152e-01  1.00010249e-05  6.33062783e-01  1.00010249e-05  5.34081119e-01  1.00010249e-05  0.00000000e+00  1.00010249e-05  1.70059178e+00  1.00010249e-05  6.33062783e-01                                 
 1.00010746e-05  7.04184094e-01  1.00010746e-05  6.33064493e-01  1.00010746e-05  5.01542683e-01  1.00010746e-05  0.00000000e+00  1.00010746e-05  1.81895075e+00  1.00010746e-05  6.33064493e-01                                 
 1.00011741e-05  7.04187906e-01  1.00011741e-05  6.33067839e-01  1.00011741e-05  4.84728296e-01  1.00011741e-05  0.00000000e+00  1.00011741e-05  1.78964138e+00  1.00011741e-05  6.33067839e-01                                 
 1.00013163e-05  7.04193042e-01  1.00013163e-05  6.33072382e-01  1.00013163e-05  4.90230380e-01  1.00013163e-05  0.00000000e+00  1.00013163e-05  1.80697781e+00  1.00013163e-05  6.33072382e-01                                 
 1.00014705e-05  7.04198290e-01  1.00014705e-05  6.33077009e-01  1.00014705e-05  4.90142354e-01  1.00014705e-05  0.00000000e+00  1.00014705e-05  1.79539931e+00  1.00014705e-05  6.33077009e-01                                 
 1.00017478e-05  7.04207161e-01  1.00017478e-05  6.33084807e-01  1.00017478e-05  4.91465290e-01  1.00017478e-05  0.00000000e+00  1.00017478e-05  1.80372742e+00  1.00017478e-05  6.33084807e-01                                 
 1.00022854e-05  7.04223194e-01  1.00022854e-05  6.33098807e-01  1.00022854e-05  4.91304339e-01  1.00022854e-05  0.00000000e+00  1.00022854e-05  1.79666616e+00  1.00022854e-05  6.33098807e-01                                 
 1.00029354e-05  7.04241761e-01  1.00029354e-05  6.33114887e-01  1.00029354e-05  4.91740902e-01  1.00029354e-05  0.00000000e+00  1.00029354e-05  1.80302354e+00  1.00029354e-05  6.33114887e-01                                 
 1.00042354e-05  7.04279130e-01  1.00042354e-05  6.33147023e-01  1.00042354e-05  4.91773136e-01  1.00042354e-05  0.00000000e+00  1.00042354e-05  1.79710601e+00  1.00042354e-05  6.33147023e-01                                 
 1.00068355e-05  7.04357675e-01  1.00068355e-05  6.33214337e-01  1.00068355e-05  4.92965821e-01  1.00068355e-05  0.00000000e+00  1.00068355e-05  1.80281870e+00  1.00068355e-05  6.33214337e-01                                 
