 time            v(vbep)         time            v(vben)         time            v(vout)         time            v(vphi1)        time            v(vphi2)        time            v(vref)         yes             currtemp       
 0.00000000e+00  6.89628451e-01  0.00000000e+00  6.34920028e-01  0.00000000e+00  9.64627449e-01  0.00000000e+00  0.00000000e+00  0.00000000e+00  1.79995314e+00  0.00000000e+00  6.34920028e-01  1.00000000e+00  2.60000000e+01 
 5.00000000e-12  6.89600650e-01  5.00000000e-12  6.34896986e-01  5.00000000e-12  9.65349592e-01  5.00000000e-12  1.80000000e-02  5.00000000e-12  1.80007873e+00  5.00000000e-12  6.34896986e-01                                 
 1.00000000e-11  6.89573575e-01  1.00000000e-11  6.34874540e-01  1.00000000e-11  9.66007240e-01  1.00000000e-11  3.60000000e-02  1.00000000e-11  1.80015404e+00  1.00000000e-11  6.34874540e-01                                 
 2.00000000e-11  6.89519867e-01  2.00000000e-11  6.34829819e-01  2.00000000e-11  9.67218603e-01  2.00000000e-11  7.20000000e-02  2.00000000e-11  1.80023950e+00  2.00000000e-11  6.34829819e-01                                 
 4.00000000e-11  6.89413209e-01  4.00000000e-11  6.34740725e-01  4.00000000e-11  9.69166406e-01  4.00000000e-11  1.44000000e-01  4.00000000e-11  1.80023404e+00  4.00000000e-11  6.34740725e-01                                 
 8.00000000e-11  6.89200934e-01  8.00000000e-11  6.34563330e-01  8.00000000e-11  9.71735368e-01  8.00000000e-11  2.88000000e-01  8.00000000e-11  1.80013630e+00  8.00000000e-11  6.34563330e-01                                 
 1.60000000e-10  6.88780876e-01  1.60000000e-10  6.34211699e-01  1.60000000e-10  9.73953495e-01  1.60000000e-10  5.76000000e-01  1.60000000e-10  1.80002727e+00  1.60000000e-10  6.34211699e-01                                 
 3.20000000e-10  6.87957690e-01  3.20000000e-10  6.33520627e-01  3.20000000e-10  9.65784858e-01  3.20000000e-10  1.15200000e+00  3.20000000e-10  1.80025818e+00  3.20000000e-10  6.33520627e-01                                 
 5.00000000e-10  6.87057658e-01  5.00000000e-10  6.32761916e-01  5.00000000e-10  1.06730720e+00  5.00000000e-10  1.80000000e+00  5.00000000e-10  1.45178330e-01  5.00000000e-10  6.32761916e-01                                 
 5.21175493e-10  6.86953726e-01  5.21175493e-10  6.32674076e-01  5.21175493e-10  1.09335215e+00  5.21175493e-10  1.80000000e+00  5.21175493e-10  3.53333586e-02  5.21175493e-10  6.32674076e-01                                 
 5.63526479e-10  6.86746562e-01  5.63526479e-10  6.32498897e-01  5.63526479e-10  1.14524000e+00  5.63526479e-10  1.80000000e+00  5.63526479e-10 -1.35004036e-02  5.63526479e-10  6.32498897e-01                                 
 6.48228450e-10  6.86336468e-01  6.48228450e-10  6.32151623e-01  6.48228450e-10  1.23988006e+00  6.48228450e-10  1.80000000e+00  6.48228450e-10  1.16099442e-02  6.48228450e-10  6.32151623e-01                                 
 7.68196214e-10  6.85765061e-01  7.68196214e-10  6.31666652e-01  7.68196214e-10  1.35961815e+00  7.68196214e-10  1.80000000e+00  7.68196214e-10 -8.84732917e-03  7.68196214e-10  6.31666652e-01                                 
 9.50181705e-10  6.84918506e-01  9.50181705e-10  6.30945840e-01  9.50181705e-10  1.51049641e+00  9.50181705e-10  1.80000000e+00  9.50181705e-10  8.84975571e-03  9.50181705e-10  6.30945840e-01                                 
 1.31415269e-09  6.83293590e-01  1.31415269e-09  6.29554732e-01  1.31415269e-09  1.70706175e+00  1.31415269e-09  1.80000000e+00  1.31415269e-09 -7.72334198e-03  1.31415269e-09  6.29554732e-01                                 
 1.70833434e-09  6.81628671e-01  1.70833434e-09  6.28119080e-01  1.70833434e-09  1.80689108e+00  1.70833434e-09  1.80000000e+00  1.70833434e-09  7.69302384e-03  1.70833434e-09  6.28119080e-01                                 
 2.05565628e-09  6.80235961e-01  2.05565628e-09  6.26910264e-01  2.05565628e-09  1.84076977e+00  2.05565628e-09  1.80000000e+00  2.05565628e-09 -7.10399953e-03  2.05565628e-09  6.26910264e-01                                 
 2.43414989e-09  6.78789869e-01  2.43414989e-09  6.25647749e-01  2.43414989e-09  1.85509131e+00  2.43414989e-09  1.80000000e+00  2.43414989e-09  6.82994357e-03  2.43414989e-09  6.25647749e-01                                 
 2.89744471e-09  6.77111756e-01  2.89744471e-09  6.24173526e-01  2.89744471e-09  1.85947471e+00  2.89744471e-09  1.80000000e+00  2.89744471e-09 -6.49496181e-03  2.89744471e-09  6.24173526e-01                                 
 3.57708026e-09  6.74811974e-01  3.57708026e-09  6.22137841e-01  3.57708026e-09  1.85962112e+00  3.57708026e-09  1.80000000e+00  3.57708026e-09  6.34333451e-03  3.57708026e-09  6.22137841e-01                                 
 4.55213700e-09  6.71800670e-01  4.55213700e-09  6.19446664e-01  4.55213700e-09  1.85656925e+00  4.55213700e-09  1.80000000e+00  4.55213700e-09 -6.18904834e-03  4.55213700e-09  6.19446664e-01                                 
 6.25704851e-09  6.67182742e-01  6.25704851e-09  6.15267553e-01  6.25704851e-09  1.85234280e+00  6.25704851e-09  1.80000000e+00  6.25704851e-09  6.14260530e-03  6.25704851e-09  6.15267553e-01                                 
 9.63019676e-09  6.59753116e-01  9.63019676e-09  6.08426944e-01  9.63019676e-09  1.84474923e+00  9.63019676e-09  1.80000000e+00  9.63019676e-09 -6.07971797e-03  9.63019676e-09  6.08426944e-01                                 
 1.33711630e-08  6.53325352e-01  1.33711630e-08  6.02398619e-01  1.33711630e-08  1.83773406e+00  1.33711630e-08  1.80000000e+00  1.33711630e-08  6.07524643e-03  1.33711630e-08  6.02398619e-01                                 
 1.53379452e-08  6.50472690e-01  1.53379452e-08  5.99694748e-01  1.53379452e-08  1.83420197e+00  1.53379452e-08  1.80000000e+00  1.53379452e-08 -5.99115153e-03  1.53379452e-08  5.99694748e-01                                 
 1.65873818e-08  6.48798714e-01  1.65873818e-08  5.98101728e-01  1.65873818e-08  1.83240660e+00  1.65873818e-08  1.80000000e+00  1.65873818e-08  5.91977161e-03  1.65873818e-08  5.98101728e-01                                 
 1.82532165e-08  6.46704299e-01  1.82532165e-08  5.96103204e-01  1.82532165e-08  1.82950907e+00  1.82532165e-08  1.80000000e+00  1.82532165e-08 -5.82888114e-03  1.82532165e-08  5.96103204e-01                                 
 2.05502974e-08  6.44031928e-01  2.05502974e-08  5.93546294e-01  2.05502974e-08  1.82623965e+00  2.05502974e-08  1.80000000e+00  2.05502974e-08  5.80016276e-03  2.05502974e-08  5.93546294e-01                                 
 2.34361084e-08  6.40958071e-01  2.34361084e-08  5.90599319e-01  2.34361084e-08  1.82177758e+00  2.34361084e-08  1.80000000e+00  2.34361084e-08 -5.74014741e-03  2.34361084e-08  5.90599319e-01                                 
 2.71770350e-08  6.37324894e-01  2.71770350e-08  5.87115246e-01  2.71770350e-08  1.81701059e+00  2.71770350e-08  1.80000000e+00  2.71770350e-08  5.73094096e-03  2.71770350e-08  5.87115246e-01                                 
 3.21425550e-08  6.32947267e-01  3.21425550e-08  5.82926108e-01  3.21425550e-08  1.81085116e+00  3.21425550e-08  1.80000000e+00  3.21425550e-08 -5.68744698e-03  3.21425550e-08  5.82926108e-01                                 
 4.05174334e-08  6.26712476e-01  4.05174334e-08  5.76934293e-01  4.05174334e-08  1.80333047e+00  4.05174334e-08  1.80000000e+00  4.05174334e-08  5.69570935e-03  4.05174334e-08  5.76934293e-01                                 
 4.98496609e-08  6.20406737e-01  4.98496609e-08  5.70952632e-01  4.98496609e-08  1.79000363e+00  4.98496609e-08  1.80000000e+00  4.98496609e-08 -5.66275426e-03  4.98496609e-08  5.70952632e-01                                 
 6.44317533e-08  6.10056415e-01  6.44317533e-08  5.61489354e-01  6.44317533e-08  1.76171449e+00  6.44317533e-08  1.80000000e+00  6.44317533e-08  5.67561490e-03  6.44317533e-08  5.61489354e-01                                 
 7.84262520e-08  6.02407742e-01  7.84262520e-08  5.54440308e-01  7.84262520e-08  1.73471887e+00  7.84262520e-08  1.80000000e+00  7.84262520e-08 -5.64687455e-03  7.84262520e-08  5.54440308e-01                                 
 1.01494341e-07  5.91851534e-01  1.01494341e-07  5.44761436e-01  1.01494341e-07  1.69345924e+00  1.01494341e-07  1.80000000e+00  1.01494341e-07  5.66338819e-03  1.01494341e-07  5.44761436e-01                                 
 1.26983539e-07  5.86855473e-01  1.26983539e-07  5.39634050e-01  1.26983539e-07  1.66225267e+00  1.26983539e-07  1.80000000e+00  1.26983539e-07 -5.63658371e-03  1.26983539e-07  5.39634050e-01                                 
 1.64420367e-07  5.89642516e-01  1.64420367e-07  5.40407908e-01  1.64420367e-07  1.64737490e+00  1.64420367e-07  1.80000000e+00  1.64420367e-07  5.65773709e-03  1.64420367e-07  5.40407908e-01                                 
 1.87579039e-07  5.87032093e-01  1.87579039e-07  5.37591425e-01  1.87579039e-07  1.62219793e+00  1.87579039e-07  1.80000000e+00  1.87579039e-07 -5.63023985e-03  1.87579039e-07  5.37591425e-01                                 
 2.11138693e-07  5.79431438e-01  2.11138693e-07  5.30903977e-01  2.11138693e-07  1.59147827e+00  2.11138693e-07  1.80000000e+00  2.11138693e-07  5.64771761e-03  2.11138693e-07  5.30903977e-01                                 
 2.35908961e-07  5.72731334e-01  2.35908961e-07  5.24976453e-01  2.35908961e-07  1.55841891e+00  2.35908961e-07  1.80000000e+00  2.35908961e-07 -5.62121805e-03  2.35908961e-07  5.24976453e-01                                 
 2.62782478e-07  5.65692043e-01  2.62782478e-07  5.18808688e-01  2.62782478e-07  1.52631794e+00  2.62782478e-07  1.80000000e+00  2.62782478e-07  5.63950580e-03  2.62782478e-07  5.18808688e-01                                 
 3.08547034e-07  5.53250681e-01  3.08547034e-07  5.08109547e-01  3.08547034e-07  1.46679833e+00  3.08547034e-07  1.80000000e+00  3.08547034e-07 -5.61501465e-03  3.08547034e-07  5.08109547e-01                                 
 3.73458560e-07  5.37040003e-01  3.73458560e-07  4.94351551e-01  3.73458560e-07  1.38683388e+00  3.73458560e-07  1.80000000e+00  3.73458560e-07  5.63565115e-03  3.73458560e-07  4.94351551e-01                                 
 4.67759172e-07  5.01958009e-01  4.67759172e-07  4.65678807e-01  4.67759172e-07  1.25497120e+00  4.67759172e-07  1.80000000e+00  4.67759172e-07 -5.61267475e-03  4.67759172e-07  4.65678807e-01                                 
 5.62031796e-07  4.64269050e-01  5.62031796e-07  4.35318915e-01  5.62031796e-07  1.12311010e+00  5.62031796e-07  1.80000000e+00  5.62031796e-07  5.63340685e-03  5.62031796e-07  4.35318915e-01                                 
 5.75239391e-07  4.58313589e-01  5.75239391e-07  4.30552616e-01  5.75239391e-07  1.10242482e+00  5.75239391e-07  1.80000000e+00  5.75239391e-07  1.14611494e-06  5.75239391e-07  4.30552616e-01                                 
 6.01654582e-07  4.51599397e-01  6.01654582e-07  4.25184691e-01  6.01654582e-07  1.06797963e+00  6.01654582e-07  1.80000000e+00  6.01654582e-07 -2.19993283e-06  6.01654582e-07  4.25184691e-01                                 
 6.54484965e-07  6.60078219e-01  6.54484965e-07  5.99210745e-01  6.54484965e-07  1.21402612e+00  6.54484965e-07  1.80000000e+00  6.54484965e-07  1.54426603e-05  6.54484965e-07  5.99210745e-01                                 
 7.14734733e-07  7.74589422e-01  7.14734733e-07  7.16403139e-01  7.14734733e-07  1.26493094e+00  7.14734733e-07  1.80000000e+00  7.14734733e-07 -7.10151364e-06  7.14734733e-07  7.16403139e-01                                 
 7.74987317e-07  8.04845155e-01  7.74987317e-07  7.43045899e-01  7.74987317e-07  1.22808891e+00  7.74987317e-07  1.80000000e+00  7.74987317e-07  8.96141274e-06  7.74987317e-07  7.43045899e-01                                 
 7.82417516e-07  8.05504109e-01  7.82417516e-07  7.43555370e-01  7.82417516e-07  1.22274644e+00  7.82417516e-07  1.80000000e+00  7.82417516e-07  2.31540227e-07  7.82417516e-07  7.43555370e-01                                 
 7.97277913e-07  8.05711351e-01  7.97277913e-07  7.43728943e-01  7.97277913e-07  1.20793842e+00  7.97277913e-07  1.80000000e+00  7.97277913e-07 -4.11449573e-07  7.97277913e-07  7.43728943e-01                                 
 8.26998707e-07  8.05664580e-01  8.26998707e-07  7.43689293e-01  8.26998707e-07  1.17678596e+00  8.26998707e-07  1.80000000e+00  8.26998707e-07  1.21912368e-07  8.26998707e-07  7.43689293e-01                                 
 8.66204951e-07  8.05664446e-01  8.66204951e-07  7.43690318e-01  8.66204951e-07  1.13631507e+00  8.66204951e-07  1.80000000e+00  8.66204951e-07 -3.77019296e-07  8.66204951e-07  7.43690318e-01                                 
 9.17053056e-07  7.92739291e-01  9.17053056e-07  7.32801931e-01  9.17053056e-07  1.07088069e+00  9.17053056e-07  1.80000000e+00  9.17053056e-07 -9.75039307e-07  9.17053056e-07  7.32801931e-01                                 
 9.23680517e-07  7.88322823e-01  9.23680517e-07  7.28955798e-01  9.23680517e-07  1.05994319e+00  9.23680517e-07  1.80000000e+00  9.23680517e-07 -1.55393084e-06  9.23680517e-07  7.28955798e-01                                 
 9.36935441e-07  7.79302439e-01  9.36935441e-07  7.20913060e-01  9.36935441e-07  1.03762763e+00  9.36935441e-07  1.80000000e+00  9.36935441e-07 -1.65579604e-06  9.36935441e-07  7.20913060e-01                                 
 9.63445289e-07  7.70075706e-01  9.63445289e-07  7.12433123e-01  9.63445289e-07  1.00185201e+00  9.63445289e-07  1.80000000e+00  9.63445289e-07 -7.93562413e-08  9.63445289e-07  7.12433123e-01                                 
 1.01417204e-06  7.82338519e-01  1.01417204e-06  7.23580230e-01  1.01417204e-06  9.66286382e-01  1.01417204e-06  1.80000000e+00  1.01417204e-06  1.04442630e-06  1.01417204e-06  7.23580230e-01                                 
 1.07190118e-06  7.94628251e-01  1.07190118e-06  7.34396941e-01  1.07190118e-06  9.30335643e-01  1.07190118e-06  1.80000000e+00  1.07190118e-06 -9.27444328e-08  1.07190118e-06  7.34396941e-01                                 
 1.14114967e-06  7.85607184e-01  1.14114967e-06  7.26536264e-01  1.14114967e-06  8.74001557e-01  1.14114967e-06  1.80000000e+00  1.14114967e-06 -2.76830929e-07  1.14114967e-06  7.26536264e-01                                 
 1.23156696e-06  7.81043421e-01  1.23156696e-06  7.22432957e-01  1.23156696e-06  8.15447929e-01  1.23156696e-06  1.80000000e+00  1.23156696e-06  3.60151014e-07  1.23156696e-06  7.22432957e-01                                 
 1.31662667e-06  7.90883169e-01  1.31662667e-06  7.31155826e-01  1.31662667e-06  7.83465292e-01  1.31662667e-06  1.80000000e+00  1.31662667e-06  5.45042667e-07  1.31662667e-06  7.31155826e-01                                 
 1.44756035e-06  7.84699394e-01  1.44756035e-06  7.25721352e-01  1.44756035e-06  7.39659363e-01  1.44756035e-06  1.80000000e+00  1.44756035e-06 -1.51091188e-07  1.44756035e-06  7.25721352e-01                                 
 1.56911018e-06  7.84410599e-01  1.56911018e-06  7.25449313e-01  1.56911018e-06  7.23646570e-01  1.56911018e-06  1.80000000e+00  1.56911018e-06  8.49041833e-07  1.56911018e-06  7.25449313e-01                                 
 1.74560619e-06  7.89636467e-01  1.74560619e-06  7.30071896e-01  1.74560619e-06  7.18472859e-01  1.74560619e-06  1.80000000e+00  1.74560619e-06  3.18044318e-08  1.74560619e-06  7.30071896e-01                                 
 1.90511231e-06  7.82705825e-01  1.90511231e-06  7.23936427e-01  1.90511231e-06  7.23192940e-01  1.90511231e-06  1.80000000e+00  1.90511231e-06  6.38362387e-07  1.90511231e-06  7.23936427e-01                                 
 2.08019219e-06  7.88841142e-01  2.08019219e-06  7.29366753e-01  2.08019219e-06  7.33722288e-01  2.08019219e-06  1.80000000e+00  2.08019219e-06  3.18529315e-07  2.08019219e-06  7.29366753e-01                                 
 2.25457322e-06  7.85200477e-01  2.25457322e-06  7.26166502e-01  2.25457322e-06  7.22318109e-01  2.25457322e-06  1.80000000e+00  2.25457322e-06  3.63000358e-07  2.25457322e-06  7.26166502e-01                                 
 2.43994885e-06  7.86070412e-01  2.43994885e-06  7.26921992e-01  2.43994885e-06  7.27986319e-01  2.43994885e-06  1.80000000e+00  2.43994885e-06  4.72204800e-07  2.43994885e-06  7.26921992e-01                                 
 2.62890949e-06  7.87783673e-01  2.62890949e-06  7.28449808e-01  2.62890949e-06  7.28830649e-01  2.62890949e-06  1.80000000e+00  2.62890949e-06  3.58587398e-07  2.62890949e-06  7.28449808e-01                                 
 2.86028654e-06  7.84387323e-01  2.86028654e-06  7.25430599e-01  2.86028654e-06  7.25023289e-01  2.86028654e-06  1.80000000e+00  2.86028654e-06  3.77632686e-07  2.86028654e-06  7.25430599e-01                                 
 3.27052806e-06  7.88389892e-01  3.27052806e-06  7.28980257e-01  3.27052806e-06  7.29626246e-01  3.27052806e-06  1.80000000e+00  3.27052806e-06  4.60873943e-07  3.27052806e-06  7.28980257e-01                                 
 3.74341974e-06  7.84252430e-01  3.74341974e-06  7.25312657e-01  3.74341974e-06  7.24917856e-01  3.74341974e-06  1.80000000e+00  3.74341974e-06  2.99822660e-07  3.74341974e-06  7.25312657e-01                                 
 4.39119999e-06  7.88344430e-01  4.39119999e-06  7.28938692e-01  4.39119999e-06  7.29512779e-01  4.39119999e-06  1.80000000e+00  4.39119999e-06  5.24143107e-07  4.39119999e-06  7.28938692e-01                                 
 5.24064379e-06  7.84374300e-01  5.24064379e-06  7.25422422e-01  5.24064379e-06  7.25093223e-01  5.24064379e-06  1.80000000e+00  5.24064379e-06  2.53751324e-07  5.24064379e-06  7.25422422e-01                                 
 6.24064379e-06  7.88207759e-01  6.24064379e-06  7.28817624e-01  6.24064379e-06  7.29328770e-01  6.24064379e-06  1.80000000e+00  6.24064379e-06  5.59750497e-07  6.24064379e-06  7.28817624e-01                                 
 7.24064379e-06  7.84544548e-01  7.24064379e-06  7.25574771e-01  7.24064379e-06  7.25303265e-01  7.24064379e-06  1.80000000e+00  7.24064379e-06  2.22416108e-07  7.24064379e-06  7.25574771e-01                                 
 8.24064379e-06  7.88024107e-01  8.24064379e-06  7.28655329e-01  8.24064379e-06  7.29104559e-01  8.24064379e-06  1.80000000e+00  8.24064379e-06  5.89569416e-07  8.24064379e-06  7.28655329e-01                                 
 9.24064379e-06  7.84769070e-01  9.24064379e-06  7.25775196e-01  9.24064379e-06  7.25562880e-01  9.24064379e-06  1.80000000e+00  9.24064379e-06  1.94336083e-07  9.24064379e-06  7.25775196e-01                                 
 1.00005000e-05  7.87757074e-01  1.00005000e-05  7.28420158e-01  1.00005000e-05  7.28796845e-01  1.00005000e-05  1.80000000e+00  1.00005000e-05  6.19495679e-07  1.00005000e-05  7.28420158e-01                                 
 1.00005500e-05  7.87755170e-01  1.00005500e-05  7.28417797e-01  1.00005500e-05  7.21774095e-01  1.00005500e-05  1.62000000e+00  1.00005500e-05 -1.15081661e-04  1.00005500e-05  7.28417797e-01                                 
 1.00006500e-05  7.87750238e-01  1.00006500e-05  7.28413278e-01  1.00006500e-05  7.11512137e-01  1.00006500e-05  1.26000000e+00  1.00006500e-05 -6.49130741e-05  1.00006500e-05  7.28413278e-01                                 
 1.00008500e-05  7.87742602e-01  1.00008500e-05  7.28406839e-01  1.00008500e-05  7.08419412e-01  1.00008500e-05  5.40000000e-01  1.00008500e-05 -2.28721721e-03  1.00008500e-05  7.28406839e-01                                 
 1.00010000e-05  7.87739528e-01  1.00010000e-05  7.28403939e-01  1.00010000e-05  7.25336264e-01  1.00010000e-05  0.00000000e+00  1.00010000e-05  1.50470834e+00  1.00010000e-05  7.28403939e-01                                 
 1.00010261e-05  7.87739099e-01  1.00010261e-05  7.28403592e-01  1.00010261e-05  7.36959599e-01  1.00010261e-05  0.00000000e+00  1.00010261e-05  1.68994925e+00  1.00010261e-05  7.28403592e-01                                 
