 time            v(vbep)         time            v(vben)         time            v(vout)         time            v(vphi1)        time            v(vphi2)        time            v(vref)         yes             currtemp       
 0.00000000e+00  6.49948263e-01  0.00000000e+00  5.89744310e-01  0.00000000e+00  1.00066308e+00  0.00000000e+00  0.00000000e+00  0.00000000e+00  1.79991484e+00  0.00000000e+00  5.89744310e-01  1.00000000e+00  5.60000000e+01 
 5.00000000e-12  6.49898495e-01  5.00000000e-12  5.89703749e-01  5.00000000e-12  1.00139690e+00  5.00000000e-12  1.80000000e-02  5.00000000e-12  1.80004673e+00  5.00000000e-12  5.89703749e-01                                 
 1.00000000e-11  6.49851119e-01  1.00000000e-11  5.89664691e-01  1.00000000e-11  1.00206294e+00  1.00000000e-11  3.60000000e-02  1.00000000e-11  1.80012839e+00  1.00000000e-11  5.89664691e-01                                 
 2.00000000e-11  6.49758036e-01  2.00000000e-11  5.89587021e-01  2.00000000e-11  1.00328694e+00  2.00000000e-11  7.20000000e-02  2.00000000e-11  1.80022245e+00  2.00000000e-11  5.89587021e-01                                 
 4.00000000e-11  6.49574771e-01  4.00000000e-11  5.89432565e-01  4.00000000e-11  1.00523611e+00  4.00000000e-11  1.44000000e-01  4.00000000e-11  1.80021941e+00  4.00000000e-11  5.89432565e-01                                 
 8.00000000e-11  6.49210751e-01  8.00000000e-11  5.89125666e-01  8.00000000e-11  1.00777154e+00  8.00000000e-11  2.88000000e-01  8.00000000e-11  1.80011812e+00  8.00000000e-11  5.89125666e-01                                 
 1.60000000e-10  6.48493801e-01  1.60000000e-10  5.88519850e-01  1.60000000e-10  1.00973188e+00  1.60000000e-10  5.76000000e-01  1.60000000e-10  1.80000295e+00  1.60000000e-10  5.88519850e-01                                 
 3.20000000e-10  6.47100770e-01  3.20000000e-10  5.87338707e-01  3.20000000e-10  1.00254501e+00  3.20000000e-10  1.15200000e+00  3.20000000e-10  1.80028058e+00  3.20000000e-10  5.87338707e-01                                 
 5.00000000e-10  6.45595969e-01  5.00000000e-10  5.86056270e-01  5.00000000e-10  1.11254079e+00  5.00000000e-10  1.80000000e+00  5.00000000e-10  1.64820129e-01  5.00000000e-10  5.86056270e-01                                 
 5.21794163e-10  6.45418556e-01  5.21794163e-10  5.85904603e-01  5.21794163e-10  1.14038924e+00  5.21794163e-10  1.80000000e+00  5.21794163e-10  4.27062835e-02  5.21794163e-10  5.85904603e-01                                 
 5.65382488e-10  6.45065426e-01  5.65382488e-10  5.85602497e-01  5.65382488e-10  1.19599460e+00  5.65382488e-10  1.80000000e+00  5.65382488e-10 -1.54330025e-02  5.65382488e-10  5.85602497e-01                                 
 6.52559139e-10  6.44369522e-01  6.52559139e-10  5.85006102e-01  6.52559139e-10  1.29660358e+00  6.52559139e-10  1.80000000e+00  6.52559139e-10  1.30210462e-02  6.52559139e-10  5.85006102e-01                                 
 7.73164982e-10  6.43428842e-01  7.73164982e-10  5.84197708e-01  7.73164982e-10  1.41798452e+00  7.73164982e-10  1.80000000e+00  7.73164982e-10 -9.67780237e-03  7.73164982e-10  5.84197708e-01                                 
 9.56510754e-10  6.42045263e-01  9.56510754e-10  5.83004121e-01  9.56510754e-10  1.56734104e+00  9.56510754e-10  1.80000000e+00  9.56510754e-10  9.58509358e-03  9.56510754e-10  5.83004121e-01                                 
 1.32320230e-09  6.39430982e-01  1.32320230e-09  5.80734359e-01  1.32320230e-09  1.75376510e+00  1.32320230e-09  1.80000000e+00  1.32320230e-09 -8.31775654e-03  1.32320230e-09  5.80734359e-01                                 
 1.67379179e-09  6.37105125e-01  1.67379179e-09  5.78698761e-01  1.67379179e-09  1.83511295e+00  1.67379179e-09  1.80000000e+00  1.67379179e-09  8.16783634e-03  1.67379179e-09  5.78698761e-01                                 
 2.01598400e-09  6.34978998e-01  2.01598400e-09  5.76824876e-01  2.01598400e-09  1.86669926e+00  2.01598400e-09  1.80000000e+00  2.01598400e-09 -7.48095056e-03  2.01598400e-09  5.76824876e-01                                 
 2.37717831e-09  6.32871405e-01  2.37717831e-09  5.74955330e-01  2.37717831e-09  1.87934794e+00  2.37717831e-09  1.80000000e+00  2.37717831e-09  7.12740625e-03  2.37717831e-09  5.74955330e-01                                 
 2.85913800e-09  6.30250452e-01  2.85913800e-09  5.72614345e-01  2.85913800e-09  1.88289175e+00  2.85913800e-09  1.80000000e+00  2.85913800e-09 -6.75652482e-03  2.85913800e-09  5.72614345e-01                                 
 3.51464249e-09  6.26987497e-01  3.51464249e-09  5.69675924e-01  3.51464249e-09  1.88188909e+00  3.51464249e-09  1.80000000e+00  3.51464249e-09  6.56626219e-03  3.51464249e-09  5.69675924e-01                                 
 4.51521546e-09  6.22554795e-01  4.51521546e-09  5.65643761e-01  4.51521546e-09  1.87746849e+00  4.51521546e-09  1.80000000e+00  4.51521546e-09 -6.39602745e-03  4.51521546e-09  5.65643761e-01                                 
 6.16678102e-09  6.16337469e-01  6.16678102e-09  5.59915843e-01  6.16678102e-09  1.87173667e+00  6.16678102e-09  1.80000000e+00  6.16678102e-09  6.33767252e-03  6.16678102e-09  5.59915843e-01                                 
 9.46991213e-09  6.06603225e-01  9.46991213e-09  5.50799754e-01  9.46991213e-09  1.86217117e+00  9.46991213e-09  1.80000000e+00  9.46991213e-09 -6.26287549e-03  9.46991213e-09  5.50799754e-01                                 
 1.15343639e-08  6.01838587e-01  1.15343639e-08  5.46268319e-01  1.15343639e-08  1.85797702e+00  1.15343639e-08  1.80000000e+00  1.15343639e-08  6.22683857e-03  1.15343639e-08  5.46268319e-01                                 
 1.30941117e-08  5.98682868e-01  1.30941117e-08  5.43246780e-01  1.30941117e-08  1.85474607e+00  1.30941117e-08  1.80000000e+00  1.30941117e-08 -6.11329957e-03  1.30941117e-08  5.43246780e-01                                 
 1.46322922e-08  5.95864332e-01  1.46322922e-08  5.40535752e-01  1.46322922e-08  1.85243482e+00  1.46322922e-08  1.80000000e+00  1.46322922e-08  6.05206923e-03  1.46322922e-08  5.40535752e-01                                 
 1.63744003e-08  5.92962145e-01  1.63744003e-08  5.37732827e-01  1.63744003e-08  1.84948073e+00  1.63744003e-08  1.80000000e+00  1.63744003e-08 -5.95222127e-03  1.63744003e-08  5.37732827e-01                                 
 1.82370856e-08  5.90143392e-01  1.82370856e-08  5.34999905e-01  1.82370856e-08  1.84720760e+00  1.82370856e-08  1.80000000e+00  1.82370856e-08  5.90638916e-03  1.82370856e-08  5.34999905e-01                                 
 2.05209978e-08  5.87017203e-01  2.05209978e-08  5.31957344e-01  2.05209978e-08  1.84410397e+00  2.05209978e-08  1.80000000e+00  2.05209978e-08 -5.82648141e-03  2.05209978e-08  5.31957344e-01                                 
 2.37782558e-08  5.83063362e-01  2.37782558e-08  5.28092822e-01  2.37782558e-08  1.84087281e+00  2.37782558e-08  1.80000000e+00  2.37782558e-08  5.81125732e-03  2.37782558e-08  5.28092822e-01                                 
 2.75634689e-08  5.79058969e-01  2.75634689e-08  5.24160691e-01  2.75634689e-08  1.83708117e+00  2.75634689e-08  1.80000000e+00  2.75634689e-08 -5.75367837e-03  2.75634689e-08  5.24160691e-01                                 
 3.50617582e-08  5.72465489e-01  3.50617582e-08  5.17646105e-01  3.50617582e-08  1.83176998e+00  3.50617582e-08  1.80000000e+00  3.50617582e-08  5.76175172e-03  3.50617582e-08  5.17646105e-01                                 
 4.31776872e-08  5.66723511e-01  4.31776872e-08  5.11940794e-01  4.31776872e-08  1.82675292e+00  4.31776872e-08  1.80000000e+00  4.31776872e-08 -5.72091949e-03  4.31776872e-08  5.11940794e-01                                 
 5.94095451e-08  5.57652811e-01  5.94095451e-08  5.02909114e-01  5.94095451e-08  1.81960673e+00  5.94095451e-08  1.80000000e+00  5.94095451e-08  5.73928784e-03  5.94095451e-08  5.02909114e-01                                 
 7.71950022e-08  5.50173054e-01  7.71950022e-08  4.95433533e-01  7.71950022e-08  1.81350886e+00  7.71950022e-08  1.80000000e+00  7.71950022e-08 -5.70570285e-03  7.71950022e-08  4.95433533e-01                                 
 1.03188446e-07  5.41662366e-01  1.03188446e-07  4.86934261e-01  1.03188446e-07  1.79673199e+00  1.03188446e-07  1.80000000e+00  1.03188446e-07  5.72742405e-03  1.03188446e-07  4.86934261e-01                                 
 1.28253512e-07  5.32937486e-01  1.28253512e-07  4.78699920e-01  1.28253512e-07  1.77506138e+00  1.28253512e-07  1.80000000e+00  1.28253512e-07 -5.69631102e-03  1.28253512e-07  4.78699920e-01                                 
 1.49073475e-07  5.22000249e-01  1.49073475e-07  4.69133972e-01  1.49073475e-07  1.75770543e+00  1.49073475e-07  1.80000000e+00  1.49073475e-07  5.71614843e-03  1.49073475e-07  4.69133972e-01                                 
 1.70738619e-07  5.13335049e-01  1.70738619e-07  4.61463110e-01  1.70738619e-07  1.71913849e+00  1.70738619e-07  1.80000000e+00  1.70738619e-07 -5.68564170e-03  1.70738619e-07  4.61463110e-01                                 
 1.91158960e-07  5.05955044e-01  1.91158960e-07  4.54959728e-01  1.91158960e-07  1.68514858e+00  1.91158960e-07  1.80000000e+00  1.91158960e-07  5.70482755e-03  1.91158960e-07  4.54959728e-01                                 
 2.09920125e-07  5.04363102e-01  2.09920125e-07  4.53149769e-01  2.09920125e-07  1.66780466e+00  2.09920125e-07  1.80000000e+00  2.09920125e-07 -5.67158898e-03  2.09920125e-07  4.53149769e-01                                 
 2.35607821e-07  5.09232104e-01  2.35607821e-07  4.56292806e-01  2.35607821e-07  1.66250626e+00  2.35607821e-07  1.80000000e+00  2.35607821e-07  5.69517524e-03  2.35607821e-07  4.56292806e-01                                 
 2.53117651e-07  5.09396102e-01  2.53117651e-07  4.55965566e-01  2.53117651e-07  1.64527201e+00  2.53117651e-07  1.80000000e+00  2.53117651e-07 -5.66144333e-03  2.53117651e-07  4.55965566e-01                                 
 2.72544852e-07  5.06920099e-01  2.72544852e-07  4.53532252e-01  2.72544852e-07  1.62228759e+00  2.72544852e-07  1.80000000e+00  2.72544852e-07  5.68138033e-03  2.72544852e-07  4.53532252e-01                                 
 2.92161383e-07  5.04245542e-01  2.92161383e-07  4.50970246e-01  2.92161383e-07  1.59933935e+00  2.92161383e-07  1.80000000e+00  2.92161383e-07 -5.64908988e-03  2.92161383e-07  4.50970246e-01                                 
 3.13706423e-07  4.99560540e-01  3.13706423e-07  4.46808170e-01  3.13706423e-07  1.57390176e+00  3.13706423e-07  1.80000000e+00  3.13706423e-07  5.66933299e-03  3.13706423e-07  4.46808170e-01                                 
 3.56796504e-07  4.89015651e-01  3.56796504e-07  4.37656121e-01  3.56796504e-07  1.51900962e+00  3.56796504e-07  1.80000000e+00  3.56796504e-07 -5.64089601e-03  3.56796504e-07  4.37656121e-01                                 
 4.04748331e-07  4.77834573e-01  4.04748331e-07  4.28052123e-01  4.04748331e-07  1.45960628e+00  4.04748331e-07  1.80000000e+00  4.04748331e-07  5.66410197e-03  4.04748331e-07  4.28052123e-01                                 
 5.00651984e-07  4.51988550e-01  5.00651984e-07  4.06444764e-01  5.00651984e-07  1.33418606e+00  5.00651984e-07  1.80000000e+00  5.00651984e-07 -5.63731021e-03  5.00651984e-07  4.06444764e-01                                 
 6.03226205e-07  4.34353971e-01  6.03226205e-07  3.91659058e-01  6.03226205e-07  1.21054788e+00  6.03226205e-07  1.80000000e+00  6.03226205e-07  5.66210021e-03  6.03226205e-07  3.91659058e-01                                 
 6.89900279e-07  3.98285948e-01  6.89900279e-07  3.62524268e-01  6.89900279e-07  1.08522756e+00  6.89900279e-07  1.80000000e+00  6.89900279e-07 -5.63565719e-03  6.89900279e-07  3.62524268e-01                                 
 7.79222523e-07  4.32505968e-01  7.79222523e-07  3.89839915e-01  7.79222523e-07  1.03105754e+00  7.79222523e-07  1.80000000e+00  7.79222523e-07  5.66239872e-03  7.79222523e-07  3.89839915e-01                                 
 7.93265548e-07  4.73608713e-01  7.93265548e-07  4.22676143e-01  7.93265548e-07  1.05583669e+00  7.93265548e-07  1.80000000e+00  7.93265548e-07  9.33223960e-06  7.93265548e-07  4.22676143e-01                                 
 8.21351599e-07  6.25069505e-01  8.21351599e-07  5.56340464e-01  8.21351599e-07  1.17196992e+00  8.21351599e-07  1.80000000e+00  8.21351599e-07  1.66777791e-05  8.21351599e-07  5.56340464e-01                                 
 8.63196503e-07  7.22038787e-01  8.63196503e-07  6.58152721e-01  8.63196503e-07  1.22420064e+00  8.63196503e-07  1.80000000e+00  8.63196503e-07 -9.38913585e-07  8.63196503e-07  6.58152721e-01                                 
 9.08404343e-07  7.62059719e-01  9.08404343e-07  6.92962233e-01  9.08404343e-07  1.21229139e+00  9.08404343e-07  1.80000000e+00  9.08404343e-07  8.84628674e-06  9.08404343e-07  6.92962233e-01                                 
 9.49915850e-07  7.65112689e-01  9.49915850e-07  6.95448176e-01  9.49915850e-07  1.17459525e+00  9.49915850e-07  1.80000000e+00  9.49915850e-07 -4.72103736e-06  9.49915850e-07  6.95448176e-01                                 
 9.92346623e-07  7.63742931e-01  9.92346623e-07  6.94334339e-01  9.92346623e-07  1.12598070e+00  9.92346623e-07  1.80000000e+00  9.92346623e-07  8.11150979e-06  9.92346623e-07  6.94334339e-01                                 
 1.03442548e-06  7.65067102e-01  1.03442548e-06  6.95404585e-01  1.03442548e-06  1.08685222e+00  1.03442548e-06  1.80000000e+00  1.03442548e-06 -4.15153409e-06  1.03442548e-06  6.95404585e-01                                 
 1.08302689e-06  7.49673245e-01  1.08302689e-06  6.82757359e-01  1.08302689e-06  1.02238946e+00  1.08302689e-06  1.80000000e+00  1.08302689e-06  6.32694590e-06  1.08302689e-06  6.82757359e-01                                 
 1.13542893e-06  7.23072205e-01  1.13542893e-06  6.59235750e-01  1.13542893e-06  9.56478437e-01  1.13542893e-06  1.80000000e+00  1.13542893e-06 -4.75866537e-06  1.13542893e-06  6.59235750e-01                                 
 1.19104991e-06  7.28284642e-01  1.19104991e-06  6.63972861e-01  1.19104991e-06  9.19505986e-01  1.19104991e-06  1.80000000e+00  1.19104991e-06  9.26053251e-06  1.19104991e-06  6.63972861e-01                                 
 1.25282019e-06  7.55245101e-01  1.25282019e-06  6.87361306e-01  1.25282019e-06  9.04562961e-01  1.25282019e-06  1.80000000e+00  1.25282019e-06 -2.96343006e-06  1.25282019e-06  6.87361306e-01                                 
 1.30978668e-06  7.42279989e-01  1.30978668e-06  6.76437792e-01  1.30978668e-06  8.55815576e-01  1.30978668e-06  1.80000000e+00  1.30978668e-06  6.08612256e-06  1.30978668e-06  6.76437792e-01                                 
 1.36935583e-06  7.33166280e-01  1.36935583e-06  6.68309441e-01  1.36935583e-06  8.13553229e-01  1.36935583e-06  1.80000000e+00  1.36935583e-06 -2.48593434e-06  1.36935583e-06  6.68309441e-01                                 
 1.43656225e-06  7.41859324e-01  1.43656225e-06  6.76041413e-01  1.43656225e-06  7.81952241e-01  1.43656225e-06  1.80000000e+00  1.43656225e-06  7.39711912e-06  1.43656225e-06  6.76041413e-01                                 
 1.52858898e-06  7.46641115e-01  1.52858898e-06  6.80103701e-01  1.52858898e-06  7.40438650e-01  1.52858898e-06  1.80000000e+00  1.52858898e-06 -2.72182235e-06  1.52858898e-06  6.80103701e-01                                 
 1.61809807e-06  7.36277269e-01  1.61809807e-06  6.71171981e-01  1.61809807e-06  6.97227292e-01  1.61809807e-06  1.80000000e+00  1.61809807e-06  6.73770649e-06  1.61809807e-06  6.71171981e-01                                 
 1.74830188e-06  7.43976063e-01  1.74830188e-06  6.77796224e-01  1.74830188e-06  6.79988365e-01  1.74830188e-06  1.80000000e+00  1.74830188e-06 -1.74438716e-06  1.74830188e-06  6.77796224e-01                                 
 1.87051683e-06  7.42158196e-01  1.87051683e-06  6.76323076e-01  1.87051683e-06  6.65277691e-01  1.87051683e-06  1.80000000e+00  1.87051683e-06  6.45418552e-06  1.87051683e-06  6.76323076e-01                                 
 2.02165494e-06  7.39571584e-01  2.02165494e-06  6.73967267e-01  2.02165494e-06  6.67035423e-01  2.02165494e-06  1.80000000e+00  2.02165494e-06 -1.64037869e-06  2.02165494e-06  6.73967267e-01                                 
 2.21608490e-06  7.44092443e-01  2.21608490e-06  6.77989649e-01  2.21608490e-06  6.81229969e-01  2.21608490e-06  1.80000000e+00  2.21608490e-06  6.64487878e-06  2.21608490e-06  6.77989649e-01                                 
 2.40963897e-06  7.39312033e-01  2.40963897e-06  6.73746220e-01  2.40963897e-06  6.72622575e-01  2.40963897e-06  1.80000000e+00  2.40963897e-06 -1.90706720e-06  2.40963897e-06  6.73746220e-01                                 
 2.60722887e-06  7.43135388e-01  2.60722887e-06  6.77158185e-01  2.60722887e-06  6.77351786e-01  2.60722887e-06  1.80000000e+00  2.60722887e-06  6.86104954e-06  2.60722887e-06  6.77158185e-01                                 
 2.84850713e-06  7.40870675e-01  2.84850713e-06  6.75112677e-01  2.84850713e-06  6.75761995e-01  2.84850713e-06  1.80000000e+00  2.84850713e-06 -2.03634376e-06  2.84850713e-06  6.75112677e-01                                 
 3.24437957e-06  7.41871107e-01  3.24437957e-06  6.76061262e-01  3.24437957e-06  6.75552245e-01  3.24437957e-06  1.80000000e+00  3.24437957e-06  6.90817667e-06  3.24437957e-06  6.76061262e-01                                 
 3.70500861e-06  7.41807043e-01  3.70500861e-06  6.75928668e-01  3.70500861e-06  6.76865083e-01  3.70500861e-06  1.80000000e+00  3.70500861e-06 -2.04163599e-06  3.70500861e-06  6.75928668e-01                                 
 4.39203639e-06  7.41181511e-01  4.39203639e-06  6.75461878e-01  4.39203639e-06  6.74789888e-01  4.39203639e-06  1.80000000e+00  4.39203639e-06  6.89884878e-06  4.39203639e-06  6.75461878e-01                                 
 5.32449211e-06  7.42255957e-01  5.32449211e-06  6.76318676e-01  5.32449211e-06  6.77338491e-01  5.32449211e-06  1.80000000e+00  5.32449211e-06 -2.02798447e-06  5.32449211e-06  6.76318676e-01                                 
 6.32449211e-06  7.40828278e-01  6.32449211e-06  6.75154573e-01  6.32449211e-06  6.74421099e-01  6.32449211e-06  1.80000000e+00  6.32449211e-06  6.88351445e-06  6.32449211e-06  6.75154573e-01                                 
 7.32449211e-06  7.42565654e-01  7.32449211e-06  6.76587246e-01  7.32449211e-06  6.77650603e-01  7.32449211e-06  1.80000000e+00  7.32449211e-06 -2.01005116e-06  7.32449211e-06  6.76587246e-01                                 
 8.32449211e-06  7.40530011e-01  8.32449211e-06  6.74894978e-01  8.32449211e-06  6.74121050e-01  8.32449211e-06  1.80000000e+00  8.32449211e-06  6.86276865e-06  8.32449211e-06  6.74894978e-01                                 
 9.32449211e-06  7.42827247e-01  9.32449211e-06  6.76813743e-01  9.32449211e-06  6.77908840e-01  9.32449211e-06  1.80000000e+00  9.32449211e-06 -1.98671868e-06  9.32449211e-06  6.76813743e-01                                 
 1.00005000e-05  7.40230836e-01  1.00005000e-05  6.74634571e-01  1.00005000e-05  6.73827080e-01  1.00005000e-05  1.80000000e+00  1.00005000e-05  6.83031029e-06  1.00005000e-05  6.74634571e-01                                 
 1.00005500e-05  7.40282193e-01  1.00005500e-05  6.74656355e-01  1.00005500e-05  6.66949829e-01  1.00005500e-05  1.62000000e+00  1.00005500e-05 -1.20608992e-04  1.00005500e-05  6.74656355e-01                                 
 1.00006500e-05  7.40335951e-01  1.00006500e-05  6.74691829e-01  1.00006500e-05  6.55933059e-01  1.00006500e-05  1.26000000e+00  1.00006500e-05 -8.61809920e-05  1.00006500e-05  6.74691829e-01                                 
 1.00008500e-05  7.40405025e-01  1.00008500e-05  6.74752375e-01  1.00008500e-05  6.48874014e-01  1.00008500e-05  5.40000000e-01  1.00008500e-05 -2.46842881e-03  1.00008500e-05  6.74752375e-01                                 
