 time            v(vbep)         time            v(vben)         time            v(vout)         time            v(vphi1)        time            v(vphi2)        time            v(vref)         time            v(voutc)        time            v(voutcc)       yes             currtemp       
 0.00000000e+00  8.68514873e-01  0.00000000e+00  8.23681278e-01  0.00000000e+00  1.78975280e+00  0.00000000e+00  0.00000000e+00  0.00000000e+00  1.80000000e+00  0.00000000e+00  8.27870090e-01  0.00000000e+00  1.78975279e+00  0.00000000e+00  1.79362925e+00  1.00000000e+00 -3.80000000e+01 
 1.00000000e-11  8.68534219e-01  1.00000000e-11  8.23740612e-01  1.00000000e-11  1.79060708e+00  1.00000000e-11  1.80000000e-02  1.00000000e-11  1.80023861e+00  1.00000000e-11  8.28376155e-01  1.00000000e-11  1.79020228e+00  1.00000000e-11  1.79363655e+00                                 
 2.00000000e-11  8.68539885e-01  2.00000000e-11  8.23778611e-01  2.00000000e-11  1.79122603e+00  2.00000000e-11  3.60000000e-02  2.00000000e-11  1.80034348e+00  2.00000000e-11  8.28766181e-01  2.00000000e-11  1.79056606e+00  2.00000000e-11  1.79363940e+00                                 
 4.00000000e-11  8.68540265e-01  4.00000000e-11  8.23829167e-01  4.00000000e-11  1.79211846e+00  4.00000000e-11  7.20000000e-02  4.00000000e-11  1.80040241e+00  4.00000000e-11  8.29356212e-01  4.00000000e-11  1.79115006e+00  4.00000000e-11  1.79363962e+00                                 
 8.00000000e-11  8.68530584e-01  8.00000000e-11  8.23860974e-01  8.00000000e-11  1.79275943e+00  8.00000000e-11  1.44000000e-01  8.00000000e-11  1.80022915e+00  8.00000000e-11  8.29875273e-01  8.00000000e-11  1.79179784e+00  8.00000000e-11  1.79362845e+00                                 
 1.60000000e-10  8.68527292e-01  1.60000000e-10  8.23861327e-01  1.60000000e-10  1.79279400e+00  1.60000000e-10  2.88000000e-01  1.60000000e-10  1.80003608e+00  1.60000000e-10  8.30006594e-01  1.60000000e-10  1.79224624e+00  1.60000000e-10  1.79361222e+00                                 
 3.20000000e-10  8.68525558e-01  3.20000000e-10  8.23857203e-01  3.20000000e-10  1.79260096e+00  3.20000000e-10  5.76000000e-01  3.20000000e-10  1.80003796e+00  3.20000000e-10  8.29987906e-01  3.20000000e-10  1.79251664e+00  3.20000000e-10  1.79360824e+00                                 
 6.40000000e-10  8.68461107e-01  6.40000000e-10  8.23687654e-01  6.40000000e-10  1.78198334e+00  6.40000000e-10  1.15200000e+00  6.40000000e-10  1.81344794e+00  6.40000000e-10  8.29919622e-01  6.40000000e-10  1.79548374e+00  6.40000000e-10  1.79362735e+00                                 
 9.86712070e-10  8.68776726e-01  9.86712070e-10  8.23631932e-01  9.86712070e-10  1.74629518e+00  9.86712070e-10  1.77608173e+00  9.86712070e-10  6.96650125e-02  9.86712070e-10  8.26788917e-01  9.86712070e-10  1.77925857e+00  9.86712070e-10  1.79346974e+00                                 
 1.00000000e-09  8.68809183e-01  1.00000000e-09  8.23743764e-01  1.00000000e-09  1.74593845e+00  1.00000000e-09  1.80000000e+00  1.00000000e-09  8.44981397e-03  1.00000000e-09  8.28286157e-01  1.00000000e-09  1.77973195e+00  1.00000000e-09  1.79352602e+00                                 
 1.02657586e-09  8.68840787e-01  1.02657586e-09  8.23772662e-01  1.02657586e-09  1.74538776e+00  1.02657586e-09  1.80000000e+00  1.02657586e-09  2.96067455e-03  1.02657586e-09  8.29909547e-01  1.02657586e-09  1.78113236e+00  1.02657586e-09  1.79358060e+00                                 
 1.07972758e-09  8.68986701e-01  1.07972758e-09  8.23782544e-01  1.07972758e-09  1.74255789e+00  1.07972758e-09  1.80000000e+00  1.07972758e-09 -3.80121509e-05  1.07972758e-09  8.31195027e-01  1.07972758e-09  1.78228387e+00  1.07972758e-09  1.79360495e+00                                 
 1.16715662e-09  8.69213450e-01  1.16715662e-09  8.23721335e-01  1.16715662e-09  1.73541165e+00  1.16715662e-09  1.80000000e+00  1.16715662e-09  8.84297407e-04  1.16715662e-09  8.30869822e-01  1.16715662e-09  1.78201900e+00  1.16715662e-09  1.79357598e+00                                 
 1.34201469e-09  8.69347136e-01  1.34201469e-09  8.23685893e-01  1.34201469e-09  1.72665059e+00  1.34201469e-09  1.80000000e+00  1.34201469e-09 -3.12605155e-04  1.34201469e-09  8.31498079e-01  1.34201469e-09  1.78252250e+00  1.34201469e-09  1.79360171e+00                                 
 1.54811341e-09  8.69301908e-01  1.54811341e-09  8.23676074e-01  1.54811341e-09  1.72498538e+00  1.54811341e-09  1.80000000e+00  1.54811341e-09  3.53786690e-04  1.54811341e-09  8.31719356e-01  1.54811341e-09  1.78271337e+00  1.54811341e-09  1.79359472e+00                                 
 1.78566606e-09  8.69135280e-01  1.78566606e-09  8.23665631e-01  1.78566606e-09  1.72705025e+00  1.78566606e-09  1.80000000e+00  1.78566606e-09 -3.43044273e-04  1.78566606e-09  8.31764966e-01  1.78566606e-09  1.78273905e+00  1.78566606e-09  1.79360576e+00                                 
 2.04581778e-09  8.68985854e-01  2.04581778e-09  8.23668017e-01  2.04581778e-09  1.72999972e+00  2.04581778e-09  1.80000000e+00  2.04581778e-09  2.56161502e-04  2.04581778e-09  8.31665598e-01  2.04581778e-09  1.78266280e+00  2.04581778e-09  1.79360480e+00                                 
 2.48306096e-09  8.68751895e-01  2.48306096e-09  8.23664225e-01  2.48306096e-09  1.73486702e+00  2.48306096e-09  1.80000000e+00  2.48306096e-09 -2.92439332e-04  2.48306096e-09  8.31448596e-01  2.48306096e-09  1.78247105e+00  2.48306096e-09  1.79361143e+00                                 
 3.30736714e-09  8.68506049e-01  3.30736714e-09  8.23668495e-01  3.30736714e-09  1.74295516e+00  3.30736714e-09  1.80000000e+00  3.30736714e-09  2.33027198e-04  3.30736714e-09  8.31019091e-01  3.30736714e-09  1.78211718e+00  3.30736714e-09  1.79361122e+00                                 
 4.95597950e-09  8.68348908e-01  4.95597950e-09  8.23668443e-01  4.95597950e-09  1.75536936e+00  4.95597950e-09  1.80000000e+00  4.95597950e-09 -2.72844709e-04  4.95597950e-09  8.30249610e-01  4.95597950e-09  1.78146410e+00  4.95597950e-09  1.79360733e+00                                 
 7.83237637e-09  8.68425073e-01  7.83237637e-09  8.23676771e-01  7.83237637e-09  1.76823613e+00  7.83237637e-09  1.80000000e+00  7.83237637e-09  2.35823588e-04  7.83237637e-09  8.29226344e-01  7.83237637e-09  1.78061564e+00  7.83237637e-09  1.79357830e+00                                 
 1.08782804e-08  8.68472455e-01  1.08782804e-08  8.23676994e-01  1.08782804e-08  1.77437648e+00  1.08782804e-08  1.80000000e+00  1.08782804e-08 -2.58796336e-04  1.08782804e-08  8.28537611e-01  1.08782804e-08  1.78003347e+00  1.08782804e-08  1.79353773e+00                                 
 1.50809080e-08  8.68500026e-01  1.50809080e-08  8.23681775e-01  1.50809080e-08  1.77734175e+00  1.50809080e-08  1.80000000e+00  1.50809080e-08  2.38155996e-04  1.50809080e-08  8.28017399e-01  1.50809080e-08  1.77960648e+00  1.50809080e-08  1.79346322e+00                                 
 1.91179062e-08  8.68499409e-01  1.91179062e-08  8.23679370e-01  1.91179062e-08  1.77772290e+00  1.91179062e-08  1.80000000e+00  1.91179062e-08 -2.51345051e-04  1.91179062e-08  8.27783809e-01  1.91179062e-08  1.77940227e+00  1.91179062e-08  1.79338631e+00                                 
 2.46502368e-08  8.68511329e-01  2.46502368e-08  8.23682620e-01  2.46502368e-08  1.77753548e+00  2.46502368e-08  1.80000000e+00  2.46502368e-08  2.38670203e-04  2.46502368e-08  8.27656901e-01  2.46502368e-08  1.77929812e+00  2.46502368e-08  1.79327094e+00                                 
 3.09433973e-08  8.68502783e-01  3.09433973e-08  8.23679862e-01  3.09433973e-08  1.77744746e+00  3.09433973e-08  1.80000000e+00  3.09433973e-08 -2.44995828e-04  3.09433973e-08  8.27621280e-01  3.09433973e-08  1.77925259e+00  3.09433973e-08  1.79314020e+00                                 
 4.05875104e-08  8.68514604e-01  4.05875104e-08  8.23682786e-01  4.05875104e-08  1.77690332e+00  4.05875104e-08  1.80000000e+00  4.05875104e-08  2.41190902e-04  4.05875104e-08  8.27633521e-01  4.05875104e-08  1.77925585e+00  4.05875104e-08  1.79293411e+00                                 
 5.32642293e-08  8.68512033e-01  5.32642293e-08  8.23679885e-01  5.32642293e-08  1.77296848e+00  5.32642293e-08  1.80000000e+00  5.32642293e-08 -2.41716569e-04  5.32642293e-08  8.27664505e-01  5.32642293e-08  1.77925714e+00  5.32642293e-08  1.79266614e+00                                 
 7.63566974e-08  8.68519469e-01  7.63566974e-08  8.23682760e-01  7.63566974e-08  1.76255883e+00  7.63566974e-08  1.80000000e+00  7.63566974e-08  2.40785396e-04  7.63566974e-08  8.27717209e-01  7.63566974e-08  1.77928198e+00  7.63566974e-08  1.79217313e+00                                 
 1.10284375e-07  8.68511760e-01  1.10284375e-07  8.23679856e-01  1.10284375e-07  1.74358012e+00  1.10284375e-07  1.80000000e+00  1.10284375e-07 -2.41408342e-04  1.10284375e-07  8.27767876e-01  1.10284375e-07  1.77928684e+00  1.10284375e-07  1.79145857e+00                                 
 1.73255735e-07  8.68518688e-01  1.73255735e-07  8.23682727e-01  1.73255735e-07  1.69947431e+00  1.73255735e-07  1.80000000e+00  1.73255735e-07  2.40595780e-04  1.73255735e-07  8.27825963e-01  1.73255735e-07  1.77930010e+00  1.73255735e-07  1.79017732e+00                                 
 2.99198454e-07  8.68511284e-01  2.99198454e-07  8.23679839e-01  2.99198454e-07  1.59208426e+00  2.99198454e-07  1.80000000e+00  2.99198454e-07 -2.41483384e-04  2.99198454e-07  8.27862939e-01  2.99198454e-07  1.77926162e+00  2.99198454e-07  1.78794194e+00                                 
 5.51083893e-07  8.68518500e-01  5.51083893e-07  8.23682719e-01  5.51083893e-07  1.37272517e+00  5.51083893e-07  1.80000000e+00  5.51083893e-07  2.40179434e-04  5.51083893e-07  8.27872415e-01  5.51083893e-07  1.77919804e+00  5.51083893e-07  1.78502947e+00                                 
 9.24044453e-07  8.68511239e-01  9.24044453e-07  8.23679838e-01  9.24044453e-07  1.06176016e+00  9.24044453e-07  1.80000000e+00  9.24044453e-07 -2.41320069e-04  9.24044453e-07  8.27868494e-01  9.24044453e-07  1.77913596e+00  9.24044453e-07  1.78347959e+00                                 
 1.01570138e-06  8.68514883e-01  1.01570138e-06  8.23681278e-01  1.01570138e-06  9.89172509e-01  1.01570138e-06  1.80000000e+00  1.01570138e-06 -5.25100392e-07  1.01570138e-06  8.27869725e-01  1.01570138e-06  1.77913469e+00  1.01570138e-06  1.78339789e+00                                 
 1.19901523e-06  8.68514863e-01  1.19901523e-06  8.23681279e-01  1.19901523e-06  8.74775632e-01  1.19901523e-06  1.80000000e+00  1.19901523e-06 -1.60480289e-07  1.19901523e-06  8.27869662e-01  1.19901523e-06  1.77912370e+00  1.19901523e-06  1.78327763e+00                                 
 1.35541870e-06  8.68514951e-01  1.35541870e-06  8.23681284e-01  1.35541870e-06  8.35577798e-01  1.35541870e-06  1.80000000e+00  1.35541870e-06 -4.47819440e-08  1.35541870e-06  8.27871186e-01  1.35541870e-06  1.77911680e+00  1.35541870e-06  1.78322532e+00                                 
 1.50156650e-06  8.68514711e-01  1.50156650e-06  8.23681267e-01  1.50156650e-06  8.32404526e-01  1.50156650e-06  1.80000000e+00  1.50156650e-06  2.55597373e-08  1.50156650e-06  8.27869557e-01  1.50156650e-06  1.77910828e+00  1.50156650e-06  1.78319655e+00                                 
 1.59966712e-06  8.68515080e-01  1.59966712e-06  8.23681294e-01  1.59966712e-06  8.32094916e-01  1.59966712e-06  1.80000000e+00  1.59966712e-06 -9.52697220e-09  1.59966712e-06  8.27870589e-01  1.59966712e-06  1.77910448e+00  1.59966712e-06  1.78318333e+00                                 
 1.71512524e-06  8.68514640e-01  1.71512524e-06  8.23681258e-01  1.71512524e-06  8.32162337e-01  1.71512524e-06  1.80000000e+00  1.71512524e-06  1.25903452e-08  1.71512524e-06  8.27869665e-01  1.71512524e-06  1.77909828e+00  1.71512524e-06  1.78317146e+00                                 
 1.90250837e-06  8.68515115e-01  1.90250837e-06  8.23681300e-01  1.90250837e-06  8.32076204e-01  1.90250837e-06  1.80000000e+00  1.90250837e-06 -1.30540968e-09  1.90250837e-06  8.27870491e-01  1.90250837e-06  1.77909029e+00  1.90250837e-06  1.78315701e+00                                 
 2.09513746e-06  8.68514627e-01  2.09513746e-06  8.23681256e-01  2.09513746e-06  8.32135624e-01  2.09513746e-06  1.80000000e+00  2.09513746e-06  7.91722118e-09  2.09513746e-06  8.27869712e-01  2.09513746e-06  1.77908077e+00  2.09513746e-06  1.78314561e+00                                 
 2.42625735e-06  8.68515123e-01  2.42625735e-06  8.23681302e-01  2.42625735e-06  8.32080004e-01  2.42625735e-06  1.80000000e+00  2.42625735e-06  1.85014900e-09  2.42625735e-06  8.27870454e-01  2.42625735e-06  1.77906624e+00  2.42625735e-06  1.78312895e+00                                 
 2.85979154e-06  8.68514624e-01  2.85979154e-06  8.23681254e-01  2.85979154e-06  8.32125019e-01  2.85979154e-06  1.80000000e+00  2.85979154e-06  6.18781889e-09  2.85979154e-06  8.27869735e-01  2.85979154e-06  1.77904583e+00  2.85979154e-06  1.78310900e+00                                 
 3.50945416e-06  8.68515125e-01  3.50945416e-06  8.23681303e-01  3.50945416e-06  8.32085870e-01  3.50945416e-06  1.80000000e+00  3.50945416e-06  3.01855569e-09  3.50945416e-06  8.27870440e-01  3.50945416e-06  1.77901672e+00  3.50945416e-06  1.78307958e+00                                 
 4.51236608e-06  8.68514624e-01  4.51236608e-06  8.23681254e-01  4.51236608e-06  8.32122192e-01  4.51236608e-06  1.80000000e+00  4.51236608e-06  5.45516551e-09  4.51236608e-06  8.27869742e-01  4.51236608e-06  1.77897034e+00  4.51236608e-06  1.78303426e+00                                 
 5.71236608e-06  8.68515125e-01  5.71236608e-06  8.23681304e-01  5.71236608e-06  8.32088888e-01  5.71236608e-06  1.80000000e+00  5.71236608e-06  3.52933025e-09  5.71236608e-06  8.27870434e-01  5.71236608e-06  1.77891618e+00  5.71236608e-06  1.78298006e+00                                 
 6.00100000e-06  8.68514623e-01  6.00100000e-06  8.23681253e-01  6.00100000e-06  8.32122723e-01  6.00100000e-06  1.80000000e+00  6.00100000e-06  4.36935996e-09  6.00100000e-06  8.27869758e-01  6.00100000e-06  1.77890244e+00  6.00100000e-06  1.78296704e+00                                 
 6.00110000e-06  8.68487952e-01  6.00110000e-06  8.23479259e-01  6.00110000e-06  8.29925800e-01  6.00110000e-06  1.62000000e+00  6.00110000e-06 -8.88886936e-05  6.00110000e-06  8.25875194e-01  6.00110000e-06  1.77722947e+00  6.00110000e-06  1.78294837e+00                                 
 6.00130000e-06  8.68513913e-01  6.00130000e-06  8.23551948e-01  6.00130000e-06  8.30802626e-01  6.00130000e-06  1.26000000e+00  6.00130000e-06  5.32668551e-05  6.00130000e-06  8.26334548e-01  6.00130000e-06  1.77761803e+00  6.00130000e-06  1.78297687e+00                                 
 6.00170000e-06  8.68534922e-01  6.00170000e-06  8.23642810e-01  6.00170000e-06  8.32202035e-01  6.00170000e-06  5.40000000e-01  6.00170000e-06 -2.33734231e-03  6.00170000e-06  8.26407187e-01  6.00170000e-06  1.77463453e+00  6.00170000e-06  1.78293820e+00                                 
 6.00200000e-06  8.68514957e-01  6.00200000e-06  8.21101685e-01  6.00200000e-06  8.85555565e-01  6.00200000e-06  0.00000000e+00  6.00200000e-06  1.56874728e+00  6.00200000e-06  7.89031099e-01  6.00200000e-06  1.55978848e+00  6.00200000e-06  1.78180870e+00                                 
 6.00205265e-06  8.68519961e-01  6.00205265e-06  8.21040788e-01  6.00205265e-06  8.85450153e-01  6.00205265e-06  0.00000000e+00  6.00205265e-06  1.72771156e+00  6.00205265e-06  7.87424766e-01  6.00205265e-06  1.49811742e+00  6.00205265e-06  1.78216995e+00                                 
 6.00215796e-06  8.68513002e-01  6.00215796e-06  8.21479838e-01  6.00215796e-06  8.72896264e-01  6.00215796e-06  0.00000000e+00  6.00215796e-06  1.82247885e+00  6.00215796e-06  7.92719524e-01  6.00215796e-06  1.39091711e+00  6.00215796e-06  1.78282066e+00                                 
 6.00232978e-06  8.68513481e-01  6.00232978e-06  8.22515180e-01  6.00232978e-06  8.54870827e-01  6.00232978e-06  0.00000000e+00  6.00232978e-06  1.78554975e+00  6.00232978e-06  8.06663461e-01  6.00232978e-06  1.27357807e+00  6.00232978e-06  1.78293956e+00                                 
 6.00251478e-06  8.68514814e-01  6.00251478e-06  8.22846314e-01  6.00251478e-06  8.52155756e-01  6.00251478e-06  0.00000000e+00  6.00251478e-06  1.80751268e+00  6.00251478e-06  8.10831410e-01  6.00251478e-06  1.19134058e+00  6.00251478e-06  1.78296334e+00                                 
 6.00279002e-06  8.68512813e-01  6.00279002e-06  8.23215081e-01  6.00279002e-06  8.44015934e-01  6.00279002e-06  0.00000000e+00  6.00279002e-06  1.79416710e+00  6.00279002e-06  8.15609085e-01  6.00279002e-06  1.10867930e+00  6.00279002e-06  1.78299057e+00                                 
 6.00309894e-06  8.68515434e-01  6.00309894e-06  8.23457994e-01  6.00309894e-06  8.42860877e-01  6.00309894e-06  0.00000000e+00  6.00309894e-06  1.80397104e+00  6.00309894e-06  8.18639051e-01  6.00309894e-06  1.04510468e+00  6.00309894e-06  1.78304928e+00                                 
 6.00369181e-06  8.68513109e-01  6.00369181e-06  8.23646940e-01  6.00369181e-06  8.38877665e-01  6.00369181e-06  0.00000000e+00  6.00369181e-06  1.79633972e+00  6.00369181e-06  8.20881685e-01  6.00369181e-06  9.48784330e-01  6.00369181e-06  1.78313885e+00                                 
 6.00425272e-06  8.68515920e-01  6.00425272e-06  8.23839047e-01  6.00425272e-06  8.37604653e-01  6.00425272e-06  0.00000000e+00  6.00425272e-06  1.80278714e+00  6.00425272e-06  8.23506501e-01  6.00425272e-06  8.85462899e-01  6.00425272e-06  1.78319598e+00                                 
 6.00537453e-06  8.68513440e-01  6.00537453e-06  8.24034918e-01  6.00537453e-06  8.32333652e-01  6.00537453e-06  0.00000000e+00  6.00537453e-06  1.79728969e+00  6.00537453e-06  8.27120963e-01  6.00537453e-06  8.32702165e-01  6.00537453e-06  1.78314379e+00                                 
 6.00614068e-06  8.68516149e-01  6.00614068e-06  8.24054730e-01  6.00614068e-06  8.32512658e-01  6.00614068e-06  0.00000000e+00  6.00614068e-06  1.80239338e+00  6.00614068e-06  8.28395758e-01  6.00614068e-06  8.32983789e-01  6.00614068e-06  1.78302130e+00                                 
 6.00702487e-06  8.68513533e-01  6.00702487e-06  8.23927489e-01  6.00702487e-06  8.32347428e-01  6.00702487e-06  0.00000000e+00  6.00702487e-06  1.79784938e+00  6.00702487e-06  8.27822168e-01  6.00702487e-06  8.32112872e-01  6.00702487e-06  1.78279883e+00                                 
 6.00804414e-06  8.68516181e-01  6.00804414e-06  8.23892661e-01  6.00804414e-06  8.32942777e-01  6.00804414e-06  0.00000000e+00  6.00804414e-06  1.80194767e+00  6.00804414e-06  8.28503211e-01  6.00804414e-06  8.32996957e-01  6.00804414e-06  1.78252043e+00                                 
 6.01008268e-06  8.68513562e-01  6.01008268e-06  8.23749258e-01  6.01008268e-06  8.33376603e-01  6.01008268e-06  0.00000000e+00  6.01008268e-06  1.79814015e+00  6.01008268e-06  8.27983721e-01  6.01008268e-06  8.33113712e-01  6.01008268e-06  1.78188131e+00                                 
 6.01415975e-06  8.68516177e-01  6.01415975e-06  8.23721059e-01  6.01415975e-06  8.35249098e-01  6.01415975e-06  0.00000000e+00  6.01415975e-06  1.80181162e+00  6.01415975e-06  8.28588720e-01  6.01415975e-06  8.35239370e-01  6.01415975e-06  1.78054214e+00                                 
 6.02231389e-06  8.68513568e-01  6.02231389e-06  8.23668324e-01  6.02231389e-06  8.38571651e-01  6.02231389e-06  0.00000000e+00  6.02231389e-06  1.79820691e+00  6.02231389e-06  8.28030885e-01  6.02231389e-06  8.38255129e-01  6.02231389e-06  1.77774424e+00                                 
 6.03862217e-06  8.68516179e-01  6.03862217e-06  8.23698731e-01  6.03862217e-06  8.46291241e-01  6.03862217e-06  0.00000000e+00  6.03862217e-06  1.80177910e+00  6.03862217e-06  8.28491439e-01  6.03862217e-06  8.46251343e-01  6.03862217e-06  1.77170678e+00                                 
