 time            v(vbep)         time            v(vben)         time            v(vout)         time            v(vphi1)        time            v(vphi2)        time            v(vref)         time            v(voutc)        time            v(voutcc)       yes             currtemp       
 0.00000000e+00  7.69613330e-01  0.00000000e+00  7.08413896e-01  0.00000000e+00  1.58694752e+00  0.00000000e+00  0.00000000e+00  0.00000000e+00  1.80000000e+00  0.00000000e+00  7.10704094e-01  0.00000000e+00  1.58694750e+00  0.00000000e+00  1.59355589e+00  1.00000000e+00  3.60000000e+01 
 5.00000000e-12  7.69635174e-01  5.00000000e-12  7.08467971e-01  5.00000000e-12  1.58757560e+00  5.00000000e-12  1.80000000e-02  5.00000000e-12  1.80018458e+00  5.00000000e-12  7.11096838e-01  5.00000000e-12  1.58729611e+00  5.00000000e-12  1.59356850e+00                                 
 1.00000000e-11  7.69644777e-01  1.00000000e-11  7.08503765e-01  1.00000000e-11  1.58803282e+00  1.00000000e-11  3.60000000e-02  1.00000000e-11  1.80026852e+00  1.00000000e-11  7.11406003e-01  1.00000000e-11  1.58757210e+00  1.00000000e-11  1.59357512e+00                                 
 2.00000000e-11  7.69651129e-01  2.00000000e-11  7.08553689e-01  2.00000000e-11  1.58869760e+00  2.00000000e-11  7.20000000e-02  2.00000000e-11  1.80032240e+00  2.00000000e-11  7.11889987e-01  2.00000000e-11  1.58800803e+00  2.00000000e-11  1.59358121e+00                                 
 4.00000000e-11  7.69638827e-01  4.00000000e-11  7.08590354e-01  4.00000000e-11  1.58915630e+00  4.00000000e-11  1.44000000e-01  4.00000000e-11  1.80019341e+00  4.00000000e-11  7.12355573e-01  4.00000000e-11  1.58844468e+00  4.00000000e-11  1.59357488e+00                                 
 8.00000000e-11  7.69625048e-01  8.00000000e-11  7.08595705e-01  8.00000000e-11  1.58903896e+00  8.00000000e-11  2.88000000e-01  8.00000000e-11  1.80002964e+00  8.00000000e-11  7.12484753e-01  8.00000000e-11  1.58860832e+00  8.00000000e-11  1.59355966e+00                                 
 1.60000000e-10  7.69625843e-01  1.60000000e-10  7.08584085e-01  1.60000000e-10  1.58855908e+00  1.60000000e-10  5.76000000e-01  1.60000000e-10  1.80001086e+00  1.60000000e-10  7.12282607e-01  1.60000000e-10  1.58847933e+00  1.60000000e-10  1.59355428e+00                                 
 3.20000000e-10  7.69559768e-01  3.20000000e-10  7.08140942e-01  3.20000000e-10  1.58463679e+00  3.20000000e-10  1.15200000e+00  3.20000000e-10  1.80072355e+00  3.20000000e-10  7.08440803e-01  3.20000000e-10  1.58533266e+00  3.20000000e-10  1.59352369e+00                                 
 5.00000000e-10  7.69661097e-01  5.00000000e-10  7.08591436e-01  5.00000000e-10  1.58015465e+00  5.00000000e-10  1.80000000e+00  5.00000000e-10  1.55172110e-01  5.00000000e-10  7.14147736e-01  5.00000000e-10  1.59009873e+00  5.00000000e-10  1.59360818e+00                                 
 5.20931046e-10  7.69659107e-01  5.20931046e-10  7.08631456e-01  5.20931046e-10  1.57954075e+00  5.20931046e-10  1.80000000e+00  5.20931046e-10  4.06290917e-02  5.20931046e-10  7.15679592e-01  5.20931046e-10  1.59096930e+00  5.20931046e-10  1.59360052e+00                                 
 5.62793137e-10  7.69724406e-01  5.62793137e-10  7.08706914e-01  5.62793137e-10  1.57903188e+00  5.62793137e-10  1.80000000e+00  5.62793137e-10 -1.47633162e-02  5.62793137e-10  7.17743082e-01  5.62793137e-10  1.59276025e+00  5.62793137e-10  1.59359804e+00                                 
 6.46517321e-10  7.69819221e-01  6.46517321e-10  7.08546738e-01  6.46517321e-10  1.57629200e+00  6.46517321e-10  1.80000000e+00  6.46517321e-10  1.17158996e-02  6.46517321e-10  7.17005598e-01  6.46517321e-10  1.59232925e+00  6.46517321e-10  1.59354440e+00                                 
 7.65319711e-10  7.69848809e-01  7.65319711e-10  7.08516267e-01  7.65319711e-10  1.57500995e+00  7.65319711e-10  1.80000000e+00  7.65319711e-10 -9.23309962e-03  7.65319711e-10  7.18092876e-01  7.65319711e-10  1.59311562e+00  7.65319711e-10  1.59357377e+00                                 
 9.42302866e-10  7.69902387e-01  9.42302866e-10  7.08483696e-01  9.42302866e-10  1.57418200e+00  9.42302866e-10  1.80000000e+00  9.42302866e-10  8.53362284e-03  9.42302866e-10  7.18841566e-01  9.42302866e-10  1.59391752e+00  9.42302866e-10  1.59354544e+00                                 
 1.29626918e-09  7.69892842e-01  1.29626918e-09  7.08408543e-01  1.29626918e-09  1.57201427e+00  1.29626918e-09  1.80000000e+00  1.29626918e-09 -7.75242415e-03  1.29626918e-09  7.18621338e-01  1.29626918e-09  1.59359898e+00  1.29626918e-09  1.59356607e+00                                 
 1.74164823e-09  7.69841916e-01  1.74164823e-09  7.08420859e-01  1.74164823e-09  1.57063945e+00  1.74164823e-09  1.80000000e+00  1.74164823e-09  7.49316315e-03  1.74164823e-09  7.18434374e-01  1.74164823e-09  1.59356026e+00  1.74164823e-09  1.59359637e+00                                 
 2.40326389e-09  7.69706191e-01  2.40326389e-09  7.08383475e-01  2.40326389e-09  1.56867428e+00  2.40326389e-09  1.80000000e+00  2.40326389e-09 -7.21240972e-03  2.40326389e-09  7.17104752e-01  2.40326389e-09  1.59227787e+00  2.40326389e-09  1.59368798e+00                                 
 3.00806165e-09  7.69648300e-01  3.00806165e-09  7.08413532e-01  3.00806165e-09  1.56750832e+00  3.00806165e-09  1.80000000e+00  3.00806165e-09  6.96162464e-03  3.00806165e-09  7.16646018e-01  3.00806165e-09  1.59198995e+00  3.00806165e-09  1.59377297e+00                                 
 3.96137797e-09  7.69585383e-01  3.96137797e-09  7.08382448e-01  3.96137797e-09  1.56456109e+00  3.96137797e-09  1.80000000e+00  3.96137797e-09 -6.79840463e-03  3.96137797e-09  7.14996936e-01  3.96137797e-09  1.59043527e+00  3.96137797e-09  1.59390813e+00                                 
 5.40481979e-09  7.69578894e-01  5.40481979e-09  7.08416893e-01  5.40481979e-09  1.56061215e+00  5.40481979e-09  1.80000000e+00  5.40481979e-09  6.69934995e-03  5.40481979e-09  7.13782912e-01  5.40481979e-09  1.58948340e+00  5.40481979e-09  1.59407285e+00                                 
 8.29170342e-09  7.69563819e-01  8.29170342e-09  7.08392814e-01  8.29170342e-09  1.55103924e+00  8.29170342e-09  1.80000000e+00  8.29170342e-09 -6.64219052e-03  8.29170342e-09  7.11163937e-01  8.29170342e-09  1.58709050e+00  8.29170342e-09  1.59424124e+00                                 
 1.19547280e-08  7.69578716e-01  1.19547280e-08  7.08428929e-01  1.19547280e-08  1.53877914e+00  1.19547280e-08  1.80000000e+00  1.19547280e-08  6.61644744e-03  1.19547280e-08  7.10214096e-01  1.19547280e-08  1.58637144e+00  1.19547280e-08  1.59422254e+00                                 
 1.48064521e-08  7.69575585e-01  1.48064521e-08  7.08398134e-01  1.48064521e-08  1.52774818e+00  1.48064521e-08  1.80000000e+00  1.48064521e-08 -6.54591519e-03  1.48064521e-08  7.09422403e-01  1.48064521e-08  1.58557076e+00  1.48064521e-08  1.59411098e+00                                 
 1.81090038e-08  7.69598685e-01  1.81090038e-08  7.08429716e-01  1.81090038e-08  1.51474324e+00  1.81090038e-08  1.80000000e+00  1.81090038e-08  6.52635454e-03  1.81090038e-08  7.09713708e-01  1.81090038e-08  1.58592573e+00  1.81090038e-08  1.59395746e+00                                 
 2.16022432e-08  7.69597427e-01  2.16022432e-08  7.08398358e-01  2.16022432e-08  1.49934927e+00  2.16022432e-08  1.80000000e+00  2.16022432e-08 -6.46069643e-03  2.16022432e-08  7.09365586e-01  2.16022432e-08  1.58550887e+00  2.16022432e-08  1.59379520e+00                                 
 2.67557329e-08  7.69618354e-01  2.67557329e-08  7.08429870e-01  2.67557329e-08  1.47636632e+00  2.67557329e-08  1.80000000e+00  2.67557329e-08  6.45997655e-03  2.67557329e-08  7.09968984e-01  2.67557329e-08  1.58613198e+00  2.67557329e-08  1.59359683e+00                                 
 3.26557548e-08  7.69611161e-01  3.26557548e-08  7.08398371e-01  3.26557548e-08  1.44842183e+00  3.26557548e-08  1.80000000e+00  3.26557548e-08 -6.40932168e-03  3.26557548e-08  7.09800141e-01  3.26557548e-08  1.58587215e+00  3.26557548e-08  1.59342720e+00                                 
 4.17807767e-08  7.69623271e-01  4.17807767e-08  7.08429781e-01  4.17807767e-08  1.40534451e+00  4.17807767e-08  1.80000000e+00  4.17807767e-08  6.42137585e-03  4.17807767e-08  7.10487094e-01  4.17807767e-08  1.58657066e+00  4.17807767e-08  1.59327605e+00                                 
 5.38816584e-08  7.69610299e-01  5.38816584e-08  7.08398200e-01  5.38816584e-08  1.34710829e+00  5.38816584e-08  1.80000000e+00  5.38816584e-08 -6.38264439e-03  5.38816584e-08  7.10295768e-01  5.38816584e-08  1.58629686e+00  5.38816584e-08  1.59319461e+00                                 
 7.57770654e-08  7.69619826e-01  7.57770654e-08  7.08429654e-01  7.57770654e-08  1.24285013e+00  7.57770654e-08  1.80000000e+00  7.57770654e-08  6.40357814e-03  7.57770654e-08  7.10860402e-01  7.57770654e-08  1.58689536e+00  7.57770654e-08  1.59319604e+00                                 
 1.10848676e-07  7.69607724e-01  1.10848676e-07  7.08398127e-01  1.10848676e-07  1.07639057e+00  1.10848676e-07  1.80000000e+00  1.10848676e-07 -6.37228061e-03  1.10848676e-07  7.10500457e-01  1.10848676e-07  1.58647862e+00  1.10848676e-07  1.59326161e+00                                 
 1.50330129e-07  7.69618724e-01  1.50330129e-07  7.08429629e-01  1.50330129e-07  8.94302516e-01  1.50330129e-07  1.80000000e+00  1.50330129e-07  6.39655838e-03  1.50330129e-07  7.10905950e-01  1.50330129e-07  1.58693628e+00  1.50330129e-07  1.59330394e+00                                 
 2.03348387e-07  7.69608414e-01  2.03348387e-07  7.08398148e-01  2.03348387e-07  7.33657573e-01  2.03348387e-07  1.80000000e+00  2.03348387e-07 -6.36426967e-03  2.03348387e-07  7.10499589e-01  2.03348387e-07  1.58647510e+00  2.03348387e-07  1.59331203e+00                                 
 2.46481124e-07  7.69618768e-01  2.46481124e-07  7.08429719e-01  2.46481124e-07  7.08822997e-01  2.46481124e-07  1.80000000e+00  2.46481124e-07  6.39312871e-03  2.46481124e-07  7.10912676e-01  2.46481124e-07  1.58693841e+00  2.46481124e-07  1.59331634e+00                                 
 2.87975568e-07  7.69606676e-01  2.87975568e-07  7.08397940e-01  2.87975568e-07  7.14034479e-01  2.87975568e-07  1.80000000e+00  2.87975568e-07 -6.35770034e-03  2.87975568e-07  7.10497829e-01  2.87975568e-07  1.58647049e+00  2.87975568e-07  1.59331269e+00                                 
 3.16950438e-07  7.69620233e-01  3.16950438e-07  7.08429899e-01  3.16950438e-07  7.13035844e-01  3.16950438e-07  1.80000000e+00  3.16950438e-07  6.38521147e-03  3.16950438e-07  7.10908996e-01  3.16950438e-07  1.58693244e+00  3.16950438e-07  1.59331309e+00                                 
 3.48083696e-07  7.69606600e-01  3.48083696e-07  7.08397857e-01  3.48083696e-07  7.12939764e-01  3.48083696e-07  1.80000000e+00  3.48083696e-07 -6.34877490e-03  3.48083696e-07  7.10499276e-01  3.48083696e-07  1.58646951e+00  3.48083696e-07  1.59330932e+00                                 
 3.95938514e-07  7.69619933e-01  3.95938514e-07  7.08429921e-01  3.95938514e-07  7.13158149e-01  3.95938514e-07  1.80000000e+00  3.95938514e-07  6.37807131e-03  3.95938514e-07  7.10908728e-01  3.95938514e-07  1.58692917e+00  3.95938514e-07  1.59331004e+00                                 
 4.67831481e-07  7.69606809e-01  4.67831481e-07  7.08397853e-01  4.67831481e-07  7.12911016e-01  4.67831481e-07  1.80000000e+00  4.67831481e-07 -6.34408231e-03  4.67831481e-07  7.10499355e-01  4.67831481e-07  1.58646509e+00  4.67831481e-07  1.59330469e+00                                 
 6.11617417e-07  7.69619814e-01  6.11617417e-07  7.08429921e-01  6.11617417e-07  7.13168592e-01  6.11617417e-07  1.80000000e+00  6.11617417e-07  6.37524642e-03  6.11617417e-07  7.10908691e-01  6.11617417e-07  1.58692096e+00  6.11617417e-07  1.59330191e+00                                 
 8.99189287e-07  7.69606866e-01  8.99189287e-07  7.08397853e-01  8.99189287e-07  7.12906983e-01  8.99189287e-07  1.80000000e+00  8.99189287e-07 -6.34255990e-03  8.99189287e-07  7.10499372e-01  8.99189287e-07  1.58644882e+00  8.99189287e-07  1.59328840e+00                                 
 1.47433303e-06  7.69619786e-01  1.47433303e-06  7.08429921e-01  1.47433303e-06  7.13170337e-01  1.47433303e-06  1.80000000e+00  1.47433303e-06  6.37454632e-03  1.47433303e-06  7.10908682e-01  1.47433303e-06  1.58688835e+00  1.47433303e-06  1.59326936e+00                                 
 2.47433303e-06  7.69606881e-01  2.47433303e-06  7.08397853e-01  2.47433303e-06  7.12906110e-01  2.47433303e-06  1.80000000e+00  2.47433303e-06 -6.34227735e-03  2.47433303e-06  7.10499376e-01  2.47433303e-06  1.58638932e+00  2.47433303e-06  1.59322899e+00                                 
 3.47433303e-06  7.69619775e-01  3.47433303e-06  7.08429920e-01  3.47433303e-06  7.13170945e-01  3.47433303e-06  1.80000000e+00  3.47433303e-06  6.37431481e-03  3.47433303e-06  7.10908679e-01  3.47433303e-06  1.58681280e+00  3.47433303e-06  1.59319393e+00                                 
 4.47433303e-06  7.69606891e-01  4.47433303e-06  7.08397853e-01  4.47433303e-06  7.12905513e-01  4.47433303e-06  1.80000000e+00  4.47433303e-06 -6.34213964e-03  4.47433303e-06  7.10499379e-01  4.47433303e-06  1.58631378e+00  4.47433303e-06  1.59315357e+00                                 
 5.47433303e-06  7.69619764e-01  5.47433303e-06  7.08429920e-01  5.47433303e-06  7.13171519e-01  5.47433303e-06  1.80000000e+00  5.47433303e-06  6.37404639e-03  5.47433303e-06  7.10908676e-01  5.47433303e-06  1.58673726e+00  5.47433303e-06  1.59311852e+00                                 
 6.47433303e-06  7.69606902e-01  6.47433303e-06  7.08397853e-01  6.47433303e-06  7.12904946e-01  6.47433303e-06  1.80000000e+00  6.47433303e-06 -6.34187393e-03  6.47433303e-06  7.10499382e-01  6.47433303e-06  1.58623826e+00  6.47433303e-06  1.59307817e+00                                 
 7.47433303e-06  7.69619754e-01  7.47433303e-06  7.08429920e-01  7.47433303e-06  7.13172062e-01  7.47433303e-06  1.80000000e+00  7.47433303e-06  6.37377797e-03  7.47433303e-06  7.10908673e-01  7.47433303e-06  1.58666176e+00  7.47433303e-06  1.59304314e+00                                 
 8.47433303e-06  7.69606912e-01  8.47433303e-06  7.08397853e-01  8.47433303e-06  7.12904409e-01  8.47433303e-06  1.80000000e+00  8.47433303e-06 -6.34160824e-03  8.47433303e-06  7.10499385e-01  8.47433303e-06  1.58616275e+00  8.47433303e-06  1.59300277e+00                                 
 9.47433303e-06  7.69619744e-01  9.47433303e-06  7.08429920e-01  9.47433303e-06  7.13172577e-01  9.47433303e-06  1.80000000e+00  9.47433303e-06  6.37350957e-03  9.47433303e-06  7.10908670e-01  9.47433303e-06  1.58658620e+00  9.47433303e-06  1.59296771e+00                                 
 1.00005000e-05  7.69606927e-01  1.00005000e-05  7.08397854e-01  1.00005000e-05  7.12903679e-01  1.00005000e-05  1.80000000e+00  1.00005000e-05 -6.34125434e-03  1.00005000e-05  7.10499390e-01  1.00005000e-05  1.58610510e+00  1.00005000e-05  1.59294520e+00                                 
 1.00005500e-05  7.69576820e-01  1.00005500e-05  7.08222108e-01  1.00005500e-05  7.11275341e-01  1.00005500e-05  1.62000000e+00  1.00005500e-05 -6.80704687e-04  1.00005500e-05  7.09152123e-01  1.00005500e-05  1.58497294e+00  1.00005500e-05  1.59293064e+00                                 
 1.00006500e-05  7.69604706e-01  1.00006500e-05  7.08206570e-01  1.00006500e-05  7.11380683e-01  1.00006500e-05  1.26000000e+00  1.00006500e-05  5.05011676e-04  1.00006500e-05  7.08902968e-01  1.00006500e-05  1.58476497e+00  1.00006500e-05  1.59294799e+00                                 
 1.00008500e-05  7.69644216e-01  1.00008500e-05  7.08420054e-01  1.00008500e-05  7.13733236e-01  1.00008500e-05  5.40000000e-01  1.00008500e-05 -3.90165707e-03  1.00008500e-05  7.10196579e-01  1.00008500e-05  1.58476488e+00  1.00008500e-05  1.59294458e+00                                 
 1.00010000e-05  7.69601884e-01  1.00010000e-05  7.07399864e-01  1.00010000e-05  7.34358260e-01  1.00010000e-05  0.00000000e+00  1.00010000e-05  1.50427012e+00  1.00010000e-05  6.98250671e-01  1.00010000e-05  1.52605040e+00  1.00010000e-05  1.59241710e+00                                 
 1.00010259e-05  7.69618973e-01  1.00010259e-05  7.07089605e-01  1.00010259e-05  7.40540432e-01  1.00010259e-05  0.00000000e+00  1.00010259e-05  1.68837032e+00  1.00010259e-05  6.94421362e-01  1.00010259e-05  1.49991703e+00  1.00010259e-05  1.59226236e+00                                 
 1.00010776e-05  7.69616225e-01  1.00010776e-05  7.06490087e-01  1.00010776e-05  7.46322772e-01  1.00010776e-05  0.00000000e+00  1.00010776e-05  1.82218199e+00  1.00010776e-05  6.87358592e-01  1.00010776e-05  1.44154480e+00  1.00010776e-05  1.59213482e+00                                 
 1.00011810e-05  7.69609473e-01  1.00011810e-05  7.06382812e-01  1.00011810e-05  7.39740859e-01  1.00011810e-05  0.00000000e+00  1.00011810e-05  1.78625117e+00  1.00011810e-05  6.86909986e-01  1.00011810e-05  1.33937618e+00  1.00011810e-05  1.59265513e+00                                 
 1.00013110e-05  7.69616945e-01  1.00013110e-05  7.06718809e-01  1.00013110e-05  7.36121306e-01  1.00013110e-05  0.00000000e+00  1.00013110e-05  1.80737889e+00  1.00013110e-05  6.91734947e-01  1.00013110e-05  1.24152134e+00  1.00013110e-05  1.59301194e+00                                 
 1.00015270e-05  7.69608942e-01  1.00015270e-05  7.06902935e-01  1.00015270e-05  7.31842719e-01  1.00015270e-05  0.00000000e+00  1.00015270e-05  1.79372469e+00  1.00015270e-05  6.93252711e-01  1.00015270e-05  1.10735564e+00  1.00015270e-05  1.59319959e+00                                 
 1.00018613e-05  7.69616231e-01  1.00018613e-05  7.07471982e-01  1.00018613e-05  7.27026053e-01  1.00018613e-05  0.00000000e+00  1.00018613e-05  1.80469413e+00  1.00018613e-05  6.98291353e-01  1.00018613e-05  9.60237572e-01  1.00018613e-05  1.59320144e+00                                 
 1.00023155e-05  7.69609481e-01  1.00023155e-05  7.07940651e-01  1.00023155e-05  7.23096473e-01  1.00023155e-05  0.00000000e+00  1.00023155e-05  1.79554554e+00  1.00023155e-05  7.01474392e-01  1.00023155e-05  8.21360868e-01  1.00023155e-05  1.59277557e+00                                 
 1.00028058e-05  7.69616270e-01  1.00028058e-05  7.08610963e-01  1.00028058e-05  7.17031932e-01  1.00028058e-05  0.00000000e+00  1.00028058e-05  1.80363794e+00  1.00028058e-05  7.08021055e-01  1.00028058e-05  7.48127361e-01  1.00028058e-05  1.59195846e+00                                 
 1.00032715e-05  7.69610052e-01  1.00032715e-05  7.08794902e-01  1.00032715e-05  7.16035414e-01  1.00032715e-05  0.00000000e+00  1.00032715e-05  1.79675682e+00  1.00032715e-05  7.09582965e-01  1.00032715e-05  7.22634441e-01  1.00032715e-05  1.59076649e+00                                 
 1.00037974e-05  7.69616116e-01  1.00037974e-05  7.08956173e-01  1.00037974e-05  7.15135114e-01  1.00037974e-05  0.00000000e+00  1.00037974e-05  1.80283582e+00  1.00037974e-05  7.11859523e-01  1.00037974e-05  7.17252278e-01  1.00037974e-05  1.58907277e+00                                 
 1.00043983e-05  7.69610455e-01  1.00043983e-05  7.08842895e-01  1.00043983e-05  7.17140533e-01  1.00043983e-05  0.00000000e+00  1.00043983e-05  1.79746172e+00  1.00043983e-05  7.11353164e-01  1.00043983e-05  7.15894622e-01  1.00043983e-05  1.58682754e+00                                 
 1.00052294e-05  7.69615977e-01  1.00052294e-05  7.08823528e-01  1.00052294e-05  7.18261830e-01  1.00052294e-05  0.00000000e+00  1.00052294e-05  1.80233454e+00  1.00052294e-05  7.12369885e-01  1.00052294e-05  7.18350275e-01  1.00052294e-05  1.58352923e+00                                 
 1.00066753e-05  7.69610669e-01  1.00066753e-05  7.08626723e-01  1.00066753e-05  7.22739277e-01  1.00066753e-05  0.00000000e+00  1.00066753e-05  1.79777283e+00  1.00066753e-05  7.11624877e-01  1.00066753e-05  7.21135439e-01  1.00066753e-05  1.57748663e+00                                 
