 time            v(vbep)         time            v(vben)         time            v(vout)         time            v(vphi1)        time            v(vphi2)        time            v(vref)         yes             currtemp       
 0.00000000e+00  5.24874240e-01  0.00000000e+00  4.57366389e-01  0.00000000e+00  3.41773205e-01  0.00000000e+00  0.00000000e+00  0.00000000e+00  1.79997515e+00  0.00000000e+00  4.57366389e-01  1.00000000e+00  9.80000000e+01 
 5.00000000e-12  5.24859439e-01  5.00000000e-12  4.57354092e-01  5.00000000e-12  3.42321811e-01  5.00000000e-12  1.80000000e-02  5.00000000e-12  1.80008623e+00  5.00000000e-12  4.57354092e-01                                 
 1.00000000e-11  5.24844788e-01  1.00000000e-11  4.57342031e-01  1.00000000e-11  3.42772862e-01  1.00000000e-11  3.60000000e-02  1.00000000e-11  1.80014682e+00  1.00000000e-11  4.57342031e-01                                 
 2.00000000e-11  5.24815560e-01  2.00000000e-11  4.57317967e-01  2.00000000e-11  3.43524966e-01  2.00000000e-11  7.20000000e-02  2.00000000e-11  1.80020597e+00  2.00000000e-11  4.57317967e-01                                 
 4.00000000e-11  5.24757242e-01  4.00000000e-11  4.57269945e-01  4.00000000e-11  3.44422008e-01  4.00000000e-11  1.44000000e-01  4.00000000e-11  1.80016890e+00  4.00000000e-11  4.57269945e-01                                 
 8.00000000e-11  5.24640893e-01  8.00000000e-11  4.57174106e-01  8.00000000e-11  3.45170325e-01  8.00000000e-11  2.88000000e-01  8.00000000e-11  1.80008011e+00  8.00000000e-11  4.57174106e-01                                 
 1.60000000e-10  5.24409367e-01  1.60000000e-10  4.56983226e-01  1.60000000e-10  3.45734869e-01  1.60000000e-10  5.76000000e-01  1.60000000e-10  1.80003576e+00  1.60000000e-10  4.56983226e-01                                 
 3.20000000e-10  5.23950803e-01  3.20000000e-10  4.56604554e-01  3.20000000e-10  3.44524933e-01  3.20000000e-10  1.15200000e+00  3.20000000e-10  1.80035557e+00  3.20000000e-10  4.56604554e-01                                 
 5.00000000e-10  5.23441836e-01  5.00000000e-10  4.56183301e-01  5.00000000e-10  5.59290731e-01  5.00000000e-10  1.80000000e+00  5.00000000e-10  2.02021424e-01  5.00000000e-10  4.56183301e-01                                 
 5.23053857e-10  5.23377232e-01  5.23053857e-10  4.56129751e-01  5.23053857e-10  6.12966850e-01  5.23053857e-10  1.80000000e+00  5.23053857e-10  5.17921940e-02  5.23053857e-10  4.56129751e-01                                 
 5.69161571e-10  5.23248263e-01  5.69161571e-10  4.56022816e-01  5.69161571e-10  7.12722829e-01  5.69161571e-10  1.80000000e+00  5.69161571e-10 -1.82386821e-02  5.69161571e-10  4.56022816e-01                                 
 6.61377000e-10  5.22991760e-01  6.61377000e-10  4.55809943e-01  6.61377000e-10  8.73639086e-01  6.61377000e-10  1.80000000e+00  6.61377000e-10  1.58496418e-02  6.61377000e-10  4.55809943e-01                                 
 7.79754516e-10  5.22665216e-01  7.79754516e-10  4.55538577e-01  7.79754516e-10  1.03562854e+00  7.79754516e-10  1.80000000e+00  7.79754516e-10 -1.11925147e-02  7.79754516e-10  4.55538577e-01                                 
 9.69752387e-10  5.22147291e-01  9.69752387e-10  4.55107336e-01  9.69752387e-10  1.24524389e+00  9.69752387e-10  1.80000000e+00  9.69752387e-10  1.14250104e-02  9.69752387e-10  4.55107336e-01                                 
 1.33416802e-09  5.21174360e-01  1.33416802e-09  4.54294528e-01  1.33416802e-09  1.52572524e+00  1.33416802e-09  1.80000000e+00  1.33416802e-09 -9.50034356e-03  1.33416802e-09  4.54294528e-01                                 
 1.89934153e-09  5.19715738e-01  1.89934153e-09  4.53069433e-01  1.89934153e-09  1.72514045e+00  1.89934153e-09  1.80000000e+00  1.89934153e-09  9.73703841e-03  1.89934153e-09  4.53069433e-01                                 
 2.19347485e-09  5.18979743e-01  2.19347485e-09  4.52448283e-01  2.19347485e-09  1.75919238e+00  2.19347485e-09  1.80000000e+00  2.19347485e-09 -8.69032229e-03  2.19347485e-09  4.52448283e-01                                 
 2.55368513e-09  5.18098606e-01  2.55368513e-09  4.51702088e-01  2.55368513e-09  1.77746931e+00  2.55368513e-09  1.80000000e+00  2.55368513e-09  8.30396674e-03  2.55368513e-09  4.51702088e-01                                 
 2.94449597e-09  5.17166648e-01  2.94449597e-09  4.50909869e-01  2.94449597e-09  1.78438079e+00  2.94449597e-09  1.80000000e+00  2.94449597e-09 -7.69080623e-03  2.94449597e-09  4.50909869e-01                                 
 3.64977750e-09  5.15543833e-01  3.64977750e-09  4.49523283e-01  3.64977750e-09  1.78734459e+00  3.64977750e-09  1.80000000e+00  3.64977750e-09  7.52573871e-03  3.64977750e-09  4.49523283e-01                                 
 4.42203708e-09  5.13847666e-01  4.42203708e-09  4.48064531e-01  4.42203708e-09  1.78574452e+00  4.42203708e-09  1.80000000e+00  4.42203708e-09 -7.21545815e-03  4.42203708e-09  4.48064531e-01                                 
 5.96655624e-09  5.10674468e-01  5.96655624e-09  4.45311296e-01  5.96655624e-09  1.78278628e+00  5.96655624e-09  1.80000000e+00  5.96655624e-09  7.18958707e-03  5.96655624e-09  4.45311296e-01                                 
 7.90337623e-09  5.07051249e-01  7.90337623e-09  4.42130487e-01  7.90337623e-09  1.77832239e+00  7.90337623e-09  1.80000000e+00  7.90337623e-09 -7.02005492e-03  7.90337623e-09  4.42130487e-01                                 
 9.63989188e-09  5.04087699e-01  9.63989188e-09  4.39500730e-01  9.63989188e-09  1.77494096e+00  9.63989188e-09  1.80000000e+00  9.63989188e-09  6.99568772e-03  9.63989188e-09  4.39500730e-01                                 
 1.11208340e-08  5.01741749e-01  1.11208340e-08  4.37402163e-01  1.11208340e-08  1.77160834e+00  1.11208340e-08  1.80000000e+00  1.11208340e-08 -6.81701701e-03  1.11208340e-08  4.37402163e-01                                 
 1.25921424e-08  4.99555680e-01  1.25921424e-08  4.35433899e-01  1.25921424e-08  1.76894176e+00  1.25921424e-08  1.80000000e+00  1.25921424e-08  6.76973550e-03  1.25921424e-08  4.35433899e-01                                 
 1.41472476e-08  4.97384790e-01  1.41472476e-08  4.33467577e-01  1.41472476e-08  1.76559293e+00  1.41472476e-08  1.80000000e+00  1.41472476e-08 -6.60528207e-03  1.41472476e-08  4.33467577e-01                                 
 1.56674374e-08  4.95387583e-01  1.56674374e-08  4.31648465e-01  1.56674374e-08  1.76291130e+00  1.56674374e-08  1.80000000e+00  1.56674374e-08  6.56153080e-03  1.56674374e-08  4.31648465e-01                                 
 1.78484907e-08  4.92713184e-01  1.78484907e-08  4.29197861e-01  1.78484907e-08  1.75846652e+00  1.78484907e-08  1.80000000e+00  1.78484907e-08 -6.43116130e-03  1.78484907e-08  4.29197861e-01                                 
 2.03977196e-08  4.89839614e-01  2.03977196e-08  4.26546092e-01  2.03977196e-08  1.75397529e+00  2.03977196e-08  1.80000000e+00  2.03977196e-08  6.42951489e-03  2.03977196e-08  4.26546092e-01                                 
 2.42410818e-08  4.85939048e-01  2.42410818e-08  4.22916475e-01  2.42410818e-08  1.74678197e+00  2.42410818e-08  1.80000000e+00  2.42410818e-08 -6.33129414e-03  2.42410818e-08  4.22916475e-01                                 
 2.92526971e-08  4.81485333e-01  2.92526971e-08  4.18730570e-01  2.92526971e-08  1.73841273e+00  2.92526971e-08  1.80000000e+00  2.92526971e-08  6.35984900e-03  2.92526971e-08  4.18730570e-01                                 
 3.85408767e-08  4.74578886e-01  3.85408767e-08  4.12162287e-01  3.85408767e-08  1.72295314e+00  3.85408767e-08  1.80000000e+00  3.85408767e-08 -6.28447106e-03  3.85408767e-08  4.12162287e-01                                 
 5.62514480e-08  4.64396392e-01  5.62514480e-08  4.02346622e-01  5.62514480e-08  1.69640701e+00  5.62514480e-08  1.80000000e+00  5.62514480e-08  6.33579213e-03  5.62514480e-08  4.02346622e-01                                 
 9.16725907e-08  4.47834632e-01  9.16725907e-08  3.86596246e-01  9.16725907e-08  1.64527165e+00  9.16725907e-08  1.80000000e+00  9.16725907e-08 -6.27144350e-03  9.16725907e-08  3.86596246e-01                                 
 1.26859327e-07  4.33499911e-01  1.26859327e-07  3.73343174e-01  1.26859327e-07  1.59627148e+00  1.26859327e-07  1.80000000e+00  1.26859327e-07  6.32761366e-03  1.26859327e-07  3.73343174e-01                                 
 1.97232799e-07  4.10003212e-01  1.97232799e-07  3.52000407e-01  1.97232799e-07  1.50053898e+00  1.97232799e-07  1.80000000e+00  1.97232799e-07 -6.26482465e-03  1.97232799e-07  3.52000407e-01                                 
 2.63660697e-07  3.90019976e-01  2.63660697e-07  3.34419594e-01  2.63660697e-07  1.41146596e+00  2.63660697e-07  1.80000000e+00  2.63660697e-07  6.32344235e-03  2.63660697e-07  3.34419594e-01                                 
 3.96516492e-07  3.46880711e-01  3.96516492e-07  2.97994160e-01  3.96516492e-07  1.22864491e+00  3.96516492e-07  1.80000000e+00  3.96516492e-07 -6.26145705e-03  3.96516492e-07  2.97994160e-01                                 
 5.23775133e-07  3.43034565e-01  5.23775133e-07  2.94012587e-01  5.23775133e-07  1.09808898e+00  5.23775133e-07  1.80000000e+00  5.23775133e-07  6.32246766e-03  5.23775133e-07  2.94012587e-01                                 
 5.55589793e-07  4.46154414e-01  5.55589793e-07  3.76958962e-01  5.55589793e-07  1.16326957e+00  5.55589793e-07  1.80000000e+00  5.55589793e-07  2.49673954e-05  5.55589793e-07  3.76958962e-01                                 
 6.19219113e-07  6.23337917e-01  6.19219113e-07  5.52267752e-01  6.19219113e-07  1.26598821e+00  6.19219113e-07  1.80000000e+00  6.19219113e-07  2.34627029e-05  6.19219113e-07  5.52267752e-01                                 
 7.15407910e-07  6.92134986e-01  7.15407910e-07  6.14260313e-01  7.15407910e-07  1.22953962e+00  7.15407910e-07  1.80000000e+00  7.15407910e-07  1.51590740e-05  7.15407910e-07  6.14260313e-01                                 
 7.94931002e-07  6.96562906e-01  7.94931002e-07  6.17645468e-01  7.94931002e-07  1.15057935e+00  7.94931002e-07  1.80000000e+00  7.94931002e-07  2.00406936e-05  7.94931002e-07  6.17645468e-01                                 
 8.79746569e-07  6.68379231e-01  8.79746569e-07  5.94460304e-01  8.79746569e-07  1.04636091e+00  8.79746569e-07  1.80000000e+00  8.79746569e-07  1.34227024e-05  8.79746569e-07  5.94460304e-01                                 
 9.61041597e-07  6.61839553e-01  9.61041597e-07  5.88315619e-01  9.61041597e-07  9.77866979e-01  9.61041597e-07  1.80000000e+00  9.61041597e-07  2.14919126e-05  9.61041597e-07  5.88315619e-01                                 
 1.03465136e-06  6.88562768e-01  1.03465136e-06  6.11348213e-01  1.03465136e-06  9.53125075e-01  1.03465136e-06  1.80000000e+00  1.03465136e-06  1.58280307e-05  1.03465136e-06  6.11348213e-01                                 
 1.04429804e-06  6.89909352e-01  1.04429804e-06  6.12366219e-01  1.04429804e-06  9.47616445e-01  1.04429804e-06  1.80000000e+00  1.04429804e-06  1.80491206e-05  1.04429804e-06  6.12366219e-01                                 
 1.06359141e-06  6.92103753e-01  1.06359141e-06  6.14136747e-01  1.06359141e-06  9.36842640e-01  1.06359141e-06  1.80000000e+00  1.06359141e-06  1.80133222e-05  1.06359141e-06  6.14136747e-01                                 
 1.10217814e-06  6.85823736e-01  1.10217814e-06  6.09047078e-01  1.10217814e-06  9.06602292e-01  1.10217814e-06  1.80000000e+00  1.10217814e-06  1.67363303e-05  1.10217814e-06  6.09047078e-01                                 
 1.10936318e-06  6.81435388e-01  1.10936318e-06  6.05409171e-01  1.10936318e-06  8.98160155e-01  1.10936318e-06  1.80000000e+00  1.10936318e-06  1.62837511e-05  1.10936318e-06  6.05409171e-01                                 
 1.12373325e-06  6.72720221e-01  1.12373325e-06  5.98031541e-01  1.12373325e-06  8.81341820e-01  1.12373325e-06  1.80000000e+00  1.12373325e-06  1.62961233e-05  1.12373325e-06  5.98031541e-01                                 
 1.15247340e-06  6.66800991e-01  1.15247340e-06  5.92878940e-01  1.15247340e-06  8.58300036e-01  1.15247340e-06  1.80000000e+00  1.15247340e-06  1.82689192e-05  1.15247340e-06  5.92878940e-01                                 
 1.20851089e-06  6.79507267e-01  1.20851089e-06  6.03749421e-01  1.20851089e-06  8.35953428e-01  1.20851089e-06  1.80000000e+00  1.20851089e-06  1.84638128e-05  1.20851089e-06  6.03749421e-01                                 
 1.26847127e-06  6.82971806e-01  1.26847127e-06  6.06666183e-01  1.26847127e-06  8.03351008e-01  1.26847127e-06  1.80000000e+00  1.26847127e-06  1.74632798e-05  1.26847127e-06  6.06666183e-01                                 
 1.33624068e-06  6.74833682e-01  1.33624068e-06  5.99813065e-01  1.33624068e-06  7.56665517e-01  1.33624068e-06  1.80000000e+00  1.33624068e-06  1.76412682e-05  1.33624068e-06  5.99813065e-01                                 
 1.43518132e-06  6.77324797e-01  1.43518132e-06  6.01916646e-01  1.43518132e-06  7.03913958e-01  1.43518132e-06  1.80000000e+00  1.43518132e-06  1.82249165e-05  1.43518132e-06  6.01916646e-01                                 
 1.53890526e-06  6.80925919e-01  1.53890526e-06  6.04955509e-01  1.53890526e-06  6.57020539e-01  1.53890526e-06  1.80000000e+00  1.53890526e-06  1.77961846e-05  1.53890526e-06  6.04955509e-01                                 
 1.72488596e-06  6.74771885e-01  1.72488596e-06  5.99756336e-01  1.72488596e-06  5.99553580e-01  1.72488596e-06  1.80000000e+00  1.72488596e-06  1.81293867e-05  1.72488596e-06  5.99756336e-01                                 
 1.74859340e-06  6.76485041e-01  1.74859340e-06  6.01208747e-01  1.74859340e-06  5.98381631e-01  1.74859340e-06  1.80000000e+00  1.74859340e-06  1.82843338e-05  1.74859340e-06  6.01208747e-01                                 
 1.79600827e-06  6.79123745e-01  1.79600827e-06  6.03438502e-01  1.79600827e-06  5.95731802e-01  1.79600827e-06  1.80000000e+00  1.79600827e-06  1.82151596e-05  1.79600827e-06  6.03438502e-01                                 
 1.89083800e-06  6.78178006e-01  1.89083800e-06  6.02646908e-01  1.89083800e-06  5.93448209e-01  1.89083800e-06  1.80000000e+00  1.89083800e-06  1.80630432e-05  1.89083800e-06  6.02646908e-01                                 
 1.99620687e-06  6.77082237e-01  1.99620687e-06  6.01716020e-01  1.99620687e-06  6.02018028e-01  1.99620687e-06  1.80000000e+00  1.99620687e-06  1.83032366e-05  1.99620687e-06  6.01716020e-01                                 
 2.12523922e-06  6.78994559e-01  2.12523922e-06  6.03332383e-01  2.12523922e-06  6.04172690e-01  2.12523922e-06  1.80000000e+00  2.12523922e-06  1.80992769e-05  2.12523922e-06  6.03332383e-01                                 
 2.25934012e-06  6.77332599e-01  2.25934012e-06  6.01930531e-01  2.25934012e-06  6.01442221e-01  2.25934012e-06  1.80000000e+00  2.25934012e-06  1.81716613e-05  2.25934012e-06  6.01930531e-01                                 
 2.51324082e-06  6.78416810e-01  2.51324082e-06  6.02844160e-01  2.51324082e-06  6.03710109e-01  2.51324082e-06  1.80000000e+00  2.51324082e-06  1.81855422e-05  2.51324082e-06  6.02844160e-01                                 
 2.76051946e-06  6.77878678e-01  2.76051946e-06  6.02392583e-01  2.76051946e-06  6.02062005e-01  2.76051946e-06  1.80000000e+00  2.76051946e-06  1.81351165e-05  2.76051946e-06  6.02392583e-01                                 
 3.18775459e-06  6.77988130e-01  3.18775459e-06  6.02482331e-01  3.18775459e-06  6.03197056e-01  3.18775459e-06  1.80000000e+00  3.18775459e-06  1.82017495e-05  3.18775459e-06  6.02482331e-01                                 
 3.78109601e-06  6.78132074e-01  3.78109601e-06  6.02606440e-01  3.78109601e-06  6.02377677e-01  3.78109601e-06  1.80000000e+00  3.78109601e-06  1.81322389e-05  3.78109601e-06  6.02606440e-01                                 
 4.62951181e-06  6.77822135e-01  4.62951181e-06  6.02342251e-01  4.62951181e-06  6.02987832e-01  4.62951181e-06  1.80000000e+00  4.62951181e-06  1.82007924e-05  4.62951181e-06  6.02342251e-01                                 
 5.62951181e-06  6.78247506e-01  5.62951181e-06  6.02703729e-01  5.62951181e-06  6.02524638e-01  5.62951181e-06  1.80000000e+00  5.62951181e-06  1.81345668e-05  5.62951181e-06  6.02703729e-01                                 
 6.62951181e-06  6.77723909e-01  6.62951181e-06  6.02259387e-01  6.62951181e-06  6.02860787e-01  6.62951181e-06  1.80000000e+00  6.62951181e-06  1.81975656e-05  6.62951181e-06  6.02259387e-01                                 
 7.62951181e-06  6.78336390e-01  7.62951181e-06  6.02778568e-01  7.62951181e-06  6.02643716e-01  7.62951181e-06  1.80000000e+00  7.62951181e-06  1.81387121e-05  7.62951181e-06  6.02778568e-01                                 
 8.62951181e-06  6.77642762e-01  8.62951181e-06  6.02190964e-01  8.62951181e-06  6.02750153e-01  8.62951181e-06  1.80000000e+00  8.62951181e-06  1.81925815e-05  8.62951181e-06  6.02190964e-01                                 
 9.62951181e-06  6.78407426e-01  9.62951181e-06  6.02838311e-01  9.62951181e-06  6.02743406e-01  9.62951181e-06  1.80000000e+00  9.62951181e-06  1.81444500e-05  9.62951181e-06  6.02838311e-01                                 
 1.00005000e-05  6.77541866e-01  1.00005000e-05  6.02106011e-01  1.00005000e-05  6.02600533e-01  1.00005000e-05  1.80000000e+00  1.00005000e-05  1.81799643e-05  1.00005000e-05  6.02106011e-01                                 
 1.00005500e-05  6.77542639e-01  1.00005500e-05  6.02106655e-01  1.00005500e-05  5.95905678e-01  1.00005500e-05  1.62000000e+00  1.00005500e-05 -1.18305167e-04  1.00005500e-05  6.02106655e-01                                 
 1.00006500e-05  6.77544198e-01  1.00006500e-05  6.02107960e-01  1.00006500e-05  5.84083964e-01  1.00006500e-05  1.26000000e+00  1.00006500e-05 -1.00790411e-04  1.00006500e-05  6.02107960e-01                                 
 1.00008500e-05  6.77547423e-01  1.00008500e-05  6.02110666e-01  1.00008500e-05  5.74571024e-01  1.00008500e-05  5.40000000e-01  1.00008500e-05  7.39442169e-02  1.00008500e-05  6.02110666e-01                                 
 1.00010000e-05  6.77549898e-01  1.00010000e-05  6.02112749e-01  1.00010000e-05  5.59577617e-01  1.00010000e-05  0.00000000e+00  1.00010000e-05  1.56911488e+00  1.00010000e-05  6.02112749e-01                                 
 1.00010246e-05  6.77550296e-01  1.00010246e-05  6.02113088e-01  1.00010246e-05  5.48498558e-01  1.00010246e-05  0.00000000e+00  1.00010246e-05  1.71041469e+00  1.00010246e-05  6.02113088e-01                                 
 1.00010739e-05  6.77551112e-01  1.00010739e-05  6.02113775e-01  1.00010739e-05  5.29473974e-01  1.00010739e-05  0.00000000e+00  1.00010739e-05  1.81749081e+00  1.00010739e-05  6.02113775e-01                                 
 1.00011725e-05  6.77552804e-01  1.00011725e-05  6.02115185e-01  1.00011725e-05  5.16043293e-01  1.00011725e-05  0.00000000e+00  1.00011725e-05  1.79003503e+00  1.00011725e-05  6.02115185e-01                                 
 1.00013200e-05  6.77555344e-01  1.00013200e-05  6.02117325e-01  1.00013200e-05  5.18060589e-01  1.00013200e-05  0.00000000e+00  1.00013200e-05  1.80660998e+00  1.00013200e-05  6.02117325e-01                                 
 1.00014783e-05  6.77558082e-01  1.00014783e-05  6.02119631e-01  1.00014783e-05  5.17207756e-01  1.00014783e-05  0.00000000e+00  1.00014783e-05  1.79542007e+00  1.00014783e-05  6.02119631e-01                                 
 1.00017949e-05  6.77563615e-01  1.00017949e-05  6.02124291e-01  1.00017949e-05  5.17612625e-01  1.00017949e-05  0.00000000e+00  1.00017949e-05  1.80379199e+00  1.00017949e-05  6.02124291e-01                                 
 1.00024280e-05  6.77574918e-01  1.00024280e-05  6.02133815e-01  1.00024280e-05  5.17147217e-01  1.00024280e-05  0.00000000e+00  1.00024280e-05  1.79653059e+00  1.00024280e-05  6.02133815e-01                                 
