 time            v(vbep)         time            v(vben)         time            v(vout)         time            v(vphi1)        time            v(vphi2)        time            v(vref)         time            v(voutc)        time            v(voutcc)       yes             currtemp       
 0.00000000e+00  8.01849384e-01  0.00000000e+00  7.47535659e-01  0.00000000e+00  1.65833654e+00  0.00000000e+00  0.00000000e+00  0.00000000e+00  1.80000000e+00  0.00000000e+00  7.50646156e-01  0.00000000e+00  1.65833653e+00  0.00000000e+00  1.66409609e+00  1.00000000e+00  8.00000000e+00 
 1.00000000e-11  8.01873266e-01  1.00000000e-11  7.47606152e-01  1.00000000e-11  1.65913699e+00  1.00000000e-11  1.80000000e-02  1.00000000e-11  1.80024730e+00  1.00000000e-11  7.51170298e-01  1.00000000e-11  1.65880120e+00  1.00000000e-11  1.66410839e+00                                 
 2.00000000e-11  8.01879827e-01  2.00000000e-11  7.47650493e-01  2.00000000e-11  1.65965228e+00  2.00000000e-11  3.60000000e-02  2.00000000e-11  1.80034793e+00  2.00000000e-11  7.51562549e-01  2.00000000e-11  1.65915866e+00  2.00000000e-11  1.66411321e+00                                 
 4.00000000e-11  8.01879640e-01  4.00000000e-11  7.47708686e-01  4.00000000e-11  1.66030454e+00  4.00000000e-11  7.20000000e-02  4.00000000e-11  1.80039025e+00  4.00000000e-11  7.52138383e-01  4.00000000e-11  1.65969982e+00  4.00000000e-11  1.66411484e+00                                 
 8.00000000e-11  8.01867771e-01  8.00000000e-11  7.47744369e-01  8.00000000e-11  1.66052452e+00  8.00000000e-11  1.44000000e-01  8.00000000e-11  1.80019154e+00  8.00000000e-11  7.52586453e-01  8.00000000e-11  1.66017019e+00  8.00000000e-11  1.66410402e+00                                 
 1.60000000e-10  8.01864499e-01  1.60000000e-10  7.47749529e-01  1.60000000e-10  1.66022709e+00  1.60000000e-10  2.88000000e-01  1.60000000e-10  1.80000634e+00  1.60000000e-10  7.52641070e-01  1.60000000e-10  1.66027612e+00  1.60000000e-10  1.66409322e+00                                 
 3.20000000e-10  8.01861468e-01  3.20000000e-10  7.47751467e-01  3.20000000e-10  1.65989811e+00  3.20000000e-10  5.76000000e-01  3.20000000e-10  1.80000683e+00  3.20000000e-10  7.52562105e-01  3.20000000e-10  1.66010981e+00  3.20000000e-10  1.66409052e+00                                 
 6.40000000e-10  8.01785177e-01  6.40000000e-10  7.47472428e-01  6.40000000e-10  1.65577129e+00  6.40000000e-10  1.15200000e+00  6.40000000e-10  1.81308194e+00  6.40000000e-10  7.51384949e-01  6.40000000e-10  1.66517412e+00  6.40000000e-10  1.66412002e+00                                 
 9.98574743e-10  8.02325311e-01  9.98574743e-10  7.47578058e-01  9.98574743e-10  1.62732946e+00  9.98574743e-10  1.79743454e+00  9.98574743e-10  8.18616091e-02  9.98574743e-10  7.56241194e-01  9.98574743e-10  1.65849394e+00  9.98574743e-10  1.66403371e+00                                 
 1.00000000e-09  8.02329872e-01  1.00000000e-09  7.47581955e-01  1.00000000e-09  1.62720886e+00  1.00000000e-09  1.80000000e+00  1.00000000e-09  7.06718780e-02  1.00000000e-09  7.56336497e-01  1.00000000e-09  1.65841822e+00  1.00000000e-09  1.66403397e+00                                 
 1.00285051e-09  8.02319461e-01  1.00285051e-09  7.47567149e-01  1.00285051e-09  1.62695183e+00  1.00285051e-09  1.80000000e+00  1.00285051e-09  5.44444771e-02  1.00285051e-09  7.56474268e-01  1.00285051e-09  1.65831335e+00  1.00285051e-09  1.66403593e+00                                 
 1.00855154e-09  8.02302729e-01  1.00855154e-09  7.47562531e-01  1.00855154e-09  1.62672079e+00  1.00855154e-09  1.80000000e+00  1.00855154e-09  2.96427143e-02  1.00855154e-09  7.56925098e-01  1.00855154e-09  1.65836771e+00  1.00855154e-09  1.66405032e+00                                 
 1.01995360e-09  8.02286152e-01  1.01995360e-09  7.47614514e-01  1.01995360e-09  1.62709552e+00  1.01995360e-09  1.80000000e+00  1.01995360e-09  8.24909636e-03  1.01995360e-09  7.58259615e-01  1.01995360e-09  1.65925648e+00  1.01995360e-09  1.66409566e+00                                 
 1.04275772e-09  8.02300894e-01  1.04275772e-09  7.47703008e-01  1.04275772e-09  1.62794648e+00  1.04275772e-09  1.80000000e+00  1.04275772e-09  7.18112531e-04  1.04275772e-09  7.60246117e-01  1.04275772e-09  1.66092537e+00  1.04275772e-09  1.66413215e+00                                 
 1.08836595e-09  8.02372317e-01  1.08836595e-09  7.47704876e-01  1.08836595e-09  1.62785262e+00  1.08836595e-09  1.80000000e+00  1.08836595e-09  1.02625211e-03  1.08836595e-09  7.61445351e-01  1.08836595e-09  1.66200726e+00  1.08836595e-09  1.66410593e+00                                 
 1.17958241e-09  8.02489197e-01  1.17958241e-09  7.47609007e-01  1.17958241e-09  1.62601666e+00  1.17958241e-09  1.80000000e+00  1.17958241e-09  3.00820263e-04  1.17958241e-09  7.61921015e-01  1.17958241e-09  1.66240268e+00  1.17958241e-09  1.66409656e+00                                 
 1.36201534e-09  8.02619416e-01  1.36201534e-09  7.47565906e-01  1.36201534e-09  1.62276379e+00  1.36201534e-09  1.80000000e+00  1.36201534e-09  3.75962527e-04  1.36201534e-09  7.62398210e-01  1.36201534e-09  1.66280463e+00  1.36201534e-09  1.66410542e+00                                 
 1.64736700e-09  8.02558374e-01  1.64736700e-09  7.47545200e-01  1.64736700e-09  1.62148928e+00  1.64736700e-09  1.80000000e+00  1.64736700e-09 -1.71311983e-04  1.64736700e-09  7.61646516e-01  1.64736700e-09  1.66216014e+00  1.64736700e-09  1.66410259e+00                                 
 1.93779560e-09  8.02367910e-01  1.93779560e-09  7.47534771e-01  1.93779560e-09  1.62288510e+00  1.93779560e-09  1.80000000e+00  1.93779560e-09  1.05098854e-04  1.93779560e-09  7.60760405e-01  1.93779560e-09  1.66141231e+00  1.93779560e-09  1.66412115e+00                                 
 2.25103437e-09  8.02172931e-01  2.25103437e-09  7.47523878e-01  2.25103437e-09  1.62436769e+00  2.25103437e-09  1.80000000e+00  2.25103437e-09 -1.75523318e-04  2.25103437e-09  7.59790825e-01  2.25103437e-09  1.66058507e+00  2.25103437e-09  1.66413236e+00                                 
 2.69555487e-09  8.01972544e-01  2.69555487e-09  7.47515308e-01  2.69555487e-09  1.62631276e+00  2.69555487e-09  1.80000000e+00  2.69555487e-09  7.96320912e-05  2.69555487e-09  7.58544360e-01  2.69555487e-09  1.65952986e+00  2.69555487e-09  1.66416248e+00                                 
 3.58459587e-09  8.01782338e-01  3.58459587e-09  7.47508020e-01  3.58459587e-09  1.62886135e+00  3.58459587e-09  1.80000000e+00  3.58459587e-09 -1.59830147e-04  3.58459587e-09  7.56304675e-01  3.58459587e-09  1.65762305e+00  3.58459587e-09  1.66420132e+00                                 
 5.36267787e-09  8.01731267e-01  5.36267787e-09  7.47514342e-01  5.36267787e-09  1.63079655e+00  5.36267787e-09  1.80000000e+00  5.36267787e-09  7.92900430e-05  5.36267787e-09  7.53147338e-01  5.36267787e-09  1.65494408e+00  5.36267787e-09  1.66423037e+00                                 
 7.40713555e-09  8.01770905e-01  7.40713555e-09  7.47525511e-01  7.40713555e-09  1.62975843e+00  7.40713555e-09  1.80000000e+00  7.40713555e-09 -1.44812239e-04  7.40713555e-09  7.51128528e-01  7.40713555e-09  1.65322608e+00  7.40713555e-09  1.66414678e+00                                 
 9.10641351e-09  8.01767362e-01  9.10641351e-09  7.47531434e-01  9.10641351e-09  1.62871326e+00  9.10641351e-09  1.80000000e+00  9.10641351e-09  9.27704059e-05  9.10641351e-09  7.50325977e-01  9.10641351e-09  1.65254740e+00  9.10641351e-09  1.66401572e+00                                 
 1.10774640e-08  8.01761675e-01  1.10774640e-08  7.47533725e-01  1.10774640e-08  1.62782875e+00  1.10774640e-08  1.80000000e+00  1.10774640e-08 -1.21208966e-04  1.10774640e-08  7.49834008e-01  1.10774640e-08  1.65212343e+00  1.10774640e-08  1.66381167e+00                                 
 1.33815885e-08  8.01779088e-01  1.33815885e-08  7.47535257e-01  1.33815885e-08  1.62591723e+00  1.33815885e-08  1.80000000e+00  1.33815885e-08  1.02570246e-04  1.33815885e-08  7.49648153e-01  1.33815885e-08  1.65196267e+00  1.33815885e-08  1.66355555e+00                                 
 1.65625971e-08  8.01812756e-01  1.65625971e-08  7.47535078e-01  1.65625971e-08  1.62091497e+00  1.65625971e-08  1.80000000e+00  1.65625971e-08 -1.11504414e-04  1.65625971e-08  7.49597060e-01  1.65625971e-08  1.65190378e+00  1.65625971e-08  1.66318774e+00                                 
 2.04855212e-08  8.01838180e-01  2.04855212e-08  7.47535917e-01  2.04855212e-08  1.61247948e+00  2.04855212e-08  1.80000000e+00  2.04855212e-08  1.04230044e-04  2.04855212e-08  7.49715614e-01  2.04855212e-08  1.65199076e+00  2.04855212e-08  1.66276518e+00                                 
 2.62122212e-08  8.01853130e-01  2.62122212e-08  7.47535599e-01  2.62122212e-08  1.59819994e+00  2.62122212e-08  1.80000000e+00  2.62122212e-08 -1.09035746e-04  2.62122212e-08  7.49871989e-01  2.62122212e-08  1.65209693e+00  2.62122212e-08  1.66220467e+00                                 
 3.45706512e-08  8.01854131e-01  3.45706512e-08  7.47536168e-01  3.45706512e-08  1.57626913e+00  3.45706512e-08  1.80000000e+00  3.45706512e-08  1.03655217e-04  3.45706512e-08  7.50104875e-01  3.45706512e-08  1.65227075e+00  3.45706512e-08  1.66152515e+00                                 
 4.78902781e-08  8.01852997e-01  4.78902781e-08  7.47535462e-01  4.78902781e-08  1.54033697e+00  4.78902781e-08  1.80000000e+00  4.78902781e-08 -1.08490102e-04  4.78902781e-08  7.50310928e-01  4.78902781e-08  1.65241287e+00  4.78902781e-08  1.66068529e+00                                 
 7.44561560e-08  8.01850189e-01  7.44561560e-08  7.47535962e-01  7.44561560e-08  1.46781262e+00  7.44561560e-08  1.80000000e+00  7.44561560e-08  1.03179323e-04  7.44561560e-08  7.50551577e-01  7.44561560e-08  1.65258919e+00  7.44561560e-08  1.65963300e+00                                 
 1.27587912e-07  8.01849928e-01  1.27587912e-07  7.47535366e-01  1.27587912e-07  1.32251850e+00  1.27587912e-07  1.80000000e+00  1.27587912e-07 -1.08409053e-04  1.27587912e-07  7.50637371e-01  1.27587912e-07  1.65263708e+00  1.27587912e-07  1.65873225e+00                                 
 2.07549674e-07  8.01848947e-01  2.07549674e-07  7.47535954e-01  2.07549674e-07  1.10706740e+00  2.07549674e-07  1.80000000e+00  2.07549674e-07  1.03260351e-04  2.07549674e-07  7.50655434e-01  2.07549674e-07  1.65264757e+00  2.07549674e-07  1.65843954e+00                                 
 3.25580618e-07  8.01849818e-01  3.25580618e-07  7.47535363e-01  3.25580618e-07  8.31907892e-01  3.25580618e-07  1.80000000e+00  3.25580618e-07 -1.06689250e-04  3.25580618e-07  7.50635462e-01  3.25580618e-07  1.65262135e+00  3.25580618e-07  1.65839888e+00                                 
 4.30712422e-07  8.01849202e-01  4.30712422e-07  7.47535975e-01  4.30712422e-07  7.43549413e-01  4.30712422e-07  1.80000000e+00  4.30712422e-07  1.05913352e-04  4.30712422e-07  7.50657817e-01  4.30712422e-07  1.65263951e+00  4.30712422e-07  1.65840300e+00                                 
 5.29657096e-07  8.01849181e-01  5.29657096e-07  7.47535327e-01  5.29657096e-07  7.57230145e-01  5.29657096e-07  1.80000000e+00  5.29657096e-07 -1.05507364e-04  5.29657096e-07  7.50635683e-01  5.29657096e-07  1.65261346e+00  5.29657096e-07  1.65839547e+00                                 
 5.74791647e-07  8.01849734e-01  5.74791647e-07  7.47535987e-01  5.74791647e-07  7.54160364e-01  5.74791647e-07  1.80000000e+00  5.74791647e-07  1.05594458e-04  5.74791647e-07  7.50655665e-01  5.74791647e-07  1.65263190e+00  5.74791647e-07  1.65839662e+00                                 
 6.33466865e-07  8.01849145e-01  6.33466865e-07  7.47535346e-01  6.33466865e-07  7.53664917e-01  6.33466865e-07  1.80000000e+00  6.33466865e-07 -1.05552894e-04  6.33466865e-07  7.50636582e-01  6.33466865e-07  1.65261007e+00  6.33466865e-07  1.65839072e+00                                 
 7.15687191e-07  8.01849556e-01  7.15687191e-07  7.47535966e-01  7.15687191e-07  7.53940953e-01  7.15687191e-07  1.80000000e+00  7.15687191e-07  1.05509139e-04  7.15687191e-07  7.50655826e-01  7.15687191e-07  1.65262642e+00  7.15687191e-07  1.65839111e+00                                 
 8.53390139e-07  8.01849245e-01  8.53390139e-07  7.47535356e-01  8.53390139e-07  7.53691611e-01  8.53390139e-07  1.80000000e+00  8.53390139e-07 -1.05255687e-04  8.53390139e-07  7.50636440e-01  8.53390139e-07  1.65260118e+00  8.53390139e-07  1.65838199e+00                                 
 1.11452492e-06  8.01849506e-01  1.11452492e-06  7.47535961e-01  1.11452492e-06  7.53916279e-01  1.11452492e-06  1.80000000e+00  1.11452492e-06  1.05516158e-04  1.11452492e-06  7.50655896e-01  1.11452492e-06  1.65261059e+00  1.11452492e-06  1.65837523e+00                                 
 1.60724711e-06  8.01849270e-01  1.60724711e-06  7.47535358e-01  1.60724711e-06  7.53688048e-01  1.60724711e-06  1.80000000e+00  1.60724711e-06 -1.05621179e-04  1.60724711e-06  7.50636414e-01  1.60724711e-06  1.65257110e+00  1.60724711e-06  1.65835199e+00                                 
 2.59269149e-06  8.01849494e-01  2.59269149e-06  7.47535960e-01  2.59269149e-06  7.53917075e-01  2.59269149e-06  1.80000000e+00  2.59269149e-06  1.05510979e-04  2.59269149e-06  7.50655912e-01  2.59269149e-06  1.65255159e+00  2.59269149e-06  1.65831633e+00                                 
 3.79269149e-06  8.01849276e-01  3.79269149e-06  7.47535358e-01  3.79269149e-06  7.53694332e-01  3.79269149e-06  1.80000000e+00  3.79269149e-06 -1.05453351e-04  3.79269149e-06  7.50636403e-01  3.79269149e-06  1.65248380e+00  3.79269149e-06  1.65826487e+00                                 
 4.99269149e-06  8.01849487e-01  4.99269149e-06  7.47535960e-01  4.99269149e-06  7.53920862e-01  4.99269149e-06  1.80000000e+00  4.99269149e-06  1.05473565e-04  4.99269149e-06  7.50655918e-01  4.99269149e-06  1.65245580e+00  4.99269149e-06  1.65822072e+00                                 
 6.00100000e-06  8.01849284e-01  6.00100000e-06  7.47535359e-01  6.00100000e-06  7.53697378e-01  6.00100000e-06  1.80000000e+00  6.00100000e-06 -1.05374511e-04  6.00100000e-06  7.50636393e-01  6.00100000e-06  1.65239579e+00  6.00100000e-06  1.65817703e+00                                 
 6.00110000e-06  8.01812162e-01  6.00110000e-06  7.47298510e-01  6.00110000e-06  7.51758029e-01  6.00110000e-06  1.62000000e+00  6.00110000e-06 -1.07610863e-04  6.00110000e-06  7.48901992e-01  6.00110000e-06  1.65092350e+00  6.00110000e-06  1.65816579e+00                                 
 6.00130000e-06  8.01843458e-01  6.00130000e-06  7.47333765e-01  6.00130000e-06  7.52315808e-01  6.00130000e-06  1.26000000e+00  6.00130000e-06  4.35304540e-05  6.00130000e-06  7.49052039e-01  6.00130000e-06  1.65105374e+00  6.00130000e-06  1.65818609e+00                                 
 6.00170000e-06  8.01884071e-01  6.00170000e-06  7.47332273e-01  6.00170000e-06  7.61178228e-01  6.00170000e-06  5.40000000e-01  6.00170000e-06  1.05293197e+00  6.00170000e-06  7.47476090e-01  6.00170000e-06  1.62258941e+00  6.00170000e-06  1.65804190e+00                                 
 6.00200000e-06  8.01838749e-01  6.00200000e-06  7.45027370e-01  6.00200000e-06  7.95930289e-01  6.00200000e-06  0.00000000e+00  6.00200000e-06  1.79328107e+00  6.00200000e-06  7.21734174e-01  6.00200000e-06  1.36197626e+00  6.00200000e-06  1.65741674e+00                                 
 6.00204266e-06  8.01848906e-01  6.00204266e-06  7.44918859e-01  6.00204266e-06  7.94307702e-01  6.00204266e-06  0.00000000e+00  6.00204266e-06  1.79652725e+00  6.00204266e-06  7.20624820e-01  6.00204266e-06  1.30903630e+00  6.00204266e-06  1.65778638e+00                                 
 6.00212798e-06  8.01850107e-01  6.00212798e-06  7.44916896e-01  6.00212798e-06  7.88694313e-01  6.00212798e-06  0.00000000e+00  6.00212798e-06  1.79872304e+00  6.00212798e-06  7.21104852e-01  6.00212798e-06  1.21639347e+00  6.00212798e-06  1.65824587e+00                                 
 6.00229861e-06  8.01847515e-01  6.00229861e-06  7.45284437e-01  6.00229861e-06  7.80689333e-01  6.00229861e-06  0.00000000e+00  6.00229861e-06  1.79909047e+00  6.00229861e-06  7.25922727e-01  6.00229861e-06  1.08176291e+00  6.00229861e-06  1.65829029e+00                                 
 6.00250644e-06  8.01849025e-01  6.00250644e-06  7.45684429e-01  6.00250644e-06  7.75915115e-01  6.00250644e-06  0.00000000e+00  6.00250644e-06  1.79977134e+00  6.00250644e-06  7.30028475e-01  6.00250644e-06  9.63278806e-01  6.00250644e-06  1.65843291e+00                                 
 6.00275984e-06  8.01847317e-01  6.00275984e-06  7.46287144e-01  6.00275984e-06  7.69684204e-01  6.00275984e-06  0.00000000e+00  6.00275984e-06  1.79937800e+00  6.00275984e-06  7.35669666e-01  6.00275984e-06  8.58857884e-01  6.00275984e-06  1.65846275e+00                                 
 6.00310875e-06  8.01849162e-01  6.00310875e-06  7.47181239e-01  6.00310875e-06  7.60868552e-01  6.00310875e-06  0.00000000e+00  6.00310875e-06  1.79997253e+00  6.00310875e-06  7.43811192e-01  6.00310875e-06  7.83000926e-01  6.00310875e-06  1.65848376e+00                                 
 6.00343785e-06  8.01847835e-01  6.00343785e-06  7.47756587e-01  6.00343785e-06  7.55820580e-01  6.00343785e-06  0.00000000e+00  6.00343785e-06  1.79994279e+00  6.00343785e-06  7.48654003e-01  6.00343785e-06  7.61831433e-01  6.00343785e-06  1.65827878e+00                                 
 6.00377493e-06  8.01849515e-01  6.00377493e-06  7.47988862e-01  6.00377493e-06  7.54975962e-01  6.00377493e-06  0.00000000e+00  6.00377493e-06  1.80008708e+00  6.00377493e-06  7.50266473e-01  6.00377493e-06  7.56162856e-01  6.00377493e-06  1.65791993e+00                                 
 6.00418252e-06  8.01848344e-01  6.00418252e-06  7.48081877e-01  6.00418252e-06  7.54414671e-01  6.00418252e-06  0.00000000e+00  6.00418252e-06  1.79993920e+00  6.00418252e-06  7.51134365e-01  6.00418252e-06  7.54898755e-01  6.00418252e-06  1.65725688e+00                                 
 6.00476942e-06  8.01849836e-01  6.00476942e-06  7.48048050e-01  6.00476942e-06  7.55381281e-01  6.00476942e-06  0.00000000e+00  6.00476942e-06  1.80007719e+00  6.00476942e-06  7.51328998e-01  6.00476942e-06  7.54967371e-01  6.00476942e-06  1.65615105e+00                                 
 6.00583013e-06  8.01848695e-01  6.00583013e-06  7.47944386e-01  6.00583013e-06  7.56500848e-01  6.00583013e-06  0.00000000e+00  6.00583013e-06  1.79993839e+00  6.00583013e-06  7.51615798e-01  6.00583013e-06  7.56509993e-01  6.00583013e-06  1.65385691e+00                                 
 6.00779987e-06  8.01849991e-01  6.00779987e-06  7.47781900e-01  6.00779987e-06  7.59968811e-01  6.00779987e-06  0.00000000e+00  6.00779987e-06  1.80007597e+00  6.00779987e-06  7.51621722e-01  6.00779987e-06  7.59455842e-01  6.00779987e-06  1.64936853e+00                                 
 6.01173936e-06  8.01848755e-01  6.01173936e-06  7.47626615e-01  6.01173936e-06  7.66271547e-01  6.01173936e-06  0.00000000e+00  6.01173936e-06  1.79993857e+00  6.01173936e-06  7.51667070e-01  6.01173936e-06  7.66202659e-01  6.01173936e-06  1.64024960e+00                                 
 6.01961833e-06  8.01850003e-01  6.01961833e-06  7.47514527e-01  6.01961833e-06  7.80040004e-01  6.01961833e-06  0.00000000e+00  6.01961833e-06  1.80007546e+00  6.01961833e-06  7.51324157e-01  6.01961833e-06  7.79447319e-01  6.01961833e-06  1.62232916e+00                                 
 6.03537628e-06  8.01848763e-01  6.03537628e-06  7.47531851e-01  6.03537628e-06  8.05300800e-01  6.03537628e-06  0.00000000e+00  6.03537628e-06  1.79993811e+00  6.03537628e-06  7.51079595e-01  6.03537628e-06  8.05238683e-01  6.03537628e-06  1.58693290e+00                                 
 6.06689217e-06  8.01850001e-01  6.06689217e-06  7.47530446e-01  6.06689217e-06  8.52011141e-01  6.06689217e-06  0.00000000e+00  6.06689217e-06  1.80007400e+00  6.06689217e-06  7.50680818e-01  6.06689217e-06  8.51056072e-01  6.06689217e-06  1.51828833e+00                                 
