 time            v(vbep)         time            v(vben)         time            v(vout)         time            v(vphi1)        time            v(vphi2)        time            v(vref)         time            v(voutc)        time            v(voutcc)       yes             currtemp       
 0.00000000e+00  7.94409431e-01  0.00000000e+00  7.36953187e-01  0.00000000e+00  1.63597887e+00  0.00000000e+00  0.00000000e+00  0.00000000e+00  1.80000000e+00  0.00000000e+00  7.39846592e-01  0.00000000e+00  1.63597885e+00  0.00000000e+00  1.64206728e+00  1.00000000e+00  1.90000000e+01 
 5.00000000e-12  7.94430953e-01  5.00000000e-12  7.37007655e-01  5.00000000e-12  1.63661542e+00  5.00000000e-12  1.80000000e-02  5.00000000e-12  1.80018379e+00  5.00000000e-12  7.40240597e-01  5.00000000e-12  1.63632808e+00  5.00000000e-12  1.64208013e+00                                 
 1.00000000e-11  7.94440424e-01  1.00000000e-11  7.37043779e-01  1.00000000e-11  1.63708630e+00  1.00000000e-11  3.60000000e-02  1.00000000e-11  1.80026795e+00  1.00000000e-11  7.40551627e-01  1.00000000e-11  1.63660559e+00  1.00000000e-11  1.64208715e+00                                 
 2.00000000e-11  7.94446653e-01  2.00000000e-11  7.37094162e-01  2.00000000e-11  1.63778213e+00  2.00000000e-11  7.20000000e-02  2.00000000e-11  1.80032301e+00  2.00000000e-11  7.41039106e-01  2.00000000e-11  1.63704509e+00  2.00000000e-11  1.64209401e+00                                 
 4.00000000e-11  7.94434331e-01  4.00000000e-11  7.37130995e-01  4.00000000e-11  1.63829764e+00  4.00000000e-11  1.44000000e-01  4.00000000e-11  1.80019648e+00  4.00000000e-11  7.41510181e-01  4.00000000e-11  1.63749073e+00  4.00000000e-11  1.64208846e+00                                 
 8.00000000e-11  7.94420341e-01  8.00000000e-11  7.37134668e-01  8.00000000e-11  1.63821971e+00  8.00000000e-11  2.88000000e-01  8.00000000e-11  1.80002966e+00  8.00000000e-11  7.41635523e-01  8.00000000e-11  1.63766401e+00  8.00000000e-11  1.64207256e+00                                 
 1.60000000e-10  7.94421402e-01  1.60000000e-10  7.37122187e-01  1.60000000e-10  1.63775710e+00  1.60000000e-10  5.76000000e-01  1.60000000e-10  1.80001347e+00  1.60000000e-10  7.41436310e-01  1.60000000e-10  1.63756336e+00  1.60000000e-10  1.64206699e+00                                 
 3.20000000e-10  7.94357890e-01  3.20000000e-10  7.36679818e-01  3.20000000e-10  1.63349949e+00  3.20000000e-10  1.15200000e+00  3.20000000e-10  1.80069387e+00  3.20000000e-10  7.37567571e-01  3.20000000e-10  1.63437588e+00  3.20000000e-10  1.64203498e+00                                 
 5.00000000e-10  7.94475360e-01  5.00000000e-10  7.37102573e-01  5.00000000e-10  1.62769161e+00  5.00000000e-10  1.80000000e+00  5.00000000e-10  1.45152817e-01  5.00000000e-10  7.42350443e-01  5.00000000e-10  1.63819875e+00  5.00000000e-10  1.64211311e+00                                 
 5.20647361e-10  7.94467469e-01  5.20647361e-10  7.37148725e-01  5.20647361e-10  1.62712397e+00  5.20647361e-10  1.80000000e+00  5.20647361e-10  3.67802045e-02  5.20647361e-10  7.43795295e-01  5.20647361e-10  1.63903720e+00  5.20647361e-10  1.64210882e+00                                 
 5.61942084e-10  7.94512570e-01  5.61942084e-10  7.37234368e-01  5.61942084e-10  1.62682406e+00  5.61942084e-10  1.80000000e+00  5.61942084e-10 -1.37370714e-02  5.61942084e-10  7.45748595e-01  5.61942084e-10  1.64076206e+00  5.61942084e-10  1.64210903e+00                                 
 6.44531530e-10  7.94582453e-01  6.44531530e-10  7.37071983e-01  6.44531530e-10  1.62454657e+00  6.44531530e-10  1.80000000e+00  6.44531530e-10  1.11206852e-02  6.44531530e-10  7.44602917e-01  6.44531530e-10  1.63996393e+00  6.44531530e-10  1.64205057e+00                                 
 7.62798831e-10  7.94598116e-01  7.62798831e-10  7.37048066e-01  7.62798831e-10  1.62377561e+00  7.62798831e-10  1.80000000e+00  7.62798831e-10 -8.77362964e-03  7.62798831e-10  7.45431250e-01  7.62798831e-10  1.64052914e+00  7.62798831e-10  1.64208672e+00                                 
 9.39036886e-10  7.94662436e-01  9.39036886e-10  7.37015937e-01  9.39036886e-10  1.62275450e+00  9.39036886e-10  1.80000000e+00  9.39036886e-10  8.24021887e-03  9.39036886e-10  7.46090838e-01  9.39036886e-10  1.64124407e+00  9.39036886e-10  1.64205816e+00                                 
 1.29151299e-09  7.94685658e-01  1.29151299e-09  7.36947094e-01  1.29151299e-09  1.61962558e+00  1.29151299e-09  1.80000000e+00  1.29151299e-09 -7.48006067e-03  1.29151299e-09  7.46040403e-01  1.29151299e-09  1.64107722e+00  1.29151299e-09  1.64207292e+00                                 
 1.82067725e-09  7.94629754e-01  1.82067725e-09  7.36955285e-01  1.82067725e-09  1.61801656e+00  1.82067725e-09  1.80000000e+00  1.82067725e-09  7.30102327e-03  1.82067725e-09  7.46027257e-01  1.82067725e-09  1.64118724e+00  1.82067725e-09  1.64208666e+00                                 
 2.39253684e-09  7.94503434e-01  2.39253684e-09  7.36923218e-01  2.39253684e-09  1.61707231e+00  2.39253684e-09  1.80000000e+00  2.39253684e-09 -7.01587081e-03  2.39253684e-09  7.45085040e-01  2.39253684e-09  1.64024937e+00  2.39253684e-09  1.64213577e+00                                 
 2.95826898e-09  7.94444296e-01  2.95826898e-09  7.36952066e-01  2.95826898e-09  1.61681878e+00  2.95826898e-09  1.80000000e+00  2.95826898e-09  6.77214217e-03  2.95826898e-09  7.44924320e-01  2.95826898e-09  1.64021975e+00  2.95826898e-09  1.64218158e+00                                 
 3.79980647e-09  7.94385781e-01  3.79980647e-09  7.36924657e-01  3.79980647e-09  1.61533906e+00  3.79980647e-09  1.80000000e+00  3.79980647e-09 -6.60149550e-03  3.79980647e-09  7.43746849e-01  3.79980647e-09  1.63908304e+00  3.79980647e-09  1.64225815e+00                                 
 5.48288145e-09  7.94376015e-01  5.48288145e-09  7.36957783e-01  5.48288145e-09  1.61284613e+00  5.48288145e-09  1.80000000e+00  5.48288145e-09  6.52667715e-03  5.48288145e-09  7.42755203e-01  5.48288145e-09  1.63832308e+00  5.48288145e-09  1.64239067e+00                                 
 8.84903140e-09  7.94369784e-01  8.84903140e-09  7.36935713e-01  8.84903140e-09  1.60584317e+00  8.84903140e-09  1.80000000e+00  8.84903140e-09 -6.47891640e-03  8.84903140e-09  7.40419658e-01  8.84903140e-09  1.63618278e+00  8.84903140e-09  1.64254224e+00                                 
 1.30844414e-08  7.94389331e-01  1.30844414e-08  7.36967710e-01  1.30844414e-08  1.59636213e+00  1.30844414e-08  1.80000000e+00  1.30844414e-08  6.45922862e-03  1.30844414e-08  7.39628971e-01  1.30844414e-08  1.63560134e+00  1.30844414e-08  1.64254992e+00                                 
 1.63478682e-08  7.94381765e-01  1.63478682e-08  7.36938717e-01  1.63478682e-08  1.58775897e+00  1.63478682e-08  1.80000000e+00  1.63478682e-08 -6.40188160e-03  1.63478682e-08  7.38882727e-01  1.63478682e-08  1.63484562e+00  1.63478682e-08  1.64247475e+00                                 
 2.01167394e-08  7.94396453e-01  2.01167394e-08  7.36967728e-01  2.01167394e-08  1.57808245e+00  2.01167394e-08  1.80000000e+00  2.01167394e-08  6.38893658e-03  2.01167394e-08  7.39160693e-01  2.01167394e-08  1.63518796e+00  2.01167394e-08  1.64236557e+00                                 
 2.42426424e-08  7.94394579e-01  2.42426424e-08  7.36938700e-01  2.42426424e-08  1.56581806e+00  2.42426424e-08  1.80000000e+00  2.42426424e-08 -6.33300804e-03  2.42426424e-08  7.38784539e-01  2.42426424e-08  1.63475132e+00  2.42426424e-08  1.64224188e+00                                 
 3.02901019e-08  7.94411935e-01  3.02901019e-08  7.36967878e-01  3.02901019e-08  1.54739341e+00  3.02901019e-08  1.80000000e+00  3.02901019e-08  6.33791009e-03  3.02901019e-08  7.39322569e-01  3.02901019e-08  1.63531615e+00  3.02901019e-08  1.64208860e+00                                 
 3.73549919e-08  7.94407011e-01  3.73549919e-08  7.36938744e-01  3.73549919e-08  1.52387849e+00  3.73549919e-08  1.80000000e+00  3.73549919e-08 -6.29270987e-03  3.73549919e-08  7.39100737e-01  3.73549919e-08  1.63501380e+00  3.73549919e-08  1.64195037e+00                                 
 4.82879418e-08  7.94416966e-01  4.82879418e-08  7.36967823e-01  4.82879418e-08  1.48738873e+00  4.82879418e-08  1.80000000e+00  4.82879418e-08  6.30834793e-03  4.82879418e-08  7.39715139e-01  4.82879418e-08  1.63564651e+00  4.82879418e-08  1.64182170e+00                                 
 6.32113822e-08  7.94406750e-01  6.32113822e-08  7.36938632e-01  6.32113822e-08  1.43618475e+00  6.32113822e-08  1.80000000e+00  6.32113822e-08 -6.27241853e-03  6.32113822e-08  7.39484121e-01  6.32113822e-08  1.63534014e+00  6.32113822e-08  1.64174123e+00                                 
 8.88601564e-08  7.94414591e-01  8.88601564e-08  7.36967757e-01  8.88601564e-08  1.34906828e+00  8.88601564e-08  1.80000000e+00  8.88601564e-08  6.29476716e-03  8.88601564e-08  7.40005366e-01  8.88601564e-08  1.63589662e+00  8.88601564e-08  1.64172319e+00                                 
 1.33056687e-07  7.94404961e-01  1.33056687e-07  7.36938599e-01  1.33056687e-07  1.19905502e+00  1.33056687e-07  1.80000000e+00  1.33056687e-07 -6.26447629e-03  1.33056687e-07  7.39646475e-01  1.33056687e-07  1.63548191e+00  1.33056687e-07  1.64175888e+00                                 
 2.21449749e-07  7.94413928e-01  2.21449749e-07  7.36967751e-01  2.21449749e-07  9.08920939e-01  2.21449749e-07  1.80000000e+00  2.21449749e-07  6.29071300e-03  2.21449749e-07  7.40046125e-01  2.21449749e-07  1.63592956e+00  2.21449749e-07  1.64179719e+00                                 
 3.11460308e-07  7.94405071e-01  3.11460308e-07  7.36938604e-01  3.11460308e-07  7.46270546e-01  3.11460308e-07  1.80000000e+00  3.11460308e-07 -6.26010516e-03  3.11460308e-07  7.39645809e-01  3.11460308e-07  1.63547429e+00  3.11460308e-07  1.64178975e+00                                 
 3.88233143e-07  7.94413851e-01  3.88233143e-07  7.36967779e-01  3.88233143e-07  7.40817232e-01  3.88233143e-07  1.80000000e+00  3.88233143e-07  6.28914655e-03  3.88233143e-07  7.40049970e-01  3.88233143e-07  1.63592578e+00  3.88233143e-07  1.64179039e+00                                 
 4.45599617e-07  7.94404470e-01  4.45599617e-07  7.36938510e-01  4.45599617e-07  7.43837380e-01  4.45599617e-07  1.80000000e+00  4.45599617e-07 -6.25638099e-03  4.45599617e-07  7.39643270e-01  4.45599617e-07  1.63546675e+00  4.45599617e-07  1.64178508e+00                                 
 5.02825791e-07  7.94414716e-01  5.02825791e-07  7.36967894e-01  5.02825791e-07  7.42288189e-01  5.02825791e-07  1.80000000e+00  5.02825791e-07  6.28484484e-03  5.02825791e-07  7.40049017e-01  5.02825791e-07  1.63592023e+00  5.02825791e-07  1.64178446e+00                                 
 5.55200738e-07  7.94404029e-01  5.55200738e-07  7.36938425e-01  5.55200738e-07  7.42988971e-01  5.55200738e-07  1.80000000e+00  5.55200738e-07 -6.25189206e-03  5.55200738e-07  7.39644586e-01  5.55200738e-07  1.63546352e+00  5.55200738e-07  1.64178042e+00                                 
 6.14754021e-07  7.94414828e-01  6.14754021e-07  7.36967946e-01  6.14754021e-07  7.42738765e-01  6.14754021e-07  1.80000000e+00  6.14754021e-07  6.28039646e-03  6.14754021e-07  7.40048199e-01  6.14754021e-07  1.63591498e+00  6.14754021e-07  1.64178016e+00                                 
 6.89002095e-07  7.94404074e-01  6.89002095e-07  7.36938398e-01  6.89002095e-07  7.42776497e-01  6.89002095e-07  1.80000000e+00  6.89002095e-07 -6.24813347e-03  6.89002095e-07  7.39644987e-01  6.89002095e-07  1.63545849e+00  6.89002095e-07  1.64177491e+00                                 
 7.90770959e-07  7.94414749e-01  7.90770959e-07  7.36967960e-01  7.90770959e-07  7.42837447e-01  7.90770959e-07  1.80000000e+00  7.90770959e-07  6.27749966e-03  7.90770959e-07  7.40048002e-01  7.90770959e-07  1.63590769e+00  7.90770959e-07  1.64177314e+00                                 
 9.59965286e-07  7.94404139e-01  9.59965286e-07  7.36938391e-01  9.59965286e-07  7.42728502e-01  9.59965286e-07  1.80000000e+00  9.59965286e-07 -6.24610722e-03  9.59965286e-07  7.39645084e-01  9.59965286e-07  1.63544768e+00  9.59965286e-07  1.64176398e+00                                 
 1.29835394e-06  7.94414710e-01  1.29835394e-06  7.36967962e-01  1.29835394e-06  7.42858721e-01  1.29835394e-06  1.80000000e+00  1.29835394e-06  6.27636226e-03  1.29835394e-06  7.40047956e-01  1.29835394e-06  1.63588719e+00  1.29835394e-06  1.64175274e+00                                 
 1.97513124e-06  7.94404159e-01  1.97513124e-06  7.36938390e-01  1.97513124e-06  7.42718965e-01  1.97513124e-06  1.80000000e+00  1.97513124e-06 -6.24544358e-03  1.97513124e-06  7.39645104e-01  1.97513124e-06  1.63540676e+00  1.97513124e-06  1.64172311e+00                                 
 2.97513124e-06  7.94414699e-01  2.97513124e-06  7.36967963e-01  2.97513124e-06  7.42863655e-01  2.97513124e-06  1.80000000e+00  2.97513124e-06  6.27608825e-03  2.97513124e-06  7.40047945e-01  2.97513124e-06  1.63581957e+00  2.97513124e-06  1.64168526e+00                                 
 3.97513124e-06  7.94404167e-01  3.97513124e-06  7.36938390e-01  3.97513124e-06  7.42715102e-01  3.97513124e-06  1.80000000e+00  3.97513124e-06 -6.24544613e-03  3.97513124e-06  7.39645113e-01  3.97513124e-06  1.63532613e+00  3.97513124e-06  1.64164263e+00                                 
 4.97513124e-06  7.94414690e-01  4.97513124e-06  7.36967964e-01  4.97513124e-06  7.42867360e-01  4.97513124e-06  1.80000000e+00  4.97513124e-06  6.27585507e-03  4.97513124e-06  7.40047937e-01  4.97513124e-06  1.63573891e+00  4.97513124e-06  1.64160476e+00                                 
 5.97513124e-06  7.94404176e-01  5.97513124e-06  7.36938389e-01  5.97513124e-06  7.42711469e-01  5.97513124e-06  1.80000000e+00  5.97513124e-06 -6.24520054e-03  5.97513124e-06  7.39645121e-01  5.97513124e-06  1.63524551e+00  5.97513124e-06  1.64156214e+00                                 
 6.97513124e-06  7.94414681e-01  6.97513124e-06  7.36967964e-01  6.97513124e-06  7.42870834e-01  6.97513124e-06  1.80000000e+00  6.97513124e-06  6.27560700e-03  6.97513124e-06  7.40047929e-01  6.97513124e-06  1.63565828e+00  6.97513124e-06  1.64152429e+00                                 
 7.97513124e-06  7.94404185e-01  7.97513124e-06  7.36938389e-01  7.97513124e-06  7.42708061e-01  7.97513124e-06  1.80000000e+00  7.97513124e-06 -6.24495497e-03  7.97513124e-06  7.39645129e-01  7.97513124e-06  1.63516487e+00  7.97513124e-06  1.64148165e+00                                 
 8.97513124e-06  7.94414672e-01  8.97513124e-06  7.36967964e-01  8.97513124e-06  7.42874095e-01  8.97513124e-06  1.80000000e+00  8.97513124e-06  6.27535894e-03  8.97513124e-06  7.40047922e-01  8.97513124e-06  1.63557762e+00  8.97513124e-06  1.64144380e+00                                 
 9.97513124e-06  7.94404194e-01  9.97513124e-06  7.36938388e-01  9.97513124e-06  7.42704862e-01  9.97513124e-06  1.80000000e+00  9.97513124e-06 -6.24470940e-03  9.97513124e-06  7.39645137e-01  9.97513124e-06  1.63508427e+00  9.97513124e-06  1.64140118e+00                                 
 1.00005000e-05  7.94414494e-01  1.00005000e-05  7.36967966e-01  1.00005000e-05  7.42913760e-01  1.00005000e-05  1.80000000e+00  1.00005000e-05  6.27035372e-03  1.00005000e-05  7.40047816e-01  1.00005000e-05  1.63553618e+00  1.00005000e-05  1.64140261e+00                                 
 1.00005500e-05  7.94378393e-01  1.00005500e-05  7.36762566e-01  1.00005500e-05  7.40953926e-01  1.00005500e-05  1.62000000e+00  1.00005500e-05  4.77758498e-04  1.00005500e-05  7.38276737e-01  1.00005500e-05  1.63394360e+00  1.00005500e-05  1.64138065e+00                                 
 1.00006500e-05  7.94403765e-01  1.00006500e-05  7.36756708e-01  1.00006500e-05  7.41141147e-01  1.00006500e-05  1.26000000e+00  1.00006500e-05 -4.31147968e-04  1.00006500e-05  7.38079847e-01  1.00006500e-05  1.63376509e+00  1.00006500e-05  1.64140518e+00                                 
 1.00008500e-05  7.94437878e-01  1.00008500e-05  7.37007228e-01  1.00008500e-05  7.43734533e-01  1.00008500e-05  5.40000000e-01  1.00008500e-05 -1.19057869e-03  1.00008500e-05  7.39969226e-01  1.00008500e-05  1.63472010e+00  1.00008500e-05  1.64140507e+00                                 
 1.00010000e-05  7.94401221e-01  1.00010000e-05  7.35766603e-01  1.00010000e-05  7.64516195e-01  1.00010000e-05  0.00000000e+00  1.00010000e-05  1.48838083e+00  1.00010000e-05  7.25093792e-01  1.00010000e-05  1.57214037e+00  1.00010000e-05  1.64081506e+00                                 
 1.00010263e-05  7.94417913e-01  1.00010263e-05  7.35476937e-01  1.00010263e-05  7.71382066e-01  1.00010263e-05  0.00000000e+00  1.00010263e-05  1.68389825e+00  1.00010263e-05  7.21435960e-01  1.00010263e-05  1.54620017e+00  1.00010263e-05  1.64068530e+00                                 
 1.00010788e-05  7.94412653e-01  1.00010788e-05  7.34946477e-01  1.00010788e-05  7.77199145e-01  1.00010788e-05  0.00000000e+00  1.00010788e-05  1.82360862e+00  1.00010788e-05  7.15193352e-01  1.00010788e-05  1.48922292e+00  1.00010788e-05  1.64059072e+00                                 
 1.00011840e-05  7.94405849e-01  1.00011840e-05  7.34908252e-01  1.00011840e-05  7.69295655e-01  1.00011840e-05  0.00000000e+00  1.00011840e-05  1.78544603e+00  1.00011840e-05  7.15565229e-01  1.00011840e-05  1.39030560e+00  1.00011840e-05  1.64109841e+00                                 
 1.00013192e-05  7.94414348e-01  1.00013192e-05  7.35304256e-01  1.00013192e-05  7.65510570e-01  1.00013192e-05  0.00000000e+00  1.00013192e-05  1.80801961e+00  1.00013192e-05  7.21016472e-01  1.00013192e-05  1.29434422e+00  1.00013192e-05  1.64144839e+00                                 
 1.00015365e-05  7.94405115e-01  1.00015365e-05  7.35531434e-01  1.00015365e-05  7.60539327e-01  1.00015365e-05  0.00000000e+00  1.00015365e-05  1.79331465e+00  1.00015365e-05  7.23180603e-01  1.00015365e-05  1.16888948e+00  1.00015365e-05  1.64161254e+00                                 
 1.00019144e-05  7.94413467e-01  1.00019144e-05  7.36146551e-01  1.00019144e-05  7.55360341e-01  1.00019144e-05  0.00000000e+00  1.00019144e-05  1.80515969e+00  1.00019144e-05  7.28628047e-01  1.00019144e-05  1.01954538e+00  1.00019144e-05  1.64168557e+00                                 
 1.00024049e-05  7.94405308e-01  1.00024049e-05  7.36524633e-01  1.00024049e-05  7.52485945e-01  1.00024049e-05  0.00000000e+00  1.00024049e-05  1.79517622e+00  1.00024049e-05  7.30789889e-01  1.00024049e-05  8.82441914e-01  1.00024049e-05  1.64137502e+00                                 
 1.00029319e-05  7.94413252e-01  1.00029319e-05  7.37090035e-01  1.00029319e-05  7.47679889e-01  1.00029319e-05  0.00000000e+00  1.00029319e-05  1.80396957e+00  1.00029319e-05  7.36231875e-01  1.00029319e-05  7.97522243e-01  1.00029319e-05  1.64079195e+00                                 
 1.00036615e-05  7.94405690e-01  1.00036615e-05  7.37352893e-01  1.00036615e-05  7.45497841e-01  1.00036615e-05  0.00000000e+00  1.00036615e-05  1.79625629e+00  1.00036615e-05  7.38871555e-01  1.00036615e-05  7.50619951e-01  1.00036615e-05  1.63953009e+00                                 
 1.00043437e-05  7.94413068e-01  1.00043437e-05  7.37485750e-01  1.00043437e-05  7.44737898e-01  1.00043437e-05  0.00000000e+00  1.00043437e-05  1.80335386e+00  1.00043437e-05  7.41152957e-01  1.00043437e-05  7.46309170e-01  1.00043437e-05  1.63799639e+00                                 
 1.00051049e-05  7.94405967e-01  1.00051049e-05  7.37317566e-01  1.00051049e-05  7.46955236e-01  1.00051049e-05  0.00000000e+00  1.00051049e-05  1.79692317e+00  1.00051049e-05  7.40352599e-01  1.00051049e-05  7.45456192e-01  1.00051049e-05  1.63595794e+00                                 
 1.00059374e-05  7.94412846e-01  1.00059374e-05  7.37310234e-01  1.00059374e-05  7.47637614e-01  1.00059374e-05  0.00000000e+00  1.00059374e-05  1.80281040e+00  1.00059374e-05  7.41442098e-01  1.00059374e-05  7.47870520e-01  1.00059374e-05  1.63364013e+00                                 
