 time            v(vbep)         time            v(vben)         time            v(vout)         time            v(vphi1)        time            v(vphi2)        time            v(vref)         yes             currtemp       
 0.00000000e+00  6.58926242e-01  0.00000000e+00  6.02953899e-01  0.00000000e+00  9.85560272e-02  0.00000000e+00  0.00000000e+00  0.00000000e+00  1.79997717e+00  0.00000000e+00  5.00000000e-01  1.00000000e+00  3.30000000e+01 
 5.00000000e-12  6.58910643e-01  5.00000000e-12  6.02940910e-01  5.00000000e-12  9.90396781e-02  5.00000000e-12  1.80000000e-02  5.00000000e-12  1.80006496e+00  5.00000000e-12  5.00000000e-01                                 
 1.00000000e-11  6.58895246e-01  1.00000000e-11  6.02928180e-01  1.00000000e-11  9.94751851e-02  1.00000000e-11  3.60000000e-02  1.00000000e-11  1.80010671e+00  1.00000000e-11  5.00000000e-01                                 
 2.00000000e-11  6.58864552e-01  2.00000000e-11  6.02902788e-01  2.00000000e-11  1.00277916e-01  2.00000000e-11  7.20000000e-02  2.00000000e-11  1.80014086e+00  2.00000000e-11  5.00000000e-01                                 
 4.00000000e-11  6.58803345e-01  4.00000000e-11  6.02852126e-01  4.00000000e-11  1.01579684e-01  4.00000000e-11  1.44000000e-01  4.00000000e-11  1.80010613e+00  4.00000000e-11  5.00000000e-01                                 
 8.00000000e-11  6.58681270e-01  8.00000000e-11  6.02751044e-01  8.00000000e-11  1.03534163e-01  8.00000000e-11  2.88000000e-01  8.00000000e-11  1.80005028e+00  8.00000000e-11  5.00000000e-01                                 
 1.60000000e-10  6.58438562e-01  1.60000000e-10  6.02549864e-01  1.60000000e-10  1.06663710e-01  1.60000000e-10  5.76000000e-01  1.60000000e-10  1.80001368e+00  1.60000000e-10  5.00000000e-01                                 
 3.20000000e-10  6.57958771e-01  3.20000000e-10  6.02151403e-01  3.20000000e-10  1.39396196e-01  3.20000000e-10  1.15200000e+00  3.20000000e-10  1.80010441e+00  3.20000000e-10  5.00000000e-01                                 
 5.00000000e-10  6.57427870e-01  5.00000000e-10  6.01709294e-01  5.00000000e-10  4.59130131e-01  5.00000000e-10  1.80000000e+00  5.00000000e-10  1.15733825e-01  5.00000000e-10  5.00000000e-01                                 
 5.21721826e-10  6.57364500e-01  5.21721826e-10  6.01656430e-01  5.21721826e-10  5.20117738e-01  5.21721826e-10  1.80000000e+00  5.21721826e-10  2.24421142e-02  5.21721826e-10  5.00000000e-01                                 
 5.65165477e-10  6.57238022e-01  5.65165477e-10  6.01550884e-01  5.65165477e-10  6.29150449e-01  5.65165477e-10  1.80000000e+00  5.65165477e-10 -1.03723387e-02  5.65165477e-10  5.00000000e-01                                 
 6.52052781e-10  6.56986666e-01  6.52052781e-10  6.01340917e-01  6.52052781e-10  7.90884283e-01  6.52052781e-10  1.80000000e+00  6.52052781e-10  8.90514533e-03  6.52052781e-10  5.00000000e-01                                 
 7.74864620e-10  6.56634958e-01  7.74864620e-10  6.01046656e-01  7.74864620e-10  9.51205772e-01  7.74864620e-10  1.80000000e+00  7.74864620e-10 -7.61068886e-03  7.74864620e-10  5.00000000e-01                                 
 9.67496656e-10  6.56091480e-01  9.67496656e-10  6.00590889e-01  9.67496656e-10  1.13709693e+00  9.67496656e-10  1.80000000e+00  9.67496656e-10  7.20520198e-03  9.67496656e-10  5.00000000e-01                                 
 1.26795194e-09  6.55262990e-01  1.26795194e-09  5.99893662e-01  1.26795194e-09  1.34810066e+00  1.26795194e-09  1.80000000e+00  1.26795194e-09 -6.74235257e-03  1.26795194e-09  5.00000000e-01                                 
 1.76789445e-09  6.53933611e-01  1.76789445e-09  5.98768845e-01  1.76789445e-09  1.54259070e+00  1.76789445e-09  1.80000000e+00  1.76789445e-09  6.64044252e-03  1.76789445e-09  5.00000000e-01                                 
 2.16712295e-09  6.52913574e-01  2.16712295e-09  5.97900710e-01  2.16712295e-09  1.60326531e+00  2.16712295e-09  1.80000000e+00  2.16712295e-09 -6.30538102e-03  2.16712295e-09  5.00000000e-01                                 
 2.54654013e-09  6.51975339e-01  2.54654013e-09  5.97098450e-01  2.54654013e-09  1.62523284e+00  2.54654013e-09  1.80000000e+00  2.54654013e-09  6.14673198e-03  2.54654013e-09  5.00000000e-01                                 
 2.95499318e-09  6.50996933e-01  2.95499318e-09  5.96258121e-01  2.95499318e-09  1.63281778e+00  2.95499318e-09  1.80000000e+00  2.95499318e-09 -5.87914214e-03  2.95499318e-09  5.00000000e-01                                 
 3.35963223e-09  6.50057982e-01  3.35963223e-09  5.95448179e-01  3.35963223e-09  1.63407508e+00  3.35963223e-09  1.80000000e+00  3.35963223e-09  5.70683971e-03  3.35963223e-09  5.00000000e-01                                 
 3.86750704e-09  6.48919231e-01  3.86750704e-09  5.94461426e-01  3.86750704e-09  1.63284295e+00  3.86750704e-09  1.80000000e+00  3.86750704e-09 -5.51617052e-03  3.86750704e-09  5.00000000e-01                                 
 4.61408566e-09  6.47319038e-01  4.61408566e-09  5.93066848e-01  4.61408566e-09  1.62991508e+00  4.61408566e-09  1.80000000e+00  4.61408566e-09  5.43559096e-03  4.61408566e-09  5.00000000e-01                                 
 5.74440749e-09  6.45045543e-01  5.74440749e-09  5.91070168e-01  5.74440749e-09  1.62559542e+00  5.74440749e-09  1.80000000e+00  5.74440749e-09 -5.34149841e-03  5.74440749e-09  5.00000000e-01                                 
 8.00505113e-09  6.40945288e-01  8.00505113e-09  5.87427671e-01  8.00505113e-09  1.61901292e+00  8.00505113e-09  1.80000000e+00  8.00505113e-09  5.33157185e-03  8.00505113e-09  5.00000000e-01                                 
 1.25263384e-08  6.34079572e-01  1.25263384e-08  5.81222443e-01  1.25263384e-08  1.60821979e+00  1.25263384e-08  1.80000000e+00  1.25263384e-08 -5.29017413e-03  1.25263384e-08  5.00000000e-01                                 
 2.15689130e-08  6.23801862e-01  2.15689130e-08  5.71711280e-01  2.15689130e-08  1.57878107e+00  2.15689130e-08  1.80000000e+00  2.15689130e-08  5.30634397e-03  2.15689130e-08  5.00000000e-01                                 
 3.96540622e-08  6.10544905e-01  3.96540622e-08  5.59059511e-01  3.96540622e-08  1.48459297e+00  3.96540622e-08  1.80000000e+00  3.96540622e-08 -5.27723206e-03  3.96540622e-08  5.00000000e-01                                 
 6.27773938e-08  5.99909805e-01  6.27773938e-08  5.48654748e-01  6.27773938e-08  1.34121446e+00  6.27773938e-08  1.80000000e+00  6.27773938e-08  5.29911718e-03  6.27773938e-08  5.00000000e-01                                 
 1.03761493e-07  5.87048260e-01  1.03761493e-07  5.36007551e-01  1.03761493e-07  1.09004888e+00  1.03761493e-07  1.80000000e+00  1.03761493e-07 -5.27195316e-03  1.03761493e-07  5.00000000e-01                                 
 1.56836145e-07  5.72252937e-01  1.56836145e-07  5.22128859e-01  1.56836145e-07  8.49789416e-01  1.56836145e-07  1.80000000e+00  1.56836145e-07  5.29587850e-03  1.56836145e-07  5.00000000e-01                                 
 2.15144641e-07  5.57057928e-01  2.15144641e-07  5.08406210e-01  2.15144641e-07  6.92847605e-01  2.15144641e-07  1.80000000e+00  2.15144641e-07 -5.26922606e-03  2.15144641e-07  5.00000000e-01                                 
 3.05851922e-07  5.36859876e-01  3.05851922e-07  4.90564028e-01  3.05851922e-07  5.33330231e-01  3.05851922e-07  1.80000000e+00  3.05851922e-07  5.29378881e-03  3.05851922e-07  5.00000000e-01                                 
 3.98222616e-07  5.15904115e-01  3.98222616e-07  4.72716701e-01  3.98222616e-07  4.52963041e-01  3.98222616e-07  1.80000000e+00  3.98222616e-07 -5.26759169e-03  3.98222616e-07  5.00000000e-01                                 
 4.77279528e-07  4.97145438e-01  4.77279528e-07  4.57125469e-01  4.77279528e-07  4.76224560e-01  4.77279528e-07  1.80000000e+00  4.77279528e-07  5.29201901e-03  4.77279528e-07  5.00000000e-01                                 
 5.68332541e-07  4.71909080e-01  5.68332541e-07  4.36546091e-01  5.68332541e-07  5.50057424e-01  5.68332541e-07  1.80000000e+00  5.68332541e-07 -5.26587013e-03  5.68332541e-07  5.00000000e-01                                 
 6.40728988e-07  4.51764634e-01  6.40728988e-07  4.20267018e-01  6.40728988e-07  5.11624485e-01  6.40728988e-07  1.80000000e+00  6.40728988e-07  5.29016457e-03  6.40728988e-07  5.00000000e-01                                 
 7.07207325e-07  4.47976125e-01  7.07207325e-07  4.17160529e-01  7.07207325e-07  4.45182087e-01  7.07207325e-07  1.80000000e+00  7.07207325e-07 -5.26353826e-03  7.07207325e-07  5.00000000e-01                                 
 7.18196243e-07  4.52373332e-01  7.18196243e-07  4.20670515e-01  7.18196243e-07  4.49262485e-01  7.18196243e-07  1.80000000e+00  7.18196243e-07 -8.03972623e-07  7.18196243e-07  5.00000000e-01                                 
 7.40174079e-07  4.68634297e-01  7.40174079e-07  4.33660034e-01  7.40174079e-07  4.64804134e-01  7.40174079e-07  1.80000000e+00  7.40174079e-07  2.70531583e-06  7.40174079e-07  5.00000000e-01                                 
 7.73927073e-07  5.60192357e-01  7.73927073e-07  5.06777938e-01  7.73927073e-07  5.66292149e-01  7.73927073e-07  1.80000000e+00  7.73927073e-07  1.02671647e-06  7.73927073e-07  5.00000000e-01                                 
 8.05058279e-07  6.99596240e-01  8.05058279e-07  6.39120873e-01  8.05058279e-07  6.33456873e-01  8.05058279e-07  1.80000000e+00  8.05058279e-07  5.32043604e-06  8.05058279e-07  5.00000000e-01                                 
 8.33913239e-07  7.44571328e-01  8.33913239e-07  6.86590973e-01  8.33913239e-07  5.60267139e-01  8.33913239e-07  1.80000000e+00  8.33913239e-07 -1.83383626e-06  8.33913239e-07  5.00000000e-01                                 
 8.60213187e-07  7.63883710e-01  8.60213187e-07  7.04257963e-01  8.60213187e-07  5.18761238e-01  8.60213187e-07  1.80000000e+00  8.60213187e-07  4.09105720e-06  8.60213187e-07  5.00000000e-01                                 
 8.92749059e-07  7.77253798e-01  8.92749059e-07  7.16453041e-01  8.92749059e-07  5.04136806e-01  8.92749059e-07  1.80000000e+00  8.92749059e-07 -2.20397156e-06  8.92749059e-07  5.00000000e-01                                 
 9.46107357e-07  7.86165617e-01  9.46107357e-07  7.24041271e-01  9.46107357e-07  4.95780845e-01  9.46107357e-07  1.80000000e+00  9.46107357e-07  3.67836758e-06  9.46107357e-07  5.00000000e-01                                 
 9.98894475e-07  7.88928827e-01  9.98894475e-07  7.26480705e-01  9.98894475e-07  4.91820850e-01  9.98894475e-07  1.80000000e+00  9.98894475e-07 -2.32108183e-06  9.98894475e-07  5.00000000e-01                                 
 1.07580823e-06  7.81753125e-01  1.07580823e-06  7.20272209e-01  1.07580823e-06  4.90525074e-01  1.07580823e-06  1.80000000e+00  1.07580823e-06  3.43431523e-06  1.07580823e-06  5.00000000e-01                                 
 1.08698874e-06  7.78642074e-01  1.08698874e-06  7.17622410e-01  1.08698874e-06  4.92193138e-01  1.08698874e-06  1.80000000e+00  1.08698874e-06  4.60664117e-07  1.08698874e-06  5.00000000e-01                                 
 1.10934978e-06  7.72413920e-01  1.10934978e-06  7.12133870e-01  1.10934978e-06  4.98489149e-01  1.10934978e-06  1.80000000e+00  1.10934978e-06  4.08994706e-07  1.10934978e-06  5.00000000e-01                                 
 1.15407185e-06  7.71030608e-01  1.15407185e-06  7.10863955e-01  1.15407185e-06  5.09896299e-01  1.15407185e-06  1.80000000e+00  1.15407185e-06  7.97604387e-07  1.15407185e-06  5.00000000e-01                                 
 1.22427252e-06  7.79434681e-01  1.22427252e-06  7.18302299e-01  1.22427252e-06  5.00293060e-01  1.22427252e-06  1.80000000e+00  1.22427252e-06  6.30441018e-07  1.22427252e-06  5.00000000e-01                                 
 1.31692234e-06  7.75871652e-01  1.31692234e-06  7.15183187e-01  1.31692234e-06  4.92603936e-01  1.31692234e-06  1.80000000e+00  1.31692234e-06  5.76324417e-07  1.31692234e-06  5.00000000e-01                                 
 1.41086646e-06  7.73809725e-01  1.41086646e-06  7.13354334e-01  1.41086646e-06  5.07238456e-01  1.41086646e-06  1.80000000e+00  1.41086646e-06  6.50576920e-07  1.41086646e-06  5.00000000e-01                                 
 1.57485403e-06  7.78286410e-01  1.57485403e-06  7.17298270e-01  1.57485403e-06  4.97011527e-01  1.57485403e-06  1.80000000e+00  1.57485403e-06  6.46347955e-07  1.57485403e-06  5.00000000e-01                                 
 1.72433807e-06  7.74326369e-01  1.72433807e-06  7.13818401e-01  1.72433807e-06  4.98497699e-01  1.72433807e-06  1.80000000e+00  1.72433807e-06  5.76342303e-07  1.72433807e-06  5.00000000e-01                                 
 1.93636805e-06  7.76811646e-01  1.93636805e-06  7.16001145e-01  1.93636805e-06  5.04429457e-01  1.93636805e-06  1.80000000e+00  1.93636805e-06  6.98075826e-07  1.93636805e-06  5.00000000e-01                                 
 2.21449257e-06  7.75873833e-01  2.21449257e-06  7.15187238e-01  2.21449257e-06  4.94595319e-01  2.21449257e-06  1.80000000e+00  2.21449257e-06  5.56754878e-07  2.21449257e-06  5.00000000e-01                                 
 2.56975012e-06  7.75667769e-01  2.56975012e-06  7.14993618e-01  2.56975012e-06  5.06092079e-01  2.56975012e-06  1.80000000e+00  2.56975012e-06  7.00847669e-07  2.56975012e-06  5.00000000e-01                                 
 3.07892367e-06  7.76654004e-01  3.07892367e-06  7.15873648e-01  3.07892367e-06  4.94260598e-01  3.07892367e-06  1.80000000e+00  3.07892367e-06  5.61022011e-07  3.07892367e-06  5.00000000e-01                                 
 3.63404521e-06  7.75126474e-01  3.63404521e-06  7.14516235e-01  3.63404521e-06  5.05829122e-01  3.63404521e-06  1.80000000e+00  3.63404521e-06  6.93793092e-07  3.63404521e-06  5.00000000e-01                                 
 4.36295514e-06  7.77030586e-01  4.36295514e-06  7.16203895e-01  4.36295514e-06  4.94812579e-01  4.36295514e-06  1.80000000e+00  4.36295514e-06  5.68876803e-07  4.36295514e-06  5.00000000e-01                                 
 5.22539952e-06  7.74861421e-01  5.22539952e-06  7.14282508e-01  5.22539952e-06  5.05195709e-01  5.22539952e-06  1.80000000e+00  5.22539952e-06  6.86390718e-07  5.22539952e-06  5.00000000e-01                                 
 6.22539952e-06  7.77208780e-01  6.22539952e-06  7.16359765e-01  6.22539952e-06  4.95485300e-01  6.22539952e-06  1.80000000e+00  6.22539952e-06  5.75839250e-07  6.22539952e-06  5.00000000e-01                                 
 7.22539952e-06  7.74717541e-01  7.22539952e-06  7.14155790e-01  7.22539952e-06  5.04483022e-01  7.22539952e-06  1.80000000e+00  7.22539952e-06  6.79503889e-07  7.22539952e-06  5.00000000e-01                                 
 8.22539952e-06  7.77314925e-01  8.22539952e-06  7.16452327e-01  8.22539952e-06  4.96278708e-01  8.22539952e-06  1.80000000e+00  8.22539952e-06  5.83047945e-07  8.22539952e-06  5.00000000e-01                                 
 9.22539952e-06  7.74633383e-01  9.22539952e-06  7.14081931e-01  9.22539952e-06  5.03631978e-01  9.22539952e-06  1.80000000e+00  9.22539952e-06  6.72056395e-07  9.22539952e-06  5.00000000e-01                                 
 1.00005000e-05  7.77367882e-01  1.00005000e-05  7.16498086e-01  1.00005000e-05  4.97331390e-01  1.00005000e-05  1.80000000e+00  1.00005000e-05  5.91771553e-07  1.00005000e-05  5.00000000e-01                                 
 1.00005500e-05  7.77367323e-01  1.00005500e-05  7.16497553e-01  1.00005500e-05  4.89464627e-01  1.00005500e-05  1.62000000e+00  1.00005500e-05 -8.60661771e-05  1.00005500e-05  5.00000000e-01                                 
 1.00006500e-05  7.77366323e-01  1.00006500e-05  7.16496452e-01  1.00006500e-05  4.75688754e-01  1.00006500e-05  1.26000000e+00  1.00006500e-05 -6.33207180e-05  1.00006500e-05  5.00000000e-01                                 
 1.00008500e-05  7.77363866e-01  1.00008500e-05  7.16493862e-01  1.00008500e-05  4.73718372e-01  1.00008500e-05  5.40000000e-01  1.00008500e-05 -3.68816202e-03  1.00008500e-05  5.00000000e-01                                 
 1.00010000e-05  7.77361430e-01  1.00010000e-05  7.16491550e-01  1.00010000e-05  4.39124052e-01  1.00010000e-05  0.00000000e+00  1.00010000e-05  1.57142389e+00  1.00010000e-05  5.00000000e-01                                 
 1.00010258e-05  7.77360941e-01  1.00010258e-05  7.16491099e-01  1.00010258e-05  4.12584173e-01  1.00010258e-05  0.00000000e+00  1.00010258e-05  1.72235286e+00  1.00010258e-05  5.00000000e-01                                 
 1.00010775e-05  7.77360015e-01  1.00010775e-05  7.16490217e-01  1.00010775e-05  3.67718158e-01  1.00010775e-05  0.00000000e+00  1.00010775e-05  1.82069623e+00  1.00010775e-05  5.00000000e-01                                 
 1.00011809e-05  7.77358232e-01  1.00011809e-05  7.16488497e-01  1.00011809e-05  3.30475702e-01  1.00011809e-05  0.00000000e+00  1.00011809e-05  1.78473786e+00  1.00011809e-05  5.00000000e-01                                 
 1.00013021e-05  7.77355962e-01  1.00013021e-05  7.16486413e-01  1.00013021e-05  3.29904314e-01  1.00013021e-05  0.00000000e+00  1.00013021e-05  1.80952390e+00  1.00013021e-05  5.00000000e-01                                 
 1.00014459e-05  7.77352992e-01  1.00014459e-05  7.16483737e-01  1.00014459e-05  3.28484947e-01  1.00014459e-05  0.00000000e+00  1.00014459e-05  1.79320844e+00  1.00014459e-05  5.00000000e-01                                 
 1.00016080e-05  7.77349362e-01  1.00016080e-05  7.16480493e-01  1.00016080e-05  3.27549824e-01  1.00016080e-05  0.00000000e+00  1.00016080e-05  1.80486071e+00  1.00016080e-05  5.00000000e-01                                 
 1.00019320e-05  7.77341406e-01  1.00019320e-05  7.16473457e-01  1.00019320e-05  3.25909552e-01  1.00019320e-05  0.00000000e+00  1.00019320e-05  1.79583766e+00  1.00019320e-05  5.00000000e-01                                 
 1.00025642e-05  7.77324253e-01  1.00025642e-05  7.16458393e-01  1.00025642e-05  3.24391635e-01  1.00025642e-05  0.00000000e+00  1.00025642e-05  1.80380030e+00  1.00025642e-05  5.00000000e-01                                 
 1.00038286e-05  7.77286617e-01  1.00038286e-05  7.16425463e-01  1.00038286e-05  3.23326489e-01  1.00038286e-05  0.00000000e+00  1.00038286e-05  1.79633161e+00  1.00038286e-05  5.00000000e-01                                 
 1.00063574e-05  7.77202247e-01  1.00063574e-05  7.16351673e-01  1.00063574e-05  3.24283172e-01  1.00063574e-05  0.00000000e+00  1.00063574e-05  1.80356756e+00  1.00063574e-05  5.00000000e-01                                 
 1.00114149e-05  7.76999569e-01  1.00114149e-05  7.16174212e-01  1.00114149e-05  3.27616101e-01  1.00114149e-05  0.00000000e+00  1.00114149e-05  1.79644615e+00  1.00114149e-05  5.00000000e-01                                 
 1.00215299e-05  7.76522877e-01  1.00215299e-05  7.15755552e-01  1.00215299e-05  3.41238765e-01  1.00215299e-05  0.00000000e+00  1.00215299e-05  1.80351144e+00  1.00215299e-05  5.00000000e-01                                 
 1.00384636e-05  7.75776058e-01  1.00384636e-05  7.15097191e-01  1.00384636e-05  4.37882972e-01  1.00384636e-05  0.00000000e+00  1.00384636e-05  1.79647616e+00  1.00384636e-05  5.00000000e-01                                 
 1.00571559e-05  7.75282896e-01  1.00571559e-05  7.14660669e-01  1.00571559e-05  5.68908394e-01  1.00571559e-05  0.00000000e+00  1.00571559e-05  1.80349030e+00  1.00571559e-05  5.00000000e-01                                 
 1.00800392e-05  7.75266432e-01  1.00800392e-05  7.14644601e-01  1.00800392e-05  6.35738433e-01  1.00800392e-05  0.00000000e+00  1.00800392e-05  1.79649450e+00  1.00800392e-05  5.00000000e-01                                 
 1.01009621e-05  7.75657309e-01  1.01009621e-05  7.14988963e-01  1.01009621e-05  6.58334623e-01  1.01009621e-05  0.00000000e+00  1.01009621e-05  1.80347332e+00  1.01009621e-05  5.00000000e-01                                 
