 time            v(vbep)         time            v(vben)         time            v(vout)         time            v(vphi1)        time            v(vphi2)        time            v(vref)         yes             currtemp       
 0.00000000e+00  6.17978453e-01  0.00000000e+00  5.54335117e-01  0.00000000e+00  9.97484672e-01  0.00000000e+00  0.00000000e+00  0.00000000e+00  1.79990310e+00  0.00000000e+00  5.54335117e-01  1.00000000e+00  7.50000000e+01 
 5.00000000e-12  6.17921499e-01  5.00000000e-12  5.54288958e-01  5.00000000e-12  9.98222159e-01  5.00000000e-12  1.80000000e-02  5.00000000e-12  1.80003783e+00  5.00000000e-12  5.54288958e-01                                 
 1.00000000e-11  6.17867562e-01  1.00000000e-11  5.54244642e-01  1.00000000e-11  9.98889038e-01  1.00000000e-11  3.60000000e-02  1.00000000e-11  1.80012176e+00  1.00000000e-11  5.54244642e-01                                 
 2.00000000e-11  6.17761850e-01  2.00000000e-11  5.54156555e-01  2.00000000e-11  1.00011009e+00  2.00000000e-11  7.20000000e-02  2.00000000e-11  1.80021837e+00  2.00000000e-11  5.54156555e-01                                 
 4.00000000e-11  6.17554212e-01  4.00000000e-11  5.53981457e-01  4.00000000e-11  1.00203162e+00  4.00000000e-11  1.44000000e-01  4.00000000e-11  1.80021391e+00  4.00000000e-11  5.53981457e-01                                 
 8.00000000e-11  6.17141945e-01  8.00000000e-11  5.53633672e-01  8.00000000e-11  1.00448165e+00  8.00000000e-11  2.88000000e-01  8.00000000e-11  1.80010904e+00  8.00000000e-11  5.53633672e-01                                 
 1.60000000e-10  6.16330633e-01  1.60000000e-10  5.52947649e-01  1.60000000e-10  1.00626947e+00  1.60000000e-10  5.76000000e-01  1.60000000e-10  1.79999346e+00  1.60000000e-10  5.52947649e-01                                 
 3.20000000e-10  6.14756531e-01  3.20000000e-10  5.51611988e-01  3.20000000e-10  9.99601239e-01  3.20000000e-10  1.15200000e+00  3.20000000e-10  1.80029306e+00  3.20000000e-10  5.51611988e-01                                 
 5.00000000e-10  6.13059623e-01  5.00000000e-10  5.50164578e-01  5.00000000e-10  1.11504227e+00  5.00000000e-10  1.80000000e+00  5.00000000e-10  1.77928003e-01  5.00000000e-10  5.50164578e-01                                 
 5.22248540e-10  6.12855695e-01  5.22248540e-10  5.49990080e-01  5.22248540e-10  1.14428614e+00  5.22248540e-10  1.80000000e+00  5.22248540e-10  4.75548916e-02  5.22248540e-10  5.49990080e-01                                 
 5.66745620e-10  6.12449914e-01  5.66745620e-10  5.49642587e-01  5.66745620e-10  1.20272240e+00  5.66745620e-10  1.80000000e+00  5.66745620e-10 -1.66157700e-02  5.66745620e-10  5.49642587e-01                                 
 6.55739781e-10  6.11651070e-01  6.55739781e-10  5.48957250e-01  6.55739781e-10  1.30805889e+00  6.55739781e-10  1.80000000e+00  6.55739781e-10  1.38926815e-02  6.55739781e-10  5.48957250e-01                                 
 7.76915835e-10  6.10589766e-01  7.76915835e-10  5.48044151e-01  7.76915835e-10  1.43189091e+00  7.76915835e-10  1.80000000e+00  7.76915835e-10 -1.01537295e-02  7.76915835e-10  5.48044151e-01                                 
 9.61741432e-10  6.09026330e-01  9.61741432e-10  5.46693725e-01  9.61741432e-10  1.58327214e+00  9.61741432e-10  1.80000000e+00  9.61741432e-10  1.00252833e-02  9.61741432e-10  5.46693725e-01                                 
 1.33139263e-09  6.06081034e-01  1.33139263e-09  5.44132977e-01  1.33139263e-09  1.76884528e+00  1.33139263e-09  1.80000000e+00  1.33139263e-09 -8.65041626e-03  1.33139263e-09  5.44132977e-01                                 
 1.66918714e-09  6.03582272e-01  1.66918714e-09  5.41942834e-01  1.66918714e-09  1.84506517e+00  1.66918714e-09  1.80000000e+00  1.66918714e-09  8.44581318e-03  1.66918714e-09  5.41942834e-01                                 
 2.04436588e-09  6.00994440e-01  2.04436588e-09  5.39658086e-01  2.04436588e-09  1.87791401e+00  2.04436588e-09  1.80000000e+00  2.04436588e-09 -7.74421757e-03  2.04436588e-09  5.39658086e-01                                 
 2.38320242e-09  5.98807880e-01  2.38320242e-09  5.37714664e-01  2.38320242e-09  1.88828070e+00  2.38320242e-09  1.80000000e+00  2.38320242e-09  7.31920098e-03  2.38320242e-09  5.37714664e-01                                 
 2.89613644e-09  5.95731951e-01  2.89613644e-09  5.34961722e-01  2.89613644e-09  1.89118716e+00  2.89613644e-09  1.80000000e+00  2.89613644e-09 -6.93280203e-03  2.89613644e-09  5.34961722e-01                                 
 3.52737678e-09  5.92280603e-01  3.52737678e-09  5.31846833e-01  3.52737678e-09  1.88962912e+00  3.52737678e-09  1.80000000e+00  3.52737678e-09  6.71859941e-03  3.52737678e-09  5.31846833e-01                                 
 4.61765633e-09  5.87012071e-01  4.61765633e-09  5.27042903e-01  4.61765633e-09  1.88434694e+00  4.61765633e-09  1.80000000e+00  4.61765633e-09 -6.54152565e-03  4.61765633e-09  5.27042903e-01                                 
 6.25313018e-09  5.80359374e-01  6.25313018e-09  5.20896943e-01  6.25313018e-09  1.87818495e+00  6.25313018e-09  1.80000000e+00  6.25313018e-09  6.48500419e-03  6.25313018e-09  5.20896943e-01                                 
 9.52407787e-09  5.69958835e-01  9.52407787e-09  5.11135227e-01  9.52407787e-09  1.86791913e+00  9.52407787e-09  1.80000000e+00  9.52407787e-09 -6.39681394e-03  9.52407787e-09  5.11135227e-01                                 
 1.10230276e-08  5.66162462e-01  1.10230276e-08  5.07521564e-01  1.10230276e-08  1.86462309e+00  1.10230276e-08  1.80000000e+00  1.10230276e-08  6.33399985e-03  1.10230276e-08  5.07521564e-01                                 
 1.23403192e-08  5.63159742e-01  1.23403192e-08  5.04648452e-01  1.23403192e-08  1.86148471e+00  1.23403192e-08  1.80000000e+00  1.23403192e-08 -6.18899887e-03  1.23403192e-08  5.04648452e-01                                 
 1.41042482e-08  5.59530099e-01  1.41042482e-08  5.01159497e-01  1.41042482e-08  1.85839418e+00  1.41042482e-08  1.80000000e+00  1.41042482e-08  6.13934892e-03  1.41042482e-08  5.01159497e-01                                 
 1.57799314e-08  5.56427983e-01  1.57799314e-08  4.98164181e-01  1.57799314e-08  1.85520211e+00  1.57799314e-08  1.80000000e+00  1.57799314e-08 -6.02330112e-03  1.57799314e-08  4.98164181e-01                                 
 1.76695423e-08  5.53258817e-01  1.76695423e-08  4.95092221e-01  1.76695423e-08  1.85257742e+00  1.76695423e-08  1.80000000e+00  1.76695423e-08  5.97981819e-03  1.76695423e-08  4.95092221e-01                                 
 1.98628082e-08  5.49940205e-01  1.98628082e-08  4.91863120e-01  1.98628082e-08  1.84923627e+00  1.98628082e-08  1.80000000e+00  1.98628082e-08 -5.88598345e-03  1.98628082e-08  4.91863120e-01                                 
 2.31470059e-08  5.45544434e-01  2.31470059e-08  4.87567862e-01  2.31470059e-08  1.84555030e+00  2.31470059e-08  1.80000000e+00  2.31470059e-08  5.87514923e-03  2.31470059e-08  4.87567862e-01                                 
 2.70188083e-08  5.41057938e-01  2.70188083e-08  4.83163196e-01  2.70188083e-08  1.84125355e+00  2.70188083e-08  1.80000000e+00  2.70188083e-08 -5.80854846e-03  2.70188083e-08  4.83163196e-01                                 
 3.41852812e-08  5.34153178e-01  3.41852812e-08  4.76346374e-01  3.41852812e-08  1.83555628e+00  3.41852812e-08  1.80000000e+00  3.41852812e-08  5.82189560e-03  3.41852812e-08  4.76346374e-01                                 
 4.49562029e-08  5.26095525e-01  4.49562029e-08  4.68329427e-01  4.49562029e-08  1.82860346e+00  4.49562029e-08  1.80000000e+00  4.49562029e-08 -5.77628979e-03  4.49562029e-08  4.68329427e-01                                 
 5.98360951e-08  5.17625811e-01  5.98360951e-08  4.59857408e-01  5.98360951e-08  1.82201958e+00  5.98360951e-08  1.80000000e+00  5.98360951e-08  5.80120042e-03  5.98360951e-08  4.59857408e-01                                 
 7.98076438e-08  5.08900254e-01  7.98076438e-08  4.51126072e-01  7.98076438e-08  1.81491111e+00  7.98076438e-08  1.80000000e+00  7.98076438e-08 -5.76002003e-03  7.98076438e-08  4.51126072e-01                                 
 1.07777443e-07  4.99660341e-01  1.07777443e-07  4.41870379e-01  1.07777443e-07  1.80118304e+00  1.07777443e-07  1.80000000e+00  1.07777443e-07  5.78989964e-03  1.07777443e-07  4.41870379e-01                                 
 1.32602074e-07  4.91360607e-01  1.32602074e-07  4.33957668e-01  1.32602074e-07  1.78120713e+00  1.32602074e-07  1.80000000e+00  1.32602074e-07 -5.75031692e-03  1.32602074e-07  4.33957668e-01                                 
 1.57563629e-07  4.78426608e-01  1.57563629e-07  4.22613832e-01  1.57563629e-07  1.75494691e+00  1.57563629e-07  1.80000000e+00  1.57563629e-07  5.77839366e-03  1.57563629e-07  4.22613832e-01                                 
 1.81299844e-07  4.68510587e-01  1.81299844e-07  4.13876168e-01  1.81299844e-07  1.70984410e+00  1.81299844e-07  1.80000000e+00  1.81299844e-07 -5.74032900e-03  1.81299844e-07  4.13876168e-01                                 
 2.06178284e-07  4.60825165e-01  2.06178284e-07  4.06992888e-01  2.06178284e-07  1.67199285e+00  2.06178284e-07  1.80000000e+00  2.06178284e-07  5.76842779e-03  2.06178284e-07  4.06992888e-01                                 
 2.29352433e-07  4.63967250e-01  2.29352433e-07  4.08801257e-01  2.29352433e-07  1.66624097e+00  2.29352433e-07  1.80000000e+00  2.29352433e-07 -5.72650142e-03  2.29352433e-07  4.08801257e-01                                 
 2.47918021e-07  4.66325106e-01  2.47918021e-07  4.10150344e-01  2.47918021e-07  1.65169338e+00  2.47918021e-07  1.80000000e+00  2.47918021e-07  5.75489073e-03  2.47918021e-07  4.10150344e-01                                 
 2.69704422e-07  4.63007852e-01  2.69704422e-07  4.06959082e-01  2.69704422e-07  1.62491127e+00  2.69704422e-07  1.80000000e+00  2.69704422e-07 -5.71483074e-03  2.69704422e-07  4.06959082e-01                                 
 2.89058418e-07  4.61486858e-01  2.89058418e-07  4.05289009e-01  2.89058418e-07  1.60389911e+00  2.89058418e-07  1.80000000e+00  2.89058418e-07  5.74247982e-03  2.89058418e-07  4.05289009e-01                                 
 3.09383768e-07  4.59793527e-01  3.09383768e-07  4.03489908e-01  3.09383768e-07  1.58162920e+00  3.09383768e-07  1.80000000e+00  3.09383768e-07 -5.70173869e-03  3.09383768e-07  4.03489908e-01                                 
 3.47770753e-07  4.52441889e-01  3.47770753e-07  3.96881087e-01  3.47770753e-07  1.53474260e+00  3.47770753e-07  1.80000000e+00  3.47770753e-07  5.73217033e-03  3.47770753e-07  3.96881087e-01                                 
 3.98661705e-07  4.40159731e-01  3.98661705e-07  3.86256719e-01  3.98661705e-07  1.47006017e+00  3.98661705e-07  1.80000000e+00  3.98661705e-07 -5.69600900e-03  3.98661705e-07  3.86256719e-01                                 
 4.61504219e-07  4.26036501e-01  4.61504219e-07  3.74161270e-01  4.61504219e-07  1.39012585e+00  4.61504219e-07  1.80000000e+00  4.61504219e-07  5.72761201e-03  4.61504219e-07  3.74161270e-01                                 
 5.49245793e-07  4.02283515e-01  5.49245793e-07  3.54367978e-01  5.49245793e-07  1.27474713e+00  5.49245793e-07  1.80000000e+00  5.49245793e-07 -5.69264962e-03  5.49245793e-07  3.54367978e-01                                 
 6.62342353e-07  3.83640422e-01  6.62342353e-07  3.38725486e-01  6.62342353e-07  1.13788297e+00  6.62342353e-07  1.80000000e+00  6.62342353e-07  5.72546546e-03  6.62342353e-07  3.38725486e-01                                 
 7.51299618e-07  3.46578803e-01  7.51299618e-07  3.08758132e-01  7.51299618e-07  1.01899007e+00  7.51299618e-07  1.80000000e+00  7.51299618e-07 -5.69087305e-03  7.51299618e-07  3.08758132e-01                                 
 8.43049786e-07  4.82045488e-01  8.43049786e-07  4.17688231e-01  8.43049786e-07  1.06346368e+00  8.43049786e-07  1.80000000e+00  8.43049786e-07  5.73006227e-03  8.43049786e-07  4.17688231e-01                                 
 8.57773474e-07  5.64639067e-01  8.57773474e-07  4.90986166e-01  8.57773474e-07  1.12727824e+00  8.57773474e-07  1.80000000e+00  8.57773474e-07  2.05768897e-05  8.57773474e-07  4.90986166e-01                                 
 8.87220852e-07  6.55207903e-01  8.87220852e-07  5.88459618e-01  8.87220852e-07  1.18496975e+00  8.87220852e-07  1.80000000e+00  8.87220852e-07  7.80327322e-06  8.87220852e-07  5.88459618e-01                                 
 8.94582697e-07  6.70983029e-01  8.94582697e-07  6.04426903e-01  8.94582697e-07  1.19194686e+00  8.94582697e-07  1.80000000e+00  8.94582697e-07  1.16482477e-05  8.94582697e-07  6.04426903e-01                                 
 9.09306386e-07  7.00174201e-01  9.09306386e-07  6.31567754e-01  9.09306386e-07  1.20430780e+00  9.09306386e-07  1.80000000e+00  9.09306386e-07  1.05065528e-05  9.09306386e-07  6.31567754e-01                                 
 9.38753763e-07  7.29637730e-01  9.38753763e-07  6.56732150e-01  9.38753763e-07  1.20178201e+00  9.38753763e-07  1.80000000e+00  9.38753763e-07  6.27919501e-06  9.38753763e-07  6.56732150e-01                                 
 9.68344100e-07  7.32357647e-01  9.68344100e-07  6.58989948e-01  9.68344100e-07  1.17320206e+00  9.68344100e-07  1.80000000e+00  9.68344100e-07  5.74565321e-06  9.68344100e-07  6.58989948e-01                                 
 1.00939411e-06  7.32463971e-01  1.00939411e-06  6.59033171e-01  1.00939411e-06  1.13061625e+00  1.00939411e-06  1.80000000e+00  1.00939411e-06  5.83584146e-06  1.00939411e-06  6.59033171e-01                                 
 1.04852978e-06  7.32700594e-01  1.04852978e-06  6.59263784e-01  1.04852978e-06  1.09133305e+00  1.04852978e-06  1.80000000e+00  1.04852978e-06  5.81911463e-06  1.04852978e-06  6.59263784e-01                                 
 1.10614299e-06  7.32761192e-01  1.10614299e-06  6.59274585e-01  1.10614299e-06  1.03726054e+00  1.10614299e-06  1.80000000e+00  1.10614299e-06  5.90439559e-06  1.10614299e-06  6.59274585e-01                                 
 1.11370388e-06  7.32514705e-01  1.11370388e-06  6.59095690e-01  1.11370388e-06  1.03041534e+00  1.11370388e-06  1.80000000e+00  1.11370388e-06  5.82734853e-06  1.11370388e-06  6.59095690e-01                                 
 1.12882566e-06  7.25654622e-01  1.12882566e-06  6.53554549e-01  1.12882566e-06  1.01142890e+00  1.12882566e-06  1.80000000e+00  1.12882566e-06  3.76380161e-06  1.12882566e-06  6.53554549e-01                                 
 1.15580128e-06  7.05086299e-01  1.15580128e-06  6.36016271e-01  1.15580128e-06  9.71487289e-01  1.15580128e-06  1.80000000e+00  1.15580128e-06  4.27649711e-06  1.15580128e-06  6.36016271e-01                                 
 1.18410371e-06  6.95031341e-01  1.18410371e-06  6.27039943e-01  1.18410371e-06  9.42275569e-01  1.18410371e-06  1.80000000e+00  1.18410371e-06  5.92146179e-06  1.18410371e-06  6.27039943e-01                                 
 1.22420257e-06  7.03699909e-01  1.22420257e-06  6.34736763e-01  1.22420257e-06  9.23244843e-01  1.22420257e-06  1.80000000e+00  1.22420257e-06  7.27072899e-06  1.22420257e-06  6.34736763e-01                                 
 1.27087654e-06  7.20586256e-01  1.27087654e-06  6.49282512e-01  1.27087654e-06  9.08098741e-01  1.27087654e-06  1.80000000e+00  1.27087654e-06  6.68036539e-06  1.27087654e-06  6.49282512e-01                                 
 1.33213511e-06  7.16262801e-01  1.33213511e-06  6.45664531e-01  1.33213511e-06  8.65874016e-01  1.33213511e-06  1.80000000e+00  1.33213511e-06  5.12884725e-06  1.33213511e-06  6.45664531e-01                                 
 1.39537054e-06  7.07189329e-01  1.39537054e-06  6.37823164e-01  1.39537054e-06  8.19451306e-01  1.39537054e-06  1.80000000e+00  1.39537054e-06  6.35541336e-06  1.39537054e-06  6.37823164e-01                                 
 1.48467299e-06  7.14052257e-01  1.48467299e-06  6.43758053e-01  1.48467299e-06  7.73757047e-01  1.48467299e-06  1.80000000e+00  1.48467299e-06  6.28645930e-06  1.48467299e-06  6.43758053e-01                                 
 1.60165725e-06  7.15170364e-01  1.60165725e-06  6.44717493e-01  1.60165725e-06  7.11882276e-01  1.60165725e-06  1.80000000e+00  1.60165725e-06  6.10028628e-06  1.60165725e-06  6.44717493e-01                                 
 1.72249003e-06  7.09266917e-01  1.72249003e-06  6.39640056e-01  1.72249003e-06  6.61434227e-01  1.72249003e-06  1.80000000e+00  1.72249003e-06  6.19012171e-06  1.72249003e-06  6.39640056e-01                                 
 1.89632330e-06  7.16119691e-01  1.89632330e-06  6.45516956e-01  1.89632330e-06  6.38542820e-01  1.89632330e-06  1.80000000e+00  1.89632330e-06  6.71394301e-06  1.89632330e-06  6.45516956e-01                                 
 1.91787764e-06  7.14864019e-01  1.91787764e-06  6.44457328e-01  1.91787764e-06  6.35609279e-01  1.91787764e-06  1.80000000e+00  1.91787764e-06  6.25515367e-06  1.91787764e-06  6.44457328e-01                                 
 1.96098632e-06  7.12184749e-01  1.96098632e-06  6.42162122e-01  1.96098632e-06  6.29776172e-01  1.96098632e-06  1.80000000e+00  1.96098632e-06  6.23711715e-06  1.96098632e-06  6.42162122e-01                                 
 2.04720368e-06  7.12222732e-01  2.04720368e-06  6.42187751e-01  2.04720368e-06  6.33058592e-01  2.04720368e-06  1.80000000e+00  2.04720368e-06  6.65228445e-06  2.04720368e-06  6.42187751e-01                                 
 2.14855232e-06  7.14135282e-01  2.14855232e-06  6.43833350e-01  2.14855232e-06  6.45585036e-01  2.14855232e-06  1.80000000e+00  2.14855232e-06  6.37764417e-06  2.14855232e-06  6.43833350e-01                                 
 2.25742287e-06  7.12083954e-01  2.25742287e-06  6.42072312e-01  2.25742287e-06  6.42028653e-01  2.25742287e-06  1.80000000e+00  2.25742287e-06  6.36853146e-06  2.25742287e-06  6.42072312e-01                                 
 2.38693810e-06  7.13214616e-01  2.38693810e-06  6.43041975e-01  2.38693810e-06  6.42785194e-01  2.38693810e-06  1.80000000e+00  2.38693810e-06  6.52713612e-06  2.38693810e-06  6.43041975e-01                                 
 2.55761846e-06  7.13117612e-01  2.55761846e-06  6.42961502e-01  2.55761846e-06  6.43678270e-01  2.55761846e-06  1.80000000e+00  2.55761846e-06  6.32604082e-06  2.55761846e-06  6.42961502e-01                                 
 2.78699224e-06  7.12544389e-01  2.78699224e-06  6.42466719e-01  2.78699224e-06  6.42106050e-01  2.78699224e-06  1.80000000e+00  2.78699224e-06  6.51193694e-06  2.78699224e-06  6.42466719e-01                                 
 3.09659919e-06  7.13465380e-01  3.09659919e-06  6.43259144e-01  3.09659919e-06  6.43947984e-01  3.09659919e-06  1.80000000e+00  3.09659919e-06  6.35722298e-06  3.09659919e-06  6.43259144e-01                                 
 3.55503623e-06  7.12387181e-01  3.55503623e-06  6.42332125e-01  3.55503623e-06  6.42028320e-01  3.55503623e-06  1.80000000e+00  3.55503623e-06  6.48293864e-06  3.55503623e-06  6.42332125e-01                                 
 4.21981903e-06  7.13521047e-01  4.21981903e-06  6.43306433e-01  4.21981903e-06  6.43954271e-01  4.21981903e-06  1.80000000e+00  4.21981903e-06  6.37893565e-06  4.21981903e-06  6.43306433e-01                                 
 5.21981903e-06  7.12370339e-01  5.21981903e-06  6.42317939e-01  5.21981903e-06  6.42046022e-01  5.21981903e-06  1.80000000e+00  5.21981903e-06  6.46776014e-06  5.21981903e-06  6.42317939e-01                                 
 6.21981903e-06  7.13521045e-01  6.21981903e-06  6.43306210e-01  6.21981903e-06  6.43921157e-01  6.21981903e-06  1.80000000e+00  6.21981903e-06  6.39111251e-06  6.21981903e-06  6.43306210e-01                                 
 7.21981903e-06  7.12380454e-01  7.21981903e-06  6.42326876e-01  7.21981903e-06  6.42090055e-01  7.21981903e-06  1.80000000e+00  7.21981903e-06  6.45567478e-06  7.21981903e-06  6.42326876e-01                                 
