 time            v(vbep)         time            v(vben)         time            v(vout)         time            v(vphi1)        time            v(vphi2)        time            v(vref)         time            v(voutc)        time            v(voutcc)       yes             currtemp       
 0.00000000e+00  8.29630067e-01  0.00000000e+00  7.79269569e-01  0.00000000e+00  1.71405125e+00  0.00000000e+00  0.00000000e+00  0.00000000e+00  1.80000000e+00  0.00000000e+00  7.82965803e-01  0.00000000e+00  1.71405124e+00  0.00000000e+00  1.71916810e+00  1.00000000e+00 -1.10000000e+01 
 1.00000000e-11  8.29652340e-01  1.00000000e-11  7.79337151e-01  1.00000000e-11  1.71487099e+00  1.00000000e-11  1.80000000e-02  1.00000000e-11  1.80024426e+00  1.00000000e-11  7.83483739e-01  1.00000000e-11  1.71451103e+00  1.00000000e-11  1.71918192e+00                                 
 2.00000000e-11  8.29658562e-01  2.00000000e-11  7.79379757e-01  2.00000000e-11  1.71542104e+00  2.00000000e-11  3.60000000e-02  2.00000000e-11  1.80034613e+00  2.00000000e-11  7.83874692e-01  2.00000000e-11  1.71487044e+00  2.00000000e-11  1.71918826e+00                                 
 4.00000000e-11  8.29658491e-01  4.00000000e-11  7.79435527e-01  4.00000000e-11  1.71614949e+00  4.00000000e-11  7.20000000e-02  4.00000000e-11  1.80039315e+00  4.00000000e-11  7.84452809e-01  4.00000000e-11  1.71542409e+00  4.00000000e-11  1.71919235e+00                                 
 8.00000000e-11  8.29647240e-01  8.00000000e-11  7.79468401e-01  8.00000000e-11  1.71648621e+00  8.00000000e-11  1.44000000e-01  8.00000000e-11  1.80020075e+00  8.00000000e-11  7.84914979e-01  8.00000000e-11  1.71594293e+00  8.00000000e-11  1.71918275e+00                                 
 1.60000000e-10  8.29643859e-01  1.60000000e-10  7.79468465e-01  1.60000000e-10  1.71625561e+00  1.60000000e-10  2.88000000e-01  1.60000000e-10  1.80001301e+00  1.60000000e-10  7.84978653e-01  1.60000000e-10  1.71613443e+00  1.60000000e-10  1.71917030e+00                                 
 3.20000000e-10  8.29641360e-01  3.20000000e-10  7.79467261e-01  3.20000000e-10  1.71595381e+00  3.20000000e-10  5.76000000e-01  3.20000000e-10  1.80001902e+00  3.20000000e-10  7.84935097e-01  3.20000000e-10  1.71609290e+00  3.20000000e-10  1.71916805e+00                                 
 6.40000000e-10  8.29570270e-01  6.40000000e-10  7.79252621e-01  6.40000000e-10  1.70975323e+00  6.40000000e-10  1.15200000e+00  6.40000000e-10  1.81350450e+00  6.40000000e-10  7.84412397e-01  6.40000000e-10  1.72075150e+00  6.40000000e-10  1.71919615e+00                                 
 9.95829908e-10  8.29989992e-01  9.95829908e-10  7.79281112e-01  9.95829908e-10  1.67956211e+00  9.95829908e-10  1.79249383e+00  9.95829908e-10  7.61983564e-02  9.95829908e-10  7.85643368e-01  9.95829908e-10  1.70995689e+00  9.95829908e-10  1.71908008e+00                                 
 1.00000000e-09  8.30004311e-01  1.00000000e-09  7.79303834e-01  1.00000000e-09  1.67928883e+00  1.00000000e-09  1.80000000e+00  1.00000000e-09  4.77308487e-02  1.00000000e-09  7.85972263e-01  1.00000000e-09  1.70984402e+00  1.00000000e-09  1.71908817e+00                                 
 1.00834018e-09  8.29986866e-01  1.00834018e-09  7.79310959e-01  1.00834018e-09  1.67919198e+00  1.00834018e-09  1.80000000e+00  1.00834018e-09  2.48585635e-02  1.00834018e-09  7.86713374e-01  1.00834018e-09  1.71018970e+00  1.00834018e-09  1.71911583e+00                                 
 1.02502055e-09  8.29975369e-01  1.02502055e-09  7.79360846e-01  1.02502055e-09  1.67950710e+00  1.02502055e-09  1.80000000e+00  1.02502055e-09  2.00364443e-03  1.02502055e-09  7.88255364e-01  1.02502055e-09  1.71125427e+00  1.02502055e-09  1.71916801e+00                                 
 1.05838129e-09  8.30034394e-01  1.05838129e-09  7.79427976e-01  1.05838129e-09  1.67987495e+00  1.05838129e-09  1.80000000e+00  1.05838129e-09  1.07300668e-03  1.05838129e-09  7.90002794e-01  1.05838129e-09  1.71281508e+00  1.05838129e-09  1.71919203e+00                                 
 1.12510276e-09  8.30184234e-01  1.12510276e-09  7.79362772e-01  1.12510276e-09  1.67755795e+00  1.12510276e-09  1.80000000e+00  1.12510276e-09  5.51614920e-04  1.12510276e-09  7.90371740e-01  1.12510276e-09  1.71314551e+00  1.12510276e-09  1.71915648e+00                                 
 1.25854570e-09  8.30361340e-01  1.25854570e-09  7.79292094e-01  1.25854570e-09  1.67223717e+00  1.25854570e-09  1.80000000e+00  1.25854570e-09  3.60411928e-04  1.25854570e-09  7.90982388e-01  1.25854570e-09  1.71364881e+00  1.25854570e-09  1.71917473e+00                                 
 1.52543159e-09  8.30414000e-01  1.52543159e-09  7.79272692e-01  1.52543159e-09  1.66772159e+00  1.52543159e-09  1.80000000e+00  1.52543159e-09 -3.28858000e-05  1.52543159e-09  7.91280303e-01  1.52543159e-09  1.71389242e+00  1.52543159e-09  1.71917045e+00                                 
 1.78290384e-09  8.30251754e-01  1.78290384e-09  7.79262407e-01  1.78290384e-09  1.66901046e+00  1.78290384e-09  1.80000000e+00  1.78290384e-09  1.14320379e-05  1.78290384e-09  7.90803785e-01  1.78290384e-09  1.71348837e+00  1.78290384e-09  1.71917765e+00                                 
 2.05241543e-09  8.30075832e-01  2.05241543e-09  7.79262086e-01  2.05241543e-09  1.67107445e+00  2.05241543e-09  1.80000000e+00  2.05241543e-09 -6.95145522e-05  2.05241543e-09  7.90377610e-01  2.05241543e-09  1.71312734e+00  2.05241543e-09  1.71917713e+00                                 
 2.39405511e-09  8.29880577e-01  2.39405511e-09  7.79256333e-01  2.39405511e-09  1.67364047e+00  2.39405511e-09  1.80000000e+00  2.39405511e-09 -2.23071226e-06  2.39405511e-09  7.89781192e-01  2.39405511e-09  1.71262321e+00  2.39405511e-09  1.71918209e+00                                 
 3.07733448e-09  8.29643020e-01  3.07733448e-09  7.79252103e-01  3.07733448e-09  1.67794747e+00  3.07733448e-09  1.80000000e+00  3.07733448e-09 -6.26977920e-05  3.07733448e-09  7.88706495e-01  3.07733448e-09  1.71171334e+00  3.07733448e-09  1.71918306e+00                                 
 4.44389321e-09  8.29492012e-01  4.44389321e-09  7.79249289e-01  4.44389321e-09  1.68406247e+00  4.44389321e-09  1.80000000e+00  4.44389321e-09  3.47890248e-09  4.44389321e-09  7.86834142e-01  4.44389321e-09  1.71012966e+00  4.44389321e-09  1.71917357e+00                                 
 7.17701067e-09  8.29543410e-01  7.17701067e-09  7.79257912e-01  7.17701067e-09  1.68936576e+00  7.17701067e-09  1.80000000e+00  7.17701067e-09 -5.31261695e-05  7.17701067e-09  7.84384339e-01  7.17701067e-09  1.70805599e+00  7.17701067e-09  1.71907749e+00                                 
 9.72185226e-09  8.29582240e-01  9.72185226e-09  7.79264562e-01  9.72185226e-09  1.68962302e+00  9.72185226e-09  1.80000000e+00  9.72185226e-09  8.85066810e-06  9.72185226e-09  7.83229929e-01  9.72185226e-09  1.70707842e+00  9.72185226e-09  1.71891617e+00                                 
 1.21110864e-08  8.29594791e-01  1.21110864e-08  7.79267832e-01  1.21110864e-08  1.68845026e+00  1.21110864e-08  1.80000000e+00  1.21110864e-08 -4.44614652e-05  1.21110864e-08  7.82717129e-01  1.21110864e-08  1.70664076e+00  1.21110864e-08  1.71872056e+00                                 
 1.47091342e-08  8.29591230e-01  1.47091342e-08  7.79268963e-01  1.47091342e-08  1.68742470e+00  1.47091342e-08  1.80000000e+00  1.47091342e-08  1.82204390e-05  1.47091342e-08  7.82442922e-01  1.47091342e-08  1.70640374e+00  1.47091342e-08  1.71848921e+00                                 
 1.82385485e-08  8.29594419e-01  1.82385485e-08  7.79269674e-01  1.82385485e-08  1.68630069e+00  1.82385485e-08  1.80000000e+00  1.82385485e-08 -3.20910513e-05  1.82385485e-08  7.82331042e-01  1.82385485e-08  1.70629796e+00  1.82385485e-08  1.71816267e+00                                 
 2.27308659e-08  8.29611777e-01  2.27308659e-08  7.79269539e-01  2.27308659e-08  1.68292591e+00  2.27308659e-08  1.80000000e+00  2.27308659e-08  2.50324857e-05  2.27308659e-08  7.82322907e-01  2.27308659e-08  1.70627587e+00  2.27308659e-08  1.71775882e+00                                 
 2.89545268e-08  8.29628657e-01  2.89545268e-08  7.79269757e-01  2.89545268e-08  1.67528083e+00  2.89545268e-08  1.80000000e+00  2.89545268e-08 -2.86137316e-05  2.89545268e-08  7.82405478e-01  2.89545268e-08  1.70632313e+00  2.89545268e-08  1.71723230e+00                                 
 3.77546476e-08  8.29631735e-01  3.77546476e-08  7.79269654e-01  3.77546476e-08  1.66231484e+00  3.77546476e-08  1.80000000e+00  3.77546476e-08  2.57645457e-05  3.77546476e-08  7.82507980e-01  3.77546476e-08  1.70638316e+00  3.77546476e-08  1.71656666e+00                                 
 5.18753012e-08  8.29633644e-01  5.18753012e-08  7.79269733e-01  5.18753012e-08  1.64001800e+00  5.18753012e-08  1.80000000e+00  5.18753012e-08 -2.84384261e-05  5.18753012e-08  7.82653539e-01  5.18753012e-08  1.70647201e+00  5.18753012e-08  1.71565995e+00                                 
 7.29986238e-08  8.29630056e-01  7.29986238e-08  7.79269568e-01  7.29986238e-08  1.60505457e+00  7.29986238e-08  1.80000000e+00  7.29986238e-08  2.55033489e-05  7.29986238e-08  7.82778168e-01  7.29986238e-08  1.70654398e+00  7.29986238e-08  1.71461356e+00                                 
 1.15245269e-07  8.29631828e-01  1.15245269e-07  7.79269643e-01  1.15245269e-07  1.53267706e+00  1.15245269e-07  1.80000000e+00  1.15245269e-07 -2.84938870e-05  1.15245269e-07  7.82913661e-01  1.15245269e-07  1.70662084e+00  1.15245269e-07  1.71326952e+00                                 
 1.99738559e-07  8.29628804e-01  1.99738559e-07  7.79269527e-01  1.99738559e-07  1.38713503e+00  1.99738559e-07  1.80000000e+00  1.99738559e-07  2.54640753e-05  1.99738559e-07  7.82963283e-01  1.99738559e-07  1.70663572e+00  1.99738559e-07  1.71213294e+00                                 
 3.31439111e-07  8.29631349e-01  3.31439111e-07  7.79269628e-01  3.31439111e-07  1.16454953e+00  3.31439111e-07  1.80000000e+00  3.31439111e-07 -2.83405871e-05  3.31439111e-07  7.82969336e-01  3.31439111e-07  1.70662818e+00  3.31439111e-07  1.71177556e+00                                 
 5.17697666e-07  8.29628791e-01  5.17697666e-07  7.79269516e-01  5.17697666e-07  8.80664296e-01  5.17697666e-07  1.80000000e+00  5.17697666e-07  2.60607451e-05  5.17697666e-07  7.82961429e-01  5.17697666e-07  1.70661347e+00  5.17697666e-07  1.71175479e+00                                 
 6.93262624e-07  8.29631414e-01  6.93262624e-07  7.79269625e-01  6.93262624e-07  7.76910733e-01  6.93262624e-07  1.80000000e+00  6.93262624e-07 -2.66526412e-05  6.93262624e-07  7.82970618e-01  6.93262624e-07  1.70661330e+00  6.93262624e-07  1.71175082e+00                                 
 8.26491792e-07  8.29628594e-01  8.26491792e-07  7.79269508e-01  8.26491792e-07  7.89353457e-01  8.26491792e-07  1.80000000e+00  8.26491792e-07  2.67901418e-05  8.26491792e-07  7.82961813e-01  8.26491792e-07  1.70660072e+00  8.26491792e-07  1.71174605e+00                                 
 8.81071664e-07  8.29631514e-01  8.81071664e-07  7.79269620e-01  8.81071664e-07  7.87324845e-01  8.81071664e-07  1.80000000e+00  8.81071664e-07 -2.67787627e-05  8.81071664e-07  7.82969238e-01  8.81071664e-07  1.70660411e+00  8.81071664e-07  1.71174225e+00                                 
 9.60319922e-07  8.29628707e-01  9.60319922e-07  7.79269537e-01  9.60319922e-07  7.86554434e-01  9.60319922e-07  1.80000000e+00  9.60319922e-07  2.67952797e-05  9.60319922e-07  7.82962247e-01  9.60319922e-07  1.70659541e+00  9.60319922e-07  1.71173996e+00                                 
 1.06173463e-06  8.29631382e-01  1.06173463e-06  7.79269609e-01  1.06173463e-06  7.86807799e-01  1.06173463e-06  1.80000000e+00  1.06173463e-06 -2.67718197e-05  1.06173463e-06  7.82969440e-01  1.06173463e-06  1.70659661e+00  1.06173463e-06  1.71173459e+00                                 
 1.26456404e-06  8.29628772e-01  1.26456404e-06  7.79269548e-01  1.26456404e-06  7.86614817e-01  1.26456404e-06  1.80000000e+00  1.26456404e-06  2.67792058e-05  1.26456404e-06  7.82962158e-01  1.26456404e-06  1.70658241e+00  1.26456404e-06  1.71172709e+00                                 
 1.47718365e-06  8.29631347e-01  1.47718365e-06  7.79269603e-01  1.47718365e-06  7.86812404e-01  1.47718365e-06  1.80000000e+00  1.47718365e-06 -2.67588155e-05  1.47718365e-06  7.82969486e-01  1.47718365e-06  1.70657901e+00  1.47718365e-06  1.71171699e+00                                 
 1.90242287e-06  8.29628794e-01  1.90242287e-06  7.79269551e-01  1.90242287e-06  7.86637312e-01  1.90242287e-06  1.80000000e+00  1.90242287e-06  2.67733685e-05  1.90242287e-06  7.82962128e-01  1.90242287e-06  1.70655537e+00  1.90242287e-06  1.71170014e+00                                 
 2.58290757e-06  8.29631337e-01  2.58290757e-06  7.79269604e-01  2.58290757e-06  7.86808616e-01  2.58290757e-06  1.80000000e+00  2.58290757e-06 -2.67689832e-05  2.58290757e-06  7.82969502e-01  2.58290757e-06  1.70653217e+00  2.58290757e-06  1.71167027e+00                                 
 3.78290757e-06  8.29628800e-01  3.78290757e-06  7.79269550e-01  3.78290757e-06  7.86646756e-01  3.78290757e-06  1.80000000e+00  3.78290757e-06  2.67734141e-05  3.78290757e-06  7.82962119e-01  3.78290757e-06  1.70647559e+00  3.78290757e-06  1.71162060e+00                                 
 4.98290757e-06  8.29631333e-01  4.98290757e-06  7.79269601e-01  4.98290757e-06  7.86810844e-01  4.98290757e-06  1.80000000e+00  4.98290757e-06 -2.67532816e-05  4.98290757e-06  7.82969504e-01  4.98290757e-06  1.70643032e+00  4.98290757e-06  1.71156869e+00                                 
 6.00100000e-06  8.29628804e-01  6.00100000e-06  7.79269545e-01  6.00100000e-06  7.86651307e-01  6.00100000e-06  1.80000000e+00  6.00100000e-06  2.67780157e-05  6.00100000e-06  7.82962107e-01  6.00100000e-06  1.70638141e+00  6.00100000e-06  1.71152668e+00                                 
 6.00110000e-06  8.29597336e-01  6.00110000e-06  7.79044642e-01  6.00110000e-06  7.84617316e-01  6.00110000e-06  1.62000000e+00  6.00110000e-06 -9.50305077e-05  6.00110000e-06  7.81122643e-01  6.00110000e-06  1.70482438e+00  6.00110000e-06  1.71151160e+00                                 
 6.00130000e-06  8.29627243e-01  6.00130000e-06  7.79103097e-01  6.00130000e-06  7.85338902e-01  6.00130000e-06  1.26000000e+00  6.00130000e-06  4.46227240e-05  6.00130000e-06  7.81431195e-01  6.00130000e-06  1.70508830e+00  6.00130000e-06  1.71153444e+00                                 
 6.00170000e-06  8.29657627e-01  6.00170000e-06  7.79149146e-01  6.00170000e-06  7.87437728e-01  6.00170000e-06  5.40000000e-01  6.00170000e-06  1.65049772e-01  6.00170000e-06  7.80582115e-01  6.00170000e-06  1.69641242e+00  6.00170000e-06  1.71147324e+00                                 
 6.00200000e-06  8.29624226e-01  6.00200000e-06  7.76895556e-01  6.00200000e-06  8.33642846e-01  6.00200000e-06  0.00000000e+00  6.00200000e-06  1.62716475e+00  6.00200000e-06  7.52974522e-01  6.00200000e-06  1.49122342e+00  6.00200000e-06  1.71065473e+00                                 
 6.00204935e-06  8.29631760e-01  6.00204935e-06  7.76886784e-01  6.00204935e-06  8.31708667e-01  6.00204935e-06  0.00000000e+00  6.00204935e-06  1.74226789e+00  6.00204935e-06  7.52714012e-01  6.00204935e-06  1.43336926e+00  6.00204935e-06  1.71092278e+00                                 
 6.00214804e-06  8.29629137e-01  6.00214804e-06  7.76948302e-01  6.00214804e-06  8.23910138e-01  6.00214804e-06  0.00000000e+00  6.00214804e-06  1.81572785e+00  6.00214804e-06  7.53483213e-01  6.00214804e-06  1.32233619e+00  6.00214804e-06  1.71141929e+00                                 
 6.00231144e-06  8.29628647e-01  6.00231144e-06  7.77513200e-01  6.00231144e-06  8.11904618e-01  6.00231144e-06  0.00000000e+00  6.00231144e-06  1.78925860e+00  6.00231144e-06  7.60261265e-01  6.00231144e-06  1.18861234e+00  6.00231144e-06  1.71159170e+00                                 
 6.00248362e-06  8.29629602e-01  6.00248362e-06  7.77843641e-01  6.00248362e-06  8.08206680e-01  6.00248362e-06  0.00000000e+00  6.00248362e-06  1.80507068e+00  6.00248362e-06  7.63860980e-01  6.00248362e-06  1.09550032e+00  6.00248362e-06  1.71166388e+00                                 
 6.00270864e-06  8.29628091e-01  6.00270864e-06  7.78158534e-01  6.00270864e-06  8.03251345e-01  6.00270864e-06  0.00000000e+00  6.00270864e-06  1.79604894e+00  6.00270864e-06  7.66851666e-01  6.00270864e-06  1.00198169e+00  6.00270864e-06  1.71174601e+00                                 
 6.00296918e-06  8.29629941e-01  6.00296918e-06  7.78543558e-01  6.00296918e-06  8.00504592e-01  6.00296918e-06  0.00000000e+00  6.00296918e-06  1.80223599e+00  6.00296918e-06  7.70585243e-01  6.00296918e-06  9.19121200e-01  6.00296918e-06  1.71182314e+00                                 
 6.00349025e-06  8.29628497e-01  6.00349025e-06  7.79188857e-01  6.00349025e-06  7.92682714e-01  6.00349025e-06  0.00000000e+00  6.00349025e-06  1.79763785e+00  6.00349025e-06  7.76857544e-01  6.00349025e-06  8.18041304e-01  6.00349025e-06  1.71182777e+00                                 
 6.00408702e-06  8.29630566e-01  6.00408702e-06  7.79737633e-01  6.00408702e-06  7.87321967e-01  6.00408702e-06  0.00000000e+00  6.00408702e-06  1.80193041e+00  6.00408702e-06  7.82753970e-01  6.00408702e-06  7.89457132e-01  6.00408702e-06  1.71160736e+00                                 
 6.00454591e-06  8.29628934e-01  6.00454591e-06  7.79735880e-01  6.00454591e-06  7.87242162e-01  6.00454591e-06  0.00000000e+00  6.00454591e-06  1.79844719e+00  6.00454591e-06  7.82767698e-01  6.00454591e-06  7.87218583e-01  6.00454591e-06  1.71124417e+00                                 
 6.00513728e-06  8.29630836e-01  6.00513728e-06  7.79753313e-01  6.00513728e-06  7.87172265e-01  6.00513728e-06  0.00000000e+00  6.00513728e-06  1.80133497e+00  6.00513728e-06  7.83751078e-01  6.00513728e-06  7.87588841e-01  6.00513728e-06  1.71065165e+00                                 
 6.00584737e-06  8.29629146e-01  6.00584737e-06  7.79625611e-01  6.00584737e-06  7.87944780e-01  6.00584737e-06  0.00000000e+00  6.00584737e-06  1.79883464e+00  6.00584737e-06  7.83245822e-01  6.00584737e-06  7.87377418e-01  6.00584737e-06  1.70981846e+00                                 
 6.00726756e-06  8.29630928e-01  6.00726756e-06  7.79541512e-01  6.00726756e-06  7.88938598e-01  6.00726756e-06  0.00000000e+00  6.00726756e-06  1.80109920e+00  6.00726756e-06  7.83942723e-01  6.00726756e-06  7.89164464e-01  6.00726756e-06  1.70803604e+00                                 
 6.01010792e-06  8.29629197e-01  6.01010792e-06  7.79362250e-01  6.01010792e-06  7.91984082e-01  6.01010792e-06  0.00000000e+00  6.01010792e-06  1.79894341e+00  6.01010792e-06  7.83456304e-01  6.01010792e-06  7.91350308e-01  6.01010792e-06  1.70430838e+00                                 
 6.01578866e-06  8.29630925e-01  6.01578866e-06  7.79315290e-01  6.01578866e-06  7.97854723e-01  6.01578866e-06  0.00000000e+00  6.01578866e-06  1.80104733e+00  6.01578866e-06  7.83952884e-01  6.01578866e-06  7.98020992e-01  6.01578866e-06  1.69689466e+00                                 
 6.02715013e-06  8.29629205e-01  6.02715013e-06  7.79236985e-01  6.02715013e-06  8.10487922e-01  6.02715013e-06  0.00000000e+00  6.02715013e-06  1.79896888e+00  6.02715013e-06  7.83225540e-01  6.02715013e-06  8.09744317e-01  6.02715013e-06  1.68200948e+00                                 
 6.04747676e-06  8.29630926e-01  6.04747676e-06  7.79289385e-01  6.04747676e-06  8.31520879e-01  6.04747676e-06  0.00000000e+00  6.04747676e-06  1.80103395e+00  6.04747676e-06  7.83551989e-01  6.04747676e-06  8.31761199e-01  6.04747676e-06  1.65419336e+00                                 
 6.08813001e-06  8.29629207e-01  6.08813001e-06  7.79246281e-01  6.08813001e-06  8.70779588e-01  6.08813001e-06  0.00000000e+00  6.08813001e-06  1.79897497e+00  6.08813001e-06  7.82789656e-01  6.08813001e-06  8.69464955e-01  6.08813001e-06  1.59544525e+00                                 
