 time            v(vbep)         time            v(vben)         time            v(vout)         time            v(vphi1)        time            v(vphi2)        time            v(vref)         yes             currtemp       
 0.00000000e+00  6.46374432e-01  0.00000000e+00  5.87502185e-01  0.00000000e+00  9.67764600e-01  0.00000000e+00  0.00000000e+00  0.00000000e+00  1.79995627e+00  0.00000000e+00  5.00000000e-01  1.00000000e+00  4.90000000e+01 
 5.00000000e-12  6.46345402e-01  5.00000000e-12  5.87478145e-01  5.00000000e-12  9.68517338e-01  5.00000000e-12  1.80000000e-02  5.00000000e-12  1.80006503e+00  5.00000000e-12  5.00000000e-01                                 
 1.00000000e-11  6.46317115e-01  1.00000000e-11  5.87454729e-01  1.00000000e-11  9.69201472e-01  1.00000000e-11  3.60000000e-02  1.00000000e-11  1.80012004e+00  1.00000000e-11  5.00000000e-01                                 
 2.00000000e-11  6.46260988e-01  2.00000000e-11  5.87408075e-01  2.00000000e-11  9.70463870e-01  2.00000000e-11  7.20000000e-02  2.00000000e-11  1.80016856e+00  2.00000000e-11  5.00000000e-01                                 
 4.00000000e-11  6.46149502e-01  4.00000000e-11  5.87315124e-01  4.00000000e-11  9.72516780e-01  4.00000000e-11  1.44000000e-01  4.00000000e-11  1.80012968e+00  4.00000000e-11  5.00000000e-01                                 
 8.00000000e-11  6.45927596e-01  8.00000000e-11  5.87130031e-01  8.00000000e-11  9.75451414e-01  8.00000000e-11  2.88000000e-01  8.00000000e-11  1.80005383e+00  8.00000000e-11  5.00000000e-01                                 
 1.60000000e-10  6.45488354e-01  1.60000000e-10  5.86763047e-01  1.60000000e-10  9.79047294e-01  1.60000000e-10  5.76000000e-01  1.60000000e-10  1.80000117e+00  1.60000000e-10  5.00000000e-01                                 
 3.20000000e-10  6.44627089e-01  3.20000000e-10  5.86041430e-01  3.20000000e-10  9.74916069e-01  3.20000000e-10  1.15200000e+00  3.20000000e-10  1.80041972e+00  3.20000000e-10  5.00000000e-01                                 
 5.00000000e-10  6.43684687e-01  5.00000000e-10  5.85248617e-01  5.00000000e-10  1.11489575e+00  5.00000000e-10  1.80000000e+00  5.00000000e-10  1.22191389e-01  5.00000000e-10  5.00000000e-01                                 
 5.21755634e-10  6.43572831e-01  5.21755634e-10  5.85154277e-01  5.21755634e-10  1.14787693e+00  5.21755634e-10  1.80000000e+00  5.21755634e-10  2.47573251e-02  5.21755634e-10  5.00000000e-01                                 
 5.65266903e-10  6.43349869e-01  5.65266903e-10  5.84966127e-01  5.65266903e-10  1.20845455e+00  5.65266903e-10  1.80000000e+00  5.65266903e-10 -1.12481178e-02  5.65266903e-10  5.00000000e-01                                 
 6.52289440e-10  6.42908493e-01  6.52289440e-10  5.84593129e-01  6.52289440e-10  1.30879601e+00  6.52289440e-10  1.80000000e+00  6.52289440e-10  9.47095573e-03  6.52289440e-10  5.00000000e-01                                 
 7.74507217e-10  6.42298613e-01  7.74507217e-10  5.84076558e-01  7.74507217e-10  1.42410096e+00  7.74507217e-10  1.80000000e+00  7.74507217e-10 -8.07730463e-03  7.74507217e-10  5.00000000e-01                                 
 9.67401447e-10  6.41358850e-01  9.67401447e-10  5.83277945e-01  9.67401447e-10  1.56154591e+00  9.67401447e-10  1.80000000e+00  9.67401447e-10  7.60564552e-03  9.67401447e-10  5.00000000e-01                                 
 1.35318991e-09  6.39557303e-01  1.35318991e-09  5.81738288e-01  1.35318991e-09  1.71951094e+00  1.35318991e-09  1.80000000e+00  1.35318991e-09 -7.16982088e-03  1.35318991e-09  5.00000000e-01                                 
 1.65599663e-09  6.38211759e-01  1.65599663e-09  5.80580772e-01  1.65599663e-09  1.77127610e+00  1.65599663e-09  1.80000000e+00  1.65599663e-09  6.89974748e-03  1.65599663e-09  5.00000000e-01                                 
 2.00959183e-09  6.36709497e-01  2.00959183e-09  5.79281050e-01  2.00959183e-09  1.79680012e+00  2.00959183e-09  1.80000000e+00  2.00959183e-09 -6.50642465e-03  2.00959183e-09  5.00000000e-01                                 
 2.33778998e-09  6.35376412e-01  2.33778998e-09  5.78121260e-01  2.33778998e-09  1.80542253e+00  2.33778998e-09  1.80000000e+00  2.33778998e-09  6.29172566e-03  2.33778998e-09  5.00000000e-01                                 
 2.70773011e-09  6.33938411e-01  2.70773011e-09  5.76863592e-01  2.70773011e-09  1.80829588e+00  2.70773011e-09  1.80000000e+00  2.70773011e-09 -5.96913504e-03  2.70773011e-09  5.00000000e-01                                 
 3.14501053e-09  6.32319355e-01  3.14501053e-09  5.75439583e-01  3.14501053e-09  1.80854058e+00  3.14501053e-09  1.80000000e+00  3.14501053e-09  5.80187901e-03  3.14501053e-09  5.00000000e-01                                 
 3.59916757e-09  6.30722181e-01  3.59916757e-09  5.74026692e-01  3.59916757e-09  1.80757274e+00  3.59916757e-09  1.80000000e+00  3.59916757e-09 -5.57614612e-03  3.59916757e-09  5.00000000e-01                                 
 4.21425246e-09  6.28681381e-01  4.21425246e-09  5.72210086e-01  4.21425246e-09  1.80605389e+00  4.21425246e-09  1.80000000e+00  4.21425246e-09  5.46316937e-03  4.21425246e-09  5.00000000e-01                                 
 5.06202988e-09  6.26070938e-01  5.06202988e-09  5.69868688e-01  5.06202988e-09  1.80384493e+00  5.06202988e-09  1.80000000e+00  5.06202988e-09 -5.34029437e-03  5.06202988e-09  5.00000000e-01                                 
 6.63756692e-09  6.21729467e-01  6.63756692e-09  5.65934031e-01  6.63756692e-09  1.80016324e+00  6.63756692e-09  1.80000000e+00  6.63756692e-09  5.31176693e-03  6.63756692e-09  5.00000000e-01                                 
 9.53445196e-09  6.15037060e-01  9.53445196e-09  5.59778822e-01  9.53445196e-09  1.79374899e+00  9.53445196e-09  1.80000000e+00  9.53445196e-09 -5.25974933e-03  9.53445196e-09  5.00000000e-01                                 
 1.53282220e-08  6.04790133e-01  1.53282220e-08  5.50179476e-01  1.53282220e-08  1.78065559e+00  1.53282220e-08  1.80000000e+00  1.53282220e-08  5.27009115e-03  1.53282220e-08  5.00000000e-01                                 
 2.69157622e-08  5.90511145e-01  2.69157622e-08  5.36580661e-01  2.69157622e-08  1.75105507e+00  2.69157622e-08  1.80000000e+00  2.69157622e-08 -5.23831638e-03  2.69157622e-08  5.00000000e-01                                 
 4.21198108e-08  5.77141283e-01  4.21198108e-08  5.23851039e-01  4.21198108e-08  1.70463436e+00  4.21198108e-08  1.80000000e+00  4.21198108e-08  5.25824702e-03  4.21198108e-08  5.00000000e-01                                 
 5.81071814e-08  5.64484987e-01  5.81071814e-08  5.12179556e-01  5.81071814e-08  1.61846562e+00  5.81071814e-08  1.80000000e+00  5.81071814e-08 -5.22796721e-03  5.81071814e-08  5.00000000e-01                                 
 7.95330889e-08  5.51880272e-01  7.95330889e-08  5.00518814e-01  7.95330889e-08  1.48470180e+00  7.95330889e-08  1.80000000e+00  7.95330889e-08  5.24974710e-03  7.95330889e-08  5.00000000e-01                                 
 1.02778224e-07  5.41419231e-01  1.02778224e-07  4.90843085e-01  1.02778224e-07  1.33985779e+00  1.02778224e-07  1.80000000e+00  1.02778224e-07 -5.22070862e-03  1.02778224e-07  5.00000000e-01                                 
 1.28406520e-07  5.41556674e-01  1.28406520e-07  4.89679273e-01  1.28406520e-07  1.21495433e+00  1.28406520e-07  1.80000000e+00  1.28406520e-07  5.24368448e-03  1.28406520e-07  5.00000000e-01                                 
 1.53869888e-07  5.42468755e-01  1.53869888e-07  4.89319764e-01  1.53869888e-07  1.07559599e+00  1.53869888e-07  1.80000000e+00  1.53869888e-07 -5.21451235e-03  1.53869888e-07  5.00000000e-01                                 
 1.78435642e-07  5.37128104e-01  1.78435642e-07  4.84202616e-01  1.78435642e-07  9.43545842e-01  1.78435642e-07  1.80000000e+00  1.78435642e-07  5.23707595e-03  1.78435642e-07  5.00000000e-01                                 
 2.05191555e-07  5.32406564e-01  2.05191555e-07  4.79619639e-01  2.05191555e-07  8.46827336e-01  2.05191555e-07  1.80000000e+00  2.05191555e-07 -5.20832902e-03  2.05191555e-07  5.00000000e-01                                 
 2.29725891e-07  5.25835605e-01  2.29725891e-07  4.73736527e-01  2.29725891e-07  7.79606501e-01  2.29725891e-07  1.80000000e+00  2.29725891e-07  5.23078464e-03  2.29725891e-07  5.00000000e-01                                 
 2.73343291e-07  5.13441407e-01  2.73343291e-07  4.62890486e-01  2.73343291e-07  6.69238398e-01  2.73343291e-07  1.80000000e+00  2.73343291e-07 -5.20335138e-03  2.73343291e-07  5.00000000e-01                                 
 3.27361753e-07  4.98952262e-01  3.27361753e-07  4.50397690e-01  3.27361753e-07  5.48230848e-01  3.27361753e-07  1.80000000e+00  3.27361753e-07  5.22753210e-03  3.27361753e-07  5.00000000e-01                                 
 4.04563602e-07  4.78982020e-01  4.04563602e-07  4.33496414e-01  4.04563602e-07  4.62171211e-01  4.04563602e-07  1.80000000e+00  4.04563602e-07 -5.20087847e-03  4.04563602e-07  5.00000000e-01                                 
 4.74398304e-07  4.51236912e-01  4.74398304e-07  4.10833725e-01  4.74398304e-07  4.43757620e-01  4.74398304e-07  1.80000000e+00  4.74398304e-07  5.22526203e-03  4.74398304e-07  5.00000000e-01                                 
 5.48799665e-07  4.19987570e-01  5.48799665e-07  3.85587265e-01  5.48799665e-07  4.79108590e-01  5.48799665e-07  1.80000000e+00  5.48799665e-07 -5.19873502e-03  5.48799665e-07  5.00000000e-01                                 
 6.12644713e-07  4.11435821e-01  6.12644713e-07  3.78690953e-01  6.12644713e-07  5.58331905e-01  6.12644713e-07  1.80000000e+00  6.12644713e-07  5.22325271e-03  6.12644713e-07  5.00000000e-01                                 
 6.18363299e-07  4.14431329e-01  6.18363299e-07  3.81090628e-01  6.18363299e-07  5.58684641e-01  6.18363299e-07  1.80000000e+00  6.18363299e-07  5.39840436e-06  6.18363299e-07  5.00000000e-01                                 
 6.29800472e-07  4.25258822e-01  6.29800472e-07  3.89760663e-01  6.29800472e-07  5.49611203e-01  6.29800472e-07  1.80000000e+00  6.29800472e-07 -1.24064316e-06  6.29800472e-07  5.00000000e-01                                 
 6.52674818e-07  4.99806273e-01  6.52674818e-07  4.49316498e-01  6.52674818e-07  5.47669744e-01  6.52674818e-07  1.80000000e+00  6.52674818e-07  7.63071848e-06  6.52674818e-07  5.00000000e-01                                 
 6.74784048e-07  6.50593507e-01  6.74784048e-07  5.83828336e-01  6.74784048e-07  5.91028185e-01  6.74784048e-07  1.80000000e+00  6.74784048e-07  3.39431585e-06  6.74784048e-07  5.00000000e-01                                 
 6.92506770e-07  7.05078118e-01  6.92506770e-07  6.43745552e-01  6.92506770e-07  5.68336281e-01  6.92506770e-07  1.80000000e+00  6.92506770e-07  4.50789752e-06  6.92506770e-07  5.00000000e-01                                 
 7.10068547e-07  7.34510046e-01  7.10068547e-07  6.72090460e-01  7.10068547e-07  5.38830263e-01  7.10068547e-07  1.80000000e+00  7.10068547e-07  1.20752438e-06  7.10068547e-07  5.00000000e-01                                 
 7.34621484e-07  7.60545170e-01  7.34621484e-07  6.95049128e-01  7.34621484e-07  5.16995849e-01  7.34621484e-07  1.80000000e+00  7.34621484e-07  3.75373116e-06  7.34621484e-07  5.00000000e-01                                 
 7.60375565e-07  7.64011521e-01  7.60375565e-07  6.98108320e-01  7.60375565e-07  4.97015588e-01  7.60375565e-07  1.80000000e+00  7.60375565e-07 -3.00971262e-07  7.60375565e-07  5.00000000e-01                                 
 7.96737563e-07  7.65001377e-01  7.96737563e-07  6.98828123e-01  7.96737563e-07  4.87359281e-01  7.96737563e-07  1.80000000e+00  7.96737563e-07  3.67989625e-06  7.96737563e-07  5.00000000e-01                                 
 8.39600921e-07  7.64785925e-01  8.39600921e-07  6.98754739e-01  8.39600921e-07  4.83928641e-01  8.39600921e-07  1.80000000e+00  8.39600921e-07 -4.22171075e-07  8.39600921e-07  5.00000000e-01                                 
 8.90669780e-07  7.64979287e-01  8.90669780e-07  6.98812774e-01  8.90669780e-07  4.90664519e-01  8.90669780e-07  1.80000000e+00  8.90669780e-07  3.75144010e-06  8.90669780e-07  5.00000000e-01                                 
 9.00881806e-07  7.64891298e-01  9.00881806e-07  6.98788670e-01  9.00881806e-07  4.95025327e-01  9.00881806e-07  1.80000000e+00  9.00881806e-07  1.61358383e-06  9.00881806e-07  5.00000000e-01                                 
 9.21305857e-07  7.64963138e-01  9.21305857e-07  6.98851364e-01  9.21305857e-07  5.05960856e-01  9.21305857e-07  1.80000000e+00  9.21305857e-07  1.68829382e-06  9.21305857e-07  5.00000000e-01                                 
 9.62153959e-07  7.52370413e-01  9.62153959e-07  6.88125605e-01  9.62153959e-07  5.04221209e-01  9.62153959e-07  1.80000000e+00  9.62153959e-07  1.14592568e-06  9.62153959e-07  5.00000000e-01                                 
 9.68255222e-07  7.48697688e-01  9.68255222e-07  6.84902121e-01  9.68255222e-07  5.00400706e-01  9.68255222e-07  1.80000000e+00  9.68255222e-07  1.19705711e-06  9.68255222e-07  5.00000000e-01                                 
 9.80457747e-07  7.42899716e-01  9.80457747e-07  6.79729113e-01  9.80457747e-07  4.94592171e-01  9.80457747e-07  1.80000000e+00  9.80457747e-07  1.38535739e-06  9.80457747e-07  5.00000000e-01                                 
 1.00486280e-06  7.41652741e-01  1.00486280e-06  6.78575649e-01  1.00486280e-06  4.94112866e-01  1.00486280e-06  1.80000000e+00  1.00486280e-06  1.82911953e-06  1.00486280e-06  5.00000000e-01                                 
 1.05367290e-06  7.52707056e-01  1.05367290e-06  6.88372228e-01  1.05367290e-06  5.05972682e-01  1.05367290e-06  1.80000000e+00  1.05367290e-06  1.80544965e-06  1.05367290e-06  5.00000000e-01                                 
 1.10650726e-06  7.57221401e-01  1.10650726e-06  6.92292741e-01  1.10650726e-06  5.03510246e-01  1.10650726e-06  1.80000000e+00  1.10650726e-06  1.61843743e-06  1.10650726e-06  5.00000000e-01                                 
 1.18292325e-06  7.50179227e-01  1.18292325e-06  6.86180667e-01  1.18292325e-06  4.93027517e-01  1.18292325e-06  1.80000000e+00  1.18292325e-06  1.54162815e-06  1.18292325e-06  5.00000000e-01                                 
 1.29767604e-06  7.50616823e-01  1.29767604e-06  6.86549315e-01  1.29767604e-06  5.05491637e-01  1.29767604e-06  1.80000000e+00  1.29767604e-06  1.75943025e-06  1.29767604e-06  5.00000000e-01                                 
 1.40508111e-06  7.55484009e-01  1.40508111e-06  6.90796390e-01  1.40508111e-06  5.00052029e-01  1.40508111e-06  1.80000000e+00  1.40508111e-06  1.60423828e-06  1.40508111e-06  5.00000000e-01                                 
 1.59240620e-06  7.48818270e-01  1.59240620e-06  6.84976411e-01  1.59240620e-06  4.97175882e-01  1.59240620e-06  1.80000000e+00  1.59240620e-06  1.63941663e-06  1.59240620e-06  5.00000000e-01                                 
 1.78348323e-06  7.54370290e-01  1.78348323e-06  6.89826080e-01  1.78348323e-06  5.05436420e-01  1.78348323e-06  1.80000000e+00  1.78348323e-06  1.69937453e-06  1.78348323e-06  5.00000000e-01                                 
 2.02930646e-06  7.50787163e-01  2.02930646e-06  6.86712530e-01  2.02930646e-06  4.94029776e-01  2.02930646e-06  1.80000000e+00  2.02930646e-06  1.57564940e-06  2.02930646e-06  5.00000000e-01                                 
 2.34637623e-06  7.52696283e-01  2.34637623e-06  6.88368883e-01  2.34637623e-06  5.06455511e-01  2.34637623e-06  1.80000000e+00  2.34637623e-06  1.72912590e-06  2.34637623e-06  5.00000000e-01                                 
 2.77788395e-06  7.52154899e-01  2.77788395e-06  6.87909711e-01  2.77788395e-06  4.94202427e-01  2.77788395e-06  1.80000000e+00  2.77788395e-06  1.56541745e-06  2.77788395e-06  5.00000000e-01                                 
 3.27846703e-06  7.51710501e-01  3.27846703e-06  6.87508374e-01  3.27846703e-06  5.05767456e-01  3.27846703e-06  1.80000000e+00  3.27846703e-06  1.72928957e-06  3.27846703e-06  5.00000000e-01                                 
 3.90763618e-06  7.52903729e-01  3.90763618e-06  6.88562250e-01  3.90763618e-06  4.95100954e-01  3.90763618e-06  1.80000000e+00  3.90763618e-06  1.56980955e-06  3.90763618e-06  5.00000000e-01                                 
 4.66723834e-06  7.51152136e-01  4.66723834e-06  6.87020268e-01  4.66723834e-06  5.04843814e-01  4.66723834e-06  1.80000000e+00  4.66723834e-06  1.72288591e-06  4.66723834e-06  5.00000000e-01                                 
 5.59629493e-06  7.53298618e-01  5.59629493e-06  6.88905395e-01  5.59629493e-06  4.95984117e-01  5.59629493e-06  1.80000000e+00  5.59629493e-06  1.57676671e-06  5.59629493e-06  5.00000000e-01                                 
 6.59629493e-06  7.50833868e-01  6.59629493e-06  6.86741934e-01  6.59629493e-06  5.04003076e-01  6.59629493e-06  1.80000000e+00  6.59629493e-06  1.71573157e-06  6.59629493e-06  5.00000000e-01                                 
 7.59629493e-06  7.53552377e-01  7.59629493e-06  6.89125440e-01  7.59629493e-06  4.96853011e-01  7.59629493e-06  1.80000000e+00  7.59629493e-06  1.58450282e-06  7.59629493e-06  5.00000000e-01                                 
 8.59629493e-06  7.50599780e-01  8.59629493e-06  6.86537286e-01  8.59629493e-06  5.03089493e-01  8.59629493e-06  1.80000000e+00  8.59629493e-06  1.70729209e-06  8.59629493e-06  5.00000000e-01                                 
 9.59629493e-06  7.53735396e-01  9.59629493e-06  6.89283785e-01  9.59629493e-06  4.97806679e-01  9.59629493e-06  1.80000000e+00  9.59629493e-06  1.59354095e-06  9.59629493e-06  5.00000000e-01                                 
 1.00005000e-05  7.50372025e-01  1.00005000e-05  6.86338702e-01  1.00005000e-05  5.01381265e-01  1.00005000e-05  1.80000000e+00  1.00005000e-05  1.69034286e-06  1.00005000e-05  5.00000000e-01                                 
 1.00005500e-05  7.50375644e-01  1.00005500e-05  6.86341945e-01  1.00005500e-05  4.93699983e-01  1.00005500e-05  1.62000000e+00  1.00005500e-05 -8.70476934e-05  1.00005500e-05  5.00000000e-01                                 
 1.00006500e-05  7.50382887e-01  1.00006500e-05  6.86348334e-01  1.00006500e-05  4.80052844e-01  1.00006500e-05  1.26000000e+00  1.00006500e-05 -6.79671070e-05  1.00006500e-05  5.00000000e-01                                 
 1.00008500e-05  7.50396692e-01  1.00008500e-05  6.86360475e-01  1.00008500e-05  4.78068497e-01  1.00008500e-05  5.40000000e-01  1.00008500e-05 -2.68236185e-03  1.00008500e-05  5.00000000e-01                                 
 1.00010000e-05  7.50406358e-01  1.00010000e-05  6.86369041e-01  1.00010000e-05  4.45067877e-01  1.00010000e-05  0.00000000e+00  1.00010000e-05  1.58207053e+00  1.00010000e-05  5.00000000e-01                                 
 1.00010254e-05  7.50407927e-01  1.00010254e-05  6.86370434e-01  1.00010254e-05  4.22273830e-01  1.00010254e-05  0.00000000e+00  1.00010254e-05  1.72591000e+00  1.00010254e-05  5.00000000e-01                                 
 1.00010763e-05  7.50411100e-01  1.00010763e-05  6.86373228e-01  1.00010763e-05  3.83948144e-01  1.00010763e-05  0.00000000e+00  1.00010763e-05  1.81999663e+00  1.00010763e-05  5.00000000e-01                                 
 1.00011780e-05  7.50417473e-01  1.00011780e-05  6.86378818e-01  1.00011780e-05  3.52096487e-01  1.00011780e-05  0.00000000e+00  1.00011780e-05  1.78552701e+00  1.00011780e-05  5.00000000e-01                                 
 1.00013130e-05  7.50425707e-01  1.00013130e-05  6.86386098e-01  1.00013130e-05  3.50920783e-01  1.00013130e-05  0.00000000e+00  1.00013130e-05  1.80957013e+00  1.00013130e-05  5.00000000e-01                                 
 1.00014776e-05  7.50435406e-01  1.00014776e-05  6.86394683e-01  1.00014776e-05  3.49758215e-01  1.00014776e-05  0.00000000e+00  1.00014776e-05  1.79281727e+00  1.00014776e-05  5.00000000e-01                                 
