 time            v(vbep)         time            v(vben)         time            v(vout)         time            v(vphi1)        time            v(vphi2)        time            v(vref)         yes             currtemp       
 0.00000000e+00  6.48263862e-01  0.00000000e+00  5.87878399e-01  0.00000000e+00  1.00024395e+00  0.00000000e+00  0.00000000e+00  0.00000000e+00  1.79991426e+00  0.00000000e+00  5.87878399e-01  1.00000000e+00  5.70000000e+01 
 5.00000000e-12  6.48213743e-01  5.00000000e-12  5.87837562e-01  5.00000000e-12  1.00097788e+00  5.00000000e-12  1.80000000e-02  5.00000000e-12  1.80004630e+00  5.00000000e-12  5.87837562e-01                                 
 1.00000000e-11  6.48166044e-01  1.00000000e-11  5.87798245e-01  1.00000000e-11  1.00164388e+00  1.00000000e-11  3.60000000e-02  1.00000000e-11  1.80012806e+00  1.00000000e-11  5.87798245e-01                                 
 2.00000000e-11  6.48072338e-01  2.00000000e-11  5.87720060e-01  2.00000000e-11  1.00286755e+00  2.00000000e-11  7.20000000e-02  2.00000000e-11  1.80022225e+00  2.00000000e-11  5.87720060e-01                                 
 4.00000000e-11  6.47887868e-01  4.00000000e-11  5.87564584e-01  4.00000000e-11  1.00481489e+00  4.00000000e-11  1.44000000e-01  4.00000000e-11  1.80021913e+00  4.00000000e-11  5.87564584e-01                                 
 8.00000000e-11  6.47521462e-01  8.00000000e-11  5.87255663e-01  8.00000000e-11  1.00734504e+00  8.00000000e-11  2.88000000e-01  8.00000000e-11  1.80011763e+00  8.00000000e-11  5.87255663e-01                                 
 1.60000000e-10  6.46799841e-01  1.60000000e-10  5.86645877e-01  1.60000000e-10  1.00929486e+00  1.60000000e-10  5.76000000e-01  1.60000000e-10  1.80000243e+00  1.60000000e-10  5.86645877e-01                                 
 3.20000000e-10  6.45397835e-01  3.20000000e-10  5.85457080e-01  3.20000000e-10  1.00214197e+00  3.20000000e-10  1.15200000e+00  3.20000000e-10  1.80028101e+00  3.20000000e-10  5.85457080e-01                                 
 5.00000000e-10  6.43883496e-01  5.00000000e-10  5.84166457e-01  5.00000000e-10  1.11249886e+00  5.00000000e-10  1.80000000e+00  5.00000000e-10  1.65496448e-01  5.00000000e-10  5.84166457e-01                                 
 5.21817381e-10  6.43704782e-01  5.21817381e-10  5.84013670e-01  5.21817381e-10  1.14043262e+00  5.21817381e-10  1.80000000e+00  5.21817381e-10  4.29547363e-02  5.21817381e-10  5.84013670e-01                                 
 5.65452143e-10  6.43349068e-01  5.65452143e-10  5.83709337e-01  5.65452143e-10  1.19621010e+00  5.65452143e-10  1.80000000e+00  5.65452143e-10 -1.54951079e-02  5.65452143e-10  5.83709337e-01                                 
 6.52721668e-10  6.42648106e-01  6.52721668e-10  5.83108575e-01  6.52721668e-10  1.29711365e+00  6.52721668e-10  1.80000000e+00  6.52721668e-10  1.30675570e-02  6.52721668e-10  5.83108575e-01                                 
 7.73353592e-10  6.41701458e-01  7.73353592e-10  5.82295005e-01  7.73353592e-10  1.41868561e+00  7.73353592e-10  1.80000000e+00  7.73353592e-10 -9.70335779e-03  7.73353592e-10  5.82295005e-01                                 
 9.56774325e-10  6.40308955e-01  9.56774325e-10  5.81093642e-01  9.56774325e-10  1.56822818e+00  9.56774325e-10  1.80000000e+00  9.56774325e-10  9.60921407e-03  9.56774325e-10  5.81093642e-01                                 
 1.32361579e-09  6.37678209e-01  1.32361579e-09  5.78809420e-01  1.32361579e-09  1.75470414e+00  1.32361579e-09  1.80000000e+00  1.32361579e-09 -8.33600036e-03  1.32361579e-09  5.78809420e-01                                 
 1.67348301e-09  6.35343737e-01  1.67348301e-09  5.76766128e-01  1.67348301e-09  1.83580459e+00  1.67348301e-09  1.80000000e+00  1.67348301e-09  8.18333735e-03  1.67348301e-09  5.76766128e-01                                 
 2.01538421e-09  6.33207244e-01  2.01538421e-09  5.74882972e-01  2.01538421e-09  1.86734828e+00  2.01538421e-09  1.80000000e+00  2.01538421e-09 -7.49260954e-03  2.01538421e-09  5.74882972e-01                                 
 2.37616564e-09  6.31090151e-01  2.37616564e-09  5.73004866e-01  2.37616564e-09  1.87997735e+00  2.37616564e-09  1.80000000e+00  2.37616564e-09  7.13681172e-03  2.37616564e-09  5.73004866e-01                                 
 2.85821244e-09  6.28454204e-01  2.85821244e-09  5.70650314e-01  2.85821244e-09  1.88351068e+00  2.85821244e-09  1.80000000e+00  2.85821244e-09 -6.76419694e-03  2.85821244e-09  5.70650314e-01                                 
 3.51308847e-09  6.25176777e-01  3.51308847e-09  5.67698634e-01  3.51308847e-09  1.88249228e+00  3.51308847e-09  1.80000000e+00  3.51308847e-09  6.57291637e-03  3.51308847e-09  5.67698634e-01                                 
 4.51344425e-09  6.20721798e-01  4.51344425e-09  5.63645897e-01  4.51344425e-09  1.87804822e+00  4.51344425e-09  1.80000000e+00  4.51344425e-09 -6.40182815e-03  4.51344425e-09  5.63645897e-01                                 
 6.16295550e-09  6.14480644e-01  6.16295550e-09  5.57895606e-01  6.16295550e-09  1.87229246e+00  6.16295550e-09  1.80000000e+00  6.16295550e-09  6.34330613e-03  6.16295550e-09  5.57895606e-01                                 
 9.46197799e-09  6.04710041e-01  9.46197799e-09  5.48744943e-01  9.46197799e-09  1.86268905e+00  9.46197799e-09  1.80000000e+00  9.46197799e-09 -6.26794121e-03  9.46197799e-09  5.48744943e-01                                 
 1.14949620e-08  5.99990686e-01  1.14949620e-08  5.44256582e-01  1.14949620e-08  1.85853597e+00  1.14949620e-08  1.80000000e+00  1.14949620e-08  6.23079733e-03  1.14949620e-08  5.44256582e-01                                 
 1.30408996e-08  5.96840452e-01  1.30408996e-08  5.41240531e-01  1.30408996e-08  1.85530750e+00  1.30408996e-08  1.80000000e+00  1.30408996e-08 -6.11592492e-03  1.30408996e-08  5.41240531e-01                                 
 1.45850162e-08  5.93990855e-01  1.45850162e-08  5.38499842e-01  1.45850162e-08  1.85296615e+00  1.45850162e-08  1.80000000e+00  1.45850162e-08  6.05489009e-03  1.45850162e-08  5.38499842e-01                                 
 1.63253734e-08  5.91072272e-01  1.63253734e-08  5.35681245e-01  1.63253734e-08  1.84999426e+00  1.63253734e-08  1.80000000e+00  1.63253734e-08 -5.95447619e-03  1.63253734e-08  5.35681245e-01                                 
 1.81833605e-08  5.88242278e-01  1.81833605e-08  5.32937573e-01  1.81833605e-08  1.84770919e+00  1.81833605e-08  1.80000000e+00  1.81833605e-08  5.90839888e-03  1.81833605e-08  5.32937573e-01                                 
 2.04588189e-08  5.85107313e-01  2.04588189e-08  5.29886646e-01  2.04588189e-08  1.84459440e+00  2.04588189e-08  1.80000000e+00  2.04588189e-08 -5.82787252e-03  2.04588189e-08  5.29886646e-01                                 
 2.37068466e-08  5.81138831e-01  2.37068466e-08  5.26008049e-01  2.37068466e-08  1.84134716e+00  2.37068466e-08  1.80000000e+00  2.37068466e-08  5.81259580e-03  2.37068466e-08  5.26008049e-01                                 
 2.74815775e-08  5.77119497e-01  2.74815775e-08  5.22061493e-01  2.74815775e-08  1.83753841e+00  2.74815775e-08  1.80000000e+00  2.74815775e-08 -5.75459574e-03  2.74815775e-08  5.22061493e-01                                 
 3.49165044e-08  5.70533495e-01  3.49165044e-08  5.15555292e-01  3.49165044e-08  1.83222745e+00  3.49165044e-08  1.80000000e+00  3.49165044e-08  5.76267881e-03  3.49165044e-08  5.15555292e-01                                 
 4.31550463e-08  5.64676871e-01  4.31550463e-08  5.09734952e-01  4.31550463e-08  1.82711634e+00  4.31550463e-08  1.80000000e+00  4.31550463e-08 -5.72179301e-03  4.31550463e-08  5.09734952e-01                                 
 5.92979730e-08  5.55623244e-01  5.92979730e-08  5.00718776e-01  5.92979730e-08  1.81998292e+00  5.92979730e-08  1.80000000e+00  5.92979730e-08  5.74033052e-03  5.92979730e-08  5.00718776e-01                                 
 7.71196840e-08  5.48090575e-01  7.71196840e-08  4.93190894e-01  7.71196840e-08  1.81384956e+00  7.71196840e-08  1.80000000e+00  7.71196840e-08 -5.70649448e-03  7.71196840e-08  4.93190894e-01                                 
 1.03225409e-07  5.39529770e-01  1.03225409e-07  4.84638006e-01  1.03225409e-07  1.79737575e+00  1.03225409e-07  1.80000000e+00  1.03225409e-07  5.72848532e-03  1.03225409e-07  4.84638006e-01                                 
 1.28003394e-07  5.30951438e-01  1.28003394e-07  4.76529835e-01  1.28003394e-07  1.77619416e+00  1.28003394e-07  1.80000000e+00  1.28003394e-07 -5.69703396e-03  1.28003394e-07  4.76529835e-01                                 
 1.48846555e-07  5.20029003e-01  1.48846555e-07  4.66969902e-01  1.48846555e-07  1.75895638e+00  1.48846555e-07  1.80000000e+00  1.48846555e-07  5.71711438e-03  1.48846555e-07  4.66969902e-01                                 
 1.70490815e-07  5.11325772e-01  1.70490815e-07  4.59265399e-01  1.70490815e-07  1.71997237e+00  1.70490815e-07  1.80000000e+00  1.70490815e-07 -5.68637307e-03  1.70490815e-07  4.59265399e-01                                 
 1.90875595e-07  5.03880041e-01  1.90875595e-07  4.52707643e-01  1.90875595e-07  1.68601112e+00  1.90875595e-07  1.80000000e+00  1.90875595e-07  5.70575984e-03  1.90875595e-07  4.52707643e-01                                 
 2.09676398e-07  5.01926044e-01  2.09676398e-07  4.50608123e-01  2.09676398e-07  1.66750455e+00  2.09676398e-07  1.80000000e+00  2.09676398e-07 -5.67239084e-03  2.09676398e-07  4.50608123e-01                                 
 2.35382163e-07  5.06823689e-01  2.35382163e-07  4.53771633e-01  2.35382163e-07  1.66270596e+00  2.35382163e-07  1.80000000e+00  2.35382163e-07  5.69624834e-03  2.35382163e-07  4.53771633e-01                                 
 2.53206878e-07  5.07176615e-01  2.53206878e-07  4.53584317e-01  2.53206878e-07  1.64556512e+00  2.53206878e-07  1.80000000e+00  2.53206878e-07 -5.66231196e-03  2.53206878e-07  4.53584317e-01                                 
 2.72450464e-07  5.04640266e-01  2.72450464e-07  4.51106375e-01  2.72450464e-07  1.62248445e+00  2.72450464e-07  1.80000000e+00  2.72450464e-07  5.68238421e-03  2.72450464e-07  4.51106375e-01                                 
 2.91731034e-07  5.02182167e-01  2.91731034e-07  4.48721588e-01  2.91731034e-07  1.59995192e+00  2.91731034e-07  1.80000000e+00  2.91731034e-07 -5.64969171e-03  2.91731034e-07  4.48721588e-01                                 
 3.12877931e-07  4.97749651e-01  3.12877931e-07  4.44765085e-01  3.12877931e-07  1.57519917e+00  3.12877931e-07  1.80000000e+00  3.12877931e-07  5.67008830e-03  3.12877931e-07  4.44765085e-01                                 
 3.55171725e-07  4.87383210e-01  3.55171725e-07  4.35761937e-01  3.55171725e-07  1.52122862e+00  3.55171725e-07  1.80000000e+00  3.55171725e-07 -5.64134924e-03  3.55171725e-07  4.35761937e-01                                 
 4.03567131e-07  4.76125534e-01  4.03567131e-07  4.26081963e-01  4.03567131e-07  1.46131901e+00  4.03567131e-07  1.80000000e+00  4.03567131e-07  5.66481510e-03  4.03567131e-07  4.26081963e-01                                 
 5.00357944e-07  4.50234870e-01  5.00357944e-07  4.04416311e-01  5.00357944e-07  1.33482565e+00  5.00357944e-07  1.80000000e+00  5.00357944e-07 -5.63778130e-03  5.00357944e-07  4.04416311e-01                                 
 6.04283510e-07  4.32691302e-01  6.04283510e-07  3.89682333e-01  6.04283510e-07  1.20984195e+00  6.04283510e-07  1.80000000e+00  6.04283510e-07  5.66283849e-03  6.04283510e-07  3.89682333e-01                                 
 6.91060905e-07  3.96652319e-01  6.91060905e-07  3.60562904e-01  6.91060905e-07  1.08445404e+00  6.91060905e-07  1.80000000e+00  6.91060905e-07 -5.63614743e-03  6.91060905e-07  3.60562904e-01                                 
 7.80678745e-07  4.24160202e-01  7.80678745e-07  3.82512430e-01  7.80678745e-07  1.02441693e+00  7.80678745e-07  1.80000000e+00  7.80678745e-07  5.66287982e-03  7.80678745e-07  3.82512430e-01                                 
 8.92453256e-07  7.20181746e-01  8.92453256e-07  6.56023430e-01  8.92453256e-07  1.19588683e+00  8.92453256e-07  1.80000000e+00  8.92453256e-07 -5.62310841e-03  8.92453256e-07  6.56023430e-01                                 
 1.00236511e-06  7.87119775e-01  1.00236511e-06  7.11734711e-01  1.00236511e-06  1.14833499e+00  1.00236511e-06  1.80000000e+00  1.00236511e-06  5.65183520e-03  1.00236511e-06  7.11734711e-01                                 
 1.01489243e-06  7.87243920e-01  1.01489243e-06  7.11835627e-01  1.01489243e-06  1.13344734e+00  1.01489243e-06  1.80000000e+00  1.01489243e-06  4.57260416e-06  1.01489243e-06  7.11835627e-01                                 
 1.03994708e-06  7.87262868e-01  1.03994708e-06  7.11849810e-01  1.03994708e-06  1.10733801e+00  1.03994708e-06  1.80000000e+00  1.03994708e-06 -6.26531034e-07  1.03994708e-06  7.11849810e-01                                 
 1.05865799e-06  7.65583007e-01  1.05865799e-06  6.95458648e-01  1.05865799e-06  1.06877706e+00  1.05865799e-06  1.80000000e+00  1.05865799e-06 -7.01419614e-07  1.05865799e-06  6.95458648e-01                                 
 1.08117072e-06  7.29941346e-01  1.08117072e-06  6.65058204e-01  1.08117072e-06  1.01288096e+00  1.08117072e-06  1.80000000e+00  1.08117072e-06 -2.97204519e-06  1.08117072e-06  6.65058204e-01                                 
 1.10254714e-06  7.25988046e-01  1.10254714e-06  6.61603734e-01  1.10254714e-06  9.89999200e-01  1.10254714e-06  1.80000000e+00  1.10254714e-06  6.21818256e-06  1.10254714e-06  6.61603734e-01                                 
 1.12591802e-06  7.16629633e-01  1.12591802e-06  6.52974445e-01  1.12591802e-06  9.63419566e-01  1.12591802e-06  1.80000000e+00  1.12591802e-06 -3.87569647e-06  1.12591802e-06  6.52974445e-01                                 
 1.15132066e-06  7.13904670e-01  1.15132066e-06  6.50478710e-01  1.15132066e-06  9.41545449e-01  1.15132066e-06  1.80000000e+00  1.15132066e-06  7.65730864e-06  1.15132066e-06  6.50478710e-01                                 
 1.20212595e-06  7.33450103e-01  1.20212595e-06  6.68163349e-01  1.20212595e-06  9.24081486e-01  1.20212595e-06  1.80000000e+00  1.20212595e-06 -1.38980546e-06  1.20212595e-06  6.68163349e-01                                 
 1.25572632e-06  7.55049100e-01  1.25572632e-06  6.86747120e-01  1.25572632e-06  9.07300871e-01  1.25572632e-06  1.80000000e+00  1.25572632e-06  7.72980940e-06  1.25572632e-06  6.86747120e-01                                 
 1.26437932e-06  7.54535509e-01  1.26437932e-06  6.86314154e-01  1.26437932e-06  9.01518401e-01  1.26437932e-06  1.80000000e+00  1.26437932e-06  2.12098745e-06  1.26437932e-06  6.86314154e-01                                 
 1.28168533e-06  7.52108166e-01  1.28168533e-06  6.84305071e-01  1.28168533e-06  8.88384052e-01  1.28168533e-06  1.80000000e+00  1.28168533e-06  1.70901135e-06  1.28168533e-06  6.84305071e-01                                 
 1.31629734e-06  7.37526108e-01  1.31629734e-06  6.71851482e-01  1.31629734e-06  8.54025558e-01  1.31629734e-06  1.80000000e+00  1.31629734e-06  8.24227885e-07  1.31629734e-06  6.71851482e-01                                 
 1.36433518e-06  7.27942866e-01  1.36433518e-06  6.63291607e-01  1.36433518e-06  8.16781150e-01  1.36433518e-06  1.80000000e+00  1.36433518e-06  2.77743465e-06  1.36433518e-06  6.63291607e-01                                 
 1.41377836e-06  7.41708852e-01  1.41377836e-06  6.75441864e-01  1.41377836e-06  8.00698856e-01  1.41377836e-06  1.80000000e+00  1.41377836e-06  3.12152866e-06  1.41377836e-06  6.75441864e-01                                 
 1.47785235e-06  7.45747862e-01  1.47785235e-06  6.78930933e-01  1.47785235e-06  7.68500171e-01  1.47785235e-06  1.80000000e+00  1.47785235e-06  1.79527300e-06  1.47785235e-06  6.78930933e-01                                 
 1.54587160e-06  7.36739134e-01  1.54587160e-06  6.71134054e-01  1.54587160e-06  7.26735704e-01  1.54587160e-06  1.80000000e+00  1.54587160e-06  2.29948277e-06  1.54587160e-06  6.71134054e-01                                 
 1.64251099e-06  7.38769626e-01  1.64251099e-06  6.72894291e-01  1.64251099e-06  6.95862901e-01  1.64251099e-06  1.80000000e+00  1.64251099e-06  2.65538417e-06  1.64251099e-06  6.72894291e-01                                 
 1.74335831e-06  7.43896114e-01  1.74335831e-06  6.77343935e-01  1.74335831e-06  6.81323212e-01  1.74335831e-06  1.80000000e+00  1.74335831e-06  2.56183340e-06  1.74335831e-06  6.77343935e-01                                 
 1.76023477e-06  7.41859652e-01  1.76023477e-06  6.75592729e-01  1.76023477e-06  6.77246468e-01  1.76023477e-06  1.80000000e+00  1.76023477e-06  2.24352518e-06  1.76023477e-06  6.75592729e-01                                 
 1.79398770e-06  7.38670819e-01  1.79398770e-06  6.72821098e-01  1.79398770e-06  6.70184650e-01  1.79398770e-06  1.80000000e+00  1.79398770e-06  2.36677663e-06  1.79398770e-06  6.72821098e-01                                 
 1.86149355e-06  7.39092183e-01  1.86149355e-06  6.73180611e-01  1.86149355e-06  6.64170235e-01  1.86149355e-06  1.80000000e+00  1.86149355e-06  2.72343744e-06  1.86149355e-06  6.73180611e-01                                 
 1.96616106e-06  7.41739498e-01  1.96616106e-06  6.75483913e-01  1.96616106e-06  6.62924646e-01  1.96616106e-06  1.80000000e+00  1.96616106e-06  2.50086798e-06  1.96616106e-06  6.75483913e-01                                 
 2.07515517e-06  7.39001942e-01  2.07515517e-06  6.73107478e-01  2.07515517e-06  6.71019126e-01  2.07515517e-06  1.80000000e+00  2.07515517e-06  2.59734340e-06  2.07515517e-06  6.73107478e-01                                 
 2.21660879e-06  7.40486960e-01  2.21660879e-06  6.74395449e-01  2.21660879e-06  6.76997663e-01  2.21660879e-06  1.80000000e+00  2.21660879e-06  2.60595015e-06  2.21660879e-06  6.74395449e-01                                 
 2.34850580e-06  7.40530923e-01  2.34850580e-06  6.74438229e-01  2.34850580e-06  6.73128360e-01  2.34850580e-06  1.80000000e+00  2.34850580e-06  2.50912167e-06  2.34850580e-06  6.74438229e-01                                 
 2.52601929e-06  7.39413501e-01  2.52601929e-06  6.73463125e-01  2.52601929e-06  6.74176483e-01  2.52601929e-06  1.80000000e+00  2.52601929e-06  2.60508601e-06  2.52601929e-06  6.73463125e-01                                 
 2.71060353e-06  7.40941407e-01  2.71060353e-06  6.74792573e-01  2.71060353e-06  6.74776316e-01  2.71060353e-06  1.80000000e+00  2.71060353e-06  2.56366569e-06  2.71060353e-06  6.74792573e-01                                 
 2.98171821e-06  7.39387089e-01  2.98171821e-06  6.73441737e-01  2.98171821e-06  6.73638240e-01  2.98171821e-06  1.80000000e+00  2.98171821e-06  2.54548311e-06  2.98171821e-06  6.73441737e-01                                 
 3.43051547e-06  7.40803277e-01  3.43051547e-06  6.74672060e-01  3.43051547e-06  6.74809389e-01  3.43051547e-06  1.80000000e+00  3.43051547e-06  2.60295496e-06  3.43051547e-06  6.74672060e-01                                 
 4.13721054e-06  7.39527999e-01  4.13721054e-06  6.73564920e-01  4.13721054e-06  6.73714463e-01  4.13721054e-06  1.80000000e+00  4.13721054e-06  2.52331655e-06  4.13721054e-06  6.73564920e-01                                 
 5.13721054e-06  7.40695496e-01  5.13721054e-06  6.74578206e-01  5.13721054e-06  6.74732752e-01  5.13721054e-06  1.80000000e+00  5.13721054e-06  2.61627966e-06  5.13721054e-06  6.74578206e-01                                 
 6.13721054e-06  7.39627862e-01  6.13721054e-06  6.73651996e-01  6.13721054e-06  6.73793851e-01  6.13721054e-06  1.80000000e+00  6.13721054e-06  2.51328608e-06  6.13721054e-06  6.73651996e-01                                 
 7.13721054e-06  7.40592273e-01  7.13721054e-06  6.74488430e-01  7.13721054e-06  6.74646216e-01  7.13721054e-06  1.80000000e+00  7.13721054e-06  2.62539888e-06  7.13721054e-06  6.74488430e-01                                 
