 time            v(vbep)         time            v(vben)         time            v(vout)         time            v(vphi1)        time            v(vphi2)        time            v(vref)         yes             currtemp       
 0.00000000e+00  6.44808474e-01  0.00000000e+00  5.85384706e-01  0.00000000e+00  1.15228173e+00  0.00000000e+00  0.00000000e+00  0.00000000e+00  1.79994949e+00  0.00000000e+00  5.00000000e-01  1.00000000e+00  5.20000000e+01 
 5.00000000e-12  6.44775214e-01  5.00000000e-12  5.85357236e-01  5.00000000e-12  1.15304982e+00  5.00000000e-12  1.80000000e-02  5.00000000e-12  1.80005601e+00  5.00000000e-12  5.00000000e-01                                 
 1.00000000e-11  6.44742952e-01  1.00000000e-11  5.85330536e-01  1.00000000e-11  1.15374998e+00  1.00000000e-11  3.60000000e-02  1.00000000e-11  1.80011245e+00  1.00000000e-11  5.00000000e-01                                 
 2.00000000e-11  6.44679049e-01  2.00000000e-11  5.85277359e-01  2.00000000e-11  1.15504707e+00  2.00000000e-11  7.20000000e-02  2.00000000e-11  1.80016727e+00  2.00000000e-11  5.00000000e-01                                 
 4.00000000e-11  6.44552308e-01  4.00000000e-11  5.85171456e-01  4.00000000e-11  1.15716018e+00  4.00000000e-11  1.44000000e-01  4.00000000e-11  1.80014442e+00  4.00000000e-11  5.00000000e-01                                 
 8.00000000e-11  6.44300153e-01  8.00000000e-11  5.84960673e-01  8.00000000e-11  1.16013640e+00  8.00000000e-11  2.88000000e-01  8.00000000e-11  1.80008276e+00  8.00000000e-11  5.00000000e-01                                 
 1.60000000e-10  6.43801603e-01  1.60000000e-10  5.84543162e-01  1.60000000e-10  1.16325730e+00  1.60000000e-10  5.76000000e-01  1.60000000e-10  1.80001939e+00  1.60000000e-10  5.00000000e-01                                 
 3.20000000e-10  6.42826069e-01  3.20000000e-10  5.83723742e-01  3.20000000e-10  1.15758293e+00  3.20000000e-10  1.15200000e+00  3.20000000e-10  1.80041683e+00  3.20000000e-10  5.00000000e-01                                 
 5.00000000e-10  6.41761762e-01  5.00000000e-10  5.82825854e-01  5.00000000e-10  1.30202654e+00  5.00000000e-10  1.80000000e+00  5.00000000e-10  1.23309071e-01  5.00000000e-10  5.00000000e-01                                 
 5.21773716e-10  6.41635577e-01  5.21773716e-10  5.82719111e-01  5.21773716e-10  1.33662997e+00  5.21773716e-10  1.80000000e+00  5.21773716e-10  2.49956777e-02  5.21773716e-10  5.00000000e-01                                 
 5.65321148e-10  6.41384137e-01  5.65321148e-10  5.82506287e-01  5.65321148e-10  1.40025808e+00  5.65321148e-10  1.80000000e+00  5.65321148e-10 -1.15504982e-02  5.65321148e-10  5.00000000e-01                                 
 6.52416013e-10  6.40886906e-01  6.52416013e-10  5.82084775e-01  6.52416013e-10  1.50526015e+00  6.52416013e-10  1.80000000e+00  6.52416013e-10  9.52867483e-03  6.52416013e-10  5.00000000e-01                                 
 7.74504715e-10  6.40202256e-01  7.74504715e-10  5.81502979e-01  7.74504715e-10  1.62295743e+00  7.74504715e-10  1.80000000e+00  7.74504715e-10 -8.22516503e-03  7.74504715e-10  5.00000000e-01                                 
 9.67542229e-10  6.39147875e-01  9.67542229e-10  5.80603857e-01  9.67542229e-10  1.75872386e+00  9.67542229e-10  1.80000000e+00  9.67542229e-10  7.69274291e-03  9.67542229e-10  5.00000000e-01                                 
 1.35361726e-09  6.37134741e-01  1.35361726e-09  5.78876866e-01  1.35361726e-09  1.90681551e+00  1.35361726e-09  1.80000000e+00  1.35361726e-09 -7.25915365e-03  1.35361726e-09  5.00000000e-01                                 
 1.65393637e-09  6.35651036e-01  1.65393637e-09  5.77595249e-01  1.65393637e-09  1.95102645e+00  1.65393637e-09  1.80000000e+00  1.65393637e-09  6.98586131e-03  1.65393637e-09  5.00000000e-01                                 
 1.99668718e-09  6.34036767e-01  1.99668718e-09  5.76192669e-01  1.99668718e-09  1.97060322e+00  1.99668718e-09  1.80000000e+00  1.99668718e-09 -6.59416394e-03  1.99668718e-09  5.00000000e-01                                 
 2.34607483e-09  6.32470611e-01  2.34607483e-09  5.74823883e-01  2.34607483e-09  1.97690115e+00  2.34607483e-09  1.80000000e+00  2.34607483e-09  6.37021965e-03  2.34607483e-09  5.00000000e-01                                 
 2.92420911e-09  6.30035048e-01  2.92420911e-09  5.72680281e-01  2.92420911e-09  1.97816447e+00  2.92420911e-09  1.80000000e+00  2.92420911e-09 -6.14412190e-03  2.92420911e-09  5.00000000e-01                                 
 3.64265998e-09  6.27246685e-01  3.64265998e-09  5.70204252e-01  3.64265998e-09  1.97598074e+00  3.64265998e-09  1.80000000e+00  3.64265998e-09  6.06153842e-03  3.64265998e-09  5.00000000e-01                                 
 4.98494671e-09  6.22608469e-01  4.98494671e-09  5.66037851e-01  4.98494671e-09  1.97153451e+00  4.98494671e-09  1.80000000e+00  4.98494671e-09 -5.94799541e-03  4.98494671e-09  5.00000000e-01                                 
 7.12889534e-09  6.16374643e-01  7.12889534e-09  5.60350106e-01  7.12889534e-09  1.96575692e+00  7.12889534e-09  1.80000000e+00  7.12889534e-09  5.95270999e-03  7.12889534e-09  5.00000000e-01                                 
 9.77220814e-09  6.10106714e-01  9.77220814e-09  5.54536318e-01  9.77220814e-09  1.95987794e+00  9.77220814e-09  1.80000000e+00  9.77220814e-09 -5.87185243e-03  9.77220814e-09  5.00000000e-01                                 
 1.15539593e-08  6.06529082e-01  1.15539593e-08  5.51177757e-01  1.15539593e-08  1.95664448e+00  1.15539593e-08  1.80000000e+00  1.15539593e-08  5.85730113e-03  1.15539593e-08  5.00000000e-01                                 
 1.30147538e-08  6.03886190e-01  1.30147538e-08  5.48680432e-01  1.30147538e-08  1.95419280e+00  1.30147538e-08  1.80000000e+00  1.30147538e-08 -5.76084504e-03  1.30147538e-08  5.00000000e-01                                 
 1.45886401e-08  6.01277776e-01  1.45886401e-08  5.46203288e-01  1.45886401e-08  1.95185841e+00  1.45886401e-08  1.80000000e+00  1.45886401e-08  5.73533611e-03  1.45886401e-08  5.00000000e-01                                 
 1.71535536e-08  5.97457039e-01  1.71535536e-08  5.42554603e-01  1.71535536e-08  1.94829760e+00  1.71535536e-08  1.80000000e+00  1.71535536e-08 -5.66988599e-03  1.71535536e-08  5.00000000e-01                                 
 2.01641000e-08  5.93521416e-01  2.01641000e-08  5.38772450e-01  2.01641000e-08  1.94465730e+00  2.01641000e-08  1.80000000e+00  2.01641000e-08  5.67027748e-03  2.01641000e-08  5.00000000e-01                                 
 2.47414025e-08  5.88380048e-01  2.47414025e-08  5.33799853e-01  2.47414025e-08  1.93937468e+00  2.47414025e-08  1.80000000e+00  2.47414025e-08 -5.62125868e-03  2.47414025e-08  5.00000000e-01                                 
 3.04423365e-08  5.83011182e-01  3.04423365e-08  5.28574197e-01  3.04423365e-08  1.93258681e+00  3.04423365e-08  1.80000000e+00  3.04423365e-08  5.63558066e-03  3.04423365e-08  5.00000000e-01                                 
 4.18442045e-08  5.74304227e-01  4.18442045e-08  5.20073368e-01  4.18442045e-08  1.91707721e+00  4.18442045e-08  1.80000000e+00  4.18442045e-08 -5.59814774e-03  4.18442045e-08  5.00000000e-01                                 
 6.06326355e-08  5.62361691e-01  6.06326355e-08  5.08611162e-01  6.06326355e-08  1.89608416e+00  6.06326355e-08  1.80000000e+00  6.06326355e-08  5.62342618e-03  6.06326355e-08  5.00000000e-01                                 
 7.49748976e-08  5.53180984e-01  7.49748976e-08  5.00166914e-01  7.49748976e-08  1.88260357e+00  7.49748976e-08  1.80000000e+00  7.49748976e-08 -5.58749121e-03  7.49748976e-08  5.00000000e-01                                 
 9.00280774e-08  5.44543388e-01  9.00280774e-08  4.92301195e-01  9.00280774e-08  1.84759420e+00  9.00280774e-08  1.80000000e+00  9.00280774e-08  5.61151056e-03  9.00280774e-08  5.00000000e-01                                 
 1.06669191e-07  5.36327300e-01  1.06669191e-07  4.84841085e-01  1.06669191e-07  1.81765269e+00  1.06669191e-07  1.80000000e+00  1.06669191e-07 -5.57633832e-03  1.06669191e-07  5.00000000e-01                                 
 1.22030596e-07  5.29652073e-01  1.22030596e-07  4.78802760e-01  1.22030596e-07  1.78924256e+00  1.22030596e-07  1.80000000e+00  1.22030596e-07  5.60061094e-03  1.22030596e-07  5.00000000e-01                                 
 1.46718999e-07  5.25399987e-01  1.46718999e-07  4.74381473e-01  1.46718999e-07  1.76118796e+00  1.46718999e-07  1.80000000e+00  1.46718999e-07 -5.56694987e-03  1.46718999e-07  5.00000000e-01                                 
 1.78000244e-07  5.28319077e-01  1.78000244e-07  4.75524312e-01  1.78000244e-07  1.74865290e+00  1.78000244e-07  1.80000000e+00  1.78000244e-07  5.59459000e-03  1.78000244e-07  5.00000000e-01                                 
 1.98161629e-07  5.27467317e-01  1.98161629e-07  4.74183108e-01  1.98161629e-07  1.72819722e+00  1.98161629e-07  1.80000000e+00  1.98161629e-07 -5.56013132e-03  1.98161629e-07  5.00000000e-01                                 
 2.22176197e-07  5.22589578e-01  2.22176197e-07  4.69611212e-01  2.22176197e-07  1.69937777e+00  2.22176197e-07  1.80000000e+00  2.22176197e-07  5.58656323e-03  2.22176197e-07  5.00000000e-01                                 
 2.45762680e-07  5.16945918e-01  2.45762680e-07  4.64519234e-01  2.45762680e-07  1.67034234e+00  2.45762680e-07  1.80000000e+00  2.45762680e-07 -5.55300691e-03  2.45762680e-07  5.00000000e-01                                 
 2.71498196e-07  5.10011645e-01  2.71498196e-07  4.58420584e-01  2.71498196e-07  1.63927936e+00  2.71498196e-07  1.80000000e+00  2.71498196e-07  5.57953801e-03  2.71498196e-07  5.00000000e-01                                 
 3.17330039e-07  4.98258209e-01  3.17330039e-07  4.48187069e-01  3.17330039e-07  1.58013740e+00  3.17330039e-07  1.80000000e+00  3.17330039e-07 -5.54783543e-03  3.17330039e-07  5.00000000e-01                                 
 3.88565385e-07  4.79417358e-01  3.88565385e-07  4.32149073e-01  3.88565385e-07  1.49157694e+00  3.88565385e-07  1.80000000e+00  3.88565385e-07  5.57646317e-03  3.88565385e-07  5.00000000e-01                                 
 4.75768564e-07  4.56752731e-01  4.75768564e-07  4.13232646e-01  4.75768564e-07  1.37700595e+00  4.75768564e-07  1.80000000e+00  4.75768564e-07 -5.54566945e-03  4.75768564e-07  5.00000000e-01                                 
 5.96302042e-07  4.06376732e-01  5.96302042e-07  3.72460062e-01  5.96302042e-07  1.20420820e+00  5.96302042e-07  1.80000000e+00  5.96302042e-07  5.57464205e-03  5.96302042e-07  5.00000000e-01                                 
 7.17935350e-07  7.05491102e-01  7.17935350e-07  6.43599186e-01  7.17935350e-07  1.35965602e+00  7.17935350e-07  1.80000000e+00  7.17935350e-07 -5.54101404e-03  7.17935350e-07  5.00000000e-01                                 
 8.34743124e-07  8.95934096e-01  8.34743124e-07  7.83944332e-01  8.34743124e-07  1.42021491e+00  8.34743124e-07  1.80000000e+00  8.34743124e-07  5.57285402e-03  8.34743124e-07  5.00000000e-01                                 
 8.47911736e-07  9.17884444e-01  8.47911736e-07  7.95203742e-01  8.47911736e-07  1.42310348e+00  8.47911736e-07  1.80000000e+00  8.47911736e-07  4.65865113e-06  8.47911736e-07  5.00000000e-01                                 
 8.74248960e-07  9.55901798e-01  8.74248960e-07  8.12805978e-01  8.74248960e-07  1.42979803e+00  8.74248960e-07  1.80000000e+00  8.74248960e-07  1.17975874e-06  8.74248960e-07  5.00000000e-01                                 
 9.01559712e-07  9.59517149e-01  9.01559712e-07  8.14695930e-01  9.01559712e-07  1.40602961e+00  9.01559712e-07  1.80000000e+00  9.01559712e-07  3.11916891e-06  9.01559712e-07  5.00000000e-01                                 
 9.33137636e-07  9.54602451e-01  9.33137636e-07  8.12355152e-01  9.33137636e-07  1.36723632e+00  9.33137636e-07  1.80000000e+00  9.33137636e-07  4.87054265e-07  9.33137636e-07  5.00000000e-01                                 
 9.74984726e-07  9.58054421e-01  9.74984726e-07  8.13994718e-01  9.74984726e-07  1.32717595e+00  9.74984726e-07  1.80000000e+00  9.74984726e-07  3.55244417e-06  9.74984726e-07  5.00000000e-01                                 
 1.02369301e-06  9.53554265e-01  1.02369301e-06  8.11961609e-01  1.02369301e-06  1.27125363e+00  1.02369301e-06  1.80000000e+00  1.02369301e-06  2.19304541e-07  1.02369301e-06  5.00000000e-01                                 
 1.08979837e-06  9.55312713e-01  1.08979837e-06  8.12784731e-01  1.08979837e-06  1.20357265e+00  1.08979837e-06  1.80000000e+00  1.08979837e-06  3.71704007e-06  1.08979837e-06  5.00000000e-01                                 
 1.17468392e-06  9.51150896e-01  1.17468392e-06  8.10941223e-01  1.17468392e-06  1.11062067e+00  1.17468392e-06  1.80000000e+00  1.17468392e-06  1.25159654e-07  1.17468392e-06  5.00000000e-01                                 
 1.29185629e-06  9.51283154e-01  1.29185629e-06  8.11024376e-01  1.29185629e-06  9.98176779e-01  1.29185629e-06  1.80000000e+00  1.29185629e-06  3.78391689e-06  1.29185629e-06  5.00000000e-01                                 
 1.45701934e-06  9.46201769e-01  1.45701934e-06  8.08769618e-01  1.45701934e-06  8.74002718e-01  1.45701934e-06  1.80000000e+00  1.45701934e-06  9.37759708e-08  1.45701934e-06  5.00000000e-01                                 
 1.69089731e-06  9.43950827e-01  1.69089731e-06  8.07772567e-01  1.69089731e-06  7.35283651e-01  1.69089731e-06  1.80000000e+00  1.69089731e-06  3.79647316e-06  1.69089731e-06  5.00000000e-01                                 
 1.97425751e-06  9.37030568e-01  1.97425751e-06  8.04621385e-01  1.97425751e-06  5.83467294e-01  1.97425751e-06  1.80000000e+00  1.97425751e-06  7.60613670e-08  1.97425751e-06  5.00000000e-01                                 
 2.32051708e-06  9.32765852e-01  2.32051708e-06  8.02640211e-01  2.32051708e-06  4.91982773e-01  2.32051708e-06  1.80000000e+00  2.32051708e-06  3.81846150e-06  2.32051708e-06  5.00000000e-01                                 
 2.36055656e-06  9.31210659e-01  2.36055656e-06  8.01913884e-01  2.36055656e-06  4.89144995e-01  2.36055656e-06  1.80000000e+00  2.36055656e-06  1.92852129e-06  2.36055656e-06  5.00000000e-01                                 
 2.44063554e-06  9.29620799e-01  2.44063554e-06  8.01156460e-01  2.44063554e-06  4.85411754e-01  2.44063554e-06  1.80000000e+00  2.44063554e-06  1.94683932e-06  2.44063554e-06  5.00000000e-01                                 
 2.55202802e-06  9.27763735e-01  2.55202802e-06  8.00278239e-01  2.55202802e-06  4.90781542e-01  2.55202802e-06  1.80000000e+00  2.55202802e-06  1.94316682e-06  2.55202802e-06  5.00000000e-01                                 
 2.56791376e-06  9.27424694e-01  2.56791376e-06  8.00114636e-01  2.56791376e-06  4.93311845e-01  2.56791376e-06  1.80000000e+00  2.56791376e-06  1.94548395e-06  2.56791376e-06  5.00000000e-01                                 
 2.59968524e-06  9.26840585e-01  2.59968524e-06  7.99834109e-01  2.59968524e-06  4.96768135e-01  2.59968524e-06  1.80000000e+00  2.59968524e-06  1.91894871e-06  2.59968524e-06  5.00000000e-01                                 
 2.66322819e-06  9.25727412e-01  2.66322819e-06  7.99300568e-01  2.66322819e-06  4.98676444e-01  2.66322819e-06  1.80000000e+00  2.66322819e-06  1.94309317e-06  2.66322819e-06  5.00000000e-01                                 
 2.78473548e-06  9.23560415e-01  2.78473548e-06  7.98253438e-01  2.78473548e-06  4.99055037e-01  2.78473548e-06  1.80000000e+00  2.78473548e-06  1.93505607e-06  2.78473548e-06  5.00000000e-01                                 
 2.99993596e-06  9.19758317e-01  2.99993596e-06  7.96397247e-01  2.99993596e-06  4.98986652e-01  2.99993596e-06  1.80000000e+00  2.99993596e-06  1.94095619e-06  2.99993596e-06  5.00000000e-01                                 
 3.32856871e-06  9.13693212e-01  3.32856871e-06  7.93380329e-01  3.32856871e-06  4.98891723e-01  3.32856871e-06  1.80000000e+00  3.32856871e-06  1.93526075e-06  3.32856871e-06  5.00000000e-01                                 
 3.41072690e-06  9.12067465e-01  3.41072690e-06  7.92560675e-01  3.41072690e-06  4.98877547e-01  3.41072690e-06  1.80000000e+00  3.41072690e-06  1.93646379e-06  3.41072690e-06  5.00000000e-01                                 
 3.57504327e-06  9.08573577e-01  3.57504327e-06  7.90782335e-01  3.57504327e-06  4.98717120e-01  3.57504327e-06  1.80000000e+00  3.57504327e-06  1.93500592e-06  3.57504327e-06  5.00000000e-01                                 
 3.61612237e-06  9.07594027e-01  3.61612237e-06  7.90279728e-01  3.61612237e-06  4.98649915e-01  3.61612237e-06  1.80000000e+00  3.61612237e-06  1.93397369e-06  3.61612237e-06  5.00000000e-01                                 
 3.69828056e-06  9.05506991e-01  3.69828056e-06  7.89203165e-01  3.69828056e-06  4.98479088e-01  3.69828056e-06  1.80000000e+00  3.69828056e-06  1.93157074e-06  3.69828056e-06  5.00000000e-01                                 
 3.86259693e-06  8.99830153e-01  3.86259693e-06  7.86235539e-01  3.86259693e-06  4.97682701e-01  3.86259693e-06  1.80000000e+00  3.86259693e-06  1.92061769e-06  3.86259693e-06  5.00000000e-01                                 
 3.89188279e-06  8.98431715e-01  3.89188279e-06  7.85495833e-01  3.89188279e-06  4.97408950e-01  3.89188279e-06  1.80000000e+00  3.89188279e-06  1.91649780e-06  3.89188279e-06  5.00000000e-01                                 
 3.95045450e-06  8.95125712e-01  3.95045450e-06  7.83733053e-01  3.95045450e-06  4.96634818e-01  3.95045450e-06  1.80000000e+00  3.95045450e-06  1.90389810e-06  3.95045450e-06  5.00000000e-01                                 
 3.96509743e-06  8.94069749e-01  3.96509743e-06  7.83166200e-01  3.96509743e-06  4.96335665e-01  3.96509743e-06  1.80000000e+00  3.96509743e-06  1.89886215e-06  3.96509743e-06  5.00000000e-01                                 
 3.99438328e-06  8.91690277e-01  3.99438328e-06  7.81881551e-01  3.99438328e-06  4.95598434e-01  3.99438328e-06  1.80000000e+00  3.99438328e-06  1.88567778e-06  3.99438328e-06  5.00000000e-01                                 
 4.05295500e-06  8.83429616e-01  4.05295500e-06  7.77348891e-01  4.05295500e-06  4.92039955e-01  4.05295500e-06  1.80000000e+00  4.05295500e-06  1.81290168e-06  4.05295500e-06  5.00000000e-01                                 
 4.06759792e-06  8.79593589e-01  4.06759792e-06  7.75205638e-01  4.06759792e-06  4.89977319e-01  4.06759792e-06  1.80000000e+00  4.06759792e-06  1.76257628e-06  4.06759792e-06  5.00000000e-01                                 
 4.09688378e-06  8.66202561e-01  4.09688378e-06  7.67541687e-01  4.09688378e-06  4.81258080e-01  4.09688378e-06  1.80000000e+00  4.09688378e-06  1.48456478e-06  4.09688378e-06  5.00000000e-01                                 
 4.15545549e-06  7.92184622e-01  4.15545549e-06  7.18895741e-01  4.15545549e-06  4.29053782e-01  4.15545549e-06  1.80000000e+00  4.15545549e-06  5.59392272e-07  4.15545549e-06  5.00000000e-01                                 
 4.19227924e-06  7.37512585e-01  4.19227924e-06  6.73497046e-01  4.19227924e-06  3.99374373e-01  4.19227924e-06  1.80000000e+00  4.19227924e-06  1.07945225e-06  4.19227924e-06  5.00000000e-01                                 
 4.22641324e-06  7.23349900e-01  4.22641324e-06  6.61205701e-01  4.22641324e-06  4.10673905e-01  4.22641324e-06  1.80000000e+00  4.22641324e-06  2.14444244e-06  4.22641324e-06  5.00000000e-01                                 
 4.26077073e-06  7.27048791e-01  4.26077073e-06  6.63895866e-01  4.26077073e-06  4.36091826e-01  4.26077073e-06  1.80000000e+00  4.26077073e-06  1.91069926e-06  4.26077073e-06  5.00000000e-01                                 
 4.29606255e-06  7.48765383e-01  4.29606255e-06  6.83842907e-01  4.29606255e-06  4.72359988e-01  4.29606255e-06  1.80000000e+00  4.29606255e-06  2.87390815e-06  4.29606255e-06  5.00000000e-01                                 
