 time            v(vbep)         time            v(vben)         time            v(vout)         time            v(vphi1)        time            v(vphi2)        time            v(vref)         yes             currtemp       
 0.00000000e+00  8.22112102e-01  0.00000000e+00  7.63229232e-01  0.00000000e+00  1.00770646e+00  0.00000000e+00  0.00000000e+00  0.00000000e+00  1.79704530e+00  0.00000000e+00  5.00000000e-01  1.00000000e+00  1.60000000e+01 
 5.00000000e-12  8.20830055e-01  5.00000000e-12  7.62699544e-01  5.00000000e-12  1.00840108e+00  5.00000000e-12  1.80000000e-02  5.00000000e-12  1.79784357e+00  5.00000000e-12  5.00000000e-01                                 
 1.00000000e-11  8.19894001e-01  1.00000000e-11  7.62418471e-01  1.00000000e-11  1.00902435e+00  1.00000000e-11  3.60000000e-02  1.00000000e-11  1.79845709e+00  1.00000000e-11  5.00000000e-01                                 
 2.00000000e-11  8.18470789e-01  2.00000000e-11  7.61964764e-01  2.00000000e-11  1.01016299e+00  2.00000000e-11  7.20000000e-02  2.00000000e-11  1.79937638e+00  2.00000000e-11  5.00000000e-01                                 
 4.00000000e-11  8.16989353e-01  4.00000000e-11  7.61177832e-01  4.00000000e-11  1.01192742e+00  4.00000000e-11  1.44000000e-01  4.00000000e-11  1.80003601e+00  4.00000000e-11  5.00000000e-01                                 
 8.00000000e-11  8.15129746e-01  8.00000000e-11  7.59592532e-01  8.00000000e-11  1.01414870e+00  8.00000000e-11  2.88000000e-01  8.00000000e-11  1.80007651e+00  8.00000000e-11  5.00000000e-01                                 
 1.60000000e-10  8.11665763e-01  1.60000000e-10  7.56488850e-01  1.60000000e-10  1.01607640e+00  1.60000000e-10  5.76000000e-01  1.60000000e-10  1.79999462e+00  1.60000000e-10  5.00000000e-01                                 
 3.20000000e-10  8.04913460e-01  3.20000000e-10  7.50433130e-01  3.20000000e-10  1.00844168e+00  3.20000000e-10  1.15200000e+00  3.20000000e-10  1.80040628e+00  3.20000000e-10  5.00000000e-01                                 
 5.00000000e-10  7.97780186e-01  5.00000000e-10  7.43963083e-01  5.00000000e-10  1.19804944e+00  5.00000000e-10  1.80000000e+00  5.00000000e-10  1.07103715e-01  5.00000000e-10  5.00000000e-01                                 
 5.21110059e-10  7.96981654e-01  5.21110059e-10  7.43238597e-01  5.21110059e-10  1.24089863e+00  5.21110059e-10  1.80000000e+00  5.21110059e-10  2.01431867e-02  5.21110059e-10  5.00000000e-01                                 
 5.63330177e-10  7.95396029e-01  5.63330177e-10  7.41792358e-01  5.63330177e-10  1.31930598e+00  5.63330177e-10  1.80000000e+00  5.63330177e-10 -9.43381810e-03  5.63330177e-10  5.00000000e-01                                 
 6.47770412e-10  7.92296745e-01  6.47770412e-10  7.38958456e-01  6.47770412e-10  1.44863869e+00  6.47770412e-10  1.80000000e+00  6.47770412e-10  8.07077667e-03  6.47770412e-10  5.00000000e-01                                 
 7.70335182e-10  7.87970336e-01  7.70335182e-10  7.34991212e-01  7.70335182e-10  1.59820747e+00  7.70335182e-10  1.80000000e+00  7.70335182e-10 -7.04444733e-03  7.70335182e-10  5.00000000e-01                                 
 9.60348945e-10  7.81654859e-01  9.60348945e-10  7.29178686e-01  9.60348945e-10  1.76753727e+00  9.60348945e-10  1.80000000e+00  9.60348945e-10  6.67466516e-03  9.60348945e-10  5.00000000e-01                                 
 1.34037647e-09  7.70317356e-01  1.34037647e-09  7.18704342e-01  1.34037647e-09  1.95493086e+00  1.34037647e-09  1.80000000e+00  1.34037647e-09 -6.31708234e-03  1.34037647e-09  5.00000000e-01                                 
 1.60455147e-09  7.63574713e-01  1.60455147e-09  7.12450334e-01  1.60455147e-09  2.00773018e+00  1.60455147e-09  1.80000000e+00  1.60455147e-09  6.09055993e-03  1.60455147e-09  5.00000000e-01                                 
 1.90387607e-09  7.56851520e-01  1.90387607e-09  7.06182161e-01  1.90387607e-09  2.03317956e+00  1.90387607e-09  1.80000000e+00  1.90387607e-09 -5.74881157e-03  1.90387607e-09  5.00000000e-01                                 
 2.22177327e-09  7.50610011e-01  2.22177327e-09  7.00348205e-01  2.22177327e-09  2.04137796e+00  2.22177327e-09  1.80000000e+00  2.22177327e-09  5.55843306e-03  2.22177327e-09  5.00000000e-01                                 
 2.72187544e-09  7.42291343e-01  2.72187544e-09  6.92525586e-01  2.72187544e-09  2.04041584e+00  2.72187544e-09  1.80000000e+00  2.72187544e-09 -5.37000648e-03  2.72187544e-09  5.00000000e-01                                 
 3.33634740e-09  7.34029297e-01  3.33634740e-09  6.84705941e-01  3.33634740e-09  2.03333770e+00  3.33634740e-09  1.80000000e+00  3.33634740e-09  5.28510153e-03  3.33634740e-09  5.00000000e-01                                 
 4.38852030e-09  7.23166398e-01  4.38852030e-09  6.74330347e-01  4.38852030e-09  2.02225281e+00  4.38852030e-09  1.80000000e+00  4.38852030e-09 -5.19000442e-03  4.38852030e-09  5.00000000e-01                                 
 5.97603622e-09  7.11559151e-01  5.97603622e-09  6.63125221e-01  5.97603622e-09  2.01060730e+00  5.97603622e-09  1.80000000e+00  5.97603622e-09  5.17559445e-03  5.97603622e-09  5.00000000e-01                                 
 9.15106805e-09  6.96455466e-01  9.15106805e-09  6.48380043e-01  9.15106805e-09  1.99596113e+00  9.15106805e-09  1.80000000e+00  9.15106805e-09 -5.11731092e-03  9.15106805e-09  5.00000000e-01                                 
 1.05932798e-08  6.91777067e-01  1.05932798e-08  6.43771259e-01  1.05932798e-08  1.99148270e+00  1.05932798e-08  1.80000000e+00  1.05932798e-08  5.09878028e-03  1.05932798e-08  5.00000000e-01                                 
 1.24636699e-08  6.86683479e-01  1.24636699e-08  6.38738318e-01  1.24636699e-08  1.98661893e+00  1.24636699e-08  1.80000000e+00  1.24636699e-08 -5.03808610e-03  1.24636699e-08  5.00000000e-01                                 
 1.44546812e-08  6.82133213e-01  1.44546812e-08  6.34232237e-01  1.44546812e-08  1.98232485e+00  1.44546812e-08  1.80000000e+00  1.44546812e-08  5.02652264e-03  1.44546812e-08  5.00000000e-01                                 
 1.80825282e-08  6.75365636e-01  1.80825282e-08  6.27513022e-01  1.80825282e-08  1.97591056e+00  1.80825282e-08  1.80000000e+00  1.80825282e-08 -4.98698851e-03  1.80825282e-08  5.00000000e-01                                 
 2.15734475e-08  6.70162391e-01  2.15734475e-08  6.22334894e-01  2.15734475e-08  1.97103353e+00  2.15734475e-08  1.80000000e+00  2.15734475e-08  4.98865638e-03  2.15734475e-08  5.00000000e-01                                 
 2.85552861e-08  6.61993152e-01  2.85552861e-08  6.14187187e-01  2.85552861e-08  1.96333663e+00  2.85552861e-08  1.80000000e+00  2.85552861e-08 -4.95819824e-03  2.85552861e-08  5.00000000e-01                                 
 3.64410904e-08  6.55064528e-01  3.64410904e-08  6.07261405e-01  3.64410904e-08  1.95686051e+00  3.64410904e-08  1.80000000e+00  3.64410904e-08  4.97099851e-03  3.64410904e-08  5.00000000e-01                                 
 5.22126990e-08  6.44921247e-01  5.22126990e-08  5.97102493e-01  5.22126990e-08  1.94733543e+00  5.22126990e-08  1.80000000e+00  5.22126990e-08 -4.94540987e-03  5.22126990e-08  5.00000000e-01                                 
 7.71609683e-08  6.34104546e-01  7.71609683e-08  5.86245684e-01  7.71609683e-08  1.93721402e+00  7.71609683e-08  1.80000000e+00  7.71609683e-08  4.96437385e-03  7.71609683e-08  5.00000000e-01                                 
 1.25879813e-07  6.21012013e-01  1.25879813e-07  5.72997132e-01  1.25879813e-07  1.92597668e+00  1.25879813e-07  1.80000000e+00  1.25879813e-07 -4.94140352e-03  1.25879813e-07  5.00000000e-01                                 
 1.79402030e-07  6.12906636e-01  1.79402030e-07  5.64548224e-01  1.79402030e-07  1.92195747e+00  1.79402030e-07  1.80000000e+00  1.79402030e-07  4.96191688e-03  1.79402030e-07  5.00000000e-01                                 
 2.20390925e-07  6.08034716e-01  2.20390925e-07  5.59526327e-01  2.20390925e-07  1.90948683e+00  2.20390925e-07  1.80000000e+00  2.20390925e-07 -4.93857246e-03  2.20390925e-07  5.00000000e-01                                 
 2.56493124e-07  6.00803317e-01  2.56493124e-07  5.52940585e-01  2.56493124e-07  1.88353353e+00  2.56493124e-07  1.80000000e+00  2.56493124e-07  4.95843087e-03  2.56493124e-07  5.00000000e-01                                 
 2.83834269e-07  5.90387678e-01  2.83834269e-07  5.44124410e-01  2.83834269e-07  1.85025146e+00  2.83834269e-07  1.80000000e+00  2.83834269e-07 -4.93457027e-03  2.83834269e-07  5.00000000e-01                                 
 3.12999966e-07  5.81935958e-01  3.12999966e-07  5.36900981e-01  3.12999966e-07  1.81015850e+00  3.12999966e-07  1.80000000e+00  3.12999966e-07  4.95387650e-03  3.12999966e-07  5.00000000e-01                                 
 3.36661397e-07  5.79430041e-01  3.36661397e-07  5.34532924e-01  3.36661397e-07  1.78328401e+00  3.36661397e-07  1.80000000e+00  3.36661397e-07 -4.92944858e-03  3.36661397e-07  5.00000000e-01                                 
 3.61279999e-07  5.85983601e-01  3.61279999e-07  5.39343328e-01  3.61279999e-07  1.78689603e+00  3.61279999e-07  1.80000000e+00  3.61279999e-07  4.94880954e-03  3.61279999e-07  5.00000000e-01                                 
 3.79827114e-07  5.86128638e-01  3.79827114e-07  5.39173242e-01  3.79827114e-07  1.76849383e+00  3.79827114e-07  1.80000000e+00  3.79827114e-07 -4.92364715e-03  3.79827114e-07  5.00000000e-01                                 
 4.00488449e-07  5.79672637e-01  4.00488449e-07  5.33756495e-01  4.00488449e-07  1.74213365e+00  4.00488449e-07  1.80000000e+00  4.00488449e-07  4.94192892e-03  4.00488449e-07  5.00000000e-01                                 
 4.18685282e-07  5.76271046e-01  4.18685282e-07  5.30815473e-01  4.18685282e-07  1.72104032e+00  4.18685282e-07  1.80000000e+00  4.18685282e-07 -4.91692692e-03  4.18685282e-07  5.00000000e-01                                 
 4.38973891e-07  5.71941302e-01  4.38973891e-07  5.27127896e-01  4.38973891e-07  1.69779112e+00  4.38973891e-07  1.80000000e+00  4.38973891e-07  4.93515928e-03  4.38973891e-07  5.00000000e-01                                 
 4.72685251e-07  5.64584058e-01  4.72685251e-07  5.20911700e-01  4.72685251e-07  1.65776497e+00  4.72685251e-07  1.80000000e+00  4.72685251e-07 -4.91187662e-03  4.72685251e-07  5.00000000e-01                                 
 5.29333724e-07  5.51149948e-01  5.29333724e-07  5.09721142e-01  5.29333724e-07  1.58809686e+00  5.29333724e-07  1.80000000e+00  5.29333724e-07  4.93208473e-03  5.29333724e-07  5.00000000e-01                                 
 6.16083945e-07  5.33458889e-01  6.16083945e-07  4.95073780e-01  6.16083945e-07  1.48577314e+00  6.16083945e-07  1.80000000e+00  6.16083945e-07 -4.90997949e-03  6.16083945e-07  5.00000000e-01                                 
 7.18453387e-07  4.97847505e-01  7.18453387e-07  4.66323703e-01  7.18453387e-07  1.34536825e+00  7.18453387e-07  1.80000000e+00  7.18453387e-07  4.93059734e-03  7.18453387e-07  5.00000000e-01                                 
 8.12215965e-07  4.65094634e-01  8.12215965e-07  4.40077456e-01  8.12215965e-07  1.21679576e+00  8.12215965e-07  1.80000000e+00  8.12215965e-07 -4.90865423e-03  8.12215965e-07  5.00000000e-01                                 
 8.29093388e-07  4.65275680e-01  8.29093388e-07  4.40235140e-01  8.29093388e-07  1.19886210e+00  8.29093388e-07  1.80000000e+00  8.29093388e-07 -6.97637769e-07  8.29093388e-07  5.00000000e-01                                 
 8.62848234e-07  5.03262440e-01  8.62848234e-07  4.70678506e-01  8.62848234e-07  1.19976548e+00  8.62848234e-07  1.80000000e+00  8.62848234e-07  1.98434743e-06  8.62848234e-07  5.00000000e-01                                 
 9.02561315e-07  7.25819390e-01  9.02561315e-07  6.69031757e-01  9.02561315e-07  1.37049428e+00  9.02561315e-07  1.80000000e+00  9.02561315e-07  3.72359410e-06  9.02561315e-07  5.00000000e-01                                 
 9.32878695e-07  7.85648273e-01  9.32878695e-07  7.30024847e-01  9.32878695e-07  1.39905760e+00  9.32878695e-07  1.80000000e+00  9.32878695e-07 -4.22250086e-07  9.32878695e-07  5.00000000e-01                                 
 9.62662967e-07  8.07276583e-01  9.62662967e-07  7.49486004e-01  9.62662967e-07  1.38536676e+00  9.62662967e-07  1.80000000e+00  9.62662967e-07  1.50360448e-06  9.62662967e-07  5.00000000e-01                                 
 9.95660435e-07  8.12722333e-01  9.95660435e-07  7.54243417e-01  9.95660435e-07  1.35978115e+00  9.95660435e-07  1.80000000e+00  9.95660435e-07 -6.56026515e-07  9.95660435e-07  5.00000000e-01                                 
 1.03124781e-06  8.13056482e-01  1.03124781e-06  7.54490052e-01  1.03124781e-06  1.31981020e+00  1.03124781e-06  1.80000000e+00  1.03124781e-06  9.12270994e-07  1.03124781e-06  5.00000000e-01                                 
 1.08371918e-06  8.16928737e-01  1.08371918e-06  7.57787226e-01  1.08371918e-06  1.27212661e+00  1.08371918e-06  1.80000000e+00  1.08371918e-06 -3.35605703e-07  1.08371918e-06  5.00000000e-01                                 
 1.14340278e-06  8.13209024e-01  1.14340278e-06  7.54638773e-01  1.14340278e-06  1.20303633e+00  1.14340278e-06  1.80000000e+00  1.14340278e-06  5.97409033e-07  1.14340278e-06  5.00000000e-01                                 
 1.21225714e-06  7.92679536e-01  1.21225714e-06  7.36563912e-01  1.21225714e-06  1.11425299e+00  1.21225714e-06  1.80000000e+00  1.21225714e-06 -5.37782954e-07  1.21225714e-06  5.00000000e-01                                 
 1.27834822e-06  7.89692376e-01  1.27834822e-06  7.33731152e-01  1.27834822e-06  1.03702282e+00  1.27834822e-06  1.80000000e+00  1.27834822e-06  8.25080954e-07  1.27834822e-06  5.00000000e-01                                 
 1.34495128e-06  8.12742117e-01  1.34495128e-06  7.54230670e-01  1.34495128e-06  9.94317232e-01  1.34495128e-06  1.80000000e+00  1.34495128e-06  5.88547711e-08  1.34495128e-06  5.00000000e-01                                 
 1.41322007e-06  7.99718385e-01  1.41322007e-06  7.42899178e-01  1.41322007e-06  9.20774407e-01  1.41322007e-06  1.80000000e+00  1.41322007e-06  8.50344710e-08  1.41322007e-06  5.00000000e-01                                 
 1.47924037e-06  7.92157381e-01  1.47924037e-06  7.36018932e-01  1.47924037e-06  8.68744578e-01  1.47924037e-06  1.80000000e+00  1.47924037e-06  1.76296237e-07  1.47924037e-06  5.00000000e-01                                 
 1.55838197e-06  8.05534605e-01  1.55838197e-06  7.48014622e-01  1.55838197e-06  8.27815300e-01  1.55838197e-06  1.80000000e+00  1.55838197e-06  4.28929677e-07  1.55838197e-06  5.00000000e-01                                 
 1.65132084e-06  8.02753947e-01  1.65132084e-06  7.45566663e-01  1.65132084e-06  7.74319552e-01  1.65132084e-06  1.80000000e+00  1.65132084e-06 -4.44162309e-08  1.65132084e-06  5.00000000e-01                                 
 1.74637054e-06  7.95520064e-01  1.74637054e-06  7.39097900e-01  1.74637054e-06  7.17089843e-01  1.74637054e-06  1.80000000e+00  1.74637054e-06  3.25334232e-07  1.74637054e-06  5.00000000e-01                                 
 1.88970179e-06  8.05752701e-01  1.88970179e-06  7.48187507e-01  1.88970179e-06  6.58374857e-01  1.88970179e-06  1.80000000e+00  1.88970179e-06  1.76928077e-07  1.88970179e-06  5.00000000e-01                                 
 2.03362647e-06  7.97884599e-01  2.03362647e-06  7.41245759e-01  2.03362647e-06  5.85405739e-01  2.03362647e-06  1.80000000e+00  2.03362647e-06  1.44452871e-07  2.03362647e-06  5.00000000e-01                                 
 2.19855713e-06  8.01617138e-01  2.19855713e-06  7.44534694e-01  2.19855713e-06  5.34626189e-01  2.19855713e-06  1.80000000e+00  2.19855713e-06  2.90834947e-07  2.19855713e-06  5.00000000e-01                                 
 2.22524762e-06  8.03158631e-01  2.22524762e-06  7.45919414e-01  2.22524762e-06  5.29140498e-01  2.22524762e-06  1.80000000e+00  2.22524762e-06  2.30564690e-07  2.22524762e-06  5.00000000e-01                                 
 2.27862861e-06  8.02512562e-01  2.27862861e-06  7.45356303e-01  2.27862861e-06  5.18160938e-01  2.27862861e-06  1.80000000e+00  2.27862861e-06  1.60207688e-07  2.27862861e-06  5.00000000e-01                                 
 2.38539057e-06  7.98819773e-01  2.38539057e-06  7.42063236e-01  2.38539057e-06  5.02802163e-01  2.38539057e-06  1.80000000e+00  2.38539057e-06  1.93905817e-07  2.38539057e-06  5.00000000e-01                                 
 2.40350704e-06  7.99809290e-01  2.40350704e-06  7.42945773e-01  2.40350704e-06  5.02618215e-01  2.40350704e-06  1.80000000e+00  2.40350704e-06  2.34003005e-07  2.40350704e-06  5.00000000e-01                                 
 2.43973999e-06  8.01674639e-01  2.43973999e-06  7.44606274e-01  2.43973999e-06  5.02176790e-01  2.43973999e-06  1.80000000e+00  2.43973999e-06  2.33009796e-07  2.43973999e-06  5.00000000e-01                                 
 2.51220588e-06  8.01860423e-01  2.51220588e-06  7.44776388e-01  2.51220588e-06  4.98349587e-01  2.51220588e-06  1.80000000e+00  2.51220588e-06  1.71621697e-07  2.51220588e-06  5.00000000e-01                                 
 2.65713767e-06  8.00005769e-01  2.65713767e-06  7.43123096e-01  2.65713767e-06  4.91846676e-01  2.65713767e-06  1.80000000e+00  2.65713767e-06  2.10277000e-07  2.65713767e-06  5.00000000e-01                                 
 2.68105331e-06  8.00638706e-01  2.68105331e-06  7.43686803e-01  2.68105331e-06  4.92131549e-01  2.68105331e-06  1.80000000e+00  2.68105331e-06  2.16724676e-07  2.68105331e-06  5.00000000e-01                                 
 2.72888459e-06  8.01552460e-01  2.72888459e-06  7.44499967e-01  2.72888459e-06  4.92405990e-01  2.72888459e-06  1.80000000e+00  2.72888459e-06  2.07945086e-07  2.72888459e-06  5.00000000e-01                                 
 2.82454715e-06  8.01068923e-01  2.82454715e-06  7.44072348e-01  2.82454715e-06  4.92422723e-01  2.82454715e-06  1.80000000e+00  2.82454715e-06  1.85606781e-07  2.82454715e-06  5.00000000e-01                                 
 2.84571473e-06  8.00851523e-01  2.84571473e-06  7.43878311e-01  2.84571473e-06  4.93817244e-01  2.84571473e-06  1.80000000e+00  2.84571473e-06  1.95039934e-07  2.84571473e-06  5.00000000e-01                                 
 2.88804987e-06  8.00813887e-01  2.88804987e-06  7.43843749e-01  2.88804987e-06  4.97658774e-01  2.88804987e-06  1.80000000e+00  2.88804987e-06  2.04484546e-07  2.88804987e-06  5.00000000e-01                                 
 2.97272016e-06  8.01304854e-01  2.97272016e-06  7.44280587e-01  2.97272016e-06  5.02008502e-01  2.97272016e-06  1.80000000e+00  2.97272016e-06  1.98716881e-07  2.97272016e-06  5.00000000e-01                                 
 3.12022953e-06  8.00962343e-01  3.12022953e-06  7.43976750e-01  3.12022953e-06  5.00151094e-01  3.12022953e-06  1.80000000e+00  3.12022953e-06  1.97008970e-07  3.12022953e-06  5.00000000e-01                                 
 3.30281453e-06  8.01070547e-01  3.30281453e-06  7.44072015e-01  3.30281453e-06  4.99697646e-01  3.30281453e-06  1.80000000e+00  3.30281453e-06  2.02801600e-07  3.30281453e-06  5.00000000e-01                                 
 3.66798453e-06  8.01127178e-01  3.66798453e-06  7.44123364e-01  3.66798453e-06  5.00532015e-01  3.66798453e-06  1.80000000e+00  3.66798453e-06  1.96250776e-07  3.66798453e-06  5.00000000e-01                                 
 4.25757866e-06  8.00990679e-01  4.25757866e-06  7.44001039e-01  4.25757866e-06  4.99845669e-01  4.25757866e-06  1.80000000e+00  4.25757866e-06  2.02270373e-07  4.25757866e-06  5.00000000e-01                                 
 5.25757866e-06  8.01170312e-01  5.25757866e-06  7.44161656e-01  5.25757866e-06  5.00415689e-01  5.25757866e-06  1.80000000e+00  5.25757866e-06  1.96837393e-07  5.25757866e-06  5.00000000e-01                                 
