 time            v(vbep)         time            v(vben)         time            v(vout)         time            v(vphi1)        time            v(vphi2)        time            v(vref)         time            v(voutc)        time            v(voutcc)       yes             currtemp       
 0.00000000e+00  8.57066294e-01  0.00000000e+00  8.10606050e-01  0.00000000e+00  1.76698704e+00  0.00000000e+00  0.00000000e+00  0.00000000e+00  1.80000000e+00  0.00000000e+00  8.14734681e-01  0.00000000e+00  1.76698704e+00  0.00000000e+00  1.77135443e+00  1.00000000e+00 -3.00000000e+01 
 1.00000000e-11  8.57086531e-01  1.00000000e-11  8.10668188e-01  1.00000000e-11  1.76783299e+00  1.00000000e-11  1.80000000e-02  1.00000000e-11  1.80024089e+00  1.00000000e-11  8.15244865e-01  1.00000000e-11  1.76744046e+00  1.00000000e-11  1.77136783e+00                                 
 2.00000000e-11  8.57092355e-01  2.00000000e-11  8.10707742e-01  2.00000000e-11  1.76843239e+00  2.00000000e-11  3.60000000e-02  2.00000000e-11  1.80034505e+00  2.00000000e-11  8.15635317e-01  2.00000000e-11  1.76780333e+00  2.00000000e-11  1.77137478e+00                                 
 4.00000000e-11  8.57092568e-01  4.00000000e-11  8.10759985e-01  4.00000000e-11  1.76927525e+00  4.00000000e-11  7.20000000e-02  4.00000000e-11  1.80040014e+00  4.00000000e-11  8.16221246e-01  4.00000000e-11  1.76837811e+00  4.00000000e-11  1.77138063e+00                                 
 8.00000000e-11  8.57082370e-01  8.00000000e-11  8.10791751e-01  8.00000000e-11  1.76981379e+00  8.00000000e-11  1.44000000e-01  8.00000000e-11  1.80021943e+00  8.00000000e-11  8.16719386e-01  8.00000000e-11  1.76898288e+00  8.00000000e-11  1.77137302e+00                                 
 1.60000000e-10  8.57079045e-01  1.60000000e-10  8.10791046e-01  1.60000000e-10  1.76974316e+00  1.60000000e-10  2.88000000e-01  1.60000000e-10  1.80002703e+00  1.60000000e-10  8.16823024e-01  1.60000000e-10  1.76934037e+00  1.60000000e-10  1.77135829e+00                                 
 3.20000000e-10  8.57077100e-01  3.20000000e-10  8.10787301e-01  3.20000000e-10  1.76949850e+00  3.20000000e-10  5.76000000e-01  3.20000000e-10  1.80003168e+00  3.20000000e-10  8.16798953e-01  3.20000000e-10  1.76949913e+00  3.20000000e-10  1.77135480e+00                                 
 6.40000000e-10  8.57010901e-01  6.40000000e-10  8.10611201e-01  6.40000000e-10  1.76033931e+00  6.40000000e-10  1.15200000e+00  6.40000000e-10  1.81352533e+00  6.40000000e-10  8.16677068e-01  6.40000000e-10  1.77311535e+00  6.40000000e-10  1.77137848e+00                                 
 9.89959800e-10  8.57341297e-01  9.89959800e-10  8.10575439e-01  9.89959800e-10  1.72621855e+00  9.89959800e-10  1.78192764e+00  9.89959800e-10  7.14636765e-02  9.89959800e-10  8.14634377e-01  9.89959800e-10  1.75835681e+00  9.89959800e-10  1.77122892e+00                                 
 1.00000000e-09  8.57369181e-01  1.00000000e-09  8.10654479e-01  1.00000000e-09  1.72583178e+00  1.00000000e-09  1.80000000e+00  1.00000000e-09  1.87890458e-02  1.00000000e-09  8.15678174e-01  1.00000000e-09  1.75854296e+00  1.00000000e-09  1.77126661e+00                                 
 1.02008040e-09  8.57374823e-01  1.02008040e-09  8.10687933e-01  1.02008040e-09  1.72571844e+00  1.02008040e-09  1.80000000e+00  1.02008040e-09  6.33028707e-03  1.02008040e-09  8.17209597e-01  1.02008040e-09  1.75975544e+00  1.02008040e-09  1.77132107e+00                                 
 1.06024120e-09  8.57459442e-01  1.06024120e-09  8.10725448e-01  1.06024120e-09  1.72465015e+00  1.06024120e-09  1.80000000e+00  1.06024120e-09 -9.92717099e-04  1.06024120e-09  8.18880710e-01  1.06024120e-09  1.76117887e+00  1.06024120e-09  1.77136170e+00                                 
 1.13605310e-09  8.57667964e-01  1.13605310e-09  8.10673985e-01  1.13605310e-09  1.71964850e+00  1.13605310e-09  1.80000000e+00  1.13605310e-09  1.76584966e-03  1.13605310e-09  8.18943687e-01  1.13605310e-09  1.76129349e+00  1.13605310e-09  1.77133109e+00                                 
 1.28767691e-09  8.57846528e-01  1.28767691e-09  8.10611313e-01  1.28767691e-09  1.71084197e+00  1.28767691e-09  1.80000000e+00  1.28767691e-09 -8.55690226e-04  1.28767691e-09  8.19378114e-01  1.28767691e-09  1.76160672e+00  1.28767691e-09  1.77134821e+00                                 
 1.49342917e-09  8.57858997e-01  1.49342917e-09  8.10607990e-01  1.49342917e-09  1.70716684e+00  1.49342917e-09  1.80000000e+00  1.49342917e-09  9.24711664e-04  1.49342917e-09  8.19848872e-01  1.49342917e-09  1.76202844e+00  1.49342917e-09  1.77135081e+00                                 
 1.74183661e-09  8.57707650e-01  1.74183661e-09  8.10588493e-01  1.74183661e-09  1.70867597e+00  1.74183661e-09  1.80000000e+00  1.74183661e-09 -8.36908883e-04  1.74183661e-09  8.19681474e-01  1.74183661e-09  1.76185604e+00  1.74183661e-09  1.77135363e+00                                 
 1.98392390e-09  8.57555855e-01  1.98392390e-09  8.10597074e-01  1.98392390e-09  1.71144899e+00  1.98392390e-09  1.80000000e+00  1.98392390e-09  6.92530230e-04  1.98392390e-09  8.19610628e-01  1.98392390e-09  1.76182008e+00  1.98392390e-09  1.77135810e+00                                 
 2.35692157e-09  8.57342735e-01  2.35692157e-09  8.10588090e-01  2.35692157e-09  1.71555819e+00  2.35692157e-09  1.80000000e+00  2.35692157e-09 -6.99111589e-04  2.35692157e-09  8.19214390e-01  2.35692157e-09  1.76146311e+00  2.35692157e-09  1.77135610e+00                                 
 3.00424945e-09  8.57106729e-01  3.00424945e-09  8.10595041e-01  3.00424945e-09  1.72204070e+00  3.00424945e-09  1.80000000e+00  3.00424945e-09  6.14259825e-04  3.00424945e-09  8.18765527e-01  3.00424945e-09  1.76110560e+00  3.00424945e-09  1.77135593e+00                                 
 4.29890521e-09  8.56920610e-01  4.29890521e-09  8.10588746e-01  4.29890521e-09  1.73198722e+00  4.29890521e-09  1.80000000e+00  4.29890521e-09 -6.51946194e-04  4.29890521e-09  8.17734052e-01  4.29890521e-09  1.76021701e+00  4.29890521e-09  1.77133366e+00                                 
 6.88821673e-09  8.56953978e-01  6.88821673e-09  8.10600050e-01  6.88821673e-09  1.74376369e+00  6.88821673e-09  1.80000000e+00  6.88821673e-09  6.02648822e-04  6.88821673e-09  8.16379787e-01  6.88821673e-09  1.75909832e+00  6.88821673e-09  1.77126589e+00                                 
 9.78888594e-09  8.57022429e-01  9.78888594e-09  8.10598317e-01  9.78888594e-09  1.74872424e+00  9.78888594e-09  1.80000000e+00  9.78888594e-09 -6.29186606e-04  9.78888594e-09  8.15355739e-01  9.78888594e-09  1.75821747e+00  9.78888594e-09  1.77114655e+00                                 
 1.28297776e-08  8.57041636e-01  1.28297776e-08  8.10607324e-01  1.28297776e-08  1.74994801e+00  1.28297776e-08  1.80000000e+00  1.28297776e-08  5.98123120e-04  1.28297776e-08  8.14909183e-01  1.28297776e-08  1.75786025e+00  1.28297776e-08  1.77100146e+00                                 
 1.62047329e-08  8.57049651e-01  1.62047329e-08  8.10602052e-01  1.62047329e-08  1.74932896e+00  1.62047329e-08  1.80000000e+00  1.62047329e-08 -6.13989595e-04  1.62047329e-08  8.14553376e-01  1.62047329e-08  1.75753772e+00  1.62047329e-08  1.77081690e+00                                 
 2.04342640e-08  8.57053900e-01  2.04342640e-08  8.10609004e-01  2.04342640e-08  1.74851867e+00  2.04342640e-08  1.80000000e+00  2.04342640e-08  5.94656901e-04  2.04342640e-08  8.14487740e-01  2.04342640e-08  1.75749417e+00  2.04342640e-08  1.77058359e+00                                 
 2.58799374e-08  8.57050372e-01  2.58799374e-08  8.10602930e-01  2.58799374e-08  1.74782804e+00  2.58799374e-08  1.80000000e+00  2.58799374e-08 -6.00102956e-04  2.58799374e-08  8.14372505e-01  2.58799374e-08  1.75736536e+00  2.58799374e-08  1.77027525e+00                                 
 3.33471359e-08  8.57062922e-01  3.33471359e-08  8.10609252e-01  3.33471359e-08  1.74545000e+00  3.33471359e-08  1.80000000e+00  3.33471359e-08  5.94669113e-04  3.33471359e-08  8.14462201e-01  3.33471359e-08  1.75744113e+00  3.33471359e-08  1.76987107e+00                                 
 4.40923666e-08  8.57066221e-01  4.40923666e-08  8.10603012e-01  4.40923666e-08  1.73843771e+00  4.40923666e-08  1.80000000e+00  4.40923666e-08 -5.94482587e-04  4.40923666e-08  8.14434065e-01  4.40923666e-08  1.75737301e+00  4.40923666e-08  1.76930999e+00                                 
 6.20842852e-08  8.57068733e-01  6.20842852e-08  8.10609221e-01  6.20842852e-08  1.72454556e+00  6.20842852e-08  1.80000000e+00  6.20842852e-08  5.92604629e-04  6.20842852e-08  8.14570491e-01  6.20842852e-08  1.75747146e+00  6.20842852e-08  1.76845252e+00                                 
 8.53275677e-08  8.57065998e-01  8.53275677e-08  8.10602981e-01  8.53275677e-08  1.70446642e+00  8.53275677e-08  1.80000000e+00  8.53275677e-08 -5.93052403e-04  8.53275677e-08  8.14557830e-01  8.53275677e-08  1.75740665e+00  8.53275677e-08  1.76746602e+00                                 
 1.31814133e-07  8.57067670e-01  1.31814133e-07  8.10609168e-01  1.31814133e-07  1.65952179e+00  1.31814133e-07  1.80000000e+00  1.31814133e-07  5.91394556e-04  1.31814133e-07  8.14703403e-01  1.31814133e-07  1.75749957e+00  1.31814133e-07  1.76588251e+00                                 
 2.24787263e-07  8.57065333e-01  2.24787263e-07  8.10602950e-01  2.24787263e-07  1.56076054e+00  2.24787263e-07  1.80000000e+00  2.24787263e-07 -5.92680511e-04  2.24787263e-07  8.14686538e-01  2.24787263e-07  1.75741307e+00  2.24787263e-07  1.76384347e+00                                 
 4.10733523e-07  8.57067314e-01  4.10733523e-07  8.10609151e-01  4.10733523e-07  1.36273052e+00  4.10733523e-07  1.80000000e+00  4.10733523e-07  5.91153244e-04  4.10733523e-07  8.14772861e-01  4.10733523e-07  1.75746198e+00  4.10733523e-07  1.76221101e+00                                 
 7.82626043e-07  8.57065274e-01  7.82626043e-07  8.10602950e-01  7.82626043e-07  9.85425675e-01  7.82626043e-07  1.80000000e+00  7.82626043e-07 -5.92361535e-04  7.82626043e-07  8.14697442e-01  7.82626043e-07  1.75735342e+00  7.82626043e-07  1.76176667e+00                                 
 8.45252655e-07  8.57066283e-01  8.45252655e-07  8.10606049e-01  8.45252655e-07  9.28396607e-01  8.45252655e-07  1.80000000e+00  8.45252655e-07 -6.23805918e-07  8.45252655e-07  8.14733785e-01  8.45252655e-07  1.75739107e+00  8.45252655e-07  1.76178428e+00                                 
 9.70505879e-07  8.57066368e-01  9.70505879e-07  8.10606054e-01  9.70505879e-07  8.46733642e-01  9.70505879e-07  1.80000000e+00  9.70505879e-07 -5.88395596e-08  9.70505879e-07  8.14734725e-01  9.70505879e-07  1.75738671e+00  9.70505879e-07  1.76180452e+00                                 
 1.14569982e-06  8.57066214e-01  1.14569982e-06  8.10606048e-01  1.14569982e-06  8.16300036e-01  1.14569982e-06  1.80000000e+00  1.14569982e-06 -8.61244646e-08  1.14569982e-06  8.14735446e-01  1.14569982e-06  1.75737969e+00  1.14569982e-06  1.76180874e+00                                 
 1.20606598e-06  8.57066294e-01  1.20606598e-06  8.10606041e-01  1.20606598e-06  8.18000025e-01  1.20606598e-06  1.80000000e+00  1.20606598e-06  1.18680304e-07  1.20606598e-06  8.14734309e-01  1.20606598e-06  1.75737607e+00  1.20606598e-06  1.76180715e+00                                 
 1.27671728e-06  8.57066301e-01  1.27671728e-06  8.10606064e-01  1.27671728e-06  8.18623618e-01  1.27671728e-06  1.80000000e+00  1.27671728e-06 -9.59852998e-08  1.27671728e-06  8.14735053e-01  1.27671728e-06  1.75737354e+00  1.27671728e-06  1.76180470e+00                                 
 1.35909916e-06  8.57066278e-01  1.35909916e-06  8.10606033e-01  1.35909916e-06  8.18877784e-01  1.35909916e-06  1.80000000e+00  1.35909916e-06  1.09968657e-07  1.35909916e-06  8.14734348e-01  1.35909916e-06  1.75736928e+00  1.35909916e-06  1.76180150e+00                                 
 1.52386294e-06  8.57066315e-01  1.52386294e-06  8.10606070e-01  1.52386294e-06  8.18921514e-01  1.52386294e-06  1.80000000e+00  1.52386294e-06 -9.64701316e-08  1.52386294e-06  8.14734998e-01  1.52386294e-06  1.75736245e+00  1.52386294e-06  1.76179454e+00                                 
 1.84527663e-06  8.57066274e-01  1.84527663e-06  8.10606030e-01  1.84527663e-06  8.18934988e-01  1.84527663e-06  1.80000000e+00  1.84527663e-06  1.08994961e-07  1.84527663e-06  8.14734372e-01  1.84527663e-06  1.75734754e+00  1.84527663e-06  1.76178037e+00                                 
 2.33413968e-06  8.57066316e-01  2.33413968e-06  8.10606071e-01  2.33413968e-06  8.18919350e-01  2.33413968e-06  1.80000000e+00  2.33413968e-06 -9.61383686e-08  2.33413968e-06  8.14734987e-01  2.33413968e-06  1.75732617e+00  2.33413968e-06  1.76175857e+00                                 
 3.31186580e-06  8.57066274e-01  3.31186580e-06  8.10606030e-01  3.31186580e-06  8.18936476e-01  3.31186580e-06  1.80000000e+00  3.31186580e-06  1.08816570e-07  3.31186580e-06  8.14734379e-01  3.31186580e-06  1.75728198e+00  3.31186580e-06  1.76171511e+00                                 
 4.51186580e-06  8.57066317e-01  4.51186580e-06  8.10606071e-01  4.51186580e-06  8.18918703e-01  4.51186580e-06  1.80000000e+00  4.51186580e-06 -9.60374428e-08  4.51186580e-06  8.14734981e-01  4.51186580e-06  1.75722886e+00  4.51186580e-06  1.76166177e+00                                 
 5.71186580e-06  8.57066273e-01  5.71186580e-06  8.10606030e-01  5.71186580e-06  8.18936925e-01  5.71186580e-06  1.80000000e+00  5.71186580e-06  1.08730053e-07  5.71186580e-06  8.14734381e-01  5.71186580e-06  1.75717476e+00  5.71186580e-06  1.76160845e+00                                 
 6.00100000e-06  8.57066318e-01  6.00100000e-06  8.10606072e-01  6.00100000e-06  8.18918460e-01  6.00100000e-06  1.80000000e+00  6.00100000e-06 -9.58318752e-08  6.00100000e-06  8.14734975e-01  6.00100000e-06  1.75716235e+00  6.00100000e-06  1.76159560e+00                                 
 6.00110000e-06  8.57037903e-01  6.00110000e-06  8.10397295e-01  6.00110000e-06  8.16781390e-01  6.00110000e-06  1.62000000e+00  6.00110000e-06 -9.17788648e-05  6.00110000e-06  8.12787975e-01  6.00110000e-06  1.75552392e+00  6.00110000e-06  1.76157833e+00                                 
 6.00130000e-06  8.57065072e-01  6.00130000e-06  8.10468512e-01  6.00130000e-06  8.17626862e-01  6.00130000e-06  1.26000000e+00  6.00130000e-06  5.19870925e-05  6.00130000e-06  8.13216449e-01  6.00130000e-06  1.75588760e+00  6.00130000e-06  1.76160513e+00                                 
 6.00170000e-06  8.57088275e-01  6.00170000e-06  8.10535244e-01  6.00170000e-06  8.18816431e-01  6.00170000e-06  5.40000000e-01  6.00170000e-06 -2.65644597e-03  6.00170000e-06  8.12841299e-01  6.00170000e-06  1.75161645e+00  6.00170000e-06  1.76156081e+00                                 
 6.00200000e-06  8.57064770e-01  6.00200000e-06  8.08103955e-01  6.00200000e-06  8.70613778e-01  6.00200000e-06  0.00000000e+00  6.00200000e-06  1.57429997e+00  6.00200000e-06  7.79077397e-01  6.00200000e-06  1.54152968e+00  6.00200000e-06  1.76053671e+00                                 
 6.00205193e-06  8.57070419e-01  6.00205193e-06  8.08065064e-01  6.00205193e-06  8.69549277e-01  6.00205193e-06  0.00000000e+00  6.00205193e-06  1.72846943e+00  6.00205193e-06  7.77983410e-01  6.00205193e-06  1.48143178e+00  6.00205193e-06  1.76086628e+00                                 
 6.00215580e-06  8.57064633e-01  6.00215580e-06  8.08408268e-01  6.00215580e-06  8.58135609e-01  6.00215580e-06  0.00000000e+00  6.00215580e-06  1.82163468e+00  6.00215580e-06  7.81962427e-01  6.00215580e-06  1.37283654e+00  6.00215580e-06  1.76145907e+00                                 
 6.00231692e-06  8.57064920e-01  6.00231692e-06  8.09286642e-01  6.00231692e-06  8.42484479e-01  6.00231692e-06  0.00000000e+00  6.00231692e-06  1.78636120e+00  6.00231692e-06  7.93238805e-01  6.00231692e-06  1.25547428e+00  6.00231692e-06  1.76158381e+00                                 
 6.00249325e-06  8.57066127e-01  6.00249325e-06  8.09612884e-01  6.00249325e-06  8.39422058e-01  6.00249325e-06  0.00000000e+00  6.00249325e-06  1.80677544e+00  6.00249325e-06  7.97112478e-01  6.00249325e-06  1.17090325e+00  6.00249325e-06  1.76163562e+00                                 
 6.00276153e-06  8.57064286e-01  6.00276153e-06  8.09976342e-01  6.00276153e-06  8.32158772e-01  6.00276153e-06  0.00000000e+00  6.00276153e-06  1.79468923e+00  6.00276153e-06  8.01372538e-01  6.00276153e-06  1.08083747e+00  6.00276153e-06  1.76169182e+00                                 
 6.00303886e-06  8.57066646e-01  6.00303886e-06  8.10246624e-01  6.00303886e-06  8.30648273e-01  6.00303886e-06  0.00000000e+00  6.00303886e-06  1.80342030e+00  6.00303886e-06  8.04450914e-01  6.00303886e-06  1.01473764e+00  6.00303886e-06  1.76177475e+00                                 
 6.00359351e-06  8.57064591e-01  6.00359351e-06  8.10492858e-01  6.00359351e-06  8.26683573e-01  6.00359351e-06  0.00000000e+00  6.00359351e-06  1.79675977e+00  6.00359351e-06  8.06991090e-01  6.00359351e-06  9.09220209e-01  6.00359351e-06  1.76185611e+00                                 
 6.00413042e-06  8.57067161e-01  6.00413042e-06  8.10818320e-01  6.00413042e-06  8.23330478e-01  6.00413042e-06  0.00000000e+00  6.00413042e-06  1.80239121e+00  6.00413042e-06  8.11140422e-01  6.00413042e-06  8.49920360e-01  6.00413042e-06  1.76187509e+00                                 
 6.00508667e-06  8.57064975e-01  6.00508667e-06  8.11014138e-01  6.00508667e-06  8.18904132e-01  6.00508667e-06  0.00000000e+00  6.00508667e-06  1.79774712e+00  6.00508667e-06  8.14415001e-01  6.00508667e-06  8.17540039e-01  6.00508667e-06  1.76167051e+00                                 
 6.00584705e-06  8.57067432e-01  6.00584705e-06  8.11007637e-01  6.00584705e-06  8.19286189e-01  6.00584705e-06  0.00000000e+00  6.00584705e-06  1.80199992e+00  6.00584705e-06  8.15359895e-01  6.00584705e-06  8.19714062e-01  6.00584705e-06  1.76137154e+00                                 
 6.00673590e-06  8.57065108e-01  6.00673590e-06  8.10869051e-01  6.00673590e-06  8.19411933e-01  6.00673590e-06  0.00000000e+00  6.00673590e-06  1.79820103e+00  6.00673590e-06  8.14794853e-01  6.00673590e-06  8.19059872e-01  6.00673590e-06  1.76090418e+00                                 
 6.00775512e-06  8.57067468e-01  6.00775512e-06  8.10827807e-01  6.00775512e-06  8.20003519e-01  6.00775512e-06  0.00000000e+00  6.00775512e-06  1.80163499e+00  6.00775512e-06  8.15432522e-01  6.00775512e-06  8.20094147e-01  6.00775512e-06  1.76033974e+00                                 
 6.00979356e-06  8.57065135e-01  6.00979356e-06  8.10685144e-01  6.00979356e-06  8.20825994e-01  6.00979356e-06  0.00000000e+00  6.00979356e-06  1.79844093e+00  6.00979356e-06  8.14957973e-01  6.00979356e-06  8.20490422e-01  6.00979356e-06  1.75911074e+00                                 
 6.01387044e-06  8.57067456e-01  6.01387044e-06  8.10654547e-01  6.01387044e-06  8.23158056e-01  6.01387044e-06  0.00000000e+00  6.01387044e-06  1.80152245e+00  6.01387044e-06  8.15517707e-01  6.01387044e-06  8.23178259e-01  6.01387044e-06  1.75661351e+00                                 
 6.02202421e-06  8.57065134e-01  6.02202421e-06  8.10593123e-01  6.02202421e-06  8.27789880e-01  6.02202421e-06  0.00000000e+00  6.02202421e-06  1.79849613e+00  6.02202421e-06  8.14968414e-01  6.02202421e-06  8.27396830e-01  6.02202421e-06  1.75155822e+00                                 
 6.03833175e-06  8.57067454e-01  6.03833175e-06  8.10620542e-01  6.03833175e-06  8.37648925e-01  6.03833175e-06  0.00000000e+00  6.03833175e-06  1.80149550e+00  6.03833175e-06  8.15362260e-01  6.03833175e-06  8.37651407e-01  6.03833175e-06  1.74093935e+00                                 
 6.07094682e-06  8.57065136e-01  6.07094682e-06  8.10586803e-01  6.07094682e-06  8.56126686e-01  6.07094682e-06  0.00000000e+00  6.07094682e-06  1.79850934e+00  6.07094682e-06  8.14707891e-01  6.07094682e-06  8.55599192e-01  6.07094682e-06  1.71649108e+00                                 
