 time            v(vbep)         time            v(vben)         time            v(vout)         time            v(vphi1)        time            v(vphi2)        time            v(vref)         time            v(voutc)        time            v(voutcc)       yes             currtemp       
 0.00000000e+00  7.17768111e-01  0.00000000e+00  6.48650679e-01  0.00000000e+00  1.48669919e+00  0.00000000e+00  0.00000000e+00  0.00000000e+00  1.79999999e+00  0.00000000e+00  6.49192160e-01  0.00000000e+00  1.48669917e+00  0.00000000e+00  1.49437041e+00  1.00000000e+00  7.10000000e+01 
 5.00000000e-12  7.17789709e-01  5.00000000e-12  6.48705320e-01  5.00000000e-12  1.48731252e+00  5.00000000e-12  1.80000000e-02  5.00000000e-12  1.80018643e+00  5.00000000e-12  6.49582429e-01  5.00000000e-12  1.48704592e+00  5.00000000e-12  1.49438349e+00                                 
 1.00000000e-11  7.17799161e-01  1.00000000e-11  6.48741058e-01  1.00000000e-11  1.48774883e+00  1.00000000e-11  3.60000000e-02  1.00000000e-11  1.80027036e+00  1.00000000e-11  6.49888269e-01  1.00000000e-11  1.48731880e+00  1.00000000e-11  1.49439019e+00                                 
 2.00000000e-11  7.17805432e-01  2.00000000e-11  6.48790472e-01  2.00000000e-11  1.48836874e+00  2.00000000e-11  7.20000000e-02  2.00000000e-11  1.80032269e+00  2.00000000e-11  6.50366340e-01  2.00000000e-11  1.48774818e+00  2.00000000e-11  1.49439620e+00                                 
 4.00000000e-11  7.17793499e-01  4.00000000e-11  6.48825623e-01  4.00000000e-11  1.48875365e+00  4.00000000e-11  1.44000000e-01  4.00000000e-11  1.80018954e+00  4.00000000e-11  6.50824797e-01  4.00000000e-11  1.48817208e+00  4.00000000e-11  1.49438978e+00                                 
 8.00000000e-11  7.17780452e-01  8.00000000e-11  6.48830786e-01  8.00000000e-11  1.48859954e+00  8.00000000e-11  2.88000000e-01  8.00000000e-11  1.80003088e+00  8.00000000e-11  6.50970585e-01  8.00000000e-11  1.48833312e+00  8.00000000e-11  1.49437589e+00                                 
 1.60000000e-10  7.17780519e-01  1.60000000e-10  6.48816280e-01  1.60000000e-10  1.48810388e+00  1.60000000e-10  5.76000000e-01  1.60000000e-10  1.80000809e+00  1.60000000e-10  6.50780305e-01  1.60000000e-10  1.48818341e+00  1.60000000e-10  1.49437010e+00                                 
 3.20000000e-10  7.17713220e-01  3.20000000e-10  6.48372294e-01  3.20000000e-10  1.48461091e+00  3.20000000e-10  1.15200000e+00  3.20000000e-10  1.80072399e+00  3.20000000e-10  6.46953341e-01  3.20000000e-10  1.48506443e+00  3.20000000e-10  1.49434096e+00                                 
 5.00000000e-10  7.17759501e-01  5.00000000e-10  6.48892667e-01  5.00000000e-10  1.48253269e+00  5.00000000e-10  1.80000000e+00  5.00000000e-10  1.76987007e-01  5.00000000e-10  6.54674472e-01  5.00000000e-10  1.49184564e+00  5.00000000e-10  1.49444095e+00                                 
 5.21645921e-10  7.17764891e-01  5.21645921e-10  6.48914535e-01  5.21645921e-10  1.48181864e+00  5.21645921e-10  1.80000000e+00  5.21645921e-10  4.90866237e-02  5.21645921e-10  6.56412295e-01  5.21645921e-10  1.49280799e+00  5.21645921e-10  1.49442650e+00                                 
 5.64937763e-10  7.17859861e-01  5.64937763e-10  6.48967729e-01  5.64937763e-10  1.48110008e+00  5.64937763e-10  1.80000000e+00  5.64937763e-10 -1.68062511e-02  5.64937763e-10  6.58849076e-01  5.64937763e-10  1.49486392e+00  5.64937763e-10  1.49442025e+00                                 
 6.51521447e-10  7.17982752e-01  6.51521447e-10  6.48795792e-01  6.51521447e-10  1.47802460e+00  6.51521447e-10  1.80000000e+00  6.51521447e-10  1.29026396e-02  6.51521447e-10  6.58930676e-01  6.51521447e-10  1.49517203e+00  6.51521447e-10  1.49436995e+00                                 
 7.71763483e-10  7.18038576e-01  7.71763483e-10  6.48746498e-01  7.71763483e-10  1.47608283e+00  7.71763483e-10  1.80000000e+00  7.71763483e-10 -1.00788874e-02  7.71763483e-10  6.60364684e-01  7.71763483e-10  1.49625341e+00  7.71763483e-10  1.49438600e+00                                 
 9.50976999e-10  7.18107424e-01  9.50976999e-10  6.48713548e-01  9.50976999e-10  1.47464403e+00  9.50976999e-10  1.80000000e+00  9.50976999e-10  9.04523356e-03  9.50976999e-10  6.61131612e-01  9.50976999e-10  1.49708606e+00  9.50976999e-10  1.49436309e+00                                 
 1.30940403e-09  7.18059272e-01  1.30940403e-09  6.48641277e-01  1.30940403e-09  1.47238286e+00  1.30940403e-09  1.80000000e+00  1.30940403e-09 -8.25821568e-03  1.30940403e-09  6.60471434e-01  1.30940403e-09  1.49637553e+00  1.30940403e-09  1.49441097e+00                                 
 1.68527746e-09  7.17996629e-01  1.68527746e-09  6.48663725e-01  1.68527746e-09  1.47092951e+00  1.68527746e-09  1.80000000e+00  1.68527746e-09  7.81742701e-03  1.68527746e-09  6.59899041e-01  1.68527746e-09  1.49600321e+00  1.68527746e-09  1.49449051e+00                                 
 2.33709993e-09  7.17854230e-01  2.33709993e-09  6.48622486e-01  2.33709993e-09  1.46743958e+00  2.33709993e-09  1.80000000e+00  2.33709993e-09 -7.48776965e-03  2.33709993e-09  6.57914270e-01  2.33709993e-09  1.49413794e+00  2.33709993e-09  1.49467946e+00                                 
 3.12673937e-09  7.17785067e-01  3.12673937e-09  6.48653232e-01  3.12673937e-09  1.46372993e+00  3.12673937e-09  1.80000000e+00  3.12673937e-09  7.27329517e-03  3.12673937e-09  6.56463825e-01  3.12673937e-09  1.49298377e+00  3.12673937e-09  1.49490879e+00                                 
 4.39915400e-09  7.17709989e-01  4.39915400e-09  6.48616229e-01  4.39915400e-09  1.45655473e+00  4.39915400e-09  1.80000000e+00  4.39915400e-09 -7.11721419e-03  4.39915400e-09  6.53536348e-01  4.39915400e-09  1.49030394e+00  4.39915400e-09  1.49521684e+00                                 
 6.22305468e-09  7.17708864e-01  6.22305468e-09  6.48654269e-01  6.22305468e-09  1.44658702e+00  6.22305468e-09  1.80000000e+00  6.22305468e-09  7.04282089e-03  6.22305468e-09  6.51280352e-01  6.22305468e-09  1.48844896e+00  6.22305468e-09  1.49547607e+00                                 
 9.30984260e-09  7.17702791e-01  9.30984260e-09  6.48627129e-01  9.30984260e-09  1.42719662e+00  9.30984260e-09  1.80000000e+00  9.30984260e-09 -6.96015338e-03  9.30984260e-09  6.48392894e-01  9.30984260e-09  1.48581501e+00  9.30984260e-09  1.49553271e+00                                 
 1.20037918e-08  7.17739431e-01  1.20037918e-08  6.48666563e-01  1.20037918e-08  1.40943313e+00  1.20037918e-08  1.80000000e+00  1.20037918e-08  6.92749829e-03  1.20037918e-08  6.47956243e-01  1.20037918e-08  1.48554195e+00  1.20037918e-08  1.49535982e+00                                 
 1.44084710e-08  7.17736998e-01  1.44084710e-08  6.48632863e-01  1.44084710e-08  1.39207252e+00  1.44084710e-08  1.80000000e+00  1.44084710e-08 -6.82552191e-03  1.44084710e-08  6.47310551e-01  1.44084710e-08  1.48485728e+00  1.44084710e-08  1.49514507e+00                                 
 1.70310009e-08  7.17764848e-01  1.70310009e-08  6.48668693e-01  1.70310009e-08  1.37318124e+00  1.70310009e-08  1.80000000e+00  1.70310009e-08  6.79464879e-03  1.70310009e-08  6.47716363e-01  1.70310009e-08  1.48531261e+00  1.70310009e-08  1.49491111e+00                                 
 2.05127666e-08  7.17757926e-01  2.05127666e-08  6.48633490e-01  2.05127666e-08  1.34655993e+00  2.05127666e-08  1.80000000e+00  2.05127666e-08 -6.71416798e-03  2.05127666e-08  6.47484718e-01  2.05127666e-08  1.48498746e+00  2.05127666e-08  1.49462943e+00                                 
 2.49013952e-08  7.17779983e-01  2.49013952e-08  6.48668843e-01  2.49013952e-08  1.31304840e+00  2.49013952e-08  1.80000000e+00  2.49013952e-08  6.71026607e-03  2.49013952e-08  6.48190703e-01  2.49013952e-08  1.48570222e+00  2.49013952e-08  1.49435734e+00                                 
 3.06570354e-08  7.17765639e-01  3.06570354e-08  6.48633423e-01  3.06570354e-08  1.26775168e+00  3.06570354e-08  1.80000000e+00  3.06570354e-08 -6.64840805e-03  3.06570354e-08  6.48137104e-01  3.06570354e-08  1.48553695e+00  3.06570354e-08  1.49411739e+00                                 
 3.86950171e-08  7.17780848e-01  3.86950171e-08  6.48668717e-01  3.86950171e-08  1.20497749e+00  3.86950171e-08  1.80000000e+00  3.86950171e-08  6.66183706e-03  3.86950171e-08  6.48894391e-01  3.86950171e-08  1.48630268e+00  3.86950171e-08  1.49395768e+00                                 
 5.13300900e-08  7.17762282e-01  5.13300900e-08  6.48633132e-01  5.13300900e-08  1.10559024e+00  5.13300900e-08  1.80000000e+00  5.13300900e-08 -6.61537632e-03  5.13300900e-08  6.48781137e-01  5.13300900e-08  1.48609567e+00  5.13300900e-08  1.49390778e+00                                 
 7.19698446e-08  7.17776145e-01  7.19698446e-08  6.48668394e-01  7.19698446e-08  9.45660548e-01  7.19698446e-08  1.80000000e+00  7.19698446e-08  6.64148846e-03  7.19698446e-08  6.49355633e-01  7.19698446e-08  1.48671104e+00  7.19698446e-08  1.49400269e+00                                 
 1.13249354e-07  7.17760413e-01  1.13249354e-07  6.48632927e-01  1.13249354e-07  6.98717184e-01  1.13249354e-07  1.80000000e+00  1.13249354e-07 -6.60089070e-03  1.13249354e-07  6.48989433e-01  1.13249354e-07  1.48628640e+00  1.13249354e-07  1.49415321e+00                                 
 1.46603483e-07  7.17778290e-01  1.46603483e-07  6.48668662e-01  1.46603483e-07  6.40905641e-01  1.46603483e-07  1.80000000e+00  1.46603483e-07  6.63806017e-03  1.46603483e-07  6.49406117e-01  1.46603483e-07  1.48675821e+00  1.46603483e-07  1.49418809e+00                                 
 1.78280679e-07  7.17755016e-01  1.78280679e-07  6.48632470e-01  1.78280679e-07  6.50866367e-01  1.78280679e-07  1.80000000e+00  1.78280679e-07 -6.59019380e-03  1.78280679e-07  6.48984155e-01  1.78280679e-07  1.48628026e+00  1.78280679e-07  1.49418866e+00                                 
 1.93603310e-07  7.17780548e-01  1.93603310e-07  6.48668935e-01  1.93603310e-07  6.50050878e-01  1.93603310e-07  1.80000000e+00  1.93603310e-07  6.62266888e-03  1.93603310e-07  6.49398582e-01  1.93603310e-07  1.48675001e+00  1.93603310e-07  1.49419017e+00                                 
 2.14990275e-07  7.17756948e-01  2.14990275e-07  6.48632417e-01  2.14990275e-07  6.49687478e-01  2.14990275e-07  1.80000000e+00  2.14990275e-07 -6.57265399e-03  2.14990275e-07  6.48985290e-01  2.14990275e-07  1.48628010e+00  2.14990275e-07  1.49418580e+00                                 
 2.46965094e-07  7.17778698e-01  2.46965094e-07  6.48668918e-01  2.46965094e-07  6.49852854e-01  2.46965094e-07  1.80000000e+00  2.46965094e-07  6.61038873e-03  2.46965094e-07  6.49398875e-01  2.46965094e-07  1.48674839e+00  2.46965094e-07  1.49418788e+00                                 
 3.09684530e-07  7.17757783e-01  3.09684530e-07  6.48632429e-01  3.09684530e-07  6.49658398e-01  3.09684530e-07  1.80000000e+00  3.09684530e-07 -6.56520377e-03  3.09684530e-07  6.48985342e-01  3.09684530e-07  1.48627709e+00  3.09684530e-07  1.49418251e+00                                 
 4.35123401e-07  7.17778318e-01  4.35123401e-07  6.48668910e-01  4.35123401e-07  6.49856408e-01  4.35123401e-07  1.80000000e+00  4.35123401e-07  6.60661728e-03  4.35123401e-07  6.49398856e-01  4.35123401e-07  1.48674214e+00  4.35123401e-07  1.49418168e+00                                 
 6.86001144e-07  7.17757963e-01  6.86001144e-07  6.48632433e-01  6.86001144e-07  6.49654891e-01  6.86001144e-07  1.80000000e+00  6.86001144e-07 -6.56333586e-03  6.86001144e-07  6.48985351e-01  6.86001144e-07  1.48626471e+00  6.86001144e-07  1.49417012e+00                                 
 1.18775663e-06  7.17778231e-01  1.18775663e-06  6.48668908e-01  1.18775663e-06  6.49857085e-01  1.18775663e-06  1.80000000e+00  1.18775663e-06  6.60567853e-03  1.18775663e-06  6.49398851e-01  1.18775663e-06  1.48671733e+00  1.18775663e-06  1.49415692e+00                                 
 2.18775663e-06  7.17758006e-01  2.18775663e-06  6.48632434e-01  2.18775663e-06  6.49654097e-01  2.18775663e-06  1.80000000e+00  2.18775663e-06 -6.56287278e-03  2.18775663e-06  6.48985354e-01  2.18775663e-06  1.48621526e+00  2.18775663e-06  1.49412073e+00                                 
 3.18775663e-06  7.17778202e-01  3.18775663e-06  6.48668908e-01  3.18775663e-06  6.49857168e-01  3.18775663e-06  1.80000000e+00  3.18775663e-06  6.60538609e-03  3.18775663e-06  6.49398849e-01  3.18775663e-06  1.48665148e+00  3.18775663e-06  1.49409116e+00                                 
 4.18775663e-06  7.17758034e-01  4.18775663e-06  6.48632435e-01  4.18775663e-06  6.49653450e-01  4.18775663e-06  1.80000000e+00  4.18775663e-06 -6.56271526e-03  4.18775663e-06  6.48985355e-01  4.18775663e-06  1.48614940e+00  4.18775663e-06  1.49405496e+00                                 
 5.18775663e-06  7.17778174e-01  5.18775663e-06  6.48668907e-01  5.18775663e-06  6.49857406e-01  5.18775663e-06  1.80000000e+00  5.18775663e-06  6.60507212e-03  5.18775663e-06  6.49398848e-01  5.18775663e-06  1.48658559e+00  5.18775663e-06  1.49402536e+00                                 
 6.18775663e-06  7.17758062e-01  6.18775663e-06  6.48632435e-01  6.18775663e-06  6.49652961e-01  6.18775663e-06  1.80000000e+00  6.18775663e-06 -6.56240454e-03  6.18775663e-06  6.48985357e-01  6.18775663e-06  1.48608350e+00  6.18775663e-06  1.49398914e+00                                 
 7.18775663e-06  7.17778146e-01  7.18775663e-06  6.48668906e-01  7.18775663e-06  6.49857638e-01  7.18775663e-06  1.80000000e+00  7.18775663e-06  6.60475816e-03  7.18775663e-06  6.49398846e-01  7.18775663e-06  1.48651968e+00  7.18775663e-06  1.49395954e+00                                 
 8.18775663e-06  7.17758090e-01  8.18775663e-06  6.48632436e-01  8.18775663e-06  6.49652481e-01  8.18775663e-06  1.80000000e+00  8.18775663e-06 -6.56209384e-03  8.18775663e-06  6.48985359e-01  8.18775663e-06  1.48601765e+00  8.18775663e-06  1.49392337e+00                                 
 9.18775663e-06  7.17778118e-01  9.18775663e-06  6.48668906e-01  9.18775663e-06  6.49857865e-01  9.18775663e-06  1.80000000e+00  9.18775663e-06  6.60444421e-03  9.18775663e-06  6.49398845e-01  9.18775663e-06  1.48645387e+00  9.18775663e-06  1.49389382e+00                                 
 1.00005000e-05  7.17758121e-01  1.00005000e-05  6.48632437e-01  1.00005000e-05  6.49651947e-01  1.00005000e-05  1.80000000e+00  1.00005000e-05 -6.56175904e-03  1.00005000e-05  6.48985360e-01  1.00005000e-05  1.48595799e+00  1.00005000e-05  1.49386378e+00                                 
 1.00005500e-05  7.17727177e-01  1.00005500e-05  6.48459181e-01  1.00005500e-05  6.48092943e-01  1.00005500e-05  1.62000000e+00  1.00005500e-05 -7.73577284e-04  1.00005500e-05  6.47696697e-01  1.00005500e-05  1.48487554e+00  1.00005500e-05  1.49385064e+00                                 
 1.00006500e-05  7.17753998e-01  1.00006500e-05  6.48430793e-01  1.00006500e-05  6.47987129e-01  1.00006500e-05  1.26000000e+00  1.00006500e-05  5.55683625e-04  1.00006500e-05  6.47279999e-01  1.00006500e-05  1.48452152e+00  1.00006500e-05  1.49386539e+00                                 
 1.00008500e-05  7.17805314e-01  1.00008500e-05  6.48603071e-01  1.00008500e-05  6.50093382e-01  1.00008500e-05  5.40000000e-01  1.00008500e-05  7.82563121e-03  1.00008500e-05  6.47807427e-01  1.00008500e-05  1.48307251e+00  1.00008500e-05  1.49385445e+00                                 
 1.00010000e-05  7.17750489e-01  1.00010000e-05  6.47915265e-01  1.00010000e-05  6.70825983e-01  1.00010000e-05  0.00000000e+00  1.00010000e-05  1.53276761e+00  1.00010000e-05  6.40139082e-01  1.00010000e-05  1.42749638e+00  1.00010000e-05  1.49339080e+00                                 
 1.00010250e-05  7.17767985e-01  1.00010250e-05  6.47532764e-01  1.00010250e-05  6.76653517e-01  1.00010250e-05  0.00000000e+00  1.00010250e-05  1.69763539e+00  1.00010250e-05  6.35507952e-01  1.00010250e-05  1.39941186e+00  1.00010250e-05  1.49318110e+00                                 
 1.00010751e-05  7.17770559e-01  1.00010751e-05  6.46822765e-01  1.00010751e-05  6.82400573e-01  1.00010751e-05  0.00000000e+00  1.00010751e-05  1.81975972e+00  1.00010751e-05  6.26914303e-01  1.00010751e-05  1.33721501e+00  1.00010751e-05  1.49302366e+00                                 
 1.00011753e-05  7.17764258e-01  1.00011753e-05  6.46673237e-01  1.00011753e-05  6.77603322e-01  1.00011753e-05  0.00000000e+00  1.00011753e-05  1.78750418e+00  1.00011753e-05  6.25344562e-01  1.00011753e-05  1.22853921e+00  1.00011753e-05  1.49358374e+00                                 
 1.00013035e-05  7.17769595e-01  1.00013035e-05  6.46953067e-01  1.00013035e-05  6.74477516e-01  1.00013035e-05  0.00000000e+00  1.00013035e-05  1.80663977e+00  1.00013035e-05  6.29233085e-01  1.00013035e-05  1.12033628e+00  1.00013035e-05  1.49396170e+00                                 
 1.00015235e-05  7.17764194e-01  1.00015235e-05  6.47100280e-01  1.00015235e-05  6.70829749e-01  1.00015235e-05  0.00000000e+00  1.00015235e-05  1.79407831e+00  1.00015235e-05  6.29991810e-01  1.00015235e-05  9.65340182e-01  1.00015235e-05  1.49417738e+00                                 
 1.00018054e-05  7.17769264e-01  1.00018054e-05  6.47684938e-01  1.00018054e-05  6.65296008e-01  1.00018054e-05  0.00000000e+00  1.00018054e-05  1.80418466e+00  1.00018054e-05  6.35610042e-01  1.00018054e-05  8.24932290e-01  1.00018054e-05  1.49405408e+00                                 
 1.00022241e-05  7.17765074e-01  1.00022241e-05  6.48378842e-01  1.00022241e-05  6.57593525e-01  1.00022241e-05  0.00000000e+00  1.00022241e-05  1.79591824e+00  1.00022241e-05  6.41852056e-01  1.00022241e-05  7.03883045e-01  1.00022241e-05  1.49324972e+00                                 
 1.00026662e-05  7.17769600e-01  1.00026662e-05  6.49006812e-01  1.00026662e-05  6.52158375e-01  1.00026662e-05  0.00000000e+00  1.00026662e-05  1.80343393e+00  1.00026662e-05  6.48412377e-01  1.00026662e-05  6.63403938e-01  1.00026662e-05  1.49149298e+00                                 
 1.00030573e-05  7.17765736e-01  1.00030573e-05  6.49056406e-01  1.00030573e-05  6.52557284e-01  1.00030573e-05  0.00000000e+00  1.00030573e-05  1.79704054e+00  1.00030573e-05  6.48857648e-01  1.00030573e-05  6.53865814e-01  1.00030573e-05  1.48939161e+00                                 
 1.00035077e-05  7.17769628e-01  1.00035077e-05  6.49156277e-01  1.00035077e-05  6.52452218e-01  1.00035077e-05  0.00000000e+00  1.00035077e-05  1.80259452e+00  1.00035077e-05  6.50645027e-01  1.00035077e-05  6.53415265e-01  1.00035077e-05  1.48666151e+00                                 
 1.00040818e-05  7.17766172e-01  1.00040818e-05  6.49034625e-01  1.00040818e-05  6.54805274e-01  1.00040818e-05  0.00000000e+00  1.00040818e-05  1.79767181e+00  1.00040818e-05  6.49961141e-01  1.00040818e-05  6.53366950e-01  1.00040818e-05  1.48295817e+00                                 
 1.00051402e-05  7.17769701e-01  1.00051402e-05  6.49002103e-01  1.00051402e-05  6.57285339e-01  1.00051402e-05  0.00000000e+00  1.00051402e-05  1.80220512e+00  1.00051402e-05  6.50958179e-01  1.00051402e-05  6.57315810e-01  1.00051402e-05  1.47578891e+00                                 
 1.00069770e-05  7.17766423e-01  1.00069770e-05  6.48791052e-01  1.00069770e-05  6.63736297e-01  1.00069770e-05  0.00000000e+00  1.00069770e-05  1.79787344e+00  1.00069770e-05  6.50060636e-01  1.00069770e-05  6.62143787e-01  1.00069770e-05  1.46280395e+00                                 
 1.00106506e-05  7.17769761e-01  1.00106506e-05  6.48707704e-01  1.00106506e-05  6.74322302e-01  1.00106506e-05  0.00000000e+00  1.00106506e-05  1.80209819e+00  1.00106506e-05  6.50659016e-01  1.00106506e-05  6.74275285e-01  1.00106506e-05  1.43583992e+00                                 
 1.00179978e-05  7.17766469e-01  1.00179978e-05  6.48593804e-01  1.00179978e-05  6.97002349e-01  1.00179978e-05  0.00000000e+00  1.00179978e-05  1.79792547e+00  1.00179978e-05  6.49443466e-01  1.00179978e-05  6.95247616e-01  1.00179978e-05  1.38013519e+00                                 
