 time            v(vbep)         time            v(vben)         time            v(vout)         time            v(vphi1)        time            v(vphi2)        time            v(vref)         time            v(voutc)        time            v(voutcc)       yes             currtemp       
 0.00000000e+00  7.82588327e-01  0.00000000e+00  7.25542964e-01  0.00000000e+00  1.62210535e+00  0.00000000e+00  0.00000000e+00  0.00000000e+00  1.80000000e+00  0.00000000e+00  7.28231800e-01  0.00000000e+00  1.62210535e+00  0.00000000e+00  1.62827036e+00  1.00000000e+00  2.10000000e+01 
 1.00000000e-11  7.82612943e-01  1.00000000e-11  7.25614003e-01  1.00000000e-11  1.62289504e+00  1.00000000e-11  1.80000000e-02  1.00000000e-11  1.80024902e+00  1.00000000e-11  7.28759444e-01  1.00000000e-11  1.62257263e+00  1.00000000e-11  1.62828060e+00                                 
 2.00000000e-11  7.82619678e-01  2.00000000e-11  7.25658684e-01  2.00000000e-11  1.62339253e+00  2.00000000e-11  3.60000000e-02  2.00000000e-11  1.80034917e+00  2.00000000e-11  7.29152772e-01  2.00000000e-11  1.62292930e+00  2.00000000e-11  1.62828394e+00                                 
 4.00000000e-11  7.82619515e-01  4.00000000e-11  7.25717555e-01  4.00000000e-11  1.62400783e+00  4.00000000e-11  7.20000000e-02  4.00000000e-11  1.80038952e+00  4.00000000e-11  7.29728841e-01  4.00000000e-11  1.62346517e+00  4.00000000e-11  1.62828363e+00                                 
 8.00000000e-11  7.82607528e-01  8.00000000e-11  7.25754949e-01  8.00000000e-11  1.62417719e+00  8.00000000e-11  1.44000000e-01  8.00000000e-11  1.80018844e+00  8.00000000e-11  7.30174500e-01  8.00000000e-11  1.62391590e+00  8.00000000e-11  1.62827232e+00                                 
 1.60000000e-10  7.82604415e-01  1.60000000e-10  7.25763857e-01  1.60000000e-10  1.62385787e+00  1.60000000e-10  2.88000000e-01  1.60000000e-10  1.80000466e+00  1.60000000e-10  7.30233364e-01  1.60000000e-10  1.62399039e+00  1.60000000e-10  1.62826225e+00                                 
 3.20000000e-10  7.82601030e-01  3.20000000e-10  7.25766401e-01  3.20000000e-10  1.62351062e+00  3.20000000e-10  5.76000000e-01  3.20000000e-10  1.79999943e+00  3.20000000e-10  7.30128468e-01  3.20000000e-10  1.62376013e+00  3.20000000e-10  1.62825890e+00                                 
 6.40000000e-10  7.82521448e-01  6.40000000e-10  7.25445397e-01  6.40000000e-10  1.62031813e+00  6.40000000e-10  1.15200000e+00  6.40000000e-10  1.81255373e+00  6.40000000e-10  7.28534521e-01  6.40000000e-10  1.62880070e+00  6.40000000e-10  1.62828839e+00                                 
 1.00000000e-09  7.83134311e-01  1.00000000e-09  7.25608147e-01  1.00000000e-09  1.59282960e+00  1.00000000e-09  1.80000000e+00  1.00000000e-09  8.60746789e-02  1.00000000e-09  7.36048889e-01  1.00000000e-09  1.62496486e+00  1.00000000e-09  1.62822202e+00                                 
 1.03609113e-09  7.83129931e-01  1.03609113e-09  7.25653424e-01  1.03609113e-09  1.59249062e+00  1.03609113e-09  1.80000000e+00  1.03609113e-09  1.86059550e-02  1.03609113e-09  7.38700797e-01  1.03609113e-09  1.62637736e+00  1.03609113e-09  1.62826853e+00                                 
 1.10827338e-09  7.83187468e-01  1.10827338e-09  7.25727384e-01  1.10827338e-09  1.59279471e+00  1.10827338e-09  1.80000000e+00  1.10827338e-09 -8.93966825e-03  1.10827338e-09  7.42127890e-01  1.10827338e-09  1.62904452e+00  1.10827338e-09  1.62830277e+00                                 
 1.25263788e-09  7.83337305e-01  1.25263788e-09  7.25600608e-01  1.25263788e-09  1.59074928e+00  1.25263788e-09  1.80000000e+00  1.25263788e-09  7.82628630e-03  1.25263788e-09  7.42389956e-01  1.25263788e-09  1.62949358e+00  1.25263788e-09  1.62825835e+00                                 
 1.51679452e-09  7.83357090e-01  1.51679452e-09  7.25571627e-01  1.51679452e-09  1.58856949e+00  1.51679452e-09  1.80000000e+00  1.51679452e-09 -6.34904743e-03  1.51679452e-09  7.42167621e-01  1.51679452e-09  1.62910434e+00  1.51679452e-09  1.62829182e+00                                 
 1.75930540e-09  7.83252914e-01  1.75930540e-09  7.25566445e-01  1.75930540e-09  1.58878850e+00  1.75930540e-09  1.80000000e+00  1.75930540e-09  5.52752493e-03  1.75930540e-09  7.41078255e-01  1.75930540e-09  1.62835306e+00  1.75930540e-09  1.62828393e+00                                 
 2.13020659e-09  7.82998848e-01  2.13020659e-09  7.25530282e-01  2.13020659e-09  1.58967240e+00  2.13020659e-09  1.80000000e+00  2.13020659e-09 -5.04727916e-03  2.13020659e-09  7.39582998e-01  2.13020659e-09  1.62692430e+00  2.13020659e-09  1.62833722e+00                                 
 2.46719630e-09  7.82832031e-01  2.46719630e-09  7.25539489e-01  2.46719630e-09  1.59080276e+00  2.46719630e-09  1.80000000e+00  2.46719630e-09  4.46354689e-03  2.46719630e-09  7.38435011e-01  2.46719630e-09  1.62608935e+00  2.46719630e-09  1.62836268e+00                                 
 3.14117572e-09  7.82605503e-01  3.14117572e-09  7.25504065e-01  3.14117572e-09  1.59170254e+00  3.14117572e-09  1.80000000e+00  3.14117572e-09 -4.30557427e-03  3.14117572e-09  7.35989053e-01  3.14117572e-09  1.62387401e+00  3.14117572e-09  1.62844722e+00                                 
 4.26988155e-09  7.82495907e-01  4.26988155e-09  7.25525394e-01  4.26988155e-09  1.59245905e+00  4.26988155e-09  1.80000000e+00  4.26988155e-09  4.09769523e-03  4.26988155e-09  7.33074724e-01  4.26988155e-09  1.62151977e+00  4.26988155e-09  1.62853227e+00                                 
 6.52729323e-09  7.82474207e-01  6.52729323e-09  7.25514899e-01  6.52729323e-09  1.59031077e+00  6.52729323e-09  1.80000000e+00  6.52729323e-09 -4.09617601e-03  6.52729323e-09  7.29109407e-01  6.52729323e-09  1.61802231e+00  6.52729323e-09  1.62856059e+00                                 
 8.36324103e-09  7.82466598e-01  8.36324103e-09  7.25549011e-01  8.36324103e-09  1.58917255e+00  8.36324103e-09  1.80000000e+00  8.36324103e-09  3.98297227e-03  8.36324103e-09  7.27882761e-01  8.36324103e-09  1.61710251e+00  8.36324103e-09  1.62842862e+00                                 
 1.00833690e-08  7.82465763e-01  1.00833690e-08  7.25527754e-01  1.00833690e-08  1.58717438e+00  1.00833690e-08  1.80000000e+00  1.00833690e-08 -3.91712692e-03  1.00833690e-08  7.27064902e-01  1.00833690e-08  1.61628484e+00  1.00833690e-08  1.62824701e+00                                 
 1.19396204e-08  7.82496117e-01  1.19396204e-08  7.25554070e-01  1.19396204e-08  1.58453319e+00  1.19396204e-08  1.80000000e+00  1.19396204e-08  3.83834587e-03  1.19396204e-08  7.26974182e-01  1.19396204e-08  1.61632123e+00  1.19396204e-08  1.62800469e+00                                 
 1.45584550e-08  7.82530419e-01  1.45584550e-08  7.25529761e-01  1.45584550e-08  1.57815179e+00  1.45584550e-08  1.80000000e+00  1.45584550e-08 -3.78687199e-03  1.45584550e-08  7.26692428e-01  1.45584550e-08  1.61595428e+00  1.45584550e-08  1.62766079e+00                                 
 1.77448595e-08  7.82569220e-01  1.77448595e-08  7.25555171e-01  1.77448595e-08  1.56905639e+00  1.77448595e-08  1.80000000e+00  1.77448595e-08  3.74939118e-03  1.77448595e-08  7.26999353e-01  1.77448595e-08  1.61631490e+00  1.77448595e-08  1.62724705e+00                                 
 2.21758893e-08  7.82587183e-01  2.21758893e-08  7.25530582e-01  2.21758893e-08  1.55393681e+00  2.21758893e-08  1.80000000e+00  2.21758893e-08 -3.71463555e-03  2.21758893e-08  7.27018799e-01  2.21758893e-08  1.61619558e+00  2.21758893e-08  1.62673932e+00                                 
 2.81562899e-08  7.82598427e-01  2.81562899e-08  7.25555759e-01  2.81562899e-08  1.53303617e+00  2.81562899e-08  1.80000000e+00  2.81562899e-08  3.69881879e-03  2.81562899e-08  7.27500398e-01  2.81562899e-08  1.61669470e+00  2.81562899e-08  1.62615267e+00                                 
 3.83251665e-08  7.82592283e-01  3.83251665e-08  7.25530592e-01  3.83251665e-08  1.49590811e+00  3.83251665e-08  1.80000000e+00  3.83251665e-08 -3.68041875e-03  3.83251665e-08  7.27622937e-01  3.83251665e-08  1.61665727e+00  3.83251665e-08  1.62539672e+00                                 
 5.34120428e-08  7.82593451e-01  5.34120428e-08  7.25555517e-01  5.34120428e-08  1.44110435e+00  5.34120428e-08  1.80000000e+00  5.34120428e-08  3.67748107e-03  5.34120428e-08  7.28100221e-01  5.34120428e-08  1.61715242e+00  5.34120428e-08  1.62464309e+00                                 
 8.35857954e-08  7.82586988e-01  8.35857954e-08  7.25530433e-01  8.35857954e-08  1.33056561e+00  8.35857954e-08  1.80000000e+00  8.35857954e-08 -3.66773992e-03  8.35857954e-08  7.28090909e-01  8.35857954e-08  1.61701192e+00  8.35857954e-08  1.62387246e+00                                 
 1.34422204e-07  7.82590390e-01  1.34422204e-07  7.25555484e-01  1.34422204e-07  1.14661641e+00  1.34422204e-07  1.80000000e+00  1.34422204e-07  3.67086719e-03  1.34422204e-07  7.28339402e-01  1.34422204e-07  1.61732674e+00  1.34422204e-07  1.62345318e+00                                 
 2.04587763e-07  7.82586198e-01  2.04587763e-07  7.25530422e-01  2.04587763e-07  9.00849057e-01  2.04587763e-07  1.80000000e+00  2.04587763e-07 -3.66268888e-03  2.04587763e-07  7.28125782e-01  2.04587763e-07  1.61702740e+00  2.04587763e-07  1.62335840e+00                                 
 2.77591684e-07  7.82590897e-01  2.77591684e-07  7.25555507e-01  2.77591684e-07  7.46806110e-01  2.77591684e-07  1.80000000e+00  2.77591684e-07  3.67067865e-03  2.77591684e-07  7.28336086e-01  2.77591684e-07  1.61731556e+00  2.77591684e-07  1.62334344e+00                                 
 3.35176531e-07  7.82585639e-01  3.35176531e-07  7.25530457e-01  3.35176531e-07  7.28246809e-01  3.35176531e-07  1.80000000e+00  3.35176531e-07 -3.65623269e-03  3.35176531e-07  7.28130740e-01  3.35176531e-07  1.61702617e+00  3.35176531e-07  1.62334614e+00                                 
 3.75263397e-07  7.82590258e-01  3.75263397e-07  7.25555365e-01  3.75263397e-07  7.31296677e-01  3.75263397e-07  1.80000000e+00  3.75263397e-07  3.66584773e-03  3.75263397e-07  7.28333721e-01  3.75263397e-07  1.61730976e+00  3.75263397e-07  1.62334064e+00                                 
 4.21365025e-07  7.82586625e-01  4.21365025e-07  7.25530599e-01  4.21365025e-07  7.30697969e-01  4.21365025e-07  1.80000000e+00  4.21365025e-07 -3.65055962e-03  4.21365025e-07  7.28129270e-01  4.21365025e-07  1.61702167e+00  4.21365025e-07  1.62334168e+00                                 
 4.67999680e-07  7.82589928e-01  4.67999680e-07  7.25555297e-01  4.67999680e-07  7.31198775e-01  4.67999680e-07  1.80000000e+00  4.67999680e-07  3.66052401e-03  4.67999680e-07  7.28334615e-01  4.67999680e-07  1.61730688e+00  4.67999680e-07  1.62333651e+00                                 
 5.47794422e-07  7.82586755e-01  5.47794422e-07  7.25530630e-01  5.47794422e-07  7.30751220e-01  5.47794422e-07  1.80000000e+00  5.47794422e-07 -3.64638706e-03  5.47794422e-07  7.28128800e-01  5.47794422e-07  1.61701652e+00  5.47794422e-07  1.62333680e+00                                 
 6.68671056e-07  7.82589889e-01  6.68671056e-07  7.25555286e-01  6.68671056e-07  7.31174768e-01  6.68671056e-07  1.80000000e+00  6.68671056e-07  3.65796129e-03  6.68671056e-07  7.28334849e-01  6.68671056e-07  1.61729938e+00  6.68671056e-07  1.62332883e+00                                 
 8.56115124e-07  7.82586769e-01  8.56115124e-07  7.25530635e-01  8.56115124e-07  7.30764905e-01  8.56115124e-07  1.80000000e+00  8.56115124e-07 -3.64473094e-03  8.56115124e-07  7.28128661e-01  8.56115124e-07  1.61700467e+00  8.56115124e-07  1.62332507e+00                                 
 1.19027147e-06  7.82589884e-01  1.19027147e-06  7.25555283e-01  1.19027147e-06  7.31166966e-01  1.19027147e-06  1.80000000e+00  1.19027147e-06  3.65693598e-03  1.19027147e-06  7.28334929e-01  1.19027147e-06  1.61727952e+00  1.19027147e-06  1.62330895e+00                                 
 1.72739263e-06  7.82586770e-01  1.72739263e-06  7.25530636e-01  1.72739263e-06  7.30769208e-01  1.72739263e-06  1.80000000e+00  1.72739263e-06 -3.64413636e-03  1.72739263e-06  7.28128616e-01  1.72739263e-06  1.61697135e+00  1.72739263e-06  1.62329184e+00                                 
 2.67264758e-06  7.82589884e-01  2.67264758e-06  7.25555282e-01  2.67264758e-06  7.31164430e-01  2.67264758e-06  1.80000000e+00  2.67264758e-06  3.65657693e-03  2.67264758e-06  7.28334954e-01  2.67264758e-06  1.61722291e+00  2.67264758e-06  1.62325240e+00                                 
 3.87264758e-06  7.82586770e-01  3.87264758e-06  7.25530637e-01  3.87264758e-06  7.30770813e-01  3.87264758e-06  1.80000000e+00  3.87264758e-06 -3.64391540e-03  3.87264758e-06  7.28128601e-01  3.87264758e-06  1.61688949e+00  3.87264758e-06  1.62321012e+00                                 
 5.07264758e-06  7.82589884e-01  5.07264758e-06  7.25555282e-01  5.07264758e-06  7.31163026e-01  5.07264758e-06  1.80000000e+00  5.07264758e-06  3.65637331e-03  5.07264758e-06  7.28334969e-01  5.07264758e-06  1.61713139e+00  5.07264758e-06  1.62316103e+00                                 
 6.00100000e-06  7.82586771e-01  6.00100000e-06  7.25530637e-01  6.00100000e-06  7.30772392e-01  6.00100000e-06  1.80000000e+00  6.00100000e-06 -3.64369032e-03  6.00100000e-06  7.28128584e-01  6.00100000e-06  1.61680828e+00  6.00100000e-06  1.62312906e+00                                 
 6.00110000e-06  7.82547977e-01  6.00110000e-06  7.25301944e-01  6.00110000e-06  7.28993237e-01  6.00110000e-06  1.62000000e+00  6.00110000e-06 -3.77206327e-04  6.00110000e-06  7.26554347e-01  6.00110000e-06  1.61551967e+00  6.00110000e-06  1.62311649e+00                                 
 6.00130000e-06  7.82580620e-01  6.00130000e-06  7.25321763e-01  6.00130000e-06  7.29442550e-01  6.00130000e-06  1.26000000e+00  6.00130000e-06  2.62934021e-04  6.00130000e-06  7.26584595e-01  6.00130000e-06  1.61555534e+00  6.00130000e-06  1.62313286e+00                                 
 6.00170000e-06  7.82628367e-01  6.00170000e-06  7.25078472e-01  6.00170000e-06  7.43547224e-01  6.00170000e-06  5.40000000e-01  6.00170000e-06  1.42375144e+00  6.00170000e-06  7.22238942e-01  6.00170000e-06  1.55823812e+00  6.00170000e-06  1.62288937e+00                                 
 6.00200000e-06  7.82575218e-01  6.00200000e-06  7.22674730e-01  6.00200000e-06  7.75218034e-01  6.00200000e-06  0.00000000e+00  6.00200000e-06  1.85420522e+00  6.00200000e-06  6.96414755e-01  6.00200000e-06  1.25067058e+00  6.00200000e-06  1.62253259e+00                                 
 6.00203836e-06  7.82586607e-01  6.00203836e-06  7.22680038e-01  6.00203836e-06  7.70866083e-01  6.00203836e-06  0.00000000e+00  6.00203836e-06  1.82002231e+00  6.00203836e-06  6.96751523e-01  6.00203836e-06  1.20405502e+00  6.00203836e-06  1.62292482e+00                                 
 6.00211509e-06  7.82590482e-01  6.00211509e-06  7.22856863e-01  6.00211509e-06  7.63581844e-01  6.00211509e-06  0.00000000e+00  6.00211509e-06  1.79346652e+00  6.00211509e-06  6.99437429e-01  6.00211509e-06  1.12526149e+00  6.00211509e-06  1.62329718e+00                                 
 6.00226854e-06  7.82586709e-01  6.00226854e-06  7.23164579e-01  6.00226854e-06  7.58648535e-01  6.00226854e-06  0.00000000e+00  6.00226854e-06  1.80189036e+00  6.00226854e-06  7.03501429e-01  6.00226854e-06  1.00582026e+00  6.00226854e-06  1.62325809e+00                                 
 6.00246877e-06  7.82588331e-01  6.00246877e-06  7.23545909e-01  6.00246877e-06  7.53436712e-01  6.00246877e-06  0.00000000e+00  6.00246877e-06  1.79786954e+00  6.00246877e-06  7.07175526e-01  6.00246877e-06  8.85715028e-01  6.00246877e-06  1.62340026e+00                                 
 6.00268972e-06  7.82586525e-01  6.00268972e-06  7.24335563e-01  6.00268972e-06  7.45052588e-01  6.00268972e-06  0.00000000e+00  6.00268972e-06  1.80047148e+00  6.00268972e-06  7.14821380e-01  6.00268972e-06  8.01683371e-01  6.00268972e-06  1.62339611e+00                                 
 6.00313163e-06  7.82588173e-01  6.00313163e-06  7.25553147e-01  6.00313163e-06  7.33788401e-01  6.00313163e-06  0.00000000e+00  6.00313163e-06  1.79937192e+00  6.00313163e-06  7.25166628e-01  6.00313163e-06  7.37843820e-01  6.00313163e-06  1.62325368e+00                                 
 6.00345034e-06  7.82587078e-01  6.00345034e-06  7.25967881e-01  6.00345034e-06  7.31705073e-01  6.00345034e-06  0.00000000e+00  6.00345034e-06  1.80052658e+00  6.00345034e-06  7.28052656e-01  6.00345034e-06  7.33821473e-01  6.00345034e-06  1.62276590e+00                                 
 6.00382895e-06  7.82588517e-01  6.00382895e-06  7.26073999e-01  6.00382895e-06  7.31992115e-01  6.00382895e-06  0.00000000e+00  6.00382895e-06  1.79964005e+00  6.00382895e-06  7.28519391e-01  6.00382895e-06  7.31786183e-01  6.00382895e-06  1.62198307e+00                                 
 6.00421386e-06  7.82587589e-01  6.00421386e-06  7.26108909e-01  6.00421386e-06  7.32009017e-01  6.00421386e-06  0.00000000e+00  6.00421386e-06  1.80027853e+00  6.00421386e-06  7.29143734e-01  6.00421386e-06  7.32258111e-01  6.00421386e-06  1.62097140e+00                                 
 6.00498368e-06  7.82588770e-01  6.00498368e-06  7.26024097e-01  6.00498368e-06  7.33708115e-01  6.00498368e-06  0.00000000e+00  6.00498368e-06  1.79978406e+00  6.00498368e-06  7.29110469e-01  6.00498368e-06  7.33121179e-01  6.00498368e-06  1.61879529e+00                                 
 6.00652331e-06  7.82587856e-01  6.00652331e-06  7.25903536e-01  6.00652331e-06  7.36346663e-01  6.00652331e-06  0.00000000e+00  6.00652331e-06  1.80021499e+00  6.00652331e-06  7.29513950e-01  6.00652331e-06  7.36377105e-01  6.00652331e-06  1.61400958e+00                                 
 6.00960259e-06  7.82588802e-01  6.00960259e-06  7.25696380e-01  6.00960259e-06  7.43265684e-01  6.00960259e-06  0.00000000e+00  6.00960259e-06  1.79981231e+00  6.00960259e-06  7.29253724e-01  6.00960259e-06  7.42587789e-01  6.00960259e-06  1.60416423e+00                                 
 6.01576114e-06  7.82587844e-01  6.01576114e-06  7.25548189e-01  6.01576114e-06  7.56129957e-01  6.01576114e-06  0.00000000e+00  6.01576114e-06  1.80020079e+00  6.01576114e-06  7.29227020e-01  6.01576114e-06  7.56120487e-01  6.01576114e-06  1.58460285e+00                                 
 6.02807824e-06  7.82588802e-01  6.02807824e-06  7.25513095e-01  6.02807824e-06  7.82006636e-01  6.02807824e-06  0.00000000e+00  6.02807824e-06  1.79981836e+00  6.02807824e-06  7.28592696e-01  6.02807824e-06  7.81199541e-01  6.02807824e-06  1.54688881e+00                                 
 6.05271244e-06  7.82587850e-01  6.05271244e-06  7.25554153e-01  6.05271244e-06  8.28487801e-01  6.05271244e-06  0.00000000e+00  6.05271244e-06  1.80019615e+00  6.05271244e-06  7.28459043e-01  6.05271244e-06  8.28552698e-01  6.05271244e-06  1.47628826e+00                                 
 6.10198084e-06  7.82588804e-01  6.10198084e-06  7.25529808e-01  6.10198084e-06  9.08141959e-01  6.10198084e-06  0.00000000e+00  6.10198084e-06  1.79981707e+00  6.10198084e-06  7.28093992e-01  6.10198084e-06  9.06114027e-01  6.10198084e-06  1.34901597e+00                                 
 6.20051763e-06  7.82587851e-01  6.20051763e-06  7.25556000e-01  6.20051763e-06  1.02138708e+00  6.20051763e-06  0.00000000e+00  6.20051763e-06  1.80019093e+00  6.20051763e-06  7.28347416e-01  6.20051763e-06  1.02244113e+00  6.20051763e-06  1.13457500e+00                                 
 6.30700742e-06  7.82588804e-01  6.30700742e-06  7.25530128e-01  6.30700742e-06  1.09690754e+00  6.30700742e-06  0.00000000e+00  6.30700742e-06  1.79981338e+00  6.30700742e-06  7.28106517e-01  6.30700742e-06  1.09496246e+00  6.30700742e-06  1.07135040e+00                                 
 6.41742348e-06  7.82587851e-01  6.41742348e-06  7.25555633e-01  6.41742348e-06  1.14267126e+00  6.41742348e-06  0.00000000e+00  6.41742348e-06  1.80018848e+00  6.41742348e-06  7.28351263e-01  6.41742348e-06  1.14367448e+00  6.41742348e-06  1.13548984e+00                                 
