 time            v(vbep)         time            v(vben)         time            v(vout)         time            v(vphi1)        time            v(vphi2)        time            v(vref)         yes             currtemp       
 0.00000000e+00  7.91438903e-01  0.00000000e+00  7.46267599e-01  0.00000000e+00  1.07568841e+00  0.00000000e+00  0.00000000e+00  0.00000000e+00  1.79993989e+00  0.00000000e+00  5.00000000e-01  1.00000000e+00 -2.60000000e+01 
 5.00000000e-12  7.91404957e-01  5.00000000e-12  7.46239662e-01  5.00000000e-12  1.07640729e+00  5.00000000e-12  1.80000000e-02  5.00000000e-12  1.80003960e+00  5.00000000e-12  5.00000000e-01                                 
 1.00000000e-11  7.91372381e-01  1.00000000e-11  7.46212610e-01  1.00000000e-11  1.07705221e+00  1.00000000e-11  3.60000000e-02  1.00000000e-11  1.80009238e+00  1.00000000e-11  5.00000000e-01                                 
 2.00000000e-11  7.91308153e-01  2.00000000e-11  7.46158775e-01  2.00000000e-11  1.07822731e+00  2.00000000e-11  7.20000000e-02  2.00000000e-11  1.80014394e+00  2.00000000e-11  5.00000000e-01                                 
 4.00000000e-11  7.91181304e-01  4.00000000e-11  7.46051657e-01  4.00000000e-11  1.08004438e+00  4.00000000e-11  1.44000000e-01  4.00000000e-11  1.80012293e+00  4.00000000e-11  5.00000000e-01                                 
 8.00000000e-11  7.90929244e-01  8.00000000e-11  7.45838732e-01  8.00000000e-11  1.08228651e+00  8.00000000e-11  2.88000000e-01  8.00000000e-11  1.80005862e+00  8.00000000e-11  5.00000000e-01                                 
 1.60000000e-10  7.90432418e-01  1.60000000e-10  7.45418137e-01  1.60000000e-10  1.08408991e+00  1.60000000e-10  5.76000000e-01  1.60000000e-10  1.80000521e+00  1.60000000e-10  5.00000000e-01                                 
 3.20000000e-10  7.89465828e-01  3.20000000e-10  7.44597050e-01  3.20000000e-10  1.07514175e+00  3.20000000e-10  1.15200000e+00  3.20000000e-10  1.80023111e+00  3.20000000e-10  5.00000000e-01                                 
 5.00000000e-10  7.88419737e-01  5.00000000e-10  7.43703964e-01  5.00000000e-10  1.25068113e+00  5.00000000e-10  1.80000000e+00  5.00000000e-10  8.93251276e-02  5.00000000e-10  5.00000000e-01                                 
 5.20453250e-10  7.88303811e-01  5.20453250e-10  7.43604692e-01  5.20453250e-10  1.28930837e+00  5.20453250e-10  1.80000000e+00  5.20453250e-10  1.51192756e-02  5.20453250e-10  5.00000000e-01                                 
 5.61359751e-10  7.88072957e-01  5.61359751e-10  7.43406871e-01  5.61359751e-10  1.35908421e+00  5.61359751e-10  1.80000000e+00  5.61359751e-10 -7.25224468e-03  5.61359751e-10  5.00000000e-01                                 
 6.43172752e-10  7.87617322e-01  6.43172752e-10  7.43015798e-01  6.43172752e-10  1.47261874e+00  6.43172752e-10  1.80000000e+00  6.43172752e-10  6.35571645e-03  6.43172752e-10  5.00000000e-01                                 
 7.67376329e-10  7.86940630e-01  7.67376329e-10  7.42433428e-01  7.67376329e-10  1.60918241e+00  7.67376329e-10  1.80000000e+00  7.67376329e-10 -5.67968037e-03  7.67376329e-10  5.00000000e-01                                 
 9.53764559e-10  7.85957401e-01  9.53764559e-10  7.41583959e-01  9.53764559e-10  1.75911898e+00  9.53764559e-10  1.80000000e+00  9.53764559e-10  5.43971382e-03  9.53764559e-10  5.00000000e-01                                 
 1.32654102e-09  7.84096743e-01  1.32654102e-09  7.39966085e-01  1.32654102e-09  1.93003201e+00  1.32654102e-09  1.80000000e+00  1.32654102e-09 -5.18382532e-03  1.32654102e-09  5.00000000e-01                                 
 1.59948380e-09  7.82817209e-01  1.59948380e-09  7.38845416e-01  1.59948380e-09  1.98413577e+00  1.59948380e-09  1.80000000e+00  1.59948380e-09  5.05081028e-03  1.59948380e-09  5.00000000e-01                                 
 1.91324132e-09  7.81422823e-01  1.91324132e-09  7.37616959e-01  1.91324132e-09  2.01302062e+00  1.91324132e-09  1.80000000e+00  1.91324132e-09 -4.81164700e-03  1.91324132e-09  5.00000000e-01                                 
 2.24734600e-09  7.80019356e-01  2.24734600e-09  7.36373068e-01  2.24734600e-09  2.02527809e+00  2.24734600e-09  1.80000000e+00  2.24734600e-09  4.70075339e-03  2.24734600e-09  5.00000000e-01                                 
 2.76423434e-09  7.77993075e-01  2.76423434e-09  7.34564585e-01  2.76423434e-09  2.03058075e+00  2.76423434e-09  1.80000000e+00  2.76423434e-09 -4.56169986e-03  2.76423434e-09  5.00000000e-01                                 
 3.41655521e-09  7.75653929e-01  3.41655521e-09  7.32458799e-01  3.41655521e-09  2.02996067e+00  3.41655521e-09  1.80000000e+00  3.41655521e-09  4.51503899e-03  3.41655521e-09  5.00000000e-01                                 
 4.55374665e-09  7.72042656e-01  4.55374665e-09  7.29172610e-01  4.55374665e-09  2.02661317e+00  4.55374665e-09  1.80000000e+00  4.55374665e-09 -4.44591264e-03  4.55374665e-09  5.00000000e-01                                 
 6.35679117e-09  7.67234900e-01  6.35679117e-09  7.24735557e-01  6.35679117e-09  2.02191704e+00  6.35679117e-09  1.80000000e+00  6.35679117e-09  4.44594983e-03  6.35679117e-09  5.00000000e-01                                 
 8.88336900e-09  7.61815289e-01  8.88336900e-09  7.19655439e-01  8.88336900e-09  2.01693460e+00  8.88336900e-09  1.80000000e+00  8.88336900e-09 -4.39425678e-03  8.88336900e-09  5.00000000e-01                                 
 1.02170853e-08  7.59416033e-01  1.02170853e-08  7.17380233e-01  1.02170853e-08  2.01472607e+00  1.02170853e-08  1.80000000e+00  1.02170853e-08  4.38361599e-03  1.02170853e-08  5.00000000e-01                                 
 1.20836384e-08  7.56430390e-01  1.20836384e-08  7.14530762e-01  1.20836384e-08  2.01203278e+00  1.20836384e-08  1.80000000e+00  1.20836384e-08 -4.33600269e-03  1.20836384e-08  5.00000000e-01                                 
 1.40255519e-08  7.53695127e-01  1.40255519e-08  7.11903296e-01  1.40255519e-08  2.00958948e+00  1.40255519e-08  1.80000000e+00  1.40255519e-08  4.33020669e-03  1.40255519e-08  5.00000000e-01                                 
 1.79093789e-08  7.49044305e-01  1.79093789e-08  7.07403057e-01  1.79093789e-08  2.00549210e+00  1.79093789e-08  1.80000000e+00  1.79093789e-08 -4.30064392e-03  1.79093789e-08  5.00000000e-01                                 
 2.15262911e-08  7.45457869e-01  2.15262911e-08  7.03905247e-01  2.15262911e-08  2.00238685e+00  2.15262911e-08  1.80000000e+00  2.15262911e-08  4.30384599e-03  2.15262911e-08  5.00000000e-01                                 
 2.87601155e-08  7.39608569e-01  2.87601155e-08  6.98165065e-01  2.87601155e-08  1.99745157e+00  2.87601155e-08  1.80000000e+00  2.87601155e-08 -4.28088107e-03  2.87601155e-08  5.00000000e-01                                 
 3.76514383e-08  7.34053773e-01  3.76514383e-08  6.92673835e-01  3.76514383e-08  1.99295093e+00  3.76514383e-08  1.80000000e+00  3.76514383e-08  4.29195598e-03  3.76514383e-08  5.00000000e-01                                 
 5.18209710e-08  7.27374883e-01  5.18209710e-08  6.86020480e-01  5.18209710e-08  1.98772907e+00  5.18209710e-08  1.80000000e+00  5.18209710e-08 -4.27203768e-03  5.18209710e-08  5.00000000e-01                                 
 7.06362101e-08  7.20866389e-01  7.06362101e-08  6.79491583e-01  7.06362101e-08  1.98024319e+00  7.06362101e-08  1.80000000e+00  7.06362101e-08  4.28615399e-03  7.06362101e-08  5.00000000e-01                                 
 9.39706363e-08  7.13997782e-01  9.39706363e-08  6.72749912e-01  9.39706363e-08  1.95975108e+00  9.39706363e-08  1.80000000e+00  9.39706363e-08 -4.26747392e-03  9.39706363e-08  5.00000000e-01                                 
 1.20077574e-07  7.06405176e-01  1.20077574e-07  6.65596300e-01  1.20077574e-07  1.93231769e+00  1.20077574e-07  1.80000000e+00  1.20077574e-07  4.28233790e-03  1.20077574e-07  5.00000000e-01                                 
 1.41008787e-07  6.98108965e-01  1.41008787e-07  6.58276750e-01  1.41008787e-07  1.89803913e+00  1.41008787e-07  1.80000000e+00  1.41008787e-07 -4.26353785e-03  1.41008787e-07  5.00000000e-01                                 
 1.64644865e-07  6.90066471e-01  1.64644865e-07  6.51197408e-01  1.64644865e-07  1.86009863e+00  1.64644865e-07  1.80000000e+00  1.64644865e-07  4.27815129e-03  1.64644865e-07  5.00000000e-01                                 
 1.93302435e-07  6.82405814e-01  1.93302435e-07  6.44417505e-01  1.93302435e-07  1.81610457e+00  1.93302435e-07  1.80000000e+00  1.93302435e-07 -4.25987875e-03  1.93302435e-07  5.00000000e-01                                 
 2.22788804e-07  6.89411812e-01  2.22788804e-07  6.49325768e-01  2.22788804e-07  1.82067427e+00  2.22788804e-07  1.80000000e+00  2.22788804e-07  4.27531500e-03  2.22788804e-07  5.00000000e-01                                 
 2.47222051e-07  6.90636799e-01  2.47222051e-07  6.49787523e-01  2.47222051e-07  1.80187607e+00  2.47222051e-07  1.80000000e+00  2.47222051e-07 -4.25660562e-03  2.47222051e-07  5.00000000e-01                                 
 2.71139096e-07  6.82446199e-01  2.71139096e-07  6.42839286e-01  2.71139096e-07  1.76873051e+00  2.71139096e-07  1.80000000e+00  2.71139096e-07  4.27118979e-03  2.71139096e-07  5.00000000e-01                                 
 2.89215401e-07  6.80176248e-01  2.89215401e-07  6.40729654e-01  2.89215401e-07  1.75179028e+00  2.89215401e-07  1.80000000e+00  2.89215401e-07 -4.25194780e-03  2.89215401e-07  5.00000000e-01                                 
 3.08826213e-07  6.77085623e-01  3.08826213e-07  6.37965914e-01  3.08826213e-07  1.73141566e+00  3.08826213e-07  1.80000000e+00  3.08826213e-07  4.26618179e-03  3.08826213e-07  5.00000000e-01                                 
 3.36021186e-07  6.72102766e-01  3.36021186e-07  6.33618792e-01  3.36021186e-07  1.70118235e+00  3.36021186e-07  1.80000000e+00  3.36021186e-07 -4.24789538e-03  3.36021186e-07  5.00000000e-01                                 
 3.77309259e-07  6.64893674e-01  3.77309259e-07  6.27378205e-01  3.77309259e-07  1.65601228e+00  3.77309259e-07  1.80000000e+00  3.77309259e-07  4.26332686e-03  3.77309259e-07  5.00000000e-01                                 
 4.28714624e-07  6.56559569e-01  4.28714624e-07  6.20224493e-01  4.28714624e-07  1.60004187e+00  4.28714624e-07  1.80000000e+00  4.28714624e-07 -4.24586370e-03  4.28714624e-07  5.00000000e-01                                 
 5.31525355e-07  6.36334367e-01  5.31525355e-07  6.03377251e-01  5.31525355e-07  1.48028159e+00  5.31525355e-07  1.80000000e+00  5.31525355e-07  4.26195026e-03  5.31525355e-07  5.00000000e-01                                 
 6.43734383e-07  6.17459265e-01  6.43734383e-07  5.87847309e-01  6.43734383e-07  1.35312470e+00  6.43734383e-07  1.80000000e+00  6.43734383e-07 -4.24498044e-03  6.43734383e-07  5.00000000e-01                                 
 7.73709082e-07  5.90793977e-01  7.73709082e-07  5.66276653e-01  7.73709082e-07  1.19738867e+00  7.73709082e-07  1.80000000e+00  7.73709082e-07  4.26115365e-03  7.73709082e-07  5.00000000e-01                                 
 7.96580524e-07  5.85983775e-01  7.96580524e-07  5.62409178e-01  7.96580524e-07  1.16978758e+00  7.96580524e-07  1.80000000e+00  7.96580524e-07  4.60130723e-07  7.96580524e-07  5.00000000e-01                                 
 8.42323409e-07  5.75968334e-01  8.42323409e-07  5.54365238e-01  8.42323409e-07  1.11234159e+00  8.42323409e-07  1.80000000e+00  8.42323409e-07 -5.90416567e-07  8.42323409e-07  5.00000000e-01                                 
 9.33809179e-07  5.60887926e-01  9.33809179e-07  5.42268551e-01  9.33809179e-07  9.92319472e-01  9.33809179e-07  1.80000000e+00  9.33809179e-07  4.96457609e-07  9.33809179e-07  5.00000000e-01                                 
 9.53787222e-07  5.60994629e-01  9.53787222e-07  5.42351875e-01  9.53787222e-07  9.70180623e-01  9.53787222e-07  1.80000000e+00  9.53787222e-07  9.16738760e-09  9.53787222e-07  5.00000000e-01                                 
 9.93743306e-07  5.70524365e-01  9.93743306e-07  5.49974097e-01  9.93743306e-07  9.41757149e-01  9.93743306e-07  1.80000000e+00  9.93743306e-07  1.61724548e-07  9.93743306e-07  5.00000000e-01                                 
 1.00373233e-06  5.77630012e-01  1.00373233e-06  5.55658193e-01  1.00373233e-06  9.39900616e-01  1.00373233e-06  1.80000000e+00  1.00373233e-06  2.41464548e-07  1.00373233e-06  5.00000000e-01                                 
 1.02371037e-06  5.98618895e-01  1.02371037e-06  5.72446551e-01  1.02371037e-06  9.40763167e-01  1.02371037e-06  1.80000000e+00  1.02371037e-06  4.70020894e-07  1.02371037e-06  5.00000000e-01                                 
 1.05594950e-06  6.95396852e-01  1.05594950e-06  6.49952181e-01  1.05594950e-06  9.99129523e-01  1.05594950e-06  1.80000000e+00  1.05594950e-06  1.63384951e-06  1.05594950e-06  5.00000000e-01                                 
 1.09076789e-06  8.17418364e-01  1.09076789e-06  7.69901358e-01  1.09076789e-06  1.09426273e+00  1.09076789e-06  1.80000000e+00  1.09076789e-06  1.53055946e-06  1.09076789e-06  5.00000000e-01                                 
 1.13238491e-06  8.72074755e-01  1.13238491e-06  8.22879280e-01  1.13238491e-06  1.10846525e+00  1.13238491e-06  1.80000000e+00  1.13238491e-06 -4.69782733e-09  1.13238491e-06  5.00000000e-01                                 
 1.17479411e-06  9.26641945e-01  1.17479411e-06  8.63747451e-01  1.17479411e-06  1.10464899e+00  1.17479411e-06  1.80000000e+00  1.17479411e-06  1.06666966e-06  1.17479411e-06  5.00000000e-01                                 
 1.17967208e-06  9.33771750e-01  1.17967208e-06  8.68204799e-01  1.17967208e-06  1.10641911e+00  1.17967208e-06  1.80000000e+00  1.17967208e-06  7.52797959e-07  1.17967208e-06  5.00000000e-01                                 
 1.18942802e-06  9.48493883e-01  1.18942802e-06  8.76826130e-01  1.18942802e-06  1.10788364e+00  1.18942802e-06  1.80000000e+00  1.18942802e-06  6.28723549e-07  1.18942802e-06  5.00000000e-01                                 
 1.20893989e-06  9.77138669e-01  1.20893989e-06  8.91766586e-01  1.20893989e-06  1.10837080e+00  1.20893989e-06  1.80000000e+00  1.20893989e-06  6.04325593e-07  1.20893989e-06  5.00000000e-01                                 
 1.23064819e-06  9.82864048e-01  1.23064819e-06  8.94786366e-01  1.23064819e-06  1.09366740e+00  1.23064819e-06  1.80000000e+00  1.23064819e-06 -8.95724495e-08  1.23064819e-06  5.00000000e-01                                 
 1.25279359e-06  9.77533396e-01  1.25279359e-06  8.92136355e-01  1.25279359e-06  1.06404782e+00  1.25279359e-06  1.80000000e+00  1.25279359e-06 -3.16141493e-08  1.25279359e-06  5.00000000e-01                                 
 1.28051464e-06  9.80526899e-01  1.28051464e-06  8.93585663e-01  1.28051464e-06  1.03412713e+00  1.28051464e-06  1.80000000e+00  1.28051464e-06  9.25771702e-08  1.28051464e-06  5.00000000e-01                                 
 1.30945440e-06  9.77787741e-01  1.30945440e-06  8.92320672e-01  1.30945440e-06  9.99104837e-01  1.30945440e-06  1.80000000e+00  1.30945440e-06 -1.08370182e-07  1.30945440e-06  5.00000000e-01                                 
 1.34946707e-06  9.78664004e-01  1.34946707e-06  8.92672791e-01  1.34946707e-06  9.55480746e-01  1.34946707e-06  1.80000000e+00  1.34946707e-06  1.13231949e-07  1.34946707e-06  5.00000000e-01                                 
 1.40323590e-06  9.77052759e-01  1.40323590e-06  8.91982645e-01  1.40323590e-06  9.15470429e-01  1.40323590e-06  1.80000000e+00  1.40323590e-06 -1.02280865e-07  1.40323590e-06  5.00000000e-01                                 
 1.47110661e-06  9.76901997e-01  1.47110661e-06  8.91825589e-01  1.47110661e-06  8.67763192e-01  1.47110661e-06  1.80000000e+00  1.47110661e-06  1.23601337e-07  1.47110661e-06  5.00000000e-01                                 
 1.54371995e-06  9.75559863e-01  1.54371995e-06  8.91267917e-01  1.54371995e-06  8.15732899e-01  1.54371995e-06  1.80000000e+00  1.54371995e-06 -7.73288512e-08  1.54371995e-06  5.00000000e-01                                 
 1.68894663e-06  9.74205376e-01  1.68894663e-06  8.90520343e-01  1.68894663e-06  7.35559275e-01  1.68894663e-06  1.80000000e+00  1.68894663e-06  1.24580425e-07  1.68894663e-06  5.00000000e-01                                 
 1.83561668e-06  9.72212292e-01  1.83561668e-06  8.89636943e-01  1.83561668e-06  6.76652352e-01  1.83561668e-06  1.80000000e+00  1.83561668e-06 -1.00270984e-07  1.83561668e-06  5.00000000e-01                                 
 2.12895678e-06  9.69116669e-01  2.12895678e-06  8.88003810e-01  2.12895678e-06  5.79399803e-01  2.12895678e-06  1.80000000e+00  2.12895678e-06  1.09986568e-07  2.12895678e-06  5.00000000e-01                                 
 2.49541756e-06  9.64881210e-01  2.49541756e-06  8.85954096e-01  2.49541756e-06  5.17056456e-01  2.49541756e-06  1.80000000e+00  2.49541756e-06 -8.97648608e-08  2.49541756e-06  5.00000000e-01                                 
 2.98274897e-06  9.59863926e-01  2.98274897e-06  8.83235074e-01  2.98274897e-06  4.96409455e-01  2.98274897e-06  1.80000000e+00  2.98274897e-06  9.75152743e-08  2.98274897e-06  5.00000000e-01                                 
 3.04933302e-06  9.59098350e-01  3.04933302e-06  8.82883371e-01  3.04933302e-06  4.96024222e-01  3.04933302e-06  1.80000000e+00  3.04933302e-06  4.45556913e-09  3.04933302e-06  5.00000000e-01                                 
 3.18250114e-06  9.57674771e-01  3.18250114e-06  8.82125002e-01  3.18250114e-06  4.94734709e-01  3.18250114e-06  1.80000000e+00  3.18250114e-06  8.40892512e-10  3.18250114e-06  5.00000000e-01                                 
 3.44883738e-06  9.54887684e-01  3.44883738e-06  8.80620584e-01  3.44883738e-06  4.92164296e-01  3.44883738e-06  1.80000000e+00  3.44883738e-06  4.38033176e-09  3.44883738e-06  5.00000000e-01                                 
 3.98150985e-06  9.48920141e-01  3.98150985e-06  8.77319325e-01  3.98150985e-06  4.87521795e-01  3.98150985e-06  1.80000000e+00  3.98150985e-06  2.72180540e-10  3.98150985e-06  5.00000000e-01                                 
 4.10650985e-06  9.47401926e-01  4.10650985e-06  8.76460685e-01  4.10650985e-06  4.89000373e-01  4.10650985e-06  1.80000000e+00  4.10650985e-06  3.01463730e-09  4.10650985e-06  5.00000000e-01                                 
 4.35650985e-06  9.44161313e-01  4.35650985e-06  8.74603469e-01  4.35650985e-06  4.94072926e-01  4.35650985e-06  1.80000000e+00  4.35650985e-06  1.18319817e-09  4.35650985e-06  5.00000000e-01                                 
 4.85650985e-06  9.35520915e-01  4.85650985e-06  8.69479183e-01  4.85650985e-06  4.96506596e-01  4.85650985e-06  1.80000000e+00  4.85650985e-06 -4.58298929e-09  4.85650985e-06  5.00000000e-01                                 
 4.91866483e-06  9.34117327e-01  4.91866483e-06  8.68622361e-01  4.91866483e-06  4.95439085e-01  4.91866483e-06  1.80000000e+00  4.91866483e-06 -3.99904091e-09  4.91866483e-06  5.00000000e-01                                 
 5.04297478e-06  9.31034282e-01  5.04297478e-06  8.66715763e-01  5.04297478e-06  4.93137163e-01  5.04297478e-06  1.80000000e+00  5.04297478e-06 -6.04122995e-09  5.04297478e-06  5.00000000e-01                                 
 5.29159469e-06  9.21998553e-01  5.29159469e-06  8.60927736e-01  5.29159469e-06  4.88680323e-01  5.29159469e-06  1.80000000e+00  5.29159469e-06 -1.53989316e-08  5.29159469e-06  5.00000000e-01                                 
 5.35374967e-06  9.18573868e-01  5.35374967e-06  8.58652751e-01  5.35374967e-06  4.88072926e-01  5.35374967e-06  1.80000000e+00  5.35374967e-06 -2.00451291e-08  5.35374967e-06  5.00000000e-01                                 
 5.47805963e-06  9.09897179e-01  5.47805963e-06  8.52678743e-01  5.47805963e-06  4.86399209e-01  5.47805963e-06  1.80000000e+00  5.47805963e-06 -3.70401181e-08  5.47805963e-06  5.00000000e-01                                 
