 time            v(vbep)         time            v(vben)         time            v(vout)         time            v(vphi1)        time            v(vphi2)        time            v(vref)         yes             currtemp       
 0.00000000e+00  5.59435488e-01  0.00000000e+00  4.93479226e-01  0.00000000e+00  1.97333875e-01  0.00000000e+00  0.00000000e+00  0.00000000e+00  1.79996789e+00  0.00000000e+00  5.00000000e-01  1.00000000e+00  8.90000000e+01 
 5.00000000e-12  5.59411962e-01  5.00000000e-12  4.93459717e-01  5.00000000e-12  1.97932462e-01  5.00000000e-12  1.80000000e-02  5.00000000e-12  1.80007121e+00  5.00000000e-12  5.00000000e-01                                 
 1.00000000e-11  5.59388853e-01  1.00000000e-11  4.93440654e-01  1.00000000e-11  1.98470934e-01  1.00000000e-11  3.60000000e-02  1.00000000e-11  1.80012237e+00  1.00000000e-11  5.00000000e-01                                 
 2.00000000e-11  5.59342860e-01  2.00000000e-11  4.93402647e-01  2.00000000e-11  1.99457497e-01  2.00000000e-11  7.20000000e-02  2.00000000e-11  1.80016565e+00  2.00000000e-11  5.00000000e-01                                 
 4.00000000e-11  5.59251274e-01  4.00000000e-11  4.93326866e-01  4.00000000e-11  2.01035471e-01  4.00000000e-11  1.44000000e-01  4.00000000e-11  1.80012505e+00  4.00000000e-11  5.00000000e-01                                 
 8.00000000e-11  5.59068780e-01  8.00000000e-11  4.93175802e-01  8.00000000e-11  2.03328912e-01  8.00000000e-11  2.88000000e-01  8.00000000e-11  1.80005783e+00  8.00000000e-11  5.00000000e-01                                 
 1.60000000e-10  5.58706617e-01  1.60000000e-10  4.92875620e-01  1.60000000e-10  2.06740805e-01  1.60000000e-10  5.76000000e-01  1.60000000e-10  1.80001450e+00  1.60000000e-10  5.00000000e-01                                 
 3.20000000e-10  5.57993004e-01  3.20000000e-10  4.92282767e-01  3.20000000e-10  2.23562301e-01  3.20000000e-10  1.15200000e+00  3.20000000e-10  1.80033166e+00  3.20000000e-10  5.00000000e-01                                 
 5.00000000e-10  5.57206719e-01  5.00000000e-10  4.91627388e-01  5.00000000e-10  4.71875451e-01  5.00000000e-10  1.80000000e+00  5.00000000e-10  1.41357282e-01  5.00000000e-10  5.00000000e-01                                 
 5.22843447e-10  5.57108295e-01  5.22843447e-10  4.91545177e-01  5.22843447e-10  5.26188708e-01  5.22843447e-10  1.80000000e+00  5.22843447e-10  3.05500649e-02  5.22843447e-10  5.00000000e-01                                 
 5.68530341e-10  5.56911979e-01  5.68530341e-10  4.91381126e-01  5.68530341e-10  6.26302134e-01  5.68530341e-10  1.80000000e+00  5.68530341e-10 -1.35869524e-02  5.68530341e-10  5.00000000e-01                                 
 6.59904129e-10  5.56522556e-01  6.59904129e-10  4.91055300e-01  6.59904129e-10  7.83198960e-01  6.59904129e-10  1.80000000e+00  6.59904129e-10  1.11670658e-02  6.59904129e-10  5.00000000e-01                                 
 7.83119091e-10  5.56004053e-01  7.83119091e-10  4.90620638e-01  7.83119091e-10  9.35493312e-01  7.83119091e-10  1.80000000e+00  7.83119091e-10 -9.26225582e-03  7.83119091e-10  5.00000000e-01                                 
 9.81482772e-10  5.55184743e-01  9.81482772e-10  4.89931883e-01  9.81482772e-10  1.11295445e+00  9.81482772e-10  1.80000000e+00  9.81482772e-10  8.65150799e-03  9.81482772e-10  5.00000000e-01                                 
 1.28227617e-09  5.53977128e-01  1.28227617e-09  4.88912453e-01  1.28227617e-09  1.30290129e+00  1.28227617e-09  1.80000000e+00  1.28227617e-09 -7.97585631e-03  1.28227617e-09  5.00000000e-01                                 
 1.73082322e-09  5.52249048e-01  1.73082322e-09  4.87445026e-01  1.73082322e-09  1.46571796e+00  1.73082322e-09  1.80000000e+00  1.73082322e-09  7.79319367e-03  1.73082322e-09  5.00000000e-01                                 
 2.14757901e-09  5.50715503e-01  2.14757901e-09  4.86134361e-01  2.14757901e-09  1.53099833e+00  2.14757901e-09  1.80000000e+00  2.14757901e-09 -7.32829653e-03  2.14757901e-09  5.00000000e-01                                 
 2.55242781e-09  5.49286462e-01  2.55242781e-09  4.84906079e-01  2.55242781e-09  1.55569262e+00  2.55242781e-09  1.80000000e+00  2.55242781e-09  7.11516660e-03  2.55242781e-09  5.00000000e-01                                 
 2.98191512e-09  5.47830514e-01  2.98191512e-09  4.83647984e-01  2.98191512e-09  1.56417146e+00  2.98191512e-09  1.80000000e+00  2.98191512e-09 -6.74156167e-03  2.98191512e-09  5.00000000e-01                                 
 3.43662457e-09  5.46351147e-01  3.43662457e-09  4.82362921e-01  3.43662457e-09  1.56576788e+00  3.43662457e-09  1.80000000e+00  3.43662457e-09  6.54274513e-03  3.43662457e-09  5.00000000e-01                                 
 3.97516328e-09  5.44674634e-01  3.97516328e-09  4.80898667e-01  3.97516328e-09  1.56424634e+00  3.97516328e-09  1.80000000e+00  3.97516328e-09 -6.27080813e-03  3.97516328e-09  5.00000000e-01                                 
 4.78639293e-09  5.42287870e-01  4.78639293e-09  4.78800193e-01  4.78639293e-09  1.56064408e+00  4.78639293e-09  1.80000000e+00  4.78639293e-09  6.18638543e-03  4.78639293e-09  5.00000000e-01                                 
 5.98675799e-09  5.39022001e-01  5.98675799e-09  4.75903739e-01  5.98675799e-09  1.55504138e+00  5.98675799e-09  1.80000000e+00  5.98675799e-09 -6.04270785e-03  5.98675799e-09  5.00000000e-01                                 
 8.38748810e-09  5.33244382e-01  8.38748810e-09  4.70716561e-01  8.38748810e-09  1.54555960e+00  8.38748810e-09  1.80000000e+00  8.38748810e-09  6.04928680e-03  8.38748810e-09  5.00000000e-01                                 
 1.31889483e-08  5.23798123e-01  1.31889483e-08  4.62089603e-01  1.31889483e-08  1.52957136e+00  1.31889483e-08  1.80000000e+00  1.31889483e-08 -5.97490388e-03  1.31889483e-08  5.00000000e-01                                 
 2.27918688e-08  5.09879120e-01  2.27918688e-08  4.49119544e-01  2.27918688e-08  1.49746992e+00  2.27918688e-08  1.80000000e+00  2.27918688e-08  6.01623585e-03  2.27918688e-08  5.00000000e-01                                 
 4.13340203e-08  4.93214585e-01  4.13340203e-08  4.33116285e-01  4.13340203e-08  1.40539254e+00  4.13340203e-08  1.80000000e+00  4.13340203e-08 -5.95747283e-03  4.13340203e-08  5.00000000e-01                                 
 7.05392361e-08  4.78379393e-01  7.05392361e-08  4.18385483e-01  7.05392361e-08  1.21637987e+00  7.05392361e-08  1.80000000e+00  7.05392361e-08  6.00734494e-03  7.05392361e-08  5.00000000e-01                                 
 1.00457806e-07  4.67666630e-01  1.00457806e-07  4.07793338e-01  1.00457806e-07  1.02484703e+00  1.00457806e-07  1.80000000e+00  1.00457806e-07 -5.95012319e-03  1.00457806e-07  5.00000000e-01                                 
 1.41916402e-07  4.57003895e-01  1.41916402e-07  3.97183859e-01  1.41916402e-07  8.46444767e-01  1.41916402e-07  1.80000000e+00  1.41916402e-07  6.00136114e-03  1.41916402e-07  5.00000000e-01                                 
 1.91634584e-07  4.44093741e-01  1.91634584e-07  3.85026741e-01  1.91634584e-07  7.16703455e-01  1.91634584e-07  1.80000000e+00  1.91634584e-07 -5.94547862e-03  1.91634584e-07  5.00000000e-01                                 
 2.43403112e-07  4.27411641e-01  2.43403112e-07  3.70274837e-01  2.43403112e-07  5.89783876e-01  2.43403112e-07  1.80000000e+00  2.43403112e-07  5.99712045e-03  2.43403112e-07  5.00000000e-01                                 
 3.06365797e-07  4.07367404e-01  3.06365797e-07  3.52971573e-01  3.06365797e-07  4.94961504e-01  3.06365797e-07  1.80000000e+00  3.06365797e-07 -5.94178495e-03  3.06365797e-07  5.00000000e-01                                 
 3.75235623e-07  3.83860527e-01  3.75235623e-07  3.33210136e-01  3.75235623e-07  4.71005941e-01  3.75235623e-07  1.80000000e+00  3.75235623e-07  5.99389864e-03  3.75235623e-07  5.00000000e-01                                 
 3.88953411e-07  3.78768793e-01  3.88953411e-07  3.28999903e-01  3.88953411e-07  4.67913927e-01  3.88953411e-07  1.80000000e+00  3.88953411e-07  1.40519280e-05  3.88953411e-07  5.00000000e-01                                 
 4.16388988e-07  3.67498315e-01  4.16388988e-07  3.19735995e-01  4.16388988e-07  4.63078442e-01  4.16388988e-07  1.80000000e+00  4.16388988e-07  1.00718664e-05  4.16388988e-07  5.00000000e-01                                 
 4.63018858e-07  3.44845448e-01  4.63018858e-07  3.01304003e-01  4.63018858e-07  5.04055616e-01  4.63018858e-07  1.80000000e+00  4.63018858e-07  1.39781336e-05  4.63018858e-07  5.00000000e-01                                 
 5.06931941e-07  3.22405966e-01  5.06931941e-07  2.83169256e-01  5.06931941e-07  5.23752903e-01  5.06931941e-07  1.80000000e+00  5.06931941e-07  1.00481019e-05  5.06931941e-07  5.00000000e-01                                 
 5.55569358e-07  3.42529403e-01  5.55569358e-07  2.99259331e-01  5.55569358e-07  4.99285019e-01  5.55569358e-07  1.80000000e+00  5.55569358e-07  1.49642170e-05  5.55569358e-07  5.00000000e-01                                 
 5.62381840e-07  3.56772343e-01  5.62381840e-07  3.10668613e-01  5.62381840e-07  5.03873942e-01  5.62381840e-07  1.80000000e+00  5.62381840e-07  1.34111311e-05  5.62381840e-07  5.00000000e-01                                 
 5.76006805e-07  4.01339391e-01  5.76006805e-07  3.46300548e-01  5.76006805e-07  5.22948922e-01  5.76006805e-07  1.80000000e+00  5.76006805e-07  1.47419780e-05  5.76006805e-07  5.00000000e-01                                 
 6.03256735e-07  5.84214406e-01  6.03256735e-07  5.11237847e-01  6.03256735e-07  5.91957879e-01  6.03256735e-07  1.80000000e+00  6.03256735e-07  1.85671335e-05  6.03256735e-07  5.00000000e-01                                 
 6.21842376e-07  6.43188711e-01  6.21842376e-07  5.74108669e-01  6.21842376e-07  5.70315914e-01  6.21842376e-07  1.80000000e+00  6.21842376e-07  1.14040191e-05  6.21842376e-07  5.00000000e-01                                 
 6.39458790e-07  6.73313059e-01  6.39458790e-07  6.02227472e-01  6.39458790e-07  5.40375496e-01  6.39458790e-07  1.80000000e+00  6.39458790e-07  1.59662815e-05  6.39458790e-07  5.00000000e-01                                 
 6.63591245e-07  6.96784232e-01  6.63591245e-07  6.22554993e-01  6.63591245e-07  5.15391218e-01  6.63591245e-07  1.80000000e+00  6.63591245e-07  1.03483551e-05  6.63591245e-07  5.00000000e-01                                 
 6.87788025e-07  7.00698646e-01  6.87788025e-07  6.25889052e-01  6.87788025e-07  4.95057254e-01  6.87788025e-07  1.80000000e+00  6.87788025e-07  1.44415126e-05  6.87788025e-07  5.00000000e-01                                 
 7.22612555e-07  7.03326018e-01  7.22612555e-07  6.27989006e-01  7.22612555e-07  4.84797404e-01  7.22612555e-07  1.80000000e+00  7.22612555e-07  1.03140745e-05  7.22612555e-07  5.00000000e-01                                 
 7.59548527e-07  7.04070607e-01  7.59548527e-07  6.28662717e-01  7.59548527e-07  4.82497377e-01  7.59548527e-07  1.80000000e+00  7.59548527e-07  1.42544291e-05  7.59548527e-07  5.00000000e-01                                 
 8.22909159e-07  7.06066168e-01  8.22909159e-07  6.30228573e-01  8.22909159e-07  5.07048448e-01  8.22909159e-07  1.80000000e+00  8.22909159e-07  1.04032022e-05  8.22909159e-07  5.00000000e-01                                 
 8.94709543e-07  6.90962733e-01  8.94709543e-07  6.17750308e-01  8.94709543e-07  5.04097460e-01  8.94709543e-07  1.80000000e+00  8.94709543e-07  1.37941453e-05  8.94709543e-07  5.00000000e-01                                 
 9.03780942e-07  6.87531866e-01  9.03780942e-07  6.14774535e-01  9.03780942e-07  4.98480925e-01  9.03780942e-07  1.80000000e+00  9.03780942e-07  1.20067271e-05  9.03780942e-07  5.00000000e-01                                 
 9.21923739e-07  6.83036329e-01  9.21923739e-07  6.10864808e-01  9.21923739e-07  4.90180183e-01  9.21923739e-07  1.80000000e+00  9.21923739e-07  1.21509491e-05  9.21923739e-07  5.00000000e-01                                 
 9.58209335e-07  6.87222408e-01  9.58209335e-07  6.14471805e-01  9.58209335e-07  4.95136312e-01  9.58209335e-07  1.80000000e+00  9.58209335e-07  1.26193664e-05  9.58209335e-07  5.00000000e-01                                 
 1.02009634e-06  6.96871920e-01  1.02009634e-06  6.22676693e-01  1.02009634e-06  5.10016269e-01  1.02009634e-06  1.80000000e+00  1.02009634e-06  1.22222401e-05  1.02009634e-06  5.00000000e-01                                 
 1.07991389e-06  6.91914948e-01  1.07991389e-06  6.18510065e-01  1.07991389e-06  4.96745652e-01  1.07991389e-06  1.80000000e+00  1.07991389e-06  1.22129606e-05  1.07991389e-06  5.00000000e-01                                 
 1.18499803e-06  6.88803092e-01  1.18499803e-06  6.15837661e-01  1.18499803e-06  4.97644036e-01  1.18499803e-06  1.80000000e+00  1.18499803e-06  1.23147390e-05  1.18499803e-06  5.00000000e-01                                 
 1.28450510e-06  6.94653910e-01  1.28450510e-06  6.20817646e-01  1.28450510e-06  5.07191576e-01  1.28450510e-06  1.80000000e+00  1.28450510e-06  1.23597522e-05  1.28450510e-06  5.00000000e-01                                 
 1.46618974e-06  6.89491719e-01  1.46618974e-06  6.16436407e-01  1.46618974e-06  4.92548449e-01  1.46618974e-06  1.80000000e+00  1.46618974e-06  1.21696391e-05  1.46618974e-06  5.00000000e-01                                 
 1.63936864e-06  6.92533166e-01  1.63936864e-06  6.19021171e-01  1.63936864e-06  5.07227950e-01  1.63936864e-06  1.80000000e+00  1.63936864e-06  1.24360302e-05  1.63936864e-06  5.00000000e-01                                 
 1.88893313e-06  6.91739193e-01  1.88893313e-06  6.18354481e-01  1.88893313e-06  4.94658552e-01  1.88893313e-06  1.80000000e+00  1.88893313e-06  1.21354810e-05  1.88893313e-06  5.00000000e-01                                 
 2.14489846e-06  6.90918353e-01  2.14489846e-06  6.17648937e-01  2.14489846e-06  5.04117210e-01  2.14489846e-06  1.80000000e+00  2.14489846e-06  1.24356078e-05  2.14489846e-06  5.00000000e-01                                 
 2.45961125e-06  6.92919365e-01  2.45961125e-06  6.19354467e-01  2.45961125e-06  4.98050670e-01  2.45961125e-06  1.80000000e+00  2.45961125e-06  1.21517380e-05  2.45961125e-06  5.00000000e-01                                 
 2.84611209e-06  6.90187311e-01  2.84611209e-06  6.17026903e-01  2.84611209e-06  5.01065530e-01  2.84611209e-06  1.80000000e+00  2.84611209e-06  1.24130104e-05  2.84611209e-06  5.00000000e-01                                 
 3.33430990e-06  6.93291218e-01  3.33430990e-06  6.19667787e-01  3.33430990e-06  5.00540706e-01  3.33430990e-06  1.80000000e+00  3.33430990e-06  1.21742597e-05  3.33430990e-06  5.00000000e-01                                 
 4.03308978e-06  6.90002689e-01  4.03308978e-06  6.16870387e-01  4.03308978e-06  4.99246735e-01  4.03308978e-06  1.80000000e+00  4.03308978e-06  1.23944834e-05  4.03308978e-06  5.00000000e-01                                 
 4.95788666e-06  6.93354149e-01  4.95788666e-06  6.19720184e-01  4.95788666e-06  5.01786275e-01  4.95788666e-06  1.80000000e+00  4.95788666e-06  1.21881945e-05  4.95788666e-06  5.00000000e-01                                 
 5.95788666e-06  6.89985252e-01  5.95788666e-06  6.16856209e-01  5.95788666e-06  4.98248675e-01  5.95788666e-06  1.80000000e+00  5.95788666e-06  1.23827935e-05  5.95788666e-06  5.00000000e-01                                 
 6.95788666e-06  6.93339652e-01  6.95788666e-06  6.19707264e-01  6.95788666e-06  5.02698145e-01  6.95788666e-06  1.80000000e+00  6.95788666e-06  1.21994282e-05  6.95788666e-06  5.00000000e-01                                 
 7.95788666e-06  6.90028456e-01  7.95788666e-06  6.16893793e-01  7.95788666e-06  4.97386696e-01  7.95788666e-06  1.80000000e+00  7.95788666e-06  1.23716611e-05  7.95788666e-06  5.00000000e-01                                 
 8.95788666e-06  6.93273187e-01  8.95788666e-06  6.19650413e-01  8.95788666e-06  5.03502173e-01  8.95788666e-06  1.80000000e+00  8.95788666e-06  1.22103733e-05  8.95788666e-06  5.00000000e-01                                 
 9.95788666e-06  6.90123974e-01  9.95788666e-06  6.16976011e-01  9.95788666e-06  4.96634676e-01  9.95788666e-06  1.80000000e+00  9.95788666e-06  1.23609900e-05  9.95788666e-06  5.00000000e-01                                 
 1.00005000e-05  6.91326642e-01  1.00005000e-05  6.17996145e-01  1.00005000e-05  5.04567625e-01  1.00005000e-05  1.80000000e+00  1.00005000e-05  1.22631891e-05  1.00005000e-05  5.00000000e-01                                 
 1.00005500e-05  6.91330068e-01  1.00005500e-05  6.17999373e-01  1.00005500e-05  4.97286122e-01  1.00005500e-05  1.62000000e+00  1.00005500e-05 -8.14604927e-05  1.00005500e-05  5.00000000e-01                                 
 1.00006500e-05  6.91337505e-01  1.00006500e-05  6.18005830e-01  1.00006500e-05  4.83844693e-01  1.00006500e-05  1.26000000e+00  1.00006500e-05 -7.03220719e-05  1.00006500e-05  5.00000000e-01                                 
 1.00008500e-05  6.91352018e-01  1.00008500e-05  6.18018134e-01  1.00008500e-05  4.83271362e-01  1.00008500e-05  5.40000000e-01  1.00008500e-05  1.19776013e-01  1.00008500e-05  5.00000000e-01                                 
 1.00010000e-05  6.91362099e-01  1.00010000e-05  6.18026838e-01  1.00010000e-05  4.55041604e-01  1.00010000e-05  0.00000000e+00  1.00010000e-05  1.62853366e+00  1.00010000e-05  5.00000000e-01                                 
 1.00010247e-05  6.91363742e-01  1.00010247e-05  6.18028228e-01  1.00010247e-05  4.39358997e-01  1.00010247e-05  0.00000000e+00  1.00010247e-05  1.74234118e+00  1.00010247e-05  5.00000000e-01                                 
 1.00010742e-05  6.91367008e-01  1.00010742e-05  6.18031006e-01  1.00010742e-05  4.13399442e-01  1.00010742e-05  0.00000000e+00  1.00010742e-05  1.81643420e+00  1.00010742e-05  5.00000000e-01                                 
 1.00011732e-05  6.91373471e-01  1.00011732e-05  6.18036520e-01  1.00011732e-05  3.91909706e-01  1.00011732e-05  0.00000000e+00  1.00011732e-05  1.78841407e+00  1.00011732e-05  5.00000000e-01                                 
 1.00013464e-05  6.91384462e-01  1.00013464e-05  6.18045931e-01  1.00013464e-05  3.89667686e-01  1.00013464e-05  0.00000000e+00  1.00013464e-05  1.80857052e+00  1.00013464e-05  5.00000000e-01                                 
 1.00015227e-05  6.91395250e-01  1.00015227e-05  6.18055180e-01  1.00015227e-05  3.89106007e-01  1.00015227e-05  0.00000000e+00  1.00015227e-05  1.79336233e+00  1.00015227e-05  5.00000000e-01                                 
 1.00017764e-05  6.91410275e-01  1.00017764e-05  6.18068046e-01  1.00017764e-05  3.88445564e-01  1.00017764e-05  0.00000000e+00  1.00017764e-05  1.80550009e+00  1.00017764e-05  5.00000000e-01                                 
 1.00022404e-05  6.91436790e-01  1.00022404e-05  6.18090728e-01  1.00022404e-05  3.87492835e-01  1.00022404e-05  0.00000000e+00  1.00022404e-05  1.79499603e+00  1.00022404e-05  5.00000000e-01                                 
 1.00031686e-05  6.91488056e-01  1.00031686e-05  6.18134475e-01  1.00031686e-05  3.87164591e-01  1.00031686e-05  0.00000000e+00  1.00031686e-05  1.80474295e+00  1.00031686e-05  5.00000000e-01                                 
 1.00050248e-05  6.91587328e-01  1.00050248e-05  6.18219018e-01  1.00050248e-05  3.88087817e-01  1.00050248e-05  0.00000000e+00  1.00050248e-05  1.79535398e+00  1.00050248e-05  5.00000000e-01                                 
 1.00087373e-05  6.91773165e-01  1.00087373e-05  6.18377189e-01  1.00087373e-05  3.92487435e-01  1.00087373e-05  0.00000000e+00  1.00087373e-05  1.80457085e+00  1.00087373e-05  5.00000000e-01                                 
 1.00161623e-05  6.92087139e-01  1.00161623e-05  6.18644361e-01  1.00161623e-05  4.03953871e-01  1.00161623e-05  0.00000000e+00  1.00161623e-05  1.79543929e+00  1.00161623e-05  5.00000000e-01                                 
