 time            v(vbep)         time            v(vben)         time            v(vout)         time            v(vphi1)        time            v(vphi2)        time            v(vref)         yes             currtemp       
 0.00000000e+00  6.82921394e-01  0.00000000e+00  6.26362078e-01  0.00000000e+00  1.06116632e+00  0.00000000e+00  0.00000000e+00  0.00000000e+00  1.79993213e+00  0.00000000e+00  5.00000000e-01  1.00000000e+00  3.60000000e+01 
 5.00000000e-12  6.82879130e-01  5.00000000e-12  6.26327431e-01  5.00000000e-12  1.06191915e+00  5.00000000e-12  1.80000000e-02  5.00000000e-12  1.80003983e+00  5.00000000e-12  5.00000000e-01                                 
 1.00000000e-11  6.82838653e-01  1.00000000e-11  6.26293957e-01  1.00000000e-11  1.06260226e+00  1.00000000e-11  3.60000000e-02  1.00000000e-11  1.80009855e+00  1.00000000e-11  5.00000000e-01                                 
 2.00000000e-11  6.82758908e-01  2.00000000e-11  6.26227354e-01  2.00000000e-11  1.06386103e+00  2.00000000e-11  7.20000000e-02  2.00000000e-11  1.80015729e+00  2.00000000e-11  5.00000000e-01                                 
 4.00000000e-11  6.82601499e-01  4.00000000e-11  6.26094847e-01  4.00000000e-11  1.06587928e+00  4.00000000e-11  1.44000000e-01  4.00000000e-11  1.80013822e+00  4.00000000e-11  5.00000000e-01                                 
 8.00000000e-11  6.82288692e-01  8.00000000e-11  6.25831435e-01  8.00000000e-11  1.06860033e+00  8.00000000e-11  2.88000000e-01  8.00000000e-11  1.80007594e+00  8.00000000e-11  5.00000000e-01                                 
 1.60000000e-10  6.81671977e-01  1.60000000e-10  6.25310989e-01  1.60000000e-10  1.07113475e+00  1.60000000e-10  5.76000000e-01  1.60000000e-10  1.80001402e+00  1.60000000e-10  5.00000000e-01                                 
 3.20000000e-10  6.80471515e-01  3.20000000e-10  6.24294520e-01  3.20000000e-10  1.06455800e+00  3.20000000e-10  1.15200000e+00  3.20000000e-10  1.80038747e+00  3.20000000e-10  5.00000000e-01                                 
 5.00000000e-10  6.79171402e-01  5.00000000e-10  6.23188232e-01  5.00000000e-10  1.22669238e+00  5.00000000e-10  1.80000000e+00  5.00000000e-10  1.16125683e-01  5.00000000e-10  5.00000000e-01                                 
 5.21472594e-10  6.79020114e-01  5.21472594e-10  6.23059109e-01  5.21472594e-10  1.26460422e+00  5.21472594e-10  1.80000000e+00  5.21472594e-10  2.27733996e-02  5.21472594e-10  5.00000000e-01                                 
 5.64417781e-10  6.78718879e-01  5.64417781e-10  6.22801833e-01  5.64417781e-10  1.33423956e+00  5.64417781e-10  1.80000000e+00  5.64417781e-10 -1.06288408e-02  5.64417781e-10  5.00000000e-01                                 
 6.50308155e-10  6.78124587e-01  6.50308155e-10  6.22293412e-01  6.50308155e-10  1.44949830e+00  6.50308155e-10  1.80000000e+00  6.50308155e-10  8.88476134e-03  6.50308155e-10  5.00000000e-01                                 
 7.72450260e-10  6.77297698e-01  7.72450260e-10  6.21584109e-01  7.72450260e-10  1.58143685e+00  7.72450260e-10  1.80000000e+00  7.72450260e-10 -7.72701723e-03  7.72450260e-10  5.00000000e-01                                 
 9.64030715e-10  6.76041600e-01  9.64030715e-10  6.20502470e-01  9.64030715e-10  1.73441404e+00  9.64030715e-10  1.80000000e+00  9.64030715e-10  7.26128164e-03  9.64030715e-10  5.00000000e-01                                 
 1.34719163e-09  6.73665886e-01  1.34719163e-09  6.18443389e-01  1.34719163e-09  1.90535767e+00  1.34719163e-09  1.80000000e+00  1.34719163e-09 -6.86525661e-03  1.34719163e-09  5.00000000e-01                                 
 1.61753845e-09  6.72091176e-01  1.61753845e-09  6.17068628e-01  1.61753845e-09  1.95468517e+00  1.61753845e-09  1.80000000e+00  1.61753845e-09  6.59487792e-03  1.61753845e-09  5.00000000e-01                                 
 1.93322000e-09  6.70346373e-01  1.93322000e-09  6.15536521e-01  1.93322000e-09  1.97965025e+00  1.93322000e-09  1.80000000e+00  1.93322000e-09 -6.21874266e-03  1.93322000e-09  5.00000000e-01                                 
 2.26410161e-09  6.68616130e-01  2.26410161e-09  6.14008172e-01  2.26410161e-09  1.98898273e+00  2.26410161e-09  1.80000000e+00  2.26410161e-09  6.00911076e-03  2.26410161e-09  5.00000000e-01                                 
 2.79020789e-09  6.66047302e-01  2.79020789e-09  6.11723220e-01  2.79020789e-09  1.99189031e+00  2.79020789e-09  1.80000000e+00  2.79020789e-09 -5.79309943e-03  2.79020789e-09  5.00000000e-01                                 
 3.42564761e-09  6.63204832e-01  3.42564761e-09  6.09173171e-01  3.42564761e-09  1.99009341e+00  3.42564761e-09  1.80000000e+00  3.42564761e-09  5.70497017e-03  3.42564761e-09  5.00000000e-01                                 
 4.54640819e-09  6.58749504e-01  4.54640819e-09  6.05133787e-01  4.54640819e-09  1.98582043e+00  4.54640819e-09  1.80000000e+00  4.54640819e-09 -5.59347579e-03  4.54640819e-09  5.00000000e-01                                 
 6.26660917e-09  6.52971606e-01  6.26660917e-09  5.99822537e-01  6.26660917e-09  1.98029941e+00  6.26660917e-09  1.80000000e+00  6.26660917e-09  5.58528314e-03  6.26660917e-09  5.00000000e-01                                 
 9.44033531e-09  6.44546573e-01  9.44033531e-09  5.91948867e-01  9.44033531e-09  1.97237730e+00  9.44033531e-09  1.80000000e+00  9.44033531e-09 -5.51800360e-03  9.44033531e-09  5.00000000e-01                                 
 1.07574394e-08  6.41698355e-01  1.07574394e-08  5.89249948e-01  1.07574394e-08  1.96976075e+00  1.07574394e-08  1.80000000e+00  1.07574394e-08  5.48973342e-03  1.07574394e-08  5.00000000e-01                                 
 1.22904670e-08  6.38705244e-01  1.22904670e-08  5.86397958e-01  1.22904670e-08  1.96698351e+00  1.22904670e-08  1.80000000e+00  1.22904670e-08 -5.40895094e-03  1.22904670e-08  5.00000000e-01                                 
 1.40857691e-08  6.35560456e-01  1.40857691e-08  5.83384941e-01  1.40857691e-08  1.96415613e+00  1.40857691e-08  1.80000000e+00  1.40857691e-08  5.39178923e-03  1.40857691e-08  5.00000000e-01                                 
 1.71047644e-08  6.30950548e-01  1.71047644e-08  5.78939961e-01  1.71047644e-08  1.95997294e+00  1.71047644e-08  1.80000000e+00  1.71047644e-08 -5.34052308e-03  1.71047644e-08  5.00000000e-01                                 
 2.06466147e-08  6.26369477e-01  2.06466147e-08  5.74491597e-01  2.06466147e-08  1.95594422e+00  2.06466147e-08  1.80000000e+00  2.06466147e-08  5.34331030e-03  2.06466147e-08  5.00000000e-01                                 
 2.60328973e-08  6.20576538e-01  2.60328973e-08  5.68829999e-01  2.60328973e-08  1.95085268e+00  2.60328973e-08  1.80000000e+00  2.60328973e-08 -5.30429902e-03  2.60328973e-08  5.00000000e-01                                 
 3.41216620e-08  6.13635152e-01  3.41216620e-08  5.62002187e-01  3.41216620e-08  1.94502454e+00  3.41216620e-08  1.80000000e+00  3.41216620e-08  5.31946356e-03  3.41216620e-08  5.00000000e-01                                 
 5.02991916e-08  6.03331366e-01  5.02991916e-08  5.51802944e-01  5.02991916e-08  1.93654325e+00  5.02991916e-08  1.80000000e+00  5.02991916e-08 -5.28978177e-03  5.02991916e-08  5.00000000e-01                                 
 6.55321086e-08  5.96351620e-01  6.55321086e-08  5.44841034e-01  6.55321086e-08  1.93102241e+00  6.55321086e-08  1.80000000e+00  6.55321086e-08  5.30982497e-03  6.55321086e-08  5.00000000e-01                                 
 9.23671431e-08  5.86786867e-01  9.23671431e-08  5.35337954e-01  9.23671431e-08  1.91059063e+00  9.23671431e-08  1.80000000e+00  9.23671431e-08 -5.28182774e-03  9.23671431e-08  5.00000000e-01                                 
 1.20292776e-07  5.76228328e-01  1.20292776e-07  5.25477119e-01  1.20292776e-07  1.88318633e+00  1.20292776e-07  1.80000000e+00  1.20292776e-07  5.30422432e-03  1.20292776e-07  5.00000000e-01                                 
 1.41784564e-07  5.65660737e-01  1.41784564e-07  5.16185625e-01  1.41784564e-07  1.85487081e+00  1.41784564e-07  1.80000000e+00  1.41784564e-07 -5.27569864e-03  1.41784564e-07  5.00000000e-01                                 
 1.65319892e-07  5.56667362e-01  1.65319892e-07  5.08213348e-01  1.65319892e-07  1.81749364e+00  1.65319892e-07  1.80000000e+00  1.65319892e-07  5.29751702e-03  1.65319892e-07  5.00000000e-01                                 
 1.86583394e-07  5.50173957e-01  1.86583394e-07  5.02414582e-01  1.86583394e-07  1.78136547e+00  1.86583394e-07  1.80000000e+00  1.86583394e-07 -5.26883869e-03  1.86583394e-07  5.00000000e-01                                 
 2.08685247e-07  5.54055773e-01  2.08685247e-07  5.04856734e-01  2.08685247e-07  1.78158244e+00  2.08685247e-07  1.80000000e+00  2.08685247e-07  5.29097461e-03  2.08685247e-07  5.00000000e-01                                 
 2.29114767e-07  5.57439691e-01  2.29114767e-07  5.06980904e-01  2.29114767e-07  1.76863689e+00  2.29114767e-07  1.80000000e+00  2.29114767e-07 -5.26182930e-03  2.29114767e-07  5.00000000e-01                                 
 2.49146741e-07  5.54105701e-01  2.49146741e-07  5.03838563e-01  2.49146741e-07  1.74544673e+00  2.49146741e-07  1.80000000e+00  2.49146741e-07  5.28318890e-03  2.49146741e-07  5.00000000e-01                                 
 2.69347136e-07  5.50573683e-01  2.69347136e-07  5.00575524e-01  2.69347136e-07  1.72208421e+00  2.69347136e-07  1.80000000e+00  2.69347136e-07 -5.25438853e-03  2.69347136e-07  5.00000000e-01                                 
 2.88500270e-07  5.46064035e-01  2.88500270e-07  4.96596946e-01  2.88500270e-07  1.69933833e+00  2.88500270e-07  1.80000000e+00  2.88500270e-07  5.27542229e-03  2.88500270e-07  5.00000000e-01                                 
 3.26806539e-07  5.36759391e-01  3.26806539e-07  4.88504090e-01  3.26806539e-07  1.65271705e+00  3.26806539e-07  1.80000000e+00  3.26806539e-07 -5.24839332e-03  3.26806539e-07  5.00000000e-01                                 
 3.77770635e-07  5.24353705e-01  3.77770635e-07  4.77879762e-01  3.77770635e-07  1.58839907e+00  3.77770635e-07  1.80000000e+00  3.77770635e-07  5.27196620e-03  3.77770635e-07  5.00000000e-01                                 
 4.61812107e-07  5.04114491e-01  4.61812107e-07  4.60853298e-01  4.61812107e-07  1.48603755e+00  4.61812107e-07  1.80000000e+00  4.61812107e-07 -5.24616569e-03  4.61812107e-07  5.00000000e-01                                 
 5.50628867e-07  4.72637201e-01  5.50628867e-07  4.35206776e-01  5.50628867e-07  1.36171933e+00  5.50628867e-07  1.80000000e+00  5.50628867e-07  5.27012565e-03  5.50628867e-07  5.00000000e-01                                 
 6.60000115e-07  4.33327329e-01  6.60000115e-07  4.03532645e-01  6.60000115e-07  1.20962813e+00  6.60000115e-07  1.80000000e+00  6.60000115e-07 -5.24464425e-03  6.60000115e-07  5.00000000e-01                                 
 7.53269432e-07  7.14306158e-01  7.53269432e-07  6.55686898e-01  7.53269432e-07  1.37782651e+00  7.53269432e-07  1.80000000e+00  7.53269432e-07  5.27207866e-03  7.53269432e-07  5.00000000e-01                                 
 7.62032947e-07  7.32614438e-01  7.62032947e-07  6.73869848e-01  7.62032947e-07  1.38729880e+00  7.62032947e-07  1.80000000e+00  7.62032947e-07  4.65857374e-06  7.62032947e-07  5.00000000e-01                                 
 7.79559977e-07  7.56854914e-01  7.79559977e-07  6.96926533e-01  7.79559977e-07  1.39226218e+00  7.79559977e-07  1.80000000e+00  7.79559977e-07 -1.04626552e-06  7.79559977e-07  5.00000000e-01                                 
 8.14614037e-07  7.77703841e-01  8.14614037e-07  7.15516301e-01  8.14614037e-07  1.37496223e+00  8.14614037e-07  1.80000000e+00  8.14614037e-07  3.40455938e-06  8.14614037e-07  5.00000000e-01                                 
 8.53542139e-07  7.80539085e-01  8.53542139e-07  7.17984800e-01  8.53542139e-07  1.33698059e+00  8.53542139e-07  1.80000000e+00  8.53542139e-07 -1.74633074e-06  8.53542139e-07  5.00000000e-01                                 
 9.04079979e-07  7.81288075e-01  9.04079979e-07  7.18595253e-01  9.04079979e-07  1.28402389e+00  9.04079979e-07  1.80000000e+00  9.04079979e-07  3.26955818e-06  9.04079979e-07  5.00000000e-01                                 
 9.67174700e-07  7.82686397e-01  9.67174700e-07  7.19807067e-01  9.67174700e-07  1.21892794e+00  9.67174700e-07  1.80000000e+00  9.67174700e-07 -1.70586185e-06  9.67174700e-07  5.00000000e-01                                 
 9.77263752e-07  7.82842293e-01  9.77263752e-07  7.19927923e-01  9.77263752e-07  1.20822120e+00  9.77263752e-07  1.80000000e+00  9.77263752e-07  7.57614918e-07  9.77263752e-07  5.00000000e-01                                 
 9.97441856e-07  7.83330409e-01  9.97441856e-07  7.20338333e-01  9.97441856e-07  1.18724142e+00  9.97441856e-07  1.80000000e+00  9.97441856e-07  7.91373069e-07  9.97441856e-07  5.00000000e-01                                 
 1.03779806e-06  7.79423085e-01  1.03779806e-06  7.17030915e-01  1.03779806e-06  1.14073803e+00  1.03779806e-06  1.80000000e+00  1.03779806e-06  6.02099128e-07  1.03779806e-06  5.00000000e-01                                 
 1.04393665e-06  7.76989365e-01  1.04393665e-06  7.14945811e-01  1.04393665e-06  1.13193378e+00  1.04393665e-06  1.80000000e+00  1.04393665e-06  4.95683275e-07  1.04393665e-06  5.00000000e-01                                 
 1.05621384e-06  7.70972071e-01  1.05621384e-06  7.09704587e-01  1.05621384e-06  1.11317839e+00  1.05621384e-06  1.80000000e+00  1.05621384e-06  3.56384356e-07  1.05621384e-06  5.00000000e-01                                 
 1.08076821e-06  7.62314180e-01  1.08076821e-06  7.01948550e-01  1.08076821e-06  1.07864819e+00  1.08076821e-06  1.80000000e+00  1.08076821e-06  6.47955390e-07  1.08076821e-06  5.00000000e-01                                 
 1.12708978e-06  7.67452249e-01  1.12708978e-06  7.06535924e-01  1.12708978e-06  1.03527656e+00  1.12708978e-06  1.80000000e+00  1.12708978e-06  1.01182365e-06  1.12708978e-06  5.00000000e-01                                 
 1.18241021e-06  7.76415384e-01  1.18241021e-06  7.14425380e-01  1.18241021e-06  9.89980716e-01  1.18241021e-06  1.80000000e+00  1.18241021e-06  7.50045912e-07  1.18241021e-06  5.00000000e-01                                 
 1.25192201e-06  7.72025030e-01  1.25192201e-06  7.10608193e-01  1.25192201e-06  9.28423591e-01  1.25192201e-06  1.80000000e+00  1.25192201e-06  6.86554484e-07  1.25192201e-06  5.00000000e-01                                 
 1.35318483e-06  7.68350066e-01  1.35318483e-06  7.07347239e-01  1.35318483e-06  8.56273582e-01  1.35318483e-06  1.80000000e+00  1.35318483e-06  7.84461292e-07  1.35318483e-06  5.00000000e-01                                 
 1.46105615e-06  7.74374150e-01  1.46105615e-06  7.12653651e-01  1.46105615e-06  7.97112459e-01  1.46105615e-06  1.80000000e+00  1.46105615e-06  8.15509867e-07  1.46105615e-06  5.00000000e-01                                 
 1.63707697e-06  7.69794027e-01  1.63707697e-06  7.08636650e-01  1.63707697e-06  6.96632083e-01  1.63707697e-06  1.80000000e+00  1.63707697e-06  6.70635888e-07  1.63707697e-06  5.00000000e-01                                 
 1.81614486e-06  7.71795694e-01  1.81614486e-06  7.10392616e-01  1.81614486e-06  6.08801964e-01  1.81614486e-06  1.80000000e+00  1.81614486e-06  8.63865534e-07  1.81614486e-06  5.00000000e-01                                 
 2.07975955e-06  7.72230818e-01  2.07975955e-06  7.10784474e-01  2.07975955e-06  5.19678497e-01  2.07975955e-06  1.80000000e+00  2.07975955e-06  6.62880920e-07  2.07975955e-06  5.00000000e-01                                 
 2.11987703e-06  7.70901750e-01  2.11987703e-06  7.09612629e-01  2.11987703e-06  5.12400562e-01  2.11987703e-06  1.80000000e+00  2.11987703e-06  7.36125493e-07  2.11987703e-06  5.00000000e-01                                 
 2.20011197e-06  7.71132545e-01  2.20011197e-06  7.09811933e-01  2.20011197e-06  5.02764487e-01  2.20011197e-06  1.80000000e+00  2.20011197e-06  7.88587683e-07  2.20011197e-06  5.00000000e-01                                 
 2.36058186e-06  7.72289707e-01  2.36058186e-06  7.10832780e-01  2.36058186e-06  4.92653936e-01  2.36058186e-06  1.80000000e+00  2.36058186e-06  7.43453933e-07  2.36058186e-06  5.00000000e-01                                 
 2.53281135e-06  7.70785530e-01  2.53281135e-06  7.09507883e-01  2.53281135e-06  4.92075478e-01  2.53281135e-06  1.80000000e+00  2.53281135e-06  7.65510592e-07  2.53281135e-06  5.00000000e-01                                 
 2.75389293e-06  7.72190271e-01  2.75389293e-06  7.10743850e-01  2.75389293e-06  5.03784980e-01  2.75389293e-06  1.80000000e+00  2.75389293e-06  7.63946132e-07  2.75389293e-06  5.00000000e-01                                 
 2.98122100e-06  7.71127082e-01  2.98122100e-06  7.09810123e-01  2.98122100e-06  4.99297642e-01  2.98122100e-06  1.80000000e+00  2.98122100e-06  7.48876416e-07  2.98122100e-06  5.00000000e-01                                 
 3.23718059e-06  7.71768543e-01  3.23718059e-06  7.10372606e-01  3.23718059e-06  4.99819742e-01  3.23718059e-06  1.80000000e+00  3.23718059e-06  7.76124938e-07  3.23718059e-06  5.00000000e-01                                 
 3.68592008e-06  7.71472422e-01  3.68592008e-06  7.10114482e-01  3.68592008e-06  5.00938564e-01  3.68592008e-06  1.80000000e+00  3.68592008e-06  7.42923069e-07  3.68592008e-06  5.00000000e-01                                 
 4.11359088e-06  7.71521744e-01  4.11359088e-06  7.10155494e-01  4.11359088e-06  4.99277529e-01  4.11359088e-06  1.80000000e+00  4.11359088e-06  7.78094851e-07  4.11359088e-06  5.00000000e-01                                 
 4.83135832e-06  7.71662589e-01  4.83135832e-06  7.10281733e-01  4.83135832e-06  5.01155533e-01  4.83135832e-06  1.80000000e+00  4.83135832e-06  7.42455874e-07  4.83135832e-06  5.00000000e-01                                 
 5.78467888e-06  7.71407438e-01  5.78467888e-06  7.10054970e-01  5.78467888e-06  4.99225907e-01  5.78467888e-06  1.80000000e+00  5.78467888e-06  7.77741575e-07  5.78467888e-06  5.00000000e-01                                 
 6.78467888e-06  7.71750437e-01  6.78467888e-06  7.10358898e-01  6.78467888e-06  5.01153276e-01  6.78467888e-06  1.80000000e+00  6.78467888e-06  7.43107387e-07  6.78467888e-06  5.00000000e-01                                 
 7.78467888e-06  7.71328097e-01  7.78467888e-06  7.09985224e-01  7.78467888e-06  4.99240442e-01  7.78467888e-06  1.80000000e+00  7.78467888e-06  7.76834872e-07  7.78467888e-06  5.00000000e-01                                 
 8.78467888e-06  7.71821688e-01  8.78467888e-06  7.10421422e-01  8.78467888e-06  5.01116051e-01  8.78467888e-06  1.80000000e+00  8.78467888e-06  7.44254411e-07  8.78467888e-06  5.00000000e-01                                 
 9.78467888e-06  7.71263785e-01  9.78467888e-06  7.09928725e-01  9.78467888e-06  4.99287679e-01  9.78467888e-06  1.80000000e+00  9.78467888e-06  7.75472057e-07  9.78467888e-06  5.00000000e-01                                 
 1.00005000e-05  7.71936815e-01  1.00005000e-05  7.10522174e-01  1.00005000e-05  5.00933572e-01  1.00005000e-05  1.80000000e+00  1.00005000e-05  7.49228897e-07  1.00005000e-05  5.00000000e-01                                 
 1.00005500e-05  7.71936264e-01  1.00005500e-05  7.10521693e-01  1.00005500e-05  4.93017475e-01  1.00005500e-05  1.62000000e+00  1.00005500e-05 -7.80896357e-05  1.00005500e-05  5.00000000e-01                                 
 1.00006500e-05  7.71935187e-01  1.00006500e-05  7.10520745e-01  1.00006500e-05  4.79177294e-01  1.00006500e-05  1.26000000e+00  1.00006500e-05 -6.00805697e-05  1.00006500e-05  5.00000000e-01                                 
 1.00008500e-05  7.71933101e-01  1.00008500e-05  7.10518903e-01  1.00008500e-05  4.77071952e-01  1.00008500e-05  5.40000000e-01  1.00008500e-05 -3.94408780e-03  1.00008500e-05  5.00000000e-01                                 
