 time            v(vbep)         time            v(vben)         time            v(vout)         time            v(vphi1)        time            v(vphi2)        time            v(vref)         yes             currtemp       
 0.00000000e+00  7.22765256e-01  0.00000000e+00  6.72260229e-01  0.00000000e+00  8.24225864e-02  0.00000000e+00  0.00000000e+00  0.00000000e+00  1.79997013e+00  0.00000000e+00  5.00000000e-01  1.00000000e+00  3.00000000e+00 
 5.00000000e-12  7.22746255e-01  5.00000000e-12  6.72244409e-01  5.00000000e-12  8.28671678e-02  5.00000000e-12  1.80000000e-02  5.00000000e-12  1.80005415e+00  5.00000000e-12  5.00000000e-01                                 
 1.00000000e-11  7.22727591e-01  1.00000000e-11  6.72228934e-01  1.00000000e-11  8.32667772e-02  1.00000000e-11  3.60000000e-02  1.00000000e-11  1.80009444e+00  1.00000000e-11  5.00000000e-01                                 
 2.00000000e-11  7.22690440e-01  2.00000000e-11  6.72198076e-01  2.00000000e-11  8.40034843e-02  2.00000000e-11  7.20000000e-02  2.00000000e-11  1.80012828e+00  2.00000000e-11  5.00000000e-01                                 
 4.00000000e-11  7.22616435e-01  4.00000000e-11  6.72136521e-01  4.00000000e-11  8.51975329e-02  4.00000000e-11  1.44000000e-01  4.00000000e-11  1.80009769e+00  4.00000000e-11  5.00000000e-01                                 
 8.00000000e-11  7.22468894e-01  8.00000000e-11  6.72013750e-01  8.00000000e-11  8.69965521e-02  8.00000000e-11  2.88000000e-01  8.00000000e-11  1.80004527e+00  8.00000000e-11  5.00000000e-01                                 
 1.60000000e-10  7.22175981e-01  1.60000000e-10  6.71769697e-01  1.60000000e-10  8.99088622e-02  1.60000000e-10  5.76000000e-01  1.60000000e-10  1.80001111e+00  1.60000000e-10  5.00000000e-01                                 
 3.20000000e-10  7.21598925e-01  3.20000000e-10  6.71287763e-01  3.20000000e-10  1.24336725e-01  3.20000000e-10  1.15200000e+00  3.20000000e-10  1.80000062e+00  3.20000000e-10  5.00000000e-01                                 
 5.00000000e-10  7.20963684e-01  5.00000000e-10  6.70755443e-01  5.00000000e-10  4.63936258e-01  5.00000000e-10  1.80000000e+00  5.00000000e-10  1.02620242e-01  5.00000000e-10  5.00000000e-01                                 
 5.21209051e-10  7.20889893e-01  5.21209051e-10  6.70693476e-01  5.21209051e-10  5.26184659e-01  5.21209051e-10  1.80000000e+00  5.21209051e-10  1.86212295e-02  5.21209051e-10  5.00000000e-01                                 
 5.63627152e-10  7.20742696e-01  5.63627152e-10  6.70569811e-01  5.63627152e-10  6.36289013e-01  5.63627152e-10  1.80000000e+00  5.63627152e-10 -8.68811615e-03  5.63627152e-10  5.00000000e-01                                 
 6.48463354e-10  7.20450631e-01  6.48463354e-10  6.70324147e-01  6.48463354e-10  7.96341719e-01  6.48463354e-10  1.80000000e+00  6.48463354e-10  7.65475414e-03  6.48463354e-10  5.00000000e-01                                 
 7.71913481e-10  7.20031074e-01  7.71913481e-10  6.69970571e-01  7.71913481e-10  9.58036465e-01  7.71913481e-10  1.80000000e+00  7.71913481e-10 -6.62628428e-03  7.71913481e-10  5.00000000e-01                                 
 9.61892622e-10  7.19397580e-01  9.61892622e-10  6.69435211e-01  9.61892622e-10  1.14389305e+00  9.61892622e-10  1.80000000e+00  9.61892622e-10  6.32787450e-03  9.61892622e-10  5.00000000e-01                                 
 1.26629294e-09  7.18411723e-01  1.26629294e-09  6.68598565e-01  1.26629294e-09  1.36158441e+00  1.26629294e-09  1.80000000e+00  1.26629294e-09 -5.96365672e-03  1.26629294e-09  5.00000000e-01                                 
 1.82071611e-09  7.16701380e-01  1.82071611e-09  6.67137249e-01  1.82071611e-09  1.55507425e+00  1.82071611e-09  1.80000000e+00  1.82071611e-09  5.90306192e-03  1.82071611e-09  5.00000000e-01                                 
 2.17275810e-09  7.15668890e-01  2.17275810e-09  6.66248965e-01  2.17275810e-09  1.59660590e+00  2.17275810e-09  1.80000000e+00  2.17275810e-09 -5.59900782e-03  2.17275810e-09  5.00000000e-01                                 
 2.53390741e-09  7.14648347e-01  2.53390741e-09  6.65366658e-01  2.53390741e-09  1.60816825e+00  2.53390741e-09  1.80000000e+00  2.53390741e-09  5.47523913e-03  2.53390741e-09  5.00000000e-01                                 
 2.93299263e-09  7.13562616e-01  2.93299263e-09  6.64423436e-01  2.93299263e-09  1.60852130e+00  2.93299263e-09  1.80000000e+00  2.93299263e-09 -5.25266388e-03  2.93299263e-09  5.00000000e-01                                 
 3.31105257e-09  7.12571837e-01  3.31105257e-09  6.63558695e-01  3.31105257e-09  1.60665561e+00  3.31105257e-09  1.80000000e+00  3.31105257e-09  5.10952533e-03  3.31105257e-09  5.00000000e-01                                 
 3.95293306e-09  7.10965703e-01  3.95293306e-09  6.62149180e-01  3.95293306e-09  1.60581237e+00  3.95293306e-09  1.80000000e+00  3.95293306e-09 -4.98178864e-03  3.95293306e-09  5.00000000e-01                                 
 4.76255513e-09  7.09062488e-01  4.76255513e-09  6.60467038e-01  4.76255513e-09  1.60435625e+00  4.76255513e-09  1.80000000e+00  4.76255513e-09  4.92458040e-03  4.76255513e-09  5.00000000e-01                                 
 6.23466216e-09  7.05895084e-01  6.23466216e-09  6.57641523e-01  6.23466216e-09  1.59909573e+00  6.23466216e-09  1.80000000e+00  6.23466216e-09 -4.86147299e-03  6.23466216e-09  5.00000000e-01                                 
 8.80329951e-09  7.01069173e-01  8.80329951e-09  6.53281864e-01  8.80329951e-09  1.58886294e+00  8.80329951e-09  1.80000000e+00  8.80329951e-09  4.85720867e-03  8.80329951e-09  5.00000000e-01                                 
 1.20805356e-08  6.95866501e-01  1.20805356e-08  6.48517916e-01  1.20805356e-08  1.57625302e+00  1.20805356e-08  1.80000000e+00  1.20805356e-08 -4.81827370e-03  1.20805356e-08  5.00000000e-01                                 
 1.86350077e-08  6.87456645e-01  1.86350077e-08  6.40721894e-01  1.86350077e-08  1.54722102e+00  1.86350077e-08  1.80000000e+00  1.86350077e-08  4.82899889e-03  1.86350077e-08  5.00000000e-01                                 
 3.17439519e-08  6.75565550e-01  3.17439519e-08  6.29506003e-01  3.17439519e-08  1.47173632e+00  3.17439519e-08  1.80000000e+00  3.17439519e-08 -4.80389486e-03  3.17439519e-08  5.00000000e-01                                 
 5.35822344e-08  6.68408535e-01  5.35822344e-08  6.21708322e-01  5.35822344e-08  1.40530757e+00  5.35822344e-08  1.80000000e+00  5.35822344e-08  4.82206426e-03  5.35822344e-08  5.00000000e-01                                 
 7.32598229e-08  6.63830773e-01  7.32598229e-08  6.16725822e-01  7.32598229e-08  1.31121583e+00  7.32598229e-08  1.80000000e+00  7.32598229e-08 -4.79798036e-03  7.32598229e-08  5.00000000e-01                                 
 9.33205653e-08  6.56242119e-01  9.33205653e-08  6.09618560e-01  9.33205653e-08  1.18655268e+00  9.33205653e-08  1.80000000e+00  9.33205653e-08  4.81582359e-03  9.33205653e-08  5.00000000e-01                                 
 1.14776222e-07  6.51101032e-01  1.14776222e-07  6.04562132e-01  1.14776222e-07  1.05103693e+00  1.14776222e-07  1.80000000e+00  1.14776222e-07 -4.79204560e-03  1.14776222e-07  5.00000000e-01                                 
 1.36889969e-07  6.46203239e-01  1.36889969e-07  5.99822556e-01  1.36889969e-07  9.27788040e-01  1.36889969e-07  1.80000000e+00  1.36889969e-07  4.81026176e-03  1.36889969e-07  5.00000000e-01                                 
 1.74060648e-07  6.35318931e-01  1.74060648e-07  5.89996659e-01  1.74060648e-07  7.79177396e-01  1.74060648e-07  1.80000000e+00  1.74060648e-07 -4.78776994e-03  1.74060648e-07  5.00000000e-01                                 
 2.22654812e-07  6.21839655e-01  2.22654812e-07  5.78078387e-01  2.22654812e-07  6.64878576e-01  2.22654812e-07  1.80000000e+00  2.22654812e-07  4.80739949e-03  2.22654812e-07  5.00000000e-01                                 
 2.76156697e-07  6.08405020e-01  2.76156697e-07  5.66395464e-01  2.76156697e-07  5.64593603e-01  2.76156697e-07  1.80000000e+00  2.76156697e-07 -4.78539588e-03  2.76156697e-07  5.00000000e-01                                 
 3.35088060e-07  5.93089830e-01  3.35088060e-07  5.53408536e-01  3.35088060e-07  5.01340675e-01  3.35088060e-07  1.80000000e+00  3.35088060e-07  4.80524875e-03  3.35088060e-07  5.00000000e-01                                 
 4.42927998e-07  5.62860095e-01  4.42927998e-07  5.28440314e-01  4.42927998e-07  4.76732135e-01  4.42927998e-07  1.80000000e+00  4.42927998e-07 -4.78384584e-03  4.42927998e-07  5.00000000e-01                                 
 4.58703715e-07  5.57835094e-01  4.58703715e-07  5.24363145e-01  4.58703715e-07  4.75022632e-01  4.58703715e-07  1.80000000e+00  4.58703715e-07 -9.50553403e-07  4.58703715e-07  5.00000000e-01                                 
 4.90255148e-07  5.47491145e-01  4.90255148e-07  5.15990094e-01  4.90255148e-07  4.72609553e-01  4.90255148e-07  1.80000000e+00  4.90255148e-07  8.41571912e-07  4.90255148e-07  5.00000000e-01                                 
 5.46603876e-07  5.27568134e-01  5.46603876e-07  4.99949900e-01  5.46603876e-07  4.99187707e-01  5.46603876e-07  1.80000000e+00  5.46603876e-07 -9.65401610e-07  5.46603876e-07  5.00000000e-01                                 
 6.01604883e-07  5.09428349e-01  6.01604883e-07  4.85403582e-01  6.01604883e-07  5.28091563e-01  6.01604883e-07  1.80000000e+00  6.01604883e-07  8.61705454e-07  6.01604883e-07  5.00000000e-01                                 
 6.46648998e-07  5.17265553e-01  6.46648998e-07  4.91663493e-01  6.46648998e-07  5.10921511e-01  6.46648998e-07  1.80000000e+00  6.46648998e-07 -5.80915677e-07  6.46648998e-07  5.00000000e-01                                 
 6.91681140e-07  6.94795087e-01  6.91681140e-07  6.38322049e-01  6.91681140e-07  5.63103017e-01  6.91681140e-07  1.80000000e+00  6.91681140e-07  4.07161188e-06  6.91681140e-07  5.00000000e-01                                 
 7.31107344e-07  7.90688242e-01  7.31107344e-07  7.37984513e-01  7.31107344e-07  5.39694403e-01  7.31107344e-07  1.80000000e+00  7.31107344e-07 -1.05710217e-06  7.31107344e-07  5.00000000e-01                                 
 7.36070317e-07  7.94653133e-01  7.36070317e-07  7.42165251e-01  7.36070317e-07  5.32114102e-01  7.36070317e-07  1.80000000e+00  7.36070317e-07  5.49179408e-07  7.36070317e-07  5.00000000e-01                                 
 7.45996263e-07  8.02737468e-01  7.45996263e-07  7.49932651e-01  7.45996263e-07  5.21718440e-01  7.45996263e-07  1.80000000e+00  7.45996263e-07  6.38225063e-07  7.45996263e-07  5.00000000e-01                                 
 7.65848156e-07  8.14186703e-01  7.65848156e-07  7.60515087e-01  7.65848156e-07  5.11812400e-01  7.65848156e-07  1.80000000e+00  7.65848156e-07  2.54315925e-07  7.65848156e-07  5.00000000e-01                                 
 8.05551941e-07  8.30775840e-01  8.05551941e-07  7.75248851e-01  8.05551941e-07  5.06123585e-01  8.05551941e-07  1.80000000e+00  8.05551941e-07  4.23599555e-07  8.05551941e-07  5.00000000e-01                                 
 8.57033698e-07  8.58112051e-01  8.57033698e-07  7.97357490e-01  8.57033698e-07  5.09562191e-01  8.57033698e-07  1.80000000e+00  8.57033698e-07  3.92696149e-07  8.57033698e-07  5.00000000e-01                                 
 8.97369977e-07  8.64439183e-01  8.97369977e-07  8.02160068e-01  8.97369977e-07  5.01182002e-01  8.97369977e-07  1.80000000e+00  8.97369977e-07 -3.70011341e-08  8.97369977e-07  5.00000000e-01                                 
 9.01694031e-07  8.60914829e-01  9.01694031e-07  7.99601817e-01  9.01694031e-07  4.97772969e-01  9.01694031e-07  1.80000000e+00  9.01694031e-07 -3.92652247e-07  9.01694031e-07  5.00000000e-01                                 
 9.10342141e-07  8.52130348e-01  9.10342141e-07  7.92908339e-01  9.10342141e-07  4.89916175e-01  9.10342141e-07  1.80000000e+00  9.10342141e-07 -6.95207245e-07  9.10342141e-07  5.00000000e-01                                 
 9.27638360e-07  8.34425531e-01  9.27638360e-07  7.78422263e-01  9.27638360e-07  4.75586003e-01  9.27638360e-07  1.80000000e+00  9.27638360e-07 -4.53206167e-07  9.27638360e-07  5.00000000e-01                                 
 9.46791854e-07  8.20666783e-01  9.46791854e-07  7.66449668e-01  9.46791854e-07  4.66054552e-01  9.46791854e-07  1.80000000e+00  9.46791854e-07 -3.06870767e-07  9.46791854e-07  5.00000000e-01                                 
 9.80779603e-07  8.11098992e-01  9.80779603e-07  7.57710748e-01  9.80779603e-07  4.63881440e-01  9.80779603e-07  1.80000000e+00  9.80779603e-07  9.67835395e-08  9.80779603e-07  5.00000000e-01                                 
 1.01632369e-06  8.18110828e-01  1.01632369e-06  7.64104823e-01  1.01632369e-06  5.00921781e-01  1.01632369e-06  1.80000000e+00  1.01632369e-06  3.13588554e-07  1.01632369e-06  5.00000000e-01                                 
 1.06821336e-06  8.24929044e-01  1.06821336e-06  7.70170681e-01  1.06821336e-06  5.47918469e-01  1.06821336e-06  1.80000000e+00  1.06821336e-06 -4.04336048e-09  1.06821336e-06  5.00000000e-01                                 
 1.11765314e-06  8.20120575e-01  1.11765314e-06  7.65935541e-01  1.11765314e-06  5.04542549e-01  1.11765314e-06  1.80000000e+00  1.11765314e-06  1.83037561e-08  1.11765314e-06  5.00000000e-01                                 
 1.16964256e-06  8.16495816e-01  1.16964256e-06  7.62639529e-01  1.16964256e-06  4.60580825e-01  1.16964256e-06  1.80000000e+00  1.16964256e-06  5.65909154e-08  1.16964256e-06  5.00000000e-01                                 
 1.17928680e-06  8.17678819e-01  1.17928680e-06  7.63714309e-01  1.17928680e-06  4.62376151e-01  1.17928680e-06  1.80000000e+00  1.17928680e-06  1.51055965e-07  1.17928680e-06  5.00000000e-01                                 
 1.19857528e-06  8.19944051e-01  1.19857528e-06  7.65750087e-01  1.19857528e-06  4.66168825e-01  1.19857528e-06  1.80000000e+00  1.19857528e-06  1.48461109e-07  1.19857528e-06  5.00000000e-01                                 
 1.23715226e-06  8.22048398e-01  1.23715226e-06  7.67633081e-01  1.23715226e-06  4.90129854e-01  1.23715226e-06  1.80000000e+00  1.23715226e-06  8.14594613e-08  1.23715226e-06  5.00000000e-01                                 
 1.28452070e-06  8.19893026e-01  1.28452070e-06  7.65716228e-01  1.28452070e-06  5.38202681e-01  1.28452070e-06  1.80000000e+00  1.28452070e-06  1.30468512e-08  1.28452070e-06  5.00000000e-01                                 
 1.33482290e-06  8.18705853e-01  1.33482290e-06  7.64643441e-01  1.33482290e-06  5.16986924e-01  1.33482290e-06  1.80000000e+00  1.33482290e-06  8.51836939e-08  1.33482290e-06  5.00000000e-01                                 
 1.39066520e-06  8.20647669e-01  1.39066520e-06  7.66384057e-01  1.39066520e-06  4.62688285e-01  1.39066520e-06  1.80000000e+00  1.39066520e-06  1.20164931e-07  1.39066520e-06  5.00000000e-01                                 
 1.44039658e-06  8.20552167e-01  1.44039658e-06  7.66301838e-01  1.44039658e-06  4.73913145e-01  1.44039658e-06  1.80000000e+00  1.44039658e-06  3.56501579e-08  1.44039658e-06  5.00000000e-01                                 
 1.49816544e-06  8.19354709e-01  1.49816544e-06  7.65229309e-01  1.49816544e-06  5.27697488e-01  1.49816544e-06  1.80000000e+00  1.49816544e-06  9.24980760e-08  1.49816544e-06  5.00000000e-01                                 
 1.55509502e-06  8.19985985e-01  1.55509502e-06  7.65792034e-01  1.55509502e-06  5.33552185e-01  1.55509502e-06  1.80000000e+00  1.55509502e-06  5.73285994e-08  1.55509502e-06  5.00000000e-01                                 
 1.62053225e-06  8.20405848e-01  1.62053225e-06  7.66170708e-01  1.62053225e-06  4.81993607e-01  1.62053225e-06  1.80000000e+00  1.62053225e-06  1.03849883e-07  1.62053225e-06  5.00000000e-01                                 
 1.69639082e-06  8.19664047e-01  1.69639082e-06  7.65505716e-01  1.69639082e-06  4.84361413e-01  1.69639082e-06  1.80000000e+00  1.69639082e-06  4.11717624e-08  1.69639082e-06  5.00000000e-01                                 
 1.70511767e-06  8.19681633e-01  1.70511767e-06  7.65521431e-01  1.70511767e-06  4.84848286e-01  1.70511767e-06  1.80000000e+00  1.70511767e-06  6.38619279e-08  1.70511767e-06  5.00000000e-01                                 
 1.72257138e-06  8.19785559e-01  1.72257138e-06  7.65614066e-01  1.72257138e-06  4.86796726e-01  1.72257138e-06  1.80000000e+00  1.72257138e-06  9.45689928e-08  1.72257138e-06  5.00000000e-01                                 
 1.75747880e-06  8.20100028e-01  1.75747880e-06  7.65895585e-01  1.75747880e-06  4.99680883e-01  1.75747880e-06  1.80000000e+00  1.75747880e-06  7.29339920e-08  1.75747880e-06  5.00000000e-01                                 
 1.82729364e-06  8.20084136e-01  1.82729364e-06  7.65882357e-01  1.82729364e-06  5.18835089e-01  1.82729364e-06  1.80000000e+00  1.82729364e-06  7.42492092e-08  1.82729364e-06  5.00000000e-01                                 
 1.92118876e-06  8.19854097e-01  1.92118876e-06  7.65675775e-01  1.92118876e-06  4.96111578e-01  1.92118876e-06  1.80000000e+00  1.92118876e-06  7.17378910e-08  1.92118876e-06  5.00000000e-01                                 
 2.01253593e-06  8.20100392e-01  2.01253593e-06  7.65896298e-01  2.01253593e-06  4.84734394e-01  2.01253593e-06  1.80000000e+00  2.01253593e-06  8.51144403e-08  2.01253593e-06  5.00000000e-01                                 
 2.03070927e-06  8.20079012e-01  2.03070927e-06  7.65877336e-01  2.03070927e-06  4.89426907e-01  2.03070927e-06  1.80000000e+00  2.03070927e-06  7.54944496e-08  2.03070927e-06  5.00000000e-01                                 
 2.06705596e-06  8.19998957e-01  2.06705596e-06  7.65805834e-01  2.06705596e-06  5.03488468e-01  2.06705596e-06  1.80000000e+00  2.06705596e-06  7.52622143e-08  2.06705596e-06  5.00000000e-01                                 
 2.13974934e-06  8.19949490e-01  2.13974934e-06  7.65761272e-01  2.13974934e-06  5.12621560e-01  2.13974934e-06  1.80000000e+00  2.13974934e-06  7.06799485e-08  2.13974934e-06  5.00000000e-01                                 
 2.23743474e-06  8.20041967e-01  2.23743474e-06  7.65844125e-01  2.23743474e-06  4.93694109e-01  2.23743474e-06  1.80000000e+00  2.23743474e-06  8.17129021e-08  2.23743474e-06  5.00000000e-01                                 
 2.35994494e-06  8.19969327e-01  2.35994494e-06  7.65779204e-01  2.35994494e-06  4.97583162e-01  2.35994494e-06  1.80000000e+00  2.35994494e-06  6.94751734e-08  2.35994494e-06  5.00000000e-01                                 
 2.49715914e-06  8.20001985e-01  2.49715914e-06  7.65808256e-01  2.49715914e-06  5.05666892e-01  2.49715914e-06  1.80000000e+00  2.49715914e-06  8.08075214e-08  2.49715914e-06  5.00000000e-01                                 
 2.68570520e-06  8.20005000e-01  2.68570520e-06  7.65811150e-01  2.68570520e-06  4.98059705e-01  2.68570520e-06  1.80000000e+00  2.68570520e-06  7.02253073e-08  2.68570520e-06  5.00000000e-01                                 
 2.87751009e-06  8.19977466e-01  2.87751009e-06  7.65786335e-01  2.87751009e-06  4.98727817e-01  2.87751009e-06  1.80000000e+00  2.87751009e-06  8.03963240e-08  2.87751009e-06  5.00000000e-01                                 
 3.16924531e-06  8.20019498e-01  3.16924531e-06  7.65824088e-01  3.16924531e-06  5.02564898e-01  3.16924531e-06  1.80000000e+00  3.16924531e-06  7.06355958e-08  3.16924531e-06  5.00000000e-01                                 
 3.48954249e-06  8.19971327e-01  3.48954249e-06  7.65780877e-01  3.48954249e-06  4.97607391e-01  3.48954249e-06  1.80000000e+00  3.48954249e-06  7.98942120e-08  3.48954249e-06  5.00000000e-01                                 
 4.11645363e-06  8.20021740e-01  4.11645363e-06  7.65826067e-01  4.11645363e-06  5.02493126e-01  4.11645363e-06  1.80000000e+00  4.11645363e-06  7.11014955e-08  4.11645363e-06  5.00000000e-01                                 
