 time            v(vbep)         time            v(vben)         time            v(vout)         time            v(vphi1)        time            v(vphi2)        time            v(vref)         yes             currtemp       
 0.00000000e+00  7.27487684e-01  0.00000000e+00  6.77706205e-01  0.00000000e+00  7.27819626e-02  0.00000000e+00  0.00000000e+00  0.00000000e+00  1.79997343e+00  0.00000000e+00  5.00000000e-01  1.00000000e+00 -1.00000000e+00 
 5.00000000e-12  7.27470770e-01  5.00000000e-12  6.77692111e-01  5.00000000e-12  7.32231090e-02  5.00000000e-12  1.80000000e-02  5.00000000e-12  1.80005135e+00  5.00000000e-12  5.00000000e-01                                 
 1.00000000e-11  7.27454124e-01  1.00000000e-11  6.77678314e-01  1.00000000e-11  7.36184169e-02  1.00000000e-11  3.60000000e-02  1.00000000e-11  1.80008948e+00  1.00000000e-11  5.00000000e-01                                 
 2.00000000e-11  7.27420971e-01  2.00000000e-11  6.77650797e-01  2.00000000e-11  7.43436301e-02  2.00000000e-11  7.20000000e-02  2.00000000e-11  1.80012392e+00  2.00000000e-11  5.00000000e-01                                 
 4.00000000e-11  7.27354912e-01  4.00000000e-11  6.77595913e-01  4.00000000e-11  7.54891795e-02  4.00000000e-11  1.44000000e-01  4.00000000e-11  1.80010424e+00  4.00000000e-11  5.00000000e-01                                 
 8.00000000e-11  7.27223225e-01  8.00000000e-11  6.77486454e-01  8.00000000e-11  7.70593892e-02  8.00000000e-11  2.88000000e-01  8.00000000e-11  1.80006317e+00  8.00000000e-11  5.00000000e-01                                 
 1.60000000e-10  7.26961698e-01  1.60000000e-10  6.77268808e-01  1.60000000e-10  7.90672620e-02  1.60000000e-10  5.76000000e-01  1.60000000e-10  1.80002539e+00  1.60000000e-10  5.00000000e-01                                 
 3.20000000e-10  7.26445830e-01  3.20000000e-10  6.76838543e-01  3.20000000e-10  1.16748340e-01  3.20000000e-10  1.15200000e+00  3.20000000e-10  1.79993205e+00  3.20000000e-10  5.00000000e-01                                 
 5.00000000e-10  7.25876828e-01  5.00000000e-10  6.76362463e-01  5.00000000e-10  4.93752608e-01  5.00000000e-10  1.80000000e+00  5.00000000e-10  1.00790318e-01  5.00000000e-10  5.00000000e-01                                 
 5.21149832e-10  7.25810833e-01  5.21149832e-10  6.76307135e-01  5.21149832e-10  5.63061317e-01  5.21149832e-10  1.80000000e+00  5.21149832e-10  1.79526068e-02  5.21149832e-10  5.00000000e-01                                 
 5.63449495e-10  7.25679156e-01  5.63449495e-10  6.76196698e-01  5.63449495e-10  6.86779137e-01  5.63449495e-10  1.80000000e+00  5.63449495e-10 -8.59038398e-03  5.63449495e-10  5.00000000e-01                                 
 6.48048822e-10  7.25417703e-01  6.48048822e-10  6.75977173e-01  6.48048822e-10  8.72994863e-01  6.48048822e-10  1.80000000e+00  6.48048822e-10  7.44239955e-03  6.48048822e-10  5.00000000e-01                                 
 7.71619145e-10  7.25040294e-01  7.71619145e-10  6.75659717e-01  7.71619145e-10  1.07727928e+00  7.71619145e-10  1.80000000e+00  7.71619145e-10 -6.55285919e-03  7.71619145e-10  5.00000000e-01                                 
 9.61312118e-10  7.24470991e-01  9.61312118e-10  6.75179587e-01  9.61312118e-10  1.32999692e+00  9.61312118e-10  1.80000000e+00  9.61312118e-10  6.22449231e-03  9.61312118e-10  5.00000000e-01                                 
 1.32766950e-09  7.23404239e-01  1.32766950e-09  6.74275920e-01  1.32766950e-09  1.66728712e+00  1.32766950e-09  1.80000000e+00  1.32766950e-09 -5.91721948e-03  1.32766950e-09  5.00000000e-01                                 
 1.98486669e-09  7.21589755e-01  1.98486669e-09  6.72727188e-01  1.98486669e-09  1.89251148e+00  1.98486669e-09  1.80000000e+00  1.98486669e-09  5.88278761e-03  1.98486669e-09  5.00000000e-01                                 
 2.23758368e-09  7.20923920e-01  2.23758368e-09  6.72155102e-01  2.23758368e-09  1.90948665e+00  2.23758368e-09  1.80000000e+00  2.23758368e-09 -5.52516895e-03  2.23758368e-09  5.00000000e-01                                 
 2.55008721e-09  7.20122732e-01  2.55008721e-09  6.71464195e-01  2.55008721e-09  1.91629804e+00  2.55008721e-09  1.80000000e+00  2.55008721e-09  5.35722147e-03  2.55008721e-09  5.00000000e-01                                 
 2.89852670e-09  7.19256714e-01  2.89852670e-09  6.70714332e-01  2.89852670e-09  1.92044880e+00  2.89852670e-09  1.80000000e+00  2.89852670e-09 -5.12224073e-03  2.89852670e-09  5.00000000e-01                                 
 3.59540567e-09  7.17603382e-01  3.59540567e-09  6.69274354e-01  3.59540567e-09  1.92706051e+00  3.59540567e-09  1.80000000e+00  3.59540567e-09  5.07122554e-03  3.59540567e-09  5.00000000e-01                                 
 4.66033343e-09  7.15256700e-01  4.66033343e-09  6.67212283e-01  4.66033343e-09  1.92789681e+00  4.66033343e-09  1.80000000e+00  4.66033343e-09 -4.97983104e-03  4.66033343e-09  5.00000000e-01                                 
 6.79018895e-09  7.11086962e-01  6.79018895e-09  6.63500722e-01  6.79018895e-09  1.91735124e+00  6.79018895e-09  1.80000000e+00  6.79018895e-09  4.98498517e-03  6.79018895e-09  5.00000000e-01                                 
 9.13332333e-09  7.07133956e-01  9.13332333e-09  6.59929100e-01  9.13332333e-09  1.90636185e+00  9.13332333e-09  1.80000000e+00  9.13332333e-09 -4.92201248e-03  9.13332333e-09  5.00000000e-01                                 
 1.04867062e-08  7.05088451e-01  1.04867062e-08  6.58062536e-01  1.04867062e-08  1.90114377e+00  1.04867062e-08  1.80000000e+00  1.04867062e-08  4.90595224e-03  1.04867062e-08  5.00000000e-01                                 
 1.26678051e-08  7.02075325e-01  1.26678051e-08  6.55294027e-01  1.26678051e-08  1.89362433e+00  1.26678051e-08  1.80000000e+00  1.26678051e-08 -4.85245223e-03  1.26678051e-08  5.00000000e-01                                 
 1.48279225e-08  6.99385776e-01  1.48279225e-08  6.52804338e-01  1.48279225e-08  1.88688446e+00  1.48279225e-08  1.80000000e+00  1.48279225e-08  4.84693437e-03  1.48279225e-08  5.00000000e-01                                 
 1.87096192e-08  6.95146142e-01  1.87096192e-08  6.48845660e-01  1.87096192e-08  1.87630278e+00  1.87096192e-08  1.80000000e+00  1.87096192e-08 -4.80997740e-03  1.87096192e-08  5.00000000e-01                                 
 2.29595274e-08  6.91249404e-01  2.29595274e-08  6.45162425e-01  2.29595274e-08  1.86640527e+00  2.29595274e-08  1.80000000e+00  2.29595274e-08  4.81661251e-03  2.29595274e-08  5.00000000e-01                                 
 3.10300148e-08  6.85488637e-01  3.10300148e-08  6.39608684e-01  3.10300148e-08  1.85148739e+00  3.10300148e-08  1.80000000e+00  3.10300148e-08 -4.78830636e-03  3.10300148e-08  5.00000000e-01                                 
 4.28807269e-08  6.79262531e-01  4.28807269e-08  6.33478933e-01  4.28807269e-08  1.83413231e+00  4.28807269e-08  1.80000000e+00  4.28807269e-08  4.80418319e-03  4.28807269e-08  5.00000000e-01                                 
 6.65821511e-08  6.69728017e-01  6.65821511e-08  6.24095034e-01  6.65821511e-08  1.80250085e+00  6.65821511e-08  1.80000000e+00  6.65821511e-08 -4.78079075e-03  6.65821511e-08  5.00000000e-01                                 
 9.56164786e-08  6.61261061e-01  9.56164786e-08  6.15758217e-01  9.56164786e-08  1.76793865e+00  9.56164786e-08  1.80000000e+00  9.56164786e-08  4.79969557e-03  9.56164786e-08  5.00000000e-01                                 
 1.45645036e-07  6.51144965e-01  1.45645036e-07  6.05720429e-01  1.45645036e-07  1.71262679e+00  1.45645036e-07  1.80000000e+00  1.45645036e-07 -4.77747582e-03  1.45645036e-07  5.00000000e-01                                 
 1.97509760e-07  6.40439773e-01  1.97509760e-07  5.95733985e-01  1.97509760e-07  1.65392994e+00  1.97509760e-07  1.80000000e+00  1.97509760e-07  4.79735301e-03  1.97509760e-07  5.00000000e-01                                 
 2.80796701e-07  6.23816468e-01  2.80796701e-07  5.80800427e-01  2.80796701e-07  1.55813173e+00  2.80796701e-07  1.80000000e+00  2.80796701e-07 -4.77561921e-03  2.80796701e-07  5.00000000e-01                                 
 3.67595268e-07  6.08804694e-01  3.67595268e-07  5.67618315e-01  3.67595268e-07  1.45800850e+00  3.67595268e-07  1.80000000e+00  3.67595268e-07  4.79598174e-03  3.67595268e-07  5.00000000e-01                                 
 5.12958375e-07  5.83073102e-01  5.12958375e-07  5.45806932e-01  5.12958375e-07  1.28789902e+00  5.12958375e-07  1.80000000e+00  5.12958375e-07 -4.77453799e-03  5.12958375e-07  5.00000000e-01                                 
 7.76126892e-07  5.33590732e-01  7.76126892e-07  5.05275664e-01  7.76126892e-07  9.69624277e-01  7.76126892e-07  1.80000000e+00  7.76126892e-07  4.79534913e-03  7.76126892e-07  5.00000000e-01                                 
 8.21157802e-07  5.24576381e-01  8.21157802e-07  4.98021543e-01  8.21157802e-07  9.24527776e-01  8.21157802e-07  1.80000000e+00  8.21157802e-07  3.16543950e-07  8.21157802e-07  5.00000000e-01                                 
 9.11219622e-07  5.14776634e-01  9.11219622e-07  4.90116346e-01  9.11219622e-07  8.50503447e-01  9.11219622e-07  1.80000000e+00  9.11219622e-07 -2.87412555e-07  9.11219622e-07  5.00000000e-01                                 
 9.21646400e-07  5.15439646e-01  9.21646400e-07  4.90642394e-01  9.21646400e-07  8.44131288e-01  9.21646400e-07  1.80000000e+00  9.21646400e-07  7.79014906e-08  9.21646400e-07  5.00000000e-01                                 
 9.42499955e-07  5.18688090e-01  9.42499955e-07  4.93233650e-01  9.42499955e-07  8.33215960e-01  9.42499955e-07  1.80000000e+00  9.42499955e-07  1.46424459e-07  9.42499955e-07  5.00000000e-01                                 
 9.77317263e-07  5.39208480e-01  9.77317263e-07  5.09636294e-01  9.77317263e-07  8.29033643e-01  9.77317263e-07  1.80000000e+00  9.77317263e-07  4.01160613e-07  9.77317263e-07  5.00000000e-01                                 
 1.01001652e-06  5.98752675e-01  1.01001652e-06  5.57199223e-01  1.01001652e-06  8.59399804e-01  1.01001652e-06  1.80000000e+00  1.01001652e-06  1.10206280e-06  1.01001652e-06  5.00000000e-01                                 
 1.01552950e-06  6.16914835e-01  1.01552950e-06  5.71701111e-01  1.01552950e-06  8.70974590e-01  1.01552950e-06  1.80000000e+00  1.01552950e-06  1.35930900e-06  1.01552950e-06  5.00000000e-01                                 
 1.02655546e-06  6.61382571e-01  1.02655546e-06  6.07419778e-01  1.02655546e-06  8.99872523e-01  1.02655546e-06  1.80000000e+00  1.02655546e-06  2.06253716e-06  1.02655546e-06  5.00000000e-01                                 
 1.04860737e-06  7.53369799e-01  1.04860737e-06  6.97998293e-01  1.04860737e-06  9.57245786e-01  1.04860737e-06  1.80000000e+00  1.04860737e-06  2.23287386e-06  1.04860737e-06  5.00000000e-01                                 
 1.07347619e-06  7.91843787e-01  1.07347619e-06  7.40860988e-01  1.07347619e-06  9.69146415e-01  1.07347619e-06  1.80000000e+00  1.07347619e-06 -5.13916361e-08  1.07347619e-06  5.00000000e-01                                 
 1.10036099e-06  8.13857395e-01  1.10036099e-06  7.61385793e-01  1.10036099e-06  9.63959687e-01  1.10036099e-06  1.80000000e+00  1.10036099e-06  1.05599878e-06  1.10036099e-06  5.00000000e-01                                 
 1.14028395e-06  8.36249895e-01  1.14028395e-06  7.81679594e-01  1.14028395e-06  9.48335256e-01  1.14028395e-06  1.80000000e+00  1.14028395e-06 -2.09002664e-07  1.14028395e-06  5.00000000e-01                                 
 1.14559397e-06  8.38918331e-01  1.14559397e-06  7.83919308e-01  1.14559397e-06  9.45798736e-01  1.14559397e-06  1.80000000e+00  1.14559397e-06  2.90527755e-07  1.14559397e-06  5.00000000e-01                                 
 1.15621402e-06  8.44578507e-01  1.15621402e-06  7.88671247e-01  1.15621402e-06  9.41501308e-01  1.15621402e-06  1.80000000e+00  1.15621402e-06  4.13125311e-07  1.15621402e-06  5.00000000e-01                                 
 1.17745411e-06  8.58708764e-01  1.17745411e-06  8.00034239e-01  1.17745411e-06  9.35287949e-01  1.17745411e-06  1.80000000e+00  1.17745411e-06  4.71872285e-07  1.17745411e-06  5.00000000e-01                                 
 1.20628125e-06  8.85793688e-01  1.20628125e-06  8.19689268e-01  1.20628125e-06  9.32518870e-01  1.20628125e-06  1.80000000e+00  1.20628125e-06  6.91569363e-07  1.20628125e-06  5.00000000e-01                                 
 1.20907447e-06  8.88325562e-01  1.20907447e-06  8.21414893e-01  1.20907447e-06  9.32237021e-01  1.20907447e-06  1.80000000e+00  1.20907447e-06  5.96431183e-07  1.20907447e-06  5.00000000e-01                                 
 1.21466089e-06  8.91049852e-01  1.21466089e-06  8.23323229e-01  1.21466089e-06  9.30102083e-01  1.21466089e-06  1.80000000e+00  1.21466089e-06  2.39659117e-07  1.21466089e-06  5.00000000e-01                                 
 1.22583375e-06  8.87737632e-01  1.22583375e-06  8.21227366e-01  1.22583375e-06  9.19337007e-01  1.22583375e-06  1.80000000e+00  1.22583375e-06 -2.56380836e-07  1.22583375e-06  5.00000000e-01                                 
 1.23803753e-06  8.81923356e-01  1.23803753e-06  8.17180566e-01  1.23803753e-06  9.05737285e-01  1.23803753e-06  1.80000000e+00  1.23803753e-06 -1.48503416e-07  1.23803753e-06  5.00000000e-01                                 
 1.25274967e-06  8.75850580e-01  1.25274967e-06  8.12951397e-01  1.25274967e-06  8.90388745e-01  1.25274967e-06  1.80000000e+00  1.25274967e-06 -2.12806578e-07  1.25274967e-06  5.00000000e-01                                 
 1.27859370e-06  8.58829454e-01  1.27859370e-06  8.00244104e-01  1.27859370e-06  8.58521594e-01  1.27859370e-06  1.80000000e+00  1.27859370e-06 -4.06177177e-07  1.27859370e-06  5.00000000e-01                                 
 1.30659387e-06  8.38020140e-01  1.30659387e-06  7.83229066e-01  1.30659387e-06  8.22599505e-01  1.30659387e-06  1.80000000e+00  1.30659387e-06 -3.68337778e-07  1.30659387e-06  5.00000000e-01                                 
 1.34143922e-06  8.21293049e-01  1.34143922e-06  7.68389416e-01  1.34143922e-06  7.87761302e-01  1.34143922e-06  1.80000000e+00  1.34143922e-06 -1.21331305e-07  1.34143922e-06  5.00000000e-01                                 
 1.39040950e-06  8.22300466e-01  1.39040950e-06  7.69306691e-01  1.39040950e-06  7.62961341e-01  1.39040950e-06  1.80000000e+00  1.39040950e-06  2.36768382e-07  1.39040950e-06  5.00000000e-01                                 
 1.44841391e-06  8.29604640e-01  1.44841391e-06  7.75836986e-01  1.44841391e-06  7.40850397e-01  1.44841391e-06  1.80000000e+00  1.44841391e-06  3.72020353e-08  1.44841391e-06  5.00000000e-01                                 
 1.51436846e-06  8.25471302e-01  1.51436846e-06  7.72188707e-01  1.51436846e-06  7.06554625e-01  1.51436846e-06  1.80000000e+00  1.51436846e-06  1.63135623e-09  1.51436846e-06  5.00000000e-01                                 
 1.61812659e-06  8.24129747e-01  1.61812659e-06  7.70940422e-01  1.61812659e-06  6.60186293e-01  1.61812659e-06  1.80000000e+00  1.61812659e-06  9.00383954e-08  1.61812659e-06  5.00000000e-01                                 
 1.72950092e-06  8.28133392e-01  1.72950092e-06  7.74559979e-01  1.72950092e-06  6.18060890e-01  1.72950092e-06  1.80000000e+00  1.72950092e-06  6.61780640e-08  1.72950092e-06  5.00000000e-01                                 
 1.94979170e-06  8.23547281e-01  1.94979170e-06  7.70422016e-01  1.94979170e-06  5.39636108e-01  1.94979170e-06  1.80000000e+00  1.94979170e-06  2.04937040e-08  1.94979170e-06  5.00000000e-01                                 
 2.17044072e-06  8.27648879e-01  2.17044072e-06  7.74124245e-01  2.17044072e-06  5.07104020e-01  2.17044072e-06  1.80000000e+00  2.17044072e-06  1.14765310e-07  2.17044072e-06  5.00000000e-01                                 
 2.42101386e-06  8.24272835e-01  2.42101386e-06  7.71080648e-01  2.42101386e-06  4.96018055e-01  2.42101386e-06  1.80000000e+00  2.42101386e-06 -1.92965082e-08  2.42101386e-06  5.00000000e-01                                 
 2.45551532e-06  8.24996456e-01  2.45551532e-06  7.71739410e-01  2.45551532e-06  4.96582974e-01  2.45551532e-06  1.80000000e+00  2.45551532e-06  6.54171953e-08  2.45551532e-06  5.00000000e-01                                 
 2.52451825e-06  8.26191354e-01  2.52451825e-06  7.72811908e-01  2.52451825e-06  4.98110447e-01  2.52451825e-06  1.80000000e+00  2.52451825e-06  6.66394000e-08  2.52451825e-06  5.00000000e-01                                 
 2.66252410e-06  8.25653120e-01  2.66252410e-06  7.72331496e-01  2.66252410e-06  5.00228263e-01  2.66252410e-06  1.80000000e+00  2.66252410e-06  3.97116869e-08  2.66252410e-06  5.00000000e-01                                 
 2.93853581e-06  8.25752726e-01  2.93853581e-06  7.72418442e-01  2.93853581e-06  5.01065047e-01  2.93853581e-06  1.80000000e+00  2.93853581e-06  7.01229690e-08  2.93853581e-06  5.00000000e-01                                 
 3.22094055e-06  8.25906518e-01  3.22094055e-06  7.72558631e-01  3.22094055e-06  4.99318467e-01  3.22094055e-06  1.80000000e+00  3.22094055e-06  4.13535718e-08  3.22094055e-06  5.00000000e-01                                 
 3.78575003e-06  8.25591692e-01  3.78575003e-06  7.72274155e-01  3.78575003e-06  5.00536890e-01  3.78575003e-06  1.80000000e+00  3.78575003e-06  6.80220730e-08  3.78575003e-06  5.00000000e-01                                 
 4.49212703e-06  8.25987499e-01  4.49212703e-06  7.72631054e-01  4.49212703e-06  5.00036009e-01  4.49212703e-06  1.80000000e+00  4.49212703e-06  4.29918083e-08  4.49212703e-06  5.00000000e-01                                 
 5.49212703e-06  8.25537874e-01  5.49212703e-06  7.72225992e-01  5.49212703e-06  5.00022174e-01  5.49212703e-06  1.80000000e+00  5.49212703e-06  6.66337653e-08  5.49212703e-06  5.00000000e-01                                 
 6.49212703e-06  8.26026598e-01  6.49212703e-06  7.72665968e-01  6.49212703e-06  5.00388639e-01  6.49212703e-06  1.80000000e+00  6.49212703e-06  4.42436807e-08  6.49212703e-06  5.00000000e-01                                 
 7.49212703e-06  8.25503341e-01  7.49212703e-06  7.72195127e-01  7.49212703e-06  4.99748759e-01  7.49212703e-06  1.80000000e+00  7.49212703e-06  6.53013376e-08  7.49212703e-06  5.00000000e-01                                 
 8.49212703e-06  8.26056515e-01  8.49212703e-06  7.72692638e-01  8.49212703e-06  5.00577809e-01  8.49212703e-06  1.80000000e+00  8.49212703e-06  4.56508346e-08  8.49212703e-06  5.00000000e-01                                 
 9.49212703e-06  8.25477854e-01  9.49212703e-06  7.72172389e-01  9.49212703e-06  4.99635568e-01  9.49212703e-06  1.80000000e+00  9.49212703e-06  6.38270766e-08  9.49212703e-06  5.00000000e-01                                 
 1.00005000e-05  8.26084342e-01  1.00005000e-05  7.72717354e-01  1.00005000e-05  5.00615033e-01  1.00005000e-05  1.80000000e+00  1.00005000e-05  4.79531856e-08  1.00005000e-05  5.00000000e-01                                 
 1.00005500e-05  8.26083739e-01  1.00005500e-05  7.72716829e-01  1.00005500e-05  4.92582041e-01  1.00005500e-05  1.62000000e+00  1.00005500e-05 -6.90526227e-05  1.00005500e-05  5.00000000e-01                                 
 1.00006500e-05  8.26082539e-01  1.00006500e-05  7.72715776e-01  1.00006500e-05  4.78948668e-01  1.00006500e-05  1.26000000e+00  1.00006500e-05 -4.83304279e-05  1.00006500e-05  5.00000000e-01                                 
 1.00008500e-05  8.26080102e-01  1.00008500e-05  7.72713626e-01  1.00008500e-05  4.78481863e-01  1.00008500e-05  5.40000000e-01  1.00008500e-05 -6.94544517e-04  1.00008500e-05  5.00000000e-01                                 
 1.00010000e-05  8.26078094e-01  1.00010000e-05  7.72711886e-01  1.00010000e-05  4.42195910e-01  1.00010000e-05  0.00000000e+00  1.00010000e-05  1.55110684e+00  1.00010000e-05  5.00000000e-01                                 
