 time            v(vbep)         time            v(vben)         time            v(vout)         time            v(vphi1)        time            v(vphi2)        time            v(vref)         time            v(voutc)        time            v(voutcc)       yes             currtemp       
 0.00000000e+00  7.60095533e-01  0.00000000e+00  6.99872480e-01  0.00000000e+00  1.57719328e+00  0.00000000e+00  0.00000000e+00  0.00000000e+00  1.80000000e+00  0.00000000e+00  7.01996574e-01  0.00000000e+00  1.57719327e+00  0.00000000e+00  1.58381654e+00  1.00000000e+00  3.60000000e+01 
 1.00000000e-11  7.60120572e-01  1.00000000e-11  6.99943739e-01  1.00000000e-11  1.57797513e+00  1.00000000e-11  1.80000000e-02  1.00000000e-11  1.80025120e+00  1.00000000e-11  7.02527786e-01  1.00000000e-11  1.57766332e+00  1.00000000e-11  1.58382971e+00                                 
 2.00000000e-11  7.60127425e-01  2.00000000e-11  6.99988427e-01  2.00000000e-11  1.57845770e+00  2.00000000e-11  3.60000000e-02  2.00000000e-11  1.80035109e+00  2.00000000e-11  7.02922455e-01  2.00000000e-11  1.57801963e+00  2.00000000e-11  1.58383455e+00                                 
 4.00000000e-11  7.60127363e-01  4.00000000e-11  7.00047344e-01  4.00000000e-11  1.57904177e+00  4.00000000e-11  7.20000000e-02  4.00000000e-11  1.80038980e+00  4.00000000e-11  7.03499773e-01  4.00000000e-11  1.57855171e+00  4.00000000e-11  1.58383589e+00                                 
 8.00000000e-11  7.60115495e-01  8.00000000e-11  7.00085310e-01  8.00000000e-11  1.57916992e+00  8.00000000e-11  1.44000000e-01  8.00000000e-11  1.80018651e+00  8.00000000e-11  7.03946527e-01  8.00000000e-11  1.57898843e+00  8.00000000e-11  1.58382516e+00                                 
 1.60000000e-10  7.60112588e-01  1.60000000e-10  7.00096004e-01  1.60000000e-10  1.57883830e+00  1.60000000e-10  2.88000000e-01  1.60000000e-10  1.80000423e+00  1.60000000e-10  7.04016203e-01  1.60000000e-10  1.57904405e+00  1.60000000e-10  1.58381548e+00                                 
 3.20000000e-10  7.60108786e-01  3.20000000e-10  7.00095269e-01  3.20000000e-10  1.57847310e+00  3.20000000e-10  5.76000000e-01  3.20000000e-10  1.79999167e+00  3.20000000e-10  7.03882781e-01  3.20000000e-10  1.57875775e+00  3.20000000e-10  1.58381144e+00                                 
 6.40000000e-10  7.60026374e-01  6.40000000e-10  6.99729635e-01  6.40000000e-10  1.57608757e+00  6.40000000e-10  1.15200000e+00  6.40000000e-10  1.81174692e+00  6.40000000e-10  7.01812024e-01  6.40000000e-10  1.58354998e+00  6.40000000e-10  1.58384014e+00                                 
 1.00000000e-09  7.60661550e-01  1.00000000e-09  6.99967617e-01  1.00000000e-09  1.55077088e+00  1.00000000e-09  1.80000000e+00  1.00000000e-09  9.18283693e-02  1.00000000e-09  7.12290085e-01  1.00000000e-09  1.58294732e+00  1.00000000e-09  1.58379690e+00                                 
 1.03641472e-09  7.60693228e-01  1.03641472e-09  7.00005567e-01  1.03641472e-09  1.54988859e+00  1.03641472e-09  1.80000000e+00  1.03641472e-09  2.04348664e-02  1.03641472e-09  7.15190311e-01  1.03641472e-09  1.58452711e+00  1.03641472e-09  1.58383647e+00                                 
 1.10924416e-09  7.60788406e-01  1.10924416e-09  7.00075983e-01  1.10924416e-09  1.54929831e+00  1.10924416e-09  1.80000000e+00  1.10924416e-09 -9.79497277e-03  1.10924416e-09  7.18952864e-01  1.10924416e-09  1.58745654e+00  1.10924416e-09  1.58386448e+00                                 
 1.25490304e-09  7.60901386e-01  1.25490304e-09  6.99948554e-01  1.25490304e-09  1.54739443e+00  1.25490304e-09  1.80000000e+00  1.25490304e-09  8.26329236e-03  1.25490304e-09  7.19215776e-01  1.25490304e-09  1.58793052e+00  1.25490304e-09  1.58381799e+00                                 
 1.46928064e-09  7.60895960e-01  1.46928064e-09  6.99923291e-01  1.46928064e-09  1.54641581e+00  1.46928064e-09  1.80000000e+00  1.46928064e-09 -6.43717851e-03  1.46928064e-09  7.18740035e-01  1.46928064e-09  1.58731986e+00  1.46928064e-09  1.58385019e+00                                 
 1.69983790e-09  7.60806460e-01  1.69983790e-09  6.99918258e-01  1.69983790e-09  1.54625562e+00  1.69983790e-09  1.80000000e+00  1.69983790e-09  5.56678480e-03  1.69983790e-09  7.17483583e-01  1.69983790e-09  1.58642814e+00  1.69983790e-09  1.58385480e+00                                 
 2.08788134e-09  7.60549955e-01  2.08788134e-09  6.99872874e-01  2.08788134e-09  1.54650269e+00  2.08788134e-09  1.80000000e+00  2.08788134e-09 -5.06561718e-03  2.08788134e-09  7.15391613e-01  2.08788134e-09  1.58448607e+00  2.08788134e-09  1.58393511e+00                                 
 2.47049310e-09  7.60355634e-01  2.47049310e-09  6.99878993e-01  2.47049310e-09  1.54702345e+00  2.47049310e-09  1.80000000e+00  2.47049310e-09  4.50292334e-03  2.47049310e-09  7.13664064e-01  2.47049310e-09  1.58315553e+00  2.47049310e-09  1.58400028e+00                                 
 3.12740216e-09  7.60132467e-01  3.12740216e-09  6.99836627e-01  3.12740216e-09  1.54677479e+00  3.12740216e-09  1.80000000e+00  3.12740216e-09 -4.33782509e-03  3.12740216e-09  7.10627063e-01  3.12740216e-09  1.58042981e+00  3.12740216e-09  1.58413558e+00                                 
 4.08159389e-09  7.60016473e-01  4.08159389e-09  6.99854848e-01  4.08159389e-09  1.54614952e+00  4.08159389e-09  1.80000000e+00  4.08159389e-09  4.08545985e-03  4.08159389e-09  7.07491724e-01  4.08159389e-09  1.57788341e+00  4.08159389e-09  1.58427219e+00                                 
 5.98997737e-09  7.59927351e-01  5.98997737e-09  6.99836107e-01  5.98997737e-09  1.54372188e+00  5.98997737e-09  1.80000000e+00  5.98997737e-09 -4.06420475e-03  5.98997737e-09  7.03080644e-01  5.98997737e-09  1.57400210e+00  5.98997737e-09  1.58437409e+00                                 
 7.69817079e-09  7.59926757e-01  7.69817079e-09  6.99873185e-01  7.69817079e-09  1.54166496e+00  7.69817079e-09  1.80000000e+00  7.69817079e-09  3.94894008e-03  7.69817079e-09  7.01483909e-01  7.69817079e-09  1.57276651e+00  7.69817079e-09  1.58426832e+00                                 
 9.18870621e-09  7.59943554e-01  9.18870621e-09  6.99851640e-01  9.18870621e-09  1.53825678e+00  9.18870621e-09  1.80000000e+00  9.18870621e-09 -3.86483708e-03  9.18870621e-09  7.00524707e-01  9.18870621e-09  1.57182927e+00  9.18870621e-09  1.58409563e+00                                 
 1.08513400e-08  7.59987468e-01  1.08513400e-08  6.99881733e-01  1.08513400e-08  1.53375559e+00  1.08513400e-08  1.80000000e+00  1.08513400e-08  3.77301221e-03  1.08513400e-08  7.00376628e-01  1.08513400e-08  1.57181589e+00  1.08513400e-08  1.58384858e+00                                 
 1.30414524e-08  7.60026148e-01  1.30414524e-08  6.99857036e-01  1.30414524e-08  1.52560236e+00  1.30414524e-08  1.80000000e+00  1.30414524e-08 -3.71186667e-03  1.30414524e-08  7.00052159e-01  1.30414524e-08  1.57141453e+00  1.30414524e-08  1.58351077e+00                                 
 1.58078095e-08  7.60073388e-01  1.58078095e-08  6.99885178e-01  1.58078095e-08  1.51422612e+00  1.58078095e-08  1.80000000e+00  1.58078095e-08  3.66327074e-03  1.58078095e-08  7.00394681e-01  1.58078095e-08  1.57180381e+00  1.58078095e-08  1.58308898e+00                                 
 1.94332510e-08  7.60092824e-01  1.94332510e-08  6.99859147e-01  1.94332510e-08  1.49726948e+00  1.94332510e-08  1.80000000e+00  1.94332510e-08 -3.62407396e-03  1.94332510e-08  7.00438001e-01  1.94332510e-08  1.57170772e+00  1.94332510e-08  1.58259882e+00                                 
 2.43940534e-08  7.60109482e-01  2.43940534e-08  6.99886332e-01  2.43940534e-08  1.47363886e+00  2.43940534e-08  1.80000000e+00  2.43940534e-08  3.59982678e-03  2.43940534e-08  7.01009748e-01  2.43940534e-08  1.57228217e+00  2.43940534e-08  1.58203313e+00                                 
 3.21366298e-08  7.60101547e-01  3.21366298e-08  6.99859459e-01  3.21366298e-08  1.43546404e+00  3.21366298e-08  1.80000000e+00  3.21366298e-08 -3.58009711e-03  3.21366298e-08  7.01181072e-01  3.21366298e-08  1.57229159e+00  3.21366298e-08  1.58136955e+00                                 
 4.52819669e-08  7.60103323e-01  4.52819669e-08  6.99886056e-01  4.52819669e-08  1.37106719e+00  4.52819669e-08  1.80000000e+00  4.52819669e-08  3.57253123e-03  4.52819669e-08  7.01790664e-01  4.52819669e-08  1.57289747e+00  4.52819669e-08  1.58064213e+00                                 
 7.15726412e-08  7.60093090e-01  7.15726412e-08  6.99859072e-01  7.15726412e-08  1.24185057e+00  7.15726412e-08  1.80000000e+00  7.15726412e-08 -3.56510874e-03  7.15726412e-08  7.01837751e-01  7.15726412e-08  1.57281076e+00  7.15726412e-08  1.57997346e+00                                 
 1.09364422e-07  7.60098879e-01  1.09364422e-07  6.99885885e-01  1.09364422e-07  1.05846943e+00  1.09364422e-07  1.80000000e+00  1.09364422e-07  3.56437563e-03  1.09364422e-07  7.02111377e-01  1.09364422e-07  1.57314880e+00  1.09364422e-07  1.57970404e+00                                 
 1.62656936e-07  7.60091953e-01  1.62656936e-07  6.99859034e-01  1.62656936e-07  8.20335357e-01  1.62656936e-07  1.80000000e+00  1.62656936e-07 -3.55749843e-03  1.62656936e-07  7.01880410e-01  1.62656936e-07  1.57283841e+00  1.62656936e-07  1.57963276e+00                                 
 2.12342374e-07  7.60100677e-01  2.12342374e-07  6.99885989e-01  2.12342374e-07  7.08066924e-01  2.12342374e-07  1.80000000e+00  2.12342374e-07  3.56440477e-03  2.12342374e-07  7.02112658e-01  2.12342374e-07  1.57314393e+00  2.12342374e-07  1.57962099e+00                                 
 2.59131412e-07  7.60089042e-01  2.59131412e-07  6.99858964e-01  2.59131412e-07  7.03318890e-01  2.59131412e-07  1.80000000e+00  2.59131412e-07 -3.54929617e-03  2.59131412e-07  7.01884683e-01  2.59131412e-07  1.57283826e+00  2.59131412e-07  1.57962191e+00                                 
 2.82510707e-07  7.60101457e-01  2.82510707e-07  6.99885858e-01  2.82510707e-07  7.04291489e-01  2.82510707e-07  1.80000000e+00  2.82510707e-07  3.55646956e-03  2.82510707e-07  7.02108713e-01  2.82510707e-07  1.57313794e+00  2.82510707e-07  1.57961818e+00                                 
 3.15034926e-07  7.60089991e-01  3.15034926e-07  6.99859139e-01  3.15034926e-07  7.03943797e-01  3.15034926e-07  1.80000000e+00  3.15034926e-07 -3.54010754e-03  3.15034926e-07  7.01883787e-01  3.15034926e-07  1.57283557e+00  3.15034926e-07  1.57961823e+00                                 
 3.80083364e-07  7.60100930e-01  3.80083364e-07  6.99885801e-01  3.80083364e-07  7.04372615e-01  3.80083364e-07  1.80000000e+00  3.80083364e-07  3.55065613e-03  3.80083364e-07  7.02109478e-01  3.80083364e-07  1.57313496e+00  3.80083364e-07  1.57961376e+00                                 
 5.10180240e-07  7.60090205e-01  5.10180240e-07  6.99859153e-01  5.10180240e-07  7.03956503e-01  5.10180240e-07  1.80000000e+00  5.10180240e-07 -3.53720821e-03  5.10180240e-07  7.01883557e-01  5.10180240e-07  1.57282839e+00  5.10180240e-07  1.57961099e+00                                 
 7.70373991e-07  7.60100827e-01  7.70373991e-07  6.99885796e-01  7.70373991e-07  7.04366995e-01  7.70373991e-07  1.80000000e+00  7.70373991e-07  3.54920518e-03  7.70373991e-07  7.02109583e-01  7.70373991e-07  1.57312097e+00  7.70373991e-07  1.57959972e+00                                 
 1.29076149e-06  7.60090255e-01  1.29076149e-06  6.99859155e-01  1.29076149e-06  7.03959206e-01  1.29076149e-06  1.80000000e+00  1.29076149e-06 -3.53648799e-03  1.29076149e-06  7.01883507e-01  1.29076149e-06  1.57280023e+00  1.29076149e-06  1.57958291e+00                                 
 2.33153650e-06  7.60100803e-01  2.33153650e-06  6.99885795e-01  2.33153650e-06  7.04365681e-01  2.33153650e-06  1.80000000e+00  2.33153650e-06  3.54884250e-03  2.33153650e-06  7.02109608e-01  2.33153650e-06  1.57306472e+00  2.33153650e-06  1.57954353e+00                                 
 3.53153650e-06  7.60090270e-01  3.53153650e-06  6.99859156e-01  3.53153650e-06  7.03960041e-01  3.53153650e-06  1.80000000e+00  3.53153650e-06 -3.53628517e-03  3.53153650e-06  7.01883492e-01  3.53153650e-06  1.57271949e+00  3.53153650e-06  1.57950229e+00                                 
 4.73153650e-06  7.60100789e-01  4.73153650e-06  6.99885794e-01  4.73153650e-06  7.04364954e-01  4.73153650e-06  1.80000000e+00  4.73153650e-06  3.54863430e-03  4.73153650e-06  7.02109621e-01  4.73153650e-06  1.57297838e+00  4.73153650e-06  1.57945731e+00                                 
 5.93153650e-06  7.60090284e-01  5.93153650e-06  6.99859156e-01  5.93153650e-06  7.03960792e-01  5.93153650e-06  1.80000000e+00  5.93153650e-06 -3.53607886e-03  5.93153650e-06  7.01883478e-01  5.93153650e-06  1.57263330e+00  5.93153650e-06  1.57941623e+00                                 
 6.00100000e-06  7.60100665e-01  6.00100000e-06  6.99885791e-01  6.00100000e-06  7.04358482e-01  6.00100000e-06  1.80000000e+00  6.00100000e-06  3.54671864e-03  6.00100000e-06  7.02109737e-01  6.00100000e-06  1.57293290e+00  6.00100000e-06  1.57941182e+00                                 
 6.00110000e-06  7.60053622e-01  6.00110000e-06  6.99632221e-01  6.00110000e-06  7.02404387e-01  6.00110000e-06  1.62000000e+00  6.00110000e-06  1.90260875e-04  6.00110000e-06  7.00368418e-01  6.00110000e-06  1.57139712e+00  6.00110000e-06  1.57940069e+00                                 
 6.00130000e-06  7.60084999e-01  6.00130000e-06  6.99638726e-01  6.00130000e-06  7.02670328e-01  6.00130000e-06  1.26000000e+00  6.00130000e-06 -2.21800635e-04  6.00130000e-06  7.00288116e-01  6.00130000e-06  1.57132303e+00  6.00130000e-06  1.57941905e+00                                 
 6.00170000e-06  7.60142698e-01  6.00170000e-06  6.99151922e-01  6.00170000e-06  7.21273218e-01  6.00170000e-06  5.40000000e-01  6.00170000e-06  1.52896881e+00  6.00170000e-06  6.93104671e-01  6.00170000e-06  1.47830315e+00  6.00170000e-06  1.57907754e+00                                 
 6.00200000e-06  7.60079475e-01  6.00200000e-06  6.96839496e-01  6.00200000e-06  7.49732118e-01  6.00200000e-06  0.00000000e+00  6.00200000e-06  1.87521182e+00  6.00200000e-06  6.68734382e-01  6.00200000e-06  1.14076178e+00  6.00200000e-06  1.57903495e+00                                 
 6.00203680e-06  7.60092481e-01  6.00203680e-06  6.96910148e-01  6.00203680e-06  7.44191215e-01  6.00203680e-06  0.00000000e+00  6.00203680e-06  1.82924020e+00  6.00203680e-06  6.69786348e-01  6.00203680e-06  1.09689047e+00  6.00203680e-06  1.57936591e+00                                 
 6.00211039e-06  7.60099042e-01  6.00211039e-06  6.97158580e-01  6.00211039e-06  7.36278238e-01  6.00211039e-06  0.00000000e+00  6.00211039e-06  1.79214079e+00  6.00211039e-06  6.73143887e-01  6.00211039e-06  1.02276931e+00  6.00211039e-06  1.57963582e+00                                 
 6.00225757e-06  7.60094535e-01  6.00225757e-06  6.97497522e-01  6.00225757e-06  7.32377980e-01  6.00225757e-06  0.00000000e+00  6.00225757e-06  1.80237714e+00  6.00225757e-06  6.77224212e-01  6.00225757e-06  9.08247397e-01  6.00225757e-06  1.57956738e+00                                 
 6.00247029e-06  7.60095929e-01  6.00247029e-06  6.98167516e-01  6.00247029e-06  7.23149366e-01  6.00247029e-06  0.00000000e+00  6.00247029e-06  1.79736785e+00  6.00247029e-06  6.83787581e-01  6.00247029e-06  7.93634951e-01  6.00247029e-06  1.57970344e+00                                 
 6.00269318e-06  7.60094209e-01  6.00269318e-06  6.99151513e-01  6.00269318e-06  7.12888413e-01  6.00269318e-06  0.00000000e+00  6.00269318e-06  1.80109851e+00  6.00269318e-06  6.93222373e-01  6.00269318e-06  7.37835893e-01  6.00269318e-06  1.57964642e+00                                 
 6.00291696e-06  7.60095348e-01  6.00291696e-06  6.99744773e-01  6.00291696e-06  7.08244083e-01  6.00291696e-06  0.00000000e+00  6.00291696e-06  1.79930876e+00  6.00291696e-06  6.97882549e-01  6.00291696e-06  7.16181172e-01  6.00291696e-06  1.57947689e+00                                 
 6.00320253e-06  7.60094651e-01  6.00320253e-06  7.00201230e-01  6.00320253e-06  7.05303143e-01  6.00320253e-06  0.00000000e+00  6.00320253e-06  1.80049181e+00  6.00320253e-06  7.01326133e-01  6.00320253e-06  7.07961303e-01  6.00320253e-06  1.57886194e+00                                 
 6.00350130e-06  7.60095551e-01  6.00350130e-06  7.00343971e-01  6.00350130e-06  7.05326477e-01  6.00350130e-06  0.00000000e+00  6.00350130e-06  1.79972575e+00  6.00350130e-06  7.02143120e-01  6.00350130e-06  7.05479960e-01  6.00350130e-06  1.57802459e+00                                 
 6.00397874e-06  7.60095118e-01  6.00397874e-06  7.00416408e-01  6.00397874e-06  7.05406437e-01  6.00397874e-06  0.00000000e+00  6.00397874e-06  1.80022528e+00  6.00397874e-06  7.02986164e-01  6.00397874e-06  7.05581001e-01  6.00397874e-06  1.57634554e+00                                 
 6.00467277e-06  7.60095842e-01  6.00467277e-06  7.00352176e-01  6.00467277e-06  7.07259735e-01  6.00467277e-06  0.00000000e+00  6.00467277e-06  1.79984419e+00  6.00467277e-06  7.03008840e-01  6.00467277e-06  7.06682928e-01  6.00467277e-06  1.57365768e+00                                 
 6.00603663e-06  7.60095311e-01  6.00603663e-06  7.00254293e-01  6.00603663e-06  7.10078102e-01  6.00603663e-06  0.00000000e+00  6.00603663e-06  1.80015742e+00  6.00603663e-06  7.03349774e-01  6.00603663e-06  7.10059083e-01  6.00603663e-06  1.56789251e+00                                 
 6.00862635e-06  7.60095817e-01  6.00862635e-06  7.00065012e-01  6.00862635e-06  7.16992765e-01  6.00862635e-06  0.00000000e+00  6.00862635e-06  1.79987438e+00  6.00862635e-06  7.03138986e-01  6.00862635e-06  7.16328481e-01  6.00862635e-06  1.55647429e+00                                 
 6.01380579e-06  7.60095250e-01  6.01380579e-06  6.99892003e-01  6.01380579e-06  7.29673394e-01  6.01380579e-06  0.00000000e+00  6.01380579e-06  1.80014152e+00  6.01380579e-06  7.03044359e-01  6.01380579e-06  7.29617267e-01  6.01380579e-06  1.53346913e+00                                 
 6.02416466e-06  7.60095806e-01  6.02416466e-06  6.99836990e-01  6.02416466e-06  7.55295843e-01  6.02416466e-06  0.00000000e+00  6.02416466e-06  1.79988103e+00  6.02416466e-06  7.02440838e-01  6.02416466e-06  7.54535087e-01  6.02416466e-06  1.48942435e+00                                 
 6.04488241e-06  7.60095257e-01  6.04488241e-06  6.99881511e-01  6.04488241e-06  8.01707569e-01  6.04488241e-06  0.00000000e+00  6.04488241e-06  1.80013655e+00  6.04488241e-06  7.02206934e-01  6.04488241e-06  8.01692874e-01  6.04488241e-06  1.40888842e+00                                 
 6.08631791e-06  7.60095808e-01  6.08631791e-06  6.99860947e-01  6.08631791e-06  8.82547627e-01  6.08631791e-06  0.00000000e+00  6.08631791e-06  1.79987976e+00  6.08631791e-06  7.01887917e-01  6.08631791e-06  8.80950156e-01  6.08631791e-06  1.26929091e+00                                 
 6.16918890e-06  7.60095259e-01  6.16918890e-06  6.99883773e-01  6.16918890e-06  1.00052283e+00  6.16918890e-06  0.00000000e+00  6.16918890e-06  1.80013063e+00  6.16918890e-06  7.02080451e-01  6.16918890e-06  1.00121802e+00  6.16918890e-06  1.07170028e+00                                 
 6.28457621e-06  7.60095808e-01  6.28457621e-06  6.99861450e-01  6.28457621e-06  1.09942934e+00  6.28457621e-06  0.00000000e+00  6.28457621e-06  1.79987481e+00  6.28457621e-06  7.01902058e-01  6.28457621e-06  1.09764591e+00  6.28457621e-06  1.05546632e+00                                 
 6.39393683e-06  7.60095258e-01  6.39393683e-06  6.99883274e-01  6.39393683e-06  1.14867937e+00  6.39393683e-06  0.00000000e+00  6.39393683e-06  1.80012735e+00  6.39393683e-06  7.02084654e-01  6.39393683e-06  1.14959537e+00  6.39393683e-06  1.14859316e+00                                 
 6.49606456e-06  7.60095807e-01  6.49606456e-06  6.99861931e-01  6.49606456e-06  1.17472549e+00  6.49606456e-06  0.00000000e+00  6.49606456e-06  1.79987394e+00  6.49606456e-06  7.01904427e-01  6.49606456e-06  1.17363472e+00  6.49606456e-06  1.17281645e+00                                 
