 time            v(vbep)         time            v(vben)         time            v(vout)         time            v(vphi1)        time            v(vphi2)        time            v(vref)         yes             currtemp       
 0.00000000e+00  5.92730622e-01  0.00000000e+00  5.30665651e-01  0.00000000e+00  1.33699356e-01  0.00000000e+00  0.00000000e+00  0.00000000e+00  1.79997688e+00  0.00000000e+00  5.00000000e-01  1.00000000e+00  6.70000000e+01 
 5.00000000e-12  5.92713883e-01  5.00000000e-12  5.30651733e-01  5.00000000e-12  1.34248632e-01  5.00000000e-12  1.80000000e-02  5.00000000e-12  1.80006661e+00  5.00000000e-12  5.00000000e-01                                 
 1.00000000e-11  5.92697357e-01  1.00000000e-11  5.30638097e-01  1.00000000e-11  1.34742293e-01  1.00000000e-11  3.60000000e-02  1.00000000e-11  1.80011095e+00  1.00000000e-11  5.00000000e-01                                 
 2.00000000e-11  5.92664412e-01  2.00000000e-11  5.30610897e-01  2.00000000e-11  1.35646308e-01  2.00000000e-11  7.20000000e-02  2.00000000e-11  1.80015014e+00  2.00000000e-11  5.00000000e-01                                 
 4.00000000e-11  5.92598714e-01  4.00000000e-11  5.30556629e-01  4.00000000e-11  1.37073967e-01  4.00000000e-11  1.44000000e-01  4.00000000e-11  1.80012284e+00  4.00000000e-11  5.00000000e-01                                 
 8.00000000e-11  5.92467687e-01  8.00000000e-11  5.30448357e-01  8.00000000e-11  1.39024853e-01  8.00000000e-11  2.88000000e-01  8.00000000e-11  1.80007379e+00  8.00000000e-11  5.00000000e-01                                 
 1.60000000e-10  5.92207172e-01  1.60000000e-10  5.30232864e-01  1.60000000e-10  1.41455467e-01  1.60000000e-10  5.76000000e-01  1.60000000e-10  1.80003176e+00  1.60000000e-10  5.00000000e-01                                 
 3.20000000e-10  5.91692108e-01  3.20000000e-10  5.29806010e-01  3.20000000e-10  1.68984221e-01  3.20000000e-10  1.15200000e+00  3.20000000e-10  1.80019140e+00  3.20000000e-10  5.00000000e-01                                 
 5.00000000e-10  5.91121995e-01  5.00000000e-10  5.29332272e-01  5.00000000e-10  4.78215539e-01  5.00000000e-10  1.80000000e+00  5.00000000e-10  1.30904312e-01  5.00000000e-10  5.00000000e-01                                 
 5.22370349e-10  5.91051901e-01  5.22370349e-10  5.29273926e-01  5.22370349e-10  5.42129878e-01  5.22370349e-10  1.80000000e+00  5.22370349e-10  2.70047177e-02  5.22370349e-10  5.00000000e-01                                 
 5.67111047e-10  5.90912009e-01  5.67111047e-10  5.29157440e-01  5.67111047e-10  6.59494074e-01  5.67111047e-10  1.80000000e+00  5.67111047e-10 -1.24519524e-02  5.67111047e-10  5.00000000e-01                                 
 6.56592444e-10  5.90634005e-01  6.56592444e-10  5.28925717e-01  6.56592444e-10  8.43880868e-01  6.56592444e-10  1.80000000e+00  6.56592444e-10  1.02336578e-02  6.56592444e-10  5.00000000e-01                                 
 7.79386898e-10  5.90256279e-01  7.79386898e-10  5.28610375e-01  7.79386898e-10  1.03385390e+00  7.79386898e-10  1.80000000e+00  7.79386898e-10 -8.72002921e-03  7.79386898e-10  5.00000000e-01                                 
 9.75408506e-10  5.89662063e-01  9.75408506e-10  5.28113156e-01  9.75408506e-10  1.27054757e+00  9.75408506e-10  1.80000000e+00  9.75408506e-10  8.13071652e-03  9.75408506e-10  5.00000000e-01                                 
 1.30042816e-09  5.88699592e-01  1.30042816e-09  5.27304868e-01  1.30042816e-09  1.54942390e+00  1.30042816e-09  1.80000000e+00  1.30042816e-09 -7.59135159e-03  1.30042816e-09  5.00000000e-01                                 
 1.91716621e-09  5.86946078e-01  1.91716621e-09  5.25823214e-01  1.91716621e-09  1.78403554e+00  1.91716621e-09  1.80000000e+00  1.91716621e-09  7.50075055e-03  1.91716621e-09  5.00000000e-01                                 
 2.18912236e-09  5.86201713e-01  2.18912236e-09  5.25190660e-01  2.18912236e-09  1.81189279e+00  2.18912236e-09  1.80000000e+00  2.18912236e-09 -6.95912545e-03  2.18912236e-09  5.00000000e-01                                 
 2.51283446e-09  5.85336945e-01  2.51283446e-09  5.24453217e-01  2.51283446e-09  1.82582400e+00  2.51283446e-09  1.80000000e+00  2.51283446e-09  6.68516741e-03  2.51283446e-09  5.00000000e-01                                 
 2.87736745e-09  5.84389424e-01  2.87736745e-09  5.23642080e-01  2.87736745e-09  1.83165601e+00  2.87736745e-09  1.80000000e+00  2.87736745e-09 -6.32344450e-03  2.87736745e-09  5.00000000e-01                                 
 3.60643343e-09  5.82571432e-01  3.60643343e-09  5.22076965e-01  3.60643343e-09  1.83349170e+00  3.60643343e-09  1.80000000e+00  3.60643343e-09  6.23964394e-03  3.60643343e-09  5.00000000e-01                                 
 4.38175874e-09  5.80741916e-01  4.38175874e-09  5.20490386e-01  4.38175874e-09  1.83206020e+00  4.38175874e-09  1.80000000e+00  4.38175874e-09 -6.05693719e-03  4.38175874e-09  5.00000000e-01                                 
 5.93240937e-09  5.77356082e-01  5.93240937e-09  5.17526019e-01  5.93240937e-09  1.82867725e+00  5.93240937e-09  1.80000000e+00  5.93240937e-09  6.04586183e-03  5.93240937e-09  5.00000000e-01                                 
 8.42018205e-09  5.72543415e-01  8.42018205e-09  5.13254112e-01  8.42018205e-09  1.82153452e+00  8.42018205e-09  1.80000000e+00  8.42018205e-09 -5.95181740e-03  8.42018205e-09  5.00000000e-01                                 
 9.96656348e-09  5.69872643e-01  9.96656348e-09  5.10854422e-01  9.96656348e-09  1.81766220e+00  9.96656348e-09  1.80000000e+00  9.96656348e-09  5.93486287e-03  9.96656348e-09  5.00000000e-01                                 
 1.12655922e-08  5.67783669e-01  1.12655922e-08  5.08964613e-01  1.12655922e-08  1.81457674e+00  1.12655922e-08  1.80000000e+00  1.12655922e-08 -5.81893885e-03  1.12655922e-08  5.00000000e-01                                 
 1.25931042e-08  5.65776520e-01  1.25931042e-08  5.07138796e-01  1.25931042e-08  1.81165526e+00  1.25931042e-08  1.80000000e+00  1.25931042e-08  5.78543969e-03  1.25931042e-08  5.00000000e-01                                 
 1.39765448e-08  5.63807572e-01  1.39765448e-08  5.05338511e-01  1.39765448e-08  1.80861779e+00  1.39765448e-08  1.80000000e+00  1.39765448e-08 -5.68093572e-03  1.39765448e-08  5.00000000e-01                                 
 1.55755493e-08  5.61671560e-01  1.55755493e-08  5.03375436e-01  1.55755493e-08  1.80533454e+00  1.55755493e-08  1.80000000e+00  1.55755493e-08  5.65742328e-03  1.55755493e-08  5.00000000e-01                                 
 1.74850148e-08  5.59296157e-01  1.74850148e-08  5.01180238e-01  1.74850148e-08  1.80142715e+00  1.74850148e-08  1.80000000e+00  1.74850148e-08 -5.57527154e-03  1.74850148e-08  5.00000000e-01                                 
 2.00377657e-08  5.56382422e-01  2.00377657e-08  4.98470113e-01  2.00377657e-08  1.79658311e+00  2.00377657e-08  1.80000000e+00  2.00377657e-08  5.57257584e-03  2.00377657e-08  5.00000000e-01                                 
 2.31480704e-08  5.53182489e-01  2.31480704e-08  4.95471038e-01  2.31480704e-08  1.79081906e+00  2.31480704e-08  1.80000000e+00  2.31480704e-08 -5.51050916e-03  2.31480704e-08  5.00000000e-01                                 
 2.79731354e-08  5.48836486e-01  2.79731354e-08  4.91359315e-01  2.79731354e-08  1.78250912e+00  2.79731354e-08  1.80000000e+00  2.79731354e-08  5.52443856e-03  2.79731354e-08  5.00000000e-01                                 
 3.47685579e-08  5.43675291e-01  3.47685579e-08  4.86421097e-01  3.47685579e-08  1.77154690e+00  3.47685579e-08  1.80000000e+00  3.47685579e-08 -5.47848273e-03  3.47685579e-08  5.00000000e-01                                 
 4.83594028e-08  5.35417250e-01  4.83594028e-08  4.78431291e-01  4.83594028e-08  1.75098204e+00  4.83594028e-08  1.80000000e+00  4.83594028e-08  5.50465091e-03  4.83594028e-08  5.00000000e-01                                 
 7.55410926e-08  5.23382030e-01  7.55410926e-08  4.66665911e-01  7.55410926e-08  1.71296572e+00  7.55410926e-08  1.80000000e+00  7.55410926e-08 -5.46845326e-03  7.55410926e-08  5.00000000e-01                                 
 1.11316211e-07  5.11516577e-01  1.11316211e-07  4.55144056e-01  1.11316211e-07  1.66621978e+00  1.11316211e-07  1.80000000e+00  1.11316211e-07  5.49897913e-03  1.11316211e-07  5.00000000e-01                                 
 1.59445631e-07  4.95817131e-01  1.59445631e-07  4.40636113e-01  1.59445631e-07  1.60271911e+00  1.59445631e-07  1.80000000e+00  1.59445631e-07 -5.46410387e-03  1.59445631e-07  5.00000000e-01                                 
 2.26171256e-07  4.76298999e-01  2.26171256e-07  4.23123458e-01  2.26171256e-07  1.51521205e+00  2.26171256e-07  1.80000000e+00  2.26171256e-07  5.49582755e-03  2.26171256e-07  5.00000000e-01                                 
 2.96670035e-07  4.57809925e-01  2.96670035e-07  4.06948836e-01  2.96670035e-07  1.42297912e+00  2.96670035e-07  1.80000000e+00  2.96670035e-07 -5.46148448e-03  2.96670035e-07  5.00000000e-01                                 
 4.20567969e-07  4.22139716e-01  4.20567969e-07  3.76943314e-01  4.20567969e-07  1.25663829e+00  4.20567969e-07  1.80000000e+00  4.20567969e-07  5.49383210e-03  4.20567969e-07  5.00000000e-01                                 
 5.68950631e-07  3.83742277e-01  5.68950631e-07  3.45449149e-01  5.68950631e-07  1.06615939e+00  5.68950631e-07  1.80000000e+00  5.68950631e-07 -5.46014395e-03  5.68950631e-07  5.00000000e-01                                 
 5.84336427e-07  3.83186992e-01  5.84336427e-07  3.44973891e-01  5.84336427e-07  1.05077887e+00  5.84336427e-07  1.80000000e+00  5.84336427e-07  2.94971777e-06  5.84336427e-07  5.00000000e-01                                 
 6.15108020e-07  3.96288418e-01  6.15108020e-07  3.55408274e-01  6.15108020e-07  1.03397196e+00  6.15108020e-07  1.80000000e+00  6.15108020e-07  6.11886183e-06  6.15108020e-07  5.00000000e-01                                 
 6.53578220e-07  5.22860104e-01  6.53578220e-07  4.57214909e-01  6.53578220e-07  1.11634056e+00  6.53578220e-07  1.80000000e+00  6.53578220e-07  5.94379159e-06  6.53578220e-07  5.00000000e-01                                 
 6.89346895e-07  6.60700894e-01  6.89346895e-07  5.95017047e-01  6.89346895e-07  1.21194172e+00  6.89346895e-07  1.80000000e+00  6.89346895e-07  7.97725358e-06  6.89346895e-07  5.00000000e-01                                 
 7.17524574e-07  6.97775620e-01  7.17524574e-07  6.32591995e-01  7.17524574e-07  1.21778892e+00  7.17524574e-07  1.80000000e+00  7.17524574e-07  2.89668478e-06  7.17524574e-07  5.00000000e-01                                 
 7.45055200e-07  7.17801585e-01  7.45055200e-07  6.50210719e-01  7.45055200e-07  1.20715730e+00  7.45055200e-07  1.80000000e+00  7.45055200e-07  6.82158144e-06  7.45055200e-07  5.00000000e-01                                 
 7.83844504e-07  7.31861378e-01  7.83844504e-07  6.62664388e-01  7.83844504e-07  1.17942915e+00  7.83844504e-07  1.80000000e+00  7.83844504e-07  2.46806875e-06  7.83844504e-07  5.00000000e-01                                 
 8.25411794e-07  7.37693296e-01  8.25411794e-07  6.67344992e-01  8.25411794e-07  1.14055524e+00  8.25411794e-07  1.80000000e+00  8.25411794e-07  6.37843561e-06  8.25411794e-07  5.00000000e-01                                 
 8.35177098e-07  7.38196113e-01  8.35177098e-07  6.67847388e-01  8.35177098e-07  1.13089193e+00  8.35177098e-07  1.80000000e+00  8.35177098e-07  4.39894618e-06  8.35177098e-07  5.00000000e-01                                 
 8.54707706e-07  7.38983585e-01  8.54707706e-07  6.68510115e-01  8.54707706e-07  1.11125834e+00  8.54707706e-07  1.80000000e+00  8.54707706e-07  4.33587626e-06  8.54707706e-07  5.00000000e-01                                 
 8.93768923e-07  7.39986198e-01  8.93768923e-07  6.69325981e-01  8.93768923e-07  1.07241621e+00  8.93768923e-07  1.80000000e+00  8.93768923e-07  4.36100834e-06  8.93768923e-07  5.00000000e-01                                 
 9.57522610e-07  7.23305791e-01  9.57522610e-07  6.55275287e-01  9.57522610e-07  9.98552636e-01  9.57522610e-07  1.80000000e+00  9.57522610e-07  3.90085261e-06  9.57522610e-07  5.00000000e-01                                 
 1.02334872e-06  7.12384960e-01  1.02334872e-06  6.45582613e-01  1.02334872e-06  9.38501960e-01  1.02334872e-06  1.80000000e+00  1.02334872e-06  4.48574808e-06  1.02334872e-06  5.00000000e-01                                 
 1.10111315e-06  7.31612844e-01  1.10111315e-06  6.62348056e-01  1.10111315e-06  9.03148110e-01  1.10111315e-06  1.80000000e+00  1.10111315e-06  4.55888381e-06  1.10111315e-06  5.00000000e-01                                 
 1.11115124e-06  7.32934088e-01  1.11115124e-06  6.63459929e-01  1.11115124e-06  8.97755786e-01  1.11115124e-06  1.80000000e+00  1.11115124e-06  4.44459620e-06  1.11115124e-06  5.00000000e-01                                 
 1.13122742e-06  7.33376641e-01  1.13122742e-06  6.63842865e-01  1.13122742e-06  8.85239393e-01  1.13122742e-06  1.80000000e+00  1.13122742e-06  4.26633524e-06  1.13122742e-06  5.00000000e-01                                 
 1.17137978e-06  7.23864438e-01  1.17137978e-06  6.55742456e-01  1.17137978e-06  8.51851302e-01  1.17137978e-06  1.80000000e+00  1.17137978e-06  4.02943316e-06  1.17137978e-06  5.00000000e-01                                 
 1.22592327e-06  7.18410786e-01  1.22592327e-06  6.50946285e-01  1.22592327e-06  8.14084850e-01  1.22592327e-06  1.80000000e+00  1.22592327e-06  4.45900832e-06  1.22592327e-06  5.00000000e-01                                 
 1.28514431e-06  7.28040822e-01  1.28514431e-06  6.59309763e-01  1.28514431e-06  7.87544795e-01  1.28514431e-06  1.80000000e+00  1.28514431e-06  4.45307112e-06  1.28514431e-06  5.00000000e-01                                 
 1.36788361e-06  7.26477965e-01  1.36788361e-06  6.57983568e-01  1.36788361e-06  7.38158977e-01  1.36788361e-06  1.80000000e+00  1.36788361e-06  4.18238681e-06  1.36788361e-06  5.00000000e-01                                 
 1.45418423e-06  7.21942993e-01  1.45418423e-06  6.54049107e-01  1.45418423e-06  6.86115850e-01  1.45418423e-06  1.80000000e+00  1.45418423e-06  4.38795636e-06  1.45418423e-06  5.00000000e-01                                 
 1.61804203e-06  7.27464588e-01  1.61804203e-06  6.58821131e-01  1.61804203e-06  6.04365009e-01  1.61804203e-06  1.80000000e+00  1.61804203e-06  4.32403001e-06  1.61804203e-06  5.00000000e-01                                 
 1.81683650e-06  7.23449122e-01  1.81683650e-06  6.55364281e-01  1.81683650e-06  5.24745790e-01  1.81683650e-06  1.80000000e+00  1.81683650e-06  4.30421393e-06  1.81683650e-06  5.00000000e-01                                 
 2.03997849e-06  7.25654315e-01  2.03997849e-06  6.57262905e-01  2.03997849e-06  4.92802411e-01  2.03997849e-06  1.80000000e+00  2.03997849e-06  4.37035008e-06  2.03997849e-06  5.00000000e-01                                 
 2.08291344e-06  7.26039209e-01  2.08291344e-06  6.57598078e-01  2.08291344e-06  4.93281291e-01  2.08291344e-06  1.80000000e+00  2.08291344e-06  4.33761399e-06  2.08291344e-06  5.00000000e-01                                 
 2.16878335e-06  7.24894281e-01  2.16878335e-06  6.56613528e-01  2.16878335e-06  4.96724244e-01  2.16878335e-06  1.80000000e+00  2.16878335e-06  4.30180764e-06  2.16878335e-06  5.00000000e-01                                 
 2.34052317e-06  7.24783892e-01  2.34052317e-06  6.56514507e-01  2.34052317e-06  5.02079745e-01  2.34052317e-06  1.80000000e+00  2.34052317e-06  4.35273892e-06  2.34052317e-06  5.00000000e-01                                 
 2.54612250e-06  7.25579594e-01  2.54612250e-06  6.57204171e-01  2.54612250e-06  4.99623627e-01  2.54612250e-06  1.80000000e+00  2.54612250e-06  4.31157966e-06  2.54612250e-06  5.00000000e-01                                 
 2.80896787e-06  7.24433024e-01  2.80896787e-06  6.56212150e-01  2.80896787e-06  5.00083441e-01  2.80896787e-06  1.80000000e+00  2.80896787e-06  4.33899329e-06  2.80896787e-06  5.00000000e-01                                 
 3.30604003e-06  7.25691911e-01  3.30604003e-06  6.57300292e-01  3.30604003e-06  5.00623060e-01  3.30604003e-06  1.80000000e+00  3.30604003e-06  4.32252392e-06  3.30604003e-06  5.00000000e-01                                 
 4.10840944e-06  7.24417410e-01  4.10840944e-06  6.56199126e-01  4.10840944e-06  4.99713128e-01  4.10840944e-06  1.80000000e+00  4.10840944e-06  4.33257223e-06  4.10840944e-06  5.00000000e-01                                 
 5.10840944e-06  7.25683038e-01  5.10840944e-06  6.57292307e-01  5.10840944e-06  5.00807642e-01  5.10840944e-06  1.80000000e+00  5.10840944e-06  4.32693924e-06  5.10840944e-06  5.00000000e-01                                 
 6.10840944e-06  7.24437277e-01  6.10840944e-06  6.56216536e-01  6.10840944e-06  4.99590770e-01  6.10840944e-06  1.80000000e+00  6.10840944e-06  4.32870413e-06  6.10840944e-06  5.00000000e-01                                 
 7.10840944e-06  7.25653698e-01  7.10840944e-06  6.57266760e-01  7.10840944e-06  5.00895773e-01  7.10840944e-06  1.80000000e+00  7.10840944e-06  4.33071813e-06  7.10840944e-06  5.00000000e-01                                 
 8.10840944e-06  7.24476623e-01  8.10840944e-06  6.56250808e-01  8.10840944e-06  4.99533959e-01  8.10840944e-06  1.80000000e+00  8.10840944e-06  4.32504316e-06  8.10840944e-06  5.00000000e-01                                 
 9.10840944e-06  7.25606828e-01  9.10840944e-06  6.57226134e-01  9.10840944e-06  5.00924411e-01  9.10840944e-06  1.80000000e+00  9.10840944e-06  4.33423539e-06  9.10840944e-06  5.00000000e-01                                 
 1.00005000e-05  7.24536274e-01  1.00005000e-05  6.56302618e-01  1.00005000e-05  4.99532088e-01  1.00005000e-05  1.80000000e+00  1.00005000e-05  4.32150386e-06  1.00005000e-05  5.00000000e-01                                 
 1.00005500e-05  7.24536037e-01  1.00005500e-05  6.56302413e-01  1.00005500e-05  4.91945702e-01  1.00005500e-05  1.62000000e+00  1.00005500e-05 -7.96558251e-05  1.00005500e-05  5.00000000e-01                                 
 1.00006500e-05  7.24535587e-01  1.00006500e-05  6.56302014e-01  1.00006500e-05  4.78228316e-01  1.00006500e-05  1.26000000e+00  1.00006500e-05 -6.58279761e-05  1.00006500e-05  5.00000000e-01                                 
 1.00008500e-05  7.24534753e-01  1.00008500e-05  6.56301269e-01  1.00008500e-05  4.76095027e-01  1.00008500e-05  5.40000000e-01  1.00008500e-05  1.68782777e-02  1.00008500e-05  5.00000000e-01                                 
 1.00010000e-05  7.24534073e-01  1.00010000e-05  6.56300689e-01  1.00010000e-05  4.39501232e-01  1.00010000e-05  0.00000000e+00  1.00010000e-05  1.59735690e+00  1.00010000e-05  5.00000000e-01                                 
 1.00010251e-05  7.24533932e-01  1.00010251e-05  6.56300576e-01  1.00010251e-05  4.16069689e-01  1.00010251e-05  0.00000000e+00  1.00010251e-05  1.73174295e+00  1.00010251e-05  5.00000000e-01                                 
 1.00010752e-05  7.24533703e-01  1.00010752e-05  6.56300370e-01  1.00010752e-05  3.73994093e-01  1.00010752e-05  0.00000000e+00  1.00010752e-05  1.81918184e+00  1.00010752e-05  5.00000000e-01                                 
 1.00011755e-05  7.24533395e-01  1.00011755e-05  6.56300056e-01  1.00011755e-05  3.30477679e-01  1.00011755e-05  0.00000000e+00  1.00011755e-05  1.78615689e+00  1.00011755e-05  5.00000000e-01                                 
 1.00013049e-05  7.24533024e-01  1.00013049e-05  6.56299722e-01  1.00013049e-05  3.22225931e-01  1.00013049e-05  0.00000000e+00  1.00013049e-05  1.80879738e+00  1.00013049e-05  5.00000000e-01                                 
 1.00015168e-05  7.24532322e-01  1.00015168e-05  6.56299118e-01  1.00015168e-05  3.22192615e-01  1.00015168e-05  0.00000000e+00  1.00015168e-05  1.79275782e+00  1.00015168e-05  5.00000000e-01                                 
