 time            v(vbep)         time            v(vben)         time            v(vout)         time            v(vphi1)        time            v(vphi2)        time            v(vref)         yes             currtemp       
 0.00000000e+00  7.29844399e-01  0.00000000e+00  6.80781064e-01  0.00000000e+00  7.92682009e-02  0.00000000e+00  0.00000000e+00  0.00000000e+00  1.79997860e+00  0.00000000e+00  5.00000000e-01  1.00000000e+00 -5.00000000e+00 
 5.00000000e-12  7.29830664e-01  5.00000000e-12  6.80769610e-01  5.00000000e-12  7.97200804e-02  5.00000000e-12  1.80000000e-02  5.00000000e-12  1.80006063e+00  5.00000000e-12  5.00000000e-01                                 
 1.00000000e-11  7.29817102e-01  1.00000000e-11  6.80758379e-01  1.00000000e-11  8.01255081e-02  1.00000000e-11  3.60000000e-02  1.00000000e-11  1.80009878e+00  1.00000000e-11  5.00000000e-01                                 
 2.00000000e-11  7.29790062e-01  2.00000000e-11  6.80735972e-01  2.00000000e-11  8.08717147e-02  2.00000000e-11  7.20000000e-02  2.00000000e-11  1.80012949e+00  2.00000000e-11  5.00000000e-01                                 
 4.00000000e-11  7.29736138e-01  4.00000000e-11  6.80691264e-01  4.00000000e-11  8.20758652e-02  4.00000000e-11  1.44000000e-01  4.00000000e-11  1.80009676e+00  4.00000000e-11  5.00000000e-01                                 
 8.00000000e-11  7.29628584e-01  8.00000000e-11  6.80602056e-01  8.00000000e-11  8.38814414e-02  8.00000000e-11  2.88000000e-01  8.00000000e-11  1.80004375e+00  8.00000000e-11  5.00000000e-01                                 
 1.60000000e-10  7.29414725e-01  1.60000000e-10  6.80424492e-01  1.60000000e-10  8.67986082e-02  1.60000000e-10  5.76000000e-01  1.60000000e-10  1.80001020e+00  1.60000000e-10  5.00000000e-01                                 
 3.20000000e-10  7.28991910e-01  3.20000000e-10  6.80072759e-01  3.20000000e-10  1.21700091e-01  3.20000000e-10  1.15200000e+00  3.20000000e-10  1.79996874e+00  3.20000000e-10  5.00000000e-01                                 
 5.00000000e-10  7.28524023e-01  5.00000000e-10  6.79682465e-01  5.00000000e-10  4.63340948e-01  5.00000000e-10  1.80000000e+00  5.00000000e-10  9.91874785e-02  5.00000000e-10  5.00000000e-01                                 
 5.21087012e-10  7.28469802e-01  5.21087012e-10  6.79637156e-01  5.21087012e-10  5.25429369e-01  5.21087012e-10  1.80000000e+00  5.21087012e-10  1.76524548e-02  5.21087012e-10  5.00000000e-01                                 
 5.63261035e-10  7.28361576e-01  5.63261035e-10  6.79546690e-01  5.63261035e-10  6.34989286e-01  5.63261035e-10  1.80000000e+00  5.63261035e-10 -8.26131067e-03  5.63261035e-10  5.00000000e-01                                 
 6.47609081e-10  7.28146450e-01  6.47609081e-10  6.79366690e-01  6.47609081e-10  7.93420482e-01  6.47609081e-10  1.80000000e+00  6.47609081e-10  7.31930481e-03  6.47609081e-10  5.00000000e-01                                 
 7.71365886e-10  7.27833974e-01  7.71365886e-10  6.79104820e-01  7.71365886e-10  9.53875545e-01  7.71365886e-10  1.80000000e+00  7.71365886e-10 -6.36204873e-03  7.71365886e-10  5.00000000e-01                                 
 9.60684330e-10  7.27363037e-01  9.60684330e-10  6.78709234e-01  9.60684330e-10  1.13694069e+00  9.60684330e-10  1.80000000e+00  9.60684330e-10  6.08785447e-03  9.60684330e-10  5.00000000e-01                                 
 1.26390772e-09  7.26625870e-01  1.26390772e-09  6.78087828e-01  1.26390772e-09  1.35502141e+00  1.26390772e-09  1.80000000e+00  1.26390772e-09 -5.74556423e-03  1.26390772e-09  5.00000000e-01                                 
 1.81301804e-09  7.25341535e-01  1.81301804e-09  6.76998946e-01  1.81301804e-09  1.57113024e+00  1.81301804e-09  1.80000000e+00  1.81301804e-09  5.69553167e-03  1.81301804e-09  5.00000000e-01                                 
 2.21662089e-09  7.24437047e-01  2.21662089e-09  6.76227312e-01  2.21662089e-09  1.62946366e+00  2.21662089e-09  1.80000000e+00  2.21662089e-09 -5.43586837e-03  2.21662089e-09  5.00000000e-01                                 
 2.59409188e-09  7.23618467e-01  2.59409188e-09  6.75525691e-01  2.59409188e-09  1.64975447e+00  2.59409188e-09  1.80000000e+00  2.59409188e-09  5.33009718e-03  2.59409188e-09  5.00000000e-01                                 
 3.00361789e-09  7.22758131e-01  3.00361789e-09  6.74785021e-01  3.00361789e-09  1.65680909e+00  3.00361789e-09  1.80000000e+00  3.00361789e-09 -5.12799654e-03  3.00361789e-09  5.00000000e-01                                 
 3.38132415e-09  7.21988691e-01  3.38132415e-09  6.74119831e-01  3.38132415e-09  1.65791185e+00  3.38132415e-09  1.80000000e+00  3.38132415e-09  4.99089472e-03  3.38132415e-09  5.00000000e-01                                 
 4.06910170e-09  7.20642030e-01  4.06910170e-09  6.72949599e-01  4.06910170e-09  1.65636670e+00  4.06910170e-09  1.80000000e+00  4.06910170e-09 -4.87817015e-03  4.06910170e-09  5.00000000e-01                                 
 4.92581406e-09  7.19054522e-01  4.92581406e-09  6.71560467e-01  4.92581406e-09  1.65317434e+00  4.92581406e-09  1.80000000e+00  4.92581406e-09  4.82867036e-03  4.92581406e-09  5.00000000e-01                                 
 6.63564548e-09  7.16140172e-01  6.63564548e-09  6.68985388e-01  6.63564548e-09  1.64789907e+00  6.63564548e-09  1.80000000e+00  6.63564548e-09 -4.77364684e-03  6.63564548e-09  5.00000000e-01                                 
 9.68925018e-09  7.11608345e-01  9.68925018e-09  6.64922364e-01  9.68925018e-09  1.64118983e+00  9.68925018e-09  1.80000000e+00  9.68925018e-09  4.77428588e-03  9.68925018e-09  5.00000000e-01                                 
 1.57964596e-08  7.04358875e-01  1.57964596e-08  6.58291440e-01  1.57964596e-08  1.62645348e+00  1.57964596e-08  1.80000000e+00  1.57964596e-08 -4.74476217e-03  1.57964596e-08  5.00000000e-01                                 
 2.80108784e-08  6.94242433e-01  2.80108784e-08  6.48776849e-01  2.80108784e-08  1.57628282e+00  2.80108784e-08  1.80000000e+00  2.80108784e-08  4.76012104e-03  2.80108784e-08  5.00000000e-01                                 
 4.88662439e-08  6.83357684e-01  4.88662439e-08  6.38232763e-01  4.88662439e-08  1.45760823e+00  4.88662439e-08  1.80000000e+00  4.88662439e-08 -4.73687883e-03  4.88662439e-08  5.00000000e-01                                 
 7.83782807e-08  6.73263612e-01  7.83782807e-08  6.28320848e-01  7.83782807e-08  1.28248946e+00  7.83782807e-08  1.80000000e+00  7.83782807e-08  4.75550198e-03  7.83782807e-08  5.00000000e-01                                 
 1.22001214e-07  6.62968761e-01  1.22001214e-07  6.18187061e-01  1.22001214e-07  1.02353169e+00  1.22001214e-07  1.80000000e+00  1.22001214e-07 -4.73348900e-03  1.22001214e-07  5.00000000e-01                                 
 1.70947226e-07  6.52372994e-01  1.70947226e-07  6.08207328e-01  1.70947226e-07  8.07811360e-01  1.70947226e-07  1.80000000e+00  1.70947226e-07  4.75300182e-03  1.70947226e-07  5.00000000e-01                                 
 2.22868219e-07  6.41940140e-01  2.22868219e-07  5.98666043e-01  2.22868219e-07  6.74734606e-01  2.22868219e-07  1.80000000e+00  2.22868219e-07 -4.73118774e-03  2.22868219e-07  5.00000000e-01                                 
 2.79843380e-07  6.32285325e-01  2.79843380e-07  5.89921674e-01  2.79843380e-07  5.80069393e-01  2.79843380e-07  1.80000000e+00  2.79843380e-07  4.75089055e-03  2.79843380e-07  5.00000000e-01                                 
 3.54957732e-07  6.20212413e-01  3.54957732e-07  5.79236996e-01  3.54957732e-07  5.04552160e-01  3.54957732e-07  1.80000000e+00  3.54957732e-07 -4.72940741e-03  3.54957732e-07  5.00000000e-01                                 
 4.75361870e-07  6.02279792e-01  4.75361870e-07  5.63741059e-01  4.75361870e-07  4.85963379e-01  4.75361870e-07  1.80000000e+00  4.75361870e-07  4.74965232e-03  4.75361870e-07  5.00000000e-01                                 
 6.33387472e-07  5.78093817e-01  6.33387472e-07  5.43497576e-01  6.33387472e-07  4.92295794e-01  6.33387472e-07  1.80000000e+00  6.33387472e-07 -4.72857248e-03  6.33387472e-07  5.00000000e-01                                 
 7.88131075e-07  5.54033429e-01  7.88131075e-07  5.23790948e-01  7.88131075e-07  5.15499059e-01  7.88131075e-07  1.80000000e+00  7.88131075e-07  4.74891901e-03  7.88131075e-07  5.00000000e-01                                 
 8.16594122e-07  5.49472896e-01  8.16594122e-07  5.20093361e-01  8.16594122e-07  5.11078111e-01  8.16594122e-07  1.80000000e+00  8.16594122e-07  4.98179634e-07  8.16594122e-07  5.00000000e-01                                 
 8.73520216e-07  5.40262238e-01  8.73520216e-07  5.12637883e-01  8.73520216e-07  5.00979507e-01  8.73520216e-07  1.80000000e+00  8.73520216e-07 -5.39001709e-07  8.73520216e-07  5.00000000e-01                                 
 9.87372405e-07  5.25511680e-01  9.87372405e-07  5.00718396e-01  9.87372405e-07  4.91237242e-01  9.87372405e-07  1.80000000e+00  9.87372405e-07  5.23124417e-07  9.87372405e-07  5.00000000e-01                                 
 1.00706104e-06  5.24340430e-01  1.00706104e-06  4.99767882e-01  1.00706104e-06  4.92399168e-01  1.00706104e-06  1.80000000e+00  1.00706104e-06  1.81698447e-08  1.00706104e-06  5.00000000e-01                                 
 1.04643832e-06  5.24401892e-01  1.04643832e-06  4.99792924e-01  1.04643832e-06  4.97563006e-01  1.04643832e-06  1.80000000e+00  1.04643832e-06  6.28267143e-08  1.04643832e-06  5.00000000e-01                                 
 1.10746265e-06  5.45786270e-01  1.10746265e-06  5.16866741e-01  1.10746265e-06  5.15387713e-01  1.10746265e-06  1.80000000e+00  1.10746265e-06  2.75460522e-07  1.10746265e-06  5.00000000e-01                                 
 1.17334114e-06  7.33428512e-01  1.17334114e-06  6.79893403e-01  1.17334114e-06  5.57234610e-01  1.17334114e-06  1.80000000e+00  1.17334114e-06  2.24664921e-06  1.17334114e-06  5.00000000e-01                                 
 1.22596000e-06  8.09276471e-01  1.22596000e-06  7.58264256e-01  1.22596000e-06  5.17643290e-01  1.22596000e-06  1.80000000e+00  1.22596000e-06 -4.67989183e-07  1.22596000e-06  5.00000000e-01                                 
 1.23277920e-06  8.13963897e-01  1.23277920e-06  7.62795255e-01  1.23277920e-06  5.15563090e-01  1.23277920e-06  1.80000000e+00  1.23277920e-06  4.09678699e-07  1.23277920e-06  5.00000000e-01                                 
 1.24641761e-06  8.23674849e-01  1.24641761e-06  7.71865359e-01  1.24641761e-06  5.13878108e-01  1.24641761e-06  1.80000000e+00  1.24641761e-06  5.31532087e-07  1.24641761e-06  5.00000000e-01                                 
 1.27369443e-06  8.41637359e-01  1.27369443e-06  7.87925925e-01  1.27369443e-06  5.13680733e-01  1.27369443e-06  1.80000000e+00  1.27369443e-06  3.55105919e-07  1.27369443e-06  5.00000000e-01                                 
 1.28051363e-06  8.46145934e-01  1.28051363e-06  7.91786549e-01  1.28051363e-06  5.13750332e-01  1.28051363e-06  1.80000000e+00  1.28051363e-06  4.36658730e-07  1.28051363e-06  5.00000000e-01                                 
 1.29415204e-06  8.55872815e-01  1.29415204e-06  7.99845396e-01  1.29415204e-06  5.14187034e-01  1.29415204e-06  1.80000000e+00  1.29415204e-06  5.02965721e-07  1.29415204e-06  5.00000000e-01                                 
 1.32142886e-06  8.83522412e-01  1.32142886e-06  8.20737486e-01  1.32142886e-06  5.17982437e-01  1.32142886e-06  1.80000000e+00  1.32142886e-06  7.76697448e-07  1.32142886e-06  5.00000000e-01                                 
 1.35142922e-06  9.05831763e-01  1.35142922e-06  8.35687027e-01  1.35142922e-06  5.14237994e-01  1.35142922e-06  1.80000000e+00  1.35142922e-06  2.00873874e-07  1.35142922e-06  5.00000000e-01                                 
 1.37758916e-06  8.97228900e-01  1.37758916e-06  8.30378430e-01  1.37758916e-06  4.97319466e-01  1.37758916e-06  1.80000000e+00  1.37758916e-06 -4.56295915e-07  1.37758916e-06  5.00000000e-01                                 
 1.40171709e-06  8.91304954e-01  1.40171709e-06  8.26139932e-01  1.40171709e-06  4.89914753e-01  1.40171709e-06  1.80000000e+00  1.40171709e-06  2.16840368e-07  1.40171709e-06  5.00000000e-01                                 
 1.42672988e-06  8.86867713e-01  1.42672988e-06  8.23353146e-01  1.42672988e-06  4.87356860e-01  1.42672988e-06  1.80000000e+00  1.42672988e-06 -3.20156825e-07  1.42672988e-06  5.00000000e-01                                 
 1.43114790e-06  8.83972869e-01  1.43114790e-06  8.21262364e-01  1.43114790e-06  4.85443182e-01  1.43114790e-06  1.80000000e+00  1.43114790e-06 -3.51734601e-07  1.43114790e-06  5.00000000e-01                                 
 1.43998395e-06  8.79455026e-01  1.43998395e-06  8.17992692e-01  1.43998395e-06  4.82455954e-01  1.43998395e-06  1.80000000e+00  1.43998395e-06 -2.02355871e-07  1.43998395e-06  5.00000000e-01                                 
 1.45765606e-06  8.71423024e-01  1.45765606e-06  8.12111563e-01  1.45765606e-06  4.77581637e-01  1.45765606e-06  1.80000000e+00  1.45765606e-06 -2.62042407e-07  1.45765606e-06  5.00000000e-01                                 
 1.47905597e-06  8.58412713e-01  1.47905597e-06  8.01996838e-01  1.47905597e-06  4.69602409e-01  1.47905597e-06  1.80000000e+00  1.47905597e-06 -3.91188956e-07  1.47905597e-06  5.00000000e-01                                 
 1.51327586e-06  8.38654123e-01  1.51327586e-06  7.85404207e-01  1.51327586e-06  4.65713220e-01  1.51327586e-06  1.80000000e+00  1.51327586e-06 -2.31673354e-07  1.51327586e-06  5.00000000e-01                                 
 1.55410028e-06  8.27574665e-01  1.55410028e-06  7.75465916e-01  1.55410028e-06  5.03717989e-01  1.55410028e-06  1.80000000e+00  1.55410028e-06 -1.25928588e-08  1.55410028e-06  5.00000000e-01                                 
 1.61485852e-06  8.31213982e-01  1.61485852e-06  7.78766231e-01  1.61485852e-06  5.42786647e-01  1.61485852e-06  1.80000000e+00  1.61485852e-06  1.49540077e-07  1.61485852e-06  5.00000000e-01                                 
 1.67797399e-06  8.33572161e-01  1.67797399e-06  7.80873612e-01  1.67797399e-06  4.97247641e-01  1.67797399e-06  1.80000000e+00  1.67797399e-06 -2.59229633e-08  1.67797399e-06  5.00000000e-01                                 
 1.73498452e-06  8.30475968e-01  1.73498452e-06  7.78112420e-01  1.73498452e-06  4.69529999e-01  1.73498452e-06  1.80000000e+00  1.73498452e-06  4.77573759e-08  1.73498452e-06  5.00000000e-01                                 
 1.74552088e-06  8.30481883e-01  1.74552088e-06  7.78107435e-01  1.74552088e-06  4.70635270e-01  1.74552088e-06  1.80000000e+00  1.74552088e-06  4.03696672e-08  1.74552088e-06  5.00000000e-01                                 
 1.76659360e-06  8.30897306e-01  1.76659360e-06  7.78478408e-01  1.76659360e-06  4.73246874e-01  1.76659360e-06  1.80000000e+00  1.76659360e-06  6.33286643e-08  1.76659360e-06  5.00000000e-01                                 
 1.80873903e-06  8.31892765e-01  1.80873903e-06  7.79375397e-01  1.80873903e-06  4.90854273e-01  1.80873903e-06  1.80000000e+00  1.80873903e-06  5.16106661e-08  1.80873903e-06  5.00000000e-01                                 
 1.86891770e-06  8.31640517e-01  1.86891770e-06  7.79149872e-01  1.86891770e-06  5.33443767e-01  1.86891770e-06  1.80000000e+00  1.86891770e-06  2.42784664e-08  1.86891770e-06  5.00000000e-01                                 
 1.92846634e-06  8.31274293e-01  1.92846634e-06  7.78820232e-01  1.92846634e-06  5.10462877e-01  1.92846634e-06  1.80000000e+00  1.92846634e-06  3.25167432e-08  1.92846634e-06  5.00000000e-01                                 
 1.99385066e-06  8.31646774e-01  1.99385066e-06  7.79154126e-01  1.99385066e-06  4.61049879e-01  1.99385066e-06  1.80000000e+00  1.99385066e-06  6.33918521e-08  1.99385066e-06  5.00000000e-01                                 
 2.04863963e-06  8.31578694e-01  2.04863963e-06  7.79094495e-01  2.04863963e-06  4.78699161e-01  2.04863963e-06  1.80000000e+00  2.04863963e-06  2.18155141e-08  2.04863963e-06  5.00000000e-01                                 
 2.11456715e-06  8.31433068e-01  2.11456715e-06  7.78962349e-01  2.11456715e-06  5.44953238e-01  2.11456715e-06  1.80000000e+00  2.11456715e-06  5.92196544e-08  2.11456715e-06  5.00000000e-01                                 
 2.16985573e-06  8.31562560e-01  2.16985573e-06  7.79079433e-01  2.16985573e-06  5.26889946e-01  2.16985573e-06  1.80000000e+00  2.16985573e-06 -9.96346622e-11  2.16985573e-06  5.00000000e-01                                 
 2.23447135e-06  8.31545583e-01  2.23447135e-06  7.79063757e-01  2.23447135e-06  4.53631669e-01  2.23447135e-06  1.80000000e+00  2.23447135e-06  8.89809615e-08  2.23447135e-06  5.00000000e-01                                 
 2.28516209e-06  8.31493704e-01  2.28516209e-06  7.79017652e-01  2.28516209e-06  4.63269324e-01  2.28516209e-06  1.80000000e+00  2.28516209e-06  7.02141917e-10  2.28516209e-06  5.00000000e-01                                 
 2.34545055e-06  8.31528529e-01  2.34545055e-06  7.79048281e-01  2.34545055e-06  5.21124835e-01  2.34545055e-06  1.80000000e+00  2.34545055e-06  8.22656363e-08  2.34545055e-06  5.00000000e-01                                 
 2.40624409e-06  8.31539262e-01  2.40624409e-06  7.79058590e-01  2.40624409e-06  5.46916056e-01  2.40624409e-06  1.80000000e+00  2.40624409e-06 -1.10693420e-08  2.40624409e-06  5.00000000e-01                                 
 2.41439800e-06  8.31534104e-01  2.41439800e-06  7.79053699e-01  2.41439800e-06  5.36023928e-01  2.41439800e-06  1.80000000e+00  2.41439800e-06  1.31514904e-08  2.41439800e-06  5.00000000e-01                                 
 2.43070581e-06  8.31526089e-01  2.43070581e-06  7.79046445e-01  2.43070581e-06  5.17145250e-01  2.43070581e-06  1.80000000e+00  2.43070581e-06  7.00311077e-08  2.43070581e-06  5.00000000e-01                                 
 2.46332143e-06  8.31520030e-01  2.46332143e-06  7.79041017e-01  2.46332143e-06  4.98884678e-01  2.46332143e-06  1.80000000e+00  2.46332143e-06  2.32409479e-08  2.46332143e-06  5.00000000e-01                                 
 2.52191166e-06  8.31525945e-01  2.52191166e-06  7.79046284e-01  2.52191166e-06  4.96907254e-01  2.52191166e-06  1.80000000e+00  2.52191166e-06  5.76623870e-08  2.52191166e-06  5.00000000e-01                                 
 2.58245827e-06  8.31526550e-01  2.58245827e-06  7.79046881e-01  2.58245827e-06  4.98087841e-01  2.58245827e-06  1.80000000e+00  2.58245827e-06  2.27602414e-08  2.58245827e-06  5.00000000e-01                                 
 2.69494661e-06  8.31524035e-01  2.69494661e-06  7.79044574e-01  2.69494661e-06  4.97295823e-01  2.69494661e-06  1.80000000e+00  2.69494661e-06  5.71129028e-08  2.69494661e-06  5.00000000e-01                                 
 2.86014459e-06  8.31526581e-01  2.86014459e-06  7.79046904e-01  2.86014459e-06  4.98591049e-01  2.86014459e-06  1.80000000e+00  2.86014459e-06  2.33886392e-08  2.86014459e-06  5.00000000e-01                                 
 3.05506915e-06  8.31524344e-01  3.05506915e-06  7.79044856e-01  3.05506915e-06  5.02808459e-01  3.05506915e-06  1.80000000e+00  3.05506915e-06  5.66307972e-08  3.05506915e-06  5.00000000e-01                                 
 3.44491828e-06  8.31526302e-01  3.44491828e-06  7.79046651e-01  3.44491828e-06  4.97803410e-01  3.44491828e-06  1.80000000e+00  3.44491828e-06  2.35894137e-08  3.44491828e-06  5.00000000e-01                                 
 3.84090195e-06  8.31524530e-01  3.84090195e-06  7.79045024e-01  3.84090195e-06  5.01585564e-01  3.84090195e-06  1.80000000e+00  3.84090195e-06  5.66488053e-08  3.84090195e-06  5.00000000e-01                                 
 4.58865525e-06  8.31526161e-01  4.58865525e-06  7.79046523e-01  4.58865525e-06  4.99218928e-01  4.58865525e-06  1.80000000e+00  4.58865525e-06  2.35235972e-08  4.58865525e-06  5.00000000e-01                                 
