 time            v(vbep)         time            v(vben)         time            v(vout)         time            v(vphi1)        time            v(vphi2)        time            v(vref)         time            v(voutc)        time            v(voutcc)       yes             currtemp       
 0.00000000e+00  8.28177305e-01  0.00000000e+00  7.77610019e-01  0.00000000e+00  1.70872787e+00  0.00000000e+00  0.00000000e+00  0.00000000e+00  1.80000000e+00  0.00000000e+00  7.81276872e-01  0.00000000e+00  1.70872787e+00  0.00000000e+00  1.71388816e+00  1.00000000e+00 -1.00000000e+01 
 1.00000000e-11  8.28199674e-01  1.00000000e-11  7.77677649e-01  1.00000000e-11  1.70952895e+00  1.00000000e-11  1.80000000e-02  1.00000000e-11  1.80024233e+00  1.00000000e-11  7.81793141e-01  1.00000000e-11  1.70918498e+00  1.00000000e-11  1.71387339e+00                                 
 2.00000000e-11  8.28205915e-01  2.00000000e-11  7.77720224e-01  2.00000000e-11  1.71006436e+00  2.00000000e-11  3.60000000e-02  2.00000000e-11  1.80034322e+00  2.00000000e-11  7.82182126e-01  2.00000000e-11  1.70954096e+00  2.00000000e-11  1.71386114e+00                                 
 4.00000000e-11  8.28205837e-01  4.00000000e-11  7.77775866e-01  4.00000000e-11  1.71076980e+00  4.00000000e-11  7.20000000e-02  4.00000000e-11  1.80038945e+00  4.00000000e-11  7.82756293e-01  4.00000000e-11  1.71008706e+00  4.00000000e-11  1.71384073e+00                                 
 8.00000000e-11  8.28194542e-01  8.00000000e-11  7.77808527e-01  8.00000000e-11  1.71108466e+00  8.00000000e-11  1.44000000e-01  8.00000000e-11  1.80019842e+00  8.00000000e-11  7.83212914e-01  8.00000000e-11  1.71059088e+00  8.00000000e-11  1.71381959e+00                                 
 1.60000000e-10  8.28191160e-01  1.60000000e-10  7.77808744e-01  1.60000000e-10  1.71084263e+00  1.60000000e-10  2.88000000e-01  1.60000000e-10  1.80001279e+00  1.60000000e-10  7.83275255e-01  1.60000000e-10  1.71076180e+00  1.60000000e-10  1.71380767e+00                                 
 3.20000000e-10  8.28188633e-01  3.20000000e-10  7.77808075e-01  3.20000000e-10  1.71053476e+00  3.20000000e-10  5.76000000e-01  3.20000000e-10  1.80001855e+00  3.20000000e-10  7.83235046e-01  3.20000000e-10  1.71069679e+00  3.20000000e-10  1.71380533e+00                                 
 6.40000000e-10  8.28117264e-01  6.40000000e-10  7.77587840e-01  6.40000000e-10  1.70455500e+00  6.40000000e-10  1.15200000e+00  6.40000000e-10  1.81349802e+00  6.40000000e-10  7.82648656e-01  6.40000000e-10  1.71540718e+00  6.40000000e-10  1.71383380e+00                                 
 9.95940178e-10  8.28540439e-01  9.95940178e-10  7.77621745e-01  9.95940178e-10  1.67465623e+00  9.95940178e-10  1.79269232e+00  9.95940178e-10  7.64779678e-02  9.95940178e-10  7.84072662e-01  9.95940178e-10  1.70489333e+00  9.95940178e-10  1.71371979e+00                                 
 1.00000000e-09  8.28554399e-01  1.00000000e-09  7.77643577e-01  1.00000000e-09  1.67439108e+00  1.00000000e-09  1.80000000e+00  1.00000000e-09  4.85985998e-02  1.00000000e-09  7.84392803e-01  1.00000000e-09  1.70478069e+00  1.00000000e-09  1.71372744e+00                                 
 1.00811964e-09  8.28536894e-01  1.00811964e-09  7.77649874e-01  1.00811964e-09  1.67428782e+00  1.00811964e-09  1.80000000e+00  1.00811964e-09  2.56562427e-02  1.00811964e-09  7.85114089e-01  1.00811964e-09  1.70510711e+00  1.00811964e-09  1.71375409e+00                                 
 1.02435893e-09  8.28523900e-01  1.02435893e-09  7.77699009e-01  1.02435893e-09  1.67460100e+00  1.02435893e-09  1.80000000e+00  1.02435893e-09  2.38277396e-03  1.02435893e-09  7.86636517e-01  1.02435893e-09  1.70614746e+00  1.02435893e-09  1.71380547e+00                                 
 1.05683750e-09  8.28577202e-01  1.05683750e-09  7.77769636e-01  1.05683750e-09  1.67505571e+00  1.05683750e-09  1.80000000e+00  1.05683750e-09  9.84560159e-04  1.05683750e-09  7.88426611e-01  1.05683750e-09  1.70773881e+00  1.05683750e-09  1.71383116e+00                                 
 1.12179465e-09  8.28720778e-01  1.12179465e-09  7.77708706e-01  1.12179465e-09  1.67298820e+00  1.12179465e-09  1.80000000e+00  1.12179465e-09  6.30256577e-04  1.12179465e-09  7.88846093e-01  1.12179465e-09  1.70811720e+00  1.12179465e-09  1.71379535e+00                                 
 1.25170894e-09  8.28896175e-01  1.25170894e-09  7.77634635e-01  1.25170894e-09  1.66795524e+00  1.25170894e-09  1.80000000e+00  1.25170894e-09  3.24612592e-04  1.25170894e-09  7.89428213e-01  1.25170894e-09  1.70859506e+00  1.25170894e-09  1.71381202e+00                                 
 1.51153753e-09  8.28961251e-01  1.51153753e-09  7.77614929e-01  1.51153753e-09  1.66334689e+00  1.51153753e-09  1.80000000e+00  1.51153753e-09  2.47218010e-05  1.51153753e-09  7.89757202e-01  1.51153753e-09  1.70886647e+00  1.51153753e-09  1.71380888e+00                                 
 1.77917893e-09  8.28799833e-01  1.77917893e-09  7.77603475e-01  1.77917893e-09  1.66445909e+00  1.77917893e-09  1.80000000e+00  1.77917893e-09 -3.12127033e-05  1.77917893e-09  7.89245660e-01  1.77917893e-09  1.70843115e+00  1.77917893e-09  1.71381529e+00                                 
 2.04379939e-09  8.28627021e-01  2.04379939e-09  7.77603345e-01  2.04379939e-09  1.66643324e+00  2.04379939e-09  1.80000000e+00  2.04379939e-09 -3.12969044e-05  2.04379939e-09  7.88820795e-01  2.04379939e-09  1.70807237e+00  2.04379939e-09  1.71381601e+00                                 
 2.38634554e-09  8.28430931e-01  2.38634554e-09  7.77596981e-01  2.38634554e-09  1.66891324e+00  2.38634554e-09  1.80000000e+00  2.38634554e-09 -3.78053323e-05  2.38634554e-09  7.88198087e-01  2.38634554e-09  1.70754467e+00  2.38634554e-09  1.71382103e+00                                 
 3.07143784e-09  8.28191725e-01  3.07143784e-09  7.77592674e-01  3.07143784e-09  1.67308972e+00  3.07143784e-09  1.80000000e+00  3.07143784e-09 -2.92506443e-05  3.07143784e-09  7.87093775e-01  3.07143784e-09  1.70661043e+00  3.07143784e-09  1.71382450e+00                                 
 4.44162243e-09  8.28040893e-01  4.44162243e-09  7.77589450e-01  4.44162243e-09  1.67893405e+00  4.44162243e-09  1.80000000e+00  4.44162243e-09 -3.34024065e-05  4.44162243e-09  7.85161682e-01  4.44162243e-09  1.70497443e+00  4.44162243e-09  1.71381799e+00                                 
 7.18199162e-09  8.28091626e-01  7.18199162e-09  7.77598572e-01  7.18199162e-09  1.68382513e+00  7.18199162e-09  1.80000000e+00  7.18199162e-09 -2.07823936e-05  7.18199162e-09  7.82666032e-01  7.18199162e-09  1.70286204e+00  7.18199162e-09  1.71372638e+00                                 
 9.65950166e-09  8.28128899e-01  9.65950166e-09  7.77604903e-01  9.65950166e-09  1.68383012e+00  9.65950166e-09  1.80000000e+00  9.65950166e-09 -2.38696016e-05  9.65950166e-09  7.81522450e-01  9.65950166e-09  1.70189225e+00  9.65950166e-09  1.71356963e+00                                 
 1.20109146e-08  8.28140638e-01  1.20109146e-08  7.77608428e-01  1.20109146e-08  1.68258587e+00  1.20109146e-08  1.80000000e+00  1.20109146e-08 -1.26788682e-05  1.20109146e-08  7.81013766e-01  1.20109146e-08  1.70145901e+00  1.20109146e-08  1.71337721e+00                                 
 1.45729719e-08  8.28136388e-01  1.45729719e-08  7.77609306e-01  1.45729719e-08  1.68154531e+00  1.45729719e-08  1.80000000e+00  1.45729719e-08 -1.31914139e-05  1.45729719e-08  7.80732692e-01  1.45729719e-08  1.70121521e+00  1.45729719e-08  1.71314708e+00                                 
 1.80805949e-08  8.28140594e-01  1.80805949e-08  7.77610248e-01  1.80805949e-08  1.68029503e+00  1.80805949e-08  1.80000000e+00  1.80805949e-08 -8.01581368e-07  1.80805949e-08  7.80625995e-01  1.80805949e-08  1.70111484e+00  1.80805949e-08  1.71282061e+00                                 
 2.25071126e-08  8.28159068e-01  2.25071126e-08  7.77609859e-01  2.25071126e-08  1.67666850e+00  2.25071126e-08  1.80000000e+00  2.25071126e-08 -6.06919097e-06  2.25071126e-08  7.80614805e-01  2.25071126e-08  1.70108940e+00  2.25071126e-08  1.71241930e+00                                 
 2.86681628e-08  8.28175739e-01  2.86681628e-08  7.77610329e-01  2.86681628e-08  1.66871711e+00  2.86681628e-08  1.80000000e+00  2.86681628e-08  2.25816903e-06  2.86681628e-08  7.80706221e-01  2.86681628e-08  1.70114535e+00  2.86681628e-08  1.71189612e+00                                 
 3.73340174e-08  8.28179276e-01  3.73340174e-08  7.77609983e-01  3.73340174e-08  1.65542155e+00  3.73340174e-08  1.80000000e+00  3.73340174e-08 -5.11316404e-06  3.73340174e-08  7.80806981e-01  3.73340174e-08  1.70120343e+00  3.73340174e-08  1.71123946e+00                                 
 5.12847959e-08  8.28180763e-01  5.12847959e-08  7.77610306e-01  5.12847959e-08  1.63260123e+00  5.12847959e-08  1.80000000e+00  5.12847959e-08  2.30528452e-06  5.12847959e-08  7.80962288e-01  5.12847959e-08  1.70130219e+00  5.12847959e-08  1.71034830e+00                                 
 7.21305194e-08  8.28177521e-01  7.21305194e-08  7.77609895e-01  7.21305194e-08  1.59699704e+00  7.21305194e-08  1.80000000e+00  7.21305194e-08 -5.24968587e-06  7.21305194e-08  7.81084996e-01  7.21305194e-08  1.70137256e+00  7.21305194e-08  1.70932855e+00                                 
 1.13821966e-07  8.28178896e-01  1.13821966e-07  7.77610216e-01  1.13821966e-07  1.52365915e+00  1.13821966e-07  1.80000000e+00  1.13821966e-07  2.20932557e-06  1.13821966e-07  7.81227923e-01  1.13821966e-07  1.70145827e+00  1.13821966e-07  1.70803663e+00                                 
 1.97204860e-07  8.28176222e-01  1.97204860e-07  7.77609856e-01  1.97204860e-07  1.37645941e+00  1.97204860e-07  1.80000000e+00  1.97204860e-07 -5.24636613e-06  1.97204860e-07  7.81272026e-01  1.97204860e-07  1.70146926e+00  1.97204860e-07  1.70696807e+00                                 
 3.25279939e-07  8.28178411e-01  3.25279939e-07  7.77610202e-01  3.25279939e-07  1.15467833e+00  3.25279939e-07  1.80000000e+00  3.25279939e-07  2.33864251e-06  3.25279939e-07  7.81282968e-01  3.25279939e-07  1.70146786e+00  3.25279939e-07  1.70665145e+00                                 
 5.08662200e-07  8.28176208e-01  5.08662200e-07  7.77609844e-01  5.08662200e-07  8.72127999e-01  5.08662200e-07  1.80000000e+00  5.08662200e-07 -4.59389045e-06  5.08662200e-07  7.81269860e-01  5.08662200e-07  1.70144798e+00  5.08662200e-07  1.70663340e+00                                 
 6.77436889e-07  8.28178482e-01  6.77436889e-07  7.77610199e-01  6.77436889e-07  7.74698719e-01  6.77436889e-07  1.80000000e+00  6.77436889e-07  4.01786826e-06  6.77436889e-07  7.81284431e-01  6.77436889e-07  1.70145366e+00  6.77436889e-07  1.70662956e+00                                 
 8.05657731e-07  8.28175987e-01  8.05657731e-07  7.77609834e-01  8.05657731e-07  7.87732324e-01  8.05657731e-07  1.80000000e+00  8.05657731e-07 -3.86401597e-06  8.05657731e-07  7.81270112e-01  8.05657731e-07  1.70143569e+00  8.05657731e-07  1.70662453e+00                                 
 8.61221452e-07  8.28178619e-01  8.61221452e-07  7.77610196e-01  8.61221452e-07  7.85596667e-01  8.61221452e-07  1.80000000e+00  8.61221452e-07  3.87241619e-06  8.61221452e-07  7.81283069e-01  8.61221452e-07  1.70144470e+00  8.61221452e-07  1.70662123e+00                                 
 9.39398658e-07  8.28176075e-01  9.39398658e-07  7.77609858e-01  9.39398658e-07  7.84888353e-01  9.39398658e-07  1.80000000e+00  9.39398658e-07 -3.82157446e-06  9.39398658e-07  7.81270576e-01  9.39398658e-07  1.70143044e+00  9.39398658e-07  1.70661849e+00                                 
 1.03949998e-06  8.28178492e-01  1.03949998e-06  7.77610189e-01  1.03949998e-06  7.85087281e-01  1.03949998e-06  1.80000000e+00  1.03949998e-06  3.87742698e-06  1.03949998e-06  7.81283247e-01  1.03949998e-06  1.70143734e+00  1.03949998e-06  1.70661373e+00                                 
 1.23775129e-06  8.28176138e-01  1.23775129e-06  7.77609869e-01  1.23775129e-06  7.84893003e-01  1.23775129e-06  1.80000000e+00  1.23775129e-06 -3.81977531e-06  1.23775129e-06  7.81270498e-01  1.23775129e-06  1.70141779e+00  1.23775129e-06  1.70660596e+00                                 
 1.46438501e-06  8.28178461e-01  1.46438501e-06  7.77610185e-01  1.46438501e-06  7.85093617e-01  1.46438501e-06  1.80000000e+00  1.46438501e-06  3.87706685e-06  1.46438501e-06  7.81283285e-01  1.46438501e-06  1.70141944e+00  1.46438501e-06  1.70659585e+00                                 
 1.91765244e-06  8.28176159e-01  1.91765244e-06  7.77609872e-01  1.91765244e-06  7.84916567e-01  1.91765244e-06  1.80000000e+00  1.91765244e-06 -3.81974720e-06  1.91765244e-06  7.81270475e-01  1.91765244e-06  1.70138911e+00  1.91765244e-06  1.70657737e+00                                 
 2.72075392e-06  8.28178451e-01  2.72075392e-06  7.77610188e-01  2.72075392e-06  7.85090286e-01  2.72075392e-06  1.80000000e+00  2.72075392e-06  3.87805551e-06  2.72075392e-06  7.81283301e-01  2.72075392e-06  1.70136653e+00  2.72075392e-06  1.70654306e+00                                 
 3.92075392e-06  8.28176164e-01  3.92075392e-06  7.77609869e-01  3.92075392e-06  7.84925548e-01  3.92075392e-06  1.80000000e+00  3.92075392e-06 -3.82043656e-06  3.92075392e-06  7.81270465e-01  3.92075392e-06  1.70130476e+00  3.92075392e-06  1.70649324e+00                                 
 5.12075392e-06  8.28178446e-01  5.12075392e-06  7.77610182e-01  5.12075392e-06  7.85093866e-01  5.12075392e-06  1.80000000e+00  5.12075392e-06  3.87684783e-06  5.12075392e-06  7.81283299e-01  5.12075392e-06  1.70126551e+00  5.12075392e-06  1.70644229e+00                                 
 6.00100000e-06  8.28176169e-01  6.00100000e-06  7.77609865e-01  6.00100000e-06  7.84929806e-01  6.00100000e-06  1.80000000e+00  6.00100000e-06 -3.82124406e-06  6.00100000e-06  7.81270454e-01  6.00100000e-06  1.70121716e+00  6.00100000e-06  1.70640588e+00                                 
 6.00110000e-06  8.28144373e-01  6.00110000e-06  7.77384286e-01  6.00110000e-06  7.82902051e-01  6.00110000e-06  1.62000000e+00  6.00110000e-06 -9.73024165e-05  6.00110000e-06  7.79438678e-01  6.00110000e-06  1.69966645e+00  6.00110000e-06  1.70639118e+00                                 
 6.00130000e-06  8.28174371e-01  6.00130000e-06  7.77441744e-01  6.00130000e-06  7.83615766e-01  6.00130000e-06  1.26000000e+00  6.00130000e-06  4.60029617e-05  6.00130000e-06  7.79740112e-01  6.00130000e-06  1.69992450e+00  6.00130000e-06  1.70641387e+00                                 
 6.00170000e-06  8.28205228e-01  6.00170000e-06  7.77500594e-01  6.00170000e-06  7.85932418e-01  6.00170000e-06  5.40000000e-01  6.00170000e-06  2.14317952e-01  6.00170000e-06  7.79040009e-01  6.00170000e-06  1.69140546e+00  6.00170000e-06  1.70635402e+00                                 
 6.00200000e-06  8.28171216e-01  6.00200000e-06  7.75249469e-01  6.00200000e-06  8.31195602e-01  6.00200000e-06  0.00000000e+00  6.00200000e-06  1.63828278e+00  6.00200000e-06  7.51625100e-01  6.00200000e-06  1.48594375e+00  6.00200000e-06  1.70554015e+00                                 
 6.00204885e-06  8.28178895e-01  6.00204885e-06  7.75235390e-01  6.00204885e-06  8.29484719e-01  6.00204885e-06  0.00000000e+00  6.00204885e-06  1.74544489e+00  6.00204885e-06  7.51320510e-01  6.00204885e-06  1.42847197e+00  6.00204885e-06  1.70580558e+00                                 
 6.00214654e-06  8.28176463e-01  6.00214654e-06  7.75278540e-01  6.00214654e-06  8.22104359e-01  6.00214654e-06  0.00000000e+00  6.00214654e-06  1.81454348e+00  6.00214654e-06  7.51894996e-01  6.00214654e-06  1.31842995e+00  6.00214654e-06  1.70629957e+00                                 
 6.00231489e-06  8.28175871e-01  6.00231489e-06  7.75831678e-01  6.00231489e-06  8.10120500e-01  6.00231489e-06  0.00000000e+00  6.00231489e-06  1.78977496e+00  6.00231489e-06  7.58530687e-01  6.00231489e-06  1.18099590e+00  6.00231489e-06  1.70647955e+00                                 
 6.00248987e-06  8.28176840e-01  6.00248987e-06  7.76166198e-01  6.00248987e-06  8.06410585e-01  6.00248987e-06  0.00000000e+00  6.00248987e-06  1.80486681e+00  6.00248987e-06  7.62158466e-01  6.00248987e-06  1.08696197e+00  6.00248987e-06  1.70655145e+00                                 
 6.00271728e-06  8.28175334e-01  6.00271728e-06  7.76487407e-01  6.00271728e-06  8.01524450e-01  6.00271728e-06  0.00000000e+00  6.00271728e-06  1.79617445e+00  6.00271728e-06  7.65188514e-01  6.00271728e-06  9.92690592e-01  6.00271728e-06  1.70663717e+00                                 
 6.00298084e-06  8.28177175e-01  6.00298084e-06  7.76883859e-01  6.00298084e-06  7.98663041e-01  6.00298084e-06  0.00000000e+00  6.00298084e-06  1.80214517e+00  6.00298084e-06  7.69007230e-01  6.00298084e-06  9.09163768e-01  6.00298084e-06  1.70671016e+00                                 
 6.00350796e-06  8.28175750e-01  6.00350796e-06  7.77568603e-01  6.00350796e-06  7.90390988e-01  6.00350796e-06  0.00000000e+00  6.00350796e-06  1.79772471e+00  6.00350796e-06  7.75678566e-01  6.00350796e-06  8.11628169e-01  6.00350796e-06  1.70670293e+00                                 
 6.00399868e-06  8.28177756e-01  6.00399868e-06  7.78042510e-01  6.00399868e-06  7.85974182e-01  6.00399868e-06  0.00000000e+00  6.00399868e-06  1.80181064e+00  6.00399868e-06  7.80695706e-01  6.00399868e-06  7.89683345e-01  6.00399868e-06  1.70651423e+00                                 
 6.00441535e-06  8.28176144e-01  6.00441535e-06  7.78069400e-01  6.00441535e-06  7.85621532e-01  6.00441535e-06  0.00000000e+00  6.00441535e-06  1.79856404e+00  6.00441535e-06  7.80933063e-01  6.00441535e-06  7.85923357e-01  6.00441535e-06  1.70619019e+00                                 
 6.00498137e-06  8.28178034e-01  6.00498137e-06  7.78106678e-01  6.00498137e-06  7.85415832e-01  6.00498137e-06  0.00000000e+00  6.00498137e-06  1.80122932e+00  6.00498137e-06  7.82017833e-01  6.00498137e-06  7.85889416e-01  6.00498137e-06  1.70561985e+00                                 
 6.00570097e-06  8.28176387e-01  6.00570097e-06  7.77983239e-01  6.00570097e-06  7.86187923e-01  6.00570097e-06  0.00000000e+00  6.00570097e-06  1.79892566e+00  6.00570097e-06  7.81565331e-01  6.00570097e-06  7.85627252e-01  6.00570097e-06  1.70475572e+00                                 
 6.00714016e-06  8.28178152e-01  6.00714016e-06  7.77891685e-01  6.00714016e-06  7.87220720e-01  6.00714016e-06  0.00000000e+00  6.00714016e-06  1.80101551e+00  6.00714016e-06  7.82253119e-01  6.00714016e-06  7.87439875e-01  6.00714016e-06  1.70287867e+00                                 
 6.01001854e-06  8.28176450e-01  6.01001854e-06  7.77706871e-01  6.01001854e-06  7.90394541e-01  6.01001854e-06  0.00000000e+00  6.01001854e-06  1.79902438e+00  6.01001854e-06  7.81789369e-01  6.01001854e-06  7.89761806e-01  6.01001854e-06  1.69894121e+00                                 
 6.01577531e-06  8.28178150e-01  6.01577531e-06  7.77654819e-01  6.01577531e-06  7.96522076e-01  6.01577531e-06  0.00000000e+00  6.01577531e-06  1.80096839e+00  6.01577531e-06  7.82262686e-01  6.01577531e-06  7.96680371e-01  6.01577531e-06  1.69110791e+00                                 
 6.02728884e-06  8.28176459e-01  6.02728884e-06  7.77577203e-01  6.02728884e-06  8.09669858e-01  6.02728884e-06  0.00000000e+00  6.02728884e-06  1.79904750e+00  6.02728884e-06  7.81544584e-01  6.02728884e-06  8.08925238e-01  6.02728884e-06  1.67541133e+00                                 
 6.04808390e-06  8.28178151e-01  6.04808390e-06  7.77629686e-01  6.04808390e-06  8.31719783e-01  6.04808390e-06  0.00000000e+00  6.04808390e-06  1.80095620e+00  6.04808390e-06  7.81845447e-01  6.04808390e-06  8.31954299e-01  6.04808390e-06  1.64590593e+00                                 
 6.08967403e-06  8.28176460e-01  6.08967403e-06  7.77587017e-01  6.08967403e-06  8.72711943e-01  6.08967403e-06  0.00000000e+00  6.08967403e-06  1.79905284e+00  6.08967403e-06  7.81099546e-01  6.08967403e-06  8.71364441e-01  6.08967403e-06  1.58414664e+00                                 
