 time            v(vbep)         time            v(vben)         time            v(vout)         time            v(vphi1)        time            v(vphi2)        time            v(vref)         yes             currtemp       
 0.00000000e+00  6.67734113e-01  0.00000000e+00  6.07350905e-01  0.00000000e+00  1.01126836e+00  0.00000000e+00  0.00000000e+00  0.00000000e+00  1.79985590e+00  0.00000000e+00  5.00000000e-01  1.00000000e+00  5.60000000e+01 
 5.00000000e-12  6.67648596e-01  5.00000000e-12  6.07283975e-01  5.00000000e-12  1.01202939e+00  5.00000000e-12  1.80000000e-02  5.00000000e-12  1.79998176e+00  5.00000000e-12  5.00000000e-01                                 
 1.00000000e-11  6.67570318e-01  1.00000000e-11  6.07220914e-01  1.00000000e-11  1.01272045e+00  1.00000000e-11  3.60000000e-02  1.00000000e-11  1.80005682e+00  1.00000000e-11  5.00000000e-01                                 
 2.00000000e-11  6.67419832e-01  2.00000000e-11  6.07095998e-01  2.00000000e-11  1.01399350e+00  2.00000000e-11  7.20000000e-02  2.00000000e-11  1.80014147e+00  2.00000000e-11  5.00000000e-01                                 
 4.00000000e-11  6.67130482e-01  4.00000000e-11  6.06848370e-01  4.00000000e-11  1.01603495e+00  4.00000000e-11  1.44000000e-01  4.00000000e-11  1.80013960e+00  4.00000000e-11  5.00000000e-01                                 
 8.00000000e-11  6.66557919e-01  8.00000000e-11  6.06357669e-01  8.00000000e-11  1.01878281e+00  8.00000000e-11  2.88000000e-01  8.00000000e-11  1.80007878e+00  8.00000000e-11  5.00000000e-01                                 
 1.60000000e-10  6.65436673e-01  1.60000000e-10  6.05394400e-01  1.60000000e-10  1.02135967e+00  1.60000000e-10  5.76000000e-01  1.60000000e-10  1.80001602e+00  1.60000000e-10  5.00000000e-01                                 
 3.20000000e-10  6.63280959e-01  3.20000000e-10  6.03536024e-01  3.20000000e-10  1.01570858e+00  3.20000000e-10  1.15200000e+00  3.20000000e-10  1.80041448e+00  3.20000000e-10  5.00000000e-01                                 
 5.00000000e-10  6.60986973e-01  5.00000000e-10  6.01547761e-01  5.00000000e-10  1.17860350e+00  5.00000000e-10  1.80000000e+00  5.00000000e-10  1.25181938e-01  5.00000000e-10  5.00000000e-01                                 
 5.21872293e-10  6.60718345e-01  5.21872293e-10  6.01314171e-01  5.21872293e-10  1.21737235e+00  5.21872293e-10  1.80000000e+00  5.21872293e-10  2.56109864e-02  5.21872293e-10  5.00000000e-01                                 
 5.65616879e-10  6.60184462e-01  5.65616879e-10  6.00849503e-01  5.65616879e-10  1.28931008e+00  5.65616879e-10  1.80000000e+00  5.65616879e-10 -1.17564319e-02  5.65616879e-10  5.00000000e-01                                 
 6.53106051e-10  6.59137845e-01  6.53106051e-10  5.99936955e-01  6.53106051e-10  1.41031222e+00  6.53106051e-10  1.80000000e+00  6.53106051e-10  9.68601805e-03  6.53106051e-10  5.00000000e-01                                 
 7.75287224e-10  6.57721790e-01  7.75287224e-10  5.98698648e-01  7.75287224e-10  1.54815813e+00  7.75287224e-10  1.80000000e+00  7.75287224e-10 -8.33745185e-03  7.75287224e-10  5.00000000e-01                                 
 9.68803262e-10  6.55579882e-01  9.68803262e-10  5.96817769e-01  9.68803262e-10  1.71122834e+00  9.68803262e-10  1.80000000e+00  9.68803262e-10  7.79056103e-03  9.68803262e-10  5.00000000e-01                                 
 1.35583534e-09  6.51623299e-01  1.35583534e-09  5.93319029e-01  1.35583534e-09  1.89377705e+00  1.35583534e-09  1.80000000e+00  1.35583534e-09 -7.34080664e-03  1.35583534e-09  5.00000000e-01                                 
 1.62581608e-09  6.49098324e-01  1.62581608e-09  5.91068300e-01  1.62581608e-09  1.94561140e+00  1.62581608e-09  1.80000000e+00  1.62581608e-09  7.02125992e-03  1.62581608e-09  5.00000000e-01                                 
 1.93569324e-09  6.46401500e-01  1.93569324e-09  5.88649588e-01  1.93569324e-09  1.97120890e+00  1.93569324e-09  1.80000000e+00  1.93569324e-09 -6.58609504e-03  1.93569324e-09  5.00000000e-01                                 
 2.26116068e-09  6.43772668e-01  2.26116068e-09  5.86277394e-01  2.26116068e-09  1.98063671e+00  2.26116068e-09  1.80000000e+00  2.26116068e-09  6.33746803e-03  2.26116068e-09  5.00000000e-01                                 
 2.77256094e-09  6.39998296e-01  2.77256094e-09  5.82847479e-01  2.77256094e-09  1.98291535e+00  2.77256094e-09  1.80000000e+00  2.77256094e-09 -6.08780221e-03  2.77256094e-09  5.00000000e-01                                 
 3.38712252e-09  6.35947308e-01  3.38712252e-09  5.79135048e-01  3.38712252e-09  1.98011495e+00  3.38712252e-09  1.80000000e+00  3.38712252e-09  5.98124668e-03  3.38712252e-09  5.00000000e-01                                 
 4.45198318e-09  6.29885546e-01  4.45198318e-09  5.73524404e-01  4.45198318e-09  1.97423548e+00  4.45198318e-09  1.80000000e+00  4.45198318e-09 -5.85041747e-03  4.45198318e-09  5.00000000e-01                                 
 6.05657068e-09  6.22419984e-01  6.05657068e-09  5.66527924e-01  6.05657068e-09  1.96698710e+00  6.05657068e-09  1.80000000e+00  6.05657068e-09  5.83630427e-03  6.05657068e-09  5.00000000e-01                                 
 9.26574567e-09  6.11139686e-01  9.26574567e-09  5.55803249e-01  9.26574567e-09  1.95610211e+00  9.26574567e-09  1.80000000e+00  9.26574567e-09 -5.76128241e-03  9.26574567e-09  5.00000000e-01                                 
 1.05251587e-08  6.07688103e-01  1.05251587e-08  5.52481165e-01  1.05251587e-08  1.95283426e+00  1.05251587e-08  1.80000000e+00  1.05251587e-08  5.72735263e-03  1.05251587e-08  5.00000000e-01                                 
 1.16653546e-08  6.04862966e-01  1.16653546e-08  5.49751700e-01  1.16653546e-08  1.95009488e+00  1.16653546e-08  1.80000000e+00  1.16653546e-08 -5.61501694e-03  1.16653546e-08  5.00000000e-01                                 
 1.29384601e-08  6.01984251e-01  1.29384601e-08  5.46961812e-01  1.29384601e-08  1.94740070e+00  1.29384601e-08  1.80000000e+00  1.29384601e-08  5.57718943e-03  1.29384601e-08  5.00000000e-01                                 
 1.50170441e-08  5.97785818e-01  1.50170441e-08  5.42878581e-01  1.50170441e-08  1.94336148e+00  1.50170441e-08  1.80000000e+00  1.50170441e-08 -5.50551345e-03  1.50170441e-08  5.00000000e-01                                 
 1.75472775e-08  5.93341975e-01  1.75472775e-08  5.38539452e-01  1.75472775e-08  1.93919311e+00  1.75472775e-08  1.80000000e+00  1.75472775e-08  5.49974912e-03  1.75472775e-08  5.00000000e-01                                 
 2.07453629e-08  5.88510956e-01  2.07453629e-08  5.33804209e-01  2.07453629e-08  1.93456844e+00  2.07453629e-08  1.80000000e+00  2.07453629e-08 -5.44475556e-03  2.07453629e-08  5.00000000e-01                                 
 2.51071051e-08  5.82947816e-01  2.51071051e-08  5.28330931e-01  2.51071051e-08  1.92935215e+00  2.51071051e-08  1.80000000e+00  2.51071051e-08  5.45306239e-03  2.51071051e-08  5.00000000e-01                                 
 3.15099057e-08  5.76261796e-01  3.15099057e-08  5.21727528e-01  3.15099057e-08  1.92299335e+00  3.15099057e-08  1.80000000e+00  3.15099057e-08 -5.41163508e-03  3.15099057e-08  5.00000000e-01                                 
 4.43155069e-08  5.66105402e-01  4.43155069e-08  5.11646101e-01  4.43155069e-08  1.91359442e+00  4.43155069e-08  1.80000000e+00  4.43155069e-08  5.43330824e-03  4.43155069e-08  5.00000000e-01                                 
 6.99267094e-08  5.52705707e-01  6.99267094e-08  4.98201110e-01  6.99267094e-08  1.90214682e+00  6.99267094e-08  1.80000000e+00  6.99267094e-08 -5.40143011e-03  6.99267094e-08  5.00000000e-01                                 
 9.69132930e-08  5.43770155e-01  9.69132930e-08  4.89099759e-01  9.69132930e-08  1.89594198e+00  9.69132930e-08  1.80000000e+00  9.69132930e-08  5.42707836e-03  9.69132930e-08  5.00000000e-01                                 
 1.23494048e-07  5.37127356e-01  1.23494048e-07  4.82331808e-01  1.23494048e-07  1.89148909e+00  1.23494048e-07  1.80000000e+00  1.23494048e-07 -5.39505870e-03  1.23494048e-07  5.00000000e-01                                 
 1.50460978e-07  5.31430391e-01  1.50460978e-07  4.76587187e-01  1.50460978e-07  1.88181650e+00  1.50460978e-07  1.80000000e+00  1.50460978e-07  5.42079894e-03  1.50460978e-07  5.00000000e-01                                 
 1.75959074e-07  5.25142799e-01  1.75959074e-07  4.70629510e-01  1.75959074e-07  1.86370237e+00  1.75959074e-07  1.80000000e+00  1.75959074e-07 -5.38871884e-03  1.75959074e-07  5.00000000e-01                                 
 2.02222554e-07  5.13815615e-01  2.02222554e-07  4.60799753e-01  2.02222554e-07  1.83330191e+00  2.02222554e-07  1.80000000e+00  2.02222554e-07  5.41410750e-03  2.02222554e-07  5.00000000e-01                                 
 2.26448172e-07  5.04645093e-01  2.26448172e-07  4.52849973e-01  2.26448172e-07  1.78834105e+00  2.26448172e-07  1.80000000e+00  2.26448172e-07 -5.38209385e-03  2.26448172e-07  5.00000000e-01                                 
 2.52218313e-07  4.97089390e-01  2.52218313e-07  4.46228187e-01  2.52218313e-07  1.74775366e+00  2.52218313e-07  1.80000000e+00  2.52218313e-07  5.40754010e-03  2.52218313e-07  5.00000000e-01                                 
 2.76645950e-07  5.01146855e-01  2.76645950e-07  4.48881811e-01  2.76645950e-07  1.74346275e+00  2.76645950e-07  1.80000000e+00  2.76645950e-07 -5.37502538e-03  2.76645950e-07  5.00000000e-01                                 
 2.96810655e-07  5.04222576e-01  2.96810655e-07  4.50871205e-01  2.96810655e-07  1.72952392e+00  2.96810655e-07  1.80000000e+00  2.96810655e-07  5.39991421e-03  2.96810655e-07  5.00000000e-01                                 
 3.20211391e-07  5.00907310e-01  3.20211391e-07  4.47759281e-01  3.20211391e-07  1.70140667e+00  3.20211391e-07  1.80000000e+00  3.20211391e-07 -5.36765692e-03  3.20211391e-07  5.00000000e-01                                 
 3.40298744e-07  4.99391689e-01  3.40298744e-07  4.46168960e-01  3.40298744e-07  1.68052716e+00  3.40298744e-07  1.80000000e+00  3.40298744e-07  5.39223552e-03  3.40298744e-07  5.00000000e-01                                 
 3.61066635e-07  4.95888780e-01  3.61066635e-07  4.43015461e-01  3.61066635e-07  1.65655180e+00  3.61066635e-07  1.80000000e+00  3.61066635e-07 -5.35965426e-03  3.61066635e-07  5.00000000e-01                                 
 4.00440755e-07  4.86693721e-01  4.00440755e-07  4.35080733e-01  4.00440755e-07  1.60814445e+00  4.00440755e-07  1.80000000e+00  4.00440755e-07  5.38602864e-03  4.00440755e-07  5.00000000e-01                                 
 4.50434305e-07  4.75248638e-01  4.50434305e-07  4.25306804e-01  4.50434305e-07  1.54605104e+00  4.50434305e-07  1.80000000e+00  4.50434305e-07 -5.35586935e-03  4.50434305e-07  5.00000000e-01                                 
 5.26595216e-07  4.57336499e-01  5.26595216e-07  4.10254580e-01  5.26595216e-07  1.45046103e+00  5.26595216e-07  1.80000000e+00  5.26595216e-07  5.38326838e-03  5.26595216e-07  5.00000000e-01                                 
 5.45635443e-07  4.51788456e-01  5.45635443e-07  4.05687157e-01  5.45635443e-07  1.42519939e+00  5.45635443e-07  1.80000000e+00  5.45635443e-07  3.41040049e-06  5.45635443e-07  5.00000000e-01                                 
 5.83715898e-07  4.40974734e-01  5.83715898e-07  3.96800085e-01  5.83715898e-07  1.37492387e+00  5.83715898e-07  1.80000000e+00  5.83715898e-07  1.17314871e-06  5.83715898e-07  5.00000000e-01                                 
 6.59876809e-07  4.15905663e-01  6.59876809e-07  3.76419871e-01  6.59876809e-07  1.27080839e+00  6.59876809e-07  1.80000000e+00  6.59876809e-07  3.37163715e-06  6.59876809e-07  5.00000000e-01                                 
 7.65782688e-07  3.81955046e-01  7.65782688e-07  3.49064871e-01  7.65782688e-07  1.12688722e+00  7.65782688e-07  1.80000000e+00  7.65782688e-07  1.18869811e-06  7.65782688e-07  5.00000000e-01                                 
 7.83157711e-07  3.84168069e-01  7.83157711e-07  3.50846288e-01  7.83157711e-07  1.11091587e+00  7.83157711e-07  1.80000000e+00  7.83157711e-07  2.48753065e-06  7.83157711e-07  5.00000000e-01                                 
 8.17907756e-07  4.32345506e-01  8.17907756e-07  3.89471021e-01  8.17907756e-07  1.12089133e+00  8.17907756e-07  1.80000000e+00  8.17907756e-07  3.66596662e-06  8.17907756e-07  5.00000000e-01                                 
 8.22581272e-07  4.48203390e-01  8.22581272e-07  4.02158300e-01  8.22581272e-07  1.13120505e+00  8.22581272e-07  1.80000000e+00  8.22581272e-07  4.04576108e-06  8.22581272e-07  5.00000000e-01                                 
 8.31928306e-07  4.88628296e-01  8.31928306e-07  4.34463440e-01  8.31928306e-07  1.16013885e+00  8.31928306e-07  1.80000000e+00  8.31928306e-07  5.02338457e-06  8.31928306e-07  5.00000000e-01                                 
 8.50622373e-07  6.20074485e-01  8.50622373e-07  5.48789188e-01  8.50622373e-07  1.26632800e+00  8.50622373e-07  1.80000000e+00  8.50622373e-07  7.63539182e-06  8.50622373e-07  5.00000000e-01                                 
 8.66744281e-07  6.81339948e-01  8.66744281e-07  6.17724301e-01  8.66744281e-07  1.31011848e+00  8.66744281e-07  1.80000000e+00  8.66744281e-07  3.08192090e-06  8.66744281e-07  5.00000000e-01                                 
 8.82736846e-07  7.10761424e-01  8.82736846e-07  6.48033660e-01  8.82736846e-07  1.32022054e+00  8.82736846e-07  1.80000000e+00  8.82736846e-07  4.60224090e-06  8.82736846e-07  5.00000000e-01                                 
 9.06000574e-07  7.47479967e-01  9.06000574e-07  6.80669281e-01  9.06000574e-07  1.33180451e+00  9.06000574e-07  1.80000000e+00  9.06000574e-07  2.66968040e-06  9.06000574e-07  5.00000000e-01                                 
 9.27733328e-07  7.59862464e-01  9.27733328e-07  6.91263433e-01  9.27733328e-07  1.31999229e+00  9.27733328e-07  1.80000000e+00  9.27733328e-07  3.12144917e-06  9.27733328e-07  5.00000000e-01                                 
 9.61966466e-07  7.61993256e-01  9.61966466e-07  6.92854028e-01  9.61966466e-07  1.28682938e+00  9.61966466e-07  1.80000000e+00  9.61966466e-07  1.85356595e-06  9.61966466e-07  5.00000000e-01                                 
 1.00033597e-06  7.61785583e-01  1.00033597e-06  6.92824725e-01  1.00033597e-06  1.24523742e+00  1.00033597e-06  1.80000000e+00  1.00033597e-06  2.99069722e-06  1.00033597e-06  5.00000000e-01                                 
 1.04444531e-06  7.61873071e-01  1.04444531e-06  6.92763098e-01  1.04444531e-06  1.19957805e+00  1.04444531e-06  1.80000000e+00  1.04444531e-06  1.88707951e-06  1.04444531e-06  5.00000000e-01                                 
 1.09502536e-06  7.49234810e-01  1.09502536e-06  6.82454577e-01  1.09502536e-06  1.13362351e+00  1.09502536e-06  1.80000000e+00  1.09502536e-06  2.60169947e-06  1.09502536e-06  5.00000000e-01                                 
 1.15666071e-06  7.21449487e-01  1.15666071e-06  6.57618442e-01  1.15666071e-06  1.04536351e+00  1.15666071e-06  1.80000000e+00  1.15666071e-06  1.58596165e-06  1.15666071e-06  5.00000000e-01                                 
 1.22434634e-06  7.33883397e-01  1.22434634e-06  6.69073394e-01  1.22434634e-06  9.93883517e-01  1.22434634e-06  1.80000000e+00  1.22434634e-06  3.52992707e-06  1.22434634e-06  5.00000000e-01                                 
 1.29031334e-06  7.61806798e-01  1.29031334e-06  6.92699614e-01  1.29031334e-06  9.66357673e-01  1.29031334e-06  1.80000000e+00  1.29031334e-06  1.99883429e-06  1.29031334e-06  5.00000000e-01                                 
 1.34626375e-06  7.39762178e-01  1.34626375e-06  6.74340673e-01  1.34626375e-06  9.06796111e-01  1.34626375e-06  1.80000000e+00  1.34626375e-06  2.28506569e-06  1.34626375e-06  5.00000000e-01                                 
 1.35343949e-06  7.34084481e-01  1.35343949e-06  6.69233170e-01  1.35343949e-06  8.97589365e-01  1.35343949e-06  1.80000000e+00  1.35343949e-06  1.84705855e-06  1.35343949e-06  5.00000000e-01                                 
 1.36779097e-06  7.25582143e-01  1.36779097e-06  6.61545617e-01  1.36779097e-06  8.81109868e-01  1.36779097e-06  1.80000000e+00  1.36779097e-06  2.09163054e-06  1.36779097e-06  5.00000000e-01                                 
 1.39649392e-06  7.26721407e-01  1.39649392e-06  6.62548421e-01  1.39649392e-06  8.64332248e-01  1.39649392e-06  1.80000000e+00  1.39649392e-06  2.78991086e-06  1.39649392e-06  5.00000000e-01                                 
 1.44347824e-06  7.43195727e-01  1.44347824e-06  6.77150195e-01  1.44347824e-06  8.50105471e-01  1.44347824e-06  1.80000000e+00  1.44347824e-06  2.60962963e-06  1.44347824e-06  5.00000000e-01                                 
 1.49655022e-06  7.48132895e-01  1.49655022e-06  6.81416766e-01  1.49655022e-06  8.22451688e-01  1.49655022e-06  1.80000000e+00  1.49655022e-06  2.40728962e-06  1.49655022e-06  5.00000000e-01                                 
 1.56492977e-06  7.39778070e-01  1.56492977e-06  6.74202258e-01  1.56492977e-06  7.75441241e-01  1.56492977e-06  1.80000000e+00  1.56492977e-06  2.27336946e-06  1.56492977e-06  5.00000000e-01                                 
 1.66906951e-06  7.38702219e-01  1.66906951e-06  6.73254264e-01  1.66906951e-06  7.16463636e-01  1.66906951e-06  1.80000000e+00  1.66906951e-06  2.57111814e-06  1.66906951e-06  5.00000000e-01                                 
 1.76350208e-06  7.46241124e-01  1.76350208e-06  6.79786490e-01  1.76350208e-06  6.72428833e-01  1.76350208e-06  1.80000000e+00  1.76350208e-06  2.41621946e-06  1.76350208e-06  5.00000000e-01                                 
 1.91489925e-06  7.37858445e-01  1.91489925e-06  6.72528373e-01  1.91489925e-06  5.88198296e-01  1.91489925e-06  1.80000000e+00  1.91489925e-06  2.36555048e-06  1.91489925e-06  5.00000000e-01                                 
 2.07071040e-06  7.43040292e-01  2.07071040e-06  6.77021419e-01  2.07071040e-06  5.33243386e-01  2.07071040e-06  1.80000000e+00  2.07071040e-06  2.54849781e-06  2.07071040e-06  5.00000000e-01                                 
 2.25135349e-06  7.42048413e-01  2.25135349e-06  6.76192396e-01  2.25135349e-06  4.97926638e-01  2.25135349e-06  1.80000000e+00  2.25135349e-06  2.31228958e-06  2.25135349e-06  5.00000000e-01                                 
 2.28501039e-06  7.40534332e-01  2.28501039e-06  6.74861797e-01  2.28501039e-06  4.94170540e-01  2.28501039e-06  1.80000000e+00  2.28501039e-06  2.39534432e-06  2.28501039e-06  5.00000000e-01                                 
 2.35232420e-06  7.40972638e-01  2.35232420e-06  6.75238006e-01  2.35232420e-06  4.90545868e-01  2.35232420e-06  1.80000000e+00  2.35232420e-06  2.47670932e-06  2.35232420e-06  5.00000000e-01                                 
 2.48695181e-06  7.42722988e-01  2.48695181e-06  6.76763438e-01  2.48695181e-06  4.91337210e-01  2.48695181e-06  1.80000000e+00  2.48695181e-06  2.40928668e-06  2.48695181e-06  5.00000000e-01                                 
 2.61977029e-06  7.40659438e-01  2.61977029e-06  6.74968185e-01  2.61977029e-06  4.99487263e-01  2.61977029e-06  1.80000000e+00  2.61977029e-06  2.43173298e-06  2.61977029e-06  5.00000000e-01                                 
 2.80555791e-06  7.42282092e-01  2.80555791e-06  6.76378669e-01  2.80555791e-06  5.02365099e-01  2.80555791e-06  1.80000000e+00  2.80555791e-06  2.44307487e-06  2.80555791e-06  5.00000000e-01                                 
 2.82945693e-06  7.42216678e-01  2.82945693e-06  6.76322878e-01  2.82945693e-06  5.01166643e-01  2.82945693e-06  1.80000000e+00  2.82945693e-06  2.43207686e-06  2.82945693e-06  5.00000000e-01                                 
 2.87725497e-06  7.41697263e-01  2.87725497e-06  6.75872715e-01  2.87725497e-06  4.99656313e-01  2.87725497e-06  1.80000000e+00  2.87725497e-06  2.41809435e-06  2.87725497e-06  5.00000000e-01                                 
