 time            v(vbep)         time            v(vben)         time            v(vout)         time            v(vphi1)        time            v(vphi2)        time            v(vref)         yes             currtemp       
 0.00000000e+00  7.00822354e-01  0.00000000e+00  6.47760764e-01  0.00000000e+00  3.11342781e-01  0.00000000e+00  0.00000000e+00  0.00000000e+00  1.79995685e+00  0.00000000e+00  6.47760764e-01  1.00000000e+00  1.70000000e+01 
 5.00000000e-12  7.00799732e-01  5.00000000e-12  6.47741962e-01  5.00000000e-12  3.11844452e-01  5.00000000e-12  1.80000000e-02  5.00000000e-12  1.80006043e+00  5.00000000e-12  6.47741962e-01                                 
 1.00000000e-11  7.00777588e-01  1.00000000e-11  6.47723603e-01  1.00000000e-11  3.12254501e-01  1.00000000e-11  3.60000000e-02  1.00000000e-11  1.80011889e+00  1.00000000e-11  6.47723603e-01                                 
 2.00000000e-11  7.00733567e-01  2.00000000e-11  6.47687010e-01  2.00000000e-11  3.12937621e-01  2.00000000e-11  7.20000000e-02  2.00000000e-11  1.80017983e+00  2.00000000e-11  6.47687010e-01                                 
 4.00000000e-11  7.00645995e-01  4.00000000e-11  6.47614066e-01  4.00000000e-11  3.13761952e-01  4.00000000e-11  1.44000000e-01  4.00000000e-11  1.80016063e+00  4.00000000e-11  6.47614066e-01                                 
 8.00000000e-11  7.00471577e-01  8.00000000e-11  6.47468719e-01  8.00000000e-11  3.14523698e-01  8.00000000e-11  2.88000000e-01  8.00000000e-11  1.80009226e+00  8.00000000e-11  6.47468719e-01                                 
 1.60000000e-10  7.00125854e-01  1.60000000e-10  6.47180195e-01  1.60000000e-10  3.15291472e-01  1.60000000e-10  5.76000000e-01  1.60000000e-10  1.80005024e+00  1.60000000e-10  6.47180195e-01                                 
 3.20000000e-10  6.99446236e-01  3.20000000e-10  6.46611557e-01  3.20000000e-10  3.12952286e-01  3.20000000e-10  1.15200000e+00  3.20000000e-10  1.80014400e+00  3.20000000e-10  6.46611557e-01                                 
 5.00000000e-10  6.98699954e-01  5.00000000e-10  6.45984842e-01  5.00000000e-10  5.29173161e-01  5.00000000e-10  1.80000000e+00  5.00000000e-10  1.46077533e-01  5.00000000e-10  6.45984842e-01                                 
 5.21229496e-10  6.98613318e-01  5.21229496e-10  6.45911919e-01  5.21229496e-10  5.79250900e-01  5.21229496e-10  1.80000000e+00  5.21229496e-10  3.23365886e-02  5.21229496e-10  6.45911919e-01                                 
 5.63688487e-10  6.98440551e-01  5.63688487e-10  6.45766427e-01  5.63688487e-10  6.71735776e-01  5.63688487e-10  1.80000000e+00  5.63688487e-10 -1.31242649e-02  5.63688487e-10  6.45766427e-01                                 
 6.48606469e-10  6.98098057e-01  6.48606469e-10  6.45477634e-01  6.48606469e-10  8.20464491e-01  6.48606469e-10  1.80000000e+00  6.48606469e-10  1.17275270e-02  6.48606469e-10  6.45477634e-01                                 
 7.65783115e-10  6.97631959e-01  7.65783115e-10  6.45083827e-01  7.65783115e-10  9.81694626e-01  7.65783115e-10  1.80000000e+00  7.65783115e-10 -8.92133269e-03  7.65783115e-10  6.45083827e-01                                 
 9.49643763e-10  6.96915248e-01  9.49643763e-10  6.44476524e-01  9.49643763e-10  1.18769443e+00  9.49643763e-10  1.80000000e+00  9.49643763e-10  9.21528236e-03  9.49643763e-10  6.44476524e-01                                 
 1.26777681e-09  6.95715103e-01  1.26777681e-09  6.43454910e-01  1.26777681e-09  1.45830095e+00  1.26777681e-09  1.80000000e+00  1.26777681e-09 -7.78003937e-03  1.26777681e-09  6.43454910e-01                                 
 1.84305720e-09  6.93662238e-01  1.84305720e-09  6.41694285e-01  1.84305720e-09  1.72006523e+00  1.84305720e-09  1.80000000e+00  1.84305720e-09  8.08725319e-03  1.84305720e-09  6.41694285e-01                                 
 2.20606974e-09  6.92438823e-01  2.20606974e-09  6.40637018e-01  2.20606974e-09  1.77625059e+00  2.20606974e-09  1.80000000e+00  2.20606974e-09 -7.46671738e-03  2.20606974e-09  6.40637018e-01                                 
 2.55775433e-09  6.91301180e-01  2.55775433e-09  6.39648760e-01  2.55775433e-09  1.79903182e+00  2.55775433e-09  1.80000000e+00  2.55775433e-09  7.21078619e-03  2.55775433e-09  6.39648760e-01                                 
 2.94821737e-09  6.90088561e-01  2.94821737e-09  6.38590101e-01  2.94821737e-09  1.80844499e+00  2.94821737e-09  1.80000000e+00  2.94821737e-09 -6.81313854e-03  2.94821737e-09  6.38590101e-01                                 
 3.55400238e-09  6.88302199e-01  3.55400238e-09  6.37021049e-01  3.55400238e-09  1.81231611e+00  3.55400238e-09  1.80000000e+00  3.55400238e-09  6.65751925e-03  3.55400238e-09  6.37021049e-01                                 
 4.33155829e-09  6.86160007e-01  4.33155829e-09  6.35125039e-01  4.33155829e-09  1.81081250e+00  4.33155829e-09  1.80000000e+00  4.33155829e-09 -6.47121959e-03  4.33155829e-09  6.35125039e-01                                 
 5.62858313e-09  6.82902281e-01  5.62858313e-09  6.32213862e-01  5.62858313e-09  1.80759915e+00  5.62858313e-09  1.80000000e+00  5.62858313e-09  6.41014667e-03  5.62858313e-09  6.32213862e-01                                 
 7.67336949e-09  6.78399989e-01  7.67336949e-09  6.28140313e-01  7.67336949e-09  1.80221638e+00  7.67336949e-09  1.80000000e+00  7.67336949e-09 -6.32658762e-03  7.67336949e-09  6.28140313e-01                                 
 1.17629422e-08  6.70977824e-01  1.17629422e-08  6.21323270e-01  1.17629422e-08  1.79294945e+00  1.17629422e-08  1.80000000e+00  1.17629422e-08  6.32864676e-03  1.17629422e-08  6.21323270e-01                                 
 1.45353490e-08  6.66817060e-01  1.45353490e-08  6.17452883e-01  1.45353490e-08  1.78654735e+00  1.45353490e-08  1.80000000e+00  1.45353490e-08 -6.25987611e-03  1.45353490e-08  6.17452883e-01                                 
 1.61751447e-08  6.64582469e-01  1.61751447e-08  6.15365067e-01  1.61751447e-08  1.78360506e+00  1.61751447e-08  1.80000000e+00  1.61751447e-08  6.21569620e-03  1.61751447e-08  6.15365067e-01                                 
 1.77672972e-08  6.62540125e-01  1.77672972e-08  6.13453109e-01  1.77672972e-08  1.78014471e+00  1.77672972e-08  1.80000000e+00  1.77672972e-08 -6.12114917e-03  1.77672972e-08  6.13453109e-01                                 
 1.95542267e-08  6.60375318e-01  1.95542267e-08  6.11423715e-01  1.95542267e-08  1.77693749e+00  1.95542267e-08  1.80000000e+00  1.95542267e-08  6.08233765e-03  1.95542267e-08  6.11423715e-01                                 
 2.24223536e-08  6.57134682e-01  2.24223536e-08  6.08382818e-01  2.24223536e-08  1.77099452e+00  2.24223536e-08  1.80000000e+00  2.24223536e-08 -6.02128808e-03  2.24223536e-08  6.08382818e-01                                 
 2.51885435e-08  6.54239395e-01  2.51885435e-08  6.05664989e-01  2.51885435e-08  1.76560141e+00  2.51885435e-08  1.80000000e+00  2.51885435e-08  6.00431618e-03  2.51885435e-08  6.05664989e-01                                 
 3.00797544e-08  6.49550491e-01  3.00797544e-08  6.01266470e-01  3.00797544e-08  1.75484902e+00  3.00797544e-08  1.80000000e+00  3.00797544e-08 -5.95994848e-03  3.00797544e-08  6.01266470e-01                                 
 3.51061710e-08  6.45201425e-01  3.51061710e-08  5.97193166e-01  3.51061710e-08  1.74404893e+00  3.51061710e-08  1.80000000e+00  3.51061710e-08  5.96077238e-03  3.51061710e-08  5.97193166e-01                                 
 4.51590042e-08  6.37634607e-01  4.51590042e-08  5.90114587e-01  4.51590042e-08  1.72206597e+00  4.51590042e-08  1.80000000e+00  4.51590042e-08 -5.92760556e-03  4.51590042e-08  5.90114587e-01                                 
 6.08189139e-08  6.28147584e-01  6.08189139e-08  5.81239314e-01  6.08189139e-08  1.69028468e+00  6.08189139e-08  1.80000000e+00  6.08189139e-08  5.94373827e-03  6.08189139e-08  5.81239314e-01                                 
 7.93932066e-08  6.22245360e-01  7.93932066e-08  5.75282131e-01  7.93932066e-08  1.66395688e+00  7.93932066e-08  1.80000000e+00  7.93932066e-08 -5.91402661e-03  7.93932066e-08  5.75282131e-01                                 
 1.10347142e-07  6.22987367e-01  1.10347142e-07  5.74188532e-01  1.10347142e-07  1.65889860e+00  1.10347142e-07  1.80000000e+00  1.10347142e-07  5.93657129e-03  1.10347142e-07  5.74188532e-01                                 
 1.30258951e-07  6.20826458e-01  1.30258951e-07  5.71623693e-01  1.30258951e-07  1.63766305e+00  1.30258951e-07  1.80000000e+00  1.30258951e-07 -5.90657424e-03  1.30258951e-07  5.71623693e-01                                 
 1.49071936e-07  6.15642568e-01  1.49071936e-07  5.66819170e-01  1.49071936e-07  1.61388411e+00  1.49071936e-07  1.80000000e+00  1.49071936e-07  5.92510863e-03  1.49071936e-07  5.66819170e-01                                 
 1.67233082e-07  6.10883053e-01  1.67233082e-07  5.62441942e-01  1.67233082e-07  1.58870964e+00  1.67233082e-07  1.80000000e+00  1.67233082e-07 -5.89529128e-03  1.67233082e-07  5.62441942e-01                                 
 1.87070685e-07  6.04708898e-01  1.87070685e-07  5.56952976e-01  1.87070685e-07  1.56521956e+00  1.87070685e-07  1.80000000e+00  1.87070685e-07  5.91407887e-03  1.87070685e-07  5.56952976e-01                                 
 2.21809663e-07  5.94408002e-01  2.21809663e-07  5.47882050e-01  2.21809663e-07  1.51893594e+00  2.21809663e-07  1.80000000e+00  2.21809663e-07 -5.88695396e-03  2.21809663e-07  5.47882050e-01                                 
 2.67614709e-07  5.81550538e-01  2.67614709e-07  5.36721010e-01  2.67614709e-07  1.46276760e+00  2.67614709e-07  1.80000000e+00  2.67614709e-07  5.90890321e-03  2.67614709e-07  5.36721010e-01                                 
 3.59224802e-07  5.54946145e-01  3.59224802e-07  5.14269146e-01  3.59224802e-07  1.34262712e+00  3.59224802e-07  1.80000000e+00  3.59224802e-07 -5.88355656e-03  3.59224802e-07  5.14269146e-01                                 
 5.38928558e-07  4.89984986e-01  5.38928558e-07  4.61460357e-01  5.38928558e-07  1.09859281e+00  5.38928558e-07  1.80000000e+00  5.38928558e-07  5.90703602e-03  5.38928558e-07  4.61460357e-01                                 
 5.74081886e-07  4.96754138e-01  5.74081886e-07  4.66861560e-01  5.74081886e-07  1.06657246e+00  5.74081886e-07  1.80000000e+00  5.74081886e-07  7.00350045e-07  5.74081886e-07  4.66861560e-01                                 
 5.82870218e-07  5.02014650e-01  5.82870218e-07  4.71066191e-01  5.82870218e-07  1.06238266e+00  5.82870218e-07  1.80000000e+00  5.82870218e-07  1.03138196e-06  5.82870218e-07  4.71066191e-01                                 
 6.00446883e-07  5.27948318e-01  6.00446883e-07  4.91783242e-01  6.00446883e-07  1.06902886e+00  6.00446883e-07  1.80000000e+00  6.00446883e-07  3.01089549e-06  6.00446883e-07  4.91783242e-01                                 
 6.35600211e-07  7.18795766e-01  6.35600211e-07  6.61190346e-01  6.35600211e-07  1.21713558e+00  6.35600211e-07  1.80000000e+00  6.35600211e-07  1.37375480e-05  6.35600211e-07  6.61190346e-01                                 
 6.75478071e-07  7.87570043e-01  6.75478071e-07  7.31495599e-01  6.75478071e-07  1.24650772e+00  6.75478071e-07  1.80000000e+00  6.75478071e-07 -7.40615312e-06  6.75478071e-07  7.31495599e-01                                 
 7.19098487e-07  8.10411759e-01  7.19098487e-07  7.51779145e-01  7.19098487e-07  1.21913658e+00  7.19098487e-07  1.80000000e+00  7.19098487e-07  8.66357304e-06  7.19098487e-07  7.51779145e-01                                 
 7.79405560e-07  8.13820361e-01  7.79405560e-07  7.54735849e-01  7.79405560e-07  1.16506742e+00  7.79405560e-07  1.80000000e+00  7.79405560e-07 -8.92305893e-06  7.79405560e-07  7.54735849e-01                                 
 7.86200443e-07  8.13368286e-01  7.86200443e-07  7.54335147e-01  7.86200443e-07  1.15546810e+00  7.86200443e-07  1.80000000e+00  7.86200443e-07 -6.61818458e-07  7.86200443e-07  7.54335147e-01                                 
 7.99790207e-07  8.13561841e-01  7.99790207e-07  7.54485229e-01  7.99790207e-07  1.14096538e+00  7.99790207e-07  1.80000000e+00  7.99790207e-07  7.07686939e-08  7.99790207e-07  7.54485229e-01                                 
 8.26969736e-07  8.14611174e-01  8.26969736e-07  7.55378652e-01  8.26969736e-07  1.11413944e+00  8.26969736e-07  1.80000000e+00  8.26969736e-07 -4.93019998e-07  8.26969736e-07  7.55378652e-01                                 
 8.81150753e-07  8.09670827e-01  8.81150753e-07  7.51190354e-01  8.81150753e-07  1.05250589e+00  8.81150753e-07  1.80000000e+00  8.81150753e-07 -4.32017331e-07  8.81150753e-07  7.51190354e-01                                 
 9.42102853e-07  7.89832345e-01  9.42102853e-07  7.33605551e-01  9.42102853e-07  9.73547938e-01  9.42102853e-07  1.80000000e+00  9.42102853e-07 -1.27742824e-06  9.42102853e-07  7.33605551e-01                                 
 1.00624020e-06  7.90371238e-01  1.00624020e-06  7.34033971e-01  1.00624020e-06  9.20202718e-01  1.00624020e-06  1.80000000e+00  1.00624020e-06  9.86772290e-07  1.00624020e-06  7.34033971e-01                                 
 1.07629161e-06  8.11355241e-01  1.07629161e-06  7.52613127e-01  1.07629161e-06  8.87905959e-01  1.07629161e-06  1.80000000e+00  1.07629161e-06 -8.64747808e-08  1.07629161e-06  7.52613127e-01                                 
 1.14807156e-06  7.97631810e-01  1.14807156e-06  7.40663944e-01  1.14807156e-06  8.30072777e-01  1.14807156e-06  1.80000000e+00  1.14807156e-06 -6.77059901e-07  1.14807156e-06  7.40663944e-01                                 
 1.21865163e-06  7.89413410e-01  1.21865163e-06  7.33167189e-01  1.21865163e-06  7.87403984e-01  1.21865163e-06  1.80000000e+00  1.21865163e-06  3.17053418e-07  1.21865163e-06  7.33167189e-01                                 
 1.30154528e-06  8.06418409e-01  1.30154528e-06  7.48372625e-01  1.30154528e-06  7.75236378e-01  1.30154528e-06  1.80000000e+00  1.30154528e-06  6.04129217e-07  1.30154528e-06  7.48372625e-01                                 
 1.38975778e-06  7.99602377e-01  1.38975778e-06  7.42400559e-01  1.38975778e-06  7.51789151e-01  1.38975778e-06  1.80000000e+00  1.38975778e-06 -5.77287232e-07  1.38975778e-06  7.42400559e-01                                 
 1.47987738e-06  7.94097155e-01  1.47987738e-06  7.37445433e-01  1.47987738e-06  7.36100093e-01  1.47987738e-06  1.80000000e+00  1.47987738e-06  7.11335230e-07  1.47987738e-06  7.37445433e-01                                 
 1.49615791e-06  7.96746078e-01  1.49615791e-06  7.39828618e-01  1.49615791e-06  7.37375251e-01  1.49615791e-06  1.80000000e+00  1.49615791e-06  4.77554281e-07  1.49615791e-06  7.39828618e-01                                 
 1.52871895e-06  8.01664232e-01  1.52871895e-06  7.44205790e-01  1.52871895e-06  7.39572516e-01  1.52871895e-06  1.80000000e+00  1.52871895e-06  4.33913575e-07  1.52871895e-06  7.44205790e-01                                 
 1.59384105e-06  8.02506891e-01  1.59384105e-06  7.44962961e-01  1.59384105e-06  7.37789991e-01  1.59384105e-06  1.80000000e+00  1.59384105e-06  1.70736874e-08  1.59384105e-06  7.44962961e-01                                 
 1.60564487e-06  8.00947441e-01  1.60564487e-06  7.43588074e-01  1.60564487e-06  7.37035953e-01  1.60564487e-06  1.80000000e+00  1.60564487e-06  8.31908660e-09  1.60564487e-06  7.43588074e-01                                 
 1.62925252e-06  7.98229884e-01  1.62925252e-06  7.41170926e-01  1.62925252e-06  7.37134494e-01  1.62925252e-06  1.80000000e+00  1.62925252e-06  1.00361234e-07  1.62925252e-06  7.41170926e-01                                 
 1.67646781e-06  7.97550036e-01  1.67646781e-06  7.40554081e-01  1.67646781e-06  7.40611227e-01  1.67646781e-06  1.80000000e+00  1.67646781e-06  3.29512526e-07  1.67646781e-06  7.40554081e-01                                 
 1.75701000e-06  8.01294040e-01  1.75701000e-06  7.43885394e-01  1.75701000e-06  7.44567032e-01  1.75701000e-06  1.80000000e+00  1.75701000e-06  2.63731868e-07  1.75701000e-06  7.43885394e-01                                 
 1.83619555e-06  7.99626383e-01  1.83619555e-06  7.42413167e-01  1.83619555e-06  7.42382284e-01  1.83619555e-06  1.80000000e+00  1.83619555e-06  8.70731617e-08  1.83619555e-06  7.42413167e-01                                 
 1.98273803e-06  7.98705830e-01  1.98273803e-06  7.41586616e-01  1.98273803e-06  7.41630029e-01  1.98273803e-06  1.80000000e+00  1.98273803e-06  3.19151014e-07  1.98273803e-06  7.41586616e-01                                 
 2.19480833e-06  8.00818493e-01  2.19480833e-06  7.43468477e-01  2.19480833e-06  7.43636051e-01  2.19480833e-06  1.80000000e+00  2.19480833e-06  1.44730337e-07  2.19480833e-06  7.43468477e-01                                 
 2.51815417e-06  7.98300648e-01  2.51815417e-06  7.41227316e-01  2.51815417e-06  7.41222844e-01  2.51815417e-06  1.80000000e+00  2.51815417e-06  2.56005928e-07  2.51815417e-06  7.41227316e-01                                 
 3.03682275e-06  8.00858923e-01  3.03682275e-06  7.43502833e-01  3.03682275e-06  7.43676684e-01  3.03682275e-06  1.80000000e+00  3.03682275e-06  1.89933635e-07  3.03682275e-06  7.43502833e-01                                 
 3.70328298e-06  7.98364731e-01  3.70328298e-06  7.41285509e-01  3.70328298e-06  7.41284820e-01  3.70328298e-06  1.80000000e+00  3.70328298e-06  2.25203566e-07  3.70328298e-06  7.41285509e-01                                 
 4.70328298e-06  8.00775227e-01  4.70328298e-06  7.43428066e-01  4.70328298e-06  7.43596147e-01  4.70328298e-06  1.80000000e+00  4.70328298e-06  2.11769890e-07  4.70328298e-06  7.43428066e-01                                 
 5.70328298e-06  7.98461949e-01  5.70328298e-06  7.41373067e-01  5.70328298e-06  7.41378691e-01  5.70328298e-06  1.80000000e+00  5.70328298e-06  2.08446672e-07  5.70328298e-06  7.41373067e-01                                 
 6.70328298e-06  8.00668244e-01  6.70328298e-06  7.43333149e-01  6.70328298e-06  7.43493695e-01  6.70328298e-06  1.80000000e+00  6.70328298e-06  2.27797349e-07  6.70328298e-06  7.43333149e-01                                 
 7.70328298e-06  7.98592104e-01  7.70328298e-06  7.41489545e-01  7.70328298e-06  7.41503760e-01  7.70328298e-06  1.80000000e+00  7.70328298e-06  1.93263135e-07  7.70328298e-06  7.41489545e-01                                 
 8.70328298e-06  8.00528386e-01  8.70328298e-06  7.43208706e-01  8.70328298e-06  7.43359721e-01  8.70328298e-06  1.80000000e+00  8.70328298e-06  2.42020010e-07  8.70328298e-06  7.43208706e-01                                 
 9.70328298e-06  7.98750304e-01  9.70328298e-06  7.41630904e-01  9.70328298e-06  7.41655400e-01  9.70328298e-06  1.80000000e+00  9.70328298e-06  1.80100219e-07  9.70328298e-06  7.41630904e-01                                 
 1.00005000e-05  8.00151163e-01  1.00005000e-05  7.42873383e-01  1.00005000e-05  7.42999319e-01  1.00005000e-05  1.80000000e+00  1.00005000e-05  2.65016631e-07  1.00005000e-05  7.42873383e-01                                 
 1.00005500e-05  8.00152601e-01  1.00005500e-05  7.42874641e-01  1.00005500e-05  7.36019825e-01  1.00005500e-05  1.62000000e+00  1.00005500e-05 -1.11254416e-04  1.00005500e-05  7.42874641e-01                                 
 1.00006500e-05  8.00155501e-01  1.00006500e-05  7.42877197e-01  1.00006500e-05  7.26102694e-01  1.00006500e-05  1.26000000e+00  1.00006500e-05 -5.71025264e-05  1.00006500e-05  7.42877197e-01                                 
 1.00008500e-05  8.00161476e-01  1.00008500e-05  7.42882489e-01  1.00008500e-05  7.24581944e-01  1.00008500e-05  5.40000000e-01  1.00008500e-05 -1.49949699e-03  1.00008500e-05  7.42882489e-01                                 
 1.00010000e-05  8.00165952e-01  1.00010000e-05  7.42886481e-01  1.00010000e-05  6.66425742e-01  1.00010000e-05  0.00000000e+00  1.00010000e-05  1.49688473e+00  1.00010000e-05  7.42886481e-01                                 
