 time            v(vbep)         time            v(vben)         time            v(vout)         time            v(vphi1)        time            v(vphi2)        time            v(vref)         yes             currtemp       
 0.00000000e+00  5.68020906e-01  0.00000000e+00  5.03657151e-01  0.00000000e+00  1.54076783e-01  0.00000000e+00  0.00000000e+00  0.00000000e+00  1.79997606e+00  0.00000000e+00  5.00000000e-01  1.00000000e+00  8.00000000e+01 
 5.00000000e-12  5.68003231e-01  5.00000000e-12  5.03642465e-01  5.00000000e-12  1.54654316e-01  5.00000000e-12  1.80000000e-02  5.00000000e-12  1.80006909e+00  5.00000000e-12  5.00000000e-01                                 
 1.00000000e-11  5.67985788e-01  1.00000000e-11  5.03628080e-01  1.00000000e-11  1.55173235e-01  1.00000000e-11  3.60000000e-02  1.00000000e-11  1.80011529e+00  1.00000000e-11  5.00000000e-01                                 
 2.00000000e-11  5.67951016e-01  2.00000000e-11  5.03599389e-01  2.00000000e-11  1.56122182e-01  2.00000000e-11  7.20000000e-02  2.00000000e-11  1.80015612e+00  2.00000000e-11  5.00000000e-01                                 
 4.00000000e-11  5.67881684e-01  4.00000000e-11  5.03542150e-01  4.00000000e-11  1.57616271e-01  4.00000000e-11  1.44000000e-01  4.00000000e-11  1.80012713e+00  4.00000000e-11  5.00000000e-01                                 
 8.00000000e-11  5.67743423e-01  8.00000000e-11  5.03427960e-01  8.00000000e-11  1.59643639e-01  8.00000000e-11  2.88000000e-01  8.00000000e-11  1.80007554e+00  8.00000000e-11  5.00000000e-01                                 
 1.60000000e-10  5.67468573e-01  1.60000000e-10  5.03200725e-01  1.60000000e-10  1.62119586e-01  1.60000000e-10  5.76000000e-01  1.60000000e-10  1.80003216e+00  1.60000000e-10  5.00000000e-01                                 
 3.20000000e-10  5.66925321e-01  3.20000000e-10  5.02750723e-01  3.20000000e-10  1.85897696e-01  3.20000000e-10  1.15200000e+00  3.20000000e-10  1.80024720e+00  3.20000000e-10  5.00000000e-01                                 
 5.00000000e-10  5.66324195e-01  5.00000000e-10  5.02251428e-01  5.00000000e-10  4.75420528e-01  5.00000000e-10  1.80000000e+00  5.00000000e-10  1.36963187e-01  5.00000000e-10  5.00000000e-01                                 
 5.22642784e-10  5.66249403e-01  5.22642784e-10  5.02189197e-01  5.22642784e-10  5.37268494e-01  5.22642784e-10  1.80000000e+00  5.22642784e-10  2.89526815e-02  5.22642784e-10  5.00000000e-01                                 
 5.67928352e-10  5.66100146e-01  5.67928352e-10  5.02064961e-01  5.67928352e-10  6.51760766e-01  5.67928352e-10  1.80000000e+00  5.67928352e-10 -1.32094188e-02  5.67928352e-10  5.00000000e-01                                 
 6.58499488e-10  5.65803589e-01  6.58499488e-10  5.01817862e-01  6.58499488e-10  8.33909303e-01  6.58499488e-10  1.80000000e+00  6.58499488e-10  1.07486307e-02  6.58499488e-10  5.00000000e-01                                 
 7.81462380e-10  5.65405049e-01  7.81462380e-10  5.01485252e-01  7.81462380e-10  1.01956427e+00  7.81462380e-10  1.80000000e+00  7.81462380e-10 -9.09402983e-03  7.81462380e-10  5.00000000e-01                                 
 9.78845393e-10  5.64774789e-01  9.78845393e-10  5.00958022e-01  9.78845393e-10  1.24997612e+00  9.78845393e-10  1.80000000e+00  9.78845393e-10  8.45356304e-03  9.78845393e-10  5.00000000e-01                                 
 1.29627678e-09  5.63784721e-01  1.29627678e-09  5.00126783e-01  1.29627678e-09  1.51474533e+00  1.29627678e-09  1.80000000e+00  1.29627678e-09 -7.85645272e-03  1.29627678e-09  5.00000000e-01                                 
 1.90147052e-09  5.61971959e-01  1.90147052e-09  4.98595540e-01  1.90147052e-09  1.74843621e+00  1.90147052e-09  1.80000000e+00  1.90147052e-09  7.75537497e-03  1.90147052e-09  5.00000000e-01                                 
 2.18000376e-09  5.61169065e-01  2.18000376e-09  4.97913428e-01  2.18000376e-09  1.77959324e+00  2.18000376e-09  1.80000000e+00  2.18000376e-09 -7.17827465e-03  2.18000376e-09  5.00000000e-01                                 
 2.50896887e-09  5.60244326e-01  2.50896887e-09  4.97124959e-01  2.50896887e-09  1.79549547e+00  2.50896887e-09  1.80000000e+00  2.50896887e-09  6.89176234e-03  2.50896887e-09  5.00000000e-01                                 
 2.88117694e-09  5.59227188e-01  2.88117694e-09  4.96254245e-01  2.88117694e-09  1.80241872e+00  2.88117694e-09  1.80000000e+00  2.88117694e-09 -6.50321371e-03  2.88117694e-09  5.00000000e-01                                 
 3.58706124e-09  5.57376631e-01  3.58706124e-09  4.94661136e-01  3.58706124e-09  1.80480478e+00  3.58706124e-09  1.80000000e+00  3.58706124e-09  6.41240668e-03  3.58706124e-09  5.00000000e-01                                 
 4.35100698e-09  5.55480336e-01  4.35100698e-09  4.93016827e-01  4.35100698e-09  1.80326547e+00  4.35100698e-09  1.80000000e+00  4.35100698e-09 -6.20834202e-03  4.35100698e-09  5.00000000e-01                                 
 5.82755224e-09  5.52083123e-01  5.82755224e-09  4.90043387e-01  5.82755224e-09  1.79968894e+00  5.82755224e-09  1.80000000e+00  5.82755224e-09  6.19810876e-03  5.82755224e-09  5.00000000e-01                                 
 8.10144059e-09  5.47419308e-01  8.10144059e-09  4.85907390e-01  8.10144059e-09  1.79405086e+00  8.10144059e-09  1.80000000e+00  8.10144059e-09 -6.08811214e-03  8.10144059e-09  5.00000000e-01                                 
 9.62623616e-09  5.44614238e-01  9.62623616e-09  4.83390471e-01  9.62623616e-09  1.79070677e+00  9.62623616e-09  1.80000000e+00  9.62623616e-09  6.07513282e-03  9.62623616e-09  5.00000000e-01                                 
 1.13600316e-08  5.41676927e-01  1.13600316e-08  4.80734095e-01  1.13600316e-08  1.78692329e+00  1.13600316e-08  1.80000000e+00  1.13600316e-08 -5.96464900e-03  1.13600316e-08  5.00000000e-01                                 
 1.33213118e-08  5.38629559e-01  1.33213118e-08  4.77957042e-01  1.33213118e-08  1.78293524e+00  1.33213118e-08  1.80000000e+00  1.33213118e-08  5.95898181e-03  1.33213118e-08  5.00000000e-01                                 
 1.52368040e-08  5.35895946e-01  1.52368040e-08  4.75448331e-01  1.52368040e-08  1.77907149e+00  1.52368040e-08  1.80000000e+00  1.52368040e-08 -5.86098512e-03  1.52368040e-08  5.00000000e-01                                 
 1.74636756e-08  5.32976544e-01  1.74636756e-08  4.72751424e-01  1.74636756e-08  1.77478278e+00  1.74636756e-08  1.80000000e+00  1.74636756e-08  5.85909460e-03  1.74636756e-08  5.00000000e-01                                 
 2.01839746e-08  5.29735516e-01  2.01839746e-08  4.69736074e-01  2.01839746e-08  1.76956542e+00  2.01839746e-08  1.80000000e+00  2.01839746e-08 -5.77932083e-03  2.01839746e-08  5.00000000e-01                                 
 2.44107911e-08  5.25289225e-01  2.44107911e-08  4.65562369e-01  2.44107911e-08  1.76191343e+00  2.44107911e-08  1.80000000e+00  2.44107911e-08  5.79830628e-03  2.44107911e-08  5.00000000e-01                                 
 3.05986472e-08  5.19793745e-01  3.05986472e-08  4.60342903e-01  3.05986472e-08  1.75135334e+00  3.05986472e-08  1.80000000e+00  3.05986472e-08 -5.73969415e-03  3.05986472e-08  5.00000000e-01                                 
 4.29743594e-08  5.11116563e-01  4.29743594e-08  4.51985556e-01  4.29743594e-08  1.73188129e+00  4.29743594e-08  1.80000000e+00  4.29743594e-08  5.77437788e-03  4.29743594e-08  5.00000000e-01                                 
 6.77257837e-08  4.98592085e-01  6.77257837e-08  4.39768123e-01  6.77257837e-08  1.69591050e+00  6.77257837e-08  1.80000000e+00  6.77257837e-08 -5.72755811e-03  6.77257837e-08  5.00000000e-01                                 
 1.01729031e-07  4.86701459e-01  1.01729031e-07  4.28072644e-01  1.01729031e-07  1.65084506e+00  1.01729031e-07  1.80000000e+00  1.01729031e-07  5.76767481e-03  1.01729031e-07  5.00000000e-01                                 
 1.50365365e-07  4.70491703e-01  1.50365365e-07  4.12906355e-01  1.50365365e-07  1.58634484e+00  1.50365365e-07  1.80000000e+00  1.50365365e-07 -5.72263379e-03  1.50365365e-07  5.00000000e-01                                 
 2.17439595e-07  4.49372215e-01  2.17439595e-07  3.93925068e-01  2.17439595e-07  1.49697472e+00  2.17439595e-07  1.80000000e+00  2.17439595e-07  5.76421425e-03  2.17439595e-07  5.00000000e-01                                 
 2.89812645e-07  4.29538108e-01  2.89812645e-07  3.76517877e-01  2.89812645e-07  1.40169317e+00  2.89812645e-07  1.80000000e+00  2.89812645e-07 -5.71978316e-03  2.89812645e-07  5.00000000e-01                                 
 3.93674458e-07  3.98302824e-01  3.93674458e-07  3.50141698e-01  3.93674458e-07  1.26153603e+00  3.93674458e-07  1.80000000e+00  3.93674458e-07  5.76189998e-03  3.93674458e-07  5.00000000e-01                                 
 5.42087207e-07  3.54540210e-01  5.42087207e-07  3.14168487e-01  5.42087207e-07  1.06963078e+00  5.42087207e-07  1.80000000e+00  5.42087207e-07 -5.71818338e-03  5.42087207e-07  5.00000000e-01                                 
 6.65419674e-07  6.35823228e-01  6.65419674e-07  5.69019410e-01  6.65419674e-07  1.21442235e+00  6.65419674e-07  1.80000000e+00  6.65419674e-07  5.76358927e-03  6.65419674e-07  5.00000000e-01                                 
 7.57751910e-07  7.10698985e-01  7.57751910e-07  6.38618161e-01  7.57751910e-07  1.19015079e+00  7.57751910e-07  1.80000000e+00  7.57751910e-07 -5.71774873e-03  7.57751910e-07  5.00000000e-01                                 
 8.47578630e-07  7.28371012e-01  8.47578630e-07  6.53033047e-01  8.47578630e-07  1.11243097e+00  8.47578630e-07  1.80000000e+00  8.47578630e-07  5.76015200e-03  8.47578630e-07  5.00000000e-01                                 
 8.59776664e-07  7.28314389e-01  8.59776664e-07  6.53007892e-01  8.59776664e-07  1.10121745e+00  8.59776664e-07  1.80000000e+00  8.59776664e-07  1.04707260e-05  8.59776664e-07  5.00000000e-01                                 
 8.84172732e-07  7.19543505e-01  8.84172732e-07  6.45983240e-01  8.84172732e-07  1.06960474e+00  8.84172732e-07  1.80000000e+00  8.84172732e-07  5.31997697e-06  8.84172732e-07  5.00000000e-01                                 
 9.23676074e-07  6.89278630e-01  9.23676074e-07  6.20032899e-01  9.23676074e-07  1.00700233e+00  9.23676074e-07  1.80000000e+00  9.23676074e-07  9.72008491e-06  9.23676074e-07  5.00000000e-01                                 
 9.68245203e-07  6.86391930e-01  9.68245203e-07  6.17370189e-01  9.68245203e-07  9.70481407e-01  9.68245203e-07  1.80000000e+00  9.68245203e-07  6.44396222e-06  9.68245203e-07  5.00000000e-01                                 
 1.00943718e-06  7.08932853e-01  1.00943718e-06  6.37086791e-01  1.00943718e-06  9.61322896e-01  1.00943718e-06  1.80000000e+00  1.00943718e-06  1.07435760e-05  1.00943718e-06  5.00000000e-01                                 
 1.05874236e-06  7.14586226e-01  1.05874236e-06  6.41868477e-01  1.05874236e-06  9.32717295e-01  1.05874236e-06  1.80000000e+00  1.05874236e-06  5.77208152e-06  1.05874236e-06  5.00000000e-01                                 
 1.11433493e-06  7.03105052e-01  1.11433493e-06  6.32146049e-01  1.11433493e-06  8.86967561e-01  1.11433493e-06  1.80000000e+00  1.11433493e-06  1.01841478e-05  1.11433493e-06  5.00000000e-01                                 
 1.18242584e-06  6.99388955e-01  1.18242584e-06  6.28919544e-01  1.18242584e-06  8.41960948e-01  1.18242584e-06  1.80000000e+00  1.18242584e-06  6.02312550e-06  1.18242584e-06  5.00000000e-01                                 
 1.25782176e-06  7.10511501e-01  1.25782176e-06  6.38434332e-01  1.25782176e-06  8.06616374e-01  1.25782176e-06  1.80000000e+00  1.25782176e-06  1.05126736e-05  1.25782176e-06  5.00000000e-01                                 
 1.36128535e-06  7.03935835e-01  1.36128535e-06  6.32873725e-01  1.36128535e-06  7.40707845e-01  1.36128535e-06  1.80000000e+00  1.36128535e-06  5.69101932e-06  1.36128535e-06  5.00000000e-01                                 
 1.46181824e-06  7.02814612e-01  1.46181824e-06  6.31870088e-01  1.46181824e-06  6.83894941e-01  1.46181824e-06  1.80000000e+00  1.46181824e-06  1.05801302e-05  1.46181824e-06  5.00000000e-01                                 
 1.60549188e-06  7.08964527e-01  1.60549188e-06  6.37153967e-01  1.60549188e-06  6.13060607e-01  1.60549188e-06  1.80000000e+00  1.60549188e-06  5.79427922e-06  1.60549188e-06  5.00000000e-01                                 
 1.80382182e-06  7.01628079e-01  1.80382182e-06  6.30854031e-01  1.80382182e-06  5.27926182e-01  1.80382182e-06  1.80000000e+00  1.80382182e-06  1.04433967e-05  1.80382182e-06  5.00000000e-01                                 
 2.02459638e-06  7.08165813e-01  2.02459638e-06  6.36470855e-01  2.02459638e-06  4.94790409e-01  2.02459638e-06  1.80000000e+00  2.02459638e-06  5.90691968e-06  2.02459638e-06  5.00000000e-01                                 
 2.05744891e-06  7.06895440e-01  2.05744891e-06  6.35387113e-01  2.05744891e-06  4.92289722e-01  2.05744891e-06  1.80000000e+00  2.05744891e-06  8.11793887e-06  2.05744891e-06  5.00000000e-01                                 
 2.12315398e-06  7.04552981e-01  2.12315398e-06  6.33385009e-01  2.12315398e-06  4.92910173e-01  2.12315398e-06  1.80000000e+00  2.12315398e-06  8.12631284e-06  2.12315398e-06  5.00000000e-01                                 
 2.25456412e-06  7.05357561e-01  2.25456412e-06  6.34070411e-01  2.25456412e-06  5.02141484e-01  2.25456412e-06  1.80000000e+00  2.25456412e-06  8.18021561e-06  2.25456412e-06  5.00000000e-01                                 
 2.42437853e-06  7.05881965e-01  2.42437853e-06  6.34522604e-01  2.42437853e-06  5.00333098e-01  2.42437853e-06  1.80000000e+00  2.42437853e-06  8.12330937e-06  2.42437853e-06  5.00000000e-01                                 
 2.60438907e-06  7.04588234e-01  2.60438907e-06  6.33412591e-01  2.60438907e-06  4.99227116e-01  2.60438907e-06  1.80000000e+00  2.60438907e-06  8.16396302e-06  2.60438907e-06  5.00000000e-01                                 
 2.96441015e-06  7.06178506e-01  2.96441015e-06  6.34774569e-01  2.96441015e-06  5.01430243e-01  2.96441015e-06  1.80000000e+00  2.96441015e-06  8.14155933e-06  2.96441015e-06  5.00000000e-01                                 
 3.50785581e-06  7.04546757e-01  3.50785581e-06  6.33377793e-01  3.50785581e-06  4.99004566e-01  3.50785581e-06  1.80000000e+00  3.50785581e-06  8.15228305e-06  3.50785581e-06  5.00000000e-01                                 
 4.35385809e-06  7.06162164e-01  4.35385809e-06  6.34760275e-01  4.35385809e-06  5.01478792e-01  4.35385809e-06  1.80000000e+00  4.35385809e-06  8.14929193e-06  4.35385809e-06  5.00000000e-01                                 
 5.35385809e-06  7.04580078e-01  5.35385809e-06  6.33406786e-01  5.35385809e-06  4.99020216e-01  5.35385809e-06  1.80000000e+00  5.35385809e-06  8.14679021e-06  5.35385809e-06  5.00000000e-01                                 
 6.35385809e-06  7.06119057e-01  6.35385809e-06  6.34723071e-01  6.35385809e-06  5.01438793e-01  6.35385809e-06  1.80000000e+00  6.35385809e-06  8.15419697e-06  6.35385809e-06  5.00000000e-01                                 
 7.35385809e-06  7.04635489e-01  7.35385809e-06  6.33454579e-01  7.35385809e-06  4.99078279e-01  7.35385809e-06  1.80000000e+00  7.35385809e-06  8.14204621e-06  7.35385809e-06  5.00000000e-01                                 
 8.35385809e-06  7.06054961e-01  8.35385809e-06  6.34668059e-01  8.35385809e-06  5.01361180e-01  8.35385809e-06  1.80000000e+00  8.35385809e-06  8.15874587e-06  8.35385809e-06  5.00000000e-01                                 
 9.35385809e-06  7.04710886e-01  9.35385809e-06  6.33519482e-01  9.35385809e-06  4.99172886e-01  9.35385809e-06  1.80000000e+00  9.35385809e-06  8.13772502e-06  9.35385809e-06  5.00000000e-01                                 
 1.00005000e-05  7.05948516e-01  1.00005000e-05  6.34576828e-01  1.00005000e-05  5.01218464e-01  1.00005000e-05  1.80000000e+00  1.00005000e-05  8.16382248e-06  1.00005000e-05  5.00000000e-01                                 
 1.00005500e-05  7.05949182e-01  1.00005500e-05  6.34577414e-01  1.00005500e-05  4.93762104e-01  1.00005500e-05  1.62000000e+00  1.00005500e-05 -7.79217040e-05  1.00005500e-05  5.00000000e-01                                 
 1.00006500e-05  7.05950507e-01  1.00006500e-05  6.34578571e-01  1.00006500e-05  4.80102859e-01  1.00006500e-05  1.26000000e+00  1.00006500e-05 -6.54184391e-05  1.00006500e-05  5.00000000e-01                                 
 1.00008500e-05  7.05953048e-01  1.00008500e-05  6.34580780e-01  1.00008500e-05  4.78443995e-01  1.00008500e-05  5.40000000e-01  1.00008500e-05  5.85357225e-02  1.00008500e-05  5.00000000e-01                                 
 1.00010000e-05  7.05954762e-01  1.00010000e-05  6.34582295e-01  1.00010000e-05  4.43065631e-01  1.00010000e-05  0.00000000e+00  1.00010000e-05  1.61281228e+00  1.00010000e-05  5.00000000e-01                                 
 1.00010249e-05  7.05955014e-01  1.00010249e-05  6.34582523e-01  1.00010249e-05  4.22156786e-01  1.00010249e-05  0.00000000e+00  1.00010249e-05  1.73715866e+00  1.00010249e-05  5.00000000e-01                                 
 1.00010746e-05  7.05955558e-01  1.00010746e-05  6.34582993e-01  1.00010746e-05  3.84944921e-01  1.00010746e-05  0.00000000e+00  1.00010746e-05  1.81794069e+00  1.00010746e-05  5.00000000e-01                                 
 1.00011740e-05  7.05956736e-01  1.00011740e-05  6.34583985e-01  1.00011740e-05  3.46728084e-01  1.00011740e-05  0.00000000e+00  1.00011740e-05  1.78715442e+00  1.00011740e-05  5.00000000e-01                                 
 1.00013163e-05  7.05958368e-01  1.00013163e-05  6.34585402e-01  1.00013163e-05  3.38438306e-01  1.00013163e-05  0.00000000e+00  1.00013163e-05  1.80858821e+00  1.00013163e-05  5.00000000e-01                                 
 1.00015387e-05  7.05960681e-01  1.00015387e-05  6.34587432e-01  1.00015387e-05  3.38565345e-01  1.00015387e-05  0.00000000e+00  1.00015387e-05  1.79286504e+00  1.00015387e-05  5.00000000e-01                                 
 1.00017710e-05  7.05962831e-01  1.00017710e-05  6.34589318e-01  1.00017710e-05  3.38854838e-01  1.00017710e-05  0.00000000e+00  1.00017710e-05  1.80576652e+00  1.00017710e-05  5.00000000e-01                                 
 1.00021762e-05  7.05966159e-01  1.00021762e-05  6.34592231e-01  1.00021762e-05  3.38641511e-01  1.00021762e-05  0.00000000e+00  1.00021762e-05  1.79483348e+00  1.00021762e-05  5.00000000e-01                                 
 1.00026750e-05  7.05969848e-01  1.00026750e-05  6.34595438e-01  1.00026750e-05  3.38813700e-01  1.00026750e-05  0.00000000e+00  1.00026750e-05  1.80468350e+00  1.00026750e-05  5.00000000e-01                                 
 1.00036727e-05  7.05976562e-01  1.00036727e-05  6.34601238e-01  1.00036727e-05  3.38945498e-01  1.00036727e-05  0.00000000e+00  1.00036727e-05  1.79551105e+00  1.00036727e-05  5.00000000e-01                                 
 1.00056681e-05  7.05986941e-01  1.00056681e-05  6.34610214e-01  1.00056681e-05  3.40072711e-01  1.00056681e-05  0.00000000e+00  1.00056681e-05  1.80436687e+00  1.00056681e-05  5.00000000e-01                                 
 1.00096588e-05  7.05991099e-01  1.00096588e-05  6.34614059e-01  1.00096588e-05  3.42668553e-01  1.00096588e-05  0.00000000e+00  1.00096588e-05  1.79566574e+00  1.00096588e-05  5.00000000e-01                                 
 1.00176402e-05  7.05942650e-01  1.00176402e-05  6.34573132e-01  1.00176402e-05  3.51174688e-01  1.00176402e-05  0.00000000e+00  1.00176402e-05  1.80429121e+00  1.00176402e-05  5.00000000e-01                                 
 1.00336029e-05  7.05722215e-01  1.00336029e-05  6.34385210e-01  1.00336029e-05  3.96205249e-01  1.00336029e-05  0.00000000e+00  1.00336029e-05  1.79570361e+00  1.00336029e-05  5.00000000e-01                                 
