 time            v(vbep)         time            v(vben)         time            v(vout)         time            v(vphi1)        time            v(vphi2)        time            v(vref)         time            v(voutc)        time            v(voutcc)       yes             currtemp       
 0.00000000e+00  7.61603373e-01  0.00000000e+00  7.01593077e-01  0.00000000e+00  1.58036337e+00  0.00000000e+00  0.00000000e+00  0.00000000e+00  1.80000000e+00  0.00000000e+00  7.03758965e-01  0.00000000e+00  1.58036336e+00  0.00000000e+00  1.58695610e+00  1.00000000e+00  3.50000000e+01 
 1.00000000e-11  7.61628397e-01  1.00000000e-11  7.01664308e-01  1.00000000e-11  1.58114529e+00  1.00000000e-11  1.80000000e-02  1.00000000e-11  1.80025107e+00  1.00000000e-11  7.04289870e-01  1.00000000e-11  1.58083315e+00  1.00000000e-11  1.58696856e+00                                 
 2.00000000e-11  7.61635246e-01  2.00000000e-11  7.01708993e-01  2.00000000e-11  1.58162849e+00  2.00000000e-11  3.60000000e-02  2.00000000e-11  1.80035099e+00  2.00000000e-11  7.04684413e-01  2.00000000e-11  1.58118942e+00  2.00000000e-11  1.58697300e+00                                 
 4.00000000e-11  7.61635176e-01  4.00000000e-11  7.01767917e-01  4.00000000e-11  1.58221405e+00  4.00000000e-11  7.20000000e-02  4.00000000e-11  1.80038980e+00  4.00000000e-11  7.05261607e-01  4.00000000e-11  1.58172163e+00  4.00000000e-11  1.58697389e+00                                 
 8.00000000e-11  7.61623294e-01  8.00000000e-11  7.01805894e-01  8.00000000e-11  1.58234445e+00  8.00000000e-11  1.44000000e-01  8.00000000e-11  1.80018657e+00  8.00000000e-11  7.05708259e-01  8.00000000e-11  1.58215901e+00  8.00000000e-11  1.58696305e+00                                 
 1.60000000e-10  7.61620375e-01  1.60000000e-10  7.01816537e-01  1.60000000e-10  1.58201383e+00  1.60000000e-10  2.88000000e-01  1.60000000e-10  1.80000400e+00  1.60000000e-10  7.05776850e-01  1.60000000e-10  1.58221516e+00  1.60000000e-10  1.58695337e+00                                 
 3.20000000e-10  7.61616601e-01  3.20000000e-10  7.01816023e-01  3.20000000e-10  1.58165083e+00  3.20000000e-10  5.76000000e-01  3.20000000e-10  1.79999196e+00  3.20000000e-10  7.05644037e-01  3.20000000e-10  1.58193168e+00  3.20000000e-10  1.58694937e+00                                 
 6.40000000e-10  7.61534331e-01  6.40000000e-10  7.01452883e-01  6.40000000e-10  1.57922192e+00  6.40000000e-10  1.15200000e+00  6.40000000e-10  1.81180577e+00  6.40000000e-10  7.03601460e-01  6.40000000e-10  1.58674604e+00  6.40000000e-10  1.58697814e+00                                 
 1.00000000e-09  7.62168321e-01  1.00000000e-09  7.01686456e-01  1.00000000e-09  1.55377718e+00  1.00000000e-09  1.80000000e+00  1.00000000e-09  9.14341327e-02  1.00000000e-09  7.13828900e-01  1.00000000e-09  1.58588200e+00  1.00000000e-09  1.58693311e+00                                 
 1.03639135e-09  7.62197780e-01  1.03639135e-09  7.01725135e-01  1.03639135e-09  1.55293126e+00  1.03639135e-09  1.80000000e+00  1.03639135e-09  2.03047122e-02  1.03639135e-09  7.16701464e-01  1.03639135e-09  1.58744095e+00  1.03639135e-09  1.58697312e+00                                 
 1.10917404e-09  7.62289531e-01  1.10917404e-09  7.01796217e-01  1.10917404e-09  1.55241521e+00  1.10917404e-09  1.80000000e+00  1.10917404e-09 -9.74068212e-03  1.10917404e-09  7.20419185e-01  1.10917404e-09  1.59033363e+00  1.10917404e-09  1.58700150e+00                                 
 1.25473942e-09  7.62402365e-01  1.25473942e-09  7.01668971e-01  1.25473942e-09  1.55056923e+00  1.25473942e-09  1.80000000e+00  1.25473942e-09  8.23266903e-03  1.25473942e-09  7.20633682e-01  1.25473942e-09  1.59076477e+00  1.25473942e-09  1.58695512e+00                                 
 1.47103828e-09  7.62396955e-01  1.47103828e-09  7.01643169e-01  1.47103828e-09  1.54960576e+00  1.47103828e-09  1.80000000e+00  1.47103828e-09 -6.42968281e-03  1.47103828e-09  7.20110524e-01  1.47103828e-09  1.59011398e+00  1.47103828e-09  1.58698737e+00                                 
 1.70295360e-09  7.62305523e-01  1.70295360e-09  7.01637608e-01  1.70295360e-09  1.54952136e+00  1.70295360e-09  1.80000000e+00  1.70295360e-09  5.56211624e-03  1.70295360e-09  7.18804624e-01  1.70295360e-09  1.58917985e+00  1.70295360e-09  1.58699110e+00                                 
 2.09429231e-09  7.62045748e-01  2.09429231e-09  7.01591910e-01  2.09429231e-09  1.54990205e+00  2.09429231e-09  1.80000000e+00  2.09429231e-09 -5.07370072e-03  2.09429231e-09  7.16647954e-01  2.09429231e-09  1.58718272e+00  2.09429231e-09  1.58706963e+00                                 
 2.47084723e-09  7.61854779e-01  2.47084723e-09  7.01598161e-01  2.47084723e-09  1.55052607e+00  2.47084723e-09  1.80000000e+00  2.47084723e-09  4.49993620e-03  2.47084723e-09  7.14918411e-01  2.47084723e-09  1.58585070e+00  2.47084723e-09  1.58713009e+00                                 
 3.12863289e-09  7.61632753e-01  3.12863289e-09  7.01556259e-01  3.12863289e-09  1.55042311e+00  3.12863289e-09  1.80000000e+00  3.12863289e-09 -4.34013800e-03  3.12863289e-09  7.11864378e-01  3.12863289e-09  1.58311080e+00  3.12863289e-09  1.58725845e+00                                 
 4.07756105e-09  7.61519370e-01  4.07756105e-09  7.01575237e-01  4.07756105e-09  1.54997360e+00  4.07756105e-09  1.80000000e+00  4.07756105e-09  4.08451041e-03  4.07756105e-09  7.08789425e-01  4.07756105e-09  1.58061619e+00  4.07756105e-09  1.58738270e+00                                 
 5.97541738e-09  7.61431155e-01  5.97541738e-09  7.01557261e-01  5.97541738e-09  1.54791807e+00  5.97541738e-09  1.80000000e+00  5.97541738e-09 -4.06339398e-03  5.97541738e-09  7.04571063e-01  5.97541738e-09  1.57689926e+00  5.97541738e-09  1.58746426e+00                                 
 7.56944388e-09  7.61433217e-01  7.56944388e-09  7.01593473e-01  7.56944388e-09  1.54623685e+00  7.56944388e-09  1.80000000e+00  7.56944388e-09  3.94292571e-03  7.56944388e-09  7.03207993e-01  7.56944388e-09  1.57586233e+00  7.56944388e-09  1.58735808e+00                                 
 9.09039954e-09  7.61452501e-01  9.09039954e-09  7.01572101e-01  9.09039954e-09  1.54289078e+00  9.09039954e-09  1.80000000e+00  9.09039954e-09 -3.86081270e-03  9.09039954e-09  7.02295498e-01  9.09039954e-09  1.57496498e+00  9.09039954e-09  1.58718215e+00                                 
 1.07123806e-08  7.61497650e-01  1.07123806e-08  7.01602045e-01  1.07123806e-08  1.53856347e+00  1.07123806e-08  1.80000000e+00  1.07123806e-08  3.76797993e-03  1.07123806e-08  7.02204222e-01  1.07123806e-08  1.57499999e+00  1.07123806e-08  1.58694367e+00                                 
 1.29977898e-08  7.61539192e-01  1.29977898e-08  7.01577612e-01  1.29977898e-08  1.53009702e+00  1.29977898e-08  1.80000000e+00  1.29977898e-08 -3.70918585e-03  1.29977898e-08  7.01912881e-01  1.29977898e-08  1.57462674e+00  1.29977898e-08  1.58659821e+00                                 
 1.57721015e-08  7.61585290e-01  1.57721015e-08  7.01605729e-01  1.57721015e-08  1.51872676e+00  1.57721015e-08  1.80000000e+00  1.57721015e-08  3.66148311e-03  1.57721015e-08  7.02271418e-01  1.57721015e-08  1.57502983e+00  1.57721015e-08  1.58618629e+00                                 
 1.96475701e-08  7.61603451e-01  1.96475701e-08  7.01579873e-01  1.96475701e-08  1.50078026e+00  1.96475701e-08  1.80000000e+00  1.96475701e-08 -3.62446126e-03  1.96475701e-08  7.02324074e-01  1.96475701e-08  1.57494099e+00  1.96475701e-08  1.58568032e+00                                 
 2.48718643e-08  7.61617344e-01  2.48718643e-08  7.01606929e-01  2.48718643e-08  1.47623665e+00  2.48718643e-08  1.80000000e+00  2.48718643e-08  3.60190528e-03  2.48718643e-08  7.02882302e-01  2.48718643e-08  1.57550385e+00  2.48718643e-08  1.58511021e+00                                 
 3.37762677e-08  7.61608021e-01  3.37762677e-08  7.01580083e-01  3.37762677e-08  1.43313256e+00  3.37762677e-08  1.80000000e+00  3.37762677e-08 -3.58428450e-03  3.37762677e-08  7.03054479e-01  3.37762677e-08  1.57551239e+00  3.37762677e-08  1.58439421e+00                                 
 4.76834289e-08  7.61610233e-01  4.76834289e-08  7.01606578e-01  4.76834289e-08  1.36625870e+00  4.76834289e-08  1.80000000e+00  4.76834289e-08  3.57744971e-03  4.76834289e-08  7.03613502e-01  4.76834289e-08  1.57607682e+00  4.76834289e-08  1.58369089e+00                                 
 7.54977512e-08  7.61600757e-01  7.54977512e-08  7.01579715e-01  7.54977512e-08  1.23214304e+00  7.54977512e-08  1.80000000e+00  7.54977512e-08 -3.57012972e-03  7.54977512e-08  7.03615071e-01  7.54977512e-08  1.57595222e+00  7.54977512e-08  1.58304998e+00                                 
 1.16671734e-07  7.61606635e-01  1.16671734e-07  7.01606432e-01  1.16671734e-07  1.03634955e+00  1.16671734e-07  1.80000000e+00  1.16671734e-07  3.56993413e-03  1.16671734e-07  7.03873784e-01  1.16671734e-07  1.57627746e+00  1.16671734e-07  1.58278984e+00                                 
 1.77346354e-07  7.61600007e-01  1.77346354e-07  7.01579686e-01  1.77346354e-07  7.88372087e-01  1.77346354e-07  1.80000000e+00  1.77346354e-07 -3.56245240e-03  1.77346354e-07  7.03643117e-01  1.77346354e-07  1.57596687e+00  1.77346354e-07  1.58272559e+00                                 
 2.29369607e-07  7.61608030e-01  2.29369607e-07  7.01606550e-01  2.29369607e-07  7.01445039e-01  2.29369607e-07  1.80000000e+00  2.29369607e-07  3.57037837e-03  2.29369607e-07  7.03876011e-01  2.29369607e-07  1.57627318e+00  2.29369607e-07  1.58271846e+00                                 
 2.77624482e-07  7.61597189e-01  2.77624482e-07  7.01579541e-01  2.77624482e-07  7.06630703e-01  2.77624482e-07  1.80000000e+00  2.77624482e-07 -3.55516122e-03  2.77624482e-07  7.03645343e-01  2.77624482e-07  1.57596502e+00  2.77624482e-07  1.58271958e+00                                 
 2.99120169e-07  7.61609599e-01  2.99120169e-07  7.01606552e-01  2.99120169e-07  7.06345002e-01  2.99120169e-07  1.80000000e+00  2.99120169e-07  3.56179047e-03  2.99120169e-07  7.03871796e-01  2.99120169e-07  1.57626695e+00  2.99120169e-07  1.58271573e+00                                 
 3.33192533e-07  7.61597524e-01  3.33192533e-07  7.01579624e-01  3.33192533e-07  7.05778326e-01  3.33192533e-07  1.80000000e+00  3.33192533e-07 -3.54566150e-03  3.33192533e-07  7.03645620e-01  3.33192533e-07  1.57596333e+00  3.33192533e-07  1.58271609e+00                                 
 3.90858543e-07  7.61609056e-01  3.90858543e-07  7.01606513e-01  3.90858543e-07  7.06151544e-01  3.90858543e-07  1.80000000e+00  3.90858543e-07  3.55593341e-03  3.90858543e-07  7.03872398e-01  3.90858543e-07  1.57626405e+00  3.90858543e-07  1.58271186e+00                                 
 4.75563473e-07  7.61597798e-01  4.75563473e-07  7.01579634e-01  4.75563473e-07  7.05784958e-01  4.75563473e-07  1.80000000e+00  4.75563473e-07 -3.54203208e-03  4.75563473e-07  7.03645417e-01  4.75563473e-07  1.57595808e+00  4.75563473e-07  1.58271084e+00                                 
 6.44973333e-07  7.61608895e-01  6.44973333e-07  7.01606509e-01  6.44973333e-07  7.06147882e-01  6.44973333e-07  1.80000000e+00  6.44973333e-07  3.55371043e-03  6.44973333e-07  7.03872502e-01  6.44973333e-07  1.57625492e+00  6.44973333e-07  1.58270268e+00                                 
 9.83793054e-07  7.61597876e-01  9.83793054e-07  7.01579636e-01  9.83793054e-07  7.05786701e-01  9.83793054e-07  1.80000000e+00  9.83793054e-07 -3.54091288e-03  9.83793054e-07  7.03645369e-01  9.83793054e-07  1.57593969e+00  9.83793054e-07  1.58269251e+00                                 
 1.60463765e-06  7.61608856e-01  1.60463765e-06  7.01606509e-01  1.60463765e-06  7.06146963e-01  1.60463765e-06  1.80000000e+00  1.60463765e-06  3.55313848e-03  1.60463765e-06  7.03872527e-01  1.60463765e-06  1.57622027e+00  1.60463765e-06  1.58266806e+00                                 
 2.80463765e-06  7.61597898e-01  2.80463765e-06  7.01579636e-01  2.80463765e-06  7.05787186e-01  2.80463765e-06  1.80000000e+00  2.80463765e-06 -3.54061104e-03  2.80463765e-06  7.03645357e-01  2.80463765e-06  1.57587394e+00  2.80463765e-06  1.58262686e+00                                 
 4.00463765e-06  7.61608841e-01  4.00463765e-06  7.01606508e-01  4.00463765e-06  7.06146635e-01  4.00463765e-06  1.80000000e+00  4.00463765e-06  3.55293048e-03  4.00463765e-06  7.03872534e-01  4.00463765e-06  1.57613364e+00  4.00463765e-06  1.58258155e+00                                 
 5.20463765e-06  7.61597912e-01  5.20463765e-06  7.01579636e-01  5.20463765e-06  7.05787529e-01  5.20463765e-06  1.80000000e+00  5.20463765e-06 -3.54042448e-03  5.20463765e-06  7.03645348e-01  5.20463765e-06  1.57578736e+00  5.20463765e-06  1.58254040e+00                                 
 6.00100000e-06  7.61608823e-01  6.00100000e-06  7.01606508e-01  6.00100000e-06  7.06146215e-01  6.00100000e-06  1.80000000e+00  6.00100000e-06  3.55266850e-03  6.00100000e-06  7.03872545e-01  6.00100000e-06  1.57606165e+00  6.00100000e-06  1.58250966e+00                                 
 6.00110000e-06  7.61561901e-01  6.00110000e-06  7.01352784e-01  6.00110000e-06  7.04192190e-01  6.00110000e-06  1.62000000e+00  6.00110000e-06  1.89704849e-04  6.00110000e-06  7.02128179e-01  6.00110000e-06  1.57452334e+00  6.00110000e-06  1.58249852e+00                                 
 6.00130000e-06  7.61593163e-01  6.00130000e-06  7.01359838e-01  6.00130000e-06  7.04470216e-01  6.00130000e-06  1.26000000e+00  6.00130000e-06 -2.21125147e-04  6.00130000e-06  7.02055135e-01  6.00130000e-06  1.57445547e+00  6.00130000e-06  1.58251698e+00                                 
 6.00170000e-06  7.61650255e-01  6.00170000e-06  7.00884626e-01  6.00170000e-06  7.22830659e-01  6.00170000e-06  5.40000000e-01  6.00170000e-06  1.52528552e+00  6.00170000e-06  6.95011894e-01  6.00170000e-06  1.48376337e+00  6.00170000e-06  1.58218078e+00                                 
 6.00200000e-06  7.61587590e-01  6.00200000e-06  6.98563868e-01  6.00200000e-06  7.51481167e-01  6.00200000e-06  0.00000000e+00  6.00200000e-06  1.87432236e+00  6.00200000e-06  6.70541314e-01  6.00200000e-06  1.14793178e+00  6.00200000e-06  1.58211970e+00                                 
 6.00203688e-06  7.61600510e-01  6.00203688e-06  6.98631368e-01  6.00203688e-06  7.45990288e-01  6.00203688e-06  0.00000000e+00  6.00203688e-06  1.82881929e+00  6.00203688e-06  6.71563450e-01  6.00203688e-06  1.10392322e+00  6.00203688e-06  1.58245567e+00                                 
 6.00211065e-06  7.61606909e-01  6.00211065e-06  6.98876505e-01  6.00211065e-06  7.38096775e-01  6.00211065e-06  0.00000000e+00  6.00211065e-06  1.79218199e+00  6.00211065e-06  6.74898759e-01  6.00211065e-06  1.02960383e+00  6.00211065e-06  1.58273184e+00                                 
 6.00225819e-06  7.61602422e-01  6.00225819e-06  6.99209876e-01  6.00225819e-06  7.34199404e-01  6.00225819e-06  0.00000000e+00  6.00225819e-06  1.80237822e+00  6.00225819e-06  6.78938923e-01  6.00225819e-06  9.14712979e-01  6.00225819e-06  1.58266367e+00                                 
 6.00247005e-06  7.61603825e-01  6.00247005e-06  6.99857860e-01  6.00247005e-06  7.25290721e-01  6.00247005e-06  0.00000000e+00  6.00247005e-06  1.79737357e+00  6.00247005e-06  6.85276208e-01  6.00247005e-06  7.99140913e-01  6.00247005e-06  1.58279956e+00                                 
 6.00269178e-06  7.61602088e-01  6.00269178e-06  7.00835502e-01  6.00269178e-06  7.15043830e-01  6.00269178e-06  0.00000000e+00  6.00269178e-06  1.80106183e+00  6.00269178e-06  6.94665347e-01  6.00269178e-06  7.41534550e-01  6.00269178e-06  1.58274882e+00                                 
 6.00292057e-06  7.61603241e-01  6.00292057e-06  7.01454156e-01  6.00292057e-06  7.10111164e-01  6.00292057e-06  0.00000000e+00  6.00292057e-06  1.79930833e+00  6.00292057e-06  6.99560862e-01  6.00292057e-06  7.18365651e-01  6.00292057e-06  1.58259089e+00                                 
 6.00320465e-06  7.61602510e-01  6.00320465e-06  7.01916086e-01  6.00320465e-06  7.07126741e-01  6.00320465e-06  0.00000000e+00  6.00320465e-06  1.80049021e+00  6.00320465e-06  7.03037250e-01  6.00320465e-06  7.09888796e-01  6.00320465e-06  1.58200222e+00                                 
 6.00350470e-06  7.61603433e-01  6.00350470e-06  7.02065087e-01  6.00350470e-06  7.07094932e-01  6.00350470e-06  0.00000000e+00  6.00350470e-06  1.79972500e+00  6.00350470e-06  7.03888751e-01  6.00350470e-06  7.07287011e-01  6.00350470e-06  1.58118637e+00                                 
 6.00397070e-06  7.61602966e-01  6.00397070e-06  7.02139381e-01  6.00397070e-06  7.07140536e-01  6.00397070e-06  0.00000000e+00  6.00397070e-06  1.80022439e+00  6.00397070e-06  7.04727150e-01  6.00397070e-06  7.07322170e-01  6.00397070e-06  1.57958646e+00                                 
 6.00466245e-06  7.61603710e-01  6.00466245e-06  7.02076900e-01  6.00466245e-06  7.08937030e-01  6.00466245e-06  0.00000000e+00  6.00466245e-06  1.79984446e+00  6.00466245e-06  7.04762779e-01  6.00466245e-06  7.08372647e-01  6.00466245e-06  1.57696697e+00                                 
 6.00599180e-06  7.61603150e-01  6.00599180e-06  7.01980077e-01  6.00599180e-06  7.11623400e-01  6.00599180e-06  0.00000000e+00  6.00599180e-06  1.80015652e+00  6.00599180e-06  7.05101618e-01  6.00599180e-06  7.11601572e-01  6.00599180e-06  1.57146238e+00                                 
 6.00854742e-06  7.61603671e-01  6.00854742e-06  7.01791757e-01  6.00854742e-06  7.18329447e-01  6.00854742e-06  0.00000000e+00  6.00854742e-06  1.79987497e+00  6.00854742e-06  7.04904945e-01  6.00854742e-06  7.17677727e-01  6.00854742e-06  1.56042267e+00                                 
 6.01365865e-06  7.61603078e-01  6.01365865e-06  7.01615996e-01  6.01365865e-06  7.30650820e-01  6.01365865e-06  0.00000000e+00  6.01365865e-06  1.80014060e+00  6.01365865e-06  7.04812991e-01  6.01365865e-06  7.30589574e-01  6.01365865e-06  1.53816312e+00                                 
 6.02388112e-06  7.61603656e-01  6.02388112e-06  7.01556885e-01  6.02388112e-06  7.55514432e-01  6.02388112e-06  0.00000000e+00  6.02388112e-06  1.79988160e+00  6.02388112e-06  7.04217530e-01  6.02388112e-06  7.54772038e-01  6.02388112e-06  1.49545922e+00                                 
 6.04432606e-06  7.61603085e-01  6.04432606e-06  7.01601979e-01  6.04432606e-06  8.00405057e-01  6.04432606e-06  0.00000000e+00  6.04432606e-06  1.80013560e+00  6.04432606e-06  7.03975566e-01  6.04432606e-06  8.00385486e-01  6.04432606e-06  1.41706875e+00                                 
 6.08521594e-06  7.61603659e-01  6.08521594e-06  7.01581487e-01  6.08521594e-06  8.78106820e-01  6.08521594e-06  0.00000000e+00  6.08521594e-06  1.79988033e+00  6.08521594e-06  7.03652802e-01  6.08521594e-06  8.76612259e-01  6.08521594e-06  1.28055647e+00                                 
 6.16699570e-06  7.61603088e-01  6.16699570e-06  7.01604388e-01  6.16699570e-06  9.90122744e-01  6.16699570e-06  0.00000000e+00  6.16699570e-06  1.80012975e+00  6.16699570e-06  7.03840108e-01  6.16699570e-06  9.90804925e-01  6.16699570e-06  1.07645826e+00                                 
 6.26510226e-06  7.61603659e-01  6.26510226e-06  7.01582099e-01  6.26510226e-06  1.07228093e+00  6.26510226e-06  0.00000000e+00  6.26510226e-06  1.79987577e+00  6.26510226e-06  7.03666570e-01  6.26510226e-06  1.07031064e+00  6.26510226e-06  1.03724581e+00                                 
 6.36180866e-06  7.61603088e-01  6.36180866e-06  7.01603775e-01  6.36180866e-06  1.11758078e+00  6.36180866e-06  0.00000000e+00  6.36180866e-06  1.80012664e+00  6.36180866e-06  7.03844652e-01  6.36180866e-06  1.11856256e+00  6.36180866e-06  1.11299456e+00                                 
 6.45396783e-06  7.61603658e-01  6.45396783e-06  7.01582656e-01  6.45396783e-06  1.14307691e+00  6.45396783e-06  0.00000000e+00  6.45396783e-06  1.79987486e+00  6.45396783e-06  7.03668239e-01  6.45396783e-06  1.14187700e+00  6.45396783e-06  1.14102438e+00                                 
