 time            v(vbep)         time            v(vben)         time            v(vout)         time            v(vphi1)        time            v(vphi2)        time            v(vref)         time            v(voutc)        time            v(voutcc)       yes             currtemp       
 0.00000000e+00  8.22356801e-01  0.00000000e+00  7.70960881e-01  0.00000000e+00  1.69982860e+00  0.00000000e+00  0.00000000e+00  0.00000000e+00  1.80000000e+00  0.00000000e+00  7.74507482e-01  0.00000000e+00  1.69982860e+00  0.00000000e+00  1.70512070e+00  1.00000000e+00 -6.00000000e+00 
 1.00000000e-11  8.22379551e-01  1.00000000e-11  7.71029502e-01  1.00000000e-11  1.70064287e+00  1.00000000e-11  1.80000000e-02  1.00000000e-11  1.80024511e+00  1.00000000e-11  7.75027146e-01  1.00000000e-11  1.70028978e+00  1.00000000e-11  1.70513471e+00                                 
 2.00000000e-11  8.22385870e-01  2.00000000e-11  7.71072714e-01  2.00000000e-11  1.70118269e+00  2.00000000e-11  3.60000000e-02  2.00000000e-11  1.80034658e+00  2.00000000e-11  7.75418366e-01  2.00000000e-11  1.70064856e+00  2.00000000e-11  1.70514099e+00                                 
 4.00000000e-11  8.22385751e-01  4.00000000e-11  7.71129267e-01  4.00000000e-11  1.70188824e+00  4.00000000e-11  7.20000000e-02  4.00000000e-11  1.80039211e+00  4.00000000e-11  7.75995461e-01  4.00000000e-11  1.70119829e+00  4.00000000e-11  1.70514484e+00                                 
 8.00000000e-11  8.22374288e-01  8.00000000e-11  7.71162794e-01  8.00000000e-11  1.70218821e+00  8.00000000e-11  1.44000000e-01  8.00000000e-11  1.80019764e+00  8.00000000e-11  7.76452351e-01  8.00000000e-11  1.70170169e+00  8.00000000e-11  1.70513500e+00                                 
 1.60000000e-10  8.22370918e-01  1.60000000e-10  7.71163909e-01  1.60000000e-10  1.70193446e+00  1.60000000e-10  2.88000000e-01  1.60000000e-10  1.80001068e+00  1.60000000e-10  7.76511479e-01  1.60000000e-10  1.70186511e+00  1.60000000e-10  1.70512304e+00                                 
 3.20000000e-10  8.22368275e-01  3.20000000e-10  7.71163573e-01  3.20000000e-10  1.70162512e+00  3.20000000e-10  5.76000000e-01  3.20000000e-10  1.80001570e+00  3.20000000e-10  7.76459633e-01  3.20000000e-10  1.70178639e+00  3.20000000e-10  1.70512078e+00                                 
 6.40000000e-10  8.22295820e-01  6.40000000e-10  7.70933398e-01  6.40000000e-10  1.69604278e+00  6.40000000e-10  1.15200000e+00  6.40000000e-10  1.81343230e+00  6.40000000e-10  7.75775454e-01  6.40000000e-10  1.70660237e+00  6.40000000e-10  1.70514940e+00                                 
 9.96495594e-10  8.22744243e-01  9.96495594e-10  7.70980807e-01  9.96495594e-10  1.66648179e+00  9.96495594e-10  1.79369207e+00  9.96495594e-10  7.76949675e-02  9.96495594e-10  7.77903296e-01  9.96495594e-10  1.69685689e+00  9.96495594e-10  1.70504123e+00                                 
 1.00000000e-09  8.22756481e-01  1.00000000e-09  7.70997901e-01  1.00000000e-09  1.66623924e+00  1.00000000e-09  1.80000000e+00  1.00000000e-09  5.29271414e-02  1.00000000e-09  7.78170885e-01  1.00000000e-09  1.69674130e+00  1.00000000e-09  1.70504675e+00                                 
 1.00700881e-09  8.22739508e-01  1.00700881e-09  7.70998702e-01  1.00700881e-09  1.66608471e+00  1.00700881e-09  1.80000000e+00  1.00700881e-09  2.99833395e-02  1.00700881e-09  7.78770752e-01  1.00700881e-09  1.69695782e+00  1.00700881e-09  1.70506829e+00                                 
 1.02102644e-09  8.22722107e-01  1.02102644e-09  7.71039887e-01  1.02102644e-09  1.66632430e+00  1.02102644e-09  1.80000000e+00  1.02102644e-09  4.83554721e-03  1.02102644e-09  7.80138074e-01  1.02102644e-09  1.69783078e+00  1.02102644e-09  1.70511536e+00                                 
 1.04906169e-09  8.22754619e-01  1.04906169e-09  7.71122026e-01  1.04906169e-09  1.66703049e+00  1.04906169e-09  1.80000000e+00  1.04906169e-09  6.09693407e-04  1.04906169e-09  7.82065677e-01  1.04906169e-09  1.69950117e+00  1.04906169e-09  1.70515150e+00                                 
 1.10513219e-09  8.22874636e-01  1.10513219e-09  7.71085973e-01  1.10513219e-09  1.66584877e+00  1.10513219e-09  1.80000000e+00  1.10513219e-09  9.78899919e-04  1.10513219e-09  7.82770282e-01  1.10513219e-09  1.70014666e+00  1.10513219e-09  1.70511810e+00                                 
 1.21727320e-09  8.23040065e-01  1.21727320e-09  7.70997711e-01  1.21727320e-09  1.66186818e+00  1.21727320e-09  1.80000000e+00  1.21727320e-09  1.83553649e-04  1.21727320e-09  7.83233355e-01  1.21727320e-09  1.70051924e+00  1.21727320e-09  1.70512409e+00                                 
 1.44155522e-09  8.23151214e-01  1.44155522e-09  7.70972661e-01  1.44155522e-09  1.65706977e+00  1.44155522e-09  1.80000000e+00  1.44155522e-09  2.73537215e-04  1.44155522e-09  7.83729281e-01  1.44155522e-09  1.70093710e+00  1.44155522e-09  1.70512844e+00                                 
 1.68279889e-09  8.23041129e-01  1.68279889e-09  7.70958359e-01  1.68279889e-09  1.65705364e+00  1.68279889e-09  1.80000000e+00  1.68279889e-09 -1.91858104e-04  1.68279889e-09  7.83224312e-01  1.68279889e-09  1.70050141e+00  1.68279889e-09  1.70512798e+00                                 
 1.95780703e-09  8.22858964e-01  1.95780703e-09  7.70956303e-01  1.95780703e-09  1.65890283e+00  1.95780703e-09  1.80000000e+00  1.95780703e-09  1.21166771e-04  1.95780703e-09  7.82723404e-01  1.95780703e-09  1.70008264e+00  1.95780703e-09  1.70513502e+00                                 
 2.26161951e-09  8.22671509e-01  2.26161951e-09  7.70948844e-01  2.26161951e-09  1.66098827e+00  2.26161951e-09  1.80000000e+00  2.26161951e-09 -1.79575083e-04  2.26161951e-09  7.82061120e-01  2.26161951e-09  1.69951684e+00  2.26161951e-09  1.70513723e+00                                 
 2.81723762e-09  8.22436178e-01  2.81723762e-09  7.70943636e-01  2.81723762e-09  1.66440400e+00  2.81723762e-09  1.80000000e+00  2.81723762e-09  9.96225258e-05  2.81723762e-09  7.81024687e-01  2.81723762e-09  1.69864355e+00  2.81723762e-09  1.70514812e+00                                 
 3.90584940e-09  8.22246513e-01  3.90584940e-09  7.70938017e-01  3.90584940e-09  1.66923737e+00  3.90584940e-09  1.80000000e+00  3.90584940e-09 -1.64746559e-04  3.90584940e-09  7.79145613e-01  3.90584940e-09  1.69704731e+00  3.90584940e-09  1.70515189e+00                                 
 6.08307295e-09  8.22243325e-01  6.08307295e-09  7.70944956e-01  6.08307295e-09  1.67398994e+00  6.08307295e-09  1.80000000e+00  6.08307295e-09  1.01278503e-04  6.08307295e-09  7.76569007e-01  6.08307295e-09  1.69486873e+00  6.08307295e-09  1.70511056e+00                                 
 8.45080179e-09  8.22297776e-01  8.45080179e-09  7.70953074e-01  8.45080179e-09  1.67449559e+00  8.45080179e-09  1.80000000e+00  8.45080179e-09 -1.51928122e-04  8.45080179e-09  7.75002114e-01  8.45080179e-09  1.69353648e+00  8.45080179e-09  1.70497895e+00                                 
 1.04927098e-08  8.22310489e-01  1.04927098e-08  7.70958007e-01  1.04927098e-08  1.67344793e+00  1.04927098e-08  1.80000000e+00  1.04927098e-08  1.06665577e-04  1.04927098e-08  7.74371249e-01  1.04927098e-08  1.69300434e+00  1.04927098e-08  1.70481996e+00                                 
 1.28402284e-08  8.22308986e-01  1.28402284e-08  7.70959432e-01  1.28402284e-08  1.67238912e+00  1.28402284e-08  1.80000000e+00  1.28402284e-08 -1.36544223e-04  1.28402284e-08  7.73964876e-01  1.28402284e-08  1.69265183e+00  1.28402284e-08  1.70460190e+00                                 
 1.57158378e-08  8.22308399e-01  1.57158378e-08  7.70961042e-01  1.57158378e-08  1.67149562e+00  1.57158378e-08  1.80000000e+00  1.57158378e-08  1.17651506e-04  1.57158378e-08  7.73819800e-01  1.57158378e-08  1.69252511e+00  1.57158378e-08  1.70432265e+00                                 
 1.95922319e-08  8.22329876e-01  1.95922319e-08  7.70960511e-01  1.95922319e-08  1.66844068e+00  1.95922319e-08  1.80000000e+00  1.95922319e-08 -1.25584446e-04  1.95922319e-08  7.73757118e-01  1.95922319e-08  1.69245433e+00  1.95922319e-08  1.70394139e+00                                 
 2.45478305e-08  8.22349678e-01  2.45478305e-08  7.70961304e-01  2.45478305e-08  1.66181789e+00  2.45478305e-08  1.80000000e+00  2.45478305e-08  1.20045646e-04  2.45478305e-08  7.73850649e-01  2.45478305e-08  1.69251875e+00  2.45478305e-08  1.70348396e+00                                 
 3.17338301e-08  8.22358891e-01  3.17338301e-08  7.70960723e-01  3.17338301e-08  1.64985211e+00  3.17338301e-08  1.80000000e+00  3.17338301e-08 -1.22924907e-04  3.17338301e-08  7.73940589e-01  3.17338301e-08  1.69256579e+00  3.17338301e-08  1.70287775e+00                                 
 4.28053660e-08  8.22360367e-01  4.28053660e-08  7.70961360e-01  4.28053660e-08  1.62995970e+00  4.28053660e-08  1.80000000e+00  4.28053660e-08  1.19575270e-04  4.28053660e-08  7.74120222e-01  4.28053660e-08  1.69269096e+00  4.28053660e-08  1.70208281e+00                                 
 5.92079568e-08  8.22358337e-01  5.92079568e-08  7.70960632e-01  5.92079568e-08  1.59918894e+00  5.92079568e-08  1.80000000e+00  5.92079568e-08 -1.22812183e-04  5.92079568e-08  7.74243769e-01  5.92079568e-08  1.69275943e+00  5.92079568e-08  1.70114447e+00                                 
 9.20131384e-08  8.22357909e-01  9.20131384e-08  7.70961231e-01  9.20131384e-08  1.53574342e+00  9.20131384e-08  1.80000000e+00  9.20131384e-08  1.19169856e-04  9.20131384e-08  7.74431073e-01  9.20131384e-08  1.69288527e+00  9.20131384e-08  1.69989091e+00                                 
 1.57623502e-07  8.22356605e-01  1.57623502e-07  7.70960565e-01  1.57623502e-07  1.40758232e+00  1.57623502e-07  1.80000000e+00  1.57623502e-07 -1.22834433e-04  1.57623502e-07  7.74490022e-01  1.57623502e-07  1.69290237e+00  1.57623502e-07  1.69872109e+00                                 
 2.66905699e-07  8.22357073e-01  2.66905699e-07  7.70961211e-01  2.66905699e-07  1.19714696e+00  2.66905699e-07  1.80000000e+00  2.66905699e-07  1.19151402e-04  2.66905699e-07  7.74522182e-01  2.66905699e-07  1.69292053e+00  2.66905699e-07  1.69825045e+00                                 
 4.11753439e-07  8.22356537e-01  4.11753439e-07  7.70960557e-01  4.11753439e-07  9.30250463e-01  4.11753439e-07  1.80000000e+00  4.11753439e-07 -1.21876927e-04  4.11753439e-07  7.74492655e-01  4.11753439e-07  1.69288434e+00  4.11753439e-07  1.69820548e+00                                 
 5.63019449e-07  8.22357135e-01  5.63019449e-07  7.70961206e-01  5.63019449e-07  7.82529350e-01  5.63019449e-07  1.80000000e+00  5.63019449e-07  1.20739060e-04  5.63019449e-07  7.74521888e-01  5.63019449e-07  1.69290675e+00  5.63019449e-07  1.69820643e+00                                 
 6.78171406e-07  8.22356429e-01  6.78171406e-07  7.70960563e-01  6.78171406e-07  7.76904810e-01  6.78171406e-07  1.80000000e+00  6.78171406e-07 -1.20665298e-04  6.78171406e-07  7.74494554e-01  6.78171406e-07  1.69287474e+00  6.78171406e-07  1.69819973e+00                                 
 7.42800467e-07  8.22356965e-01  7.42800467e-07  7.70961171e-01  7.42800467e-07  7.78194238e-01  7.42800467e-07  1.80000000e+00  7.42800467e-07  1.20725632e-04  7.42800467e-07  7.74520255e-01  7.42800467e-07  1.69289779e+00  7.42800467e-07  1.69819880e+00                                 
 8.21809221e-07  8.22356778e-01  8.21809221e-07  7.70960618e-01  8.21809221e-07  7.77828646e-01  8.21809221e-07  1.80000000e+00  8.21809221e-07 -1.20814452e-04  8.21809221e-07  7.74494510e-01  8.21809221e-07  1.69286869e+00  8.21809221e-07  1.69819304e+00                                 
 9.32789286e-07  8.22356758e-01  9.32789286e-07  7.70961142e-01  9.32789286e-07  7.78210886e-01  9.32789286e-07  1.80000000e+00  9.32789286e-07  1.20706595e-04  9.32789286e-07  7.74520576e-01  9.32789286e-07  1.69289012e+00  9.32789286e-07  1.69819073e+00                                 
 1.05504067e-06  8.22356895e-01  1.05504067e-06  7.70960636e-01  1.05504067e-06  7.77978678e-01  1.05504067e-06  1.80000000e+00  1.05504067e-06 -1.20720581e-04  1.05504067e-06  7.74494339e-01  1.05504067e-06  1.69285881e+00  1.05504067e-06  1.69818333e+00                                 
 1.25429699e-06  8.22356686e-01  1.25429699e-06  7.70961131e-01  1.25429699e-06  7.78216615e-01  1.25429699e-06  1.80000000e+00  1.25429699e-06  1.20678233e-04  1.25429699e-06  7.74520688e-01  1.25429699e-06  1.69287679e+00  1.25429699e-06  1.69817732e+00                                 
 1.51162089e-06  8.22356935e-01  1.51162089e-06  7.70960644e-01  1.51162089e-06  7.77998769e-01  1.51162089e-06  1.80000000e+00  1.51162089e-06 -1.20733219e-04  1.51162089e-06  7.74494278e-01  1.51162089e-06  1.69283970e+00  1.51162089e-06  1.69816433e+00                                 
 1.89932698e-06  8.22356660e-01  1.89932698e-06  7.70961125e-01  1.89932698e-06  7.78214357e-01  1.89932698e-06  1.80000000e+00  1.89932698e-06  1.20641646e-04  1.89932698e-06  7.74520730e-01  1.89932698e-06  1.69284988e+00  1.89932698e-06  1.69815044e+00                                 
 2.47102285e-06  8.22356951e-01  2.47102285e-06  7.70960649e-01  2.47102285e-06  7.78007370e-01  2.47102285e-06  1.80000000e+00  2.47102285e-06 -1.20765278e-04  2.47102285e-06  7.74494252e-01  2.47102285e-06  1.69279959e+00  2.47102285e-06  1.69812434e+00                                 
 3.45679943e-06  8.22356650e-01  3.45679943e-06  7.70961124e-01  3.45679943e-06  7.78210168e-01  3.45679943e-06  1.80000000e+00  3.45679943e-06  1.20653670e-04  3.45679943e-06  7.74520749e-01  3.45679943e-06  1.69278479e+00  3.45679943e-06  1.69808549e+00                                 
 4.65679943e-06  8.22356956e-01  4.65679943e-06  7.70960649e-01  4.65679943e-06  7.78013168e-01  4.65679943e-06  1.80000000e+00  4.65679943e-06 -1.20692314e-04  4.65679943e-06  7.74494239e-01  4.65679943e-06  1.69270824e+00  4.65679943e-06  1.69803322e+00                                 
 5.85679943e-06  8.22356646e-01  5.85679943e-06  7.70961120e-01  5.85679943e-06  7.78214069e-01  5.85679943e-06  1.80000000e+00  5.85679943e-06  1.20580499e-04  5.85679943e-06  7.74520751e-01  5.85679943e-06  1.69268450e+00  5.85679943e-06  1.69798545e+00                                 
 6.00100000e-06  8.22356977e-01  6.00100000e-06  7.70960650e-01  6.00100000e-06  7.78028450e-01  6.00100000e-06  1.80000000e+00  6.00100000e-06 -1.20462479e-04  6.00100000e-06  7.74494191e-01  6.00100000e-06  1.69265201e+00  6.00100000e-06  1.69797718e+00                                 
 6.00110000e-06  8.22323040e-01  6.00110000e-06  7.70732206e-01  6.00110000e-06  7.76035036e-01  6.00110000e-06  1.62000000e+00  6.00110000e-06 -1.05899740e-04  6.00110000e-06  7.72691006e-01  6.00110000e-06  1.69112600e+00  6.00110000e-06  1.69796411e+00                                 
 6.00130000e-06  8.22353251e-01  6.00130000e-06  7.70785183e-01  6.00130000e-06  7.76718738e-01  6.00130000e-06  1.26000000e+00  6.00130000e-06  5.09402705e-05  6.00130000e-06  7.72960898e-01  6.00130000e-06  1.69135766e+00  6.00130000e-06  1.69798642e+00                                 
 6.00170000e-06  8.22386201e-01  6.00170000e-06  7.70867576e-01  6.00170000e-06  7.80254621e-01  6.00170000e-06  5.40000000e-01  6.00170000e-06  4.18233388e-01  6.00170000e-06  7.72503098e-01  6.00170000e-06  1.68114917e+00  6.00170000e-06  1.69791928e+00                                 
 6.00200000e-06  8.22349638e-01  6.00200000e-06  7.68622109e-01  6.00200000e-06  8.22269848e-01  6.00200000e-06  0.00000000e+00  6.00200000e-06  1.68082379e+00  6.00200000e-06  7.45764352e-01  6.00200000e-06  1.46787171e+00  6.00200000e-06  1.69712414e+00                                 
 6.00204708e-06  8.22357945e-01  6.00204708e-06  7.68561765e-01  6.00204708e-06  8.21393185e-01  6.00204708e-06  0.00000000e+00  6.00204708e-06  1.75824756e+00  6.00204708e-06  7.44977143e-01  6.00204708e-06  1.41071564e+00  6.00204708e-06  1.69739912e+00                                 
 6.00214123e-06  8.22356309e-01  6.00214123e-06  7.68539024e-01  6.00214123e-06  8.15280299e-01  6.00214123e-06  0.00000000e+00  6.00214123e-06  1.81003525e+00  6.00214123e-06  7.44858835e-01  6.00214123e-06  1.30340799e+00  6.00214123e-06  1.69789640e+00                                 
 6.00232953e-06  8.22355281e-01  6.00232953e-06  7.69069885e-01  6.00232953e-06  8.03236727e-01  6.00232953e-06  0.00000000e+00  6.00232953e-06  1.79202193e+00  6.00232953e-06  7.51265933e-01  6.00232953e-06  1.15108233e+00  6.00232953e-06  1.69807696e+00                                 
 6.00252744e-06  8.22356333e-01  6.00252744e-06  7.69453883e-01  6.00252744e-06  7.99172077e-01  6.00252744e-06  0.00000000e+00  6.00252744e-06  1.80404659e+00  6.00252744e-06  7.55346364e-01  6.00252744e-06  1.04740506e+00  6.00252744e-06  1.69815761e+00                                 
 6.00276748e-06  8.22354864e-01  6.00276748e-06  7.69821306e-01  6.00276748e-06  7.94392746e-01  6.00276748e-06  0.00000000e+00  6.00276748e-06  1.79667773e+00  6.00276748e-06  7.58733909e-01  6.00276748e-06  9.49998807e-01  6.00276748e-06  1.69824493e+00                                 
 6.00304982e-06  8.22356695e-01  6.00304982e-06  7.70307100e-01  6.00304982e-06  7.90492081e-01  6.00304982e-06  0.00000000e+00  6.00304982e-06  1.80179122e+00  6.00304982e-06  7.63359984e-01  6.00304982e-06  8.66109626e-01  6.00304982e-06  1.69830114e+00                                 
 6.00361451e-06  8.22355350e-01  6.00361451e-06  7.71126492e-01  6.00361451e-06  7.80914726e-01  6.00361451e-06  0.00000000e+00  6.00361451e-06  1.79812273e+00  6.00361451e-06  7.71288077e-01  6.00361451e-06  7.88228622e-01  6.00361451e-06  1.69821954e+00                                 
 6.00398072e-06  8.22357232e-01  6.00398072e-06  7.71421601e-01  6.00398072e-06  7.78966086e-01  6.00398072e-06  0.00000000e+00  6.00398072e-06  1.80148860e+00  6.00398072e-06  7.74205343e-01  6.00398072e-06  7.81793262e-01  6.00398072e-06  1.69800840e+00                                 
 6.00438690e-06  8.22355698e-01  6.00438690e-06  7.71442509e-01  6.00438690e-06  7.78712990e-01  6.00438690e-06  0.00000000e+00  6.00438690e-06  1.79882342e+00  6.00438690e-06  7.74361515e-01  6.00438690e-06  7.78870917e-01  6.00438690e-06  1.69762505e+00                                 
 6.00488256e-06  8.22357499e-01  6.00488256e-06  7.71468860e-01  6.00488256e-06  7.78723407e-01  6.00488256e-06  0.00000000e+00  6.00488256e-06  1.80099066e+00  6.00488256e-06  7.75240482e-01  6.00488256e-06  7.79066193e-01  6.00488256e-06  1.69704371e+00                                 
 6.00587389e-06  8.22355955e-01  6.00587389e-06  7.71326224e-01  6.00587389e-06  7.79725293e-01  6.00587389e-06  0.00000000e+00  6.00587389e-06  1.79910525e+00  6.00587389e-06  7.74943948e-01  6.00587389e-06  7.79215290e-01  6.00587389e-06  1.69568193e+00                                 
 6.00755965e-06  8.22357627e-01  6.00755965e-06  7.71217110e-01  6.00755965e-06  7.81363970e-01  6.00755965e-06  0.00000000e+00  6.00755965e-06  1.80085720e+00  6.00755965e-06  7.75532101e-01  6.00755965e-06  7.81473628e-01  6.00755965e-06  1.69315593e+00                                 
 6.01093117e-06  8.22355981e-01  6.01093117e-06  7.71042865e-01  6.01093117e-06  7.85482265e-01  6.01093117e-06  0.00000000e+00  6.01093117e-06  1.79917504e+00  6.01093117e-06  7.75118338e-01  6.01093117e-06  7.84907626e-01  6.01093117e-06  1.68796184e+00                                 
 6.01767422e-06  8.22357613e-01  6.01767422e-06  7.70987262e-01  6.01767422e-06  7.93756591e-01  6.01767422e-06  0.00000000e+00  6.01767422e-06  1.80084021e+00  6.01767422e-06  7.75453274e-01  6.01767422e-06  7.93866208e-01  6.01767422e-06  1.67768540e+00                                 
 6.03116032e-06  8.22355986e-01  6.03116032e-06  7.70931650e-01  6.03116032e-06  8.10506313e-01  6.03116032e-06  0.00000000e+00  6.03116032e-06  1.79919150e+00  6.03116032e-06  7.74765906e-01  6.03116032e-06  8.09824858e-01  6.03116032e-06  1.65700621e+00                                 
