 time            v(vbep)         time            v(vben)         time            v(vout)         time            v(vphi1)        time            v(vphi2)        time            v(vref)         time            v(voutc)        time            v(voutcc)       yes             currtemp       
 0.00000000e+00  8.57066294e-01  0.00000000e+00  8.10606050e-01  0.00000000e+00  1.76698704e+00  0.00000000e+00  0.00000000e+00  0.00000000e+00  1.80000000e+00  0.00000000e+00  8.14734681e-01  0.00000000e+00  1.76698704e+00  0.00000000e+00  1.77135443e+00  1.00000000e+00 -3.00000000e+01 
 1.00000000e-11  8.57086531e-01  1.00000000e-11  8.10668192e-01  1.00000000e-11  1.76783306e+00  1.00000000e-11  1.80000000e-02  1.00000000e-11  1.80024082e+00  1.00000000e-11  8.15244906e-01  1.00000000e-11  1.76744049e+00  1.00000000e-11  1.77136784e+00                                 
 2.00000000e-11  8.57092355e-01  2.00000000e-11  8.10707746e-01  2.00000000e-11  1.76843252e+00  2.00000000e-11  3.60000000e-02  2.00000000e-11  1.80034494e+00  2.00000000e-11  8.15635372e-01  2.00000000e-11  1.76780339e+00  2.00000000e-11  1.77137478e+00                                 
 4.00000000e-11  8.57092568e-01  4.00000000e-11  8.10759988e-01  4.00000000e-11  1.76927548e+00  4.00000000e-11  7.20000000e-02  4.00000000e-11  1.80039999e+00  4.00000000e-11  8.16221289e-01  4.00000000e-11  1.76837817e+00  4.00000000e-11  1.77138063e+00                                 
 8.00000000e-11  8.57082370e-01  8.00000000e-11  8.10791745e-01  8.00000000e-11  1.76981413e+00  8.00000000e-11  1.44000000e-01  8.00000000e-11  1.80021931e+00  8.00000000e-11  8.16719299e-01  8.00000000e-11  1.76898288e+00  8.00000000e-11  1.77137302e+00                                 
 1.60000000e-10  8.57079045e-01  1.60000000e-10  8.10791025e-01  1.60000000e-10  1.76974341e+00  1.60000000e-10  2.88000000e-01  1.60000000e-10  1.80002704e+00  1.60000000e-10  8.16822729e-01  1.60000000e-10  1.76934034e+00  1.60000000e-10  1.77135829e+00                                 
 3.20000000e-10  8.57077100e-01  3.20000000e-10  8.10787294e-01  3.20000000e-10  1.76949824e+00  3.20000000e-10  5.76000000e-01  3.20000000e-10  1.80003184e+00  3.20000000e-10  8.16798855e-01  3.20000000e-10  1.76949923e+00  3.20000000e-10  1.77135480e+00                                 
 6.40000000e-10  8.57010901e-01  6.40000000e-10  8.10611744e-01  6.40000000e-10  1.76032731e+00  6.40000000e-10  1.15200000e+00  6.40000000e-10  1.81352730e+00  6.40000000e-10  8.16684646e-01  6.40000000e-10  1.77311686e+00  6.40000000e-10  1.77137849e+00                                 
 9.89961521e-10  8.57342090e-01  9.89961521e-10  8.10575600e-01  9.89961521e-10  1.72616316e+00  9.89961521e-10  1.78193074e+00  9.89961521e-10  7.14642759e-02  9.89961521e-10  8.14641290e-01  9.89961521e-10  1.75835238e+00  9.89961521e-10  1.77122888e+00                                 
 1.00000000e-09  8.57370013e-01  1.00000000e-09  8.10654589e-01  1.00000000e-09  1.72577352e+00  1.00000000e-09  1.80000000e+00  1.00000000e-09  1.87971148e-02  1.00000000e-09  8.15684904e-01  1.00000000e-09  1.75853847e+00  1.00000000e-09  1.77126657e+00                                 
 1.02007696e-09  8.57375848e-01  1.02007696e-09  8.10687971e-01  1.02007696e-09  1.72565329e+00  1.02007696e-09  1.80000000e+00  1.02007696e-09  6.33433304e-03  1.02007696e-09  8.17216513e-01  1.02007696e-09  1.75975104e+00  1.02007696e-09  1.77132104e+00                                 
 1.06023088e-09  8.57460938e-01  1.06023088e-09  8.10725404e-01  1.06023088e-09  1.72456743e+00  1.06023088e-09  1.80000000e+00  1.06023088e-09 -9.91921533e-04  1.06023088e-09  8.18888699e-01  1.06023088e-09  1.76117532e+00  1.06023088e-09  1.77136171e+00                                 
 1.13603847e-09  8.57670399e-01  1.13603847e-09  8.10673871e-01  1.13603847e-09  1.71951695e+00  1.13603847e-09  1.80000000e+00  1.13603847e-09  1.76765023e-03  1.13603847e-09  8.18954982e-01  1.13603847e-09  1.76129275e+00  1.13603847e-09  1.77133113e+00                                 
 1.28765365e-09  8.57850708e-01  1.28765365e-09  8.10611082e-01  1.28765365e-09  1.71059309e+00  1.28765365e-09  1.80000000e+00  1.28765365e-09 -8.54330959e-04  1.28765365e-09  8.19397656e-01  1.28765365e-09  1.76161290e+00  1.28765365e-09  1.77134827e+00                                 
 1.49350956e-09  8.57865319e-01  1.49350956e-09  8.10607697e-01  1.49350956e-09  1.70675677e+00  1.49350956e-09  1.80000000e+00  1.49350956e-09  9.26726410e-04  1.49350956e-09  8.19880659e-01  1.49350956e-09  1.76204490e+00  1.49350956e-09  1.77135090e+00                                 
 1.74197641e-09  8.57715684e-01  1.74197641e-09  8.10588215e-01  1.74197641e-09  1.70809697e+00  1.74197641e-09  1.80000000e+00  1.74197641e-09 -8.35601323e-04  1.74197641e-09  8.19725879e-01  1.74197641e-09  1.76188309e+00  1.74197641e-09  1.77135370e+00                                 
 1.98453067e-09  8.57564659e-01  1.98453067e-09  8.10596860e-01  1.98453067e-09  1.71073189e+00  1.98453067e-09  1.80000000e+00  1.98453067e-09  6.94519786e-04  1.98453067e-09  8.19665694e-01  1.98453067e-09  1.76185610e+00  1.98453067e-09  1.77135817e+00                                 
 2.35864833e-09  8.57351643e-01  2.35864833e-09  8.10587977e-01  2.35864833e-09  1.71466389e+00  2.35864833e-09  1.80000000e+00  2.35864833e-09 -6.98235059e-04  2.35864833e-09  8.19283780e-01  2.35864833e-09  1.76151113e+00  2.35864833e-09  1.77135614e+00                                 
 3.00954504e-09  8.57114349e-01  3.00954504e-09  8.10595083e-01  3.00954504e-09  1.72092855e+00  3.00954504e-09  1.80000000e+00  3.00954504e-09  6.16190202e-04  3.00954504e-09  8.18855143e-01  3.00954504e-09  1.76117064e+00  3.00954504e-09  1.77135590e+00                                 
 4.31133847e-09  8.56925034e-01  4.31133847e-09  8.10588916e-01  4.31133847e-09  1.73066096e+00  4.31133847e-09  1.80000000e+00  4.31133847e-09 -6.51786298e-04  4.31133847e-09  8.17850692e-01  4.31133847e-09  1.76030475e+00  4.31133847e-09  1.77133350e+00                                 
 6.91492534e-09  8.56953243e-01  6.91492534e-09  8.10600164e-01  6.91492534e-09  1.74250989e+00  6.91492534e-09  1.80000000e+00  6.91492534e-09  6.03867265e-04  6.91492534e-09  8.16506573e-01  6.91492534e-09  1.75919463e+00  6.91492534e-09  1.77126583e+00                                 
 9.99647223e-09  8.57022274e-01  9.99647223e-09  8.10598485e-01  9.99647223e-09  1.74798833e+00  9.99647223e-09  1.80000000e+00  9.99647223e-09 -6.29894889e-04  9.99647223e-09  8.15412347e-01  9.99647223e-09  1.75825471e+00  9.99647223e-09  1.77113972e+00                                 
 1.32302103e-08  8.57041072e-01  1.32302103e-08  8.10607514e-01  1.32302103e-08  1.74939132e+00  1.32302103e-08  1.80000000e+00  1.32302103e-08  6.00010633e-04  1.32302103e-08  8.14925586e-01  1.32302103e-08  1.75786348e+00  1.32302103e-08  1.77098499e+00                                 
 1.67553191e-08  8.57049616e-01  1.67553191e-08  8.10602153e-01  1.67553191e-08  1.74880856e+00  1.67553191e-08  1.80000000e+00  1.67553191e-08 -6.15319186e-04  1.67553191e-08  8.14552799e-01  1.67553191e-08  1.75752617e+00  1.67553191e-08  1.77079208e+00                                 
 2.10002013e-08  8.57054666e-01  2.10002013e-08  8.10609074e-01  2.10002013e-08  1.74790538e+00  2.10002013e-08  1.80000000e+00  2.10002013e-08  5.96172635e-04  2.10002013e-08  8.14481219e-01  2.10002013e-08  1.75747738e+00  2.10002013e-08  1.77055798e+00                                 
 2.65204219e-08  8.57051054e-01  2.65204219e-08  8.10602936e-01  2.65204219e-08  1.74702370e+00  2.65204219e-08  1.80000000e+00  2.65204219e-08 -6.02068031e-04  2.65204219e-08  8.14359044e-01  2.65204219e-08  1.75734238e+00  2.65204219e-08  1.77024575e+00                                 
 3.39401345e-08  8.57061753e-01  3.39401345e-08  8.10609268e-01  3.39401345e-08  1.74481551e+00  3.39401345e-08  1.80000000e+00  3.39401345e-08  5.96256608e-04  3.39401345e-08  8.14446352e-01  3.39401345e-08  1.75741635e+00  3.39401345e-08  1.76984431e+00                                 
 4.45726409e-08  8.57066176e-01  4.45726409e-08  8.10602992e-01  4.45726409e-08  1.73808838e+00  4.45726409e-08  1.80000000e+00  4.45726409e-08 -5.96191819e-04  4.45726409e-08  8.14418508e-01  4.45726409e-08  1.75734876e+00  4.45726409e-08  1.76928878e+00                                 
 6.16246226e-08  8.57068679e-01  6.16246226e-08  8.10609237e-01  6.16246226e-08  1.72497305e+00  6.16246226e-08  1.80000000e+00  6.16246226e-08  5.94248090e-04  6.16246226e-08  8.14555832e-01  6.16246226e-08  1.75744974e+00  6.16246226e-08  1.76847358e+00                                 
 8.59158345e-08  8.57066199e-01  8.59158345e-08  8.10602964e-01  8.59158345e-08  1.70398135e+00  8.59158345e-08  1.80000000e+00  8.59158345e-08 -5.94717542e-04  8.59158345e-08  8.14549844e-01  8.59158345e-08  1.75738872e+00  8.59158345e-08  1.76743980e+00                                 
 1.34092561e-07  8.57067542e-01  1.34092561e-07  8.10609183e-01  1.34092561e-07  1.65724229e+00  1.34092561e-07  1.80000000e+00  1.34092561e-07  5.93066001e-04  1.34092561e-07  8.14701863e-01  1.34092561e-07  1.75748586e+00  1.34092561e-07  1.76580880e+00                                 
 2.30446015e-07  8.57065462e-01  2.30446015e-07  8.10602934e-01  2.30446015e-07  1.55472811e+00  2.30446015e-07  1.80000000e+00  2.30446015e-07 -5.94357755e-04  2.30446015e-07  8.14687329e-01  2.30446015e-07  1.75740088e+00  2.30446015e-07  1.76374470e+00                                 
 4.23152923e-07  8.57067183e-01  4.23152923e-07  8.10609167e-01  4.23152923e-07  1.34972555e+00  4.23152923e-07  1.80000000e+00  4.23152923e-07  5.92837751e-04  4.23152923e-07  8.14773036e-01  4.23152923e-07  1.75744999e+00  4.23152923e-07  1.76214985e+00                                 
 8.08566738e-07  8.57065403e-01  8.08566738e-07  8.10602934e-01  8.08566738e-07  9.61934257e-01  8.08566738e-07  1.80000000e+00  8.08566738e-07 -5.94017415e-04  8.08566738e-07  8.14697236e-01  8.08566738e-07  1.75734148e+00  8.08566738e-07  1.76175772e+00                                 
 8.59184988e-07  8.57066281e-01  8.59184988e-07  8.10606048e-01  8.59184988e-07  9.17268657e-01  8.59184988e-07  1.80000000e+00  8.59184988e-07 -6.05896457e-07  8.59184988e-07  8.14733635e-01  8.59184988e-07  1.75737970e+00  8.59184988e-07  1.76177246e+00                                 
 9.60421486e-07  8.57066391e-01  9.60421486e-07  8.10606056e-01  9.60421486e-07  8.50458590e-01  9.60421486e-07  1.80000000e+00  9.60421486e-07 -7.62102684e-08  9.60421486e-07  8.14734723e-01  9.60421486e-07  1.75737651e+00  9.60421486e-07  1.76179052e+00                                 
 1.11998679e-06  8.57066193e-01  1.11998679e-06  8.10606047e-01  1.11998679e-06  8.17596167e-01  1.11998679e-06  1.80000000e+00  1.11998679e-06 -9.94921176e-08  1.11998679e-06  8.14735388e-01  1.11998679e-06  1.75737019e+00  1.11998679e-06  1.76179770e+00                                 
 1.17594990e-06  8.57066315e-01  1.17594990e-06  8.10606045e-01  1.17594990e-06  8.18425687e-01  1.17594990e-06  1.80000000e+00  1.17594990e-06  1.21900857e-07  1.17594990e-06  8.14734496e-01  1.17594990e-06  1.75736697e+00  1.17594990e-06  1.76179684e+00                                 
 1.24113932e-06  8.57066268e-01  1.24113932e-06  8.10606060e-01  1.24113932e-06  8.18745416e-01  1.24113932e-06  1.80000000e+00  1.24113932e-06 -1.03957647e-07  1.24113932e-06  8.14734963e-01  1.24113932e-06  1.75736447e+00  1.24113932e-06  1.76179505e+00                                 
 1.31927561e-06  8.57066310e-01  1.31927561e-06  8.10606038e-01  1.31927561e-06  8.18890765e-01  1.31927561e-06  1.80000000e+00  1.31927561e-06  1.17477001e-07  1.31927561e-06  8.14734458e-01  1.31927561e-06  1.75736057e+00  1.31927561e-06  1.76179235e+00                                 
 1.47554818e-06  8.57066282e-01  1.47554818e-06  8.10606064e-01  1.47554818e-06  8.18925573e-01  1.47554818e-06  1.80000000e+00  1.47554818e-06 -1.04292863e-07  1.47554818e-06  8.14734899e-01  1.47554818e-06  1.75735396e+00  1.47554818e-06  1.76178606e+00                                 
 1.78809333e-06  8.57066308e-01  1.78809333e-06  8.10606037e-01  1.78809333e-06  8.18931894e-01  1.78809333e-06  1.80000000e+00  1.78809333e-06  1.16921862e-07  1.78809333e-06  8.14734469e-01  1.78809333e-06  1.75733965e+00  1.78809333e-06  1.76177242e+00                                 
 2.41318363e-06  8.57066283e-01  2.41318363e-06  8.10606065e-01  2.41318363e-06  8.18923884e-01  2.41318363e-06  1.80000000e+00  2.41318363e-06 -1.04140182e-07  2.41318363e-06  8.14734891e-01  2.41318363e-06  1.75731204e+00  2.41318363e-06  1.76174459e+00                                 
 3.61318363e-06  8.57066307e-01  3.61318363e-06  8.10606036e-01  3.61318363e-06  8.18932336e-01  3.61318363e-06  1.80000000e+00  3.61318363e-06  1.16851763e-07  3.61318363e-06  8.14734470e-01  3.61318363e-06  1.75725797e+00  3.61318363e-06  1.76169117e+00                                 
 4.81318363e-06  8.57066283e-01  4.81318363e-06  8.10606065e-01  4.81318363e-06  8.18923439e-01  4.81318363e-06  1.80000000e+00  4.81318363e-06 -1.04094117e-07  4.81318363e-06  8.14734889e-01  4.81318363e-06  1.75720470e+00  4.81318363e-06  1.76163780e+00                                 
 6.00100000e-06  8.57066307e-01  6.00100000e-06  8.10606036e-01  6.00100000e-06  8.18932408e-01  6.00100000e-06  1.80000000e+00  6.00100000e-06  1.16807570e-07  6.00100000e-06  8.14734473e-01  6.00100000e-06  1.75715134e+00  6.00100000e-06  1.76158507e+00                                 
 6.00110000e-06  8.57037988e-01  6.00110000e-06  8.10397270e-01  6.00110000e-06  8.16791458e-01  6.00110000e-06  1.62000000e+00  6.00110000e-06 -9.16891756e-05  6.00110000e-06  8.12787296e-01  6.00110000e-06  1.75551276e+00  6.00110000e-06  1.76156781e+00                                 
 6.00130000e-06  8.57065149e-01  6.00130000e-06  8.10468508e-01  6.00130000e-06  8.17635133e-01  6.00130000e-06  1.26000000e+00  6.00130000e-06  5.20487045e-05  6.00130000e-06  8.13216050e-01  6.00130000e-06  1.75587668e+00  6.00130000e-06  1.76159461e+00                                 
 6.00170000e-06  8.57088322e-01  6.00170000e-06  8.10535249e-01  6.00170000e-06  8.18824648e-01  6.00170000e-06  5.40000000e-01  6.00170000e-06 -2.65628563e-03  6.00170000e-06  8.12841073e-01  6.00170000e-06  1.75160573e+00  6.00170000e-06  1.76155028e+00                                 
 6.00200000e-06  8.57064813e-01  6.00200000e-06  8.08104132e-01  6.00200000e-06  8.70620079e-01  6.00200000e-06  0.00000000e+00  6.00200000e-06  1.57429922e+00  6.00200000e-06  7.79079540e-01  6.00200000e-06  1.54152468e+00  6.00200000e-06  1.76052622e+00                                 
 6.00205193e-06  8.57070454e-01  6.00205193e-06  8.08065232e-01  6.00205193e-06  8.69553022e-01  6.00205193e-06  0.00000000e+00  6.00205193e-06  1.72846985e+00  6.00205193e-06  7.77985490e-01  6.00205193e-06  1.48142790e+00  6.00205193e-06  1.76085577e+00                                 
 6.00215580e-06  8.57064665e-01  6.00215580e-06  8.08409071e-01  6.00215580e-06  8.58126257e-01  6.00215580e-06  0.00000000e+00  6.00215580e-06  1.82163866e+00  6.00215580e-06  7.81973168e-01  6.00215580e-06  1.37283813e+00  6.00215580e-06  1.76144855e+00                                 
 6.00231686e-06  8.57064946e-01  6.00231686e-06  8.09288793e-01  6.00231686e-06  8.42467341e-01  6.00231686e-06  0.00000000e+00  6.00231686e-06  1.78636616e+00  6.00231686e-06  7.93269172e-01  6.00231686e-06  1.25551700e+00  6.00231686e-06  1.76157325e+00                                 
 6.00249317e-06  8.57066149e-01  6.00249317e-06  8.09615385e-01  6.00249317e-06  8.39406245e-01  6.00249317e-06  0.00000000e+00  6.00249317e-06  1.80677079e+00  6.00249317e-06  7.97149180e-01  6.00249317e-06  1.17093252e+00  6.00249317e-06  1.76162507e+00                                 
 6.00276087e-06  8.57064302e-01  6.00276087e-06  8.09976699e-01  6.00276087e-06  8.32162145e-01  6.00276087e-06  0.00000000e+00  6.00276087e-06  1.79469333e+00  6.00276087e-06  8.01382757e-01  6.00276087e-06  1.08100356e+00  6.00276087e-06  1.76168112e+00                                 
 6.00303883e-06  8.57066657e-01  6.00303883e-06  8.10246580e-01  6.00303883e-06  8.30651856e-01  6.00303883e-06  0.00000000e+00  6.00303883e-06  1.80341872e+00  6.00303883e-06  8.04454648e-01  6.00303883e-06  1.01471776e+00  6.00303883e-06  1.76176425e+00                                 
 6.00359473e-06  8.57064597e-01  6.00359473e-06  8.10492938e-01  6.00359473e-06  8.26682376e-01  6.00359473e-06  0.00000000e+00  6.00359473e-06  1.79675956e+00  6.00359473e-06  8.06995267e-01  6.00359473e-06  9.09017274e-01  6.00359473e-06  1.76184572e+00                                 
 6.00413124e-06  8.57067162e-01  6.00413124e-06  8.10818227e-01  6.00413124e-06  8.23331670e-01  6.00413124e-06  0.00000000e+00  6.00413124e-06  1.80239138e+00  6.00413124e-06  8.11142918e-01  6.00413124e-06  8.49855755e-01  6.00413124e-06  1.76186453e+00                                 
 6.00508693e-06  8.57064975e-01  6.00508693e-06  8.11013719e-01  6.00508693e-06  8.18912579e-01  6.00508693e-06  0.00000000e+00  6.00508693e-06  1.79774736e+00  6.00508693e-06  8.14411963e-01  6.00508693e-06  8.17556977e-01  6.00508693e-06  1.76165984e+00                                 
 6.00584746e-06  8.57067430e-01  6.00584746e-06  8.11007381e-01  6.00584746e-06  8.19295288e-01  6.00584746e-06  0.00000000e+00  6.00584746e-06  1.80199980e+00  6.00584746e-06  8.15358282e-01  6.00584746e-06  8.19722298e-01  6.00584746e-06  1.76136071e+00                                 
 6.00673595e-06  8.57065107e-01  6.00673595e-06  8.10869051e-01  6.00673595e-06  8.19420671e-01  6.00673595e-06  0.00000000e+00  6.00673595e-06  1.79820129e+00  6.00673595e-06  8.14795387e-01  6.00673595e-06  8.19069759e-01  6.00673595e-06  1.76089344e+00                                 
 6.00775630e-06  8.57067467e-01  6.00775630e-06  8.10827696e-01  6.00775630e-06  8.20016729e-01  6.00775630e-06  0.00000000e+00  6.00775630e-06  1.80163493e+00  6.00775630e-06  8.15432309e-01  6.00775630e-06  8.20105379e-01  6.00775630e-06  1.76032827e+00                                 
 6.00979702e-06  8.57065136e-01  6.00979702e-06  8.10685050e-01  6.00979702e-06  8.20845057e-01  6.00979702e-06  0.00000000e+00  6.00979702e-06  1.79844093e+00  6.00979702e-06  8.14958494e-01  6.00979702e-06  8.20509624e-01  6.00979702e-06  1.75909770e+00                                 
 6.01387844e-06  8.57067456e-01  6.01387844e-06  8.10654462e-01  6.01387844e-06  8.23194750e-01  6.01387844e-06  0.00000000e+00  6.01387844e-06  1.80152252e+00  6.01387844e-06  8.15517637e-01  6.01387844e-06  8.23212805e-01  6.01387844e-06  1.75659736e+00                                 
 6.02204129e-06  8.57065135e-01  6.02204129e-06  8.10593124e-01  6.02204129e-06  8.27863880e-01  6.02204129e-06  0.00000000e+00  6.02204129e-06  1.79849607e+00  6.02204129e-06  8.14968839e-01  6.02204129e-06  8.27470225e-01  6.02204129e-06  1.75153597e+00                                 
 6.03836699e-06  8.57067453e-01  6.03836699e-06  8.10620515e-01  6.03836699e-06  8.37814444e-01  6.03836699e-06  0.00000000e+00  6.03836699e-06  1.80149561e+00  6.03836699e-06  8.15362058e-01  6.03836699e-06  8.37813856e-01  6.03836699e-06  1.74090370e+00                                 
 6.07101839e-06  8.57065137e-01  6.07101839e-06  8.10586833e-01  6.07101839e-06  8.56507266e-01  6.07101839e-06  0.00000000e+00  6.07101839e-06  1.79850928e+00  6.07101839e-06  8.14708161e-01  6.07101839e-06  8.55975630e-01  6.07101839e-06  1.71642486e+00                                 
 6.13632119e-06  8.57067453e-01  6.13632119e-06  8.10624159e-01  6.13632119e-06  8.91246128e-01  6.13632119e-06  0.00000000e+00  6.13632119e-06  1.80148854e+00  6.13632119e-06  8.15060376e-01  6.13632119e-06  8.91302996e-01  6.13632119e-06  1.65789298e+00                                 
