 time            v(vbep)         time            v(vben)         time            v(vout)         time            v(vphi1)        time            v(vphi2)        time            v(vref)         yes             currtemp       
 0.00000000e+00  6.55364787e-01  0.00000000e+00  5.96838893e-01  0.00000000e+00  1.07850206e+00  0.00000000e+00  0.00000000e+00  0.00000000e+00  1.79994371e+00  0.00000000e+00  5.96838893e-01  1.00000000e+00  4.70000000e+01 
 5.00000000e-12  6.55330604e-01  5.00000000e-12  5.96810678e-01  5.00000000e-12  1.07923820e+00  5.00000000e-12  1.80000000e-02  5.00000000e-12  1.80007085e+00  5.00000000e-12  5.96810678e-01                                 
 1.00000000e-11  6.55297497e-01  1.00000000e-11  5.96783272e-01  1.00000000e-11  1.07990807e+00  1.00000000e-11  3.60000000e-02  1.00000000e-11  1.80014683e+00  1.00000000e-11  5.96783272e-01                                 
 2.00000000e-11  6.55231963e-01  2.00000000e-11  5.96728697e-01  2.00000000e-11  1.08114400e+00  2.00000000e-11  7.20000000e-02  2.00000000e-11  1.80023199e+00  2.00000000e-11  5.96728697e-01                                 
 4.00000000e-11  6.55102058e-01  4.00000000e-11  5.96620023e-01  4.00000000e-11  1.08313474e+00  4.00000000e-11  1.44000000e-01  4.00000000e-11  1.80022299e+00  4.00000000e-11  5.96620023e-01                                 
 8.00000000e-11  6.54843652e-01  8.00000000e-11  5.96403761e-01  8.00000000e-11  1.08580688e+00  8.00000000e-11  2.88000000e-01  8.00000000e-11  1.80012646e+00  8.00000000e-11  5.96403761e-01                                 
 1.60000000e-10  6.54332948e-01  1.60000000e-10  5.95975551e-01  1.60000000e-10  1.08804368e+00  1.60000000e-10  5.76000000e-01  1.60000000e-10  1.80001676e+00  1.60000000e-10  5.95975551e-01                                 
 3.20000000e-10  6.53334377e-01  3.20000000e-10  5.95135709e-01  3.20000000e-10  1.08090792e+00  3.20000000e-10  1.15200000e+00  3.20000000e-10  1.80029877e+00  3.20000000e-10  5.95135709e-01                                 
 5.00000000e-10  6.52246044e-01  5.00000000e-10  5.94216297e-01  5.00000000e-10  1.18445474e+00  5.00000000e-10  1.80000000e+00  5.00000000e-10  1.59655664e-01  5.00000000e-10  5.94216297e-01                                 
 5.21590335e-10  6.52118179e-01  5.21590335e-10  5.94107980e-01  5.21590335e-10  1.21059934e+00  5.21590335e-10  1.80000000e+00  5.21590335e-10  4.08619526e-02  5.21590335e-10  5.94107980e-01                                 
 5.64771005e-10  6.51863418e-01  5.64771005e-10  5.93892036e-01  5.64771005e-10  1.26266801e+00  5.64771005e-10  1.80000000e+00  5.64771005e-10 -1.50052236e-02  5.64771005e-10  5.93892036e-01                                 
 6.51132345e-10  6.51359758e-01  6.51132345e-10  5.93464459e-01  6.51132345e-10  1.35602443e+00  6.51132345e-10  1.80000000e+00  6.51132345e-10  1.26633877e-02  6.51132345e-10  5.93464459e-01                                 
 7.71470697e-10  6.50670646e-01  7.71470697e-10  5.92878018e-01  7.71470697e-10  1.46824594e+00  7.71470697e-10  1.80000000e+00  7.71470697e-10 -9.53882947e-03  7.71470697e-10  5.92878018e-01                                 
 9.53378624e-10  6.49655795e-01  9.53378624e-10  5.92011409e-01  9.53378624e-10  1.60400069e+00  9.53378624e-10  1.80000000e+00  9.53378624e-10  9.38433744e-03  9.53378624e-10  5.92011409e-01                                 
 1.31719448e-09  6.47715803e-01  1.31719448e-09  5.90345238e-01  1.31719448e-09  1.77129827e+00  1.31719448e-09  1.80000000e+00  1.31719448e-09 -8.21595781e-03  1.31719448e-09  5.90345238e-01                                 
 1.65095622e-09  6.46033659e-01  1.65095622e-09  5.88890250e-01  1.65095622e-09  1.84143602e+00  1.65095622e-09  1.80000000e+00  1.65095622e-09  8.02799444e-03  1.65095622e-09  5.88890250e-01                                 
 2.02327916e-09  6.44255926e-01  2.02327916e-09  5.87342518e-01  2.02327916e-09  1.87260468e+00  2.02327916e-09  1.80000000e+00  2.02327916e-09 -7.41593219e-03  2.02327916e-09  5.87342518e-01                                 
 2.37813936e-09  6.42649581e-01  2.37813936e-09  5.85935254e-01  2.37813936e-09  1.88324297e+00  2.37813936e-09  1.80000000e+00  2.37813936e-09  7.06521694e-03  2.37813936e-09  5.85935254e-01                                 
 2.90268251e-09  6.40414504e-01  2.90268251e-09  5.83963963e-01  2.90268251e-09  1.88650104e+00  2.90268251e-09  1.80000000e+00  2.90268251e-09 -6.73127350e-03  2.90268251e-09  5.83963963e-01                                 
 3.56370344e-09  6.37806617e-01  3.56370344e-09  5.81644902e-01  3.56370344e-09  1.88561348e+00  3.56370344e-09  1.80000000e+00  3.56370344e-09  6.55158589e-03  3.56370344e-09  5.81644902e-01                                 
 4.68636517e-09  6.33818279e-01  4.68636517e-09  5.78061364e-01  4.68636517e-09  1.88163274e+00  4.68636517e-09  1.80000000e+00  4.68636517e-09 -6.39864112e-03  4.68636517e-09  5.78061364e-01                                 
 6.44642529e-09  6.28439825e-01  6.44642529e-09  5.73162405e-01  6.44642529e-09  1.87682029e+00  6.44642529e-09  1.80000000e+00  6.44642529e-09  6.34905021e-03  6.44642529e-09  5.73162405e-01                                 
 9.96654551e-09  6.19843523e-01  9.96654551e-09  5.65194902e-01  9.96654551e-09  1.86853221e+00  9.96654551e-09  1.80000000e+00  9.96654551e-09 -6.27785712e-03  9.96654551e-09  5.65194902e-01                                 
 1.20936334e-08  6.15684081e-01  1.20936334e-08  5.61276366e-01  1.20936334e-08  1.86499385e+00  1.20936334e-08  1.80000000e+00  1.20936334e-08  6.24491055e-03  1.20936334e-08  5.61276366e-01                                 
 1.35903146e-08  6.13077787e-01  1.35903146e-08  5.58803832e-01  1.35903146e-08  1.86234476e+00  1.35903146e-08  1.80000000e+00  1.35903146e-08 -6.13046383e-03  1.35903146e-08  5.58803832e-01                                 
 1.51431283e-08  6.10597828e-01  1.51431283e-08  5.56440104e-01  1.51431283e-08  1.86040789e+00  1.51431283e-08  1.80000000e+00  1.51431283e-08  6.07187805e-03  1.51431283e-08  5.56440104e-01                                 
 1.68841304e-08  6.08046018e-01  1.68841304e-08  5.53997312e-01  1.68841304e-08  1.85784288e+00  1.68841304e-08  1.80000000e+00  1.68841304e-08 -5.97421984e-03  1.68841304e-08  5.53997312e-01                                 
 1.89538989e-08  6.05276377e-01  1.89538989e-08  5.51334601e-01  1.89538989e-08  1.85566685e+00  1.89538989e-08  1.80000000e+00  1.89538989e-08  5.93645013e-03  1.89538989e-08  5.51334601e-01                                 
 2.12972670e-08  6.02429619e-01  2.12972670e-08  5.48586075e-01  2.12972670e-08  1.85287256e+00  2.12972670e-08  1.80000000e+00  2.12972670e-08 -5.85970460e-03  2.12972670e-08  5.48586075e-01                                 
 2.49172769e-08  5.98513094e-01  2.49172769e-08  5.44787155e-01  2.49172769e-08  1.84972052e+00  2.49172769e-08  1.80000000e+00  2.49172769e-08  5.84852085e-03  2.49172769e-08  5.44787155e-01                                 
 2.85416095e-08  5.95064030e-01  2.85416095e-08  5.41425754e-01  2.85416095e-08  1.84628354e+00  2.85416095e-08  1.80000000e+00  2.85416095e-08 -5.79096140e-03  2.85416095e-08  5.41425754e-01                                 
 3.57902746e-08  5.89169865e-01  3.57902746e-08  5.35654272e-01  3.57902746e-08  1.83980028e+00  3.57902746e-08  1.80000000e+00  3.57902746e-08  5.79756530e-03  3.57902746e-08  5.35654272e-01                                 
 4.59931177e-08  5.82401723e-01  4.59931177e-08  5.29005097e-01  4.59931177e-08  1.82700785e+00  4.59931177e-08  1.80000000e+00  4.59931177e-08 -5.76199925e-03  4.59931177e-08  5.29005097e-01                                 
 6.13418103e-08  5.73590280e-01  6.13418103e-08  5.20475703e-01  6.13418103e-08  1.81009857e+00  6.13418103e-08  1.80000000e+00  6.13418103e-08  5.77808655e-03  6.13418103e-08  5.20475703e-01                                 
 7.86503321e-08  5.64302858e-01  7.86503321e-08  5.11741106e-01  7.86503321e-08  1.79292979e+00  7.86503321e-08  1.80000000e+00  7.86503321e-08 -5.74676487e-03  7.86503321e-08  5.11741106e-01                                 
 9.73903320e-08  5.53131754e-01  9.73903320e-08  5.01699180e-01  9.73903320e-08  1.76183772e+00  9.73903320e-08  1.80000000e+00  9.73903320e-08  5.76359726e-03  9.73903320e-08  5.01699180e-01                                 
 1.15596514e-07  5.44590479e-01  1.15596514e-07  4.93976492e-01  1.15596514e-07  1.72785283e+00  1.15596514e-07  1.80000000e+00  1.15596514e-07 -5.73352858e-03  1.15596514e-07  4.93976492e-01                                 
 1.40625503e-07  5.35080105e-01  1.40625503e-07  4.85354841e-01  1.40625503e-07  1.68551254e+00  1.40625503e-07  1.80000000e+00  1.40625503e-07  5.75259712e-03  1.40625503e-07  4.85354841e-01                                 
 1.66137388e-07  5.37138151e-01  1.66137388e-07  4.86016554e-01  1.66137388e-07  1.67738632e+00  1.66137388e-07  1.80000000e+00  1.66137388e-07 -5.72113959e-03  1.66137388e-07  4.86016554e-01                                 
 1.88051954e-07  5.39380240e-01  1.88051954e-07  4.87036768e-01  1.88051954e-07  1.66163870e+00  1.88051954e-07  1.80000000e+00  1.88051954e-07  5.74188901e-03  1.88051954e-07  4.87036768e-01                                 
 2.11834364e-07  5.35089121e-01  2.11834364e-07  4.82910224e-01  2.11834364e-07  1.63196263e+00  2.11834364e-07  1.80000000e+00  2.11834364e-07 -5.71198909e-03  2.11834364e-07  4.82910224e-01                                 
 2.34577253e-07  5.31104539e-01  2.34577253e-07  4.79130790e-01  2.34577253e-07  1.60601378e+00  2.34577253e-07  1.80000000e+00  2.34577253e-07  5.73168266e-03  2.34577253e-07  4.79130790e-01                                 
 2.55883176e-07  5.25748729e-01  2.55883176e-07  4.74361387e-01  2.55883176e-07  1.57952380e+00  2.55883176e-07  1.80000000e+00  2.55883176e-07 -5.70147872e-03  2.55883176e-07  4.74361387e-01                                 
 2.98281199e-07  5.14729417e-01  2.98281199e-07  4.64720816e-01  2.98281199e-07  1.52608572e+00  2.98281199e-07  1.80000000e+00  2.98281199e-07  5.72318087e-03  2.98281199e-07  4.64720816e-01                                 
 3.48504673e-07  5.01959706e-01  3.48504673e-07  4.53725043e-01  3.48504673e-07  1.46235247e+00  3.48504673e-07  1.80000000e+00  3.48504673e-07 -5.69626248e-03  3.48504673e-07  4.53725043e-01                                 
 4.48951621e-07  4.78888528e-01  4.48951621e-07  4.34150240e-01  4.48951621e-07  1.33637984e+00  4.48951621e-07  1.80000000e+00  4.48951621e-07  5.71976190e-03  4.48951621e-07  4.34150240e-01                                 
 5.46996080e-07  4.38450589e-01  5.46996080e-07  4.01295227e-01  5.46996080e-07  1.19542051e+00  5.46996080e-07  1.80000000e+00  5.46996080e-07 -5.69456564e-03  5.46996080e-07  4.01295227e-01                                 
 6.46495323e-07  4.18284525e-01  6.46495323e-07  3.84993418e-01  6.46495323e-07  1.07288512e+00  6.46495323e-07  1.80000000e+00  6.46495323e-07  5.71819933e-03  6.46495323e-07  3.84993418e-01                                 
 7.55668318e-07  7.23807713e-01  7.55668318e-07  6.62458885e-01  7.55668318e-07  1.25295488e+00  7.55668318e-07  1.80000000e+00  7.55668318e-07 -5.67967561e-03  7.55668318e-07  6.62458885e-01                                 
 7.69891916e-07  7.38115976e-01  7.69891916e-07  6.76006208e-01  7.69891916e-07  1.25305634e+00  7.69891916e-07  1.80000000e+00  7.69891916e-07  1.27457805e-06  7.69891916e-07  6.76006208e-01                                 
 7.98339111e-07  7.54837579e-01  7.98339111e-07  6.91060430e-01  7.98339111e-07  1.23953096e+00  7.98339111e-07  1.80000000e+00  7.98339111e-07  3.34861598e-06  7.98339111e-07  6.91060430e-01                                 
 8.55233500e-07  7.64173561e-01  8.55233500e-07  6.99108934e-01  8.55233500e-07  1.18873909e+00  8.55233500e-07  1.80000000e+00  8.55233500e-07 -8.03073894e-07  8.55233500e-07  6.99108934e-01                                 
 8.66405127e-07  7.64718097e-01  8.66405127e-07  6.99573473e-01  8.66405127e-07  1.17764139e+00  8.66405127e-07  1.80000000e+00  8.66405127e-07  1.00507673e-06  8.66405127e-07  6.99573473e-01                                 
 8.88748381e-07  7.65748036e-01  8.88748381e-07  7.00444592e-01  8.88748381e-07  1.15524689e+00  8.88748381e-07  1.80000000e+00  8.88748381e-07  9.87490923e-07  8.88748381e-07  7.00444592e-01                                 
 9.33434888e-07  7.67099184e-01  9.33434888e-07  7.01582344e-01  9.33434888e-07  1.10995701e+00  9.33434888e-07  1.80000000e+00  9.33434888e-07  9.42421297e-07  9.33434888e-07  7.01582344e-01                                 
 9.99561222e-07  7.64603954e-01  9.99561222e-07  6.99485403e-01  9.99561222e-07  1.04065913e+00  9.99561222e-07  1.80000000e+00  9.99561222e-07  7.19621481e-07  9.99561222e-07  6.99485403e-01                                 
 1.06188153e-06  7.49969069e-01  1.06188153e-06  6.86800605e-01  1.06188153e-06  9.70851146e-01  1.06188153e-06  1.80000000e+00  1.06188153e-06  1.65413126e-07  1.06188153e-06  6.86800605e-01                                 
 1.15724171e-06  7.50773375e-01  1.15724171e-06  6.87470900e-01  1.15724171e-06  9.01823651e-01  1.15724171e-06  1.80000000e+00  1.15724171e-06  2.06959304e-06  1.15724171e-06  6.87470900e-01                                 
 1.24611222e-06  7.63210233e-01  1.24611222e-06  6.98300798e-01  1.24611222e-06  8.57020620e-01  1.24611222e-06  1.80000000e+00  1.24611222e-06  9.03759444e-07  1.24611222e-06  6.98300798e-01                                 
 1.26197892e-06  7.59796351e-01  1.26197892e-06  6.95386573e-01  1.26197892e-06  8.44512362e-01  1.26197892e-06  1.80000000e+00  1.26197892e-06  7.02196981e-07  1.26197892e-06  6.95386573e-01                                 
 1.29371231e-06  7.53340538e-01  1.29371231e-06  6.89768182e-01  1.29371231e-06  8.20080223e-01  1.29371231e-06  1.80000000e+00  1.29371231e-06  7.69545455e-07  1.29371231e-06  6.89768182e-01                                 
 1.35717909e-06  7.51842467e-01  1.35717909e-06  6.88430497e-01  1.35717909e-06  7.83007377e-01  1.35717909e-06  1.80000000e+00  1.35717909e-06  1.56117020e-06  1.35717909e-06  6.88430497e-01                                 
 1.46547307e-06  7.58466205e-01  1.46547307e-06  6.94227499e-01  1.46547307e-06  7.39292649e-01  1.46547307e-06  1.80000000e+00  1.46547307e-06  1.27127358e-06  1.46547307e-06  6.94227499e-01                                 
 1.58100586e-06  7.53283644e-01  1.58100586e-06  6.89712396e-01  1.58100586e-06  7.02463899e-01  1.58100586e-06  1.80000000e+00  1.58100586e-06  1.25360184e-06  1.58100586e-06  6.89712396e-01                                 
 1.74702768e-06  7.55384423e-01  1.74702768e-06  6.91543104e-01  1.74702768e-06  6.83513049e-01  1.74702768e-06  1.80000000e+00  1.74702768e-06  1.64836638e-06  1.74702768e-06  6.91543104e-01                                 
 1.89992202e-06  7.56267971e-01  1.89992202e-06  6.92324258e-01  1.89992202e-06  6.83214798e-01  1.89992202e-06  1.80000000e+00  1.89992202e-06  1.31330090e-06  1.89992202e-06  6.92324258e-01                                 
 1.93202153e-06  7.54852029e-01  1.93202153e-06  6.91085834e-01  1.93202153e-06  6.85185835e-01  1.93202153e-06  1.80000000e+00  1.93202153e-06  1.41125302e-06  1.93202153e-06  6.91085834e-01                                 
 1.99622055e-06  7.54314260e-01  1.99622055e-06  6.90611025e-01  1.99622055e-06  6.89570350e-01  1.99622055e-06  1.80000000e+00  1.99622055e-06  1.54598565e-06  1.99622055e-06  6.90611025e-01                                 
 2.12461859e-06  7.55963414e-01  2.12461859e-06  6.92054051e-01  2.12461859e-06  6.92835495e-01  2.12461859e-06  1.80000000e+00  2.12461859e-06  1.45905685e-06  2.12461859e-06  6.92054051e-01                                 
 2.33420171e-06  7.54524836e-01  2.33420171e-06  6.90797667e-01  2.33420171e-06  6.90524166e-01  2.33420171e-06  1.80000000e+00  2.33420171e-06  1.44684864e-06  2.33420171e-06  6.90797667e-01                                 
 2.52994341e-06  7.55459620e-01  2.52994341e-06  6.91613279e-01  2.52994341e-06  6.91960958e-01  2.52994341e-06  1.80000000e+00  2.52994341e-06  1.51551631e-06  2.52994341e-06  6.91613279e-01                                 
 2.92142681e-06  7.54999186e-01  2.92142681e-06  6.91213423e-01  2.92142681e-06  6.91195177e-01  2.92142681e-06  1.80000000e+00  2.92142681e-06  1.41811674e-06  2.92142681e-06  6.91213423e-01                                 
 3.54726433e-06  7.55198938e-01  3.54726433e-06  6.91385394e-01  3.54726433e-06  6.91635590e-01  3.54726433e-06  1.80000000e+00  3.54726433e-06  1.52288632e-06  3.54726433e-06  6.91385394e-01                                 
 4.54726433e-06  7.55157650e-01  4.54726433e-06  6.91351960e-01  4.54726433e-06  6.91384455e-01  4.54726433e-06  1.80000000e+00  4.54726433e-06  1.41617479e-06  4.54726433e-06  6.91351960e-01                                 
 5.54726433e-06  7.55082623e-01  5.54726433e-06  6.91283734e-01  5.54726433e-06  6.91499767e-01  5.54726433e-06  1.80000000e+00  5.54726433e-06  1.52294768e-06  5.54726433e-06  6.91283734e-01                                 
 6.54726433e-06  7.55268306e-01  6.54726433e-06  6.91448621e-01  6.54726433e-06  6.91511810e-01  6.54726433e-06  1.80000000e+00  6.54726433e-06  1.41715475e-06  6.54726433e-06  6.91448621e-01                                 
 7.54726433e-06  7.54978083e-01  7.54726433e-06  6.91192382e-01  7.54726433e-06  6.91381014e-01  7.54726433e-06  1.80000000e+00  7.54726433e-06  1.52098302e-06  7.54726433e-06  6.91192382e-01                                 
 8.54726433e-06  7.55365245e-01  8.54726433e-06  6.91533224e-01  8.54726433e-06  6.91620879e-01  8.54726433e-06  1.80000000e+00  8.54726433e-06  1.42003922e-06  8.54726433e-06  6.91533224e-01                                 
 9.54726433e-06  7.54887963e-01  9.54726433e-06  6.91113657e-01  9.54726433e-06  6.91280611e-01  9.54726433e-06  1.80000000e+00  9.54726433e-06  1.51724632e-06  9.54726433e-06  6.91113657e-01                                 
 1.00005000e-05  7.55486866e-01  1.00005000e-05  6.91639229e-01  1.00005000e-05  6.91755464e-01  1.00005000e-05  1.80000000e+00  1.00005000e-05  1.42790597e-06  1.00005000e-05  6.91639229e-01                                 
 1.00005500e-05  7.55485920e-01  1.00005500e-05  6.91638410e-01  1.00005500e-05  6.84765445e-01  1.00005500e-05  1.62000000e+00  1.00005500e-05 -1.21425851e-04  1.00005500e-05  6.91638410e-01                                 
 1.00006500e-05  7.55484055e-01  1.00006500e-05  6.91636781e-01  1.00006500e-05  6.73876701e-01  1.00006500e-05  1.26000000e+00  1.00006500e-05 -8.08181489e-05  1.00006500e-05  6.91636781e-01                                 
 1.00008500e-05  7.55480335e-01  1.00008500e-05  6.91633529e-01  1.00008500e-05  6.67780242e-01  1.00008500e-05  5.40000000e-01  1.00008500e-05 -3.87560230e-03  1.00008500e-05  6.91633529e-01                                 
 1.00010000e-05  7.55477546e-01  1.00010000e-05  6.91631093e-01  1.00010000e-05  7.08747973e-01  1.00010000e-05  0.00000000e+00  1.00010000e-05  1.51796747e+00  1.00010000e-05  6.91631093e-01                                 
 1.00010255e-05  7.55477070e-01  1.00010255e-05  6.91630678e-01  1.00010255e-05  7.27480000e-01  1.00010255e-05  0.00000000e+00  1.00010255e-05  1.69407415e+00  1.00010255e-05  6.91630678e-01                                 
 1.00010765e-05  7.55476092e-01  1.00010765e-05  6.91629833e-01  1.00010765e-05  7.63299435e-01  1.00010765e-05  0.00000000e+00  1.00010765e-05  1.82348918e+00  1.00010765e-05  6.91629833e-01                                 
 1.00011786e-05  7.55474091e-01  1.00011786e-05  6.91628105e-01  1.00011786e-05  8.05184158e-01  1.00011786e-05  0.00000000e+00  1.00011786e-05  1.78743573e+00  1.00011786e-05  6.91628105e-01                                 
