 time            v(vbep)         time            v(vben)         time            v(vout)         time            v(vphi1)        time            v(vphi2)        time            v(vref)         time            v(voutc)        time            v(voutcc)       yes             currtemp       
 0.00000000e+00  7.37359214e-01  0.00000000e+00  6.73926738e-01  0.00000000e+00  1.53157413e+00  0.00000000e+00  0.00000000e+00  0.00000000e+00  1.80000000e+00  0.00000000e+00  6.75346728e-01  0.00000000e+00  1.53157413e+00  0.00000000e+00  1.53865184e+00  1.00000000e+00  5.10000000e+01 
 1.00000000e-11  7.37384331e-01  1.00000000e-11  6.73998563e-01  1.00000000e-11  1.53234767e+00  1.00000000e-11  1.80000000e-02  1.00000000e-11  1.80025296e+00  1.00000000e-11  6.75880414e-01  1.00000000e-11  1.53204580e+00  1.00000000e-11  1.53866606e+00                                 
 2.00000000e-11  7.37391201e-01  2.00000000e-11  6.74043309e-01  2.00000000e-11  1.53281725e+00  2.00000000e-11  3.60000000e-02  2.00000000e-11  1.80035262e+00  2.00000000e-11  6.76275820e-01  2.00000000e-11  1.53240126e+00  2.00000000e-11  1.53867132e+00                                 
 4.00000000e-11  7.37391215e-01  4.00000000e-11  6.74102073e-01  4.00000000e-11  1.53337567e+00  4.00000000e-11  7.20000000e-02  4.00000000e-11  1.80038997e+00  4.00000000e-11  6.76853831e-01  4.00000000e-11  1.53292966e+00  4.00000000e-11  1.53867304e+00                                 
 8.00000000e-11  7.37379551e-01  8.00000000e-11  6.74139531e-01  8.00000000e-11  1.53347329e+00  8.00000000e-11  1.44000000e-01  8.00000000e-11  1.80018510e+00  8.00000000e-11  6.77302686e-01  8.00000000e-11  1.53335633e+00  8.00000000e-11  1.53866251e+00                                 
 1.60000000e-10  7.37376788e-01  1.60000000e-10  6.74149952e-01  1.60000000e-10  1.53313697e+00  1.60000000e-10  2.88000000e-01  1.60000000e-10  1.80000487e+00  1.60000000e-10  6.77386292e-01  1.60000000e-10  1.53340324e+00  1.60000000e-10  1.53865311e+00                                 
 3.20000000e-10  7.37372537e-01  3.20000000e-10  6.74144067e-01  3.20000000e-10  1.53275738e+00  3.20000000e-10  5.76000000e-01  3.20000000e-10  1.79998521e+00  3.20000000e-10  6.77230313e-01  3.20000000e-10  1.53307508e+00  3.20000000e-10  1.53864842e+00                                 
 6.40000000e-10  7.37289073e-01  6.40000000e-10  6.73741852e-01  6.40000000e-10  1.53086412e+00  6.40000000e-10  1.15200000e+00  6.40000000e-10  1.81073997e+00  6.40000000e-10  6.74735934e-01  6.40000000e-10  1.53738559e+00  6.40000000e-10  1.53867551e+00                                 
 1.00000000e-09  7.37897408e-01  1.00000000e-09  6.74063195e-01  1.00000000e-09  1.50820920e+00  1.00000000e-09  1.80000000e+00  1.00000000e-09  9.80493530e-02  1.00000000e-09  6.88151697e-01  1.00000000e-09  1.54002207e+00  1.00000000e-09  1.53865624e+00                                 
 1.03681005e-09  7.37956372e-01  1.03681005e-09  6.74088716e-01  1.03681005e-09  1.50697831e+00  1.03681005e-09  1.80000000e+00  1.03681005e-09  2.24799234e-02  1.03681005e-09  6.91257043e-01  1.03681005e-09  1.54173853e+00  1.03681005e-09  1.53868796e+00                                 
 1.11043016e-09  7.38099989e-01  1.11043016e-09  6.74144381e-01  1.11043016e-09  1.50555059e+00  1.11043016e-09  1.80000000e+00  1.11043016e-09 -1.06655217e-02  1.11043016e-09  6.95245353e-01  1.11043016e-09  1.54484107e+00  1.11043016e-09  1.53870900e+00                                 
 1.25767037e-09  7.38221789e-01  1.25767037e-09  6.74007958e-01  1.25767037e-09  1.50290242e+00  1.25767037e-09  1.80000000e+00  1.25767037e-09  8.66547631e-03  1.25767037e-09  6.95392823e-01  1.25767037e-09  1.54523831e+00  1.25767037e-09  1.53866126e+00                                 
 1.45319148e-09  7.38195295e-01  1.45319148e-09  6.73986617e-01  1.45319148e-09  1.50220873e+00  1.45319148e-09  1.80000000e+00  1.45319148e-09 -6.66272686e-03  1.45319148e-09  6.94602647e-01  1.45319148e-09  1.54435286e+00  1.45319148e-09  1.53869533e+00                                 
 1.66964004e-09  7.38099040e-01  1.66964004e-09  6.73982351e-01  1.66964004e-09  1.50202624e+00  1.66964004e-09  1.80000000e+00  1.66964004e-09  5.62622811e-03  1.66964004e-09  6.93111538e-01  1.66964004e-09  1.54326396e+00  1.66964004e-09  1.53871440e+00                                 
 2.03110840e-09  7.37850996e-01  2.03110840e-09  6.73935588e-01  2.03110840e-09  1.50184799e+00  2.03110840e-09  1.80000000e+00  2.03110840e-09 -5.05498305e-03  2.03110840e-09  6.90609844e-01  2.03110840e-09  1.54096771e+00  2.03110840e-09  1.53881949e+00                                 
 2.49700064e-09  7.37608319e-01  2.49700064e-09  6.73938613e-01  2.49700064e-09  1.50186504e+00  2.49700064e-09  1.80000000e+00  2.49700064e-09  4.55299059e-03  2.49700064e-09  6.87915196e-01  2.49700064e-09  1.53880856e+00  2.49700064e-09  1.53894821e+00                                 
 3.17801257e-09  7.37369606e-01  3.17801257e-09  6.73893327e-01  3.17801257e-09  1.50104475e+00  3.17801257e-09  1.80000000e+00  3.17801257e-09 -4.37955051e-03  3.17801257e-09  6.84145540e-01  3.17801257e-09  1.53545170e+00  3.17801257e-09  1.53914552e+00                                 
 4.19610656e-09  7.37224355e-01  4.19610656e-09  6.73910873e-01  4.19610656e-09  1.50002195e+00  4.19610656e-09  1.80000000e+00  4.19610656e-09  4.14616995e-03  4.19610656e-09  6.80289422e-01  4.19610656e-09  1.53228936e+00  4.19610656e-09  1.53934485e+00                                 
 5.90003522e-09  7.37142824e-01  5.90003522e-09  6.73887158e-01  5.90003522e-09  1.49676807e+00  5.90003522e-09  1.80000000e+00  5.90003522e-09 -4.08878309e-03  5.90003522e-09  6.75989162e-01  5.90003522e-09  1.52849945e+00  5.90003522e-09  1.53945407e+00                                 
 7.39016435e-09  7.37173714e-01  7.39016435e-09  6.73923069e-01  7.39016435e-09  1.49292551e+00  7.39016435e-09  1.80000000e+00  7.39016435e-09  3.96338952e-03  7.39016435e-09  6.74502451e-01  7.39016435e-09  1.52735778e+00  7.39016435e-09  1.53934363e+00                                 
 8.81492059e-09  7.37202205e-01  8.81492059e-09  6.73900817e-01  8.81492059e-09  1.48748482e+00  8.81492059e-09  1.80000000e+00  8.81492059e-09 -3.86605457e-03  8.81492059e-09  6.73513463e-01  8.81492059e-09  1.52639389e+00  8.81492059e-09  1.53914748e+00                                 
 1.03348731e-08  7.37256637e-01  1.03348731e-08  6.73933489e-01  1.03348731e-08  1.48098630e+00  1.03348731e-08  1.80000000e+00  1.03348731e-08  3.76218433e-03  1.03348731e-08  6.73410606e-01  1.03348731e-08  1.52641820e+00  1.03348731e-08  1.53888410e+00                                 
 1.24214053e-08  7.37296275e-01  1.24214053e-08  6.73909007e-01  1.24214053e-08  1.47009359e+00  1.24214053e-08  1.80000000e+00  1.24214053e-08 -3.69498556e-03  1.24214053e-08  6.73114425e-01  1.24214053e-08  1.52603932e+00  1.24214053e-08  1.53851096e+00                                 
 1.49545076e-08  7.37345021e-01  1.49545076e-08  6.73939634e-01  1.49545076e-08  1.45598737e+00  1.49545076e-08  1.80000000e+00  1.49545076e-08  3.63800665e-03  1.49545076e-08  6.73514181e-01  1.49545076e-08  1.52647592e+00  1.49545076e-08  1.53807199e+00                                 
 1.84324669e-08  7.37359491e-01  1.84324669e-08  6.73912773e-01  1.84324669e-08  1.43479032e+00  1.84324669e-08  1.80000000e+00  1.84324669e-08 -3.59702489e-03  1.84324669e-08  6.73605153e-01  1.84324669e-08  1.52641931e+00  1.84324669e-08  1.53754555e+00                                 
 2.30808312e-08  7.37377091e-01  2.30808312e-08  6.73941569e-01  2.30808312e-08  1.40604753e+00  2.30808312e-08  1.80000000e+00  2.30808312e-08  3.56782027e-03  2.30808312e-08  6.74238407e-01  2.30808312e-08  1.52704547e+00  2.30808312e-08  1.53697043e+00                                 
 3.07243277e-08  7.37364585e-01  3.07243277e-08  6.73913338e-01  3.07243277e-08  1.35755275e+00  3.07243277e-08  1.80000000e+00  3.07243277e-08 -3.54896506e-03  3.07243277e-08  6.74470334e-01  3.07243277e-08  1.52710727e+00  3.07243277e-08  1.53629129e+00                                 
 4.37082067e-08  7.37368455e-01  4.37082067e-08  6.73941213e-01  4.37082067e-08  1.27568314e+00  4.37082067e-08  1.80000000e+00  4.37082067e-08  3.53894531e-03  4.37082067e-08  6.75142084e-01  4.37082067e-08  1.52776848e+00  4.37082067e-08  1.53561674e+00                                 
 6.86730472e-08  7.37354934e-01  6.86730472e-08  6.73912645e-01  6.86730472e-08  1.11854971e+00  6.86730472e-08  1.80000000e+00  6.86730472e-08 -3.53272864e-03  6.86730472e-08  6.75187180e-01  6.86730472e-08  1.52768665e+00  6.86730472e-08  1.53511516e+00                                 
 1.02603306e-07  7.37363617e-01  1.02603306e-07  6.73940823e-01  1.02603306e-07  9.09753947e-01  1.02603306e-07  1.80000000e+00  1.02603306e-07  3.53038453e-03  1.02603306e-07  6.75464584e-01  1.02603306e-07  1.52803040e+00  1.02603306e-07  1.53498211e+00                                 
 1.46194910e-07  7.37355942e-01  1.46194910e-07  6.73912637e-01  1.46194910e-07  7.18609985e-01  1.46194910e-07  1.80000000e+00  1.46194910e-07 -3.52037034e-03  1.46194910e-07  6.75226073e-01  1.46194910e-07  1.52771575e+00  1.46194910e-07  1.53495998e+00                                 
 1.80684297e-07  7.37363171e-01  1.80684297e-07  6.73941024e-01  1.80684297e-07  6.75107030e-01  1.80684297e-07  1.80000000e+00  1.80684297e-07  3.52919616e-03  1.80684297e-07  6.75472495e-01  1.80684297e-07  1.52803359e+00  1.80684297e-07  1.53495699e+00                                 
 2.13711532e-07  7.37353150e-01  2.13711532e-07  6.73912257e-01  2.13711532e-07  6.76891351e-01  2.13711532e-07  1.80000000e+00  2.13711532e-07 -3.51089890e-03  2.13711532e-07  6.75224568e-01  2.13711532e-07  1.52771224e+00  2.13711532e-07  1.53495702e+00                                 
 2.39350153e-07  7.37365488e-01  2.39350153e-07  6.73941261e-01  2.39350153e-07  6.76818489e-01  2.39350153e-07  1.80000000e+00  2.39350153e-07  3.52001523e-03  2.39350153e-07  6.75468213e-01  2.39350153e-07  1.52802777e+00  2.39350153e-07  1.53495341e+00                                 
 2.66511597e-07  7.37353012e-01  2.66511597e-07  6.73912195e-01  2.66511597e-07  6.76764401e-01  2.66511597e-07  1.80000000e+00  2.66511597e-07 -3.50096119e-03  2.66511597e-07  6.75225434e-01  2.66511597e-07  1.52771128e+00  2.66511597e-07  1.53495352e+00                                 
 3.20834484e-07  7.37365353e-01  3.20834484e-07  6.73941270e-01  3.20834484e-07  6.76847476e-01  3.20834484e-07  1.80000000e+00  3.20834484e-07  3.51273386e-03  3.20834484e-07  6.75467887e-01  3.20834484e-07  1.52802462e+00  3.20834484e-07  1.53495011e+00                                 
 4.09117072e-07  7.37353118e-01  4.09117072e-07  6.73912198e-01  4.09117072e-07  6.76747968e-01  4.09117072e-07  1.80000000e+00  4.09117072e-07 -3.49706162e-03  4.09117072e-07  6.75225568e-01  4.09117072e-07  1.52770663e+00  4.09117072e-07  1.53494843e+00                                 
 5.71479215e-07  7.37365284e-01  5.71479215e-07  6.73941267e-01  5.71479215e-07  6.76855522e-01  5.71479215e-07  1.80000000e+00  5.71479215e-07  3.51043096e-03  5.71479215e-07  6.75467821e-01  5.71479215e-07  1.52801605e+00  5.71479215e-07  1.53494167e+00                                 
 8.96203502e-07  7.37353156e-01  8.96203502e-07  6.73912200e-01  8.96203502e-07  6.76743875e-01  8.96203502e-07  1.80000000e+00  8.96203502e-07 -3.49584384e-03  8.96203502e-07  6.75225599e-01  8.96203502e-07  1.52769021e+00  8.96203502e-07  1.53493198e+00                                 
 1.50057699e-06  7.37365264e-01  1.50057699e-06  6.73941265e-01  1.50057699e-06  6.76857452e-01  1.50057699e-06  1.80000000e+00  1.50057699e-06  3.50980758e-03  1.50057699e-06  6.75467806e-01  1.50057699e-06  1.52798466e+00  1.50057699e-06  1.53491034e+00                                 
 2.70057699e-06  7.37353167e-01  2.70057699e-06  6.73912201e-01  2.70057699e-06  6.76742843e-01  2.70057699e-06  1.80000000e+00  2.70057699e-06 -3.49551894e-03  2.70057699e-06  6.75225607e-01  2.70057699e-06  1.52762928e+00  2.70057699e-06  1.53487112e+00                                 
 3.90057699e-06  7.37365257e-01  3.90057699e-06  6.73941265e-01  3.90057699e-06  6.76858110e-01  3.90057699e-06  1.80000000e+00  3.90057699e-06  3.50958891e-03  3.90057699e-06  6.75467801e-01  3.90057699e-06  1.52790358e+00  3.90057699e-06  1.53482937e+00                                 
 5.10057699e-06  7.37353174e-01  5.10057699e-06  6.73912202e-01  5.10057699e-06  6.76742169e-01  5.10057699e-06  1.80000000e+00  5.10057699e-06 -3.49531863e-03  5.10057699e-06  6.75225612e-01  5.10057699e-06  1.52754827e+00  5.10057699e-06  1.53479020e+00                                 
 6.00100000e-06  7.37365249e-01  6.00100000e-06  6.73941264e-01  6.00100000e-06  6.76858861e-01  6.00100000e-06  1.80000000e+00  6.00100000e-06  3.50933304e-03  6.00100000e-06  6.75467795e-01  6.00100000e-06  1.52783270e+00  6.00100000e-06  1.53475860e+00                                 
 6.00110000e-06  7.37313846e-01  6.00110000e-06  6.73688642e-01  6.00110000e-06  6.74973830e-01  6.00110000e-06  1.62000000e+00  6.00110000e-06  2.02172237e-04  6.00110000e-06  6.73767670e-01  6.00110000e-06  1.52633083e+00  6.00110000e-06  1.53474770e+00                                 
 6.00130000e-06  7.37345607e-01  6.00130000e-06  6.73688316e-01  6.00130000e-06  6.75136884e-01  6.00130000e-06  1.26000000e+00  6.00130000e-06 -2.36511055e-04  6.00130000e-06  6.73581055e-01  6.00130000e-06  1.52616552e+00  6.00130000e-06  1.53476466e+00                                 
 6.00165889e-06  7.37406631e-01  6.00165889e-06  6.73882007e-01  6.00165889e-06  6.77096184e-01  6.00165889e-06  6.14002067e-01  6.00165889e-06  2.68550332e-03  6.00165889e-06  6.73924716e-01  6.00165889e-06  1.52319341e+00  6.00165889e-06  1.53474078e+00                                 
 6.00200000e-06  7.37347370e-01  6.00200000e-06  6.72381485e-01  6.00200000e-06  7.09825281e-01  6.00200000e-06  0.00000000e+00  6.00200000e-06  1.59951673e+00  6.00200000e-06  6.58015342e-01  6.00200000e-06  1.33261471e+00  6.00200000e-06  1.53415686e+00                                 
 6.00204108e-06  7.37362098e-01  6.00204108e-06  6.71971071e-01  6.00204108e-06  7.15952453e-01  6.00204108e-06  0.00000000e+00  6.00204108e-06  1.72206725e+00  6.00204108e-06  6.53381200e-01  6.00204108e-06  1.27257109e+00  6.00204108e-06  1.53416873e+00                                 
 6.00212325e-06  7.37362302e-01  6.00212325e-06  6.71209421e-01  6.00212325e-06  7.20260281e-01  6.00212325e-06  0.00000000e+00  6.00212325e-06  1.81349545e+00  6.00212325e-06  6.45040741e-01  6.00212325e-06  1.14801717e+00  6.00212325e-06  1.53453294e+00                                 
 6.00228758e-06  7.37357897e-01  6.00228758e-06  6.71086458e-01  6.00228758e-06  7.11086953e-01  6.00228758e-06  0.00000000e+00  6.00228758e-06  1.78945773e+00  6.00228758e-06  6.44595681e-01  6.00228758e-06  9.50028836e-01  6.00228758e-06  1.53501823e+00                                 
 6.00243905e-06  7.37360300e-01  6.00243905e-06  6.71596356e-01  6.00243905e-06  7.04844589e-01  6.00243905e-06  0.00000000e+00  6.00243905e-06  1.80375847e+00  6.00243905e-06  6.50501967e-01  6.00243905e-06  8.32413302e-01  6.00243905e-06  1.53497256e+00                                 
 6.00262896e-06  7.37356857e-01  6.00262896e-06  6.72419375e-01  6.00262896e-06  6.93389867e-01  6.00262896e-06  0.00000000e+00  6.00262896e-06  1.79664959e+00  6.00262896e-06  6.58709946e-01  6.00262896e-06  7.41280448e-01  6.00262896e-06  1.53518223e+00                                 
 6.00285396e-06  7.37359925e-01  6.00285396e-06  6.73461997e-01  6.00285396e-06  6.83234416e-01  6.00285396e-06  0.00000000e+00  6.00285396e-06  1.80188661e+00  6.00285396e-06  6.68703964e-01  6.00285396e-06  6.98990331e-01  6.00285396e-06  1.53503357e+00                                 
 6.00305928e-06  7.37357130e-01  6.00305928e-06  6.73914362e-01  6.00305928e-06  6.79968677e-01  6.00305928e-06  0.00000000e+00  6.00305928e-06  1.79888717e+00  6.00305928e-06  6.72075340e-01  6.00305928e-06  6.84931080e-01  6.00305928e-06  1.53470263e+00                                 
 6.00332556e-06  7.37360008e-01  6.00332556e-06  6.74293875e-01  6.00332556e-06  6.77754212e-01  6.00332556e-06  0.00000000e+00  6.00332556e-06  1.80082677e+00  6.00332556e-06  6.75134641e-01  6.00332556e-06  6.79834074e-01  6.00332556e-06  1.53382194e+00                                 
 6.00363622e-06  7.37357714e-01  6.00363622e-06  6.74382902e-01  6.00363622e-06  6.78046166e-01  6.00363622e-06  0.00000000e+00  6.00363622e-06  1.79944228e+00  6.00363622e-06  6.75612674e-01  6.00363622e-06  6.77815005e-01  6.00363622e-06  1.53261043e+00                                 
 6.00416411e-06  7.37360229e-01  6.00416411e-06  6.74443767e-01  6.00416411e-06  6.78515331e-01  6.00416411e-06  0.00000000e+00  6.00416411e-06  1.80048815e+00  6.00416411e-06  6.76564368e-01  6.00416411e-06  6.78712760e-01  6.00416411e-06  1.53013095e+00                                 
 6.00493355e-06  7.37358114e-01  6.00493355e-06  6.74355216e-01  6.00493355e-06  6.80839221e-01  6.00493355e-06  0.00000000e+00  6.00493355e-06  1.79959744e+00  6.00493355e-06  6.76354965e-01  6.00493355e-06  6.80144166e-01  6.00493355e-06  1.52623409e+00                                 
 6.00643944e-06  7.37360296e-01  6.00643944e-06  6.74274079e-01  6.00643944e-06  6.84512504e-01  6.00643944e-06  0.00000000e+00  6.00643944e-06  1.80039927e+00  6.00643944e-06  6.76830146e-01  6.00643944e-06  6.84570370e-01  6.00643944e-06  1.51798965e+00                                 
 6.00945120e-06  7.37358137e-01  6.00945120e-06  6.74057186e-01  6.00945120e-06  6.93314811e-01  6.00945120e-06  0.00000000e+00  6.00945120e-06  1.79963743e+00  6.00945120e-06  6.76353544e-01  6.00945120e-06  6.92548238e-01  6.00945120e-06  1.50074736e+00                                 
 6.01547474e-06  7.37360261e-01  6.01547474e-06  6.73925593e-01  6.01547474e-06  7.09447411e-01  6.01547474e-06  0.00000000e+00  6.01547474e-06  1.80037876e+00  6.01547474e-06  6.76372636e-01  6.01547474e-06  7.09493952e-01  6.01547474e-06  1.46551677e+00                                 
 6.02752181e-06  7.37358155e-01  6.02752181e-06  6.73894488e-01  6.02752181e-06  7.41428759e-01  6.02752181e-06  0.00000000e+00  6.02752181e-06  1.79964615e+00  6.02752181e-06  6.75557436e-01  6.02752181e-06  7.40540108e-01  6.02752181e-06  1.39885039e+00                                 
 6.04423121e-06  7.37360264e-01  6.04423121e-06  6.73939033e-01  6.04423121e-06  7.81789245e-01  6.04423121e-06  0.00000000e+00  6.04423121e-06  1.80037195e+00  6.04423121e-06  6.75634594e-01  6.04423121e-06  7.81913830e-01  6.04423121e-06  1.31544068e+00                                 
 6.07765000e-06  7.37358163e-01  6.07765000e-06  6.73910753e-01  6.07765000e-06  8.53905242e-01  6.07765000e-06  0.00000000e+00  6.07765000e-06  1.79964667e+00  6.07765000e-06  6.75156112e-01  6.07765000e-06  8.52357042e-01  6.07765000e-06  1.17094409e+00                                 
 6.13434548e-06  7.37360264e-01  6.13434548e-06  6.73942698e-01  6.13434548e-06  9.49523644e-01  6.13434548e-06  0.00000000e+00  6.13434548e-06  1.80036585e+00  6.13434548e-06  6.75516017e-01  6.13434548e-06  9.50342499e-01  6.13434548e-06  1.00971086e+00                                 
 6.24773646e-06  7.37358163e-01  6.24773646e-06  6.73910840e-01  6.24773646e-06  1.07204047e+00  6.24773646e-06  0.00000000e+00  6.24773646e-06  1.79964155e+00  6.24773646e-06  6.75162559e-01  6.24773646e-06  1.06956949e+00  6.24773646e-06  1.01907314e+00                                 
 6.31641190e-06  7.37360264e-01  6.31641190e-06  6.73942618e-01  6.31641190e-06  1.11294535e+00  6.31641190e-06  0.00000000e+00  6.31641190e-06  1.80036136e+00  6.31641190e-06  6.75524528e-01  6.31641190e-06  1.11431470e+00  6.31641190e-06  1.10573102e+00                                 
