 time            v(vbep)         time            v(vben)         time            v(vout)         time            v(vphi1)        time            v(vphi2)        time            v(vref)         yes             currtemp       
 0.00000000e+00  7.97999658e-01  0.00000000e+00  7.49341034e-01  0.00000000e+00  9.79162241e-01  0.00000000e+00  0.00000000e+00  0.00000000e+00  1.79970867e+00  0.00000000e+00  7.49341034e-01  1.00000000e+00 -9.00000000e+00 
 5.00000000e-12  7.97859062e-01  5.00000000e-12  7.49242036e-01  5.00000000e-12  9.79900671e-01  5.00000000e-12  1.80000000e-02  5.00000000e-12  1.79986667e+00  5.00000000e-12  7.49242036e-01                                 
 1.00000000e-11  7.97738864e-01  1.00000000e-11  7.49153652e-01  1.00000000e-11  9.80583376e-01  1.00000000e-11  3.60000000e-02  1.00000000e-11  1.79997370e+00  1.00000000e-11  7.49153652e-01                                 
 2.00000000e-11  7.97519415e-01  2.00000000e-11  7.48980510e-01  2.00000000e-11  9.81856752e-01  2.00000000e-11  7.20000000e-02  2.00000000e-11  1.80012451e+00  2.00000000e-11  7.48980510e-01                                 
 4.00000000e-11  7.97128506e-01  4.00000000e-11  7.48639692e-01  4.00000000e-11  9.83984350e-01  4.00000000e-11  1.44000000e-01  4.00000000e-11  1.80019140e+00  4.00000000e-11  7.48639692e-01                                 
 8.00000000e-11  7.96368354e-01  8.00000000e-11  7.47966161e-01  8.00000000e-11  9.86984162e-01  8.00000000e-11  2.88000000e-01  8.00000000e-11  1.80012046e+00  8.00000000e-11  7.47966161e-01                                 
 1.60000000e-10  7.94886753e-01  1.60000000e-10  7.46652973e-01  1.60000000e-10  9.90063401e-01  1.60000000e-10  5.76000000e-01  1.60000000e-10  1.80001122e+00  1.60000000e-10  7.46652973e-01                                 
 3.20000000e-10  7.92070961e-01  3.20000000e-10  7.44151390e-01  3.20000000e-10  9.78727197e-01  3.20000000e-10  1.15200000e+00  3.20000000e-10  1.80022597e+00  3.20000000e-10  7.44151390e-01                                 
 5.00000000e-10  7.89125607e-01  5.00000000e-10  7.41525244e-01  5.00000000e-10  1.05073555e+00  5.00000000e-10  1.80000000e+00  5.00000000e-10  1.22277666e-01  5.00000000e-10  7.41525244e-01                                 
 5.20434815e-10  7.88807604e-01  5.20434815e-10  7.41240921e-01  5.20434815e-10  1.07124980e+00  5.20434815e-10  1.80000000e+00  5.20434815e-10  2.76794024e-02  5.20434815e-10  7.41240921e-01                                 
 5.61304444e-10  7.88176106e-01  5.61304444e-10  7.40675827e-01  5.61304444e-10  1.11251700e+00  5.61304444e-10  1.80000000e+00  5.61304444e-10 -1.12702917e-02  5.61304444e-10  7.40675827e-01                                 
 6.43043702e-10  7.86943627e-01  6.43043702e-10  7.39571827e-01  6.43043702e-10  1.18910097e+00  6.43043702e-10  1.80000000e+00  6.43043702e-10  9.72000793e-03  6.43043702e-10  7.39571827e-01                                 
 7.63094482e-10  7.85205376e-01  7.63094482e-10  7.38011102e-01  7.63094482e-10  1.29339412e+00  7.63094482e-10  1.80000000e+00  7.63094482e-10 -7.73023251e-03  7.63094482e-10  7.38011102e-01                                 
 9.43478142e-10  7.82741479e-01  9.43478142e-10  7.35791598e-01  9.43478142e-10  1.42922558e+00  9.43478142e-10  1.80000000e+00  9.43478142e-10  7.70344638e-03  9.43478142e-10  7.35791598e-01                                 
 1.30424546e-09  7.78274407e-01  1.30424546e-09  7.31745127e-01  1.30424546e-09  1.61857257e+00  1.30424546e-09  1.80000000e+00  1.30424546e-09 -6.81743844e-03  1.30424546e-09  7.31745127e-01                                 
 1.83777204e-09  7.72603192e-01  1.83777204e-09  7.26561524e-01  1.83777204e-09  1.75084099e+00  1.83777204e-09  1.80000000e+00  1.83777204e-09  6.87906224e-03  1.83777204e-09  7.26561524e-01                                 
 2.23012361e-09  7.69023647e-01  2.23012361e-09  7.23258174e-01  2.23012361e-09  1.78121350e+00  2.23012361e-09  1.80000000e+00  2.23012361e-09 -6.47529566e-03  2.23012361e-09  7.23258174e-01                                 
 2.66454862e-09  7.65504110e-01  2.66454862e-09  7.19987895e-01  2.66454862e-09  1.79220654e+00  2.66454862e-09  1.80000000e+00  2.66454862e-09  6.27264870e-03  2.66454862e-09  7.19987895e-01                                 
 3.14155481e-09  7.62075199e-01  3.14155481e-09  7.16780920e-01  3.14155481e-09  1.79355567e+00  3.14155481e-09  1.80000000e+00  3.14155481e-09 -6.02511991e-03  3.14155481e-09  7.16780920e-01                                 
 3.98542182e-09  7.56852688e-01  3.98542182e-09  7.11859754e-01  3.98542182e-09  1.79056936e+00  3.98542182e-09  1.80000000e+00  3.98542182e-09  5.91983179e-03  3.98542182e-09  7.11859754e-01                                 
 5.10214515e-09  7.51179596e-01  5.10214515e-09  7.06464168e-01  5.10214515e-09  1.78465300e+00  5.10214515e-09  1.80000000e+00  5.10214515e-09 -5.81467650e-03  5.10214515e-09  7.06464168e-01                                 
 7.33559179e-09  7.42443846e-01  7.33559179e-09  6.98069458e-01  7.33559179e-09  1.77630805e+00  7.33559179e-09  1.80000000e+00  7.33559179e-09  5.78624279e-03  7.33559179e-09  6.98069458e-01                                 
 1.14626006e-08  7.31348743e-01  1.14626006e-08  6.87273747e-01  1.14626006e-08  1.76527829e+00  1.14626006e-08  1.80000000e+00  1.14626006e-08 -5.74388198e-03  1.14626006e-08  6.87273747e-01                                 
 1.76039652e-08  7.20676111e-01  1.76039652e-08  6.76770019e-01  1.76039652e-08  1.75526982e+00  1.76039652e-08  1.80000000e+00  1.76039652e-08  5.75085557e-03  1.76039652e-08  6.76770019e-01                                 
 2.09889785e-08  7.16420732e-01  2.09889785e-08  6.72554298e-01  2.09889785e-08  1.75096754e+00  2.09889785e-08  1.80000000e+00  2.09889785e-08 -5.70025233e-03  2.09889785e-08  6.72554298e-01                                 
 2.23937130e-08  7.14858172e-01  2.23937130e-08  6.71003379e-01  2.23937130e-08  1.74971673e+00  2.23937130e-08  1.80000000e+00  2.23937130e-08  5.65215950e-03  2.23937130e-08  6.71003379e-01                                 
 2.47265150e-08  7.12463496e-01  2.47265150e-08  6.68624064e-01  2.47265150e-08  1.74719420e+00  2.47265150e-08  1.80000000e+00  2.47265150e-08 -5.59010429e-03  2.47265150e-08  6.68624064e-01                                 
 2.75514688e-08  7.09846532e-01  2.75514688e-08  6.66020480e-01  2.75514688e-08  1.74494535e+00  2.75514688e-08  1.80000000e+00  2.75514688e-08  5.57723357e-03  2.75514688e-08  6.66020480e-01                                 
 3.22894939e-08  7.05997342e-01  3.22894939e-08  6.62185251e-01  3.22894939e-08  1.74104867e+00  3.22894939e-08  1.80000000e+00  3.22894939e-08 -5.53637468e-03  3.22894939e-08  6.62185251e-01                                 
 3.73202119e-08  7.02487972e-01  3.73202119e-08  6.58682895e-01  3.73202119e-08  1.73795379e+00  3.73202119e-08  1.80000000e+00  3.73202119e-08  5.53884101e-03  3.73202119e-08  6.58682895e-01                                 
 4.73816479e-08  6.96672335e-01  4.73816479e-08  6.52868867e-01  4.73816479e-08  1.73220398e+00  4.73816479e-08  1.80000000e+00  4.73816479e-08 -5.50799154e-03  4.73816479e-08  6.52868867e-01                                 
 5.91761892e-08  6.91273502e-01  5.91761892e-08  6.47461029e-01  5.91761892e-08  1.72730986e+00  5.91761892e-08  1.80000000e+00  5.91761892e-08  5.52200960e-03  5.91761892e-08  6.47461029e-01                                 
 8.27652718e-08  6.83130080e-01  8.27652718e-08  6.39274115e-01  8.27652718e-08  1.71958190e+00  8.27652718e-08  1.80000000e+00  8.27652718e-08 -5.49607141e-03  8.27652718e-08  6.39274115e-01                                 
 1.18324427e-07  6.75134488e-01  1.18324427e-07  6.31076721e-01  1.18324427e-07  1.71426400e+00  1.18324427e-07  1.80000000e+00  1.18324427e-07  5.51592894e-03  1.18324427e-07  6.31076721e-01                                 
 1.45569302e-07  6.70903223e-01  1.45569302e-07  6.26655446e-01  1.45569302e-07  1.71195163e+00  1.45569302e-07  1.80000000e+00  1.45569302e-07 -5.48987274e-03  1.45569302e-07  6.26655446e-01                                 
 1.74033221e-07  6.67048381e-01  1.74033221e-07  6.22678111e-01  1.74033221e-07  1.71029438e+00  1.74033221e-07  1.80000000e+00  1.74033221e-07  5.50937017e-03  1.74033221e-07  6.22678111e-01                                 
 2.10365256e-07  6.61720645e-01  2.10365256e-07  6.17470777e-01  2.10365256e-07  1.68917670e+00  2.10365256e-07  1.80000000e+00  2.10365256e-07 -5.48465438e-03  2.10365256e-07  6.17470777e-01                                 
 2.46756339e-07  6.52230599e-01  2.46756339e-07  6.09119721e-01  2.46756339e-07  1.65231730e+00  2.46756339e-07  1.80000000e+00  2.46756339e-07  5.50370652e-03  2.46756339e-07  6.09119721e-01                                 
 2.76878781e-07  6.42395271e-01  2.76878781e-07  6.00739233e-01  2.76878781e-07  1.60653603e+00  2.76878781e-07  1.80000000e+00  2.76878781e-07 -5.47974024e-03  2.76878781e-07  6.00739233e-01                                 
 3.09988591e-07  6.35634380e-01  3.09988591e-07  5.94830379e-01  3.09988591e-07  1.56373291e+00  3.09988591e-07  1.80000000e+00  3.09988591e-07  5.49840567e-03  3.09988591e-07  5.94830379e-01                                 
 3.44812357e-07  6.42355613e-01  3.44812357e-07  5.99800969e-01  3.44812357e-07  1.55772403e+00  3.44812357e-07  1.80000000e+00  3.44812357e-07 -5.47255853e-03  3.44812357e-07  5.99800969e-01                                 
 3.67714715e-07  6.41504404e-01  3.67714715e-07  5.98892165e-01  3.67714715e-07  1.53327769e+00  3.67714715e-07  1.80000000e+00  3.67714715e-07  5.49047246e-03  3.67714715e-07  5.98892165e-01                                 
 3.89883204e-07  6.34056611e-01  3.89883204e-07  5.92669979e-01  3.89883204e-07  1.50686931e+00  3.89883204e-07  1.80000000e+00  3.89883204e-07 -5.46518888e-03  3.89883204e-07  5.92669979e-01                                 
 4.10359785e-07  6.30906610e-01  4.10359785e-07  5.89906914e-01  4.10359785e-07  1.48140061e+00  4.10359785e-07  1.80000000e+00  4.10359785e-07  5.48220446e-03  4.10359785e-07  5.89906914e-01                                 
 4.31983191e-07  6.26575199e-01  4.31983191e-07  5.86212502e-01  4.31983191e-07  1.45774089e+00  4.31983191e-07  1.80000000e+00  4.31983191e-07 -5.45654555e-03  4.31983191e-07  5.86212502e-01                                 
 4.64571386e-07  6.19806047e-01  4.64571386e-07  5.80493629e-01  4.64571386e-07  1.41703246e+00  4.64571386e-07  1.80000000e+00  4.64571386e-07  5.47503988e-03  4.64571386e-07  5.80493629e-01                                 
 5.09527716e-07  6.10062195e-01  5.09527716e-07  5.72355501e-01  5.09527716e-07  1.36477838e+00  5.09527716e-07  1.80000000e+00  5.09527716e-07 -5.45162237e-03  5.09527716e-07  5.72355501e-01                                 
 5.94269582e-07  5.90558827e-01  5.94269582e-07  5.56303832e-01  5.94269582e-07  1.25914789e+00  5.94269582e-07  1.80000000e+00  5.94269582e-07  5.47186257e-03  5.94269582e-07  5.56303832e-01                                 
 7.28195001e-07  5.49342240e-01  7.28195001e-07  5.23039904e-01  7.28195001e-07  1.08437411e+00  7.28195001e-07  1.80000000e+00  7.28195001e-07 -5.45015954e-03  7.28195001e-07  5.23039904e-01                                 
 7.51241824e-07  5.40920621e-01  7.51241824e-07  5.16295843e-01  7.51241824e-07  1.04902704e+00  7.51241824e-07  1.80000000e+00  7.51241824e-07 -1.86814961e-06  7.51241824e-07  5.16295843e-01                                 
 7.97335469e-07  5.22762174e-01  7.97335469e-07  5.01766848e-01  7.97335469e-07  9.80435411e-01  7.97335469e-07  1.80000000e+00  7.97335469e-07  1.78532998e-09  7.97335469e-07  5.01766848e-01                                 
 8.89522760e-07  7.67131620e-01  8.89522760e-07  7.16778794e-01  8.89522760e-07  1.12977018e+00  8.89522760e-07  1.80000000e+00  8.89522760e-07  7.25546845e-06  8.89522760e-07  7.16778794e-01                                 
 9.65743139e-07  8.66053061e-01  9.65743139e-07  8.10028554e-01  9.65743139e-07  1.15347308e+00  9.65743139e-07  1.80000000e+00  9.65743139e-07 -3.05799236e-06  9.65743139e-07  8.10028554e-01                                 
 1.03811267e-06  9.43756319e-01  1.03811267e-06  8.60771848e-01  1.03811267e-06  1.14048785e+00  1.03811267e-06  1.80000000e+00  1.03811267e-06  5.52447138e-06  1.03811267e-06  8.60771848e-01                                 
 1.04789258e-06  9.49309002e-01  1.04789258e-06  8.63782395e-01  1.04789258e-06  1.14046437e+00  1.04789258e-06  1.80000000e+00  1.04789258e-06  8.23202830e-07  1.04789258e-06  8.63782395e-01                                 
 1.06745240e-06  9.51545518e-01  1.06745240e-06  8.65079666e-01  1.06745240e-06  1.12419752e+00  1.06745240e-06  1.80000000e+00  1.06745240e-06 -1.18200845e-06  1.06745240e-06  8.65079666e-01                                 
 1.09719408e-06  9.49139516e-01  1.09719408e-06  8.63767551e-01  1.09719408e-06  1.08911832e+00  1.09719408e-06  1.80000000e+00  1.09719408e-06  4.91063782e-09  1.09719408e-06  8.63767551e-01                                 
 1.13024616e-06  9.50302167e-01  1.13024616e-06  8.64398561e-01  1.13024616e-06  1.05828064e+00  1.13024616e-06  1.80000000e+00  1.13024616e-06 -6.25635334e-07  1.13024616e-06  8.64398561e-01                                 
 1.17812916e-06  9.48540291e-01  1.17812916e-06  8.63479700e-01  1.17812916e-06  1.05278002e+00  1.17812916e-06  1.80000000e+00  1.17812916e-06  7.13563267e-07  1.17812916e-06  8.63479700e-01                                 
 1.22853446e-06  9.48789163e-01  1.22853446e-06  8.63599559e-01  1.22853446e-06  1.01938405e+00  1.22853446e-06  1.80000000e+00  1.22853446e-06 -1.30298710e-06  1.22853446e-06  8.63599559e-01                                 
 1.28566941e-06  9.47446254e-01  1.28566941e-06  8.62916054e-01  1.28566941e-06  9.91270463e-01  1.28566941e-06  1.80000000e+00  1.28566941e-06  9.44584316e-07  1.28566941e-06  8.62916054e-01                                 
 1.35698725e-06  9.47025377e-01  1.35698725e-06  8.62670861e-01  1.35698725e-06  9.65482078e-01  1.35698725e-06  1.80000000e+00  1.35698725e-06 -1.18242949e-06  1.35698725e-06  8.62670861e-01                                 
 1.44711749e-06  9.45553465e-01  1.44711749e-06  8.61921118e-01  1.44711749e-06  9.26965185e-01  1.44711749e-06  1.80000000e+00  1.44711749e-06  8.69602955e-07  1.44711749e-06  8.61921118e-01                                 
 1.55255404e-06  9.44473416e-01  1.55255404e-06  8.61318346e-01  1.55255404e-06  9.04521015e-01  1.55255404e-06  1.80000000e+00  1.55255404e-06 -9.62494178e-07  1.55255404e-06  8.61318346e-01                                 
 1.68922279e-06  9.42488099e-01  1.68922279e-06  8.60285964e-01  1.68922279e-06  8.74518172e-01  1.68922279e-06  1.80000000e+00  1.68922279e-06  8.27344333e-07  1.68922279e-06  8.60285964e-01                                 
 1.88004096e-06  9.39997096e-01  1.88004096e-06  8.58905918e-01  1.88004096e-06  8.65017108e-01  1.88004096e-06  1.80000000e+00  1.88004096e-06 -8.13891407e-07  1.88004096e-06  8.58905918e-01                                 
 2.13107645e-06  9.35902511e-01  2.13107645e-06  8.56685550e-01  2.13107645e-06  8.53557372e-01  2.13107645e-06  1.80000000e+00  2.13107645e-06  7.94780960e-07  2.13107645e-06  8.56685550e-01                                 
 2.39155695e-06  9.30665912e-01  2.39155695e-06  8.53701183e-01  2.39155695e-06  8.55624611e-01  2.39155695e-06  1.80000000e+00  2.39155695e-06 -7.69804197e-07  2.39155695e-06  8.53701183e-01                                 
 2.44406545e-06  9.29258774e-01  2.44406545e-06  8.52913508e-01  2.44406545e-06  8.52037115e-01  2.44406545e-06  1.80000000e+00  2.44406545e-06 -3.79606665e-08  2.44406545e-06  8.52913508e-01                                 
 2.54908245e-06  9.26142910e-01  2.54908245e-06  8.51109585e-01  2.54908245e-06  8.50150710e-01  2.54908245e-06  1.80000000e+00  2.54908245e-06  1.32450224e-08  2.54908245e-06  8.51109585e-01                                 
 2.75911645e-06  9.15502725e-01  2.75911645e-06  8.44735825e-01  2.75911645e-06  8.43215064e-01  2.75911645e-06  1.80000000e+00  2.75911645e-06 -1.01513020e-07  2.75911645e-06  8.44735825e-01                                 
 2.80594624e-06  9.11250770e-01  2.80594624e-06  8.42093405e-01  2.80594624e-06  8.40278942e-01  2.80594624e-06  1.80000000e+00  2.80594624e-06 -1.04911098e-07  2.80594624e-06  8.42093405e-01                                 
 2.89960584e-06  8.98193248e-01  2.89960584e-06  8.33617882e-01  2.89960584e-06  8.30970418e-01  2.89960584e-06  1.80000000e+00  2.89960584e-06 -2.57581774e-07  2.89960584e-06  8.33617882e-01                                 
 3.08692502e-06  8.47181013e-01  3.08692502e-06  7.94423586e-01  3.08692502e-06  7.91830354e-01  3.08692502e-06  1.80000000e+00  3.08692502e-06 -5.74574973e-07  3.08692502e-06  7.94423586e-01                                 
 3.10805989e-06  8.41721978e-01  3.10805989e-06  7.89633360e-01  3.10805989e-06  7.87655910e-01  3.10805989e-06  1.80000000e+00  3.10805989e-06 -4.15617086e-07  3.10805989e-06  7.89633360e-01                                 
 3.15032962e-06  8.35558745e-01  3.15032962e-06  7.84098188e-01  3.15032962e-06  7.83314034e-01  3.15032962e-06  1.80000000e+00  3.15032962e-06 -2.80141046e-08  3.15032962e-06  7.84098188e-01                                 
 3.23486909e-06  8.37329161e-01  3.23486909e-06  7.85692700e-01  3.23486909e-06  7.85750370e-01  3.23486909e-06  1.80000000e+00  3.23486909e-06  1.64347999e-07  3.23486909e-06  7.85692700e-01                                 
 3.35177325e-06  8.37820689e-01  3.35177325e-06  7.86139200e-01  3.35177325e-06  7.86119513e-01  3.35177325e-06  1.80000000e+00  3.35177325e-06 -9.10425147e-08  3.35177325e-06  7.86139200e-01                                 
 3.47454255e-06  8.36514328e-01  3.47454255e-06  7.84960432e-01  3.47454255e-06  7.85061153e-01  3.47454255e-06  1.80000000e+00  3.47454255e-06  1.11980367e-07  3.47454255e-06  7.84960432e-01                                 
 3.72008114e-06  8.37979896e-01  3.72008114e-06  7.86280138e-01  3.72008114e-06  7.86309756e-01  3.72008114e-06  1.80000000e+00  3.72008114e-06 -3.28159478e-08  3.72008114e-06  7.86280138e-01                                 
 4.15252525e-06  8.36571272e-01  4.15252525e-06  7.85012873e-01  4.15252525e-06  7.85086478e-01  4.15252525e-06  1.80000000e+00  4.15252525e-06  7.96206902e-08  4.15252525e-06  7.85012873e-01                                 
 4.72901512e-06  8.37898744e-01  4.72901512e-06  7.86206637e-01  4.72901512e-06  7.86252269e-01  4.72901512e-06  1.80000000e+00  4.72901512e-06 -1.33078529e-08  4.72901512e-06  7.86206637e-01                                 
 5.72901512e-06  8.36633840e-01  5.72901512e-06  7.85069746e-01  5.72901512e-06  7.85133251e-01  5.72901512e-06  1.80000000e+00  5.72901512e-06  6.71011416e-08  5.72901512e-06  7.85069746e-01                                 
 6.72901512e-06  8.37848142e-01  6.72901512e-06  7.86160918e-01  6.72901512e-06  7.86213513e-01  6.72901512e-06  1.80000000e+00  6.72901512e-06 -4.60654920e-09  6.72901512e-06  7.86160918e-01                                 
 7.72901512e-06  8.36688031e-01  7.72901512e-06  7.85118897e-01  7.72901512e-06  7.85175833e-01  7.72901512e-06  1.80000000e+00  7.72901512e-06  5.87667416e-08  7.72901512e-06  7.85118897e-01                                 
 8.72901512e-06  8.37791986e-01  8.72901512e-06  7.86110225e-01  8.72901512e-06  7.86169043e-01  8.72901512e-06  1.80000000e+00  8.72901512e-06  3.34138258e-09  8.72901512e-06  7.86110225e-01                                 
 9.72901512e-06  8.36745273e-01  9.72901512e-06  7.85170755e-01  9.72901512e-06  7.85221890e-01  9.72901512e-06  1.80000000e+00  9.72901512e-06  5.12160149e-08  9.72901512e-06  7.85170755e-01                                 
