 time            v(vbep)         time            v(vben)         time            v(vout)         time            v(vphi1)        time            v(vphi2)        time            v(vref)         time            v(voutc)        time            v(voutcc)       yes             currtemp       
 0.00000000e+00  7.31264881e-01  0.00000000e+00  6.66970101e-01  0.00000000e+00  1.51913947e+00  0.00000000e+00  0.00000000e+00  0.00000000e+00  1.80000000e+00  0.00000000e+00  6.68179823e-01  0.00000000e+00  1.51913946e+00  0.00000000e+00  1.52633915e+00  1.00000000e+00  5.50000000e+01 
 1.00000000e-11  7.31289994e-01  1.00000000e-11  6.67042150e-01  1.00000000e-11  1.51991056e+00  1.00000000e-11  1.80000000e-02  1.00000000e-11  1.80025332e+00  1.00000000e-11  6.68713902e-01  1.00000000e-11  1.51961129e+00  1.00000000e-11  1.52635328e+00                                 
 2.00000000e-11  7.31296853e-01  2.00000000e-11  6.67086942e-01  2.00000000e-11  1.52037683e+00  2.00000000e-11  3.60000000e-02  2.00000000e-11  1.80035288e+00  2.00000000e-11  6.69109318e-01  2.00000000e-11  1.51996637e+00  2.00000000e-11  1.52635844e+00                                 
 4.00000000e-11  7.31296868e-01  4.00000000e-11  6.67145682e-01  4.00000000e-11  1.52092899e+00  4.00000000e-11  7.20000000e-02  4.00000000e-11  1.80038988e+00  4.00000000e-11  6.69687239e-01  4.00000000e-11  1.52049360e+00  4.00000000e-11  1.52636004e+00                                 
 8.00000000e-11  7.31285239e-01  8.00000000e-11  6.67182945e-01  8.00000000e-11  1.52101964e+00  8.00000000e-11  1.44000000e-01  8.00000000e-11  1.80018467e+00  8.00000000e-11  6.70136475e-01  8.00000000e-11  1.52091783e+00  8.00000000e-11  1.52634952e+00                                 
 1.60000000e-10  7.31282494e-01  1.60000000e-10  6.67193189e-01  1.60000000e-10  1.52068274e+00  1.60000000e-10  2.88000000e-01  1.60000000e-10  1.80000517e+00  1.60000000e-10  6.70223906e-01  1.60000000e-10  1.52096351e+00  1.60000000e-10  1.52634019e+00                                 
 3.20000000e-10  7.31278117e-01  3.20000000e-10  6.67186027e-01  3.20000000e-10  1.52030004e+00  3.20000000e-10  5.76000000e-01  3.20000000e-10  1.79998380e+00  3.20000000e-10  6.70063550e-01  3.20000000e-10  1.52062672e+00  3.20000000e-10  1.52633534e+00                                 
 6.40000000e-10  7.31194708e-01  6.40000000e-10  6.66774846e-01  6.40000000e-10  1.51849350e+00  6.40000000e-10  1.15200000e+00  6.40000000e-10  1.81043397e+00  6.40000000e-10  6.67464257e-01  6.40000000e-10  1.52477206e+00  6.40000000e-10  1.52636185e+00                                 
 1.00000000e-09  7.31790227e-01  1.00000000e-09  6.67118850e-01  1.00000000e-09  1.49657419e+00  1.00000000e-09  1.80000000e+00  1.00000000e-09  9.98058931e-02  1.00000000e-09  6.81642589e-01  1.00000000e-09  1.52826759e+00  1.00000000e-09  1.52634909e+00                                 
 1.03692910e-09  7.31854304e-01  1.03692910e-09  6.67140271e-01  1.03692910e-09  1.49527579e+00  1.03692910e-09  1.80000000e+00  1.03692910e-09  2.30662542e-02  1.03692910e-09  6.84793947e-01  1.03692910e-09  1.53001412e+00  1.03692910e-09  1.52637855e+00                                 
 1.11078729e-09  7.32007677e-01  1.11078729e-09  6.67190491e-01  1.11078729e-09  1.49368641e+00  1.11078729e-09  1.80000000e+00  1.11078729e-09 -1.08961788e-02  1.11078729e-09  6.88824819e-01  1.11078729e-09  1.53314867e+00  1.11078729e-09  1.52639761e+00                                 
 1.25850367e-09  7.32134577e-01  1.25850367e-09  6.67050340e-01  1.25850367e-09  1.49082696e+00  1.25850367e-09  1.80000000e+00  1.25850367e-09  8.77498690e-03  1.25850367e-09  6.88927669e-01  1.25850367e-09  1.53351313e+00  1.25850367e-09  1.52634972e+00                                 
 1.45014366e-09  7.32106892e-01  1.45014366e-09  6.67030392e-01  1.45014366e-09  1.49007896e+00  1.45014366e-09  1.80000000e+00  1.45014366e-09 -6.72885849e-03  1.45014366e-09  6.88066448e-01  1.45014366e-09  1.53256514e+00  1.45014366e-09  1.52638466e+00                                 
 1.66357415e-09  7.32008671e-01  1.66357415e-09  6.67026633e-01  1.66357415e-09  1.48986696e+00  1.66357415e-09  1.80000000e+00  1.66357415e-09  5.64097578e-03  1.66357415e-09  6.86519142e-01  1.66357415e-09  1.53142903e+00  1.66357415e-09  1.52640786e+00                                 
 2.01965518e-09  7.31760687e-01  2.01965518e-09  6.66980342e-01  2.01965518e-09  1.48961522e+00  2.01965518e-09  1.80000000e+00  2.01965518e-09 -5.05343937e-03  2.01965518e-09  6.83923972e-01  2.01965518e-09  1.52905193e+00  2.01965518e-09  1.52652005e+00                                 
 2.50546535e-09  7.31504207e-01  2.50546535e-09  6.66983203e-01  2.50546535e-09  1.48954952e+00  2.50546535e-09  1.80000000e+00  2.50546535e-09  4.56648457e-03  2.50546535e-09  6.80969169e-01  2.50546535e-09  1.52666968e+00  2.50546535e-09  1.52666841e+00                                 
 3.20515355e-09  7.31258228e-01  3.20515355e-09  6.66937376e-01  3.20515355e-09  1.48865192e+00  3.20515355e-09  1.80000000e+00  3.20515355e-09 -4.38895057e-03  3.20515355e-09  6.76965587e-01  3.20515355e-09  1.52311183e+00  3.20515355e-09  1.52688650e+00                                 
 4.26896742e-09  7.31112568e-01  4.26896742e-09  6.66954803e-01  4.26896742e-09  1.48734929e+00  4.26896742e-09  1.80000000e+00  4.26896742e-09  4.16808198e-03  4.26896742e-09  6.72860634e-01  4.26896742e-09  1.51973727e+00  4.26896742e-09  1.52710535e+00                                 
 5.89803874e-09  7.31045483e-01  5.89803874e-09  6.66930026e-01  5.89803874e-09  1.48361556e+00  5.89803874e-09  1.80000000e+00  5.89803874e-09 -4.10013154e-03  5.89803874e-09  6.68728565e-01  5.89803874e-09  1.51609036e+00  5.89803874e-09  1.52720764e+00                                 
 7.34728283e-09  7.31079645e-01  7.34728283e-09  6.66965524e-01  7.34728283e-09  1.47927877e+00  7.34728283e-09  1.80000000e+00  7.34728283e-09  3.97151672e-03  7.34728283e-09  6.67265175e-01  7.34728283e-09  1.51496875e+00  7.34728283e-09  1.52709381e+00                                 
 8.77182755e-09  7.31110248e-01  8.77182755e-09  6.66943079e-01  8.77182755e-09  1.47325941e+00  8.77182755e-09  1.80000000e+00  8.77182755e-09 -3.87165893e-03  8.77182755e-09  6.66263751e-01  8.77182755e-09  1.51399376e+00  8.77182755e-09  1.52688845e+00                                 
 1.02722221e-08  7.31165424e-01  1.02722221e-08  6.66976298e-01  1.02722221e-08  1.46626094e+00  1.02722221e-08  1.80000000e+00  1.02722221e-08  3.76538566e-03  1.02722221e-08  6.66169875e-01  1.02722221e-08  1.51402546e+00  1.02722221e-08  1.52661797e+00                                 
 1.23385846e-08  7.31204406e-01  1.23385846e-08  6.66951835e-01  1.23385846e-08  1.45472265e+00  1.23385846e-08  1.80000000e+00  1.23385846e-08 -3.69627516e-03  1.23385846e-08  6.65880829e-01  1.23385846e-08  1.51365200e+00  1.23385846e-08  1.52623463e+00                                 
 1.48280346e-08  7.31252358e-01  1.48280346e-08  6.66983021e-01  1.48280346e-08  1.44000938e+00  1.48280346e-08  1.80000000e+00  1.48280346e-08  3.63752560e-03  1.48280346e-08  6.66291594e-01  1.48280346e-08  1.51409761e+00  1.48280346e-08  1.52578946e+00                                 
 1.82786913e-08  7.31265753e-01  1.82786913e-08  6.66955965e-01  1.82786913e-08  1.41783921e+00  1.82786913e-08  1.80000000e+00  1.82786913e-08 -3.59567314e-03  1.82786913e-08  6.66392652e-01  1.82786913e-08  1.51404914e+00  1.82786913e-08  1.52525250e+00                                 
 2.28687760e-08  7.31283254e-01  2.28687760e-08  6.66985152e-01  2.28687760e-08  1.38794350e+00  2.28687760e-08  1.80000000e+00  2.28687760e-08  3.56561562e-03  2.28687760e-08  6.67038643e-01  2.28687760e-08  1.51468602e+00  2.28687760e-08  1.52467301e+00                                 
 3.04831206e-08  7.31270161e-01  3.04831206e-08  6.66956607e-01  3.04831206e-08  1.33707399e+00  3.04831206e-08  1.80000000e+00  3.04831206e-08 -3.54652387e-03  3.04831206e-08  6.67284459e-01  3.04831206e-08  1.51475979e+00  3.04831206e-08  1.52399046e+00                                 
 4.32965416e-08  7.31274292e-01  4.32965416e-08  6.66984802e-01  4.32965416e-08  1.25185688e+00  4.32965416e-08  1.80000000e+00  4.32965416e-08  3.53612751e-03  4.32965416e-08  6.67967988e-01  4.32965416e-08  1.51543188e+00  4.32965416e-08  1.52333425e+00                                 
 6.80617445e-08  7.31260365e-01  6.80617445e-08  6.66955846e-01  6.80617445e-08  1.08743254e+00  6.80617445e-08  1.80000000e+00  6.80617445e-08 -3.52983436e-03  6.80617445e-08  6.68018901e-01  6.80617445e-08  1.51535629e+00  6.80617445e-08  1.52286697e+00                                 
 1.01161901e-07  7.31269213e-01  1.01161901e-07  6.66984340e-01  1.01161901e-07  8.73484490e-01  1.01161901e-07  1.80000000e+00  1.01161901e-07  3.52756231e-03  1.01161901e-07  6.68297552e-01  1.01161901e-07  1.51570174e+00  1.01161901e-07  1.52276367e+00                                 
 1.35858920e-07  7.31262606e-01  1.35858920e-07  6.66955869e-01  1.35858920e-07  7.12810682e-01  1.35858920e-07  1.80000000e+00  1.35858920e-07 -3.51616738e-03  1.35858920e-07  6.68058822e-01  1.35858920e-07  1.51538759e+00  1.35858920e-07  1.52275305e+00                                 
 1.63904930e-07  7.31267554e-01  1.63904930e-07  6.66984557e-01  1.63904930e-07  6.71662765e-01  1.63904930e-07  1.80000000e+00  1.63904930e-07  3.52454819e-03  1.63904930e-07  6.68306685e-01  1.63904930e-07  1.51570682e+00  1.63904930e-07  1.52275115e+00                                 
 1.90514630e-07  7.31260007e-01  1.90514630e-07  6.66955440e-01  1.90514630e-07  6.69511692e-01  1.90514630e-07  1.80000000e+00  1.90514630e-07 -3.50453119e-03  1.90514630e-07  6.68057729e-01  1.90514630e-07  1.51538496e+00  1.90514630e-07  1.52275156e+00                                 
 2.16722150e-07  7.31269527e-01  2.16722150e-07  6.66984766e-01  2.16722150e-07  6.69481855e-01  2.16722150e-07  1.80000000e+00  2.16722150e-07  3.51450681e-03  2.16722150e-07  6.68302127e-01  2.16722150e-07  1.51570098e+00  2.16722150e-07  1.52274814e+00                                 
 2.40957685e-07  7.31260155e-01  2.40957685e-07  6.66955419e-01  2.40957685e-07  6.69365328e-01  2.40957685e-07  1.80000000e+00  2.40957685e-07 -3.49395637e-03  2.40957685e-07  6.68057777e-01  2.40957685e-07  1.51538342e+00  2.40957685e-07  1.52274797e+00                                 
 2.89428755e-07  7.31269627e-01  2.89428755e-07  6.66984771e-01  2.89428755e-07  6.69478246e-01  2.89428755e-07  1.80000000e+00  2.89428755e-07  3.50623004e-03  2.89428755e-07  6.68301750e-01  2.89428755e-07  1.51569809e+00  2.89428755e-07  1.52274486e+00                                 
 3.86370895e-07  7.31260126e-01  3.86370895e-07  6.66955425e-01  3.86370895e-07  6.69358407e-01  3.86370895e-07  1.80000000e+00  3.86370895e-07 -3.48983260e-03  3.86370895e-07  6.68057883e-01  3.86370895e-07  1.51537873e+00  3.86370895e-07  1.52274268e+00                                 
 5.80255175e-07  7.31269641e-01  5.80255175e-07  6.66984766e-01  5.80255175e-07  6.69480843e-01  5.80255175e-07  1.80000000e+00  5.80255175e-07  3.50416436e-03  5.80255175e-07  6.68301704e-01  5.80255175e-07  1.51568836e+00  5.80255175e-07  1.52273520e+00                                 
 9.68023735e-07  7.31260119e-01  9.68023735e-07  6.66955427e-01  9.68023735e-07  6.69357123e-01  9.68023735e-07  1.80000000e+00  9.68023735e-07 -3.48880702e-03  9.68023735e-07  6.68057904e-01  9.68023735e-07  1.51535944e+00  9.68023735e-07  1.52272338e+00                                 
 1.74356086e-06  7.31269645e-01  1.74356086e-06  6.66984766e-01  1.74356086e-06  6.69481436e-01  1.74356086e-06  1.80000000e+00  1.74356086e-06  3.50364816e-03  1.74356086e-06  6.68301694e-01  1.74356086e-06  1.51564971e+00  1.74356086e-06  1.52269662e+00                                 
 2.94356086e-06  7.31260117e-01  2.94356086e-06  6.66955428e-01  2.94356086e-06  6.69356784e-01  2.94356086e-06  1.80000000e+00  2.94356086e-06 -3.48853598e-03  2.94356086e-06  6.68057910e-01  2.94356086e-06  1.51529385e+00  2.94356086e-06  1.52265786e+00                                 
 4.14356086e-06  7.31269647e-01  4.14356086e-06  6.66984765e-01  4.14356086e-06  6.69481686e-01  4.14356086e-06  1.80000000e+00  4.14356086e-06  3.50342668e-03  4.14356086e-06  6.68301689e-01  4.14356086e-06  1.51556996e+00  4.14356086e-06  1.52261698e+00                                 
 5.34356086e-06  7.31260115e-01  5.34356086e-06  6.66955428e-01  5.34356086e-06  6.69356522e-01  5.34356086e-06  1.80000000e+00  5.34356086e-06 -3.48832182e-03  5.34356086e-06  6.68057913e-01  5.34356086e-06  1.51521408e+00  5.34356086e-06  1.52257819e+00                                 
 6.00100000e-06  7.31269649e-01  6.00100000e-06  6.66984764e-01  6.00100000e-06  6.69482034e-01  6.00100000e-06  1.80000000e+00  6.00100000e-06  3.50311261e-03  6.00100000e-06  6.68301683e-01  6.00100000e-06  1.51550823e+00  6.00100000e-06  1.52255534e+00                                 
 6.00110000e-06  7.31217740e-01  6.00110000e-06  6.66732314e-01  6.00110000e-06  6.67607253e-01  6.00110000e-06  1.62000000e+00  6.00110000e-06  2.05633320e-04  6.00110000e-06  6.66611323e-01  6.00110000e-06  1.51401448e+00  6.00110000e-06  1.52254450e+00                                 
 6.00130000e-06  7.31249979e-01  6.00130000e-06  6.66730647e-01  6.00130000e-06  6.67736664e-01  6.00130000e-06  1.26000000e+00  6.00130000e-06 -2.40359317e-04  6.00130000e-06  6.66399981e-01  6.00130000e-06  1.51382794e+00  6.00130000e-06  1.52256114e+00                                 
 6.00165730e-06  7.31312672e-01  6.00165730e-06  6.66926943e-01  6.00165730e-06  6.69719214e-01  6.00165730e-06  6.16859311e-01  6.00165730e-06  3.41878269e-03  6.00165730e-06  6.66748577e-01  6.00165730e-06  1.51086146e+00  6.00165730e-06  1.52253750e+00                                 
 6.00200000e-06  7.31251983e-01  6.00200000e-06  6.65464582e-01  6.00200000e-06  7.02182338e-01  6.00200000e-06  0.00000000e+00  6.00200000e-06  1.60061960e+00  6.00200000e-06  6.51273931e-01  6.00200000e-06  1.31902521e+00  6.00200000e-06  1.52195797e+00                                 
 6.00204110e-06  7.31267034e-01  6.00204110e-06  6.65026265e-01  6.00204110e-06  7.08637579e-01  6.00204110e-06  0.00000000e+00  6.00204110e-06  1.72243847e+00  6.00204110e-06  6.46309505e-01  6.00204110e-06  1.25802192e+00  6.00204110e-06  1.52196403e+00                                 
 6.00212331e-06  7.31267624e-01  6.00212331e-06  6.64233172e-01  6.00212331e-06  7.13287833e-01  6.00212331e-06  0.00000000e+00  6.00212331e-06  1.81339452e+00  6.00212331e-06  6.37578820e-01  6.00212331e-06  1.13182930e+00  6.00212331e-06  1.52233101e+00                                 
 6.00228773e-06  7.31263187e-01  6.00228773e-06  6.64107411e-01  6.00228773e-06  7.04198018e-01  6.00228773e-06  0.00000000e+00  6.00228773e-06  1.78947156e+00  6.00228773e-06  6.37048808e-01  6.00228773e-06  9.31365586e-01  6.00228773e-06  1.52281689e+00                                 
 6.00244211e-06  7.31265656e-01  6.00244211e-06  6.64684830e-01  6.00244211e-06  6.96973795e-01  6.00244211e-06  0.00000000e+00  6.00244211e-06  1.80376566e+00  6.00244211e-06  6.43673758e-01  6.00244211e-06  8.12782941e-01  6.00244211e-06  1.52278048e+00                                 
 6.00262946e-06  7.31262292e-01  6.00262946e-06  6.65546790e-01  6.00262946e-06  6.85076133e-01  6.00262946e-06  0.00000000e+00  6.00262946e-06  1.79673542e+00  6.00262946e-06  6.52275334e-01  6.00262946e-06  7.27667664e-01  6.00262946e-06  1.52299375e+00                                 
 6.00285472e-06  7.31265364e-01  6.00285472e-06  6.66573099e-01  6.00285472e-06  6.75336502e-01  6.00285472e-06  0.00000000e+00  6.00285472e-06  1.80189915e+00  6.00285472e-06  6.62072453e-01  6.00285472e-06  6.89131226e-01  6.00285472e-06  1.52279299e+00                                 
 6.00307132e-06  7.31262652e-01  6.00307132e-06  6.67019371e-01  6.00307132e-06  6.72179188e-01  6.00307132e-06  0.00000000e+00  6.00307132e-06  1.79886366e+00  6.00307132e-06  6.65389806e-01  6.00307132e-06  6.76160578e-01  6.00307132e-06  1.52235677e+00                                 
 6.00332575e-06  7.31265513e-01  6.00332575e-06  6.67349623e-01  6.00332575e-06  6.70373251e-01  6.00332575e-06  0.00000000e+00  6.00332575e-06  1.80083049e+00  6.00332575e-06  6.68088186e-01  6.00332575e-06  6.72209520e-01  6.00332575e-06  1.52141068e+00                                 
 6.00365563e-06  7.31263283e-01  6.00365563e-06  6.67428763e-01  6.00365563e-06  6.70727193e-01  6.00365563e-06  0.00000000e+00  6.00365563e-06  1.79942666e+00  6.00365563e-06  6.68542598e-01  6.00365563e-06  6.70418699e-01  6.00365563e-06  1.52000593e+00                                 
 6.00419126e-06  7.31265802e-01  6.00419126e-06  6.67476078e-01  6.00419126e-06  6.71362465e-01  6.00419126e-06  0.00000000e+00  6.00419126e-06  1.80050240e+00  6.00419126e-06  6.69420694e-01  6.00419126e-06  6.71524191e-01  6.00419126e-06  1.51730218e+00                                 
 6.00503410e-06  7.31263733e-01  6.00503410e-06  6.67382657e-01  6.00503410e-06  6.73907018e-01  6.00503410e-06  0.00000000e+00  6.00503410e-06  1.79957979e+00  6.00503410e-06  6.69212314e-01  6.00503410e-06  6.73227110e-01  6.00503410e-06  1.51274513e+00                                 
 6.00659176e-06  7.31265934e-01  6.00659176e-06  6.67299511e-01  6.00659176e-06  6.77871169e-01  6.00659176e-06  0.00000000e+00  6.00659176e-06  1.80041722e+00  6.00659176e-06  6.69656325e-01  6.00659176e-06  6.77906021e-01  6.00659176e-06  1.50368504e+00                                 
 6.00970709e-06  7.31263812e-01  6.00970709e-06  6.67083438e-01  6.00970709e-06  6.87069777e-01  6.00970709e-06  0.00000000e+00  6.00970709e-06  1.79961979e+00  6.00970709e-06  6.69161586e-01  6.00970709e-06  6.86326802e-01  6.00970709e-06  1.48479218e+00                                 
 6.01593776e-06  7.31265931e-01  6.01593776e-06  6.66964605e-01  6.01593776e-06  7.04025885e-01  6.01593776e-06  0.00000000e+00  6.01593776e-06  1.80039671e+00  6.01593776e-06  6.69169032e-01  6.01593776e-06  7.04051067e-01  6.01593776e-06  1.44595477e+00                                 
 6.02839908e-06  7.31263827e-01  6.02839908e-06  6.66940891e-01  6.02839908e-06  7.37436578e-01  6.02839908e-06  0.00000000e+00  6.02839908e-06  1.79962851e+00  6.02839908e-06  6.68359018e-01  6.02839908e-06  7.36574894e-01  6.02839908e-06  1.37237996e+00                                 
 6.04362148e-06  7.31265930e-01  6.04362148e-06  6.66981013e-01  6.04362148e-06  7.74734616e-01  6.04362148e-06  0.00000000e+00  6.04362148e-06  1.80038960e+00  6.04362148e-06  6.68469403e-01  6.04362148e-06  7.74824506e-01  6.04362148e-06  1.29139024e+00                                 
 6.07406626e-06  7.31263833e-01  6.07406626e-06  6.66954929e-01  6.07406626e-06  8.42142113e-01  6.07406626e-06  0.00000000e+00  6.07406626e-06  1.79962971e+00  6.07406626e-06  6.67995688e-01  6.07406626e-06  8.40741849e-01  6.07406626e-06  1.15003792e+00                                 
 6.12222468e-06  7.31265929e-01  6.12222468e-06  6.66985227e-01  6.12222468e-06  9.28033256e-01  6.12222468e-06  0.00000000e+00  6.12222468e-06  1.80038361e+00  6.12222468e-06  6.68345884e-01  6.12222468e-06  9.28586249e-01  6.12222468e-06  9.97133598e-01                                 
 6.21854153e-06  7.31263834e-01  6.21854153e-06  6.66955013e-01  6.21854153e-06  1.04571546e+00  6.21854153e-06  0.00000000e+00  6.21854153e-06  1.79962513e+00  6.21854153e-06  6.67996951e-01  6.21854153e-06  1.04312867e+00  6.21854153e-06  9.92325405e-01                                 
 6.27957875e-06  7.31265928e-01  6.27957875e-06  6.66985237e-01  6.27957875e-06  1.09082887e+00  6.27957875e-06  0.00000000e+00  6.27957875e-06  1.80037878e+00  6.27957875e-06  6.68355203e-01  6.27957875e-06  1.09210831e+00  6.27957875e-06  1.07863436e+00                                 
