 time            v(vbep)         time            v(vben)         time            v(vout)         time            v(vphi1)        time            v(vphi2)        time            v(vref)         time            v(voutc)        time            v(voutcc)       yes             currtemp       
 0.00000000e+00  7.60095533e-01  0.00000000e+00  6.99872480e-01  0.00000000e+00  1.57719328e+00  0.00000000e+00  0.00000000e+00  0.00000000e+00  1.80000000e+00  0.00000000e+00  7.01996574e-01  0.00000000e+00  1.57719327e+00  0.00000000e+00  1.58381654e+00  1.00000000e+00  3.60000000e+01 
 1.00000000e-11  7.60120572e-01  1.00000000e-11  6.99943739e-01  1.00000000e-11  1.57797510e+00  1.00000000e-11  1.80000000e-02  1.00000000e-11  1.80025123e+00  1.00000000e-11  7.02527776e-01  1.00000000e-11  1.57766331e+00  1.00000000e-11  1.58382971e+00                                 
 2.00000000e-11  7.60127425e-01  2.00000000e-11  6.99988427e-01  2.00000000e-11  1.57845764e+00  2.00000000e-11  3.60000000e-02  2.00000000e-11  1.80035114e+00  2.00000000e-11  7.02922453e-01  2.00000000e-11  1.57801962e+00  2.00000000e-11  1.58383455e+00                                 
 4.00000000e-11  7.60127363e-01  4.00000000e-11  7.00047347e-01  4.00000000e-11  1.57904168e+00  4.00000000e-11  7.20000000e-02  4.00000000e-11  1.80038986e+00  4.00000000e-11  7.03499803e-01  4.00000000e-11  1.57855172e+00  4.00000000e-11  1.58383589e+00                                 
 8.00000000e-11  7.60115495e-01  8.00000000e-11  7.00085319e-01  8.00000000e-11  1.57916984e+00  8.00000000e-11  1.44000000e-01  8.00000000e-11  1.80018651e+00  8.00000000e-11  7.03946626e-01  8.00000000e-11  1.57898849e+00  8.00000000e-11  1.58382516e+00                                 
 1.60000000e-10  7.60112588e-01  1.60000000e-10  7.00096004e-01  1.60000000e-10  1.57883845e+00  1.60000000e-10  2.88000000e-01  1.60000000e-10  1.80000412e+00  1.60000000e-10  7.04016200e-01  1.60000000e-10  1.57904402e+00  1.60000000e-10  1.58381548e+00                                 
 3.20000000e-10  7.60108786e-01  3.20000000e-10  7.00095213e-01  3.20000000e-10  1.57847372e+00  3.20000000e-10  5.76000000e-01  3.20000000e-10  1.79999157e+00  3.20000000e-10  7.03882143e-01  3.20000000e-10  1.57875754e+00  3.20000000e-10  1.58381144e+00                                 
 6.40000000e-10  7.60026374e-01  6.40000000e-10  6.99729427e-01  6.40000000e-10  1.57608925e+00  6.40000000e-10  1.15200000e+00  6.40000000e-10  1.81174751e+00  6.40000000e-10  7.01809791e-01  6.40000000e-10  1.58354946e+00  6.40000000e-10  1.58384014e+00                                 
 1.00000000e-09  7.60660724e-01  1.00000000e-09  6.99967890e-01  1.00000000e-09  1.55079617e+00  1.00000000e-09  1.80000000e+00  1.00000000e-09  9.18279597e-02  1.00000000e-09  7.12265636e-01  1.00000000e-09  1.58292843e+00  1.00000000e-09  1.58379681e+00                                 
 1.03641472e-09  7.60692438e-01  1.03641472e-09  7.00005898e-01  1.03641472e-09  1.54991691e+00  1.03641472e-09  1.80000000e+00  1.03641472e-09  2.04334266e-02  1.03641472e-09  7.15160605e-01  1.03641472e-09  1.58450373e+00  1.03641472e-09  1.58383635e+00                                 
 1.10924415e-09  7.60787660e-01  1.10924415e-09  7.00076368e-01  1.10924415e-09  1.54933015e+00  1.10924415e-09  1.80000000e+00  1.10924415e-09 -9.79685404e-03  1.10924415e-09  7.18911701e-01  1.10924415e-09  1.58742340e+00  1.10924415e-09  1.58386433e+00                                 
 1.25490303e-09  7.60900103e-01  1.25490303e-09  6.99948924e-01  1.25490303e-09  1.54744014e+00  1.25490303e-09  1.80000000e+00  1.25490303e-09  8.26164161e-03  1.25490303e-09  7.19150472e-01  1.25490303e-09  1.58787680e+00  1.25490303e-09  1.58381783e+00                                 
 1.46943587e-09  7.60893681e-01  1.46943587e-09  6.99923505e-01  1.46943587e-09  1.54649421e+00  1.46943587e-09  1.80000000e+00  1.46943587e-09 -6.43985676e-03  1.46943587e-09  7.18641989e-01  1.46943587e-09  1.58723817e+00  1.46943587e-09  1.58385007e+00                                 
 1.70008978e-09  7.60803289e-01  1.70008978e-09  6.99918239e-01  1.70008978e-09  1.54636698e+00  1.70008978e-09  1.80000000e+00  1.70008978e-09  5.56655457e-03  1.70008978e-09  7.17355001e-01  1.70008978e-09  1.58632039e+00  1.70008978e-09  1.58385470e+00                                 
 2.08862410e-09  7.60545900e-01  2.08862410e-09  6.99872559e-01  2.08862410e-09  1.54665825e+00  2.08862410e-09  1.80000000e+00  2.08862410e-09 -5.06879388e-03  2.08862410e-09  7.15218564e-01  2.08862410e-09  1.58434029e+00  2.08862410e-09  1.58393492e+00                                 
 2.47083740e-09  7.60351841e-01  2.47083740e-09  6.99878586e-01  2.47083740e-09  1.54720955e+00  2.47083740e-09  1.80000000e+00  2.47083740e-09  4.50288120e-03  2.47083740e-09  7.13462258e-01  2.47083740e-09  1.58298524e+00  2.47083740e-09  1.58399952e+00                                 
 3.12741176e-09  7.60129254e-01  3.12741176e-09  6.99836270e-01  3.12741176e-09  1.54699972e+00  3.12741176e-09  1.80000000e+00  3.12741176e-09 -4.33991414e-03  3.12741176e-09  7.10397329e-01  3.12741176e-09  1.58023565e+00  3.12741176e-09  1.58413318e+00                                 
 4.07866138e-09  7.60013583e-01  4.07866138e-09  6.99854769e-01  4.07866138e-09  1.54643366e+00  4.07866138e-09  1.80000000e+00  4.07866138e-09  4.08559856e-03  4.07866138e-09  7.07269855e-01  4.07866138e-09  1.57769600e+00  4.07866138e-09  1.58426582e+00                                 
 5.98116063e-09  7.59923044e-01  5.98116063e-09  6.99836227e-01  5.98116063e-09  1.54418061e+00  5.98116063e-09  1.80000000e+00  5.98116063e-09 -4.06360246e-03  5.98116063e-09  7.02930937e-01  5.98116063e-09  1.57387615e+00  5.98116063e-09  1.58435927e+00                                 
 7.62246884e-09  7.59925123e-01  7.62246884e-09  6.99872870e-01  7.62246884e-09  1.54226382e+00  7.62246884e-09  1.80000000e+00  7.62246884e-09  3.94551459e-03  7.62246884e-09  7.01454704e-01  7.62246884e-09  1.57274299e+00  7.62246884e-09  1.58425355e+00                                 
 9.12074283e-09  7.59943391e-01  9.12074283e-09  6.99851384e-01  9.12074283e-09  1.53883375e+00  9.12074283e-09  1.80000000e+00  9.12074283e-09 -3.86173177e-03  9.12074283e-09  7.00516514e-01  9.12074283e-09  1.57182371e+00  9.12074283e-09  1.58407934e+00                                 
 1.07571414e-08  7.59988407e-01  1.07571414e-08  6.99881511e-01  1.07571414e-08  1.53435752e+00  1.07571414e-08  1.80000000e+00  1.07571414e-08  3.76896283e-03  1.07571414e-08  7.00396270e-01  1.07571414e-08  1.57183402e+00  1.07571414e-08  1.58383633e+00                                 
 1.29863092e-08  7.60028508e-01  1.29863092e-08  6.99856944e-01  1.29863092e-08  1.52597658e+00  1.29863092e-08  1.80000000e+00  1.29863092e-08 -3.70877401e-03  1.29863092e-08  7.00087558e-01  1.29863092e-08  1.57144604e+00  1.29863092e-08  1.58349411e+00                                 
 1.57439318e-08  7.60075487e-01  1.57439318e-08  6.99885162e-01  1.57439318e-08  1.51452886e+00  1.57439318e-08  1.80000000e+00  1.57439318e-08  3.66025203e-03  1.57439318e-08  7.00439862e-01  1.57439318e-08  1.57184369e+00  1.57439318e-08  1.58307704e+00                                 
 1.94720981e-08  7.60094205e-01  1.94720981e-08  6.99859183e-01  1.94720981e-08  1.49700667e+00  1.94720981e-08  1.80000000e+00  1.94720981e-08 -3.62202018e-03  1.94720981e-08  7.00489273e-01  1.94720981e-08  1.57175250e+00  1.94720981e-08  1.58257916e+00                                 
 2.45303162e-08  7.60109721e-01  2.45303162e-08  6.99886365e-01  2.45303162e-08  1.47284435e+00  2.45303162e-08  1.80000000e+00  2.45303162e-08  3.59834039e-03  2.45303162e-08  7.01056957e-01  2.45303162e-08  1.57232343e+00  2.45303162e-08  1.58201225e+00                                 
 3.27619934e-08  7.60100888e-01  3.27619934e-08  6.99859460e-01  3.27619934e-08  1.43224982e+00  3.27619934e-08  1.80000000e+00  3.27619934e-08 -3.57964035e-03  3.27619934e-08  7.01230592e-01  3.27619934e-08  1.57233418e+00  3.27619934e-08  1.58132573e+00                                 
 4.62356253e-08  7.60102967e-01  4.62356253e-08  6.99886050e-01  4.62356253e-08  1.36624424e+00  4.62356253e-08  1.80000000e+00  4.62356253e-08  3.57230893e-03  4.62356253e-08  7.01819187e-01  4.62356253e-08  1.57292292e+00  4.62356253e-08  1.58061048e+00                                 
 7.31828890e-08  7.60092910e-01  7.31828890e-08  6.99859070e-01  7.31828890e-08  1.23385662e+00  7.31828890e-08  1.80000000e+00  7.31828890e-08 -3.56500719e-03  7.31828890e-08  7.01845159e-01  7.31828890e-08  1.57281885e+00  7.31828890e-08  1.57995883e+00                                 
 1.12183686e-07  7.60098926e-01  1.12183686e-07  6.99885885e-01  1.12183686e-07  1.04479187e+00  1.12183686e-07  1.80000000e+00  1.12183686e-07  3.56442331e-03  1.12183686e-07  7.02111596e-01  1.12183686e-07  1.57315080e+00  1.12183686e-07  1.57969899e+00                                 
 1.68607877e-07  7.60091967e-01  1.68607877e-07  6.99859035e-01  1.68607877e-07  8.01263625e-01  1.68607877e-07  1.80000000e+00  1.68607877e-07 -3.55727370e-03  1.68607877e-07  7.01880269e-01  1.68607877e-07  1.57283997e+00  1.68607877e-07  1.57963172e+00                                 
 2.18692115e-07  7.60100594e-01  2.18692115e-07  6.99886003e-01  2.18692115e-07  7.03015656e-01  2.18692115e-07  1.80000000e+00  2.18692115e-07  3.56469290e-03  2.18692115e-07  7.02113552e-01  2.18692115e-07  1.57314647e+00  2.18692115e-07  1.57962255e+00                                 
 2.64962050e-07  7.60088934e-01  2.64962050e-07  6.99858918e-01  2.64962050e-07  7.04158246e-01  2.64962050e-07  1.80000000e+00  2.64962050e-07 -3.54941359e-03  2.64962050e-07  7.01883521e-01  2.64962050e-07  1.57283906e+00  2.64962050e-07  1.57962360e+00                                 
 2.85348127e-07  7.60101827e-01  2.85348127e-07  6.99885934e-01  2.85348127e-07  7.04427424e-01  2.85348127e-07  1.80000000e+00  2.85348127e-07  3.55577135e-03  2.85348127e-07  7.02109366e-01  2.85348127e-07  1.57314038e+00  2.85348127e-07  1.57961997e+00                                 
 3.18756909e-07  7.60089642e-01  3.18756909e-07  6.99859052e-01  3.18756909e-07  7.03957966e-01  3.18756909e-07  1.80000000e+00  3.18756909e-07 -3.53951947e-03  3.18756909e-07  7.01883188e-01  3.18756909e-07  1.57283693e+00  3.18756909e-07  1.57962007e+00                                 
 3.85574472e-07  7.60101274e-01  3.85574472e-07  6.99885891e-01  3.85574472e-07  7.04361503e-01  3.85574472e-07  1.80000000e+00  3.85574472e-07  3.55012108e-03  3.85574472e-07  7.02110048e-01  3.85574472e-07  1.57313724e+00  3.85574472e-07  1.57961554e+00                                 
 5.00446051e-07  7.60089875e-01  5.00446051e-07  6.99859062e-01  5.00446051e-07  7.03966565e-01  5.00446051e-07  1.80000000e+00  5.00446051e-07 -3.53656078e-03  5.00446051e-07  7.01882993e-01  5.00446051e-07  1.57283028e+00  5.00446051e-07  1.57961336e+00                                 
 7.30189210e-07  7.60101150e-01  7.30189210e-07  6.99885887e-01  7.30189210e-07  7.04357079e-01  7.30189210e-07  1.80000000e+00  7.30189210e-07  3.54847878e-03  7.30189210e-07  7.02110144e-01  7.30189210e-07  1.57312491e+00  7.30189210e-07  1.57960317e+00                                 
 1.18967553e-06  7.60089936e-01  1.18967553e-06  6.99859063e-01  1.18967553e-06  7.03968693e-01  1.18967553e-06  1.80000000e+00  1.18967553e-06 -3.53573601e-03  1.18967553e-06  7.01882947e-01  1.18967553e-06  1.57280547e+00  1.18967553e-06  1.57958862e+00                                 
 2.10864816e-06  7.60101120e-01  2.10864816e-06  6.99885887e-01  2.10864816e-06  7.04356021e-01  2.10864816e-06  1.80000000e+00  2.10864816e-06  3.54806827e-03  2.10864816e-06  7.02110166e-01  2.10864816e-06  1.57307537e+00  2.10864816e-06  1.57955368e+00                                 
 3.30864816e-06  7.60089954e-01  3.30864816e-06  6.99859064e-01  3.30864816e-06  7.03969327e-01  3.30864816e-06  1.80000000e+00  3.30864816e-06 -3.53551503e-03  3.30864816e-06  7.01882935e-01  3.30864816e-06  1.57272929e+00  3.30864816e-06  1.57951255e+00                                 
 4.50864816e-06  7.60101105e-01  4.50864816e-06  6.99885886e-01  4.50864816e-06  7.04355506e-01  4.50864816e-06  1.80000000e+00  4.50864816e-06  3.54786019e-03  4.50864816e-06  7.02110177e-01  4.50864816e-06  1.57298909e+00  4.50864816e-06  1.57946752e+00                                 
 5.70864816e-06  7.60089969e-01  5.70864816e-06  6.99859064e-01  5.70864816e-06  7.03969864e-01  5.70864816e-06  1.80000000e+00  5.70864816e-06 -3.53531120e-03  5.70864816e-06  7.01882924e-01  5.70864816e-06  1.57264301e+00  5.70864816e-06  1.57942641e+00                                 
 6.00100000e-06  7.60101067e-01  6.00100000e-06  6.99885885e-01  6.00100000e-06  7.04354158e-01  6.00100000e-06  1.80000000e+00  6.00100000e-06  3.54732541e-03  6.00100000e-06  7.02110204e-01  6.00100000e-06  1.57293547e+00  6.00100000e-06  1.57941396e+00                                 
 6.00110000e-06  7.60053860e-01  6.00110000e-06  6.99632273e-01  6.00110000e-06  7.02402076e-01  6.00110000e-06  1.62000000e+00  6.00110000e-06  1.90285890e-04  6.00110000e-06  7.00368924e-01  6.00110000e-06  1.57139971e+00  6.00110000e-06  1.57940283e+00                                 
 6.00130000e-06  7.60085157e-01  6.00130000e-06  6.99638755e-01  6.00130000e-06  7.02669367e-01  6.00130000e-06  1.26000000e+00  6.00130000e-06 -2.21909449e-04  6.00130000e-06  7.00288386e-01  6.00130000e-06  1.57132542e+00  6.00130000e-06  1.57942119e+00                                 
 6.00170000e-06  7.60142820e-01  6.00170000e-06  6.99151886e-01  6.00170000e-06  7.21272058e-01  6.00170000e-06  5.40000000e-01  6.00170000e-06  1.52896864e+00  6.00170000e-06  6.93104186e-01  6.00170000e-06  1.47830425e+00  6.00170000e-06  1.57907969e+00                                 
 6.00200000e-06  7.60079560e-01  6.00200000e-06  6.96837337e-01  6.00200000e-06  7.49752394e-01  6.00200000e-06  0.00000000e+00  6.00200000e-06  1.87520973e+00  6.00200000e-06  6.68710276e-01  6.00200000e-06  1.14076571e+00  6.00200000e-06  1.57903710e+00                                 
 6.00203680e-06  7.60092571e-01  6.00203680e-06  6.96907762e-01  6.00203680e-06  7.44211405e-01  6.00203680e-06  0.00000000e+00  6.00203680e-06  1.82923878e+00  6.00203680e-06  6.69759802e-01  6.00203680e-06  1.09689712e+00  6.00203680e-06  1.57936807e+00                                 
 6.00211039e-06  7.60099130e-01  6.00211039e-06  6.97156059e-01  6.00211039e-06  7.36295913e-01  6.00211039e-06  0.00000000e+00  6.00211039e-06  1.79214128e+00  6.00211039e-06  6.73116317e-01  6.00211039e-06  1.02278292e+00  6.00211039e-06  1.57963798e+00                                 
 6.00225757e-06  7.60094613e-01  6.00225757e-06  6.97495812e-01  6.00225757e-06  7.32387078e-01  6.00225757e-06  0.00000000e+00  6.00225757e-06  1.80237926e+00  6.00225757e-06  6.77206808e-01  6.00225757e-06  9.08274841e-01  6.00225757e-06  1.57956955e+00                                 
 6.00247022e-06  7.60095998e-01  6.00247022e-06  6.98166806e-01  6.00247022e-06  7.23153970e-01  6.00247022e-06  0.00000000e+00  6.00247022e-06  1.79736837e+00  6.00247022e-06  6.83781233e-01  6.00247022e-06  7.93689308e-01  6.00247022e-06  1.57970555e+00                                 
 6.00269287e-06  7.60094270e-01  6.00269287e-06  6.99150789e-01  6.00269287e-06  7.12893966e-01  6.00269287e-06  0.00000000e+00  6.00269287e-06  1.80109730e+00  6.00269287e-06  6.93216001e-01  6.00269287e-06  7.37894633e-01  6.00269287e-06  1.57964867e+00                                 
 6.00291679e-06  7.60095401e-01  6.00291679e-06  6.99745141e-01  6.00291679e-06  7.08238428e-01  6.00291679e-06  0.00000000e+00  6.00291679e-06  1.79930886e+00  6.00291679e-06  6.97885870e-01  6.00291679e-06  7.16186503e-01  6.00291679e-06  1.57947928e+00                                 
 6.00320237e-06  7.60094696e-01  6.00320237e-06  7.00201732e-01  6.00320237e-06  7.05294710e-01  6.00320237e-06  0.00000000e+00  6.00320237e-06  1.80049143e+00  6.00320237e-06  7.01329539e-01  6.00320237e-06  7.07953834e-01  6.00320237e-06  1.57886456e+00                                 
 6.00350113e-06  7.60095591e-01  6.00350113e-06  7.00344344e-01  6.00350113e-06  7.05316964e-01  6.00350113e-06  0.00000000e+00  6.00350113e-06  1.79972582e+00  6.00350113e-06  7.02144966e-01  6.00350113e-06  7.05470199e-01  6.00350113e-06  1.57802733e+00                                 
 6.00397809e-06  7.60095148e-01  6.00397809e-06  7.00416550e-01  6.00397809e-06  7.05393849e-01  6.00397809e-06  0.00000000e+00  6.00397809e-06  1.80022503e+00  6.00397809e-06  7.02985823e-01  6.00397809e-06  7.05569108e-01  6.00397809e-06  1.57635016e+00                                 
 6.00467177e-06  7.60095864e-01  6.00467177e-06  7.00352312e-01  6.00467177e-06  7.07240918e-01  6.00467177e-06  0.00000000e+00  6.00467177e-06  1.79984436e+00  6.00467177e-06  7.03008381e-01  6.00467177e-06  7.06665361e-01  6.00467177e-06  1.57366394e+00                                 
 6.00603475e-06  7.60095321e-01  6.00603475e-06  7.00254465e-01  6.00603475e-06  7.10046282e-01  6.00603475e-06  0.00000000e+00  6.00603475e-06  1.80015718e+00  6.00603475e-06  7.03349248e-01  6.00603475e-06  7.10028250e-01  6.00603475e-06  1.56790278e+00                                 
 6.00862593e-06  7.60095819e-01  6.00862593e-06  7.00065060e-01  6.00862593e-06  7.16942935e-01  6.00862593e-06  0.00000000e+00  6.00862593e-06  1.79987453e+00  6.00862593e-06  7.03138705e-01  6.00862593e-06  7.16280067e-01  6.00862593e-06  1.55647774e+00                                 
 6.01380828e-06  7.60095248e-01  6.01380828e-06  6.99891940e-01  6.01380828e-06  7.29582416e-01  6.01380828e-06  0.00000000e+00  6.01380828e-06  1.80014129e+00  6.01380828e-06  7.03043769e-01  6.01380828e-06  7.29527705e-01  6.01380828e-06  1.53345566e+00                                 
 6.02417300e-06  7.60095806e-01  6.02417300e-06  6.99837004e-01  6.02417300e-06  7.55097589e-01  6.02417300e-06  0.00000000e+00  6.02417300e-06  1.79988116e+00  6.02417300e-06  7.02440281e-01  6.02417300e-06  7.54339907e-01  6.02417300e-06  1.48936737e+00                                 
 6.04490242e-06  7.60095256e-01  6.04490242e-06  6.99881518e-01  6.04490242e-06  8.01208348e-01  6.04490242e-06  0.00000000e+00  6.04490242e-06  1.80013629e+00  6.04490242e-06  7.02206339e-01  6.04490242e-06  8.01197649e-01  6.04490242e-06  1.40871177e+00                                 
 6.08636127e-06  7.60095809e-01  6.08636127e-06  6.99860950e-01  6.08636127e-06  8.81177809e-01  6.08636127e-06  0.00000000e+00  6.08636127e-06  1.79987985e+00  6.08636127e-06  7.01887802e-01  6.08636127e-06  8.79609867e-01  6.08636127e-06  1.26881827e+00                                 
 6.16927896e-06  7.60095258e-01  6.16927896e-06  6.99883770e-01  6.16927896e-06  9.96852410e-01  6.16927896e-06  0.00000000e+00  6.16927896e-06  1.80013036e+00  6.16927896e-06  7.02080326e-01  6.16927896e-06  9.97572897e-01  6.16927896e-06  1.06962147e+00                                 
 6.28222835e-06  7.60095808e-01  6.28222835e-06  6.99861458e-01  6.28222835e-06  1.09084322e+00  6.28222835e-06  0.00000000e+00  6.28222835e-06  1.79987498e+00  6.28222835e-06  7.01902187e-01  6.28222835e-06  1.08900907e+00  6.28222835e-06  1.04888182e+00                                 
 6.38980726e-06  7.60095258e-01  6.38980726e-06  6.99883263e-01  6.38980726e-06  1.13760619e+00  6.38980726e-06  0.00000000e+00  6.38980726e-06  1.80012714e+00  6.38980726e-06  7.02084616e-01  6.38980726e-06  1.13856839e+00  6.38980726e-06  1.13754297e+00                                 
 6.49126373e-06  7.60095808e-01  6.49126373e-06  6.99861943e-01  6.49126373e-06  1.16239561e+00  6.49126373e-06  0.00000000e+00  6.49126373e-06  1.79987411e+00  6.49126373e-06  7.01904442e-01  6.49126373e-06  1.16126154e+00  6.49126373e-06  1.16092604e+00                                 
