 time            v(vbep)         time            v(vben)         time            v(vout)         time            v(vphi1)        time            v(vphi2)        time            v(vref)         yes             currtemp       
 0.00000000e+00  8.89372719e-01  0.00000000e+00  8.43780138e-01  0.00000000e+00  9.80355162e-01  0.00000000e+00  0.00000000e+00  0.00000000e+00  1.79801838e+00  0.00000000e+00  8.43780138e-01  1.00000000e+00 -3.90000000e+01 
 5.00000000e-12  8.88546119e-01  5.00000000e-12  8.43421132e-01  5.00000000e-12  9.81103837e-01  5.00000000e-12  1.80000000e-02  5.00000000e-12  1.79848601e+00  5.00000000e-12  8.43421132e-01                                 
 1.00000000e-11  8.87936958e-01  1.00000000e-11  8.43213087e-01  1.00000000e-11  9.81811951e-01  1.00000000e-11  3.60000000e-02  1.00000000e-11  1.79889060e+00  1.00000000e-11  8.43213087e-01                                 
 2.00000000e-11  8.86999019e-01  2.00000000e-11  8.42862089e-01  2.00000000e-11  9.83151966e-01  2.00000000e-11  7.20000000e-02  2.00000000e-11  1.79952690e+00  2.00000000e-11  8.42862089e-01                                 
 4.00000000e-11  8.85967717e-01  4.00000000e-11  8.42232399e-01  4.00000000e-11  9.85488979e-01  4.00000000e-11  1.44000000e-01  4.00000000e-11  1.80005360e+00  4.00000000e-11  8.42232399e-01                                 
 8.00000000e-11  8.84564477e-01  8.00000000e-11  8.40968140e-01  8.00000000e-11  9.89130554e-01  8.00000000e-11  2.88000000e-01  8.00000000e-11  1.80012308e+00  8.00000000e-11  8.40968140e-01                                 
 1.60000000e-10  8.81899873e-01  1.60000000e-10  8.38494439e-01  1.60000000e-10  9.94270989e-01  1.60000000e-10  5.76000000e-01  1.60000000e-10  1.80001609e+00  1.60000000e-10  8.38494439e-01                                 
 3.20000000e-10  8.76721399e-01  3.20000000e-10  8.33696907e-01  3.20000000e-10  9.83207429e-01  3.20000000e-10  1.15200000e+00  3.20000000e-10  1.80027597e+00  3.20000000e-10  8.33696907e-01                                 
 5.00000000e-10  8.71251031e-01  5.00000000e-10  8.28610174e-01  5.00000000e-10  1.02751324e+00  5.00000000e-10  1.80000000e+00  5.00000000e-10  1.04052052e-01  5.00000000e-10  8.28610174e-01                                 
 5.19907058e-10  8.70674932e-01  5.19907058e-10  8.28075754e-01  5.19907058e-10  1.04244636e+00  5.19907058e-10  1.80000000e+00  5.19907058e-10  2.18133890e-02  5.19907058e-10  8.28075754e-01                                 
 5.59721174e-10  8.69530561e-01  5.59721174e-10  8.27009927e-01  5.59721174e-10  1.07288492e+00  5.59721174e-10  1.80000000e+00  5.59721174e-10 -9.49162997e-03  5.59721174e-10  8.27009927e-01                                 
 6.39349405e-10  8.67293051e-01  6.39349405e-10  8.24925274e-01  6.39349405e-10  1.13014182e+00  6.39349405e-10  1.80000000e+00  6.39349405e-10  8.11125564e-03  6.39349405e-10  8.24925274e-01                                 
 7.59723952e-10  8.64042870e-01  7.59723952e-10  8.21896213e-01  7.59723952e-10  1.21477358e+00  7.59723952e-10  1.80000000e+00  7.59723952e-10 -6.76663934e-03  7.59723952e-10  8.21896213e-01                                 
 9.39483690e-10  8.59479941e-01  9.39483690e-10  8.17641488e-01  9.39483690e-10  1.33206565e+00  9.39483690e-10  1.80000000e+00  9.39483690e-10  6.67842764e-03  9.39483690e-10  8.17641488e-01                                 
 1.29900317e-09  8.51301156e-01  1.29900317e-09  8.10012012e-01  1.29900317e-09  1.51168103e+00  1.29900317e-09  1.80000000e+00  1.29900317e-09 -6.00058456e-03  1.29900317e-09  8.10012012e-01                                 
 1.81178809e-09  8.41700091e-01  1.81178809e-09  8.01032179e-01  1.81178809e-09  1.65436700e+00  1.81178809e-09  1.80000000e+00  1.81178809e-09  6.07702015e-03  1.81178809e-09  8.01032179e-01                                 
 2.20654708e-09  8.35788257e-01  2.20654708e-09  7.95464391e-01  2.20654708e-09  1.70061836e+00  2.20654708e-09  1.80000000e+00  2.20654708e-09 -5.73097133e-03  2.20654708e-09  7.95464391e-01                                 
 2.71228421e-09  8.29502846e-01  2.71228421e-09  7.89509566e-01  2.71228421e-09  1.72437220e+00  2.71228421e-09  1.80000000e+00  2.71228421e-09  5.61885511e-03  2.71228421e-09  7.89509566e-01                                 
 3.18549010e-09  8.24643535e-01  3.18549010e-09  7.84877392e-01  3.18549010e-09  1.72941141e+00  3.18549010e-09  1.80000000e+00  3.18549010e-09 -5.42098679e-03  3.18549010e-09  7.84877392e-01                                 
 3.99191373e-09  8.17891250e-01  3.99191373e-09  7.78398595e-01  3.99191373e-09  1.72776672e+00  3.99191373e-09  1.80000000e+00  3.99191373e-09  5.33089952e-03  3.99191373e-09  7.78398595e-01                                 
 4.99115214e-09  8.11408276e-01  4.99115214e-09  7.72130452e-01  4.99115214e-09  1.72115909e+00  4.99115214e-09  1.80000000e+00  4.99115214e-09 -5.24453300e-03  4.99115214e-09  7.72130452e-01                                 
 6.98962896e-09  8.01921313e-01  6.98962896e-09  7.62882931e-01  6.98962896e-09  1.71143026e+00  6.98962896e-09  1.80000000e+00  6.98962896e-09  5.21602204e-03  6.98962896e-09  7.62882931e-01                                 
 1.01599219e-08  7.91969972e-01  1.01599219e-08  7.53091994e-01  1.01599219e-08  1.70127945e+00  1.01599219e-08  1.80000000e+00  1.01599219e-08 -5.17794161e-03  1.01599219e-08  7.53091994e-01                                 
 1.65005078e-08  7.79670828e-01  1.65005078e-08  7.40893583e-01  1.65005078e-08  1.68947514e+00  1.65005078e-08  1.80000000e+00  1.65005078e-08  5.18209148e-03  1.65005078e-08  7.40893583e-01                                 
 2.34604216e-08  7.71419882e-01  2.34604216e-08  7.32656869e-01  2.34604216e-08  1.68136341e+00  2.34604216e-08  1.80000000e+00  2.34604216e-08 -5.15197503e-03  2.34604216e-08  7.32656869e-01                                 
 3.00850151e-08  7.65782436e-01  3.00850151e-08  7.27011777e-01  3.00850151e-08  1.67615085e+00  3.00850151e-08  1.80000000e+00  3.00850151e-08  5.15976187e-03  3.00850151e-08  7.27011777e-01                                 
 3.22467260e-08  7.64238473e-01  3.22467260e-08  7.25463752e-01  3.22467260e-08  1.67449374e+00  3.22467260e-08  1.80000000e+00  3.22467260e-08 -5.10644937e-03  3.22467260e-08  7.25463752e-01                                 
 3.54039880e-08  7.62165190e-01  3.54039880e-08  7.23383399e-01  3.54039880e-08  1.67271062e+00  3.54039880e-08  1.80000000e+00  3.54039880e-08  5.10142674e-03  3.54039880e-08  7.23383399e-01                                 
 3.88095276e-08  7.60132933e-01  3.88095276e-08  7.21343181e-01  3.88095276e-08  1.67057893e+00  3.88095276e-08  1.80000000e+00  3.88095276e-08 -5.06113420e-03  3.88095276e-08  7.21343181e-01                                 
 4.56206067e-08  7.56559382e-01  4.56206067e-08  7.17752245e-01  4.56206067e-08  1.66737511e+00  4.56206067e-08  1.80000000e+00  4.56206067e-08  5.06887062e-03  4.56206067e-08  7.17752245e-01                                 
 5.32845275e-08  7.53145865e-01  5.32845275e-08  7.14318807e-01  5.32845275e-08  1.66393597e+00  5.32845275e-08  1.80000000e+00  5.32845275e-08 -5.04056206e-03  5.32845275e-08  7.14318807e-01                                 
 6.86123691e-08  7.47584266e-01  6.86123691e-08  7.08717687e-01  6.86123691e-08  1.65884179e+00  6.86123691e-08  1.80000000e+00  6.86123691e-08  5.05469998e-03  6.86123691e-08  7.08717687e-01                                 
 9.52875414e-08  7.40369149e-01  9.52875414e-08  7.01439252e-01  9.52875414e-08  1.65179802e+00  9.52875414e-08  1.80000000e+00  9.52875414e-08 -5.03266434e-03  9.52875414e-08  7.01439252e-01                                 
 1.34473453e-07  7.33288241e-01  1.34473453e-07  6.94188955e-01  1.34473453e-07  1.64656454e+00  1.34473453e-07  1.80000000e+00  1.34473453e-07  5.05046637e-03  1.34473453e-07  6.94188955e-01                                 
 1.77907644e-07  7.28302128e-01  1.77907644e-07  6.88913861e-01  1.77907644e-07  1.64457150e+00  1.77907644e-07  1.80000000e+00  1.77907644e-07 -5.02914038e-03  1.77907644e-07  6.88913861e-01                                 
 2.20813202e-07  7.24433002e-01  2.20813202e-07  6.84828673e-01  2.20813202e-07  1.63613515e+00  2.20813202e-07  1.80000000e+00  2.20813202e-07  5.04702295e-03  2.20813202e-07  6.84828673e-01                                 
 2.54841719e-07  7.19609450e-01  2.54841719e-07  6.80325575e-01  2.54841719e-07  1.61689349e+00  2.54841719e-07  1.80000000e+00  2.54841719e-07 -5.02572618e-03  2.54841719e-07  6.80325575e-01                                 
 2.82528359e-07  7.12714414e-01  2.82528359e-07  6.74365451e-01  2.82528359e-07  1.60514973e+00  2.82528359e-07  1.80000000e+00  2.82528359e-07  5.04224271e-03  2.82528359e-07  6.74365451e-01                                 
 3.11947421e-07  7.04812518e-01  3.11947421e-07  6.67635040e-01  3.11947421e-07  1.56273902e+00  3.11947421e-07  1.80000000e+00  3.11947421e-07 -5.02160522e-03  3.11947421e-07  6.67635040e-01                                 
 3.33938682e-07  6.98782791e-01  3.33938682e-07  6.62547651e-01  3.33938682e-07  1.53187516e+00  3.33938682e-07  1.80000000e+00  3.33938682e-07  5.03662809e-03  3.33938682e-07  6.62547651e-01                                 
 3.56757194e-07  6.97553623e-01  3.56757194e-07  6.61288977e-01  3.56757194e-07  1.51795443e+00  3.56757194e-07  1.80000000e+00  3.56757194e-07 -5.01424812e-03  3.56757194e-07  6.61288977e-01                                 
 3.82125581e-07  7.06334872e-01  3.82125581e-07  6.67953245e-01  3.82125581e-07  1.51615198e+00  3.82125581e-07  1.80000000e+00  3.82125581e-07  5.03173690e-03  3.82125581e-07  6.67953245e-01                                 
 4.00281324e-07  7.07700624e-01  4.00281324e-07  6.68813956e-01  4.00281324e-07  1.49914100e+00  4.00281324e-07  1.80000000e+00  4.00281324e-07 -5.00869878e-03  4.00281324e-07  6.68813956e-01                                 
 4.18763237e-07  7.03799580e-01  4.18763237e-07  6.65496102e-01  4.18763237e-07  1.47938896e+00  4.18763237e-07  1.80000000e+00  4.18763237e-07  5.02336958e-03  4.18763237e-07  6.65496102e-01                                 
 4.35785282e-07  7.02141913e-01  4.35785282e-07  6.63987922e-01  4.35785282e-07  1.45978737e+00  4.35785282e-07  1.80000000e+00  4.35785282e-07 -5.00057522e-03  4.35785282e-07  6.63987922e-01                                 
 4.54626736e-07  7.00305103e-01  4.54626736e-07  6.62326161e-01  4.54626736e-07  1.44157130e+00  4.54626736e-07  1.80000000e+00  4.54626736e-07  5.01554847e-03  4.54626736e-07  6.62326161e-01                                 
 4.85533446e-07  6.96763810e-01  4.85533446e-07  6.59200911e-01  4.85533446e-07  1.40649321e+00  4.85533446e-07  1.80000000e+00  4.85533446e-07 -4.99453319e-03  4.85533446e-07  6.59200911e-01                                 
 5.29219587e-07  6.92306798e-01  5.29219587e-07  6.55258460e-01  5.29219587e-07  1.36174633e+00  5.29219587e-07  1.80000000e+00  5.29219587e-07  5.01170816e-03  5.29219587e-07  6.55258460e-01                                 
 6.08237726e-07  6.84290130e-01  6.08237726e-07  6.48262092e-01  6.08237726e-07  1.27493374e+00  6.08237726e-07  1.80000000e+00  6.08237726e-07 -4.99203183e-03  6.08237726e-07  6.48262092e-01                                 
 7.42996735e-07  6.72504155e-01  7.42996735e-07  6.38054580e-01  7.42996735e-07  1.13088739e+00  7.42996735e-07  1.80000000e+00  7.42996735e-07  5.01038651e-03  7.42996735e-07  6.38054580e-01                                 
 9.74662410e-07  6.51015226e-01  9.74662410e-07  6.19990713e-01  9.74662410e-07  8.87295929e-01  9.74662410e-07  1.80000000e+00  9.74662410e-07 -4.99133685e-03  9.74662410e-07  6.19990713e-01                                 
 1.22824352e-06  6.36028325e-01  1.22824352e-06  6.07411615e-01  1.22824352e-06  7.15966488e-01  1.22824352e-06  1.80000000e+00  1.22824352e-06  5.01027669e-03  1.22824352e-06  6.07411615e-01                                 
 1.49552252e-06  6.19012239e-01  1.49552252e-06  5.93403927e-01  1.49552252e-06  6.22029039e-01  1.49552252e-06  1.80000000e+00  1.49552252e-06 -4.99063607e-03  1.49552252e-06  5.93403927e-01                                 
 1.85002620e-06  6.01317710e-01  1.85002620e-06  5.78910718e-01  1.85002620e-06  5.83876195e-01  1.85002620e-06  1.80000000e+00  1.85002620e-06  5.00996244e-03  1.85002620e-06  5.78910718e-01                                 
 1.91154662e-06  5.98916422e-01  1.91154662e-06  5.76946051e-01  1.91154662e-06  5.80969382e-01  1.91154662e-06  1.80000000e+00  1.91154662e-06  2.37277491e-07  1.91154662e-06  5.76946051e-01                                 
 2.03458747e-06  5.94330954e-01  2.03458747e-06  5.73194600e-01  2.03458747e-06  5.76389388e-01  2.03458747e-06  1.80000000e+00  2.03458747e-06 -2.99194441e-07  2.03458747e-06  5.73194600e-01                                 
 2.25763663e-06  5.88166228e-01  2.25763663e-06  5.68130757e-01  2.25763663e-06  5.70484078e-01  2.25763663e-06  1.80000000e+00  2.25763663e-06  2.55549504e-07  2.25763663e-06  5.68130757e-01                                 
 2.31339892e-06  5.87317458e-01  2.31339892e-06  5.67422502e-01  2.31339892e-06  5.69673832e-01  2.31339892e-06  1.80000000e+00  2.31339892e-06 -9.81865812e-09  2.31339892e-06  5.67422502e-01                                 
 2.42492351e-06  5.86301144e-01  2.42492351e-06  5.66552924e-01  2.42492351e-06  5.68704514e-01  2.42492351e-06  1.80000000e+00  2.42492351e-06  1.20174001e-09  2.42492351e-06  5.66552924e-01                                 
 2.64797267e-06  5.92071126e-01  2.64797267e-06  5.71067148e-01  2.64797267e-06  5.74185741e-01  2.64797267e-06  1.80000000e+00  2.64797267e-06  5.33195796e-08  2.64797267e-06  5.71067148e-01                                 
 2.70373496e-06  5.96947458e-01  2.70373496e-06  5.74945900e-01  2.70373496e-06  5.78810376e-01  2.70373496e-06  1.80000000e+00  2.70373496e-06  8.30882307e-08  2.70373496e-06  5.74945900e-01                                 
 2.81525954e-06  6.15527725e-01  2.81525954e-06  5.89771625e-01  2.81525954e-06  5.96299533e-01  2.81525954e-06  1.80000000e+00  2.81525954e-06  2.28592550e-07  2.81525954e-06  5.89771625e-01                                 
 2.84314069e-06  6.25244281e-01  2.84314069e-06  5.97538055e-01  2.84314069e-06  6.05341240e-01  2.84314069e-06  1.80000000e+00  2.84314069e-06  3.24599652e-07  2.84314069e-06  5.97538055e-01                                 
 2.89890298e-06  6.57526369e-01  2.89890298e-06  6.23355806e-01  2.89890298e-06  6.34800564e-01  2.89890298e-06  1.80000000e+00  2.89890298e-06  7.65108050e-07  2.89890298e-06  6.23355806e-01                                 
 2.91284355e-06  6.72674882e-01  2.91284355e-06  6.35478324e-01  2.91284355e-06  6.48398811e-01  2.91284355e-06  1.80000000e+00  2.91284355e-06  1.04071252e-06  2.91284355e-06  6.35478324e-01                                 
 2.94072470e-06  7.17284584e-01  2.94072470e-06  6.71357508e-01  2.94072470e-06  6.88046246e-01  2.94072470e-06  1.80000000e+00  2.94072470e-06  2.13373346e-06  2.94072470e-06  6.71357508e-01                                 
 2.99648699e-06  8.40734834e-01  2.99648699e-06  7.96227394e-01  2.99648699e-06  7.86773932e-01  2.99648699e-06  1.80000000e+00  2.99648699e-06  3.65271526e-06  2.99648699e-06  7.96227394e-01                                 
 3.00353895e-06  8.50590000e-01  3.00353895e-06  8.06545069e-01  3.00353895e-06  7.92520536e-01  3.00353895e-06  1.80000000e+00  3.00353895e-06  2.05712198e-06  3.00353895e-06  8.06545069e-01                                 
 3.01764287e-06  8.68540389e-01  3.01764287e-06  8.23977709e-01  3.01764287e-06  8.00771967e-01  3.01764287e-06  1.80000000e+00  3.01764287e-06  1.47197652e-06  3.01764287e-06  8.23977709e-01                                 
 3.02116885e-06  8.72961502e-01  3.02116885e-06  8.28099652e-01  3.02116885e-06  8.02371753e-01  3.02116885e-06  1.80000000e+00  3.02116885e-06  1.67477024e-06  3.02116885e-06  8.28099652e-01                                 
 3.02822081e-06  8.81650832e-01  3.02822081e-06  8.36066086e-01  3.02822081e-06  8.05509534e-01  3.02822081e-06  1.80000000e+00  3.02822081e-06  1.62208198e-06  3.02822081e-06  8.36066086e-01                                 
 3.04232473e-06  9.00518615e-01  3.04232473e-06  8.52393482e-01  3.04232473e-06  8.11977055e-01  3.04232473e-06  1.80000000e+00  3.04232473e-06  1.84345503e-06  3.04232473e-06  8.52393482e-01                                 
 3.06426299e-06  9.32396773e-01  3.06426299e-06  8.76249703e-01  3.06426299e-06  8.23431355e-01  3.06426299e-06  1.80000000e+00  3.06426299e-06  1.65363907e-06  3.06426299e-06  8.76249703e-01                                 
 3.08757514e-06  9.58700814e-01  3.08757514e-06  8.92647803e-01  3.08757514e-06  8.82849362e-01  3.08757514e-06  1.80000000e+00  3.08757514e-06  2.96046748e-06  3.08757514e-06  8.92647803e-01                                 
 3.10808265e-06  9.56152122e-01  3.10808265e-06  8.91502809e-01  3.10808265e-06  8.72076059e-01  3.10808265e-06  1.80000000e+00  3.10808265e-06 -3.73987367e-06  3.10808265e-06  8.91502809e-01                                 
 3.12945600e-06  9.54014867e-01  3.12945600e-06  8.89942611e-01  3.12945600e-06  8.59348549e-01  3.12945600e-06  1.80000000e+00  3.12945600e-06  2.89209319e-06  3.12945600e-06  8.89942611e-01                                 
 3.15203449e-06  9.58223305e-01  3.15203449e-06  8.92586900e-01  3.15203449e-06  8.81458270e-01  3.15203449e-06  1.80000000e+00  3.15203449e-06 -1.53067819e-06  3.15203449e-06  8.92586900e-01                                 
 3.17861567e-06  9.54517190e-01  3.17861567e-06  8.90352305e-01  3.17861567e-06  8.63430705e-01  3.17861567e-06  1.80000000e+00  3.17861567e-06  5.53625833e-07  3.17861567e-06  8.90352305e-01                                 
 3.20586478e-06  9.56581488e-01  3.20586478e-06  8.91574320e-01  3.20586478e-06  8.77384731e-01  3.20586478e-06  1.80000000e+00  3.20586478e-06  1.09623076e-07  3.20586478e-06  8.91574320e-01                                 
 3.23746007e-06  9.54629439e-01  3.23746007e-06  8.90461042e-01  3.23746007e-06  8.68781570e-01  3.23746007e-06  1.80000000e+00  3.23746007e-06 -5.08152203e-07  3.23746007e-06  8.90461042e-01                                 
 3.27849305e-06  9.55350890e-01  3.27849305e-06  8.90836845e-01  3.27849305e-06  8.75653795e-01  3.27849305e-06  1.80000000e+00  3.27849305e-06  7.02818350e-07  3.27849305e-06  8.90836845e-01                                 
 3.33196683e-06  9.54044699e-01  3.33196683e-06  8.90129402e-01  3.33196683e-06  8.72533670e-01  3.33196683e-06  1.80000000e+00  3.33196683e-06 -8.06988776e-07  3.33196683e-06  8.90129402e-01                                 
 3.41228471e-06  9.53892728e-01  3.41228471e-06  8.89977271e-01  3.41228471e-06  8.76709798e-01  3.41228471e-06  1.80000000e+00  3.41228471e-06  8.50812982e-07  3.41228471e-06  8.89977271e-01                                 
 3.53594230e-06  9.52156778e-01  3.53594230e-06  8.89016373e-01  3.53594230e-06  8.75885514e-01  3.53594230e-06  1.80000000e+00  3.53594230e-06 -8.81292095e-07  3.53594230e-06  8.89016373e-01                                 
 3.73890065e-06  9.50536480e-01  3.73890065e-06  8.87979004e-01  3.73890065e-06  8.79177801e-01  3.73890065e-06  1.80000000e+00  3.73890065e-06  8.83546804e-07  3.73890065e-06  8.87979004e-01                                 
 4.08236879e-06  9.46285442e-01  4.08236879e-06  8.85459672e-01  4.08236879e-06  8.77955834e-01  4.08236879e-06  1.80000000e+00  4.08236879e-06 -9.04581531e-07  4.08236879e-06  8.85459672e-01                                 
 4.75259878e-06  9.36646292e-01  4.75259878e-06  8.79230160e-01  4.75259878e-06  8.75309673e-01  4.75259878e-06  1.80000000e+00  4.75259878e-06  8.79777242e-07  4.75259878e-06  8.79230160e-01                                 
