 time            v(vbep)         time            v(vben)         time            v(vout)         time            v(vphi1)        time            v(vphi2)        time            v(vref)         yes             currtemp       
 0.00000000e+00  7.36151680e-01  0.00000000e+00  6.80092009e-01  0.00000000e+00  1.00792380e+00  0.00000000e+00  0.00000000e+00  0.00000000e+00  1.79967667e+00  0.00000000e+00  5.00000000e-01  1.00000000e+00  3.00000000e+01 
 5.00000000e-12  7.35983794e-01  5.00000000e-12  6.79975460e-01  5.00000000e-12  1.00866263e+00  5.00000000e-12  1.80000000e-02  5.00000000e-12  1.79984625e+00  5.00000000e-12  5.00000000e-01                                 
 1.00000000e-11  7.35841178e-01  1.00000000e-11  6.79872274e-01  1.00000000e-11  1.00933351e+00  1.00000000e-11  3.60000000e-02  1.00000000e-11  1.79994895e+00  1.00000000e-11  5.00000000e-01                                 
 2.00000000e-11  7.35582104e-01  2.00000000e-11  6.79670463e-01  2.00000000e-11  1.01057162e+00  2.00000000e-11  7.20000000e-02  2.00000000e-11  1.80008266e+00  2.00000000e-11  5.00000000e-01                                 
 4.00000000e-11  7.35124444e-01  4.00000000e-11  6.79273546e-01  4.00000000e-11  1.01258413e+00  4.00000000e-11  1.44000000e-01  4.00000000e-11  1.80011689e+00  4.00000000e-11  5.00000000e-01                                 
 8.00000000e-11  7.34236744e-01  8.00000000e-11  6.78489052e-01  8.00000000e-11  1.01546519e+00  8.00000000e-11  2.88000000e-01  8.00000000e-11  1.80005071e+00  8.00000000e-11  5.00000000e-01                                 
 1.60000000e-10  7.32506150e-01  1.60000000e-10  6.76959065e-01  1.60000000e-10  1.01899493e+00  1.60000000e-10  5.76000000e-01  1.60000000e-10  1.79999853e+00  1.60000000e-10  5.00000000e-01                                 
 3.20000000e-10  7.29215130e-01  3.20000000e-10  6.74042809e-01  3.20000000e-10  1.01427264e+00  3.20000000e-10  1.15200000e+00  3.20000000e-10  1.80041266e+00  3.20000000e-10  5.00000000e-01                                 
 5.00000000e-10  7.25770544e-01  5.00000000e-10  6.70979528e-01  5.00000000e-10  1.17003022e+00  5.00000000e-10  1.80000000e+00  5.00000000e-10  1.13625881e-01  5.00000000e-10  5.00000000e-01                                 
 5.21351527e-10  7.25382033e-01  5.21351527e-10  6.70633093e-01  5.21351527e-10  1.20549422e+00  5.21351527e-10  1.80000000e+00  5.21351527e-10  2.22412669e-02  5.21351527e-10  5.00000000e-01                                 
 5.64054580e-10  7.24610658e-01  5.64054580e-10  6.69944630e-01  5.64054580e-10  1.26975068e+00  5.64054580e-10  1.80000000e+00  5.64054580e-10 -1.01096143e-02  5.64054580e-10  5.00000000e-01                                 
 6.49460686e-10  7.23106553e-01  6.49460686e-10  6.68600799e-01  6.49460686e-10  1.37296880e+00  6.49460686e-10  1.80000000e+00  6.49460686e-10  8.69705401e-03  6.49460686e-10  5.00000000e-01                                 
 7.71704489e-10  7.21041162e-01  7.71704489e-10  6.66751051e-01  7.71704489e-10  1.48941139e+00  7.71704489e-10  1.80000000e+00  7.71704489e-10 -7.45432638e-03  7.71704489e-10  5.00000000e-01                                 
 9.62624806e-10  7.18004156e-01  9.62624806e-10  6.64022010e-01  9.62624806e-10  1.62265243e+00  9.62624806e-10  1.80000000e+00  9.62624806e-10  7.06262075e-03  9.62624806e-10  5.00000000e-01                                 
 1.34446544e-09  7.12524728e-01  1.34446544e-09  6.59069527e-01  1.34446544e-09  1.77186879e+00  1.34446544e-09  1.80000000e+00  1.34446544e-09 -6.67398022e-03  1.34446544e-09  5.00000000e-01                                 
 1.62847508e-09  7.08913532e-01  1.62847508e-09  6.55780999e-01  1.62847508e-09  1.81687920e+00  1.62847508e-09  1.80000000e+00  1.62847508e-09  6.41918893e-03  1.62847508e-09  5.00000000e-01                                 
 1.97459051e-09  7.04942428e-01  1.97459051e-09  6.52142049e-01  1.97459051e-09  1.83913494e+00  1.97459051e-09  1.80000000e+00  1.97459051e-09 -6.07058914e-03  1.97459051e-09  5.00000000e-01                                 
 2.29739489e-09  7.01601735e-01  2.29739489e-09  6.49062317e-01  2.29739489e-09  1.84561685e+00  2.29739489e-09  1.80000000e+00  2.29739489e-09  5.88524724e-03  2.29739489e-09  5.00000000e-01                                 
 2.65406082e-09  6.98250966e-01  2.65406082e-09  6.45955770e-01  2.65406082e-09  1.84685693e+00  2.65406082e-09  1.80000000e+00  2.65406082e-09 -5.59047257e-03  2.65406082e-09  5.00000000e-01                                 
 3.08829065e-09  6.94572612e-01  3.08829065e-09  6.42526450e-01  3.08829065e-09  1.84569452e+00  3.08829065e-09  1.80000000e+00  3.08829065e-09  5.44154499e-03  3.08829065e-09  5.00000000e-01                                 
 3.55053509e-09  6.91062012e-01  3.55053509e-09  6.39234257e-01  3.55053509e-09  1.84351637e+00  3.55053509e-09  1.80000000e+00  3.55053509e-09 -5.25114115e-03  3.55053509e-09  5.00000000e-01                                 
 4.22267677e-09  6.86547771e-01  4.22267677e-09  6.34975511e-01  4.22267677e-09  1.84044009e+00  4.22267677e-09  1.80000000e+00  4.22267677e-09  5.15643653e-03  4.22267677e-09  5.00000000e-01                                 
 5.10542155e-09  6.81452400e-01  5.10542155e-09  6.30134618e-01  5.10542155e-09  1.83679575e+00  5.10542155e-09  1.80000000e+00  5.10542155e-09 -5.05656448e-03  5.10542155e-09  5.00000000e-01                                 
 6.74914778e-09  6.73708343e-01  6.74914778e-09  6.22716913e-01  6.74914778e-09  1.83139703e+00  6.74914778e-09  1.80000000e+00  6.74914778e-09  5.02927588e-03  6.74914778e-09  5.00000000e-01                                 
 9.77751768e-09  6.63116263e-01  9.77751768e-09  6.12465058e-01  9.77751768e-09  1.82397857e+00  9.77751768e-09  1.80000000e+00  9.77751768e-09 -4.98730234e-03  9.77751768e-09  5.00000000e-01                                 
 1.58342575e-08  6.49054506e-01  1.58342575e-08  5.98699812e-01  1.58342575e-08  1.81426966e+00  1.58342575e-08  1.80000000e+00  1.58342575e-08  4.99503799e-03  1.58342575e-08  5.00000000e-01                                 
 2.65606636e-08  6.34055743e-01  2.65606636e-08  5.83863079e-01  2.65606636e-08  1.80385937e+00  2.65606636e-08  1.80000000e+00  2.65606636e-08 -4.96782961e-03  2.65606636e-08  5.00000000e-01                                 
 4.04535080e-08  6.22200280e-01  4.04535080e-08  5.72054022e-01  4.04535080e-08  1.79566504e+00  4.04535080e-08  1.80000000e+00  4.04535080e-08  4.98392881e-03  4.04535080e-08  5.00000000e-01                                 
 6.41839640e-08  6.09198832e-01  6.41839640e-08  5.59052427e-01  6.41839640e-08  1.78653750e+00  6.41839640e-08  1.80000000e+00  6.41839640e-08 -4.95945329e-03  6.41839640e-08  5.00000000e-01                                 
 1.02154304e-07  5.96611219e-01  1.02154304e-07  5.46338690e-01  1.02154304e-07  1.78326125e+00  1.02154304e-07  1.80000000e+00  1.02154304e-07  4.97933603e-03  1.02154304e-07  5.00000000e-01                                 
 1.47136445e-07  5.87764119e-01  1.47136445e-07  5.37192892e-01  1.47136445e-07  1.79400841e+00  1.47136445e-07  1.80000000e+00  1.47136445e-07 -4.95598713e-03  1.47136445e-07  5.00000000e-01                                 
 1.91118676e-07  5.81206579e-01  1.91118676e-07  5.30473146e-01  1.91118676e-07  1.76144962e+00  1.91118676e-07  1.80000000e+00  1.91118676e-07  4.97622246e-03  1.91118676e-07  5.00000000e-01                                 
 2.25687623e-07  5.73835524e-01  2.25687623e-07  5.23667409e-01  2.25687623e-07  1.66984788e+00  2.25687623e-07  1.80000000e+00  2.25687623e-07 -4.95245316e-03  2.25687623e-07  5.00000000e-01                                 
 2.53961861e-07  5.62364846e-01  2.53961861e-07  5.13904980e-01  2.53961861e-07  1.60455928e+00  2.53961861e-07  1.80000000e+00  2.53961861e-07  4.97154975e-03  2.53961861e-07  5.00000000e-01                                 
 2.83658818e-07  5.53322289e-01  2.83658818e-07  5.06126538e-01  2.83658818e-07  1.46026951e+00  2.83658818e-07  1.80000000e+00  2.83658818e-07 -4.94759975e-03  2.83658818e-07  5.00000000e-01                                 
 3.06841281e-07  5.50865565e-01  3.06841281e-07  5.03751746e-01  3.06841281e-07  1.34690950e+00  3.06841281e-07  1.80000000e+00  3.06841281e-07  4.96641405e-03  3.06841281e-07  5.00000000e-01                                 
 3.30971245e-07  5.56837342e-01  3.30971245e-07  5.08054235e-01  3.30971245e-07  1.26478426e+00  3.30971245e-07  1.80000000e+00  3.30971245e-07 -4.94146117e-03  3.30971245e-07  5.00000000e-01                                 
 3.48760365e-07  5.58004830e-01  3.48760365e-07  5.08669506e-01  3.48760365e-07  1.15306579e+00  3.48760365e-07  1.80000000e+00  3.48760365e-07  4.95944275e-03  3.48760365e-07  5.00000000e-01                                 
 3.69204600e-07  5.52582159e-01  3.69204600e-07  5.04036602e-01  3.69204600e-07  1.02741988e+00  3.69204600e-07  1.80000000e+00  3.69204600e-07 -4.93450892e-03  3.69204600e-07  5.00000000e-01                                 
 3.90952545e-07  5.47939941e-01  3.90952545e-07  5.00026463e-01  3.90952545e-07  9.15730345e-01  3.90952545e-07  1.80000000e+00  3.90952545e-07  4.95287689e-03  3.90952545e-07  5.00000000e-01                                 
 4.13374431e-07  5.43102967e-01  4.13374431e-07  4.95877324e-01  4.13374431e-07  8.31465443e-01  4.13374431e-07  1.80000000e+00  4.13374431e-07 -4.92826782e-03  4.13374431e-07  5.00000000e-01                                 
 4.51897744e-07  5.34392171e-01  4.51897744e-07  4.88488096e-01  4.51897744e-07  7.28840855e-01  4.51897744e-07  1.80000000e+00  4.51897744e-07  4.94796182e-03  4.51897744e-07  5.00000000e-01                                 
 4.94336692e-07  5.24279048e-01  4.94336692e-07  4.80015795e-01  4.94336692e-07  6.31993523e-01  4.94336692e-07  1.80000000e+00  4.94336692e-07 -4.92485354e-03  4.94336692e-07  5.00000000e-01                                 
 5.47171680e-07  5.12861427e-01  5.47171680e-07  4.70495724e-01  5.47171680e-07  5.33699331e-01  5.47171680e-07  1.80000000e+00  5.47171680e-07  4.94504309e-03  5.47171680e-07  5.00000000e-01                                 
 6.22224759e-07  4.87462376e-01  6.22224759e-07  4.49846769e-01  6.22224759e-07  4.63752553e-01  6.22224759e-07  1.80000000e+00  6.22224759e-07 -4.92277709e-03  6.22224759e-07  5.00000000e-01                                 
 6.97978937e-07  4.61638935e-01  6.97978937e-07  4.29013948e-01  6.97978937e-07  4.47773418e-01  6.97978937e-07  1.80000000e+00  6.97978937e-07  4.94321824e-03  6.97978937e-07  5.00000000e-01                                 
 7.79982009e-07  4.34913535e-01  7.79982009e-07  4.07587529e-01  7.79982009e-07  4.82245767e-01  7.79982009e-07  1.80000000e+00  7.79982009e-07 -4.92102913e-03  7.79982009e-07  5.00000000e-01                                 
 7.91718713e-07  4.35497003e-01  7.91718713e-07  4.08063327e-01  7.91718713e-07  5.00451389e-01  7.91718713e-07  1.80000000e+00  7.91718713e-07 -8.43322485e-07  7.91718713e-07  5.00000000e-01                                 
 8.15192122e-07  4.51236040e-01  8.15192122e-07  4.20691518e-01  8.15192122e-07  5.40849963e-01  8.15192122e-07  1.80000000e+00  8.15192122e-07  2.44578066e-06  8.15192122e-07  5.00000000e-01                                 
 8.39456211e-07  5.27708548e-01  8.39456211e-07  4.81873455e-01  8.39456211e-07  5.87584361e-01  8.39456211e-07  1.80000000e+00  8.39456211e-07  1.34058168e-06  8.39456211e-07  5.00000000e-01                                 
 8.63919251e-07  6.91124312e-01  8.63919251e-07  6.28928024e-01  8.63919251e-07  6.15628463e-01  8.63919251e-07  1.80000000e+00  8.63919251e-07  6.74046868e-06  8.63919251e-07  5.00000000e-01                                 
 8.84371392e-07  7.44780314e-01  8.84371392e-07  6.87203290e-01  8.84371392e-07  5.72156500e-01  8.84371392e-07  1.80000000e+00  8.84371392e-07 -1.96388901e-06  8.84371392e-07  5.00000000e-01                                 
 9.04161081e-07  7.72853990e-01  9.04161081e-07  7.13555465e-01  9.04161081e-07  5.40349781e-01  9.04161081e-07  1.80000000e+00  9.04161081e-07  4.86791951e-06  9.04161081e-07  5.00000000e-01                                 
 9.33031080e-07  7.94316950e-01  9.33031080e-07  7.32321068e-01  9.33031080e-07  5.13327457e-01  9.33031080e-07  1.80000000e+00  9.33031080e-07 -2.68275468e-06  9.33031080e-07  5.00000000e-01                                 
 9.62586325e-07  7.94870817e-01  9.62586325e-07  7.32843770e-01  9.62586325e-07  4.98239444e-01  9.62586325e-07  1.80000000e+00  9.62586325e-07  3.67579526e-06  9.62586325e-07  5.00000000e-01                                 
 1.00703098e-06  7.95420564e-01  1.00703098e-06  7.33249496e-01  1.00703098e-06  4.92849994e-01  1.00703098e-06  1.80000000e+00  1.00703098e-06 -2.56914953e-06  1.00703098e-06  5.00000000e-01                                 
 1.01241503e-06  7.95206616e-01  1.01241503e-06  7.33098994e-01  1.01241503e-06  4.92060779e-01  1.01241503e-06  1.80000000e+00  1.01241503e-06  3.97036945e-07  1.01241503e-06  5.00000000e-01                                 
 1.02318312e-06  7.95146911e-01  1.02318312e-06  7.33047707e-01  1.02318312e-06  4.91695026e-01  1.02318312e-06  1.80000000e+00  1.02318312e-06  6.21964979e-07  1.02318312e-06  5.00000000e-01                                 
 1.04471932e-06  7.95110912e-01  1.04471932e-06  7.33018447e-01  1.04471932e-06  4.91328754e-01  1.04471932e-06  1.80000000e+00  1.04471932e-06  4.18987632e-07  1.04471932e-06  5.00000000e-01                                 
 1.08303622e-06  7.95077524e-01  1.08303622e-06  7.32989441e-01  1.08303622e-06  4.90513228e-01  1.08303622e-06  1.80000000e+00  1.08303622e-06  6.15026290e-07  1.08303622e-06  5.00000000e-01                                 
 1.13650867e-06  7.82625537e-01  1.13650867e-06  7.22342796e-01  1.13650867e-06  4.89400543e-01  1.13650867e-06  1.80000000e+00  1.13650867e-06  1.03393843e-07  1.13650867e-06  5.00000000e-01                                 
 1.14588111e-06  7.77536639e-01  1.14588111e-06  7.17848510e-01  1.14588111e-06  4.90560417e-01  1.14588111e-06  1.80000000e+00  1.14588111e-06  1.40620711e-07  1.14588111e-06  5.00000000e-01                                 
 1.16462599e-06  7.69723972e-01  1.16462599e-06  7.10794046e-01  1.16462599e-06  4.97075402e-01  1.16462599e-06  1.80000000e+00  1.16462599e-06  3.14008782e-07  1.16462599e-06  5.00000000e-01                                 
 1.20211575e-06  7.71916149e-01  1.20211575e-06  7.12747251e-01  1.20211575e-06  5.13520397e-01  1.20211575e-06  1.80000000e+00  1.20211575e-06  7.94318069e-07  1.20211575e-06  5.00000000e-01                                 
 1.26504843e-06  7.85970952e-01  1.26504843e-06  7.25222352e-01  1.26504843e-06  5.04229313e-01  1.26504843e-06  1.80000000e+00  1.26504843e-06  5.54692883e-07  1.26504843e-06  5.00000000e-01                                 
 1.32700004e-06  7.82747016e-01  1.32700004e-06  7.22432788e-01  1.32700004e-06  4.86882763e-01  1.32700004e-06  1.80000000e+00  1.32700004e-06  4.15547662e-07  1.32700004e-06  5.00000000e-01                                 
 1.41159208e-06  7.75983598e-01  1.41159208e-06  7.16426683e-01  1.41159208e-06  5.04693374e-01  1.41159208e-06  1.80000000e+00  1.41159208e-06  5.10850740e-07  1.41159208e-06  5.00000000e-01                                 
 1.52286762e-06  7.82561145e-01  1.52286762e-06  7.22255119e-01  1.52286762e-06  5.05141118e-01  1.52286762e-06  1.80000000e+00  1.52286762e-06  6.07270374e-07  1.52286762e-06  5.00000000e-01                                 
 1.62359257e-06  7.81414889e-01  1.62359257e-06  7.21254407e-01  1.62359257e-06  4.89587297e-01  1.62359257e-06  1.80000000e+00  1.62359257e-06  4.17643885e-07  1.62359257e-06  5.00000000e-01                                 
 1.79902276e-06  7.78168611e-01  1.79902276e-06  7.18377779e-01  1.79902276e-06  5.08965969e-01  1.79902276e-06  1.80000000e+00  1.79902276e-06  5.93906290e-07  1.79902276e-06  5.00000000e-01                                 
 1.96452035e-06  7.83104441e-01  1.96452035e-06  7.22731367e-01  1.96452035e-06  4.96387010e-01  1.96452035e-06  1.80000000e+00  1.96452035e-06  4.85552811e-07  1.96452035e-06  5.00000000e-01                                 
 2.15965853e-06  7.78002322e-01  2.15965853e-06  7.18236406e-01  2.15965853e-06  4.99144095e-01  2.15965853e-06  1.80000000e+00  2.15965853e-06  5.16792053e-07  2.15965853e-06  5.00000000e-01                                 
 2.40664290e-06  7.82147428e-01  2.40664290e-06  7.21888135e-01  2.40664290e-06  5.04366002e-01  2.40664290e-06  1.80000000e+00  2.40664290e-06  5.43906710e-07  2.40664290e-06  5.00000000e-01                                 
 2.69239577e-06  7.79391203e-01  2.69239577e-06  7.19472017e-01  2.69239577e-06  4.93890388e-01  2.69239577e-06  1.80000000e+00  2.69239577e-06  4.81379701e-07  2.69239577e-06  5.00000000e-01                                 
 3.07858000e-06  7.80958485e-01  3.07858000e-06  7.20841034e-01  3.07858000e-06  5.07276738e-01  3.07858000e-06  1.80000000e+00  3.07858000e-06  5.61911287e-07  3.07858000e-06  5.00000000e-01                                 
 3.56796301e-06  7.80370891e-01  3.56796301e-06  7.20338756e-01  3.56796301e-06  4.92781294e-01  3.56796301e-06  1.80000000e+00  3.56796301e-06  4.74768106e-07  3.56796301e-06  5.00000000e-01                                 
 4.16889198e-06  7.80223165e-01  4.16889198e-06  7.20192224e-01  4.16889198e-06  5.07508540e-01  4.16889198e-06  1.80000000e+00  4.16889198e-06  5.62769333e-07  4.16889198e-06  5.00000000e-01                                 
 4.87809019e-06  7.80947553e-01  4.87809019e-06  7.20847167e-01  4.87809019e-06  4.93035454e-01  4.87809019e-06  1.80000000e+00  4.87809019e-06  4.76844220e-07  4.87809019e-06  5.00000000e-01                                 
 5.72831667e-06  7.79768260e-01  5.72831667e-06  7.19790407e-01  5.72831667e-06  5.07019975e-01  5.72831667e-06  1.80000000e+00  5.72831667e-06  5.59212868e-07  5.72831667e-06  5.00000000e-01                                 
 6.72831667e-06  7.81292165e-01  6.72831667e-06  7.21150300e-01  6.72831667e-06  4.93639265e-01  6.72831667e-06  1.80000000e+00  6.72831667e-06  4.81023950e-07  6.72831667e-06  5.00000000e-01                                 
 7.72831667e-06  7.79469004e-01  7.72831667e-06  7.19525959e-01  7.72831667e-06  5.06328303e-01  7.72831667e-06  1.80000000e+00  7.72831667e-06  5.54473316e-07  7.72831667e-06  5.00000000e-01                                 
 8.72831667e-06  7.81552349e-01  8.72831667e-06  7.21378756e-01  8.72831667e-06  4.94459875e-01  8.72831667e-06  1.80000000e+00  8.72831667e-06  4.86508233e-07  8.72831667e-06  5.00000000e-01                                 
 9.72831667e-06  7.79225551e-01  9.72831667e-06  7.19310833e-01  9.72831667e-06  5.05408475e-01  9.72831667e-06  1.80000000e+00  9.72831667e-06  5.48321498e-07  9.72831667e-06  5.00000000e-01                                 
 1.00005000e-05  7.81932343e-01  1.00005000e-05  7.21711341e-01  1.00005000e-05  4.97069011e-01  1.00005000e-05  1.80000000e+00  1.00005000e-05  5.03451484e-07  1.00005000e-05  5.00000000e-01                                 
 1.00005500e-05  7.81926301e-01  1.00005500e-05  7.21705559e-01  1.00005500e-05  4.89176146e-01  1.00005500e-05  1.62000000e+00  1.00005500e-05 -8.55966284e-05  1.00005500e-05  5.00000000e-01                                 
 1.00006500e-05  7.81913675e-01  1.00006500e-05  7.21694289e-01  1.00006500e-05  4.75389644e-01  1.00006500e-05  1.26000000e+00  1.00006500e-05 -6.22935279e-05  1.00006500e-05  5.00000000e-01                                 
 1.00008500e-05  7.81890905e-01  1.00008500e-05  7.21674333e-01  1.00008500e-05  4.73469086e-01  1.00008500e-05  5.40000000e-01  1.00008500e-05 -3.36828456e-03  1.00008500e-05  5.00000000e-01                                 
