 time            v(vbep)         time            v(vben)         time            v(vout)         time            v(vphi1)        time            v(vphi2)        time            v(vref)         yes             currtemp       
 0.00000000e+00  6.61114491e-01  0.00000000e+00  6.03501438e-01  0.00000000e+00  1.02305133e+00  0.00000000e+00  0.00000000e+00  0.00000000e+00  1.79995032e+00  0.00000000e+00  6.03501438e-01  1.00000000e+00  4.20000000e+01 
 5.00000000e-12  6.61084410e-01  5.00000000e-12  6.03476542e-01  5.00000000e-12  1.02378285e+00  5.00000000e-12  1.80000000e-02  5.00000000e-12  1.80007740e+00  5.00000000e-12  6.03476542e-01                                 
 1.00000000e-11  6.61055151e-01  1.00000000e-11  6.03452309e-01  1.00000000e-11  1.02444870e+00  1.00000000e-11  3.60000000e-02  1.00000000e-11  1.80015327e+00  1.00000000e-11  6.03452309e-01                                 
 2.00000000e-11  6.60997136e-01  2.00000000e-11  6.03404034e-01  2.00000000e-11  1.02567651e+00  2.00000000e-11  7.20000000e-02  2.00000000e-11  1.80023862e+00  2.00000000e-11  6.03404034e-01                                 
 4.00000000e-11  6.60881969e-01  4.00000000e-11  6.03307872e-01  4.00000000e-11  1.02765294e+00  4.00000000e-11  1.44000000e-01  4.00000000e-11  1.80023029e+00  4.00000000e-11  6.03307872e-01                                 
 8.00000000e-11  6.60652783e-01  8.00000000e-11  6.03116423e-01  8.00000000e-11  1.03028556e+00  8.00000000e-11  2.88000000e-01  8.00000000e-11  1.80013176e+00  8.00000000e-11  6.03116423e-01                                 
 1.60000000e-10  6.60199364e-01  1.60000000e-10  6.02737006e-01  1.60000000e-10  1.03247822e+00  1.60000000e-10  5.76000000e-01  1.60000000e-10  1.80001977e+00  1.60000000e-10  6.02737006e-01                                 
 3.20000000e-10  6.59311148e-01  3.20000000e-10  6.01991589e-01  3.20000000e-10  1.02523258e+00  3.20000000e-10  1.15200000e+00  3.20000000e-10  1.80028026e+00  3.20000000e-10  6.01991589e-01                                 
 5.00000000e-10  6.58340556e-01  5.00000000e-10  6.01173617e-01  5.00000000e-10  1.13093590e+00  5.00000000e-10  1.80000000e+00  5.00000000e-10  1.55993448e-01  5.00000000e-10  6.01173617e-01                                 
 5.21498453e-10  6.58226813e-01  5.21498453e-10  6.01077509e-01  5.21498453e-10  1.15766850e+00  5.21498453e-10  1.80000000e+00  5.21498453e-10  3.94024868e-02  5.21498453e-10  6.01077509e-01                                 
 5.64495360e-10  6.58000121e-01  5.64495360e-10  6.00885856e-01  5.64495360e-10  1.21093054e+00  5.64495360e-10  1.80000000e+00  5.64495360e-10 -1.46087807e-02  5.64495360e-10  6.00885856e-01                                 
 6.50489174e-10  6.57551527e-01  6.50489174e-10  6.00506045e-01  6.50489174e-10  1.30714678e+00  6.50489174e-10  1.80000000e+00  6.50489174e-10  1.24196629e-02  6.50489174e-10  6.00506045e-01                                 
 7.70725904e-10  6.56934749e-01  7.70725904e-10  5.99982631e-01  7.70725904e-10  1.42472299e+00  7.70725904e-10  1.80000000e+00  7.70725904e-10 -9.35589689e-03  7.70725904e-10  5.99982631e-01                                 
 9.52932813e-10  6.56022341e-01  9.52932813e-10  5.99205805e-01  9.52932813e-10  1.56924675e+00  9.52932813e-10  1.80000000e+00  9.52932813e-10  9.27539475e-03  9.52932813e-10  5.99205805e-01                                 
 1.31734663e-09  6.54272388e-01  1.31734663e-09  5.97707657e-01  1.31734663e-09  1.75076494e+00  1.31734663e-09  1.80000000e+00  1.31734663e-09 -8.09472424e-03  1.31734663e-09  5.97707657e-01                                 
 1.67015993e-09  6.52666539e-01  1.67015993e-09  5.96323292e-01  1.67015993e-09  1.83170835e+00  1.67015993e-09  1.80000000e+00  1.67015993e-09  7.96793098e-03  1.67015993e-09  5.96323292e-01                                 
 2.01745212e-09  6.51162802e-01  2.01745212e-09  5.95018825e-01  2.01745212e-09  1.86357886e+00  2.01745212e-09  1.80000000e+00  2.01745212e-09 -7.33087534e-03  2.01745212e-09  5.95018825e-01                                 
 2.38234362e-09  6.49657681e-01  2.38234362e-09  5.93705477e-01  2.38234362e-09  1.87641041e+00  2.38234362e-09  1.80000000e+00  2.38234362e-09  7.01029580e-03  2.38234362e-09  5.93705477e-01                                 
 2.86954011e-09  6.47755664e-01  2.86954011e-09  5.92035171e-01  2.86954011e-09  1.88042519e+00  2.86954011e-09  1.80000000e+00  2.86954011e-09 -6.66169804e-03  2.86954011e-09  5.92035171e-01                                 
 3.53335461e-09  6.45339528e-01  3.53335461e-09  5.89896811e-01  3.53335461e-09  1.88012228e+00  3.53335461e-09  1.80000000e+00  3.53335461e-09  6.49011491e-03  3.53335461e-09  5.89896811e-01                                 
 4.55300726e-09  6.41962314e-01  4.55300726e-09  5.86878353e-01  4.55300726e-09  1.87671726e+00  4.55300726e-09  1.80000000e+00  4.55300726e-09 -6.32885356e-03  4.55300726e-09  5.86878353e-01                                 
 6.24816672e-09  6.37058894e-01  6.24816672e-09  5.82438835e-01  6.24816672e-09  1.87235749e+00  6.24816672e-09  1.80000000e+00  6.24816672e-09  6.27783653e-03  6.24816672e-09  5.82438835e-01                                 
 9.63848564e-09  6.29108255e-01  9.63848564e-09  5.75114172e-01  9.63848564e-09  1.86426666e+00  9.63848564e-09  1.80000000e+00  9.63848564e-09 -6.20804472e-03  9.63848564e-09  5.75114172e-01                                 
 1.20612547e-08  6.24544178e-01  1.20612547e-08  5.70837552e-01  1.20612547e-08  1.85966878e+00  1.20612547e-08  1.80000000e+00  1.20612547e-08  6.18386988e-03  1.20612547e-08  5.70837552e-01                                 
 1.37658657e-08  6.21719031e-01  1.37658657e-08  5.68168503e-01  1.37658657e-08  1.85637088e+00  1.37658657e-08  1.80000000e+00  1.37658657e-08 -6.08323952e-03  1.37658657e-08  5.68168503e-01                                 
 1.52369649e-08  6.19483683e-01  1.52369649e-08  5.66046203e-01  1.52369649e-08  1.85413036e+00  1.52369649e-08  1.80000000e+00  1.52369649e-08  6.02136388e-03  1.52369649e-08  5.66046203e-01                                 
 1.69931203e-08  6.17019929e-01  1.69931203e-08  5.63697374e-01  1.69931203e-08  1.85095467e+00  1.69931203e-08  1.80000000e+00  1.69931203e-08 -5.92753496e-03  1.69931203e-08  5.63697374e-01                                 
 1.89532432e-08  6.14492456e-01  1.89532432e-08  5.61278203e-01  1.89532432e-08  1.84806805e+00  1.89532432e-08  1.80000000e+00  1.89532432e-08  5.88679477e-03  1.89532432e-08  5.61278203e-01                                 
 2.13497231e-08  6.11665180e-01  2.13497231e-08  5.58562163e-01  2.13497231e-08  1.84397628e+00  2.13497231e-08  1.80000000e+00  2.13497231e-08 -5.81413518e-03  2.13497231e-08  5.58562163e-01                                 
 2.48156588e-08  6.07978248e-01  2.48156588e-08  5.55008742e-01  2.48156588e-08  1.83887891e+00  2.48156588e-08  1.80000000e+00  2.48156588e-08  5.80088741e-03  2.48156588e-08  5.55008742e-01                                 
 2.87687706e-08  6.04210231e-01  2.87687706e-08  5.51371056e-01  2.87687706e-08  1.83279879e+00  2.87687706e-08  1.80000000e+00  2.87687706e-08 -5.74871740e-03  2.87687706e-08  5.51371056e-01                                 
 3.52242227e-08  5.98691035e-01  3.52242227e-08  5.46057785e-01  3.52242227e-08  1.82465384e+00  3.52242227e-08  1.80000000e+00  3.52242227e-08  5.75231481e-03  3.52242227e-08  5.46057785e-01                                 
 4.56088402e-08  5.90913186e-01  4.56088402e-08  5.38624434e-01  4.56088402e-08  1.81332431e+00  4.56088402e-08  1.80000000e+00  4.56088402e-08 -5.71826491e-03  4.56088402e-08  5.38624434e-01                                 
 5.57698718e-08  5.84243428e-01  5.57698718e-08  5.32309185e-01  5.57698718e-08  1.80443530e+00  5.57698718e-08  1.80000000e+00  5.57698718e-08  5.72963955e-03  5.57698718e-08  5.32309185e-01                                 
 6.71893011e-08  5.75930025e-01  6.71893011e-08  5.24749552e-01  6.71893011e-08  1.78150969e+00  6.71893011e-08  1.80000000e+00  6.71893011e-08 -5.69786346e-03  6.71893011e-08  5.24749552e-01                                 
 8.10307735e-08  5.68088829e-01  8.10307735e-08  5.17538459e-01  8.10307735e-08  1.75394248e+00  8.10307735e-08  1.80000000e+00  8.10307735e-08  5.71129600e-03  8.10307735e-08  5.17538459e-01                                 
 9.52862405e-08  5.61008098e-01  9.52862405e-08  5.11059418e-01  9.52862405e-08  1.72876798e+00  9.52862405e-08  1.80000000e+00  9.52862405e-08 -5.68070124e-03  9.52862405e-08  5.11059418e-01                                 
 1.19473130e-07  5.51459347e-01  1.19473130e-07  5.02272266e-01  1.19473130e-07  1.68633767e+00  1.19473130e-07  1.80000000e+00  1.19473130e-07  5.69848771e-03  1.19473130e-07  5.02272266e-01                                 
 1.45104173e-07  5.53591269e-01  1.45104173e-07  5.02852695e-01  1.45104173e-07  1.68100425e+00  1.45104173e-07  1.80000000e+00  1.45104173e-07 -5.66823210e-03  1.45104173e-07  5.02852695e-01                                 
 1.66140625e-07  5.55221628e-01  1.66140625e-07  5.03336738e-01  1.66140625e-07  1.66522364e+00  1.66140625e-07  1.80000000e+00  1.66140625e-07  5.68762579e-03  1.66140625e-07  5.03336738e-01                                 
 1.89016730e-07  5.50467964e-01  1.89016730e-07  4.98803325e-01  1.89016730e-07  1.63558089e+00  1.89016730e-07  1.80000000e+00  1.89016730e-07 -5.65894738e-03  1.89016730e-07  4.98803325e-01                                 
 2.08994009e-07  5.46472103e-01  2.08994009e-07  4.95039118e-01  2.08994009e-07  1.61197093e+00  2.08994009e-07  1.80000000e+00  2.08994009e-07  5.67682624e-03  2.08994009e-07  4.95039118e-01                                 
 2.29616165e-07  5.41061250e-01  2.29616165e-07  4.90194945e-01  2.29616165e-07  1.58682541e+00  2.29616165e-07  1.80000000e+00  2.29616165e-07 -5.64774845e-03  2.29616165e-07  4.90194945e-01                                 
 2.67523831e-07  5.30489291e-01  2.67523831e-07  4.80928229e-01  2.67523831e-07  1.53801011e+00  2.67523831e-07  1.80000000e+00  2.67523831e-07  5.66799132e-03  2.67523831e-07  4.80928229e-01                                 
 3.16352944e-07  5.17893815e-01  3.16352944e-07  4.70012272e-01  3.16352944e-07  1.47674122e+00  3.16352944e-07  1.80000000e+00  3.16352944e-07 -5.64219848e-03  3.16352944e-07  4.70012272e-01                                 
 4.07236235e-07  4.90700830e-01  4.07236235e-07  4.47211732e-01  4.07236235e-07  1.35668767e+00  4.07236235e-07  1.80000000e+00  4.07236235e-07  5.66423224e-03  4.07236235e-07  4.47211732e-01                                 
 4.98548980e-07  4.72052661e-01  4.98548980e-07  4.31623100e-01  4.98548980e-07  1.24461349e+00  4.98548980e-07  1.80000000e+00  4.98548980e-07 -5.63936304e-03  4.98548980e-07  4.31623100e-01                                 
 5.82118021e-07  4.35311622e-01  5.82118021e-07  4.01966237e-01  5.82118021e-07  1.12155896e+00  5.82118021e-07  1.80000000e+00  5.82118021e-07  5.66082641e-03  5.82118021e-07  4.01966237e-01                                 
 6.67528804e-07  5.17394035e-01  6.67528804e-07  4.67342338e-01  6.67528804e-07  1.11221461e+00  6.67528804e-07  1.80000000e+00  6.67528804e-07 -5.63171862e-03  6.67528804e-07  4.67342338e-01                                 
 7.78726942e-07  7.50153063e-01  7.78726942e-07  6.88649789e-01  7.78726942e-07  1.22038711e+00  7.78726942e-07  1.80000000e+00  7.78726942e-07  5.66422583e-03  7.78726942e-07  6.88649789e-01                                 
 9.12796248e-07  8.63024467e-01  9.12796248e-07  7.73447305e-01  9.12796248e-07  1.18812815e+00  9.12796248e-07  1.80000000e+00  9.12796248e-07 -5.63522146e-03  9.12796248e-07  7.73447305e-01                                 
 9.28084155e-07  8.69893001e-01  9.28084155e-07  7.77632029e-01  9.28084155e-07  1.17794627e+00  9.28084155e-07  1.80000000e+00  9.28084155e-07 -6.28844058e-07  9.28084155e-07  7.77632029e-01                                 
 9.58659970e-07  8.41782299e-01  9.58659970e-07  7.60454484e-01  9.58659970e-07  1.12102937e+00  9.58659970e-07  1.80000000e+00  9.58659970e-07 -1.97839288e-06  9.58659970e-07  7.60454484e-01                                 
 9.81888078e-07  7.95483648e-01  9.81888078e-07  7.27027579e-01  9.81888078e-07  1.05295611e+00  9.81888078e-07  1.80000000e+00  9.81888078e-07 -5.61976710e-06  9.81888078e-07  7.27027579e-01                                 
 9.97954943e-07  7.73507033e-01  9.97954943e-07  7.09631734e-01  9.97954943e-07  1.01553970e+00  9.97954943e-07  1.80000000e+00  9.97954943e-07  6.21333995e-07  9.97954943e-07  7.09631734e-01                                 
 1.01575276e-06  7.53010664e-01  1.01575276e-06  6.91049021e-01  1.01575276e-06  9.80401935e-01  1.01575276e-06  1.80000000e+00  1.01575276e-06 -4.78130270e-06  1.01575276e-06  6.91049021e-01                                 
 1.03640654e-06  7.43723017e-01  1.03640654e-06  6.83316199e-01  1.03640654e-06  9.54286010e-01  1.03640654e-06  1.80000000e+00  1.03640654e-06  4.12584457e-06  1.03640654e-06  6.83316199e-01                                 
 1.06679643e-06  7.43348039e-01  1.06679643e-06  6.82170781e-01  1.06679643e-06  9.31289761e-01  1.06679643e-06  1.80000000e+00  1.06679643e-06 -2.81016426e-06  1.06679643e-06  6.82170781e-01                                 
 1.09949208e-06  7.59386723e-01  1.09949208e-06  6.97253559e-01  1.09949208e-06  9.21560131e-01  1.09949208e-06  1.80000000e+00  1.09949208e-06  6.56836891e-06  1.09949208e-06  6.97253559e-01                                 
 1.14726128e-06  7.68608885e-01  1.14726128e-06  7.04970833e-01  1.14726128e-06  8.97780804e-01  1.14726128e-06  1.80000000e+00  1.14726128e-06 -4.16805714e-06  1.14726128e-06  7.04970833e-01                                 
 1.19862325e-06  7.68131753e-01  1.19862325e-06  7.04861263e-01  1.19862325e-06  8.64330014e-01  1.19862325e-06  1.80000000e+00  1.19862325e-06  5.72180996e-06  1.19862325e-06  7.04861263e-01                                 
 1.29499413e-06  7.55840463e-01  1.29499413e-06  6.93740323e-01  1.29499413e-06  7.97307866e-01  1.29499413e-06  1.80000000e+00  1.29499413e-06 -4.62623030e-06  1.29499413e-06  6.93740323e-01                                 
 1.38690192e-06  7.63711248e-01  1.38690192e-06  7.01012948e-01  1.38690192e-06  7.58285529e-01  1.38690192e-06  1.80000000e+00  1.38690192e-06  6.78595068e-06  1.38690192e-06  7.01012948e-01                                 
 1.40141846e-06  7.65366459e-01  1.40141846e-06  7.02321308e-01  1.40141846e-06  7.54077729e-01  1.40141846e-06  1.80000000e+00  1.40141846e-06  1.18275891e-06  1.40141846e-06  7.02321308e-01                                 
 1.43045154e-06  7.66748035e-01  1.43045154e-06  7.03515220e-01  1.43045154e-06  7.44406440e-01  1.43045154e-06  1.80000000e+00  1.43045154e-06  9.21733452e-07  1.43045154e-06  7.03515220e-01                                 
 1.48851770e-06  7.61436773e-01  1.48851770e-06  6.98900613e-01  1.48851770e-06  7.22442057e-01  1.48851770e-06  1.80000000e+00  1.48851770e-06  6.46843122e-07  1.48851770e-06  6.98900613e-01                                 
 1.58030335e-06  7.60668961e-01  1.58030335e-06  6.98195353e-01  1.58030335e-06  7.04162173e-01  1.58030335e-06  1.80000000e+00  1.58030335e-06  1.36531318e-06  1.58030335e-06  6.98195353e-01                                 
 1.67609680e-06  7.65344777e-01  1.67609680e-06  7.02310229e-01  1.67609680e-06  6.97566957e-01  1.67609680e-06  1.80000000e+00  1.67609680e-06  9.57015316e-07  1.67609680e-06  7.02310229e-01                                 
 1.84240790e-06  7.60401911e-01  1.84240790e-06  6.97968934e-01  1.84240790e-06  6.86402333e-01  1.84240790e-06  1.80000000e+00  1.84240790e-06  1.07834426e-06  1.84240790e-06  6.97968934e-01                                 
 1.86634253e-06  7.61011144e-01  1.86634253e-06  6.98509390e-01  1.86634253e-06  6.88989309e-01  1.86634253e-06  1.80000000e+00  1.86634253e-06  1.18466828e-06  1.86634253e-06  6.98509390e-01                                 
 1.91421178e-06  7.62722663e-01  1.91421178e-06  7.00012438e-01  1.91421178e-06  6.95769249e-01  1.91421178e-06  1.80000000e+00  1.91421178e-06  1.24404442e-06  1.91421178e-06  7.00012438e-01                                 
 2.00995029e-06  7.63401954e-01  2.00995029e-06  7.00611012e-01  2.00995029e-06  7.01554266e-01  2.00995029e-06  1.80000000e+00  2.00995029e-06  1.01533355e-06  2.00995029e-06  7.00611012e-01                                 
 2.13029086e-06  7.61734866e-01  2.13029086e-06  6.99147779e-01  2.13029086e-06  6.99082546e-01  2.13029086e-06  1.80000000e+00  2.13029086e-06  1.11074757e-06  2.13029086e-06  6.99147779e-01                                 
 2.31165200e-06  7.63270534e-01  2.31165200e-06  7.00493789e-01  2.31165200e-06  7.00672485e-01  2.31165200e-06  1.80000000e+00  2.31165200e-06  1.11884275e-06  2.31165200e-06  7.00493789e-01                                 
 2.49789279e-06  7.62298252e-01  2.49789279e-06  6.99644109e-01  2.49789279e-06  6.99762607e-01  2.49789279e-06  1.80000000e+00  2.49789279e-06  1.05035550e-06  2.49789279e-06  6.99644109e-01                                 
 2.87037437e-06  7.62762333e-01  2.87037437e-06  7.00048060e-01  2.87037437e-06  7.00165784e-01  2.87037437e-06  1.80000000e+00  2.87037437e-06  1.14700277e-06  2.87037437e-06  7.00048060e-01                                 
 3.52968433e-06  7.62580537e-01  3.52968433e-06  6.99891833e-01  3.52968433e-06  7.00027927e-01  3.52968433e-06  1.80000000e+00  3.52968433e-06  1.04381809e-06  3.52968433e-06  6.99891833e-01                                 
 4.52968433e-06  7.62599596e-01  4.52968433e-06  6.99905367e-01  4.52968433e-06  7.00014227e-01  4.52968433e-06  1.80000000e+00  4.52968433e-06  1.14822686e-06  4.52968433e-06  6.99905367e-01                                 
 5.52968433e-06  7.62703825e-01  5.52968433e-06  6.99999880e-01  5.52968433e-06  7.00142355e-01  5.52968433e-06  1.80000000e+00  5.52968433e-06  1.04423718e-06  5.52968433e-06  6.99999880e-01                                 
 6.52968433e-06  7.62482217e-01  6.52968433e-06  6.99802484e-01  6.52968433e-06  6.99905364e-01  6.52968433e-06  1.80000000e+00  6.52968433e-06  1.14676010e-06  6.52968433e-06  6.99802484e-01                                 
 7.52968433e-06  7.62814147e-01  7.52968433e-06  7.00096479e-01  7.52968433e-06  7.00244487e-01  7.52968433e-06  1.80000000e+00  7.52968433e-06  1.04669463e-06  7.52968433e-06  7.00096479e-01                                 
 8.52968433e-06  7.62378641e-01  8.52968433e-06  6.99711720e-01  8.52968433e-06  6.99809440e-01  8.52968433e-06  1.80000000e+00  8.52968433e-06  1.14337245e-06  8.52968433e-06  6.99711720e-01                                 
 9.52968433e-06  7.62908575e-01  9.52968433e-06  7.00179080e-01  9.52968433e-06  7.00331798e-01  9.52968433e-06  1.80000000e+00  9.52968433e-06  1.05094293e-06  9.52968433e-06  7.00179080e-01                                 
 1.00005000e-05  7.62251405e-01  1.00005000e-05  6.99600291e-01  1.00005000e-05  6.99691706e-01  1.00005000e-05  1.80000000e+00  1.00005000e-05  1.13492198e-06  1.00005000e-05  6.99600291e-01                                 
 1.00005500e-05  7.62252417e-01  1.00005500e-05  6.99601193e-01  1.00005500e-05  6.92687054e-01  1.00005500e-05  1.62000000e+00  1.00005500e-05 -1.19941349e-04  1.00005500e-05  6.99601193e-01                                 
 1.00006500e-05  7.62254473e-01  1.00006500e-05  6.99603009e-01  1.00006500e-05  6.81923700e-01  1.00006500e-05  1.26000000e+00  1.00006500e-05 -7.71566037e-05  1.00006500e-05  6.99603009e-01                                 
 1.00008500e-05  7.62258615e-01  1.00008500e-05  6.99606660e-01  1.00008500e-05  6.76481746e-01  1.00008500e-05  5.40000000e-01  1.00008500e-05 -3.75981615e-03  1.00008500e-05  6.99606660e-01                                 
