 time            v(vbep)         time            v(vben)         time            v(vout)         time            v(vphi1)        time            v(vphi2)        time            v(vref)         yes             currtemp       
 0.00000000e+00  6.97306982e-01  0.00000000e+00  6.42582916e-01  0.00000000e+00  1.09834704e+00  0.00000000e+00  0.00000000e+00  0.00000000e+00  1.79994164e+00  0.00000000e+00  5.00000000e-01  1.00000000e+00  2.60000000e+01 
 5.00000000e-12  6.97270762e-01  5.00000000e-12  6.42553079e-01  5.00000000e-12  1.09909602e+00  5.00000000e-12  1.80000000e-02  5.00000000e-12  1.80004642e+00  5.00000000e-12  5.00000000e-01                                 
 1.00000000e-11  6.97235851e-01  1.00000000e-11  6.42524155e-01  1.00000000e-11  1.09977559e+00  1.00000000e-11  3.60000000e-02  1.00000000e-11  1.80010247e+00  1.00000000e-11  5.00000000e-01                                 
 2.00000000e-11  6.97166889e-01  2.00000000e-11  6.42466577e-01  2.00000000e-11  1.10102862e+00  2.00000000e-11  7.20000000e-02  2.00000000e-11  1.80015761e+00  2.00000000e-11  5.00000000e-01                                 
 4.00000000e-11  6.97030437e-01  4.00000000e-11  6.42351968e-01  4.00000000e-11  1.10304023e+00  4.00000000e-11  1.44000000e-01  4.00000000e-11  1.80013695e+00  4.00000000e-11  5.00000000e-01                                 
 8.00000000e-11  6.96759138e-01  8.00000000e-11  6.42124017e-01  8.00000000e-11  1.10576743e+00  8.00000000e-11  2.88000000e-01  8.00000000e-11  1.80007502e+00  8.00000000e-11  5.00000000e-01                                 
 1.60000000e-10  6.96223617e-01  1.60000000e-10  6.41673154e-01  1.60000000e-10  1.10832244e+00  1.60000000e-10  5.76000000e-01  1.60000000e-10  1.80001305e+00  1.60000000e-10  5.00000000e-01                                 
 3.20000000e-10  6.95178935e-01  3.20000000e-10  6.40790779e-01  3.20000000e-10  1.10130166e+00  3.20000000e-10  1.15200000e+00  3.20000000e-10  1.80037347e+00  3.20000000e-10  5.00000000e-01                                 
 5.00000000e-10  6.94044057e-01  5.00000000e-10  6.39827699e-01  5.00000000e-10  1.26359206e+00  5.00000000e-10  1.80000000e+00  5.00000000e-10  1.11656977e-01  5.00000000e-10  5.00000000e-01                                 
 5.21284728e-10  6.93912881e-01  5.21284728e-10  6.39716058e-01  5.21284728e-10  1.30113794e+00  5.21284728e-10  1.80000000e+00  5.21284728e-10  2.14174000e-02  5.21284728e-10  5.00000000e-01                                 
 5.63854183e-10  6.93651596e-01  5.63854183e-10  6.39493542e-01  5.63854183e-10  1.36967947e+00  5.63854183e-10  1.80000000e+00  5.63854183e-10 -1.00644804e-02  5.63854183e-10  5.00000000e-01                                 
 6.48993093e-10  6.93135515e-01  6.48993093e-10  6.39053334e-01  6.48993093e-10  1.48190790e+00  6.48993093e-10  1.80000000e+00  6.48993093e-10  8.47802513e-03  6.48993093e-10  5.00000000e-01                                 
 7.71230177e-10  6.92409277e-01  7.71230177e-10  6.38432275e-01  7.71230177e-10  1.61014733e+00  7.71230177e-10  1.80000000e+00  7.71230177e-10 -7.40799858e-03  7.71230177e-10  5.00000000e-01                                 
 9.61902921e-10  6.91309411e-01  9.61902921e-10  6.37488210e-01  9.61902921e-10  1.75642269e+00  9.61902921e-10  1.80000000e+00  9.61902921e-10  6.98178294e-03  9.61902921e-10  5.00000000e-01                                 
 1.34324841e-09  6.89220205e-01  1.34324841e-09  6.35683695e-01  1.34324841e-09  1.91865562e+00  1.34324841e-09  1.80000000e+00  1.34324841e-09 -6.61143556e-03  1.34324841e-09  5.00000000e-01                                 
 1.62027610e-09  6.87788475e-01  1.62027610e-09  6.34438326e-01  1.62027610e-09  1.96622694e+00  1.62027610e-09  1.80000000e+00  1.62027610e-09  6.37200957e-03  1.62027610e-09  5.00000000e-01                                 
 1.97091742e-09  6.86068297e-01  1.97091742e-09  6.32933074e-01  1.97091742e-09  1.99102775e+00  1.97091742e-09  1.80000000e+00  1.97091742e-09 -6.04838362e-03  1.97091742e-09  5.00000000e-01                                 
 2.29502036e-09  6.84561829e-01  2.29502036e-09  6.31606849e-01  2.29502036e-09  1.99840505e+00  2.29502036e-09  1.80000000e+00  2.29502036e-09  5.84814613e-03  2.29502036e-09  5.00000000e-01                                 
 2.86059648e-09  6.82101033e-01  2.86059648e-09  6.29425303e-01  2.86059648e-09  2.00068806e+00  2.86059648e-09  1.80000000e+00  2.86059648e-09 -5.65589278e-03  2.86059648e-09  5.00000000e-01                                 
 3.51114117e-09  6.79502925e-01  3.51114117e-09  6.27101837e-01  3.51114117e-09  1.99879590e+00  3.51114117e-09  1.80000000e+00  3.51114117e-09  5.57666198e-03  3.51114117e-09  5.00000000e-01                                 
 4.78788583e-09  6.74979682e-01  4.78788583e-09  6.23011658e-01  4.78788583e-09  1.99445337e+00  4.78788583e-09  1.80000000e+00  4.78788583e-09 -5.48003739e-03  4.78788583e-09  5.00000000e-01                                 
 6.66536989e-09  6.69391154e-01  6.66536989e-09  6.17882646e-01  6.66536989e-09  1.98915963e+00  6.66536989e-09  1.80000000e+00  6.66536989e-09  5.47780716e-03  6.66536989e-09  5.00000000e-01                                 
 9.42313172e-09  6.62762681e-01  9.42313172e-09  6.11701545e-01  9.42313172e-09  1.98297166e+00  9.42313172e-09  1.80000000e+00  9.42313172e-09 -5.40983790e-03  9.42313172e-09  5.00000000e-01                                 
 1.06964631e-08  6.60184078e-01  1.06964631e-08  6.09268216e-01  1.06964631e-08  1.98061347e+00  1.06964631e-08  1.80000000e+00  1.06964631e-08  5.38220328e-03  1.06964631e-08  5.00000000e-01                                 
 1.24330812e-08  6.57011759e-01  1.24330812e-08  6.06256958e-01  1.24330812e-08  1.97769328e+00  1.24330812e-08  1.80000000e+00  1.24330812e-08 -5.31055805e-03  1.24330812e-08  5.00000000e-01                                 
 1.43613673e-08  6.53869846e-01  1.43613673e-08  6.03256512e-01  1.43613673e-08  1.97487728e+00  1.43613673e-08  1.80000000e+00  1.43613673e-08  5.29761602e-03  1.43613673e-08  5.00000000e-01                                 
 1.76643476e-08  6.49191260e-01  1.76643476e-08  5.98759400e-01  1.76643476e-08  1.97066238e+00  1.76643476e-08  1.80000000e+00  1.76643476e-08 -5.25078446e-03  1.76643476e-08  5.00000000e-01                                 
 2.13312312e-08  6.44793852e-01  2.13312312e-08  5.94502500e-01  2.13312312e-08  1.96680834e+00  2.13312312e-08  1.80000000e+00  2.13312312e-08  5.25446269e-03  2.13312312e-08  5.00000000e-01                                 
 2.75063021e-08  6.38678541e-01  2.75063021e-08  5.88540931e-01  2.75063021e-08  1.96156040e+00  2.75063021e-08  1.80000000e+00  2.75063021e-08 -5.21892659e-03  2.75063021e-08  5.00000000e-01                                 
 3.61102350e-08  6.31972701e-01  3.61102350e-08  5.81951854e-01  3.61102350e-08  1.95607635e+00  3.61102350e-08  1.80000000e+00  3.61102350e-08  5.23416989e-03  3.61102350e-08  5.00000000e-01                                 
 5.25539257e-08  6.22466486e-01  5.25539257e-08  5.72537045e-01  5.25539257e-08  1.94716535e+00  5.25539257e-08  1.80000000e+00  5.25539257e-08 -5.20580599e-03  5.25539257e-08  5.00000000e-01                                 
 7.00529669e-08  6.14921335e-01  7.00529669e-08  5.65061256e-01  7.00529669e-08  1.93072806e+00  7.00529669e-08  1.80000000e+00  7.00529669e-08  5.22567429e-03  7.00529669e-08  5.00000000e-01                                 
 9.08343193e-08  6.06364580e-01  9.08343193e-08  5.56894202e-01  9.08343193e-08  1.91138550e+00  9.08343193e-08  1.80000000e+00  9.08343193e-08 -5.19812051e-03  9.08343193e-08  5.00000000e-01                                 
 1.07083438e-07  5.98438966e-01  1.07083438e-07  5.49732201e-01  1.07083438e-07  1.89774801e+00  1.07083438e-07  1.80000000e+00  1.07083438e-07  5.21761444e-03  1.07083438e-07  5.00000000e-01                                 
 1.24198337e-07  5.90892470e-01  1.24198337e-07  5.42957383e-01  1.24198337e-07  1.86283135e+00  1.24198337e-07  1.80000000e+00  1.24198337e-07 -5.18952564e-03  1.24198337e-07  5.00000000e-01                                 
 1.41237468e-07  5.83852275e-01  1.41237468e-07  5.36697293e-01  1.41237468e-07  1.83269160e+00  1.41237468e-07  1.80000000e+00  1.41237468e-07  5.20927029e-03  1.41237468e-07  5.00000000e-01                                 
 1.56750018e-07  5.78197443e-01  1.56750018e-07  5.31672739e-01  1.56750018e-07  1.80671899e+00  1.56750018e-07  1.80000000e+00  1.56750018e-07 -5.18072419e-03  1.56750018e-07  5.00000000e-01                                 
 1.80181968e-07  5.75451193e-01  1.80181968e-07  5.28758863e-01  1.80181968e-07  1.78201145e+00  1.80181968e-07  1.80000000e+00  1.80181968e-07  5.20178954e-03  1.80181968e-07  5.00000000e-01                                 
 2.08952534e-07  5.80516048e-01  2.08952534e-07  5.31938564e-01  2.08952534e-07  1.77708031e+00  2.08952534e-07  1.80000000e+00  2.08952534e-07 -5.17492372e-03  2.08952534e-07  5.00000000e-01                                 
 2.27716738e-07  5.80437317e-01  2.27716738e-07  5.31375776e-01  2.27716738e-07  1.75937898e+00  2.27716738e-07  1.80000000e+00  2.27716738e-07  5.19523172e-03  2.27716738e-07  5.00000000e-01                                 
 2.50355842e-07  5.74197870e-01  2.50355842e-07  5.25886399e-01  2.50355842e-07  1.73065208e+00  2.50355842e-07  1.80000000e+00  2.50355842e-07 -5.16818666e-03  2.50355842e-07  5.00000000e-01                                 
 2.71046894e-07  5.69153697e-01  2.71046894e-07  5.21437842e-01  2.71046894e-07  1.70635109e+00  2.71046894e-07  1.80000000e+00  2.71046894e-07  5.18857972e-03  2.71046894e-07  5.00000000e-01                                 
 2.93805473e-07  5.63766135e-01  2.93805473e-07  5.16717854e-01  2.93805473e-07  1.67940486e+00  2.93805473e-07  1.80000000e+00  2.93805473e-07 -5.16160787e-03  2.93805473e-07  5.00000000e-01                                 
 3.32732643e-07  5.54253347e-01  3.32732643e-07  5.08506531e-01  3.32732643e-07  1.63191548e+00  3.32732643e-07  1.80000000e+00  3.32732643e-07  5.18356412e-03  3.32732643e-07  5.00000000e-01                                 
 3.94664380e-07  5.38738688e-01  3.94664380e-07  4.95357357e-01  3.94664380e-07  1.55641504e+00  3.94664380e-07  1.80000000e+00  3.94664380e-07 -5.15856228e-03  3.94664380e-07  5.00000000e-01                                 
 5.18527852e-07  5.10289850e-01  5.18527852e-07  4.71656420e-01  5.18527852e-07  1.40241304e+00  5.18527852e-07  1.80000000e+00  5.18527852e-07  5.18186105e-03  5.18527852e-07  5.00000000e-01                                 
 6.40046223e-07  4.62426154e-01  6.40046223e-07  4.33052310e-01  6.40046223e-07  1.23234464e+00  6.40046223e-07  1.80000000e+00  6.40046223e-07 -5.15759919e-03  6.40046223e-07  5.00000000e-01                                 
 6.54778328e-07  4.55805456e-01  6.54778328e-07  4.27751461e-01  6.54778328e-07  1.21024444e+00  6.54778328e-07  1.80000000e+00  6.54778328e-07 -9.30845977e-07  6.54778328e-07  5.00000000e-01                                 
 6.84242539e-07  4.46165197e-01  6.84242539e-07  4.20039374e-01  6.84242539e-07  1.17014276e+00  6.84242539e-07  1.80000000e+00  6.84242539e-07  1.45391097e-06  6.84242539e-07  5.00000000e-01                                 
 7.18178636e-07  4.69887736e-01  7.18178636e-07  4.39049075e-01  7.18178636e-07  1.15745351e+00  7.18178636e-07  1.80000000e+00  7.18178636e-07 -8.55221187e-08  7.18178636e-07  5.00000000e-01                                 
 7.57868337e-07  6.87276511e-01  7.57868337e-07  6.27089108e-01  7.57868337e-07  1.32425746e+00  7.57868337e-07  1.80000000e+00  7.57868337e-07  6.10519426e-06  7.57868337e-07  5.00000000e-01                                 
 7.89466357e-07  7.63061625e-01  7.89466357e-07  7.05666991e-01  7.89466357e-07  1.36710898e+00  7.89466357e-07  1.80000000e+00  7.89466357e-07 -1.85803601e-06  7.89466357e-07  5.00000000e-01                                 
 8.20590152e-07  7.91649097e-01  8.20590152e-07  7.31832363e-01  8.20590152e-07  1.35918638e+00  8.20590152e-07  1.80000000e+00  8.20590152e-07  3.70417531e-06  8.20590152e-07  5.00000000e-01                                 
 8.54491724e-07  8.00354326e-01  8.54491724e-07  7.39239299e-01  8.54491724e-07  1.33574948e+00  8.54491724e-07  1.80000000e+00  8.54491724e-07 -2.35333266e-06  8.54491724e-07  5.00000000e-01                                 
 8.91391676e-07  7.99617892e-01  8.91391676e-07  7.38678605e-01  8.91391676e-07  1.29389847e+00  8.91391676e-07  1.80000000e+00  8.91391676e-07  2.99469204e-06  8.91391676e-07  5.00000000e-01                                 
 8.97580748e-07  8.00193329e-01  8.97580748e-07  7.39130585e-01  8.97580748e-07  1.28940033e+00  8.97580748e-07  1.80000000e+00  8.97580748e-07  5.83703595e-07  8.97580748e-07  5.00000000e-01                                 
 9.09958891e-07  8.00323545e-01  9.09958891e-07  7.39244219e-01  9.09958891e-07  1.27699623e+00  9.09958891e-07  1.80000000e+00  9.09958891e-07  2.85041667e-07  9.09958891e-07  5.00000000e-01                                 
 9.34715176e-07  8.00225492e-01  9.34715176e-07  7.39159263e-01  9.34715176e-07  1.25106550e+00  9.34715176e-07  1.80000000e+00  9.34715176e-07  4.96420257e-07  9.34715176e-07  5.00000000e-01                                 
 9.73549011e-07  8.00341462e-01  9.73549011e-07  7.39258586e-01  9.73549011e-07  1.21109876e+00  9.73549011e-07  1.80000000e+00  9.73549011e-07  3.09553029e-07  9.73549011e-07  5.00000000e-01                                 
 1.01517796e-06  8.00559621e-01  1.01517796e-06  7.39439938e-01  1.01517796e-06  1.16776230e+00  1.01517796e-06  1.80000000e+00  1.01517796e-06  4.91677828e-07  1.01517796e-06  5.00000000e-01                                 
 1.06264234e-06  7.83274587e-01  1.06264234e-06  7.24490829e-01  1.06264234e-06  1.10204637e+00  1.06264234e-06  1.80000000e+00  1.06264234e-06 -1.65788842e-07  1.06264234e-06  5.00000000e-01                                 
 1.11442478e-06  7.71115633e-01  1.11442478e-06  7.13368972e-01  1.11442478e-06  1.03570895e+00  1.11442478e-06  1.80000000e+00  1.11442478e-06  6.22748379e-07  1.11442478e-06  5.00000000e-01                                 
 1.17651160e-06  7.92575436e-01  1.17651160e-06  7.32614064e-01  1.17651160e-06  9.94601519e-01  1.17651160e-06  1.80000000e+00  1.17651160e-06  6.34839816e-07  1.17651160e-06  5.00000000e-01                                 
 1.23393728e-06  7.91657743e-01  1.23393728e-06  7.31845732e-01  1.23393728e-06  9.43738900e-01  1.23393728e-06  1.80000000e+00  1.23393728e-06  1.71076849e-07  1.23393728e-06  5.00000000e-01                                 
 1.30097847e-06  7.80602885e-01  1.30097847e-06  7.22048486e-01  1.30097847e-06  8.85305216e-01  1.30097847e-06  1.80000000e+00  1.30097847e-06  3.94308176e-07  1.30097847e-06  5.00000000e-01                                 
 1.39681718e-06  7.85658621e-01  1.39681718e-06  7.26557788e-01  1.39681718e-06  8.29251118e-01  1.39681718e-06  1.80000000e+00  1.39681718e-06  4.78904662e-07  1.39681718e-06  5.00000000e-01                                 
 1.49484657e-06  7.91078119e-01  1.49484657e-06  7.31329021e-01  1.49484657e-06  7.78469248e-01  1.49484657e-06  1.80000000e+00  1.49484657e-06  3.94727091e-07  1.49484657e-06  5.00000000e-01                                 
 1.64037702e-06  7.81484852e-01  1.64037702e-06  7.22848366e-01  1.64037702e-06  6.94169037e-01  1.64037702e-06  1.80000000e+00  1.64037702e-06  3.16340181e-07  1.64037702e-06  5.00000000e-01                                 
 1.77894435e-06  7.88719493e-01  1.77894435e-06  7.29254621e-01  1.77894435e-06  6.33556235e-01  1.77894435e-06  1.80000000e+00  1.77894435e-06  5.47612281e-07  1.77894435e-06  5.00000000e-01                                 
 1.95716262e-06  7.85968769e-01  1.95716262e-06  7.26853389e-01  1.95716262e-06  5.53696563e-01  1.95716262e-06  1.80000000e+00  1.95716262e-06  2.34818129e-07  1.95716262e-06  5.00000000e-01                                 
 2.16803344e-06  7.85127071e-01  2.16803344e-06  7.26080669e-01  2.16803344e-06  5.03983852e-01  2.16803344e-06  1.80000000e+00  2.16803344e-06  5.56594727e-07  2.16803344e-06  5.00000000e-01                                 
 2.36736707e-06  7.88716718e-01  2.36736707e-06  7.29272446e-01  2.36736707e-06  4.95667028e-01  2.36736707e-06  1.80000000e+00  2.36736707e-06  2.69985202e-07  2.36736707e-06  5.00000000e-01                                 
 2.39523110e-06  7.86533270e-01  2.39523110e-06  7.27344264e-01  2.39523110e-06  4.92711336e-01  2.39523110e-06  1.80000000e+00  2.39523110e-06  3.41412188e-07  2.39523110e-06  5.00000000e-01                                 
 2.45095917e-06  7.84863057e-01  2.45095917e-06  7.25857828e-01  2.45095917e-06  4.89729343e-01  2.45095917e-06  1.80000000e+00  2.45095917e-06  4.12172027e-07  2.45095917e-06  5.00000000e-01                                 
 2.56241532e-06  7.87295998e-01  2.56241532e-06  7.28011869e-01  2.56241532e-06  4.95511156e-01  2.56241532e-06  1.80000000e+00  2.56241532e-06  4.17413468e-07  2.56241532e-06  5.00000000e-01                                 
 2.70783999e-06  7.86157586e-01  2.70783999e-06  7.27009333e-01  2.70783999e-06  5.02670225e-01  2.70783999e-06  1.80000000e+00  2.70783999e-06  3.69308551e-07  2.70783999e-06  5.00000000e-01                                 
 2.85694577e-06  7.85950546e-01  2.85694577e-06  7.26822094e-01  2.85694577e-06  4.99998776e-01  2.85694577e-06  1.80000000e+00  2.85694577e-06  4.23845987e-07  2.85694577e-06  5.00000000e-01                                 
 3.05111351e-06  7.87085721e-01  3.05111351e-06  7.27828723e-01  3.05111351e-06  4.99555867e-01  3.05111351e-06  1.80000000e+00  3.05111351e-06  3.83487350e-07  3.05111351e-06  5.00000000e-01                                 
 3.31791099e-06  7.85565889e-01  3.31791099e-06  7.26482513e-01  3.31791099e-06  5.00507374e-01  3.31791099e-06  1.80000000e+00  3.31791099e-06  4.05335665e-07  3.31791099e-06  5.00000000e-01                                 
 3.59678449e-06  7.87134097e-01  3.59678449e-06  7.27870150e-01  3.59678449e-06  5.00170983e-01  3.59678449e-06  1.80000000e+00  3.59678449e-06  4.00237159e-07  3.59678449e-06  5.00000000e-01                                 
 4.07642970e-06  7.85654245e-01  4.07642970e-06  7.26561842e-01  4.07642970e-06  4.99976688e-01  4.07642970e-06  1.80000000e+00  4.07642970e-06  3.92939277e-07  4.07642970e-06  5.00000000e-01                                 
 4.80638674e-06  7.87024775e-01  4.80638674e-06  7.27773131e-01  4.80638674e-06  5.00444482e-01  4.80638674e-06  1.80000000e+00  4.80638674e-06  4.07112592e-07  4.80638674e-06  5.00000000e-01                                 
 5.80638674e-06  7.85753137e-01  5.80638674e-06  7.26649916e-01  5.80638674e-06  4.99844733e-01  5.80638674e-06  1.80000000e+00  5.80638674e-06  3.88640218e-07  5.80638674e-06  5.00000000e-01                                 
 6.80638674e-06  7.86933220e-01  6.80638674e-06  7.27692070e-01  6.80638674e-06  5.00517875e-01  6.80638674e-06  1.80000000e+00  6.80638674e-06  4.10423894e-07  6.80638674e-06  5.00000000e-01                                 
 7.80638674e-06  7.85855549e-01  7.80638674e-06  7.26740869e-01  7.80638674e-06  4.99803990e-01  7.80638674e-06  1.80000000e+00  7.80638674e-06  3.85618546e-07  7.80638674e-06  5.00000000e-01                                 
 8.80638674e-06  7.86826631e-01  8.80638674e-06  7.27597710e-01  8.80638674e-06  5.00528128e-01  8.80638674e-06  1.80000000e+00  8.80638674e-06  4.13139337e-07  8.80638674e-06  5.00000000e-01                                 
 9.80638674e-06  7.85970273e-01  9.80638674e-06  7.26842682e-01  9.80638674e-06  4.99821734e-01  9.80638674e-06  1.80000000e+00  9.80638674e-06  3.83222708e-07  9.80638674e-06  5.00000000e-01                                 
