 time            v(vbep)         time            v(vben)         time            v(vout)         time            v(vphi1)        time            v(vphi2)        time            v(vref)         yes             currtemp       
 0.00000000e+00  6.32419108e-01  0.00000000e+00  5.71360151e-01  0.00000000e+00  1.11154900e+00  0.00000000e+00  0.00000000e+00  0.00000000e+00  1.79994077e+00  0.00000000e+00  5.00000000e-01  1.00000000e+00  6.10000000e+01 
 5.00000000e-12  6.32380092e-01  5.00000000e-12  5.71328055e-01  5.00000000e-12  1.11232165e+00  5.00000000e-12  1.80000000e-02  5.00000000e-12  1.80005510e+00  5.00000000e-12  5.00000000e-01                                 
 1.00000000e-11  6.32342459e-01  1.00000000e-11  5.71296947e-01  1.00000000e-11  1.11302833e+00  1.00000000e-11  3.60000000e-02  1.00000000e-11  1.80011505e+00  1.00000000e-11  5.00000000e-01                                 
 2.00000000e-11  6.32268087e-01  2.00000000e-11  5.71235021e-01  2.00000000e-11  1.11434300e+00  2.00000000e-11  7.20000000e-02  2.00000000e-11  1.80017061e+00  2.00000000e-11  5.00000000e-01                                 
 4.00000000e-11  6.32120872e-01  4.00000000e-11  5.71111750e-01  4.00000000e-11  1.11652923e+00  4.00000000e-11  1.44000000e-01  4.00000000e-11  1.80013603e+00  4.00000000e-11  5.00000000e-01                                 
 8.00000000e-11  6.31828138e-01  8.00000000e-11  5.70866534e-01  8.00000000e-11  1.11982755e+00  8.00000000e-11  2.88000000e-01  8.00000000e-11  1.80006098e+00  8.00000000e-11  5.00000000e-01                                 
 1.60000000e-10  6.31250083e-01  1.60000000e-10  5.70381351e-01  1.60000000e-10  1.12414977e+00  1.60000000e-10  5.76000000e-01  1.60000000e-10  1.80000325e+00  1.60000000e-10  5.00000000e-01                                 
 3.20000000e-10  6.30121554e-01  3.20000000e-10  5.69431118e-01  3.20000000e-10  1.12111149e+00  3.20000000e-10  1.15200000e+00  3.20000000e-10  1.80045550e+00  3.20000000e-10  5.00000000e-01                                 
 5.00000000e-10  6.28894225e-01  5.00000000e-10  5.68392888e-01  5.00000000e-10  1.24800633e+00  5.00000000e-10  1.80000000e+00  5.00000000e-10  1.27586179e-01  5.00000000e-10  5.00000000e-01                                 
 5.21966576e-10  6.28747731e-01  5.21966576e-10  5.68268609e-01  5.21966576e-10  1.27836840e+00  5.21966576e-10  1.80000000e+00  5.21966576e-10  2.64991713e-02  5.21966576e-10  5.00000000e-01                                 
 5.65899728e-10  6.28455937e-01  5.65899728e-10  5.68020903e-01  5.65899728e-10  1.33383682e+00  5.65899728e-10  1.80000000e+00  5.65899728e-10 -1.19180182e-02  5.65899728e-10  5.00000000e-01                                 
 6.53766032e-10  6.27879604e-01  6.53766032e-10  5.67530853e-01  6.53766032e-10  1.42411182e+00  6.53766032e-10  1.80000000e+00  6.53766032e-10  9.94957228e-03  6.53766032e-10  5.00000000e-01                                 
 7.76009104e-10  6.27093450e-01  7.76009104e-10  5.66860677e-01  7.76009104e-10  1.52434313e+00  7.76009104e-10  1.80000000e+00  7.76009104e-10 -8.42613150e-03  7.76009104e-10  5.00000000e-01                                 
 9.70059753e-10  6.25881114e-01  9.70059753e-10  5.65823363e-01  9.70059753e-10  1.64064856e+00  9.70059753e-10  1.80000000e+00  9.70059753e-10  7.91085066e-03  9.70059753e-10  5.00000000e-01                                 
 1.35816105e-09  6.23576950e-01  1.35816105e-09  5.63839381e-01  1.35816105e-09  1.76778409e+00  1.35816105e-09  1.80000000e+00  1.35816105e-09 -7.44255182e-03  1.35816105e-09  5.00000000e-01                                 
 1.66351001e-09  6.21868958e-01  1.66351001e-09  5.62357946e-01  1.66351001e-09  1.80627273e+00  1.66351001e-09  1.80000000e+00  1.66351001e-09  7.14826390e-03  1.66351001e-09  5.00000000e-01                                 
 2.00827853e-09  6.20039232e-01  2.00827853e-09  5.60761114e-01  2.00827853e-09  1.82347099e+00  2.00827853e-09  1.80000000e+00  2.00827853e-09 -6.71684220e-03  2.00827853e-09  5.00000000e-01                                 
 2.36199159e-09  6.18260773e-01  2.36199159e-09  5.59199477e-01  2.36199159e-09  1.82929432e+00  2.36199159e-09  1.80000000e+00  2.36199159e-09  6.50355313e-03  2.36199159e-09  5.00000000e-01                                 
 2.73246507e-09  6.16494905e-01  2.73246507e-09  5.57639790e-01  2.73246507e-09  1.83056025e+00  2.73246507e-09  1.80000000e+00  2.73246507e-09 -6.15731145e-03  2.73246507e-09  5.00000000e-01                                 
 3.18602470e-09  6.14453924e-01  3.18602470e-09  5.55826170e-01  3.18602470e-09  1.83017335e+00  3.18602470e-09  1.80000000e+00  3.18602470e-09  5.98393382e-03  3.18602470e-09  5.00000000e-01                                 
 3.64211559e-09  6.12522342e-01  3.64211559e-09  5.54099141e-01  3.64211559e-09  1.82903986e+00  3.64211559e-09  1.80000000e+00  3.64211559e-09 -5.74040570e-03  3.64211559e-09  5.00000000e-01                                 
 4.28498642e-09  6.09979556e-01  4.28498642e-09  5.51810638e-01  4.28498642e-09  1.82747934e+00  4.28498642e-09  1.80000000e+00  4.28498642e-09  5.62608569e-03  4.28498642e-09  5.00000000e-01                                 
 5.14797870e-09  6.06851441e-01  5.14797870e-09  5.48972811e-01  5.14797870e-09  1.82541391e+00  5.14797870e-09  1.80000000e+00  5.14797870e-09 -5.49403278e-03  5.14797870e-09  5.00000000e-01                                 
 6.80822365e-09  6.01562103e-01  6.80822365e-09  5.44122717e-01  6.80822365e-09  1.82218594e+00  6.80822365e-09  1.80000000e+00  6.80822365e-09  5.46772134e-03  6.80822365e-09  5.00000000e-01                                 
 9.81141995e-09  5.93752003e-01  9.81141995e-09  5.36853003e-01  9.81141995e-09  1.81757249e+00  9.81141995e-09  1.80000000e+00  9.81141995e-09 -5.41094544e-03  9.81141995e-09  5.00000000e-01                                 
 1.58178126e-08  5.82200991e-01  1.58178126e-08  5.25900487e-01  1.58178126e-08  1.81167160e+00  1.58178126e-08  1.80000000e+00  1.58178126e-08  5.42458100e-03  1.58178126e-08  5.00000000e-01                                 
 2.78305978e-08  5.67067149e-01  2.78305978e-08  5.11259285e-01  2.78305978e-08  1.80645737e+00  2.78305978e-08  1.80000000e+00  2.78305978e-08 -5.38848696e-03  2.78305978e-08  5.00000000e-01                                 
 4.34424334e-08  5.54753090e-01  4.34424334e-08  4.99140537e-01  4.34424334e-08  1.80421198e+00  4.34424334e-08  1.80000000e+00  4.34424334e-08  5.41235105e-03  4.34424334e-08  5.00000000e-01                                 
 6.16348661e-08  5.44849814e-01  6.16348661e-08  4.89322936e-01  6.16348661e-08  1.77099802e+00  6.16348661e-08  1.80000000e+00  6.16348661e-08 -5.37795075e-03  6.16348661e-08  5.00000000e-01                                 
 8.15123083e-08  5.35497686e-01  8.15123083e-08  4.80287568e-01  8.15123083e-08  1.70397375e+00  8.15123083e-08  1.80000000e+00  8.15123083e-08  5.40335546e-03  8.15123083e-08  5.00000000e-01                                 
 1.02762015e-07  5.23498096e-01  1.02762015e-07  4.69421792e-01  1.02762015e-07  1.62857053e+00  1.02762015e-07  1.80000000e+00  1.02762015e-07 -5.36971441e-03  1.02762015e-07  5.00000000e-01                                 
 1.22944569e-07  5.13659621e-01  1.22944569e-07  4.60573896e-01  1.22944569e-07  1.51386137e+00  1.22944569e-07  1.80000000e+00  1.22944569e-07  5.39510959e-03  1.22944569e-07  5.00000000e-01                                 
 1.45885133e-07  5.04000070e-01  1.45885133e-07  4.51926901e-01  1.45885133e-07  1.36541751e+00  1.45885133e-07  1.80000000e+00  1.45885133e-07 -5.36168222e-03  1.45885133e-07  5.00000000e-01                                 
 1.69288375e-07  5.00093531e-01  1.69288375e-07  4.47957955e-01  1.69288375e-07  1.24719433e+00  1.69288375e-07  1.80000000e+00  1.69288375e-07  5.38797019e-03  1.69288375e-07  5.00000000e-01                                 
 2.06567858e-07  5.03106428e-01  2.06567858e-07  4.49107025e-01  2.06567858e-07  1.05979176e+00  2.06567858e-07  1.80000000e+00  2.06567858e-07 -5.35551935e-03  2.06567858e-07  5.00000000e-01                                 
 2.29139237e-07  5.02039578e-01  2.29139237e-07  4.47597242e-01  2.29139237e-07  9.45241870e-01  2.29139237e-07  1.80000000e+00  2.29139237e-07  5.38175051e-03  2.29139237e-07  5.00000000e-01                                 
 2.55740137e-07  4.97545941e-01  2.55740137e-07  4.43334166e-01  2.55740137e-07  8.49763517e-01  2.55740137e-07  1.80000000e+00  2.55740137e-07 -5.34870992e-03  2.55740137e-07  5.00000000e-01                                 
 2.85948012e-07  4.90905054e-01  2.85948012e-07  4.37363287e-01  2.85948012e-07  7.72509307e-01  2.85948012e-07  1.80000000e+00  2.85948012e-07  5.37565065e-03  2.85948012e-07  5.00000000e-01                                 
 3.17953379e-07  4.82706172e-01  3.17953379e-07  4.30205453e-01  3.17953379e-07  6.88425626e-01  3.17953379e-07  1.80000000e+00  3.17953379e-07 -5.34331354e-03  3.17953379e-07  5.00000000e-01                                 
 3.70748608e-07  4.69755136e-01  3.70748608e-07  4.19021691e-01  3.70748608e-07  5.67688828e-01  3.70748608e-07  1.80000000e+00  3.70748608e-07  5.37139175e-03  3.70748608e-07  5.00000000e-01                                 
 4.45781416e-07  4.51333775e-01  4.45781416e-07  4.03407142e-01  4.45781416e-07  4.68550242e-01  4.45781416e-07  1.80000000e+00  4.45781416e-07 -5.34059327e-03  4.45781416e-07  5.00000000e-01                                 
 5.52090217e-07  4.14563390e-01  5.52090217e-07  3.73277973e-01  5.52090217e-07  4.29852526e-01  5.52090217e-07  1.80000000e+00  5.52090217e-07  5.36937240e-03  5.52090217e-07  5.00000000e-01                                 
 6.29877945e-07  3.92252757e-01  6.29877945e-07  3.55142732e-01  6.29877945e-07  5.35811243e-01  6.29877945e-07  1.80000000e+00  6.29877945e-07 -5.33866352e-03  6.29877945e-07  5.00000000e-01                                 
 6.81967306e-07  3.71148749e-01  6.81967306e-07  3.38167898e-01  6.81967306e-07  5.54987761e-01  6.81967306e-07  1.80000000e+00  6.81967306e-07  5.36655613e-03  6.81967306e-07  5.00000000e-01                                 
 7.39525718e-07  4.43716655e-01  7.39525718e-07  3.96255561e-01  7.39525718e-07  5.05864951e-01  7.39525718e-07  1.80000000e+00  7.39525718e-07 -5.33397135e-03  7.39525718e-07  5.00000000e-01                                 
 7.45249345e-07  4.65559526e-01  7.45249345e-07  4.13695658e-01  7.45249345e-07  5.14488850e-01  7.45249345e-07  1.80000000e+00  7.45249345e-07  1.60270671e-06  7.45249345e-07  5.00000000e-01                                 
 7.56696599e-07  5.24077119e-01  7.56696599e-07  4.60523649e-01  7.56696599e-07  5.39532981e-01  7.56696599e-07  1.80000000e+00  7.56696599e-07  1.00976491e-05  7.56696599e-07  5.00000000e-01                                 
 7.79591106e-07  6.52689884e-01  7.79591106e-07  5.85827623e-01  7.79591106e-07  5.75014167e-01  7.79591106e-07  1.80000000e+00  7.79591106e-07  3.54176357e-06  7.79591106e-07  5.00000000e-01                                 
 7.97813444e-07  6.95237855e-01  7.97813444e-07  6.31903489e-01  7.97813444e-07  5.49343166e-01  7.97813444e-07  1.80000000e+00  7.97813444e-07  6.52721095e-06  7.97813444e-07  5.00000000e-01                                 
 8.14932454e-07  7.25783819e-01  8.14932454e-07  6.59645638e-01  8.14932454e-07  5.29758459e-01  8.14932454e-07  1.80000000e+00  8.14932454e-07  2.50973311e-06  8.14932454e-07  5.00000000e-01                                 
 8.39267683e-07  7.48946599e-01  8.39267683e-07  6.79746894e-01  8.39267683e-07  5.10570088e-01  8.39267683e-07  1.80000000e+00  8.39267683e-07  5.39905879e-06  8.39267683e-07  5.00000000e-01                                 
 8.64394091e-07  7.51099064e-01  8.64394091e-07  6.81450329e-01  8.64394091e-07  4.91796811e-01  8.64394091e-07  1.80000000e+00  8.64394091e-07  1.05086372e-06  8.64394091e-07  5.00000000e-01                                 
 9.02854873e-07  7.51560275e-01  9.02854873e-07  6.81889376e-01  9.02854873e-07  4.81256325e-01  9.02854873e-07  1.80000000e+00  9.02854873e-07  5.35266497e-06  9.02854873e-07  5.00000000e-01                                 
 9.41213090e-07  7.51520837e-01  9.41213090e-07  6.81802950e-01  9.41213090e-07  4.78466585e-01  9.41213090e-07  1.80000000e+00  9.41213090e-07  9.72028007e-07  9.41213090e-07  5.00000000e-01                                 
 9.96430861e-07  7.51734645e-01  9.96430861e-07  6.82026614e-01  9.96430861e-07  4.98221882e-01  9.96430861e-07  1.80000000e+00  9.96430861e-07  5.40968524e-06  9.96430861e-07  5.00000000e-01                                 
 1.00496153e-06  7.51199724e-01  1.00496153e-06  6.81572129e-01  1.00496153e-06  5.05026683e-01  1.00496153e-06  1.80000000e+00  1.00496153e-06  3.10292549e-06  1.00496153e-06  5.00000000e-01                                 
 1.02202287e-06  7.45195164e-01  1.02202287e-06  6.76634064e-01  1.02202287e-06  5.11100553e-01  1.02202287e-06  1.80000000e+00  1.02202287e-06  2.70257475e-06  1.02202287e-06  5.00000000e-01                                 
 1.05614554e-06  7.23554397e-01  1.05614554e-06  6.57911332e-01  1.05614554e-06  4.96722334e-01  1.05614554e-06  1.80000000e+00  1.05614554e-06  2.65938524e-06  1.05614554e-06  5.00000000e-01                                 
 1.08916232e-06  7.17696665e-01  1.08916232e-06  6.52580436e-01  1.08916232e-06  4.90350685e-01  1.08916232e-06  1.80000000e+00  1.08916232e-06  3.41295492e-06  1.08916232e-06  5.00000000e-01                                 
 1.13680244e-06  7.33093644e-01  1.13680244e-06  6.66265198e-01  1.13680244e-06  5.08430294e-01  1.13680244e-06  1.80000000e+00  1.13680244e-06  3.44209728e-06  1.13680244e-06  5.00000000e-01                                 
 1.20232518e-06  7.42244985e-01  1.20232518e-06  6.74125827e-01  1.20232518e-06  5.04496073e-01  1.20232518e-06  1.80000000e+00  1.20232518e-06  3.12783834e-06  1.20232518e-06  5.00000000e-01                                 
 1.26653467e-06  7.31255123e-01  1.26653467e-06  6.64697902e-01  1.26653467e-06  4.88310556e-01  1.26653467e-06  1.80000000e+00  1.26653467e-06  2.96278718e-06  1.26653467e-06  5.00000000e-01                                 
 1.34449510e-06  7.29797836e-01  1.34449510e-06  6.63389611e-01  1.34449510e-06  5.06490386e-01  1.34449510e-06  1.80000000e+00  1.34449510e-06  3.35970167e-06  1.34449510e-06  5.00000000e-01                                 
 1.43050861e-06  7.39230656e-01  1.43050861e-06  6.71568843e-01  1.43050861e-06  5.04428238e-01  1.43050861e-06  1.80000000e+00  1.43050861e-06  3.16260302e-06  1.43050861e-06  5.00000000e-01                                 
 1.53594364e-06  7.31520045e-01  1.53594364e-06  6.64918471e-01  1.53594364e-06  4.89872329e-01  1.53594364e-06  1.80000000e+00  1.53594364e-06  3.07918447e-06  1.53594364e-06  5.00000000e-01                                 
 1.66093688e-06  7.33422585e-01  1.66093688e-06  6.66562095e-01  1.66093688e-06  5.10270580e-01  1.66093688e-06  1.80000000e+00  1.66093688e-06  3.29634389e-06  1.66093688e-06  5.00000000e-01                                 
 1.80214419e-06  7.36667261e-01  1.80214419e-06  6.69377172e-01  1.80214419e-06  4.94332725e-01  1.80214419e-06  1.80000000e+00  1.80214419e-06  3.09276639e-06  1.80214419e-06  5.00000000e-01                                 
 1.96503752e-06  7.30942612e-01  1.96503752e-06  6.64406723e-01  1.96503752e-06  5.01290625e-01  1.96503752e-06  1.80000000e+00  1.96503752e-06  3.20649400e-06  1.96503752e-06  5.00000000e-01                                 
 2.13924317e-06  7.36631730e-01  2.13924317e-06  6.69339733e-01  2.13924317e-06  5.03483465e-01  2.13924317e-06  1.80000000e+00  2.13924317e-06  3.19639558e-06  2.13924317e-06  5.00000000e-01                                 
 2.37393376e-06  7.32186078e-01  2.37393376e-06  6.65498213e-01  2.37393376e-06  4.94370284e-01  2.37393376e-06  1.80000000e+00  2.37393376e-06  3.12829354e-06  2.37393376e-06  5.00000000e-01                                 
 2.65166332e-06  7.35216992e-01  2.65166332e-06  6.68117725e-01  2.65166332e-06  5.07360387e-01  2.65166332e-06  1.80000000e+00  2.65166332e-06  3.24117392e-06  2.65166332e-06  5.00000000e-01                                 
 3.02259677e-06  7.33562938e-01  3.02259677e-06  6.66697303e-01  3.02259677e-06  4.92562256e-01  3.02259677e-06  1.80000000e+00  3.02259677e-06  3.10557386e-06  3.02259677e-06  5.00000000e-01                                 
 3.48433084e-06  7.34214074e-01  3.48433084e-06  6.67249703e-01  3.48433084e-06  5.07899396e-01  3.48433084e-06  1.80000000e+00  3.48433084e-06  3.24953894e-06  3.48433084e-06  5.00000000e-01                                 
 3.98491634e-06  7.34395903e-01  3.98491634e-06  6.67419351e-01  3.98491634e-06  4.92733152e-01  3.98491634e-06  1.80000000e+00  3.98491634e-06  3.10445946e-06  3.98491634e-06  5.00000000e-01                                 
 4.59066618e-06  7.33548457e-01  4.59066618e-06  6.66672711e-01  4.59066618e-06  5.07353741e-01  4.59066618e-06  1.80000000e+00  4.59066618e-06  3.24645830e-06  4.59066618e-06  5.00000000e-01                                 
 5.26227618e-06  7.34903645e-01  5.26227618e-06  6.67858134e-01  5.26227618e-06  4.93507037e-01  5.26227618e-06  1.80000000e+00  5.26227618e-06  3.10997440e-06  5.26227618e-06  5.00000000e-01                                 
 6.03970604e-06  7.33140545e-01  6.03970604e-06  6.66318873e-01  6.03970604e-06  5.06478139e-01  6.03970604e-06  1.80000000e+00  6.03970604e-06  3.23968457e-06  6.03970604e-06  5.00000000e-01                                 
 6.93785585e-06  7.35202188e-01  6.93785585e-06  6.68115538e-01  6.93785585e-06  4.94404712e-01  6.93785585e-06  1.80000000e+00  6.93785585e-06  3.11711242e-06  6.93785585e-06  5.00000000e-01                                 
 7.93785585e-06  7.32901406e-01  7.93785585e-06  6.66111458e-01  7.93785585e-06  5.05596903e-01  7.93785585e-06  1.80000000e+00  7.93785585e-06  3.23254030e-06  7.93785585e-06  5.00000000e-01                                 
 8.93785585e-06  7.35386644e-01  8.93785585e-06  6.68274250e-01  8.93785585e-06  4.95315662e-01  8.93785585e-06  1.80000000e+00  8.93785585e-06  3.12451809e-06  8.93785585e-06  5.00000000e-01                                 
 9.93785585e-06  7.32737500e-01  9.93785585e-06  6.65969426e-01  9.93785585e-06  5.04632558e-01  9.93785585e-06  1.80000000e+00  9.93785585e-06  3.22462381e-06  9.93785585e-06  5.00000000e-01                                 
 1.00005000e-05  7.35172040e-01  1.00005000e-05  6.68084611e-01  1.00005000e-05  5.03020284e-01  1.00005000e-05  1.80000000e+00  1.00005000e-05  3.18744012e-06  1.00005000e-05  5.00000000e-01                                 
 1.00005500e-05  7.35172422e-01  1.00005500e-05  6.68084723e-01  1.00005500e-05  4.95395911e-01  1.00005500e-05  1.62000000e+00  1.00005500e-05 -8.80704462e-05  1.00005500e-05  5.00000000e-01                                 
 1.00006500e-05  7.35172900e-01  1.00006500e-05  6.68084989e-01  1.00006500e-05  4.81674100e-01  1.00006500e-05  1.26000000e+00  1.00006500e-05 -7.13275888e-05  1.00006500e-05  5.00000000e-01                                 
 1.00008500e-05  7.35174352e-01  1.00008500e-05  6.68086144e-01  1.00008500e-05  4.79466512e-01  1.00008500e-05  5.40000000e-01  1.00008500e-05  6.87459962e-03  1.00008500e-05  5.00000000e-01                                 
 1.00010000e-05  7.35175971e-01  1.00010000e-05  6.68087420e-01  1.00010000e-05  4.47352359e-01  1.00010000e-05  0.00000000e+00  1.00010000e-05  1.59145117e+00  1.00010000e-05  5.00000000e-01                                 
 1.00010252e-05  7.35176235e-01  1.00010252e-05  6.68087651e-01  1.00010252e-05  4.26669644e-01  1.00010252e-05  0.00000000e+00  1.00010252e-05  1.72923007e+00  1.00010252e-05  5.00000000e-01                                 
