 time            v(vbep)         time            v(vben)         time            v(vout)         time            v(vphi1)        time            v(vphi2)        time            v(vref)         yes             currtemp       
 0.00000000e+00  5.77903439e-01  0.00000000e+00  5.10729260e-01  0.00000000e+00  1.02533320e+00  0.00000000e+00  0.00000000e+00  0.00000000e+00  1.79990919e+00  0.00000000e+00  5.10729260e-01  1.00000000e+00  9.50000000e+01 
 5.00000000e-12  5.77848462e-01  5.00000000e-12  5.10684574e-01  5.00000000e-12  1.02607927e+00  5.00000000e-12  1.80000000e-02  5.00000000e-12  1.80004553e+00  5.00000000e-12  5.10684574e-01                                 
 1.00000000e-11  5.77796139e-01  1.00000000e-11  5.10641578e-01  1.00000000e-11  1.02675203e+00  1.00000000e-11  3.60000000e-02  1.00000000e-11  1.80012934e+00  1.00000000e-11  5.10641578e-01                                 
 2.00000000e-11  5.77693332e-01  2.00000000e-11  5.10556080e-01  2.00000000e-11  1.02798093e+00  2.00000000e-11  7.20000000e-02  2.00000000e-11  1.80022427e+00  2.00000000e-11  5.10556080e-01                                 
 4.00000000e-11  5.77490900e-01  4.00000000e-11  5.10386057e-01  4.00000000e-11  1.02989964e+00  4.00000000e-11  1.44000000e-01  4.00000000e-11  1.80021404e+00  4.00000000e-11  5.10386057e-01                                 
 8.00000000e-11  5.77088794e-01  8.00000000e-11  5.10048206e-01  8.00000000e-11  1.03233117e+00  8.00000000e-11  2.88000000e-01  8.00000000e-11  1.80010580e+00  8.00000000e-11  5.10048206e-01                                 
 1.60000000e-10  5.76296693e-01  1.60000000e-10  5.09381162e-01  1.60000000e-10  1.03411906e+00  1.60000000e-10  5.76000000e-01  1.60000000e-10  1.79999265e+00  1.60000000e-10  5.09381162e-01                                 
 3.20000000e-10  5.74757094e-01  3.20000000e-10  5.08080176e-01  3.20000000e-10  1.02789727e+00  3.20000000e-10  1.15200000e+00  3.20000000e-10  1.80033057e+00  3.20000000e-10  5.08080176e-01                                 
 5.00000000e-10  5.73093169e-01  5.00000000e-10  5.06666910e-01  5.00000000e-10  1.14436999e+00  5.00000000e-10  1.80000000e+00  5.00000000e-10  1.92620088e-01  5.00000000e-10  5.06666910e-01                                 
 5.22752634e-10  5.72888351e-01  5.22752634e-10  5.06492399e-01  5.22752634e-10  1.17413018e+00  5.22752634e-10  1.80000000e+00  5.22752634e-10  5.30651924e-02  5.22752634e-10  5.06492399e-01                                 
 5.68257903e-10  5.72480731e-01  5.68257903e-10  5.06144829e-01  5.68257903e-10  1.23362101e+00  5.68257903e-10  1.80000000e+00  5.68257903e-10 -1.79131008e-02  5.68257903e-10  5.06144829e-01                                 
 6.59268439e-10  5.71677816e-01  6.59268439e-10  5.05458944e-01  6.59268439e-10  1.33992938e+00  6.59268439e-10  1.80000000e+00  6.59268439e-10  1.48037690e-02  6.59268439e-10  5.05458944e-01                                 
 7.81159800e-10  5.70627435e-01  7.81159800e-10  5.04559115e-01  7.81159800e-10  1.46090322e+00  7.81159800e-10  1.80000000e+00  7.81159800e-10 -1.06699443e-02  7.81159800e-10  5.04559115e-01                                 
 9.67440936e-10  5.69074394e-01  9.67440936e-10  5.03223461e-01  9.67440936e-10  1.60702333e+00  9.67440936e-10  1.80000000e+00  9.67440936e-10  1.04590552e-02  9.67440936e-10  5.03223461e-01                                 
 1.34000321e-09  5.66140496e-01  1.34000321e-09  5.00683720e-01  1.34000321e-09  1.78212047e+00  1.34000321e-09  1.80000000e+00  1.34000321e-09 -8.99261677e-03  1.34000321e-09  5.00683720e-01                                 
 1.66193178e-09  5.63774802e-01  1.66193178e-09  4.98619692e-01  1.66193178e-09  1.84918825e+00  1.66193178e-09  1.80000000e+00  1.66193178e-09  8.71275113e-03  1.66193178e-09  4.98619692e-01                                 
 2.02584759e-09  5.61266226e-01  2.02584759e-09  4.96415771e-01  2.02584759e-09  1.87934021e+00  2.02584759e-09  1.80000000e+00  2.02584759e-09 -7.92073702e-03  2.02584759e-09  4.96415771e-01                                 
 2.36975172e-09  5.59040130e-01  2.36975172e-09  4.94447078e-01  2.36975172e-09  1.88949484e+00  2.36975172e-09  1.80000000e+00  2.36975172e-09  7.47975391e-03  2.36975172e-09  4.94447078e-01                                 
 2.89231586e-09  5.55890675e-01  2.89231586e-09  4.91641982e-01  2.89231586e-09  1.89211046e+00  2.89231586e-09  1.80000000e+00  2.89231586e-09 -7.05107009e-03  2.89231586e-09  4.91641982e-01                                 
 3.53415661e-09  5.52355675e-01  3.53415661e-09  4.88466417e-01  3.53415661e-09  1.89037173e+00  3.53415661e-09  1.80000000e+00  3.53415661e-09  6.83929424e-03  3.53415661e-09  4.88466417e-01                                 
 4.63572228e-09  5.46976196e-01  4.63572228e-09  4.83582895e-01  4.63572228e-09  1.88493294e+00  4.63572228e-09  1.80000000e+00  4.63572228e-09 -6.63169884e-03  4.63572228e-09  4.83582895e-01                                 
 6.30619352e-09  5.40084191e-01  6.30619352e-09  4.77241362e-01  6.30619352e-09  1.87858803e+00  6.30619352e-09  1.80000000e+00  6.30619352e-09  6.59335212e-03  6.30619352e-09  4.77241362e-01                                 
 9.24217870e-09  5.30451390e-01  9.24217870e-09  4.68236464e-01  9.24217870e-09  1.86906048e+00  9.24217870e-09  1.80000000e+00  9.24217870e-09 -6.47567535e-03  9.24217870e-09  4.68236464e-01                                 
 1.10770152e-08  5.25604883e-01  1.10770152e-08  4.63642176e-01  1.10770152e-08  1.86480994e+00  1.10770152e-08  1.80000000e+00  1.10770152e-08  6.44193981e-03  1.10770152e-08  4.63642176e-01                                 
 1.22831884e-08  5.22762673e-01  1.22831884e-08  4.60931203e-01  1.22831884e-08  1.86182083e+00  1.22831884e-08  1.80000000e+00  1.22831884e-08 -6.25834823e-03  1.22831884e-08  4.60931203e-01                                 
 1.38689654e-08  5.19353378e-01  1.38689654e-08  4.57664872e-01  1.38689654e-08  1.85896577e+00  1.38689654e-08  1.80000000e+00  1.38689654e-08  6.21001676e-03  1.38689654e-08  4.57664872e-01                                 
 1.54326440e-08  5.16299877e-01  1.54326440e-08  4.54726451e-01  1.54326440e-08  1.85581832e+00  1.54326440e-08  1.80000000e+00  1.54326440e-08 -6.06265984e-03  1.54326440e-08  4.54726451e-01                                 
 1.74323770e-08  5.12760150e-01  1.74323770e-08  4.51305862e-01  1.74323770e-08  1.85287700e+00  1.74323770e-08  1.80000000e+00  1.74323770e-08  6.03596317e-03  1.74323770e-08  4.51305862e-01                                 
 1.97475310e-08  5.09084279e-01  1.97475310e-08  4.47738163e-01  1.97475310e-08  1.84921162e+00  1.97475310e-08  1.80000000e+00  1.97475310e-08 -5.92259842e-03  1.97475310e-08  4.47738163e-01                                 
 2.30622426e-08  5.04444797e-01  2.30622426e-08  4.43213814e-01  2.30622426e-08  1.84533108e+00  2.30622426e-08  1.80000000e+00  2.30622426e-08  5.92742114e-03  2.30622426e-08  4.43213814e-01                                 
 2.74844633e-08  4.99146108e-01  2.74844633e-08  4.38016308e-01  2.74844633e-08  1.84035006e+00  2.74844633e-08  1.80000000e+00  2.74844633e-08 -5.84430346e-03  2.74844633e-08  4.38016308e-01                                 
 3.40763986e-08  4.92582475e-01  3.40763986e-08  4.31538972e-01  3.40763986e-08  1.83498229e+00  3.40763986e-08  1.80000000e+00  3.40763986e-08  5.87309056e-03  3.40763986e-08  4.31538972e-01                                 
 4.50900954e-08  4.83848093e-01  4.50900954e-08  4.22879626e-01  4.50900954e-08  1.82733603e+00  4.50900954e-08  1.80000000e+00  4.50900954e-08 -5.80816313e-03  4.50900954e-08  4.22879626e-01                                 
 6.71174889e-08  4.71104577e-01  6.71174889e-08  4.10182946e-01  6.71174889e-08  1.81719779e+00  6.71174889e-08  1.80000000e+00  6.71174889e-08  5.85445401e-03  6.71174889e-08  4.10182946e-01                                 
 8.77194401e-08  4.62563574e-01  8.77194401e-08  4.01638730e-01  8.77194401e-08  1.80810620e+00  8.77194401e-08  1.80000000e+00  8.77194401e-08 -5.79399942e-03  8.77194401e-08  4.01638730e-01                                 
 1.11410861e-07  4.54040779e-01  1.11410861e-07  3.93276957e-01  1.11410861e-07  1.78766567e+00  1.11410861e-07  1.80000000e+00  1.11410861e-07  5.84098825e-03  1.11410861e-07  3.93276957e-01                                 
 1.43360442e-07  4.37294739e-01  1.43360442e-07  3.78320205e-01  1.43360442e-07  1.74656149e+00  1.43360442e-07  1.80000000e+00  1.43360442e-07 -5.78455707e-03  1.43360442e-07  3.78320205e-01                                 
 1.67651117e-07  4.25682895e-01  1.67651117e-07  3.68089072e-01  1.67651117e-07  1.70695448e+00  1.67651117e-07  1.80000000e+00  1.67651117e-07  5.83031163e-03  1.67651117e-07  3.68089072e-01                                 
 1.94640668e-07  4.18197759e-01  1.94640668e-07  3.61182861e-01  1.94640668e-07  1.66813106e+00  1.94640668e-07  1.80000000e+00  1.94640668e-07 -5.77253554e-03  1.94640668e-07  3.61182861e-01                                 
 2.26399607e-07  4.20466432e-01  2.26399607e-07  3.61957842e-01  2.26399607e-07  1.65184233e+00  2.26399607e-07  1.80000000e+00  2.26399607e-07  5.82294623e-03  2.26399607e-07  3.61957842e-01                                 
 2.47374832e-07  4.21046293e-01  2.47374832e-07  3.61796080e-01  2.47374832e-07  1.63085419e+00  2.47374832e-07  1.80000000e+00  2.47374832e-07 -5.76223302e-03  2.47374832e-07  3.61796080e-01                                 
 2.72091378e-07  4.17149210e-01  2.72091378e-07  3.58037420e-01  2.72091378e-07  1.60063298e+00  2.72091378e-07  1.80000000e+00  2.72091378e-07  5.80961117e-03  2.72091378e-07  3.58037420e-01                                 
 2.95218366e-07  4.15306047e-01  2.95218366e-07  3.56000660e-01  2.95218366e-07  1.57454012e+00  2.95218366e-07  1.80000000e+00  2.95218366e-07 -5.75010742e-03  2.95218366e-07  3.56000660e-01                                 
 3.19678069e-07  4.13121318e-01  3.19678069e-07  3.53704939e-01  3.19678069e-07  1.54736344e+00  3.19678069e-07  1.80000000e+00  3.19678069e-07  5.79772558e-03  3.19678069e-07  3.53704939e-01                                 
 3.62740629e-07  4.05235368e-01  3.62740629e-07  3.46559930e-01  3.62740629e-07  1.49384994e+00  3.62740629e-07  1.80000000e+00  3.62740629e-07 -5.74159567e-03  3.62740629e-07  3.46559930e-01                                 
 4.21042295e-07  3.91680840e-01  4.21042295e-07  3.34782865e-01  4.21042295e-07  1.41930934e+00  4.21042295e-07  1.80000000e+00  4.21042295e-07  5.79186492e-03  4.21042295e-07  3.34782865e-01                                 
 4.91586515e-07  3.76275668e-01  4.91586515e-07  3.21553398e-01  4.91586515e-07  1.32842936e+00  4.91586515e-07  1.80000000e+00  4.91586515e-07 -5.73717940e-03  4.91586515e-07  3.21553398e-01                                 
 5.87272973e-07  3.51449469e-01  5.87272973e-07  3.00803616e-01  5.87272973e-07  1.20333437e+00  5.87272973e-07  1.80000000e+00  5.87272973e-07  5.78831393e-03  5.87272973e-07  3.00803616e-01                                 
 7.13753710e-07  3.27628286e-01  7.13753710e-07  2.80939815e-01  7.13753710e-07  1.05793192e+00  7.13753710e-07  1.80000000e+00  7.13753710e-07 -5.73417514e-03  7.13753710e-07  2.80939815e-01                                 
 8.19483994e-07  2.97068217e-01  8.19483994e-07  2.56134508e-01  8.19483994e-07  9.50243568e-01  8.19483994e-07  1.80000000e+00  8.19483994e-07  5.78586569e-03  8.19483994e-07  2.56134508e-01                                 
 9.29331961e-07  6.40163800e-01  9.29331961e-07  5.69449729e-01  9.29331961e-07  1.17864478e+00  9.29331961e-07  1.80000000e+00  9.29331961e-07 -5.71515060e-03  9.29331961e-07  5.69449729e-01                                 
 1.03151084e-06  7.44204803e-01  1.03151084e-06  6.55246147e-01  1.03151084e-06  1.17527915e+00  1.03151084e-06  1.80000000e+00  1.03151084e-06  5.77318152e-03  1.03151084e-06  6.55246147e-01                                 
 1.11003200e-06  7.20297051e-01  1.11003200e-06  6.37982476e-01  1.11003200e-06  1.07257433e+00  1.11003200e-06  1.80000000e+00  1.11003200e-06 -5.71898403e-03  1.11003200e-06  6.37982476e-01                                 
 1.18400314e-06  6.09578729e-01  1.18400314e-06  5.41316830e-01  1.18400314e-06  9.18191903e-01  1.18400314e-06  1.80000000e+00  1.18400314e-06  5.76306390e-03  1.18400314e-06  5.41316830e-01                                 
 1.23235580e-06  5.46475411e-01  1.23235580e-06  4.78355869e-01  1.23235580e-06  8.28347177e-01  1.23235580e-06  1.80000000e+00  1.23235580e-06 -5.71283173e-03  1.23235580e-06  4.78355869e-01                                 
 1.28626110e-06  5.81151309e-01  1.28626110e-06  5.12019459e-01  1.28626110e-06  8.29858710e-01  1.28626110e-06  1.80000000e+00  1.28626110e-06  5.76801981e-03  1.28626110e-06  5.12019459e-01                                 
 1.33745235e-06  6.54616546e-01  1.33745235e-06  5.83119436e-01  1.33745235e-06  8.63053137e-01  1.33745235e-06  1.80000000e+00  1.33745235e-06 -5.70293306e-03  1.33745235e-06  5.83119436e-01                                 
 1.40736194e-06  6.92363924e-01  1.40736194e-06  6.15910371e-01  1.40736194e-06  8.56635319e-01  1.40736194e-06  1.80000000e+00  1.40736194e-06  5.75815403e-03  1.40736194e-06  6.15910371e-01                                 
 1.48412383e-06  7.02348771e-01  1.48412383e-06  6.24029580e-01  1.48412383e-06  8.16720582e-01  1.48412383e-06  1.80000000e+00  1.48412383e-06 -5.70119719e-03  1.48412383e-06  6.24029580e-01                                 
 1.49418803e-06  7.01636060e-01  1.49418803e-06  6.23444540e-01  1.49418803e-06  8.11358261e-01  1.49418803e-06  1.80000000e+00  1.49418803e-06  1.19582602e-05  1.49418803e-06  6.23444540e-01                                 
 1.51431643e-06  6.93946865e-01  1.51431643e-06  6.17271749e-01  1.51431643e-06  7.92614713e-01  1.51431643e-06  1.80000000e+00  1.51431643e-06  1.73608676e-05  1.51431643e-06  6.17271749e-01                                 
 1.55457322e-06  6.67254167e-01  1.55457322e-06  5.94559644e-01  1.55457322e-06  7.45003129e-01  1.55457322e-06  1.80000000e+00  1.55457322e-06  1.04709855e-05  1.55457322e-06  5.94559644e-01                                 
 1.59601634e-06  6.68946891e-01  1.59601634e-06  5.95989647e-01  1.59601634e-06  7.23453909e-01  1.59601634e-06  1.80000000e+00  1.59601634e-06  2.11093206e-05  1.59601634e-06  5.95989647e-01                                 
 1.64612766e-06  6.90006768e-01  1.64612766e-06  6.13982007e-01  1.64612766e-06  7.15120761e-01  1.64612766e-06  1.80000000e+00  1.64612766e-06  1.24882777e-05  1.64612766e-06  6.13982007e-01                                 
 1.70134392e-06  6.87178207e-01  1.70134392e-06  6.11665531e-01  1.70134392e-06  6.83169818e-01  1.70134392e-06  1.80000000e+00  1.70134392e-06  1.86787182e-05  1.70134392e-06  6.11665531e-01                                 
 1.76034332e-06  6.77118553e-01  1.76034332e-06  6.03122920e-01  1.76034332e-06  6.47590255e-01  1.76034332e-06  1.80000000e+00  1.76034332e-06  1.19784949e-05  1.76034332e-06  6.03122920e-01                                 
 1.85591851e-06  6.82835605e-01  1.85591851e-06  6.07996747e-01  1.85591851e-06  6.24355308e-01  1.85591851e-06  1.80000000e+00  1.85591851e-06  2.00180916e-05  1.85591851e-06  6.07996747e-01                                 
 1.95385874e-06  6.86054472e-01  1.95385874e-06  6.10706609e-01  1.95385874e-06  6.10007321e-01  1.95385874e-06  1.80000000e+00  1.95385874e-06  1.19555093e-05  1.95385874e-06  6.10706609e-01                                 
 1.97037432e-06  6.83552134e-01  1.97037432e-06  6.08611870e-01  1.97037432e-06  6.05579739e-01  1.97037432e-06  1.80000000e+00  1.97037432e-06  1.55395872e-05  1.97037432e-06  6.08611870e-01                                 
 2.00340549e-06  6.80240569e-01  2.00340549e-06  6.05799861e-01  2.00340549e-06  5.98602910e-01  2.00340549e-06  1.80000000e+00  2.00340549e-06  1.58077748e-05  2.00340549e-06  6.05799861e-01                                 
 2.06946782e-06  6.82143519e-01  2.06946782e-06  6.07408657e-01  2.06946782e-06  5.94392055e-01  2.06946782e-06  1.80000000e+00  2.06946782e-06  1.62214160e-05  2.06946782e-06  6.07408657e-01                                 
 2.16308155e-06  6.84163088e-01  2.16308155e-06  6.09122167e-01  2.16308155e-06  6.00760941e-01  2.16308155e-06  1.80000000e+00  2.16308155e-06  1.58954889e-05  2.16308155e-06  6.09122167e-01                                 
 2.26399382e-06  6.81146941e-01  2.26399382e-06  6.06568470e-01  2.26399382e-06  6.08239292e-01  2.26399382e-06  1.80000000e+00  2.26399382e-06  1.59996966e-05  2.26399382e-06  6.06568470e-01                                 
 2.39683248e-06  6.83241143e-01  2.39683248e-06  6.08340416e-01  2.39683248e-06  6.08091294e-01  2.39683248e-06  1.80000000e+00  2.39683248e-06  1.60253250e-05  2.39683248e-06  6.08340416e-01                                 
 2.52991355e-06  6.82690281e-01  2.52991355e-06  6.07878560e-01  2.52991355e-06  6.07909903e-01  2.52991355e-06  1.80000000e+00  2.52991355e-06  1.59187612e-05  2.52991355e-06  6.07878560e-01                                 
 2.70622131e-06  6.82006276e-01  2.70622131e-06  6.07295899e-01  2.70622131e-06  6.07819688e-01  2.70622131e-06  1.80000000e+00  2.70622131e-06  1.60230053e-05  2.70622131e-06  6.07295899e-01                                 
 2.74277682e-06  6.82685986e-01  2.74277682e-06  6.07872006e-01  2.74277682e-06  6.08061537e-01  2.74277682e-06  1.80000000e+00  2.74277682e-06  1.60243502e-05  2.74277682e-06  6.07872006e-01                                 
 2.81588783e-06  6.82883640e-01  2.81588783e-06  6.08040657e-01  2.81588783e-06  6.08215525e-01  2.81588783e-06  1.80000000e+00  2.81588783e-06  1.59504751e-05  2.81588783e-06  6.08040657e-01                                 
 2.96210986e-06  6.82223260e-01  2.96210986e-06  6.07481147e-01  2.96210986e-06  6.07724789e-01  2.96210986e-06  1.80000000e+00  2.96210986e-06  1.59874486e-05  2.96210986e-06  6.07481147e-01                                 
 3.25289984e-06  6.82889889e-01  3.25289984e-06  6.08045272e-01  3.25289984e-06  6.08238512e-01  3.25289984e-06  1.80000000e+00  3.25289984e-06  1.59845617e-05  3.25289984e-06  6.08045272e-01                                 
 3.83443909e-06  6.82281022e-01  3.83443909e-06  6.07530394e-01  3.83443909e-06  6.07770837e-01  3.83443909e-06  1.80000000e+00  3.83443909e-06  1.59707271e-05  3.83443909e-06  6.07530394e-01                                 
 4.82499522e-06  6.82846306e-01  4.82499522e-06  6.08008273e-01  4.82499522e-06  6.08201661e-01  4.82499522e-06  1.80000000e+00  4.82499522e-06  1.59926503e-05  4.82499522e-06  6.08008273e-01                                 
 5.82499522e-06  6.82330514e-01  5.82499522e-06  6.07573894e-01  5.82499522e-06  6.07813241e-01  5.82499522e-06  1.80000000e+00  5.82499522e-06  1.59653056e-05  5.82499522e-06  6.07573894e-01                                 
 6.82499522e-06  6.82817732e-01  6.82499522e-06  6.07985202e-01  6.82499522e-06  6.08179044e-01  6.82499522e-06  1.80000000e+00  6.82499522e-06  1.59976428e-05  6.82499522e-06  6.07985202e-01                                 
 7.82499522e-06  6.82369901e-01  7.82499522e-06  6.07606946e-01  7.82499522e-06  6.07847632e-01  7.82499522e-06  1.80000000e+00  7.82499522e-06  1.59606498e-05  7.82499522e-06  6.07606946e-01                                 
 8.82499522e-06  6.82770930e-01  8.82499522e-06  6.07945238e-01  8.82499522e-06  6.08137313e-01  8.82499522e-06  1.80000000e+00  8.82499522e-06  1.60018612e-05  8.82499522e-06  6.07945238e-01                                 
 9.82499522e-06  6.82412766e-01  9.82499522e-06  6.07642913e-01  9.82499522e-06  6.07885856e-01  9.82499522e-06  1.80000000e+00  9.82499522e-06  1.59568899e-05  9.82499522e-06  6.07642913e-01                                 
