 time            v(vbep)         time            v(vben)         time            v(vout)         time            v(vphi1)        time            v(vphi2)        time            v(vref)         time            v(voutc)        time            v(voutcc)       yes             currtemp       
 0.00000000e+00  7.66675212e-01  0.00000000e+00  7.05031644e-01  0.00000000e+00  1.58290119e+00  0.00000000e+00  0.00000000e+00  0.00000000e+00  1.80000000e+00  0.00000000e+00  7.07241308e-01  0.00000000e+00  1.58290117e+00  0.00000000e+00  1.58956729e+00  1.00000000e+00  3.80000000e+01 
 5.00000000e-12  7.66697063e-01  5.00000000e-12  7.05085694e-01  5.00000000e-12  1.58352876e+00  5.00000000e-12  1.80000000e-02  5.00000000e-12  1.80018473e+00  5.00000000e-12  7.07633980e-01  5.00000000e-12  1.58324977e+00  5.00000000e-12  1.58958042e+00                                 
 1.00000000e-11  7.66706668e-01  1.00000000e-11  7.05121455e-01  1.00000000e-11  1.58398493e+00  1.00000000e-11  3.60000000e-02  1.00000000e-11  1.80026870e+00  1.00000000e-11  7.07943015e-01  1.00000000e-11  1.58352566e+00  1.00000000e-11  1.58958741e+00                                 
 2.00000000e-11  7.66713029e-01  2.00000000e-11  7.05171326e-01  2.00000000e-11  1.58464723e+00  2.00000000e-11  7.20000000e-02  2.00000000e-11  1.80032251e+00  2.00000000e-11  7.08426781e-01  2.00000000e-11  1.58396137e+00  2.00000000e-11  1.58959402e+00                                 
 4.00000000e-11  7.66700749e-01  4.00000000e-11  7.05207936e-01  4.00000000e-11  1.58510132e+00  4.00000000e-11  1.44000000e-01  4.00000000e-11  1.80019326e+00  4.00000000e-11  7.08892121e-01  4.00000000e-11  1.58439748e+00  4.00000000e-11  1.58958806e+00                                 
 8.00000000e-11  7.66687012e-01  8.00000000e-11  7.05213382e-01  8.00000000e-11  1.58498126e+00  8.00000000e-11  2.88000000e-01  8.00000000e-11  1.80002974e+00  8.00000000e-11  7.09022316e-01  8.00000000e-11  1.58456100e+00  8.00000000e-11  1.58957300e+00                                 
 1.60000000e-10  7.66687770e-01  1.60000000e-10  7.05201667e-01  1.60000000e-10  1.58449981e+00  1.60000000e-10  5.76000000e-01  1.60000000e-10  1.80001057e+00  1.60000000e-10  7.08820069e-01  1.60000000e-10  1.58442992e+00  1.60000000e-10  1.58956758e+00                                 
 3.20000000e-10  7.66621477e-01  3.20000000e-10  7.04758628e-01  3.20000000e-10  1.58060746e+00  3.20000000e-10  1.15200000e+00  3.20000000e-10  1.80072519e+00  3.20000000e-10  7.04979951e-01  3.20000000e-10  1.58128625e+00  3.20000000e-10  1.58953712e+00                                 
 5.00000000e-10  7.66720848e-01  5.00000000e-10  7.05212856e-01  5.00000000e-10  1.57623857e+00  5.00000000e-10  1.80000000e+00  5.00000000e-10  1.56416197e-01  5.00000000e-10  7.10803052e-01  5.00000000e-10  1.58616908e+00  5.00000000e-10  1.58962248e+00                                 
 5.20967356e-10  7.66719512e-01  5.20967356e-10  7.05252032e-01  5.20967356e-10  1.57561540e+00  5.20967356e-10  1.80000000e+00  5.20967356e-10  4.11055517e-02  5.20967356e-10  7.12346855e-01  5.20967356e-10  1.58704484e+00  5.20967356e-10  1.58961443e+00                                 
 5.62902067e-10  7.66786996e-01  5.62902067e-10  7.05326317e-01  5.62902067e-10  1.57508434e+00  5.62902067e-10  1.80000000e+00  5.62902067e-10 -1.48849718e-02  5.62902067e-10  7.14429525e-01  5.62902067e-10  1.58884884e+00  5.62902067e-10  1.58961171e+00                                 
 6.46771491e-10  7.66884361e-01  6.46771491e-10  7.05165913e-01  6.46771491e-10  1.57230424e+00  6.46771491e-10  1.80000000e+00  6.46771491e-10  1.17885378e-02  6.46771491e-10  7.13741335e-01  6.46771491e-10  1.58846230e+00  6.46771491e-10  1.58955841e+00                                 
 7.65634292e-10  7.66916178e-01  7.65634292e-10  7.05134336e-01  7.65634292e-10  1.57096326e+00  7.65634292e-10  1.80000000e+00  7.65634292e-10 -9.28614672e-03  7.65634292e-10  7.14855902e-01  7.65634292e-10  1.58927192e+00  7.65634292e-10  1.58958698e+00                                 
 9.42709937e-10  7.66969862e-01  9.42709937e-10  7.05101632e-01  9.42709937e-10  1.57011724e+00  9.42709937e-10  1.80000000e+00  9.42709937e-10  8.56773033e-03  9.42709937e-10  7.15613346e-01  9.42709937e-10  1.59008246e+00  9.42709937e-10  1.58955877e+00                                 
 1.29686123e-09  7.66956677e-01  1.29686123e-09  7.05026293e-01  1.29686123e-09  1.56800849e+00  1.29686123e-09  1.80000000e+00  1.29686123e-09 -7.78455921e-03  1.29686123e-09  7.15373294e-01  1.29686123e-09  1.58974619e+00  1.29686123e-09  1.58958030e+00                                 
 1.73649611e-09  7.66904861e-01  1.73649611e-09  7.05039148e-01  1.73649611e-09  1.56665291e+00  1.73649611e-09  1.80000000e+00  1.73649611e-09  7.51596969e-03  1.73649611e-09  7.15163159e-01  1.73649611e-09  1.58968754e+00  1.73649611e-09  1.58961293e+00                                 
 2.39305607e-09  7.66769510e-01  2.39305607e-09  7.05001413e-01  2.39305607e-09  1.56461308e+00  2.39305607e-09  1.80000000e+00  2.39305607e-09 -7.23021500e-03  2.39305607e-09  7.13802898e-01  2.39305607e-09  1.58837776e+00  2.39305607e-09  1.58970852e+00                                 
 3.00929647e-09  7.66710382e-01  3.00929647e-09  7.05031435e-01  3.00929647e-09  1.56332688e+00  3.00929647e-09  1.80000000e+00  3.00929647e-09  6.98174935e-03  3.00929647e-09  7.13293674e-01  3.00929647e-09  1.58804584e+00  3.00929647e-09  1.58979987e+00                                 
 3.96773301e-09  7.66646792e-01  3.96773301e-09  7.04999914e-01  3.96773301e-09  1.56022447e+00  3.96773301e-09  1.80000000e+00  3.96773301e-09 -6.81808138e-03  3.96773301e-09  7.11592151e-01  3.96773301e-09  1.58644477e+00  3.96773301e-09  1.58994177e+00                                 
 5.41283819e-09  7.66640100e-01  5.41283819e-09  7.05034465e-01  5.41283819e-09  1.55606707e+00  5.41283819e-09  1.80000000e+00  5.41283819e-09  6.71788544e-03  5.41283819e-09  7.10325576e-01  5.41283819e-09  1.58544729e+00  5.41283819e-09  1.59011245e+00                                 
 8.30304856e-09  7.66623882e-01  8.30304856e-09  7.05010259e-01  8.30304856e-09  1.54608833e+00  8.30304856e-09  1.80000000e+00  8.30304856e-09 -6.66013613e-03  8.30304856e-09  7.07652379e-01  8.30304856e-09  1.58300671e+00  8.30304856e-09  1.59028231e+00                                 
 1.19028148e-08  7.66638900e-01  1.19028148e-08  7.05046699e-01  1.19028148e-08  1.53354719e+00  1.19028148e-08  1.80000000e+00  1.19028148e-08  6.63398970e-03  1.19028148e-08  7.06708061e-01  1.19028148e-08  1.58229255e+00  1.19028148e-08  1.59025694e+00                                 
 1.47007616e-08  7.66637029e-01  1.47007616e-08  7.05015752e-01  1.47007616e-08  1.52223905e+00  1.47007616e-08  1.80000000e+00  1.47007616e-08 -6.56152084e-03  1.47007616e-08  7.05919595e-01  1.47007616e-08  1.58149409e+00  1.47007616e-08  1.59014079e+00                                 
 1.79455544e-08  7.66660591e-01  1.79455544e-08  7.05047598e-01  1.79455544e-08  1.50888852e+00  1.79455544e-08  1.80000000e+00  1.79455544e-08  6.54099485e-03  1.79455544e-08  7.06214316e-01  1.79455544e-08  1.58185209e+00  1.79455544e-08  1.58998257e+00                                 
 2.14009254e-08  7.66659481e-01  2.14009254e-08  7.05016014e-01  2.14009254e-08  1.49302804e+00  2.14009254e-08  1.80000000e+00  2.14009254e-08 -6.47437285e-03  2.14009254e-08  7.05870681e-01  2.14009254e-08  1.58143862e+00  2.14009254e-08  1.58981489e+00                                 
 2.64751669e-08  7.66680570e-01  2.64751669e-08  7.05047747e-01  2.64751669e-08  1.46948116e+00  2.64751669e-08  1.80000000e+00  2.64751669e-08  6.47304083e-03  2.64751669e-08  7.06481316e-01  2.64751669e-08  1.58206812e+00  2.64751669e-08  1.58961140e+00                                 
 3.22929901e-08  7.66673146e-01  3.22929901e-08  7.05016021e-01  3.22929901e-08  1.44087057e+00  3.22929901e-08  1.80000000e+00  3.22929901e-08 -6.42178316e-03  3.22929901e-08  7.06319505e-01  3.22929901e-08  1.58181403e+00  3.22929901e-08  1.58943768e+00                                 
 4.12578922e-08  7.66685390e-01  4.12578922e-08  7.05047655e-01  4.12578922e-08  1.39694824e+00  4.12578922e-08  1.80000000e+00  4.12578922e-08  6.43345494e-03  4.12578922e-08  7.07013708e-01  4.12578922e-08  1.58251910e+00  4.12578922e-08  1.58928418e+00                                 
 5.31703339e-08  7.66672147e-01  5.31703339e-08  7.05015843e-01  5.31703339e-08  1.33749139e+00  5.31703339e-08  1.80000000e+00  5.31703339e-08 -6.39440450e-03  5.31703339e-08  7.06827947e-01  5.31703339e-08  1.58224997e+00  5.31703339e-08  1.58920228e+00                                 
 7.46121519e-08  7.66681833e-01  7.46121519e-08  7.05047518e-01  7.46121519e-08  1.23160864e+00  7.46121519e-08  1.80000000e+00  7.46121519e-08  6.41517992e-03  7.46121519e-08  7.07396288e-01  7.46121519e-08  1.58285211e+00  7.46121519e-08  1.58920603e+00                                 
 1.09527531e-07  7.66669490e-01  1.09527531e-07  7.05015762e-01  1.09527531e-07  1.05981840e+00  1.09527531e-07  1.80000000e+00  1.09527531e-07 -6.38377467e-03  1.09527531e-07  7.07037846e-01  1.09527531e-07  1.58243660e+00  1.09527531e-07  1.58927575e+00                                 
 1.46232515e-07  7.66680610e-01  1.46232515e-07  7.05047487e-01  1.46232515e-07  8.84713972e-01  1.46232515e-07  1.80000000e+00  1.46232515e-07  6.40783968e-03  1.46232515e-07  7.07443006e-01  1.46232515e-07  1.58289431e+00  1.46232515e-07  1.58931796e+00                                 
 1.92891433e-07  7.66670453e-01  1.92891433e-07  7.05015790e-01  1.92891433e-07  7.34053172e-01  1.92891433e-07  1.80000000e+00  1.92891433e-07 -6.37508814e-03  1.92891433e-07  7.07036607e-01  1.92891433e-07  1.58243314e+00  1.92891433e-07  1.58932683e+00                                 
 2.31202126e-07  7.66680604e-01  2.31202126e-07  7.05047591e-01  2.31202126e-07  7.06006881e-01  2.31202126e-07  1.80000000e+00  2.31202126e-07  6.40367416e-03  2.31202126e-07  7.07450250e-01  2.31202126e-07  1.58289736e+00  2.31202126e-07  1.58933211e+00                                 
 2.68006138e-07  7.66668486e-01  2.68006138e-07  7.05015558e-01  2.68006138e-07  7.10053596e-01  2.68006138e-07  1.80000000e+00  2.68006138e-07 -6.36755281e-03  2.68006138e-07  7.07035413e-01  2.68006138e-07  1.58242942e+00  2.68006138e-07  1.58932914e+00                                 
 2.94040784e-07  7.66681989e-01  2.94040784e-07  7.05047765e-01  2.94040784e-07  7.09603055e-01  2.94040784e-07  1.80000000e+00  2.94040784e-07  6.39473844e-03  2.94040784e-07  7.07446156e-01  2.94040784e-07  1.58289133e+00  2.94040784e-07  1.58932984e+00                                 
 3.22832070e-07  7.66668625e-01  3.22832070e-07  7.05015494e-01  3.22832070e-07  7.09366037e-01  3.22832070e-07  1.80000000e+00  3.22832070e-07 -6.35767278e-03  3.22832070e-07  7.07036418e-01  3.22832070e-07  1.58242827e+00  3.22832070e-07  1.58932594e+00                                 
 3.76391455e-07  7.66681705e-01  3.76391455e-07  7.05047779e-01  3.76391455e-07  7.09628208e-01  3.76391455e-07  1.80000000e+00  3.76391455e-07  6.38747016e-03  3.76391455e-07  7.07446038e-01  3.76391455e-07  1.58288807e+00  3.76391455e-07  1.58932649e+00                                 
 4.69652010e-07  7.66668768e-01  4.69652010e-07  7.05015492e-01  4.69652010e-07  7.09358644e-01  4.69652010e-07  1.80000000e+00  4.69652010e-07 -6.35361629e-03  4.69652010e-07  7.07036464e-01  4.69652010e-07  1.58242281e+00  4.69652010e-07  1.58932027e+00                                 
 6.56173122e-07  7.66681632e-01  6.56173122e-07  7.05047779e-01  6.56173122e-07  7.09631069e-01  6.56173122e-07  1.80000000e+00  6.56173122e-07  6.38528378e-03  6.56173122e-07  7.07446014e-01  6.56173122e-07  1.58287751e+00  6.56173122e-07  1.58931598e+00                                 
 1.02921534e-06  7.66668803e-01  1.02921534e-06  7.05015492e-01  1.02921534e-06  7.09357389e-01  1.02921534e-06  1.80000000e+00  1.02921534e-06 -6.35245972e-03  1.02921534e-06  7.07036476e-01  1.02921534e-06  1.58240179e+00  1.02921534e-06  1.58929926e+00                                 
 1.77529979e-06  7.66681615e-01  1.77529979e-06  7.05047779e-01  1.77529979e-06  7.09631634e-01  1.77529979e-06  1.80000000e+00  1.77529979e-06  6.38473940e-03  1.77529979e-06  7.07446009e-01  1.77529979e-06  1.58283540e+00  1.77529979e-06  1.58927395e+00                                 
 2.77529979e-06  7.66668813e-01  2.77529979e-06  7.05015492e-01  2.77529979e-06  7.09357065e-01  2.77529979e-06  1.80000000e+00  2.77529979e-06 -6.35230841e-03  2.77529979e-06  7.07036479e-01  2.77529979e-06  1.58233609e+00  2.77529979e-06  1.58923365e+00                                 
 3.77529979e-06  7.66681606e-01  3.77529979e-06  7.05047778e-01  3.77529979e-06  7.09631900e-01  3.77529979e-06  1.80000000e+00  3.77529979e-06  6.38450440e-03  3.77529979e-06  7.07446006e-01  3.77529979e-06  1.58276015e+00  3.77529979e-06  1.58919882e+00                                 
 4.77529979e-06  7.66668822e-01  4.77529979e-06  7.05015493e-01  4.77529979e-06  7.09356800e-01  4.77529979e-06  1.80000000e+00  4.77529979e-06 -6.35208314e-03  4.77529979e-06  7.07036482e-01  4.77529979e-06  1.58226087e+00  4.77529979e-06  1.58915855e+00                                 
 5.77529979e-06  7.66681597e-01  5.77529979e-06  7.05047778e-01  5.77529979e-06  7.09632152e-01  5.77529979e-06  1.80000000e+00  5.77529979e-06  6.38423364e-03  5.77529979e-06  7.07446003e-01  5.77529979e-06  1.58268492e+00  5.77529979e-06  1.58912371e+00                                 
 6.77529979e-06  7.66668830e-01  6.77529979e-06  7.05015493e-01  6.77529979e-06  7.09356546e-01  6.77529979e-06  1.80000000e+00  6.77529979e-06 -6.35181513e-03  6.77529979e-06  7.07036484e-01  6.77529979e-06  1.58218563e+00  6.77529979e-06  1.58908342e+00                                 
 7.77529979e-06  7.66681589e-01  7.77529979e-06  7.05047778e-01  7.77529979e-06  7.09632395e-01  7.77529979e-06  1.80000000e+00  7.77529979e-06  6.38396289e-03  7.77529979e-06  7.07446001e-01  7.77529979e-06  1.58260967e+00  7.77529979e-06  1.58904859e+00                                 
 8.77529979e-06  7.66668838e-01  8.77529979e-06  7.05015493e-01  8.77529979e-06  7.09356301e-01  8.77529979e-06  1.80000000e+00  8.77529979e-06 -6.35154713e-03  8.77529979e-06  7.07036487e-01  8.77529979e-06  1.58211041e+00  8.77529979e-06  1.58900831e+00                                 
 9.77529979e-06  7.66681581e-01  9.77529979e-06  7.05047778e-01  9.77529979e-06  7.09632627e-01  9.77529979e-06  1.80000000e+00  9.77529979e-06  6.38369216e-03  9.77529979e-06  7.07445998e-01  9.77529979e-06  1.58253444e+00  9.77529979e-06  1.58897348e+00                                 
 1.00005000e-05  7.66668860e-01  1.00005000e-05  7.05015493e-01  1.00005000e-05  7.09355684e-01  1.00005000e-05  1.80000000e+00  1.00005000e-05 -6.35085743e-03  1.00005000e-05  7.07036494e-01  1.00005000e-05  1.58206433e+00  1.00005000e-05  1.58896229e+00                                 
 1.00005500e-05  7.66638695e-01  1.00005500e-05  7.04840011e-01  1.00005500e-05  7.07730930e-01  1.00005500e-05  1.62000000e+00  1.00005500e-05 -6.85783908e-04  1.00005500e-05  7.05693359e-01  1.00005500e-05  1.58093564e+00  1.00005500e-05  1.58894784e+00                                 
 1.00006500e-05  7.66666478e-01  1.00006500e-05  7.04823388e-01  1.00006500e-05  7.07823131e-01  1.00006500e-05  1.26000000e+00  1.00006500e-05  5.07492445e-04  1.00006500e-05  7.05433342e-01  1.00006500e-05  1.58071819e+00  1.00006500e-05  1.58896501e+00                                 
 1.00008500e-05  7.66706773e-01  1.00008500e-05  7.05033406e-01  1.00008500e-05  7.10156719e-01  1.00008500e-05  5.40000000e-01  1.00008500e-05 -4.09962080e-03  1.00008500e-05  7.06670254e-01  1.00008500e-05  1.58061845e+00  1.00008500e-05  1.58896104e+00                                 
 1.00010000e-05  7.66663630e-01  1.00010000e-05  7.04031537e-01  1.00010000e-05  7.30850092e-01  1.00010000e-05  0.00000000e+00  1.00010000e-05  1.50572662e+00  1.00010000e-05  6.94960038e-01  1.00010000e-05  1.52201286e+00  1.00010000e-05  1.58843733e+00                                 
 1.00010258e-05  7.66680767e-01  1.00010258e-05  7.03718300e-01  1.00010258e-05  7.36984783e-01  1.00010258e-05  0.00000000e+00  1.00010258e-05  1.68881018e+00  1.00010258e-05  6.91097557e-01  1.00010258e-05  1.49576096e+00  1.00010258e-05  1.58827959e+00                                 
 1.00010774e-05  7.66678327e-01  1.00010774e-05  7.03111699e-01  1.00010774e-05  7.42767302e-01  1.00010774e-05  0.00000000e+00  1.00010774e-05  1.82206519e+00  1.00010774e-05  6.83937903e-01  1.00010774e-05  1.43707968e+00  1.00010774e-05  1.58814966e+00                                 
 1.00011806e-05  7.66671555e-01  1.00011806e-05  7.03000281e-01  1.00011806e-05  7.36296835e-01  1.00011806e-05  0.00000000e+00  1.00011806e-05  1.78631360e+00  1.00011806e-05  6.83414770e-01  1.00011806e-05  1.33433019e+00  1.00011806e-05  1.58867384e+00                                 
 1.00013100e-05  7.66678880e-01  1.00013100e-05  7.03332743e-01  1.00013100e-05  7.32686720e-01  1.00013100e-05  0.00000000e+00  1.00013100e-05  1.80732597e+00  1.00013100e-05  6.88190329e-01  1.00013100e-05  1.23599457e+00  1.00013100e-05  1.58903164e+00                                 
 1.00015261e-05  7.66670984e-01  1.00015261e-05  7.03514483e-01  1.00015261e-05  7.28454102e-01  1.00015261e-05  0.00000000e+00  1.00015261e-05  1.79375350e+00  1.00015261e-05  6.89659671e-01  1.00015261e-05  1.10048395e+00  1.00015261e-05  1.58922076e+00                                 
 1.00018558e-05  7.66678105e-01  1.00018558e-05  7.04079723e-01  1.00018558e-05  7.23657104e-01  1.00018558e-05  0.00000000e+00  1.00018558e-05  1.80465542e+00  1.00018558e-05  6.94679918e-01  1.00018558e-05  9.53539219e-01  1.00018558e-05  1.58921492e+00                                 
 1.00023064e-05  7.66671477e-01  1.00023064e-05  7.04560513e-01  1.00023064e-05  7.19540618e-01  1.00023064e-05  0.00000000e+00  1.00023064e-05  1.79557345e+00  1.00023064e-05  6.98024282e-01  1.00023064e-05  8.14712173e-01  1.00023064e-05  1.58877704e+00                                 
 1.00027929e-05  7.66678109e-01  1.00027929e-05  7.05237148e-01  1.00027929e-05  7.13388449e-01  1.00027929e-05  0.00000000e+00  1.00027929e-05  1.80361562e+00  1.00027929e-05  7.04658915e-01  1.00027929e-05  7.42945322e-01  1.00027929e-05  1.58792841e+00                                 
 1.00032433e-05  7.66672028e-01  1.00032433e-05  7.05412586e-01  1.00032433e-05  7.12491715e-01  1.00032433e-05  0.00000000e+00  1.00032433e-05  1.79679380e+00  1.00032433e-05  7.06137136e-01  1.00032433e-05  7.18920015e-01  1.00032433e-05  1.58672337e+00                                 
 1.00037622e-05  7.66677938e-01  1.00037622e-05  7.05573317e-01  1.00037622e-05  7.11609720e-01  1.00037622e-05  0.00000000e+00  1.00037622e-05  1.80280184e+00  1.00037622e-05  7.08406028e-01  1.00037622e-05  7.13690236e-01  1.00037622e-05  1.58498439e+00                                 
 1.00043507e-05  7.66672422e-01  1.00043507e-05  7.05462357e-01  1.00043507e-05  7.13615117e-01  1.00043507e-05  0.00000000e+00  1.00043507e-05  1.79749759e+00  1.00043507e-05  7.07903306e-01  1.00043507e-05  7.12374294e-01  1.00043507e-05  1.58270664e+00                                 
 1.00051883e-05  7.66677795e-01  1.00051883e-05  7.05442454e-01  1.00051883e-05  7.14796412e-01  1.00051883e-05  0.00000000e+00  1.00051883e-05  1.80230504e+00  1.00051883e-05  7.08920023e-01  1.00051883e-05  7.14874985e-01  1.00051883e-05  1.57926079e+00                                 
 1.00066144e-05  7.66672626e-01  1.00066144e-05  7.05247307e-01  1.00066144e-05  7.19293526e-01  1.00066144e-05  0.00000000e+00  1.00066144e-05  1.79780260e+00  1.00066144e-05  7.08176253e-01  1.00066144e-05  7.17689973e-01  1.00066144e-05  1.57307881e+00                                 
