 time            v(vbep)         time            v(vben)         time            v(vout)         time            v(vphi1)        time            v(vphi2)        time            v(vref)         yes             currtemp       
 0.00000000e+00  6.65713501e-01  0.00000000e+00  6.08088401e-01  0.00000000e+00  1.12462468e+00  0.00000000e+00  0.00000000e+00  0.00000000e+00  1.79994558e+00  0.00000000e+00  5.00000000e-01  1.00000000e+00  4.20000000e+01 
 5.00000000e-12  6.65678531e-01  5.00000000e-12  6.08059555e-01  5.00000000e-12  1.12538468e+00  5.00000000e-12  1.80000000e-02  5.00000000e-12  1.80005151e+00  5.00000000e-12  5.00000000e-01                                 
 1.00000000e-11  6.65644711e-01  1.00000000e-11  6.08031554e-01  1.00000000e-11  1.12607624e+00  1.00000000e-11  3.60000000e-02  1.00000000e-11  1.80010794e+00  1.00000000e-11  5.00000000e-01                                 
 2.00000000e-11  6.65577807e-01  2.00000000e-11  6.07975798e-01  2.00000000e-11  1.12735516e+00  2.00000000e-11  7.20000000e-02  2.00000000e-11  1.80016312e+00  2.00000000e-11  5.00000000e-01                                 
 4.00000000e-11  6.65445257e-01  4.00000000e-11  6.07864786e-01  4.00000000e-11  1.12942751e+00  4.00000000e-11  1.44000000e-01  4.00000000e-11  1.80014137e+00  4.00000000e-11  5.00000000e-01                                 
 8.00000000e-11  6.65181627e-01  8.00000000e-11  6.07643909e-01  8.00000000e-11  1.13230563e+00  8.00000000e-11  2.88000000e-01  8.00000000e-11  1.80007971e+00  8.00000000e-11  5.00000000e-01                                 
 1.60000000e-10  6.64660793e-01  1.60000000e-10  6.07206704e-01  1.60000000e-10  1.13518640e+00  1.60000000e-10  5.76000000e-01  1.60000000e-10  1.80001661e+00  1.60000000e-10  5.00000000e-01                                 
 3.20000000e-10  6.63643115e-01  3.20000000e-10  6.06349765e-01  3.20000000e-10  1.12901214e+00  3.20000000e-10  1.15200000e+00  3.20000000e-10  1.80039884e+00  3.20000000e-10  5.00000000e-01                                 
 5.00000000e-10  6.62535044e-01  5.00000000e-10  6.05412477e-01  5.00000000e-10  1.28177915e+00  5.00000000e-10  1.80000000e+00  5.00000000e-10  1.18737799e-01  5.00000000e-10  5.00000000e-01                                 
 5.21579821e-10  6.62405005e-01  5.21579821e-10  6.05302172e-01  5.21579821e-10  1.31782258e+00  5.21579821e-10  1.80000000e+00  5.21579821e-10  2.35858976e-02  5.21579821e-10  5.00000000e-01                                 
 5.64739462e-10  6.62145935e-01  5.64739462e-10  6.05082282e-01  5.64739462e-10  1.38391234e+00  5.64739462e-10  1.80000000e+00  5.64739462e-10 -1.09682850e-02  5.64739462e-10  5.00000000e-01                                 
 6.51058745e-10  6.61633915e-01  6.51058745e-10  6.04647015e-01  6.51058745e-10  1.49264877e+00  6.51058745e-10  1.80000000e+00  6.51058745e-10  9.12227805e-03  6.51058745e-10  5.00000000e-01                                 
 7.73177475e-10  6.60923124e-01  7.73177475e-10  6.04041267e-01  7.73177475e-10  1.61547085e+00  7.73177475e-10  1.80000000e+00  7.73177475e-10 -7.91170257e-03  7.73177475e-10  5.00000000e-01                                 
 9.65276226e-10  6.59835726e-01  9.65276226e-10  6.03111224e-01  9.65276226e-10  1.75667084e+00  9.65276226e-10  1.80000000e+00  9.65276226e-10  7.42157804e-03  9.65276226e-10  5.00000000e-01                                 
 1.34947373e-09  6.57764690e-01  1.34947373e-09  6.01328998e-01  1.34947373e-09  1.91183526e+00  1.34947373e-09  1.80000000e+00  1.34947373e-09 -7.01261040e-03  1.34947373e-09  5.00000000e-01                                 
 1.63885702e-09  6.56289855e-01  1.63885702e-09  6.00050944e-01  1.63885702e-09  1.95767466e+00  1.63885702e-09  1.80000000e+00  1.63885702e-09  6.75001829e-03  1.63885702e-09  5.00000000e-01                                 
 1.98390139e-09  6.54616724e-01  1.98390139e-09  5.98592453e-01  1.98390139e-09  1.97947536e+00  1.98390139e-09  1.80000000e+00  1.98390139e-09 -6.38525208e-03  1.98390139e-09  5.00000000e-01                                 
 2.32098326e-09  6.53064183e-01  2.32098326e-09  5.97231018e-01  2.32098326e-09  1.98627459e+00  2.32098326e-09  1.80000000e+00  2.32098326e-09  6.16806326e-03  2.32098326e-09  5.00000000e-01                                 
 2.89134113e-09  6.50599801e-01  2.89134113e-09  5.95054815e-01  2.89134113e-09  1.98797670e+00  2.89134113e-09  1.80000000e+00  2.89134113e-09 -5.95495685e-03  2.89134113e-09  5.00000000e-01                                 
 3.57546159e-09  6.47880987e-01  3.57546159e-09  5.92632695e-01  3.57546159e-09  1.98591558e+00  3.57546159e-09  1.80000000e+00  3.57546159e-09  5.87170676e-03  3.57546159e-09  5.00000000e-01                                 
 4.87833197e-09  6.43277388e-01  4.87833197e-09  5.88484905e-01  4.87833197e-09  1.98148260e+00  4.87833197e-09  1.80000000e+00  4.87833197e-09 -5.76474083e-03  4.87833197e-09  5.00000000e-01                                 
 6.88090946e-09  6.37323436e-01  6.88090946e-09  5.83038380e-01  6.88090946e-09  1.97590639e+00  6.88090946e-09  1.80000000e+00  6.88090946e-09  5.76560496e-03  6.88090946e-09  5.00000000e-01                                 
 9.49233652e-09  6.31001098e-01  9.49233652e-09  5.77161437e-01  9.49233652e-09  1.96999665e+00  9.49233652e-09  1.80000000e+00  9.49233652e-09 -5.68928826e-03  9.49233652e-09  5.00000000e-01                                 
 1.10924331e-08  6.27724928e-01  1.10924331e-08  5.74079760e-01  1.10924331e-08  1.96702499e+00  1.10924331e-08  1.80000000e+00  1.10924331e-08  5.67038655e-03  1.10924331e-08  5.00000000e-01                                 
 1.27143699e-08  6.24742124e-01  1.27143699e-08  5.71255831e-01  1.27143699e-08  1.96428527e+00  1.27143699e-08  1.80000000e+00  1.27143699e-08 -5.58688972e-03  1.27143699e-08  5.00000000e-01                                 
 1.44582744e-08  6.21843813e-01  1.44582744e-08  5.68496503e-01  1.44582744e-08  1.96171490e+00  1.44582744e-08  1.80000000e+00  1.44582744e-08  5.56753414e-03  1.44582744e-08  5.00000000e-01                                 
 1.73569566e-08  6.17581252e-01  1.73569566e-08  5.64413590e-01  1.73569566e-08  1.95788448e+00  1.73569566e-08  1.80000000e+00  1.73569566e-08 -5.51108735e-03  1.73569566e-08  5.00000000e-01                                 
 2.06963932e-08  6.13346868e-01  2.06963932e-08  5.60329967e-01  2.06963932e-08  1.95421301e+00  2.06963932e-08  1.80000000e+00  2.06963932e-08  5.51335816e-03  2.06963932e-08  5.00000000e-01                                 
 2.61504690e-08  6.07536553e-01  2.61504690e-08  5.54687331e-01  2.61504690e-08  1.94923506e+00  2.61504690e-08  1.80000000e+00  2.61504690e-08 -5.47130326e-03  2.61504690e-08  5.00000000e-01                                 
 3.30898360e-08  6.01538025e-01  3.30898360e-08  5.48818530e-01  3.30898360e-08  1.94411659e+00  3.30898360e-08  1.80000000e+00  3.30898360e-08  5.48651075e-03  3.30898360e-08  5.00000000e-01                                 
 4.69685699e-08  5.92269770e-01  4.69685699e-08  5.39692086e-01  4.69685699e-08  1.93179102e+00  4.69685699e-08  1.80000000e+00  4.69685699e-08 -5.45355421e-03  4.69685699e-08  5.00000000e-01                                 
 6.47245457e-08  5.82917131e-01  6.47245457e-08  5.30563155e-01  6.47245457e-08  1.91219245e+00  6.47245457e-08  1.80000000e+00  6.47245457e-08  5.47617497e-03  6.47245457e-08  5.00000000e-01                                 
 8.61329692e-08  5.72227543e-01  8.61329692e-08  5.20515518e-01  8.61329692e-08  1.88924498e+00  8.61329692e-08  1.80000000e+00  8.61329692e-08 -5.44515091e-03  8.61329692e-08  5.00000000e-01                                 
 1.03965778e-07  5.62100475e-01  1.03965778e-07  5.11452074e-01  1.03965778e-07  1.85813932e+00  1.03965778e-07  1.80000000e+00  1.03965778e-07  5.46769596e-03  1.03965778e-07  5.00000000e-01                                 
 1.23803831e-07  5.53221910e-01  1.23803831e-07  5.03453506e-01  1.23803831e-07  1.82244310e+00  1.23803831e-07  1.80000000e+00  1.23803831e-07 -5.43641619e-03  1.23803831e-07  5.00000000e-01                                 
 1.46847755e-07  5.44608955e-01  1.46847755e-07  4.95697494e-01  1.46847755e-07  1.78081233e+00  1.46847755e-07  1.80000000e+00  1.46847755e-07  5.46015823e-03  1.46847755e-07  5.00000000e-01                                 
 1.71137911e-07  5.46238781e-01  1.71137911e-07  4.96116558e-01  1.71137911e-07  1.77228659e+00  1.71137911e-07  1.80000000e+00  1.71137911e-07 -5.42915957e-03  1.71137911e-07  5.00000000e-01                                 
 1.98690285e-07  5.48870127e-01  1.98690285e-07  4.97305094e-01  1.98690285e-07  1.75370473e+00  1.98690285e-07  1.80000000e+00  1.98690285e-07  5.45385702e-03  1.98690285e-07  5.00000000e-01                                 
 2.23945998e-07  5.44092278e-01  2.23945998e-07  4.92798556e-01  2.23945998e-07  1.72372540e+00  2.23945998e-07  1.80000000e+00  2.23945998e-07 -5.42333071e-03  2.23945998e-07  5.00000000e-01                                 
 2.47445253e-07  5.39342019e-01  2.47445253e-07  4.88435729e-01  2.47445253e-07  1.69604597e+00  2.47445253e-07  1.80000000e+00  2.47445253e-07  5.44718050e-03  2.47445253e-07  5.00000000e-01                                 
 2.72556919e-07  5.32964350e-01  2.72556919e-07  4.82809194e-01  2.72556919e-07  1.66496587e+00  2.72556919e-07  1.80000000e+00  2.72556919e-07 -5.41679068e-03  2.72556919e-07  5.00000000e-01                                 
 3.16220667e-07  5.21939511e-01  3.16220667e-07  4.73215782e-01  3.16220667e-07  1.61152287e+00  3.16220667e-07  1.80000000e+00  3.16220667e-07  5.44211948e-03  3.16220667e-07  5.00000000e-01                                 
 3.74556575e-07  5.07085106e-01  3.74556575e-07  4.60529933e-01  3.74556575e-07  1.53562195e+00  3.74556575e-07  1.80000000e+00  3.74556575e-07 -5.41359985e-03  3.74556575e-07  5.00000000e-01                                 
 4.50510438e-07  4.89197999e-01  4.50510438e-07  4.45464467e-01  4.50510438e-07  1.44144128e+00  4.50510438e-07  1.80000000e+00  4.50510438e-07  5.43970981e-03  4.50510438e-07  5.00000000e-01                                 
 5.44485346e-07  4.52516719e-01  5.44485346e-07  4.15644737e-01  5.44485346e-07  1.30629193e+00  5.44485346e-07  1.80000000e+00  5.44485346e-07 -5.41185271e-03  5.44485346e-07  5.00000000e-01                                 
 6.43369997e-07  4.21905326e-01  6.43369997e-07  3.90984349e-01  6.43369997e-07  1.17319279e+00  6.43369997e-07  1.80000000e+00  6.43369997e-07  5.43813473e-03  6.43369997e-07  5.00000000e-01                                 
 7.50964270e-07  7.27120144e-01  7.50964270e-07  6.66970192e-01  7.50964270e-07  1.34958194e+00  7.50964270e-07  1.80000000e+00  7.50964270e-07 -5.40685728e-03  7.50964270e-07  5.00000000e-01                                 
 8.35668322e-07  7.88718205e-01  8.35668322e-07  7.21787476e-01  8.35668322e-07  1.32212744e+00  8.35668322e-07  1.80000000e+00  8.35668322e-07  5.43445633e-03  8.35668322e-07  5.00000000e-01                                 
 8.45792901e-07  7.88817006e-01  8.45792901e-07  7.21869123e-01  8.45792901e-07  1.30974003e+00  8.45792901e-07  1.80000000e+00  8.45792901e-07  3.04750781e-06  8.45792901e-07  5.00000000e-01                                 
 8.66042059e-07  7.88873180e-01  8.66042059e-07  7.21911659e-01  8.66042059e-07  1.28813936e+00  8.66042059e-07  1.80000000e+00  8.66042059e-07 -9.40740340e-07  8.66042059e-07  5.00000000e-01                                 
 9.06540374e-07  7.88701604e-01  9.06540374e-07  7.21777000e-01  9.06540374e-07  1.24520235e+00  9.06540374e-07  1.80000000e+00  9.06540374e-07  3.15342976e-06  9.06540374e-07  5.00000000e-01                                 
 9.43039376e-07  7.78728824e-01  9.43039376e-07  7.13700939e-01  9.43039376e-07  1.19693346e+00  9.43039376e-07  1.80000000e+00  9.43039376e-07 -1.35683588e-06  9.43039376e-07  5.00000000e-01                                 
 9.89242817e-07  7.46064622e-01  9.89242817e-07  6.85107608e-01  9.89242817e-07  1.11686125e+00  9.89242817e-07  1.80000000e+00  9.89242817e-07  2.55045442e-06  9.89242817e-07  5.00000000e-01                                 
 1.04080279e-06  7.35430960e-01  1.04080279e-06  6.75142685e-01  1.04080279e-06  1.05193502e+00  1.04080279e-06  1.80000000e+00  1.04080279e-06 -6.91448883e-07  1.04080279e-06  5.00000000e-01                                 
 1.09117795e-06  7.62725345e-01  1.09117795e-06  6.99984412e-01  1.09117795e-06  1.02735471e+00  1.09117795e-06  1.80000000e+00  1.09117795e-06  3.65906974e-06  1.09117795e-06  5.00000000e-01                                 
 1.14895083e-06  7.77632631e-01  1.14895083e-06  7.12754870e-01  1.14895083e-06  9.86802053e-01  1.14895083e-06  1.80000000e+00  1.14895083e-06 -1.07521425e-06  1.14895083e-06  5.00000000e-01                                 
 1.22090574e-06  7.58383611e-01  1.22090574e-06  6.96219816e-01  1.22090574e-06  9.13492025e-01  1.22090574e-06  1.80000000e+00  1.22090574e-06  2.89237254e-06  1.22090574e-06  5.00000000e-01                                 
 1.28767298e-06  7.49397371e-01  1.28767298e-06  6.88082780e-01  1.28767298e-06  8.61568651e-01  1.28767298e-06  1.80000000e+00  1.28767298e-06 -9.03352845e-07  1.28767298e-06  5.00000000e-01                                 
 1.35870358e-06  7.69105838e-01  1.35870358e-06  7.05541747e-01  1.35870358e-06  8.35290714e-01  1.35870358e-06  1.80000000e+00  1.35870358e-06  3.49143892e-06  1.35870358e-06  5.00000000e-01                                 
 1.36977953e-06  7.70186249e-01  1.36977953e-06  7.06469938e-01  1.36977953e-06  8.29592349e-01  1.36977953e-06  1.80000000e+00  1.36977953e-06  1.18469714e-06  1.36977953e-06  5.00000000e-01                                 
 1.39193142e-06  7.70762031e-01  1.39193142e-06  7.06969886e-01  1.39193142e-06  8.16885860e-01  1.39193142e-06  1.80000000e+00  1.39193142e-06  1.06116756e-06  1.39193142e-06  5.00000000e-01                                 
 1.43623521e-06  7.61836745e-01  1.43623521e-06  6.99257936e-01  1.43623521e-06  7.83390546e-01  1.43623521e-06  1.80000000e+00  1.43623521e-06  8.48742428e-07  1.43623521e-06  5.00000000e-01                                 
 1.50652184e-06  7.56170975e-01  1.50652184e-06  6.94202600e-01  1.50652184e-06  7.39204088e-01  1.50652184e-06  1.80000000e+00  1.50652184e-06  1.21788581e-06  1.50652184e-06  5.00000000e-01                                 
 1.57036188e-06  7.66450443e-01  1.57036188e-06  7.03256279e-01  1.57036188e-06  7.13663787e-01  1.57036188e-06  1.80000000e+00  1.57036188e-06  1.20602546e-06  1.57036188e-06  5.00000000e-01                                 
 1.66193088e-06  7.63307936e-01  1.66193088e-06  7.00536913e-01  1.66193088e-06  6.62529093e-01  1.66193088e-06  1.80000000e+00  1.66193088e-06  9.43950839e-07  1.66193088e-06  5.00000000e-01                                 
 1.75615036e-06  7.59290737e-01  1.75615036e-06  6.96985719e-01  1.75615036e-06  6.11846393e-01  1.75615036e-06  1.80000000e+00  1.75615036e-06  1.18100414e-06  1.75615036e-06  5.00000000e-01                                 
 1.90848534e-06  7.65582065e-01  1.90848534e-06  7.02509481e-01  1.90848534e-06  5.50329846e-01  1.90848534e-06  1.80000000e+00  1.90848534e-06  1.07386281e-06  1.90848534e-06  5.00000000e-01                                 
 2.09629413e-06  7.60387850e-01  2.09629413e-06  6.97963753e-01  2.09629413e-06  5.00766933e-01  2.09629413e-06  1.80000000e+00  2.09629413e-06  1.08120552e-06  2.09629413e-06  5.00000000e-01                                 
 2.27558590e-06  7.63404726e-01  2.27558590e-06  7.00607582e-01  2.27558590e-06  4.92402862e-01  2.27558590e-06  1.80000000e+00  2.27558590e-06  1.13543233e-06  2.27558590e-06  5.00000000e-01                                 
 2.46728243e-06  7.63054541e-01  2.46728243e-06  7.00309984e-01  2.46728243e-06  4.95910273e-01  2.46728243e-06  1.80000000e+00  2.46728243e-06  1.05589726e-06  2.46728243e-06  5.00000000e-01                                 
 2.49987865e-06  7.61911668e-01  2.49987865e-06  6.99305156e-01  2.49987865e-06  4.97288967e-01  2.49987865e-06  1.80000000e+00  2.49987865e-06  1.07009801e-06  2.49987865e-06  5.00000000e-01                                 
 2.56507109e-06  7.61999183e-01  2.56507109e-06  6.99378045e-01  2.56507109e-06  5.00278460e-01  2.56507109e-06  1.80000000e+00  2.56507109e-06  1.12056409e-06  2.56507109e-06  5.00000000e-01                                 
 2.69545596e-06  7.63475111e-01  2.69545596e-06  7.00674174e-01  2.69545596e-06  5.01317222e-01  2.69545596e-06  1.80000000e+00  2.69545596e-06  1.08770828e-06  2.69545596e-06  5.00000000e-01                                 
 2.93595464e-06  7.61818224e-01  2.93595464e-06  6.99221088e-01  2.93595464e-06  4.99026248e-01  2.93595464e-06  1.80000000e+00  2.93595464e-06  1.09455797e-06  2.93595464e-06  5.00000000e-01                                 
 3.29415497e-06  7.63303457e-01  3.29415497e-06  7.00522877e-01  3.29415497e-06  5.01229124e-01  3.29415497e-06  1.80000000e+00  3.29415497e-06  1.10326372e-06  3.29415497e-06  5.00000000e-01                                 
 3.86035368e-06  7.62016847e-01  3.86035368e-06  6.99396394e-01  3.86035368e-06  4.99275504e-01  3.86035368e-06  1.80000000e+00  3.86035368e-06  1.08556648e-06  3.86035368e-06  5.00000000e-01                                 
 4.79012394e-06  7.63159500e-01  4.79012394e-06  7.00396630e-01  4.79012394e-06  5.01020701e-01  4.79012394e-06  1.80000000e+00  4.79012394e-06  1.10813759e-06  4.79012394e-06  5.00000000e-01                                 
 5.79012394e-06  7.62134946e-01  5.79012394e-06  6.99500263e-01  5.79012394e-06  4.99445315e-01  5.79012394e-06  1.80000000e+00  5.79012394e-06  1.08244967e-06  5.79012394e-06  5.00000000e-01                                 
 6.79012394e-06  7.63043024e-01  6.79012394e-06  7.00294406e-01  6.79012394e-06  5.00851727e-01  6.79012394e-06  1.80000000e+00  6.79012394e-06  1.11079295e-06  6.79012394e-06  5.00000000e-01                                 
 7.79012394e-06  7.62257452e-01  7.79012394e-06  6.99607967e-01  7.79012394e-06  4.99619103e-01  7.79012394e-06  1.80000000e+00  7.79012394e-06  1.08014237e-06  7.79012394e-06  5.00000000e-01                                 
 8.79012394e-06  7.62920568e-01  8.79012394e-06  7.00187021e-01  8.79012394e-06  5.00675520e-01  8.79012394e-06  1.80000000e+00  8.79012394e-06  1.11274385e-06  8.79012394e-06  5.00000000e-01                                 
 9.79012394e-06  7.62383082e-01  9.79012394e-06  6.99718322e-01  9.79012394e-06  4.99795282e-01  9.79012394e-06  1.80000000e+00  9.79012394e-06  1.07855210e-06  9.79012394e-06  5.00000000e-01                                 
 1.00005000e-05  7.62579661e-01  1.00005000e-05  6.99888142e-01  1.00005000e-05  5.00203552e-01  1.00005000e-05  1.80000000e+00  1.00005000e-05  1.11444787e-06  1.00005000e-05  5.00000000e-01                                 
 1.00005500e-05  7.62580840e-01  1.00005500e-05  6.99889183e-01  1.00005500e-05  4.92352560e-01  1.00005500e-05  1.62000000e+00  1.00005500e-05 -7.88149321e-05  1.00005500e-05  5.00000000e-01                                 
 1.00006500e-05  7.62583219e-01  1.00006500e-05  6.99891271e-01  1.00006500e-05  4.78540966e-01  1.00006500e-05  1.26000000e+00  1.00006500e-05 -6.16080747e-05  1.00006500e-05  5.00000000e-01                                 
 1.00008500e-05  7.62588003e-01  1.00008500e-05  6.99895465e-01  1.00008500e-05  4.76361920e-01  1.00008500e-05  5.40000000e-01  1.00008500e-05 -4.05171960e-03  1.00008500e-05  5.00000000e-01                                 
 1.00010000e-05  7.62591489e-01  1.00010000e-05  6.99898549e-01  1.00010000e-05  4.37577607e-01  1.00010000e-05  0.00000000e+00  1.00010000e-05  1.57755506e+00  1.00010000e-05  5.00000000e-01                                 
