 time            v(vbep)         time            v(vben)         time            v(vout)         time            v(vphi1)        time            v(vphi2)        time            v(vref)         yes             currtemp       
 0.00000000e+00  7.36986216e-01  0.00000000e+00  6.86660388e-01  0.00000000e+00  1.08453876e+00  0.00000000e+00  0.00000000e+00  0.00000000e+00  1.79994916e+00  0.00000000e+00  6.86660388e-01  1.00000000e+00  2.00000000e+00 
 5.00000000e-12  7.36956411e-01  5.00000000e-12  6.86635727e-01  5.00000000e-12  1.08527727e+00  5.00000000e-12  1.80000000e-02  5.00000000e-12  1.80007136e+00  5.00000000e-12  6.86635727e-01                                 
 1.00000000e-11  7.36927527e-01  1.00000000e-11  6.86611749e-01  1.00000000e-11  1.08595669e+00  1.00000000e-11  3.60000000e-02  1.00000000e-11  1.80014464e+00  1.00000000e-11  6.86611749e-01                                 
 2.00000000e-11  7.36870344e-01  2.00000000e-11  6.86563994e-01  2.00000000e-11  1.08722314e+00  2.00000000e-11  7.20000000e-02  2.00000000e-11  1.80022826e+00  2.00000000e-11  6.86563994e-01                                 
 4.00000000e-11  7.36756984e-01  4.00000000e-11  6.86468898e-01  4.00000000e-11  1.08932900e+00  4.00000000e-11  1.44000000e-01  4.00000000e-11  1.80022782e+00  4.00000000e-11  6.86468898e-01                                 
 8.00000000e-11  7.36531498e-01  8.00000000e-11  6.86279664e-01  8.00000000e-11  1.09229693e+00  8.00000000e-11  2.88000000e-01  8.00000000e-11  1.80014323e+00  8.00000000e-11  6.86279664e-01                                 
 1.60000000e-10  7.36085941e-01  1.60000000e-10  6.85905037e-01  1.60000000e-10  1.09503609e+00  1.60000000e-10  5.76000000e-01  1.60000000e-10  1.80003510e+00  1.60000000e-10  6.85905037e-01                                 
 3.20000000e-10  7.35215114e-01  3.20000000e-10  6.85170568e-01  3.20000000e-10  1.08559753e+00  3.20000000e-10  1.15200000e+00  3.20000000e-10  1.80028065e+00  3.20000000e-10  6.85170568e-01                                 
 5.00000000e-10  7.34266567e-01  5.00000000e-10  6.84366951e-01  5.00000000e-10  1.16742192e+00  5.00000000e-10  1.80000000e+00  5.00000000e-10  1.30650448e-01  5.00000000e-10  6.84366951e-01                                 
 5.20682935e-10  7.34159831e-01  5.20682935e-10  6.84276273e-01  5.20682935e-10  1.18928754e+00  5.20682935e-10  1.80000000e+00  5.20682935e-10  3.04982882e-02  5.20682935e-10  6.84276273e-01                                 
 5.62048805e-10  7.33947150e-01  5.62048805e-10  6.84095484e-01  5.62048805e-10  1.23290210e+00  5.62048805e-10  1.80000000e+00  5.62048805e-10 -1.21208146e-02  5.62048805e-10  6.84095484e-01                                 
 6.44780545e-10  7.33526561e-01  6.44780545e-10  6.83737429e-01  6.44780545e-10  1.31195439e+00  6.44780545e-10  1.80000000e+00  6.44780545e-10  1.04542403e-02  6.44780545e-10  6.83737429e-01                                 
 7.64808439e-10  7.32927395e-01  7.64808439e-10  6.83226117e-01  7.64808439e-10  1.41394330e+00  7.64808439e-10  1.80000000e+00  7.64808439e-10 -8.22269816e-03  7.64808439e-10  6.83226117e-01                                 
 9.44296742e-10  7.32054695e-01  9.44296742e-10  6.82478824e-01  9.44296742e-10  1.54008492e+00  9.44296742e-10  1.80000000e+00  9.44296742e-10  8.14196689e-03  9.44296742e-10  6.82478824e-01                                 
 1.30327335e-09  7.30386746e-01  1.30327335e-09  6.81042362e-01  1.30327335e-09  1.70471857e+00  1.30327335e-09  1.80000000e+00  1.30327335e-09 -7.22702193e-03  1.30327335e-09  6.81042362e-01                                 
 1.68441482e-09  7.28719768e-01  1.68441482e-09  6.79595937e-01  1.68441482e-09  1.78867083e+00  1.68441482e-09  1.80000000e+00  1.68441482e-09  7.17197550e-03  1.68441482e-09  6.79595937e-01                                 
 2.09457325e-09  7.27032512e-01  2.09457325e-09  6.78121196e-01  2.09457325e-09  1.82337777e+00  2.09457325e-09  1.80000000e+00  2.09457325e-09 -6.72864232e-03  2.09457325e-09  6.78121196e-01                                 
 2.47140356e-09  7.25569841e-01  2.47140356e-09  6.76834190e-01  2.47140356e-09  1.83433598e+00  2.47140356e-09  1.80000000e+00  2.47140356e-09  6.48194732e-03  2.47140356e-09  6.76834190e-01                                 
 3.00709798e-09  7.23617318e-01  3.00709798e-09  6.75104346e-01  3.00709798e-09  1.83780600e+00  3.00709798e-09  1.80000000e+00  3.00709798e-09 -6.22555963e-03  3.00709798e-09  6.75104346e-01                                 
 3.70741750e-09  7.21261047e-01  3.70741750e-09  6.72999364e-01  3.70741750e-09  1.83719119e+00  3.70741750e-09  1.80000000e+00  3.70741750e-09  6.09634987e-03  3.70741750e-09  6.72999364e-01                                 
 4.89567064e-09  7.17680481e-01  4.89567064e-09  6.69766606e-01  4.89567064e-09  1.83364536e+00  4.89567064e-09  1.80000000e+00  4.89567064e-09 -5.97946155e-03  4.89567064e-09  6.69766606e-01                                 
 6.80054967e-09  7.12784777e-01  6.80054967e-09  6.65284500e-01  6.80054967e-09  1.82926275e+00  6.80054967e-09  1.80000000e+00  6.80054967e-09  5.94602907e-03  6.80054967e-09  6.65284500e-01                                 
 1.06103077e-08  7.05057229e-01  1.06103077e-08  6.58083841e-01  1.06103077e-08  1.82186507e+00  1.06103077e-08  1.80000000e+00  1.06103077e-08 -5.89438299e-03  1.06103077e-08  6.58083841e-01                                 
 1.66082212e-08  6.96239736e-01  1.66082212e-08  6.49698189e-01  1.66082212e-08  1.81421305e+00  1.66082212e-08  1.80000000e+00  1.66082212e-08  5.90248276e-03  1.66082212e-08  6.49698189e-01                                 
 1.84378205e-08  6.94110572e-01  1.84378205e-08  6.47646118e-01  1.84378205e-08  1.81209756e+00  1.84378205e-08  1.80000000e+00  1.84378205e-08 -5.82156862e-03  1.84378205e-08  6.47646118e-01                                 
 1.96602199e-08  6.92784261e-01  1.96602199e-08  6.46363859e-01  1.96602199e-08  1.81119578e+00  1.96602199e-08  1.80000000e+00  1.96602199e-08  5.75791158e-03  1.96602199e-08  6.46363859e-01                                 
 2.15035894e-08  6.90908518e-01  2.15035894e-08  6.44545627e-01  2.15035894e-08  1.80931758e+00  2.15035894e-08  1.80000000e+00  2.15035894e-08 -5.68018788e-03  2.15035894e-08  6.44545627e-01                                 
 2.47418131e-08  6.87918431e-01  2.47418131e-08  6.41636440e-01  2.47418131e-08  1.80690055e+00  2.47418131e-08  1.80000000e+00  2.47418131e-08  5.67001376e-03  2.47418131e-08  6.41636440e-01                                 
 2.96602909e-08  6.83964707e-01  2.96602909e-08  6.37771310e-01  2.96602909e-08  1.80266196e+00  2.96602909e-08  1.80000000e+00  2.96602909e-08 -5.62799295e-03  2.96602909e-08  6.37771310e-01                                 
 3.48685630e-08  6.80364651e-01  3.48685630e-08  6.34236559e-01  3.48685630e-08  1.79779586e+00  3.48685630e-08  1.80000000e+00  3.48685630e-08  5.62980484e-03  3.48685630e-08  6.34236559e-01                                 
 4.19082605e-08  6.76157716e-01  4.19082605e-08  6.30097065e-01  4.19082605e-08  1.78860215e+00  4.19082605e-08  1.80000000e+00  4.19082605e-08 -5.59434753e-03  4.19082605e-08  6.30097065e-01                                 
 5.59876556e-08  6.68719647e-01  5.59876556e-08  6.22870866e-01  5.59876556e-08  1.77326387e+00  5.59876556e-08  1.80000000e+00  5.59876556e-08  5.60869426e-03  5.59876556e-08  6.22870866e-01                                 
 7.14712196e-08  6.61629101e-01  7.14712196e-08  6.16088181e-01  7.14712196e-08  1.76022290e+00  7.14712196e-08  1.80000000e+00  7.14712196e-08 -5.58030885e-03  7.14712196e-08  6.16088181e-01                                 
 8.53107566e-08  6.54908609e-01  8.53107566e-08  6.09904880e-01  8.53107566e-08  1.74657747e+00  8.53107566e-08  1.80000000e+00  8.53107566e-08  5.59475564e-03  8.53107566e-08  6.09904880e-01                                 
 1.00890450e-07  6.47582742e-01  1.00890450e-07  6.03281104e-01  1.00890450e-07  1.71784506e+00  1.00890450e-07  1.80000000e+00  1.00890450e-07 -5.56757406e-03  1.00890450e-07  6.03281104e-01                                 
 1.19296115e-07  6.39999287e-01  1.19296115e-07  5.96456667e-01  1.19296115e-07  1.68592948e+00  1.19296115e-07  1.80000000e+00  1.19296115e-07  5.58327205e-03  1.19296115e-07  5.96456667e-01                                 
 1.38650772e-07  6.33155016e-01  1.38650772e-07  5.90311007e-01  1.38650772e-07  1.65389782e+00  1.38650772e-07  1.80000000e+00  1.38650772e-07 -5.55691124e-03  1.38650772e-07  5.90311007e-01                                 
 1.63046570e-07  6.30572451e-01  1.63046570e-07  5.87475096e-01  1.63046570e-07  1.63047972e+00  1.63046570e-07  1.80000000e+00  1.63046570e-07  5.57536273e-03  1.63046570e-07  5.87475096e-01                                 
 1.95636739e-07  6.35194042e-01  1.95636739e-07  5.90194534e-01  1.95636739e-07  1.62136019e+00  1.95636739e-07  1.80000000e+00  1.95636739e-07 -5.54865702e-03  1.95636739e-07  5.90194534e-01                                 
 2.15201219e-07  6.32444193e-01  2.15201219e-07  5.87506421e-01  2.15201219e-07  1.59841272e+00  2.15201219e-07  1.80000000e+00  2.15201219e-07  5.56574323e-03  2.15201219e-07  5.87506421e-01                                 
 2.37141719e-07  6.25304935e-01  2.37141719e-07  5.81337223e-01  2.37141719e-07  1.57129212e+00  2.37141719e-07  1.80000000e+00  2.37141719e-07 -5.53961134e-03  2.37141719e-07  5.81337223e-01                                 
 2.61244914e-07  6.20051361e-01  2.61244914e-07  5.76673389e-01  2.61244914e-07  1.54077009e+00  2.61244914e-07  1.80000000e+00  2.61244914e-07  5.55736239e-03  2.61244914e-07  5.76673389e-01                                 
 2.87110345e-07  6.13714811e-01  2.87110345e-07  5.71175981e-01  2.87110345e-07  1.51074373e+00  2.87110345e-07  1.80000000e+00  2.87110345e-07 -5.53173094e-03  2.87110345e-07  5.71175981e-01                                 
 3.32636501e-07  6.03092674e-01  3.32636501e-07  5.62051811e-01  3.32636501e-07  1.45378953e+00  3.32636501e-07  1.80000000e+00  3.32636501e-07  5.55135984e-03  3.32636501e-07  5.62051811e-01                                 
 3.97792338e-07  5.85810915e-01  3.97792338e-07  5.47588245e-01  3.97792338e-07  1.37386957e+00  3.97792338e-07  1.80000000e+00  3.97792338e-07 -5.52813554e-03  3.97792338e-07  5.47588245e-01                                 
 5.18208288e-07  5.53577607e-01  5.18208288e-07  5.21147942e-01  5.18208288e-07  1.21935114e+00  5.18208288e-07  1.80000000e+00  5.18208288e-07  5.54903468e-03  5.18208288e-07  5.21147942e-01                                 
 6.34791189e-07  5.10886775e-01  6.34791189e-07  4.86840134e-01  6.34791189e-07  1.06015659e+00  6.34791189e-07  1.80000000e+00  6.34791189e-07 -5.52670818e-03  6.34791189e-07  4.86840134e-01                                 
 6.54957955e-07  5.06825287e-01  6.54957955e-07  4.83597328e-01  6.54957955e-07  1.03240949e+00  6.54957955e-07  1.80000000e+00  6.54957955e-07 -1.87279679e-06  6.54957955e-07  4.83597328e-01                                 
 6.95291487e-07  5.38488783e-01  6.95291487e-07  5.08931726e-01  6.95291487e-07  1.02019092e+00  6.95291487e-07  1.80000000e+00  6.95291487e-07  3.35047876e-06  6.95291487e-07  5.08931726e-01                                 
 7.05374870e-07  5.70711126e-01  7.05374870e-07  5.34672676e-01  7.05374870e-07  1.04176100e+00  7.05374870e-07  1.80000000e+00  7.05374870e-07  4.34671808e-06  7.05374870e-07  5.34672676e-01                                 
 7.25541636e-07  6.81186947e-01  7.25541636e-07  6.24206306e-01  7.25541636e-07  1.13010787e+00  7.25541636e-07  1.80000000e+00  7.25541636e-07  1.20815680e-05  7.25541636e-07  6.24206306e-01                                 
 7.30583327e-07  7.18963892e-01  7.30583327e-07  6.58731565e-01  7.30583327e-07  1.16216604e+00  7.30583327e-07  1.80000000e+00  7.30583327e-07  1.30492594e-05  7.30583327e-07  6.58731565e-01                                 
 7.40666710e-07  7.60252983e-01  7.40666710e-07  7.05345387e-01  7.40666710e-07  1.19435441e+00  7.40666710e-07  1.80000000e+00  7.40666710e-07  3.91312613e-06  7.40666710e-07  7.05345387e-01                                 
 7.60833476e-07  7.91160130e-01  7.60833476e-07  7.39604053e-01  7.60833476e-07  1.20328509e+00  7.60833476e-07  1.80000000e+00  7.60833476e-07  2.01673669e-06  7.60833476e-07  7.39604053e-01                                 
 7.98609531e-07  8.28306547e-01  7.98609531e-07  7.73369083e-01  7.98609531e-07  1.20041298e+00  7.98609531e-07  1.80000000e+00  7.98609531e-07  1.14797066e-06  7.98609531e-07  7.73369083e-01                                 
 8.38728037e-07  8.46027261e-01  8.38728037e-07  7.88514207e-01  8.38728037e-07  1.17609781e+00  8.38728037e-07  1.80000000e+00  8.38728037e-07 -2.09528691e-07  8.38728037e-07  7.88514207e-01                                 
 8.71935107e-07  8.66513448e-01  8.71935107e-07  8.04149870e-01  8.71935107e-07  1.16126286e+00  8.71935107e-07  1.80000000e+00  8.71935107e-07  1.72121575e-06  8.71935107e-07  8.04149870e-01                                 
 9.11496960e-07  8.96778415e-01  9.11496960e-07  8.24853678e-01  9.11496960e-07  1.14850681e+00  9.11496960e-07  1.80000000e+00  9.11496960e-07  1.90069372e-07  9.11496960e-07  8.24853678e-01                                 
 9.42485792e-07  8.91799202e-01  9.42485792e-07  8.21857652e-01  9.42485792e-07  1.11434343e+00  9.42485792e-07  1.80000000e+00  9.42485792e-07 -1.42958009e-06  9.42485792e-07  8.21857652e-01                                 
 9.72928447e-07  8.77389142e-01  9.72928447e-07  8.12030726e-01  9.72928447e-07  1.06858094e+00  9.72928447e-07  1.80000000e+00  9.72928447e-07 -1.09777614e-06  9.72928447e-07  8.12030726e-01                                 
 1.01672700e-06  8.49207038e-01  1.01672700e-06  7.91175744e-01  1.01672700e-06  9.96341795e-01  1.01672700e-06  1.80000000e+00  1.01672700e-06 -2.02785032e-06  1.01672700e-06  7.91175744e-01                                 
 1.05724609e-06  8.17133620e-01  1.05724609e-06  7.63482108e-01  1.05724609e-06  9.29821264e-01  1.05724609e-06  1.80000000e+00  1.05724609e-06 -1.67113417e-06  1.05724609e-06  7.63482108e-01                                 
 1.12759069e-06  8.20631416e-01  1.12759069e-06  7.66821996e-01  1.12759069e-06  8.79264089e-01  1.12759069e-06  1.80000000e+00  1.12759069e-06  1.41523214e-06  1.12759069e-06  7.66821996e-01                                 
 1.17979611e-06  8.22516615e-01  1.17979611e-06  7.68339350e-01  1.17979611e-06  8.46569191e-01  1.17979611e-06  1.80000000e+00  1.17979611e-06 -1.62646487e-06  1.17979611e-06  7.68339350e-01                                 
 1.23237312e-06  8.24195224e-01  1.23237312e-06  7.69994365e-01  1.23237312e-06  8.20291570e-01  1.23237312e-06  1.80000000e+00  1.23237312e-06  1.52971255e-06  1.23237312e-06  7.69994365e-01                                 
 1.23888748e-06  8.22177673e-01  1.23888748e-06  7.68142657e-01  1.23888748e-06  8.15795947e-01  1.23888748e-06  1.80000000e+00  1.23888748e-06 -6.57640219e-07  1.23888748e-06  7.68142657e-01                                 
 1.25191620e-06  8.20171950e-01  1.25191620e-06  7.66322370e-01  1.25191620e-06  8.08537221e-01  1.25191620e-06  1.80000000e+00  1.25191620e-06 -7.11027526e-08  1.25191620e-06  7.66322370e-01                                 
 1.27797365e-06  8.19735072e-01  1.27797365e-06  7.65934960e-01  1.27797365e-06  7.98738025e-01  1.27797365e-06  1.80000000e+00  1.27797365e-06 -8.69953678e-08  1.27797365e-06  7.65934960e-01                                 
 1.32055252e-06  8.21610186e-01  1.32055252e-06  7.67605990e-01  1.32055252e-06  7.88266473e-01  1.32055252e-06  1.80000000e+00  1.32055252e-06  2.08828750e-07  1.32055252e-06  7.67605990e-01                                 
 1.40120731e-06  8.22246740e-01  1.40120731e-06  7.68190338e-01  1.40120731e-06  7.73377648e-01  1.40120731e-06  1.80000000e+00  1.40120731e-06 -1.58147077e-07  1.40120731e-06  7.68190338e-01                                 
 1.53230623e-06  8.20450616e-01  1.53230623e-06  7.66569060e-01  1.53230623e-06  7.58669106e-01  1.53230623e-06  1.80000000e+00  1.53230623e-06  1.85291643e-07  1.53230623e-06  7.66569060e-01                                 
 1.67945769e-06  8.22304770e-01  1.67945769e-06  7.68238992e-01  1.67945769e-06  7.58471035e-01  1.67945769e-06  1.80000000e+00  1.67945769e-06 -4.48727499e-09  1.67945769e-06  7.68238992e-01                                 
 1.84710467e-06  8.20828161e-01  1.84710467e-06  7.66910606e-01  1.84710467e-06  7.68426751e-01  1.84710467e-06  1.80000000e+00  1.84710467e-06  1.54198691e-07  1.84710467e-06  7.66910606e-01                                 
 2.02063939e-06  8.21736435e-01  2.02063939e-06  7.67729522e-01  2.02063939e-06  7.68982994e-01  2.02063939e-06  1.80000000e+00  2.02063939e-06  7.50436944e-10  2.02063939e-06  7.67729522e-01                                 
 2.19038350e-06  8.21452499e-01  2.19038350e-06  7.67470996e-01  2.19038350e-06  7.66041536e-01  2.19038350e-06  1.80000000e+00  2.19038350e-06  1.24915073e-07  2.19038350e-06  7.67470996e-01                                 
 2.44943041e-06  8.21264955e-01  2.44943041e-06  7.67307368e-01  2.44943041e-06  7.68445442e-01  2.44943041e-06  1.80000000e+00  2.44943041e-06  1.73344069e-08  2.44943041e-06  7.67307368e-01                                 
 2.71164978e-06  8.21751018e-01  2.71164978e-06  7.67737848e-01  2.71164978e-06  7.67102806e-01  2.71164978e-06  1.80000000e+00  2.71164978e-06  1.25167900e-07  2.71164978e-06  7.67737848e-01                                 
 3.03439259e-06  8.21067952e-01  3.03439259e-06  7.67131273e-01  3.03439259e-06  7.67653345e-01  3.03439259e-06  1.80000000e+00  3.03439259e-06  8.64201018e-09  3.03439259e-06  7.67131273e-01                                 
 3.48801802e-06  8.21852256e-01  3.48801802e-06  7.67827960e-01  3.48801802e-06  7.67574288e-01  3.48801802e-06  1.80000000e+00  3.48801802e-06  1.36199791e-07  3.48801802e-06  7.67827960e-01                                 
 4.09972559e-06  8.21023219e-01  4.09972559e-06  7.67091511e-01  4.09972559e-06  7.67397560e-01  4.09972559e-06  1.80000000e+00  4.09972559e-06 -1.11545991e-09  4.09972559e-06  7.67091511e-01                                 
 5.09972559e-06  8.21868852e-01  5.09972559e-06  7.67842555e-01  5.09972559e-06  7.67709371e-01  5.09972559e-06  1.80000000e+00  5.09972559e-06  1.43455756e-07  5.09972559e-06  7.67842555e-01                                 
 6.09972559e-06  8.21017990e-01  6.09972559e-06  7.67087012e-01  6.09972559e-06  7.67316111e-01  6.09972559e-06  1.80000000e+00  6.09972559e-06 -6.84475908e-09  6.09972559e-06  7.67087012e-01                                 
 7.09972559e-06  8.21867872e-01  7.09972559e-06  7.67841496e-01  7.09972559e-06  7.67775913e-01  7.09972559e-06  1.80000000e+00  7.09972559e-06  1.49281428e-07  7.09972559e-06  7.67841496e-01                                 
 8.09972559e-06  8.21024244e-01  8.09972559e-06  7.67092805e-01  8.09972559e-06  7.67264171e-01  8.09972559e-06  1.80000000e+00  8.09972559e-06 -1.27135346e-08  8.09972559e-06  7.67092805e-01                                 
 9.09972559e-06  8.21855774e-01  9.09972559e-06  7.67830500e-01  9.09972559e-06  7.67814069e-01  9.09972559e-06  1.80000000e+00  9.09972559e-06  1.55141686e-07  9.09972559e-06  7.67830500e-01                                 
 1.00005000e-05  8.21042193e-01  1.00005000e-05  7.67109085e-01  1.00005000e-05  7.67237151e-01  1.00005000e-05  1.80000000e+00  1.00005000e-05 -1.88307261e-08  1.00005000e-05  7.67109085e-01                                 
 1.00005500e-05  8.21039238e-01  1.00005500e-05  7.67106273e-01  1.00005500e-05  7.60372397e-01  1.00005500e-05  1.62000000e+00  1.00005500e-05 -1.03052480e-04  1.00005500e-05  7.67106273e-01                                 
