 time            v(vbep)         time            v(vben)         time            v(vout)         time            v(vphi1)        time            v(vphi2)        time            v(vref)         yes             currtemp       
 0.00000000e+00  7.04578126e-01  0.00000000e+00  6.51881042e-01  0.00000000e+00  3.15428413e-01  0.00000000e+00  0.00000000e+00  0.00000000e+00  1.79995693e+00  0.00000000e+00  6.51881042e-01  1.00000000e+00  1.50000000e+01 
 5.00000000e-12  7.04555579e-01  5.00000000e-12  6.51862300e-01  5.00000000e-12  3.15930237e-01  5.00000000e-12  1.80000000e-02  5.00000000e-12  1.80006044e+00  5.00000000e-12  6.51862300e-01                                 
 1.00000000e-11  7.04533507e-01  1.00000000e-11  6.51844000e-01  1.00000000e-11  3.16340567e-01  1.00000000e-11  3.60000000e-02  1.00000000e-11  1.80011888e+00  1.00000000e-11  6.51844000e-01                                 
 2.00000000e-11  7.04489634e-01  2.00000000e-11  6.51807524e-01  2.00000000e-11  3.17024443e-01  2.00000000e-11  7.20000000e-02  2.00000000e-11  1.80017988e+00  2.00000000e-11  6.51807524e-01                                 
 4.00000000e-11  7.04402357e-01  4.00000000e-11  6.51734814e-01  4.00000000e-11  3.17851113e-01  4.00000000e-11  1.44000000e-01  4.00000000e-11  1.80016103e+00  4.00000000e-11  6.51734814e-01                                 
 8.00000000e-11  7.04228531e-01  8.00000000e-11  6.51589937e-01  8.00000000e-11  3.18618411e-01  8.00000000e-11  2.88000000e-01  8.00000000e-11  1.80009299e+00  8.00000000e-11  6.51589937e-01                                 
 1.60000000e-10  7.03883996e-01  1.60000000e-10  6.51302357e-01  1.60000000e-10  3.19395935e-01  1.60000000e-10  5.76000000e-01  1.60000000e-10  1.80005096e+00  1.60000000e-10  6.51302357e-01                                 
 3.20000000e-10  7.03206769e-01  3.20000000e-10  6.50735621e-01  3.20000000e-10  3.16680709e-01  3.20000000e-10  1.15200000e+00  3.20000000e-10  1.80013830e+00  3.20000000e-10  6.50735621e-01                                 
 5.00000000e-10  7.02463191e-01  5.00000000e-10  6.50111062e-01  5.00000000e-10  5.30901507e-01  5.00000000e-10  1.80000000e+00  5.00000000e-10  1.44744726e-01  5.00000000e-10  6.50111062e-01                                 
 5.21189612e-10  7.02377037e-01  5.21189612e-10  6.50038530e-01  5.21189612e-10  5.80543381e-01  5.21189612e-10  1.80000000e+00  5.21189612e-10  3.19035107e-02  5.21189612e-10  6.50038530e-01                                 
 5.63568836e-10  7.02205230e-01  5.63568836e-10  6.49893820e-01  5.63568836e-10  6.72224304e-01  5.63568836e-10  1.80000000e+00  5.63568836e-10 -1.29931626e-02  5.63568836e-10  6.49893820e-01                                 
 6.48327283e-10  7.01864645e-01  6.48327283e-10  6.49606581e-01  6.48327283e-10  8.19727679e-01  6.48327283e-10  1.80000000e+00  6.48327283e-10  1.16122318e-02  6.48327283e-10  6.49606581e-01                                 
 7.65531676e-10  7.01400182e-01  7.65531676e-10  6.49214079e-01  7.65531676e-10  9.80117246e-01  7.65531676e-10  1.80000000e+00  7.65531676e-10 -8.85631924e-03  7.65531676e-10  6.49214079e-01                                 
 9.49285144e-10  7.00686615e-01  9.49285144e-10  6.48609317e-01  9.49285144e-10  1.18503354e+00  9.49285144e-10  1.80000000e+00  9.49285144e-10  9.14642859e-03  9.49285144e-10  6.48609317e-01                                 
 1.26729697e-09  6.99491596e-01  1.26729697e-09  6.47591854e-01  1.26729697e-09  1.45485265e+00  1.26729697e-09  1.80000000e+00  1.26729697e-09 -7.72927885e-03  1.26729697e-09  6.47591854e-01                                 
 1.84245101e-09  6.97447475e-01  1.84245101e-09  6.45838339e-01  1.84245101e-09  1.71715452e+00  1.84245101e-09  1.80000000e+00  1.84245101e-09  8.03609385e-03  1.84245101e-09  6.45838339e-01                                 
 2.20935120e-09  6.96216417e-01  2.20935120e-09  6.44774188e-01  2.20935120e-09  1.77443925e+00  2.20935120e-09  1.80000000e+00  2.20935120e-09 -7.42558094e-03  2.20935120e-09  6.44774188e-01                                 
 2.56280336e-09  6.95078596e-01  2.56280336e-09  6.43785468e-01  2.56280336e-09  1.79732007e+00  2.56280336e-09  1.80000000e+00  2.56280336e-09  7.17518088e-03  2.56280336e-09  6.43785468e-01                                 
 2.95496113e-09  6.93866955e-01  2.95496113e-09  6.42727307e-01  2.95496113e-09  1.80674324e+00  2.95496113e-09  1.80000000e+00  2.95496113e-09 -6.78375802e-03  2.95496113e-09  6.42727307e-01                                 
 3.55835461e-09  6.92096911e-01  3.55835461e-09  6.41172066e-01  3.55835461e-09  1.81059077e+00  3.55835461e-09  1.80000000e+00  3.55835461e-09  6.62930426e-03  3.55835461e-09  6.41172066e-01                                 
 4.33823442e-09  6.89959758e-01  4.33823442e-09  6.39279887e-01  4.33823442e-09  1.80911747e+00  4.33823442e-09  1.80000000e+00  4.33823442e-09 -6.44552568e-03  4.33823442e-09  6.39279887e-01                                 
 5.63691897e-09  6.86716382e-01  5.63691897e-09  6.36380517e-01  5.63691897e-09  1.80594666e+00  5.63691897e-09  1.80000000e+00  5.63691897e-09  6.38541788e-03  5.63691897e-09  6.36380517e-01                                 
 7.69221240e-09  6.82219416e-01  7.69221240e-09  6.32310264e-01  7.69221240e-09  1.80061963e+00  7.69221240e-09  1.80000000e+00  7.69221240e-09 -6.30312168e-03  7.69221240e-09  6.32310264e-01                                 
 1.18027993e-08  6.74813909e-01  1.18027993e-08  6.25505760e-01  1.18027993e-08  1.79152498e+00  1.18027993e-08  1.80000000e+00  1.18027993e-08  6.30529586e-03  1.18027993e-08  6.25505760e-01                                 
 1.46951636e-08  6.70517634e-01  1.46951636e-08  6.21507395e-01  1.46951636e-08  1.78495743e+00  1.46951636e-08  1.80000000e+00  1.46951636e-08 -6.23882089e-03  1.46951636e-08  6.21507395e-01                                 
 1.63882705e-08  6.68241317e-01  1.63882705e-08  6.19379430e-01  1.63882705e-08  1.78194179e+00  1.63882705e-08  1.80000000e+00  1.63882705e-08  6.19742220e-03  1.63882705e-08  6.19379430e-01                                 
 1.79623927e-08  6.66249298e-01  1.79623927e-08  6.17513695e-01  1.79623927e-08  1.77850676e+00  1.79623927e-08  1.80000000e+00  1.79623927e-08 -6.10299594e-03  1.79623927e-08  6.17513695e-01                                 
 1.97561226e-08  6.64103658e-01  1.97561226e-08  6.15501504e-01  1.97561226e-08  1.77524803e+00  1.97561226e-08  1.80000000e+00  1.97561226e-08  6.06495614e-03  1.97561226e-08  6.15501504e-01                                 
 2.26411505e-08  6.60883696e-01  2.26411505e-08  6.12479147e-01  2.26411505e-08  1.76920554e+00  2.26411505e-08  1.80000000e+00  2.26411505e-08 -6.00466404e-03  2.26411505e-08  6.12479147e-01                                 
 2.54555585e-08  6.57973802e-01  2.54555585e-08  6.09747111e-01  2.54555585e-08  1.76369887e+00  2.54555585e-08  1.80000000e+00  2.54555585e-08  5.98868819e-03  2.54555585e-08  6.09747111e-01                                 
 3.03538593e-08  6.53334007e-01  3.03538593e-08  6.05394332e-01  3.03538593e-08  1.75297089e+00  3.03538593e-08  1.80000000e+00  3.03538593e-08 -5.94466589e-03  3.03538593e-08  6.05394332e-01                                 
 3.54589423e-08  6.48967653e-01  3.54589423e-08  6.01305071e-01  3.54589423e-08  1.74202828e+00  3.54589423e-08  1.80000000e+00  3.54589423e-08  5.94595498e-03  3.54589423e-08  6.01305071e-01                                 
 4.56691084e-08  6.41371579e-01  4.56691084e-08  5.94201089e-01  4.56691084e-08  1.71977910e+00  4.56691084e-08  1.80000000e+00  4.56691084e-08 -5.91313837e-03  4.56691084e-08  5.94201089e-01                                 
 6.16031655e-08  6.31848659e-01  6.16031655e-08  5.85295026e-01  6.16031655e-08  1.68756086e+00  6.16031655e-08  1.80000000e+00  6.16031655e-08  5.92937831e-03  6.16031655e-08  5.85295026e-01                                 
 8.02712139e-08  6.25992602e-01  8.02712139e-08  5.79389424e-01  8.02712139e-08  1.66115513e+00  8.02712139e-08  1.80000000e+00  8.02712139e-08 -5.89986233e-03  8.02712139e-08  5.79389424e-01                                 
 1.11488006e-07  6.26914736e-01  1.11488006e-07  5.78450837e-01  1.11488006e-07  1.65627981e+00  1.11488006e-07  1.80000000e+00  1.11488006e-07  5.92235387e-03  1.11488006e-07  5.78450837e-01                                 
 1.31178550e-07  6.24897253e-01  1.31178550e-07  5.76020505e-01  1.31178550e-07  1.63529213e+00  1.31178550e-07  1.80000000e+00  1.31178550e-07 -5.89246654e-03  1.31178550e-07  5.76020505e-01                                 
 1.49760900e-07  6.19728242e-01  1.49760900e-07  5.71243933e-01  1.49760900e-07  1.61196918e+00  1.49760900e-07  1.80000000e+00  1.49760900e-07  5.91087200e-03  1.49760900e-07  5.71243933e-01                                 
 1.67790452e-07  6.14906477e-01  1.67790452e-07  5.66827323e-01  1.67790452e-07  1.58675386e+00  1.67790452e-07  1.80000000e+00  1.67790452e-07 -5.88121855e-03  1.67790452e-07  5.66827323e-01                                 
 1.87503907e-07  6.08800877e-01  1.87503907e-07  5.61401178e-01  1.87503907e-07  1.56349699e+00  1.87503907e-07  1.80000000e+00  1.87503907e-07  5.89991340e-03  1.87503907e-07  5.61401178e-01                                 
 2.21930376e-07  5.98673792e-01  2.21930376e-07  5.52482725e-01  2.21930376e-07  1.51763913e+00  2.21930376e-07  1.80000000e+00  2.21930376e-07 -5.87290755e-03  2.21930376e-07  5.52482725e-01                                 
 2.67629590e-07  5.85917056e-01  2.67629590e-07  5.41410167e-01  2.67629590e-07  1.46179737e+00  2.67629590e-07  1.80000000e+00  2.67629590e-07  5.89476069e-03  2.67629590e-07  5.41410167e-01                                 
 3.59028018e-07  5.59548879e-01  3.59028018e-07  5.19157241e-01  3.59028018e-07  1.34215589e+00  3.59028018e-07  1.80000000e+00  3.59028018e-07 -5.86953576e-03  3.59028018e-07  5.19157241e-01                                 
 5.37667799e-07  4.94235856e-01  5.37667799e-07  4.66078497e-01  5.37667799e-07  1.09911446e+00  5.37667799e-07  1.80000000e+00  5.37667799e-07  5.89288993e-03  5.37667799e-07  4.66078497e-01                                 
 5.72379435e-07  4.95187856e-01  5.72379435e-07  4.66834493e-01  5.72379435e-07  1.06174735e+00  5.72379435e-07  1.80000000e+00  5.72379435e-07  4.45528790e-07  5.72379435e-07  4.66834493e-01                                 
 5.81057345e-07  4.98046053e-01  5.81057345e-07  4.69120822e-01  5.81057345e-07  1.05531422e+00  5.81057345e-07  1.80000000e+00  5.81057345e-07  6.31507846e-07  5.81057345e-07  4.69120822e-01                                 
 5.98413163e-07  5.15540106e-01  5.98413163e-07  4.83105959e-01  5.98413163e-07  1.05396470e+00  5.98413163e-07  1.80000000e+00  5.98413163e-07  2.01932458e-06  5.98413163e-07  4.83105959e-01                                 
 6.33124800e-07  6.99899956e-01  6.33124800e-07  6.41097630e-01  6.33124800e-07  1.19664972e+00  6.33124800e-07  1.80000000e+00  6.33124800e-07  1.35835113e-05  6.33124800e-07  6.41097630e-01                                 
 6.74313438e-07  7.83601843e-01  6.74313438e-07  7.28268519e-01  6.74313438e-07  1.23933417e+00  6.74313438e-07  1.80000000e+00  6.74313438e-07 -6.21656736e-06  6.74313438e-07  7.28268519e-01                                 
 7.18595653e-07  8.09730666e-01  7.18595653e-07  7.52170511e-01  7.18595653e-07  1.21450506e+00  7.18595653e-07  1.80000000e+00  7.18595653e-07  7.69305831e-06  7.18595653e-07  7.52170511e-01                                 
 7.80110875e-07  8.16309240e-01  7.80110875e-07  7.57688061e-01  7.80110875e-07  1.16223552e+00  7.80110875e-07  1.80000000e+00  7.80110875e-07 -7.82426730e-06  7.80110875e-07  7.57688061e-01                                 
 7.88141669e-07  8.16117660e-01  7.88141669e-07  7.57549975e-01  7.88141669e-07  1.15155337e+00  7.88141669e-07  1.80000000e+00  7.88141669e-07 -5.62105284e-07  7.88141669e-07  7.57549975e-01                                 
 8.04203259e-07  8.16968491e-01  8.04203259e-07  7.58263301e-01  8.04203259e-07  1.13516023e+00  8.04203259e-07  1.80000000e+00  8.04203259e-07  8.10286825e-08  8.04203259e-07  7.58263301e-01                                 
 8.36326437e-07  8.19489669e-01  8.36326437e-07  7.60381321e-01  8.36326437e-07  1.10455302e+00  8.36326437e-07  1.80000000e+00  8.36326437e-07 -4.08774977e-07  8.36326437e-07  7.60381321e-01                                 
 8.42703064e-07  8.20005108e-01  8.42703064e-07  7.60809786e-01  8.42703064e-07  1.09822204e+00  8.42703064e-07  1.80000000e+00  8.42703064e-07 -1.82740470e-07  8.42703064e-07  7.60809786e-01                                 
 8.55456316e-07  8.21125850e-01  8.55456316e-07  7.61740298e-01  8.55456316e-07  1.08589030e+00  8.55456316e-07  1.80000000e+00  8.55456316e-07 -1.29331026e-07  8.55456316e-07  7.61740298e-01                                 
 8.80962821e-07  8.14779379e-01  8.80962821e-07  7.56452778e-01  8.80962821e-07  1.05348134e+00  8.80962821e-07  1.80000000e+00  8.80962821e-07 -1.39040987e-06  8.80962821e-07  7.56452778e-01                                 
 9.12184996e-07  7.92122597e-01  9.12184996e-07  7.36390209e-01  9.12184996e-07  9.99646390e-01  9.12184996e-07  1.80000000e+00  9.12184996e-07 -1.90559869e-06  9.12184996e-07  7.36390209e-01                                 
 9.44078214e-07  7.85410274e-01  9.44078214e-07  7.30103603e-01  9.44078214e-07  9.62506757e-01  9.44078214e-07  1.80000000e+00  9.44078214e-07  6.06031236e-07  9.44078214e-07  7.30103603e-01                                 
 9.86141850e-07  8.04085948e-01  9.86141850e-07  7.47103414e-01  9.86141850e-07  9.43171792e-01  9.86141850e-07  1.80000000e+00  9.86141850e-07  6.33210077e-07  9.86141850e-07  7.47103414e-01                                 
 1.03063164e-06  8.10896202e-01  1.03063164e-06  7.53091124e-01  1.03063164e-06  9.14309907e-01  1.03063164e-06  1.80000000e+00  1.03063164e-06 -3.83633917e-07  1.03063164e-06  7.53091124e-01                                 
 1.08724292e-06  8.01471377e-01  1.08724292e-06  7.44818852e-01  1.08724292e-06  8.66677845e-01  1.08724292e-06  1.80000000e+00  1.08724292e-06 -4.12538407e-07  1.08724292e-06  7.44818852e-01                                 
 1.15661618e-06  7.96161647e-01  1.15661618e-06  7.40022079e-01  1.15661618e-06  8.19862662e-01  1.15661618e-06  1.80000000e+00  1.15661618e-06  4.04084593e-08  1.15661618e-06  7.40022079e-01                                 
 1.23265617e-06  8.07316497e-01  1.23265617e-06  7.49962568e-01  1.23265617e-06  7.95179046e-01  1.23265617e-06  1.80000000e+00  1.23265617e-06  5.15871900e-07  1.23265617e-06  7.49962568e-01                                 
 1.32976099e-06  8.02252563e-01  1.32976099e-06  7.45519900e-01  1.32976099e-06  7.63357580e-01  1.32976099e-06  1.80000000e+00  1.32976099e-06 -5.17741199e-07  1.32976099e-06  7.45519900e-01                                 
 1.43013949e-06  7.98633878e-01  1.43013949e-06  7.42246830e-01  1.43013949e-06  7.44888264e-01  1.43013949e-06  1.80000000e+00  1.43013949e-06  6.61707901e-07  1.43013949e-06  7.42246830e-01                                 
 1.58128215e-06  8.06914001e-01  1.58128215e-06  7.49626410e-01  1.58128215e-06  7.43627432e-01  1.58128215e-06  1.80000000e+00  1.58128215e-06 -1.36349433e-07  1.58128215e-06  7.49626410e-01                                 
 1.60097444e-06  8.04744651e-01  1.60097444e-06  7.47718533e-01  1.60097444e-06  7.42356590e-01  1.60097444e-06  1.80000000e+00  1.60097444e-06  9.42269777e-09  1.60097444e-06  7.47718533e-01                                 
 1.64035902e-06  8.01038420e-01  1.64035902e-06  7.44423244e-01  1.64035902e-06  7.41707862e-01  1.64035902e-06  1.80000000e+00  1.64035902e-06  8.48182732e-08  1.64035902e-06  7.44423244e-01                                 
 1.71912818e-06  8.01557162e-01  1.71912818e-06  7.44877530e-01  1.71912818e-06  7.45698998e-01  1.71912818e-06  1.80000000e+00  1.71912818e-06  3.35091107e-07  1.71912818e-06  7.44877530e-01                                 
 1.82944897e-06  8.04351845e-01  1.82944897e-06  7.47366730e-01  1.82944897e-06  7.47527324e-01  1.82944897e-06  1.80000000e+00  1.82944897e-06  1.19635383e-07  1.82944897e-06  7.47366730e-01                                 
 1.97932671e-06  8.00850935e-01  1.97932671e-06  7.44252284e-01  1.97932671e-06  7.44131567e-01  1.97932671e-06  1.80000000e+00  1.97932671e-06  1.69898587e-07  1.97932671e-06  7.44252284e-01                                 
 2.15719741e-06  8.03608280e-01  2.15719741e-06  7.46705182e-01  2.15719741e-06  7.46936843e-01  2.15719741e-06  1.80000000e+00  2.15719741e-06  2.55829276e-07  2.15719741e-06  7.46705182e-01                                 
 2.44857007e-06  8.01892012e-01  2.44857007e-06  7.45185217e-01  2.44857007e-06  7.45168173e-01  2.44857007e-06  1.80000000e+00  2.44857007e-06  9.46521146e-08  2.44857007e-06  7.45185217e-01                                 
 2.81932913e-06  8.02808500e-01  2.81932913e-06  7.45993409e-01  2.81932913e-06  7.46136000e-01  2.81932913e-06  1.80000000e+00  2.81932913e-06  2.85130345e-07  2.81932913e-06  7.45993409e-01                                 
 3.46266194e-06  8.02466540e-01  3.46266194e-06  7.45696301e-01  3.46266194e-06  7.45739365e-01  3.46266194e-06  1.80000000e+00  3.46266194e-06  8.42118318e-08  3.46266194e-06  7.45696301e-01                                 
 4.46266194e-06  8.02480138e-01  4.46266194e-06  7.45701223e-01  4.46266194e-06  7.45809951e-01  4.46266194e-06  1.80000000e+00  4.46266194e-06  2.86964233e-07  4.46266194e-06  7.45701223e-01                                 
 5.46266194e-06  8.02714385e-01  5.46266194e-06  7.45916693e-01  5.46266194e-06  7.45984493e-01  5.46266194e-06  1.80000000e+00  5.46266194e-06  8.50586061e-08  5.46266194e-06  7.45916693e-01                                 
 6.46266194e-06  8.02236793e-01  6.46266194e-06  7.45484696e-01  6.46266194e-06  7.45570278e-01  6.46266194e-06  1.80000000e+00  6.46266194e-06  2.84388072e-07  6.46266194e-06  7.45484696e-01                                 
 7.46266194e-06  8.02947871e-01  7.46266194e-06  7.46124046e-01  7.46266194e-06  7.46213496e-01  7.46266194e-06  1.80000000e+00  7.46266194e-06  8.93117748e-08  7.46266194e-06  7.46124046e-01                                 
 8.46266194e-06  8.02015093e-01  8.46266194e-06  7.45287408e-01  8.46266194e-06  7.45352975e-01  8.46266194e-06  1.80000000e+00  8.46266194e-06  2.78535228e-07  8.46266194e-06  7.45287408e-01                                 
 9.46266194e-06  8.03145550e-01  9.46266194e-06  7.46299330e-01  9.46266194e-06  7.46407180e-01  9.46266194e-06  1.80000000e+00  9.46266194e-06  9.66375169e-08  9.46266194e-06  7.46299330e-01                                 
 1.00005000e-05  8.01761617e-01  1.00005000e-05  7.45061876e-01  1.00005000e-05  7.45104716e-01  1.00005000e-05  1.80000000e+00  1.00005000e-05  2.65416211e-07  1.00005000e-05  7.45061876e-01                                 
 1.00005500e-05  8.01764106e-01  1.00005500e-05  7.45064138e-01  1.00005500e-05  7.38127484e-01  1.00005500e-05  1.62000000e+00  1.00005500e-05 -1.10150711e-04  1.00005500e-05  7.45064138e-01                                 
 1.00006500e-05  8.01769165e-01  1.00006500e-05  7.45068665e-01  1.00006500e-05  7.28255642e-01  1.00006500e-05  1.26000000e+00  1.00006500e-05 -5.57357128e-05  1.00006500e-05  7.45068665e-01                                 
 1.00008500e-05  8.01779165e-01  1.00008500e-05  7.45077586e-01  1.00008500e-05  7.26984743e-01  1.00008500e-05  5.40000000e-01  1.00008500e-05 -1.36186485e-03  1.00008500e-05  7.45077586e-01                                 
 1.00010000e-05  8.01786358e-01  1.00010000e-05  7.45084061e-01  1.00010000e-05  6.69657053e-01  1.00010000e-05  0.00000000e+00  1.00010000e-05  1.49487151e+00  1.00010000e-05  7.45084061e-01                                 
