 time            v(vbep)         time            v(vben)         time            v(vout)         time            v(vphi1)        time            v(vphi2)        time            v(vref)         time            v(voutc)        time            v(voutcc)       yes             currtemp       
 0.00000000e+00  7.22104781e-01  0.00000000e+00  6.56510626e-01  0.00000000e+00  1.50344515e+00  0.00000000e+00  0.00000000e+00  0.00000000e+00  1.79999999e+00  0.00000000e+00  6.57389811e-01  0.00000000e+00  1.50344514e+00  0.00000000e+00  1.51082491e+00  1.00000000e+00  6.10000000e+01 
 1.00000000e-11  7.22129887e-01  1.00000000e-11  6.56583039e-01  1.00000000e-11  1.50421185e+00  1.00000000e-11  1.80000000e-02  1.00000000e-11  1.80025367e+00  1.00000000e-11  6.57924133e-01  1.00000000e-11  1.50391687e+00  1.00000000e-11  1.51083783e+00                                 
 2.00000000e-11  7.22136723e-01  2.00000000e-11  6.56627912e-01  2.00000000e-11  1.50467301e+00  2.00000000e-11  3.60000000e-02  2.00000000e-11  1.80035304e+00  2.00000000e-11  6.58319330e-01  2.00000000e-11  1.50427117e+00  2.00000000e-11  1.51084228e+00                                 
 4.00000000e-11  7.22136719e-01  4.00000000e-11  6.56686621e-01  4.00000000e-11  1.50521599e+00  4.00000000e-11  7.20000000e-02  4.00000000e-11  1.80038950e+00  4.00000000e-11  6.58896771e-01  4.00000000e-11  1.50479646e+00  4.00000000e-11  1.51084307e+00                                 
 8.00000000e-11  7.22125119e-01  8.00000000e-11  6.56723565e-01  8.00000000e-11  1.50529725e+00  8.00000000e-11  1.44000000e-01  8.00000000e-11  1.80018394e+00  8.00000000e-11  6.59346236e-01  8.00000000e-11  1.50521707e+00  8.00000000e-11  1.51083248e+00                                 
 1.60000000e-10  7.22122386e-01  1.60000000e-10  6.56733495e-01  1.60000000e-10  1.50496017e+00  1.60000000e-10  2.88000000e-01  1.60000000e-10  1.80000561e+00  1.60000000e-10  6.59439026e-01  1.60000000e-10  1.50526111e+00  1.60000000e-10  1.51082326e+00                                 
 3.20000000e-10  7.22117821e-01  3.20000000e-10  6.56724558e-01  3.20000000e-10  1.50457449e+00  3.20000000e-10  5.76000000e-01  3.20000000e-10  1.79998197e+00  3.20000000e-10  6.59273499e-01  3.20000000e-10  1.50491314e+00  3.20000000e-10  1.51081817e+00                                 
 6.40000000e-10  7.22034704e-01  6.40000000e-10  6.56300579e-01  6.40000000e-10  1.50285315e+00  6.40000000e-10  1.15200000e+00  6.40000000e-10  1.80988707e+00  6.40000000e-10  6.56524991e-01  6.40000000e-10  1.50874245e+00  6.40000000e-10  1.51084350e+00                                 
 1.00000000e-09  7.22613920e-01  1.00000000e-09  6.56679363e-01  1.00000000e-09  1.48183893e+00  1.00000000e-09  1.80000000e+00  1.00000000e-09  1.02569271e-01  1.00000000e-09  6.71797482e-01  1.00000000e-09  1.51345733e+00  1.00000000e-09  1.51084059e+00                                 
 1.03712251e-09  7.22684330e-01  1.03712251e-09  6.56693927e-01  1.03712251e-09  1.48043745e+00  1.03712251e-09  1.80000000e+00  1.03712251e-09  2.39954318e-02  1.03712251e-09  6.75002968e-01  1.03712251e-09  1.51523683e+00  1.03712251e-09  1.51086649e+00                                 
 1.11136754e-09  7.22849435e-01  1.11136754e-09  6.56734578e-01  1.11136754e-09  1.47864405e+00  1.11136754e-09  1.80000000e+00  1.11136754e-09 -1.12408163e-02  1.11136754e-09  6.79070525e-01  1.11136754e-09  1.51839675e+00  1.11136754e-09  1.51088248e+00                                 
 1.25985760e-09  7.22981751e-01  1.25985760e-09  6.56587805e-01  1.25985760e-09  1.47553646e+00  1.25985760e-09  1.80000000e+00  1.25985760e-09  8.95021109e-03  1.25985760e-09  6.79084907e-01  1.25985760e-09  1.51869314e+00  1.25985760e-09  1.51083447e+00                                 
 1.44664629e-09  7.22953124e-01  1.44664629e-09  6.56570234e-01  1.44664629e-09  1.47469053e+00  1.44664629e-09  1.80000000e+00  1.44664629e-09 -6.83270290e-03  1.44664629e-09  6.78119714e-01  1.44664629e-09  1.51765330e+00  1.44664629e-09  1.51087082e+00                                 
 1.65618780e-09  7.22851726e-01  1.65618780e-09  6.56567382e-01  1.65618780e-09  1.47442791e+00  1.65618780e-09  1.80000000e+00  1.65618780e-09  5.66768806e-03  1.65618780e-09  6.76488133e-01  1.65618780e-09  1.51644641e+00  1.65618780e-09  1.51090000e+00                                 
 2.00582285e-09  7.22601581e-01  2.00582285e-09  6.56522365e-01  2.00582285e-09  1.47410615e+00  2.00582285e-09  1.80000000e+00  2.00582285e-09 -5.05692945e-03  2.00582285e-09  6.73757587e-01  2.00582285e-09  1.51395237e+00  2.00582285e-09  1.51102223e+00                                 
 2.51477195e-09  7.22327106e-01  2.51477195e-09  6.56525625e-01  2.51477195e-09  1.47395236e+00  2.51477195e-09  1.80000000e+00  2.51477195e-09  4.58687060e-03  2.51477195e-09  6.70450164e-01  2.51477195e-09  1.51126791e+00  2.51477195e-09  1.51119797e+00                                 
 3.24657363e-09  7.22073028e-01  3.24657363e-09  6.56479066e-01  3.24657363e-09  1.47286442e+00  3.24657363e-09  1.80000000e+00  3.24657363e-09 -4.40427021e-03  3.24657363e-09  6.66086050e-01  3.24657363e-09  1.50740085e+00  3.24657363e-09  1.51144655e+00                                 
 4.40268883e-09  7.21930432e-01  4.40268883e-09  6.56496108e-01  4.40268883e-09  1.47090334e+00  4.40268883e-09  1.80000000e+00  4.40268883e-09  4.20214465e-03  4.40268883e-09  6.61563072e-01  4.40268883e-09  1.50367041e+00  4.40268883e-09  1.51169200e+00                                 
 5.97798053e-09  7.21883349e-01  5.97798053e-09  6.56470195e-01  5.97798053e-09  1.46630034e+00  5.97798053e-09  1.80000000e+00  5.97798053e-09 -4.12216435e-03  5.97798053e-09  6.57661940e-01  5.97798053e-09  1.50022039e+00  5.97798053e-09  1.51177034e+00                                 
 7.35726785e-09  7.21922772e-01  7.35726785e-09  6.56505059e-01  7.35726785e-09  1.46129404e+00  7.35726785e-09  1.80000000e+00  7.35726785e-09  3.98760547e-03  7.35726785e-09  6.56324318e-01  7.35726785e-09  1.49920619e+00  7.35726785e-09  1.51164094e+00                                 
 8.87289599e-09  7.21958631e-01  8.87289599e-09  6.56482651e-01  8.87289599e-09  1.45396061e+00  8.87289599e-09  1.80000000e+00  8.87289599e-09 -3.89000583e-03  8.87289599e-09  6.55311363e-01  8.87289599e-09  1.49821992e+00  8.87289599e-09  1.51139903e+00                                 
 1.03180079e-08  7.22013225e-01  1.03180079e-08  6.56516373e-01  1.03180079e-08  1.44635211e+00  1.03180079e-08  1.80000000e+00  1.03180079e-08  3.77849974e-03  1.03180079e-08  6.55274072e-01  1.03180079e-08  1.49829927e+00  1.03180079e-08  1.51111798e+00                                 
 1.24600839e-08  7.22051845e-01  1.24600839e-08  6.56491970e-01  1.24600839e-08  1.43320419e+00  1.24600839e-08  1.80000000e+00  1.24600839e-08 -3.70933546e-03  1.24600839e-08  6.55019801e-01  1.24600839e-08  1.49795312e+00  1.24600839e-08  1.51069679e+00                                 
 1.48818799e-08  7.22096627e-01  1.48818799e-08  6.56523712e-01  1.48818799e-08  1.41762030e+00  1.48818799e-08  1.80000000e+00  1.48818799e-08  3.64815120e-03  1.48818799e-08  6.55455637e-01  1.48818799e-08  1.49841965e+00  1.48818799e-08  1.51024442e+00                                 
 1.85008488e-08  7.22107747e-01  1.85008488e-08  6.56496350e-01  1.85008488e-08  1.39259354e+00  1.85008488e-08  1.80000000e+00  1.85008488e-08 -3.60676216e-03  1.85008488e-08  6.55589932e-01  1.85008488e-08  1.49839730e+00  1.85008488e-08  1.50966404e+00                                 
 2.30896193e-08  7.22123814e-01  2.30896193e-08  6.56525990e-01  2.30896193e-08  1.36051956e+00  2.30896193e-08  1.80000000e+00  2.30896193e-08  3.57640408e-03  2.30896193e-08  6.56247112e-01  2.30896193e-08  1.49904405e+00  2.30896193e-08  1.50907827e+00                                 
 3.13109957e-08  7.22109214e-01  3.13109957e-08  6.56496972e-01  3.13109957e-08  1.30184135e+00  3.13109957e-08  1.80000000e+00  3.13109957e-08 -3.55781911e-03  3.13109957e-08  6.56527449e-01  3.13109957e-08  1.49914624e+00  3.13109957e-08  1.50835729e+00                                 
 4.41364531e-08  7.22114006e-01  4.41364531e-08  6.56525596e-01  4.41364531e-08  1.21079703e+00  4.41364531e-08  1.80000000e+00  4.41364531e-08  3.54764839e-03  4.41364531e-08  6.57197024e-01  4.41364531e-08  1.49980933e+00  4.41364531e-08  1.50775243e+00                                 
 6.97873679e-08  7.22099734e-01  6.97873679e-08  6.56496131e-01  6.97873679e-08  1.02937229e+00  6.97873679e-08  1.80000000e+00  6.97873679e-08 -3.54078754e-03  6.97873679e-08  6.57237288e-01  6.97873679e-08  1.49972655e+00  6.97873679e-08  1.50734798e+00                                 
 1.02224860e-07  7.22109232e-01  1.02224860e-07  6.56525065e-01  1.02224860e-07  8.09500404e-01  1.02224860e-07  1.80000000e+00  1.02224860e-07  3.53967027e-03  1.02224860e-07  6.57506179e-01  1.02224860e-07  1.50006482e+00  1.02224860e-07  1.50729377e+00                                 
 1.31656746e-07  7.22104197e-01  1.31656746e-07  6.56496323e-01  1.31656746e-07  6.84053576e-01  1.31656746e-07  1.80000000e+00  1.31656746e-07 -3.52467803e-03  1.31656746e-07  6.57272003e-01  1.31656746e-07  1.49975473e+00  1.31656746e-07  1.50729447e+00                                 
 1.57313209e-07  7.22103955e-01  1.57313209e-07  6.56525056e-01  1.57313209e-07  6.60227514e-01  1.57313209e-07  1.80000000e+00  1.57313209e-07  3.53491924e-03  1.57313209e-07  6.57515393e-01  1.57313209e-07  1.50007058e+00  1.57313209e-07  1.50729547e+00                                 
 1.76165139e-07  7.22102980e-01  1.76165139e-07  6.56495960e-01  1.76165139e-07  6.58670286e-01  1.76165139e-07  1.80000000e+00  1.76165139e-07 -3.51088417e-03  1.76165139e-07  6.57268604e-01  1.76165139e-07  1.49975063e+00  1.76165139e-07  1.50729601e+00                                 
 1.97018543e-07  7.22106835e-01  1.97018543e-07  6.56525278e-01  1.97018543e-07  6.58417367e-01  1.97018543e-07  1.80000000e+00  1.97018543e-07  3.52111910e-03  1.97018543e-07  6.57511637e-01  1.97018543e-07  1.50006582e+00  1.97018543e-07  1.50729348e+00                                 
 2.28124289e-07  7.22102203e-01  2.28124289e-07  6.56495958e-01  2.28124289e-07  6.58239035e-01  2.28124289e-07  1.80000000e+00  2.28124289e-07 -3.49993580e-03  2.28124289e-07  6.57268307e-01  2.28124289e-07  1.49974877e+00  2.28124289e-07  1.50729264e+00                                 
 2.90335780e-07  7.22107559e-01  2.90335780e-07  6.56525280e-01  2.90335780e-07  6.58341743e-01  2.90335780e-07  1.80000000e+00  2.90335780e-07  3.51451891e-03  2.90335780e-07  6.57511221e-01  2.90335780e-07  1.50006229e+00  2.90335780e-07  1.50728935e+00                                 
 4.14758763e-07  7.22101908e-01  4.14758763e-07  6.56495964e-01  4.14758763e-07  6.58236159e-01  4.14758763e-07  1.80000000e+00  4.14758763e-07 -3.49664896e-03  4.14758763e-07  6.57268378e-01  4.14758763e-07  1.49974278e+00  4.14758763e-07  1.50728616e+00                                 
 6.58726682e-07  7.22107703e-01  6.58726682e-07  6.56525276e-01  6.58726682e-07  6.58343075e-01  6.58726682e-07  1.80000000e+00  6.58726682e-07  3.51285972e-03  6.58726682e-07  6.57511190e-01  6.58726682e-07  1.50005020e+00  6.58726682e-07  1.50727736e+00                                 
 1.14666252e-06  7.22101837e-01  1.14666252e-06  6.56495966e-01  1.14666252e-06  6.58235365e-01  1.14666252e-06  1.80000000e+00  1.14666252e-06 -3.49581422e-03  1.14666252e-06  6.57268392e-01  1.14666252e-06  1.49971889e+00  1.14666252e-06  1.50726226e+00                                 
 2.12253420e-06  7.22107738e-01  2.12253420e-06  6.56525275e-01  2.12253420e-06  6.58343432e-01  2.12253420e-06  1.80000000e+00  2.12253420e-06  3.51243952e-03  2.12253420e-06  6.57511183e-01  2.12253420e-06  1.50000236e+00  2.12253420e-06  1.50722960e+00                                 
 3.32253420e-06  7.22101815e-01  3.32253420e-06  6.56495967e-01  3.32253420e-06  6.58235117e-01  3.32253420e-06  1.80000000e+00  3.32253420e-06 -3.49557589e-03  3.32253420e-06  6.57268396e-01  3.32253420e-06  1.49964787e+00  3.32253420e-06  1.50719132e+00                                 
 4.52253420e-06  7.22107757e-01  4.52253420e-06  6.56525274e-01  4.52253420e-06  6.58343620e-01  4.52253420e-06  1.80000000e+00  4.52253420e-06  3.51221253e-03  4.52253420e-06  6.57511180e-01  4.52253420e-06  1.49992406e+00  4.52253420e-06  1.50715140e+00                                 
 5.72253420e-06  7.22101797e-01  5.72253420e-06  6.56495968e-01  5.72253420e-06  6.58234899e-01  5.72253420e-06  1.80000000e+00  5.72253420e-06 -3.49535175e-03  5.72253420e-06  6.57268400e-01  5.72253420e-06  1.49956948e+00  5.72253420e-06  1.50711303e+00                                 
 6.00100000e-06  7.22107807e-01  6.00100000e-06  6.56525273e-01  6.00100000e-06  6.58344146e-01  6.00100000e-06  1.80000000e+00  6.00100000e-06  3.51160803e-03  6.00100000e-06  6.57511171e-01  6.00100000e-06  1.49987567e+00  6.00100000e-06  1.50710310e+00                                 
 6.00110000e-06  7.22054924e-01  6.00110000e-06  6.56273024e-01  6.00110000e-06  6.56486475e-01  6.00110000e-06  1.62000000e+00  6.00110000e-06  2.12589005e-04  6.00110000e-06  6.55835171e-01  6.00110000e-06  1.49839385e+00  6.00110000e-06  1.50709236e+00                                 
 6.00130000e-06  7.22087755e-01  6.00130000e-06  6.56269655e-01  6.00130000e-06  6.56566592e-01  6.00130000e-06  1.26000000e+00  6.00130000e-06 -2.47126852e-04  6.00130000e-06  6.55590157e-01  6.00130000e-06  1.49817837e+00  6.00130000e-06  1.50710857e+00                                 
 6.00165526e-06  7.22152752e-01  6.00165526e-06  6.56467276e-01  6.00165526e-06  6.58565292e-01  6.00165526e-06  6.20531235e-01  6.00165526e-06  5.28564419e-03  6.00165526e-06  6.55917230e-01  6.00165526e-06  1.49515376e+00  6.00165526e-06  1.50708492e+00                                 
 6.00200000e-06  7.22089995e-01  6.00200000e-06  6.55043548e-01  6.00200000e-06  6.91010925e-01  6.00200000e-06  0.00000000e+00  6.00200000e-06  1.60251929e+00  6.00200000e-06  6.40896210e-01  6.00200000e-06  1.29973020e+00  6.00200000e-06  1.50650542e+00                                 
 6.00204119e-06  7.22105523e-01  6.00204119e-06  6.54565457e-01  6.00204119e-06  6.97849315e-01  6.00204119e-06  0.00000000e+00  6.00204119e-06  1.72319064e+00  6.00204119e-06  6.35469811e-01  6.00204119e-06  1.23703020e+00  6.00204119e-06  1.50651538e+00                                 
 6.00212357e-06  7.22106776e-01  6.00212357e-06  6.53730464e-01  6.00212357e-06  7.02859936e-01  6.00212357e-06  0.00000000e+00  6.00212357e-06  1.81326549e+00  6.00212357e-06  6.26224949e-01  6.00212357e-06  1.10799422e+00  6.00212357e-06  1.50689288e+00                                 
 6.00228834e-06  7.22102370e-01  6.00228834e-06  6.53615732e-01  6.00228834e-06  6.93722612e-01  6.00228834e-06  0.00000000e+00  6.00228834e-06  1.78946541e+00  6.00228834e-06  6.25731952e-01  6.00228834e-06  9.03864020e-01  6.00228834e-06  1.50736822e+00                                 
 6.00244719e-06  7.22104953e-01  6.00244719e-06  6.54306159e-01  6.00244719e-06  6.84871552e-01  6.00244719e-06  0.00000000e+00  6.00244719e-06  1.80381262e+00  6.00244719e-06  6.33544502e-01  6.00244719e-06  7.84778599e-01  6.00244719e-06  1.50735089e+00                                 
 6.00263005e-06  7.22101752e-01  6.00263005e-06  6.55208265e-01  6.00263005e-06  6.72623779e-01  6.00263005e-06  0.00000000e+00  6.00263005e-06  1.79686900e+00  6.00263005e-06  6.42529334e-01  6.00263005e-06  7.08795189e-01  6.00263005e-06  1.50755623e+00                                 
 6.00285486e-06  7.22104824e-01  6.00285486e-06  6.56200483e-01  6.00285486e-06  6.63601032e-01  6.00285486e-06  0.00000000e+00  6.00285486e-06  1.80189560e+00  6.00285486e-06  6.51942261e-01  6.00285486e-06  6.75106909e-01  6.00285486e-06  1.50726367e+00                                 
 6.00308613e-06  7.22102285e-01  6.00308613e-06  6.56634629e-01  6.00308613e-06  6.60569127e-01  6.00308613e-06  0.00000000e+00  6.00308613e-06  1.79884270e+00  6.00308613e-06  6.55180511e-01  6.00308613e-06  6.63547559e-01  6.00308613e-06  1.50665600e+00                                 
 6.00333024e-06  7.22105101e-01  6.00333024e-06  6.56908542e-01  6.00333024e-06  6.59264261e-01  6.00333024e-06  0.00000000e+00  6.00333024e-06  1.80083235e+00  6.00333024e-06  6.57466721e-01  6.00333024e-06  6.60737579e-01  6.00333024e-06  1.50560322e+00                                 
 6.00368690e-06  7.22103011e-01  6.00368690e-06  6.56972282e-01  6.00368690e-06  6.59695786e-01  6.00368690e-06  0.00000000e+00  6.00368690e-06  1.79940834e+00  6.00368690e-06  6.57883146e-01  6.00368690e-06  6.59331350e-01  6.00368690e-06  1.50389405e+00                                 
 6.00423836e-06  7.22105520e-01  6.00423836e-06  6.57001644e-01  6.00423836e-06  6.60597285e-01  6.00423836e-06  0.00000000e+00  6.00423836e-06  1.80052083e+00  6.00423836e-06  6.58654992e-01  6.00423836e-06  6.60688942e-01  6.00423836e-06  1.50083024e+00                                 
 6.00518841e-06  7.22103568e-01  6.00518841e-06  6.56902209e-01  6.00518841e-06  6.63448923e-01  6.00518841e-06  0.00000000e+00  6.00518841e-06  1.79955690e+00  6.00518841e-06  6.58456054e-01  6.00518841e-06  6.62815159e-01  6.00518841e-06  1.49522340e+00                                 
 6.00686075e-06  7.22105779e-01  6.00686075e-06  6.56811631e-01  6.00686075e-06  6.67967419e-01  6.00686075e-06  0.00000000e+00  6.00686075e-06  1.80044143e+00  6.00686075e-06  6.58843250e-01  6.00686075e-06  6.67950087e-01  6.00686075e-06  1.48468401e+00                                 
 6.01020542e-06  7.22103735e-01  6.01020542e-06  6.56596649e-01  6.01020542e-06  6.77926514e-01  6.01020542e-06  0.00000000e+00  6.01020542e-06  1.79959558e+00  6.01020542e-06  6.58333551e-01  6.01020542e-06  6.77239694e-01  6.01020542e-06  1.46279269e+00                                 
 6.01689478e-06  7.22105813e-01  6.01689478e-06  6.56498944e-01  6.01689478e-06  6.96525732e-01  6.01689478e-06  0.00000000e+00  6.01689478e-06  1.80042152e+00  6.01689478e-06  6.58309353e-01  6.01689478e-06  6.96497389e-01  6.01689478e-06  1.41741187e+00                                 
 6.03027348e-06  7.22103746e-01  6.03027348e-06  6.56486771e-01  6.03027348e-06  7.32746505e-01  6.03027348e-06  0.00000000e+00  6.03027348e-06  1.79960395e+00  6.03027348e-06  6.57521022e-01  6.03027348e-06  7.31947235e-01  6.03027348e-06  1.33100678e+00                                 
 6.04455821e-06  7.22105812e-01  6.04455821e-06  6.56519849e-01  6.04455821e-06  7.68263039e-01  6.04455821e-06  0.00000000e+00  6.04455821e-06  1.80041418e+00  6.04455821e-06  6.57659608e-01  6.04455821e-06  7.68279360e-01  6.04455821e-06  1.24825852e+00                                 
 6.07312767e-06  7.22103752e-01  6.07312767e-06  6.56497079e-01  6.07312767e-06  8.32789362e-01  6.07312767e-06  0.00000000e+00  6.07312767e-06  1.79960573e+00  6.07312767e-06  6.57216396e-01  6.07312767e-06  8.31554695e-01  6.07312767e-06  1.10339959e+00                                 
 6.11282002e-06  7.22105810e-01  6.11282002e-06  6.56524213e-01  6.11282002e-06  9.07119045e-01  6.11282002e-06  0.00000000e+00  6.11282002e-06  1.80040823e+00  6.11282002e-06  6.57547371e-01  6.11282002e-06  9.07373615e-01  6.11282002e-06  9.68900177e-01                                 
 6.18777564e-06  7.22103753e-01  6.18777564e-06  6.56497003e-01  6.18777564e-06  1.01107630e+00  6.18777564e-06  0.00000000e+00  6.18777564e-06  1.79960220e+00  6.18777564e-06  6.57214004e-01  6.18777564e-06  1.00866767e+00  6.18777564e-06  9.63288206e-01                                 
 6.23578022e-06  7.22105809e-01  6.23578022e-06  6.56524418e-01  6.23578022e-06  1.05651908e+00  6.23578022e-06  0.00000000e+00  6.23578022e-06  1.80040323e+00  6.23578022e-06  6.57556110e-01  6.23578022e-06  1.05749104e+00  6.23578022e-06  1.03749008e+00                                 
