 time            v(vbep)         time            v(vben)         time            v(vout)         time            v(vphi1)        time            v(vphi2)        time            v(vref)         yes             currtemp       
 0.00000000e+00  6.89117625e-01  0.00000000e+00  6.34225122e-01  0.00000000e+00  1.04700278e+00  0.00000000e+00  0.00000000e+00  0.00000000e+00  1.79995137e+00  0.00000000e+00  6.34225122e-01  1.00000000e+00  2.70000000e+01 
 5.00000000e-12  6.89088451e-01  5.00000000e-12  6.34200964e-01  5.00000000e-12  1.04773608e+00  5.00000000e-12  1.80000000e-02  5.00000000e-12  1.80007670e+00  5.00000000e-12  6.34200964e-01                                 
 1.00000000e-11  6.89060083e-01  1.00000000e-11  6.34177446e-01  1.00000000e-11  1.04840605e+00  1.00000000e-11  3.60000000e-02  1.00000000e-11  1.80015152e+00  1.00000000e-11  6.34177446e-01                                 
 2.00000000e-11  6.89003843e-01  2.00000000e-11  6.34130598e-01  2.00000000e-11  1.04964624e+00  2.00000000e-11  7.20000000e-02  2.00000000e-11  1.80023604e+00  2.00000000e-11  6.34130598e-01                                 
 4.00000000e-11  6.88892217e-01  4.00000000e-11  6.34037278e-01  4.00000000e-11  1.05166587e+00  4.00000000e-11  1.44000000e-01  4.00000000e-11  1.80023023e+00  4.00000000e-11  6.34037278e-01                                 
 8.00000000e-11  6.88670087e-01  8.00000000e-11  6.33851501e-01  8.00000000e-11  1.05441120e+00  8.00000000e-11  2.88000000e-01  8.00000000e-11  1.80013628e+00  8.00000000e-11  6.33851501e-01                                 
 1.60000000e-10  6.88230707e-01  1.60000000e-10  6.33483382e-01  1.60000000e-10  1.05678495e+00  1.60000000e-10  5.76000000e-01  1.60000000e-10  1.80002513e+00  1.60000000e-10  6.33483382e-01                                 
 3.20000000e-10  6.87370289e-01  3.20000000e-10  6.32760391e-01  3.20000000e-10  1.04878420e+00  3.20000000e-10  1.15200000e+00  3.20000000e-10  1.80028223e+00  3.20000000e-10  6.32760391e-01                                 
 5.00000000e-10  6.86430523e-01  5.00000000e-10  6.31967375e-01  5.00000000e-10  1.14630277e+00  5.00000000e-10  1.80000000e+00  5.00000000e-10  1.46202082e-01  5.00000000e-10  6.31967375e-01                                 
 5.21175083e-10  6.86322077e-01  5.21175083e-10  6.31875622e-01  5.21175083e-10  1.17129298e+00  5.21175083e-10  1.80000000e+00  5.21175083e-10  3.59304777e-02  5.21175083e-10  6.31875622e-01                                 
 5.63525248e-10  6.86105941e-01  5.63525248e-10  6.31692656e-01  5.63525248e-10  1.22107765e+00  5.63525248e-10  1.80000000e+00  5.63525248e-10 -1.36750190e-02  5.63525248e-10  6.31692656e-01                                 
 6.48225578e-10  6.85678239e-01  6.48225578e-10  6.31330063e-01  6.48225578e-10  1.31108659e+00  6.48225578e-10  1.80000000e+00  6.48225578e-10  1.16861352e-02  6.48225578e-10  6.31330063e-01                                 
 7.68300373e-10  6.85082094e-01  7.68300373e-10  6.30823501e-01  7.68300373e-10  1.42319258e+00  7.68300373e-10  1.80000000e+00  7.68300373e-10 -8.94351382e-03  7.68300373e-10  6.30823501e-01                                 
 9.49369592e-10  6.84204771e-01  9.49369592e-10  6.30075567e-01  9.49369592e-10  1.56111048e+00  9.49369592e-10  1.80000000e+00  9.49369592e-10  8.86313921e-03  9.49369592e-10  6.30075567e-01                                 
 1.31150803e-09  6.82522737e-01  1.31150803e-09  6.28633660e-01  1.31150803e-09  1.73646193e+00  1.31150803e-09  1.80000000e+00  1.31150803e-09 -7.78405874e-03  1.31150803e-09  6.28633660e-01                                 
 1.67262762e-09  6.80934856e-01  1.67262762e-09  6.27262844e-01  1.67262762e-09  1.81809522e+00  1.67262762e-09  1.80000000e+00  1.67262762e-09  7.68406869e-03  1.67262762e-09  6.27262844e-01                                 
 2.06598334e-09  6.79296662e-01  2.06598334e-09  6.25839053e-01  2.06598334e-09  1.85237109e+00  2.06598334e-09  1.80000000e+00  2.06598334e-09 -7.15154403e-03  2.06598334e-09  6.25839053e-01                                 
 2.42258749e-09  6.77886428e-01  2.42258749e-09  6.24605758e-01  2.42258749e-09  1.86324480e+00  2.42258749e-09  1.80000000e+00  2.42258749e-09  6.84170223e-03  2.42258749e-09  6.24605758e-01                                 
 2.94368708e-09  6.75939622e-01  2.94368708e-09  6.22892120e-01  2.94368708e-09  1.86685474e+00  2.94368708e-09  1.80000000e+00  2.94368708e-09 -6.53784397e-03  2.94368708e-09  6.22892120e-01                                 
 3.60686035e-09  6.73635531e-01  3.60686035e-09  6.20847799e-01  3.60686035e-09  1.86630789e+00  3.60686035e-09  1.80000000e+00  3.60686035e-09  6.37766991e-03  3.60686035e-09  6.20847799e-01                                 
 4.74206608e-09  6.70067396e-01  4.74206608e-09  6.17649527e-01  4.74206608e-09  1.86272105e+00  4.74206608e-09  1.80000000e+00  4.74206608e-09 -6.23950392e-03  4.74206608e-09  6.17649527e-01                                 
 6.51087966e-09  6.65255496e-01  6.51087966e-09  6.13277759e-01  6.51087966e-09  1.85839182e+00  6.51087966e-09  1.80000000e+00  6.51087966e-09  6.19480046e-03  6.51087966e-09  6.13277759e-01                                 
 1.00485068e-08  6.57500072e-01  1.00485068e-08  6.06108348e-01  1.00485068e-08  1.85069074e+00  1.00485068e-08  1.80000000e+00  1.00485068e-08 -6.13191018e-03  1.00485068e-08  6.06108348e-01                                 
 1.30667587e-08  6.52283155e-01  1.30667587e-08  6.01200220e-01  1.30667587e-08  1.84540885e+00  1.30667587e-08  1.80000000e+00  1.30667587e-08  6.11961619e-03  1.30667587e-08  6.01200220e-01                                 
 1.50409682e-08  6.49345839e-01  1.50409682e-08  5.98411203e-01  1.50409682e-08  1.84196056e+00  1.50409682e-08  1.80000000e+00  1.50409682e-08 -6.03406851e-03  1.50409682e-08  5.98411203e-01                                 
 1.64612978e-08  6.47411599e-01  1.64612978e-08  5.96565897e-01  1.64612978e-08  1.83998160e+00  1.64612978e-08  1.80000000e+00  1.64612978e-08  5.97347038e-03  1.64612978e-08  5.96565897e-01                                 
 1.82470785e-08  6.45155198e-01  1.82470785e-08  5.94405475e-01  1.82470785e-08  1.83696719e+00  1.82470785e-08  1.80000000e+00  1.82470785e-08 -5.88548831e-03  1.82470785e-08  5.94405475e-01                                 
 2.03755382e-08  6.42682321e-01  2.03755382e-08  5.92029102e-01  2.03755382e-08  1.83396814e+00  2.03755382e-08  1.80000000e+00  2.03755382e-08  5.85248322e-03  2.03755382e-08  5.92029102e-01                                 
 2.30945314e-08  6.39803619e-01  2.30945314e-08  5.89253179e-01  2.30945314e-08  1.82952868e+00  2.30945314e-08  1.80000000e+00  2.30945314e-08 -5.78894800e-03  2.30945314e-08  5.89253179e-01                                 
 2.67827024e-08  6.36288726e-01  2.67827024e-08  5.85854568e-01  2.67827024e-08  1.82421934e+00  2.67827024e-08  1.80000000e+00  2.67827024e-08  5.77908196e-03  2.67827024e-08  5.85854568e-01                                 
 3.13743534e-08  6.32362951e-01  3.13743534e-08  5.82057550e-01  3.13743534e-08  1.81746096e+00  3.13743534e-08  1.80000000e+00  3.13743534e-08 -5.73309094e-03  3.13743534e-08  5.82057550e-01                                 
 3.80856873e-08  6.27169365e-01  3.80856873e-08  5.77061024e-01  3.80856873e-08  1.80956175e+00  3.80856873e-08  1.80000000e+00  3.80856873e-08  5.73785931e-03  3.80856873e-08  5.77061024e-01                                 
 5.15083553e-08  6.18374881e-01  5.15083553e-08  5.68635805e-01  5.15083553e-08  1.79648953e+00  5.15083553e-08  1.80000000e+00  5.15083553e-08 -5.70731695e-03  5.15083553e-08  5.68635805e-01                                 
 6.44553041e-08  6.09909961e-01  6.44553041e-08  5.60808881e-01  6.44553041e-08  1.78139956e+00  6.44553041e-08  1.80000000e+00  6.44553041e-08  5.72055685e-03  6.44553041e-08  5.60808881e-01                                 
 7.89123774e-08  6.01586343e-01  7.89123774e-08  5.53181619e-01  7.89123774e-08  1.75220015e+00  7.89123774e-08  1.80000000e+00  7.89123774e-08 -5.69169756e-03  7.89123774e-08  5.53181619e-01                                 
 9.73042713e-08  5.92632705e-01  9.73042713e-08  5.45008337e-01  9.73042713e-08  1.71879919e+00  9.73042713e-08  1.80000000e+00  9.73042713e-08  5.70728453e-03  9.73042713e-08  5.45008337e-01                                 
 1.16547993e-07  5.84822514e-01  1.16547993e-07  5.37892855e-01  1.16547993e-07  1.68526753e+00  1.16547993e-07  1.80000000e+00  1.16547993e-07 -5.67963064e-03  1.16547993e-07  5.37892855e-01                                 
 1.40539149e-07  5.82754551e-01  1.40539149e-07  5.35261115e-01  1.40539149e-07  1.66368264e+00  1.40539149e-07  1.80000000e+00  1.40539149e-07  5.69862431e-03  1.40539149e-07  5.35261115e-01                                 
 1.70507181e-07  5.86065527e-01  1.70507181e-07  5.36796810e-01  1.70507181e-07  1.65260810e+00  1.70507181e-07  1.80000000e+00  1.70507181e-07 -5.67030375e-03  1.70507181e-07  5.36796810e-01                                 
 1.89074247e-07  5.84072684e-01  1.89074247e-07  5.34626070e-01  1.89074247e-07  1.63121079e+00  1.89074247e-07  1.80000000e+00  1.89074247e-07  5.68753684e-03  1.89074247e-07  5.34626070e-01                                 
 2.11262114e-07  5.77669003e-01  2.11262114e-07  5.28922068e-01  2.11262114e-07  1.60388169e+00  2.11262114e-07  1.80000000e+00  2.11262114e-07 -5.65991602e-03  2.11262114e-07  5.28922068e-01                                 
 2.35976308e-07  5.70954137e-01  2.35976308e-07  5.22978667e-01  2.35976308e-07  1.57202977e+00  2.35976308e-07  1.80000000e+00  2.35976308e-07  5.67805193e-03  2.35976308e-07  5.22978667e-01                                 
 2.62804410e-07  5.63889657e-01  2.62804410e-07  5.16786438e-01  2.62804410e-07  1.53968610e+00  2.62804410e-07  1.80000000e+00  2.62804410e-07 -5.65123841e-03  2.62804410e-07  5.16786438e-01                                 
 3.12200237e-07  5.51073484e-01  3.12200237e-07  5.05718839e-01  3.12200237e-07  1.47657288e+00  3.12200237e-07  1.80000000e+00  3.12200237e-07  5.67163920e-03  3.12200237e-07  5.05718839e-01                                 
 3.91249043e-07  5.28247601e-01  3.91249043e-07  4.86569231e-01  3.91249043e-07  1.37555706e+00  3.91249043e-07  1.80000000e+00  3.91249043e-07 -5.64773722e-03  3.91249043e-07  4.86569231e-01                                 
 4.98498352e-07  5.00023633e-01  4.98498352e-07  4.63299802e-01  4.98498352e-07  1.23693300e+00  4.98498352e-07  1.80000000e+00  4.98498352e-07  5.66935520e-03  4.98498352e-07  4.63299802e-01                                 
 6.07089126e-07  4.58112620e-01  6.07089126e-07  4.29558104e-01  6.07089126e-07  1.08605177e+00  6.07089126e-07  1.80000000e+00  6.07089126e-07 -5.64604656e-03  6.07089126e-07  4.29558104e-01                                 
 6.21156626e-07  4.55262214e-01  6.21156626e-07  4.27279477e-01  6.21156626e-07  1.06732927e+00  6.21156626e-07  1.80000000e+00  6.21156626e-07 -2.28959071e-06  6.21156626e-07  4.27279477e-01                                 
 6.49291627e-07  4.67440559e-01  6.49291627e-07  4.37033553e-01  6.49291627e-07  1.04943304e+00  6.49291627e-07  1.80000000e+00  6.49291627e-07  3.47929305e-06  6.49291627e-07  4.37033553e-01                                 
 7.05561628e-07  7.28163541e-01  7.05561628e-07  6.70841249e-01  7.05561628e-07  1.24278416e+00  7.05561628e-07  1.80000000e+00  7.05561628e-07  1.38862136e-05  7.05561628e-07  6.70841249e-01                                 
 7.58501191e-07  7.93003449e-01  7.58501191e-07  7.32616893e-01  7.58501191e-07  1.25434981e+00  7.58501191e-07  1.80000000e+00  7.58501191e-07 -8.40397484e-06  7.58501191e-07  7.32616893e-01                                 
 8.14654053e-07  8.07854670e-01  8.14654053e-07  7.44952048e-01  8.14654053e-07  1.20587009e+00  8.14654053e-07  1.80000000e+00  8.14654053e-07  9.20726677e-06  8.14654053e-07  7.44952048e-01                                 
 8.61400143e-07  8.08651550e-01  8.61400143e-07  7.45655933e-01  8.61400143e-07  1.16298322e+00  8.61400143e-07  1.80000000e+00  8.61400143e-07 -9.18719715e-06  8.61400143e-07  7.45655933e-01                                 
 9.11299556e-07  8.05406123e-01  9.11299556e-07  7.42968227e-01  9.11299556e-07  1.10305478e+00  9.11299556e-07  1.80000000e+00  9.11299556e-07  8.54520268e-06  9.11299556e-07  7.42968227e-01                                 
 9.20480490e-07  8.01298626e-01  9.20480490e-07  7.39619331e-01  9.20480490e-07  1.09190720e+00  9.20480490e-07  1.80000000e+00  9.20480490e-07 -8.64745697e-07  9.20480490e-07  7.39619331e-01                                 
 9.38842357e-07  7.88382523e-01  9.38842357e-07  7.28625776e-01  9.38842357e-07  1.06112525e+00  9.38842357e-07  1.80000000e+00  9.38842357e-07 -2.35345211e-06  9.38842357e-07  7.28625776e-01                                 
 9.69759045e-07  7.68648665e-01  9.69759045e-07  7.10798842e-01  9.69759045e-07  1.00998524e+00  9.69759045e-07  1.80000000e+00  9.69759045e-07 -6.65634490e-07  9.69759045e-07  7.10798842e-01                                 
 1.00195706e-06  7.68805654e-01  1.00195706e-06  7.10925765e-01  1.00195706e-06  9.79553104e-01  1.00195706e-06  1.80000000e+00  1.00195706e-06  6.20265669e-07  1.00195706e-06  7.10925765e-01                                 
 1.05812994e-06  7.85541655e-01  1.05812994e-06  7.26047634e-01  1.05812994e-06  9.46360831e-01  1.05812994e-06  1.80000000e+00  1.05812994e-06  7.16241167e-07  1.05812994e-06  7.26047634e-01                                 
 1.11708981e-06  7.92996010e-01  1.11708981e-06  7.32574440e-01  1.11708981e-06  9.08508737e-01  1.11708981e-06  1.80000000e+00  1.11708981e-06 -1.19806287e-08  1.11708981e-06  7.32574440e-01                                 
 1.19060687e-06  7.82074267e-01  1.19060687e-06  7.23005082e-01  1.19060687e-06  8.50575473e-01  1.19060687e-06  1.80000000e+00  1.19060687e-06 -3.36673966e-07  1.19060687e-06  7.23005082e-01                                 
 1.27695843e-06  7.80205736e-01  1.27695843e-06  7.21319075e-01  1.27695843e-06  7.99772446e-01  1.27695843e-06  1.80000000e+00  1.27695843e-06  6.32936328e-07  1.27695843e-06  7.21319075e-01                                 
 1.36759202e-06  7.90634073e-01  1.36759202e-06  7.30519501e-01  1.36759202e-06  7.70432851e-01  1.36759202e-06  1.80000000e+00  1.36759202e-06  3.74787088e-07  1.36759202e-06  7.30519501e-01                                 
 1.48537070e-06  7.81791678e-01  1.48537070e-06  7.22761023e-01  1.48537070e-06  7.33537368e-01  1.48537070e-06  1.80000000e+00  1.48537070e-06 -6.69568162e-09  1.48537070e-06  7.22761023e-01                                 
 1.61021683e-06  7.83742282e-01  1.61021683e-06  7.24462863e-01  1.61021683e-06  7.20774058e-01  1.61021683e-06  1.80000000e+00  1.61021683e-06  8.42202133e-07  1.61021683e-06  7.24462863e-01                                 
 1.75707662e-06  7.88299252e-01  1.75707662e-06  7.28507116e-01  1.75707662e-06  7.16692661e-01  1.75707662e-06  1.80000000e+00  1.75707662e-06  1.01122851e-07  1.75707662e-06  7.28507116e-01                                 
 1.90905230e-06  7.80726524e-01  1.90905230e-06  7.21783631e-01  1.90905230e-06  7.19779886e-01  1.90905230e-06  1.80000000e+00  1.90905230e-06  5.93521277e-07  1.90905230e-06  7.21783631e-01                                 
 2.07446668e-06  7.87817141e-01  2.07446668e-06  7.28075474e-01  2.07446668e-06  7.32388282e-01  2.07446668e-06  1.80000000e+00  2.07446668e-06  4.58641943e-07  2.07446668e-06  7.28075474e-01                                 
 2.24579385e-06  7.83289293e-01  2.24579385e-06  7.24078149e-01  2.24579385e-06  7.20744159e-01  2.24579385e-06  1.80000000e+00  2.24579385e-06  2.55090277e-07  2.24579385e-06  7.24078149e-01                                 
 2.42838101e-06  7.84869833e-01  2.42838101e-06  7.25478467e-01  2.42838101e-06  7.26398620e-01  2.42838101e-06  1.80000000e+00  2.42838101e-06  6.49831355e-07  2.42838101e-06  7.25478467e-01                                 
 2.61515407e-06  7.86144657e-01  2.61515407e-06  7.26603765e-01  2.61515407e-06  7.27016645e-01  2.61515407e-06  1.80000000e+00  2.61515407e-06  2.27344535e-07  2.61515407e-06  7.26603765e-01                                 
 2.86193677e-06  7.83043131e-01  2.86193677e-06  7.23860902e-01  2.86193677e-06  7.23415855e-01  2.86193677e-06  1.80000000e+00  2.86193677e-06  5.72008741e-07  2.86193677e-06  7.23860902e-01                                 
 3.24503196e-06  7.86841762e-01  3.24503196e-06  7.27214324e-01  3.24503196e-06  7.27911621e-01  3.24503196e-06  1.80000000e+00  3.24503196e-06  3.22601276e-07  3.24503196e-06  7.27214324e-01                                 
 3.72791285e-06  7.82831875e-01  3.72791285e-06  7.23675070e-01  3.72791285e-06  7.23221740e-01  3.72791285e-06  1.80000000e+00  3.72791285e-06  4.94475040e-07  3.72791285e-06  7.23675070e-01                                 
 4.38616473e-06  7.86829867e-01  4.38616473e-06  7.27202327e-01  4.38616473e-06  7.27841576e-01  4.38616473e-06  1.80000000e+00  4.38616473e-06  3.83726598e-07  4.38616473e-06  7.27202327e-01                                 
 5.24234869e-06  7.82931530e-01  5.24234869e-06  7.23764947e-01  5.24234869e-06  7.23371761e-01  5.24234869e-06  1.80000000e+00  5.24234869e-06  4.49364072e-07  5.24234869e-06  7.23764947e-01                                 
 6.24234869e-06  7.86707770e-01  6.24234869e-06  7.27094164e-01  6.24234869e-06  7.27673304e-01  6.24234869e-06  1.80000000e+00  6.24234869e-06  4.19039742e-07  6.24234869e-06  7.27094164e-01                                 
 7.24234869e-06  7.83093138e-01  7.24234869e-06  7.23909505e-01  7.24234869e-06  7.23573289e-01  7.24234869e-06  1.80000000e+00  7.24234869e-06  4.18065504e-07  7.24234869e-06  7.23909505e-01                                 
 8.24234869e-06  7.86528936e-01  8.24234869e-06  7.26936202e-01  8.24234869e-06  7.27453123e-01  8.24234869e-06  1.80000000e+00  8.24234869e-06  4.48866198e-07  8.24234869e-06  7.26936202e-01                                 
 9.24234869e-06  7.83318996e-01  9.24234869e-06  7.24111971e-01  9.24234869e-06  7.23833007e-01  9.24234869e-06  1.80000000e+00  9.24234869e-06  3.89979142e-07  9.24234869e-06  7.24111971e-01                                 
 1.00005000e-05  7.86259605e-01  1.00005000e-05  7.26699053e-01  1.00005000e-05  7.27142734e-01  1.00005000e-05  1.80000000e+00  1.00005000e-05  4.78793022e-07  1.00005000e-05  7.26699053e-01                                 
 1.00005500e-05  7.86266835e-01  1.00005500e-05  7.26705526e-01  1.00005500e-05  7.20121141e-01  1.00005500e-05  1.62000000e+00  1.00005500e-05 -1.15189707e-04  1.00005500e-05  7.26705526e-01                                 
 1.00006500e-05  7.86280695e-01  1.00006500e-05  7.26717852e-01  1.00006500e-05  7.09831496e-01  1.00006500e-05  1.26000000e+00  1.00006500e-05 -6.53927388e-05  1.00006500e-05  7.26717852e-01                                 
 1.00008500e-05  7.86304371e-01  1.00008500e-05  7.26738978e-01  1.00008500e-05  7.06581156e-01  1.00008500e-05  5.40000000e-01  1.00008500e-05 -2.38769373e-03  1.00008500e-05  7.26738978e-01                                 
 1.00010000e-05  7.86319008e-01  1.00010000e-05  7.26752186e-01  1.00010000e-05  7.31207124e-01  1.00010000e-05  0.00000000e+00  1.00010000e-05  1.50444868e+00  1.00010000e-05  7.26752186e-01                                 
 1.00010261e-05  7.86321316e-01  1.00010261e-05  7.26754266e-01  1.00010261e-05  7.45897226e-01  1.00010261e-05  0.00000000e+00  1.00010261e-05  1.69001615e+00  1.00010261e-05  7.26754266e-01                                 
 1.00010782e-05  7.86325776e-01  1.00010782e-05  7.26758310e-01  1.00010782e-05  7.76148840e-01  1.00010782e-05  0.00000000e+00  1.00010782e-05  1.82454164e+00  1.00010782e-05  7.26758310e-01                                 
