 time            v(vbep)         time            v(vben)         time            v(vout)         time            v(vphi1)        time            v(vphi2)        time            v(vref)         time            v(voutc)        time            v(voutcc)       yes             currtemp       
 0.00000000e+00  7.64615683e-01  0.00000000e+00  7.05030493e-01  0.00000000e+00  1.58623710e+00  0.00000000e+00  0.00000000e+00  0.00000000e+00  1.80000000e+00  0.00000000e+00  7.07278014e-01  0.00000000e+00  1.58623709e+00  0.00000000e+00  1.59276932e+00  1.00000000e+00  3.30000000e+01 
 1.00000000e-11  7.64640672e-01  1.00000000e-11  7.05101697e-01  1.00000000e-11  1.58702133e+00  1.00000000e-11  1.80000000e-02  1.00000000e-11  1.80025090e+00  1.00000000e-11  7.07808606e-01  1.00000000e-11  1.58670675e+00  1.00000000e-11  1.59278361e+00                                 
 2.00000000e-11  7.64647509e-01  2.00000000e-11  7.05146395e-01  2.00000000e-11  1.58750721e+00  2.00000000e-11  3.60000000e-02  2.00000000e-11  1.80035087e+00  2.00000000e-11  7.08203082e-01  2.00000000e-11  1.58706325e+00  2.00000000e-11  1.59278914e+00                                 
 4.00000000e-11  7.64647424e-01  4.00000000e-11  7.05205348e-01  4.00000000e-11  1.58809765e+00  4.00000000e-11  7.20000000e-02  4.00000000e-11  1.80038987e+00  4.00000000e-11  7.08780244e-01  4.00000000e-11  1.58759626e+00  4.00000000e-11  1.59279130e+00                                 
 8.00000000e-11  7.64635517e-01  8.00000000e-11  7.05243331e-01  8.00000000e-11  1.58823341e+00  8.00000000e-11  1.44000000e-01  8.00000000e-11  1.80018680e+00  8.00000000e-11  7.09226692e-01  8.00000000e-11  1.58803573e+00  8.00000000e-11  1.59278073e+00                                 
 1.60000000e-10  7.64632571e-01  1.60000000e-10  7.05253886e-01  1.60000000e-10  1.58790398e+00  1.60000000e-10  2.88000000e-01  1.60000000e-10  1.80000406e+00  1.60000000e-10  7.09293600e-01  1.60000000e-10  1.58809452e+00  1.60000000e-10  1.59277093e+00                                 
 3.20000000e-10  7.64628854e-01  3.20000000e-10  7.05254035e-01  3.20000000e-10  1.58754317e+00  3.20000000e-10  5.76000000e-01  3.20000000e-10  1.79999306e+00  3.20000000e-10  7.09164881e-01  3.20000000e-10  1.58781908e+00  3.20000000e-10  1.59276706e+00                                 
 6.40000000e-10  7.64546888e-01  6.40000000e-10  7.04896361e-01  6.40000000e-10  1.58502401e+00  6.40000000e-10  1.15200000e+00  6.40000000e-10  1.81192294e+00  6.40000000e-10  7.07183018e-01  6.40000000e-10  1.59267955e+00  6.40000000e-10  1.59279594e+00                                 
 1.00000000e-09  7.65181321e-01  1.00000000e-09  7.05118894e-01  1.00000000e-09  1.55923781e+00  1.00000000e-09  1.80000000e+00  1.00000000e-09  9.06472820e-02  1.00000000e-09  7.17031338e-01  1.00000000e-09  1.59139945e+00  1.00000000e-09  1.59274789e+00                                 
 1.03634494e-09  7.65206081e-01  1.03634494e-09  7.05158751e-01  1.03634494e-09  1.55845268e+00  1.03634494e-09  1.80000000e+00  1.03634494e-09  2.00522706e-02  1.03634494e-09  7.19876895e-01  1.03634494e-09  1.59294102e+00  1.03634494e-09  1.59278887e+00                                 
 1.10903483e-09  7.65291063e-01  1.10903483e-09  7.05230869e-01  1.10903483e-09  1.55806546e+00  1.10903483e-09  1.80000000e+00  1.10903483e-09 -9.62297539e-03  1.10903483e-09  7.23565036e-01  1.10903483e-09  1.59581148e+00  1.10903483e-09  1.59281814e+00                                 
 1.25441461e-09  7.65407030e-01  1.25441461e-09  7.05104014e-01  1.25441461e-09  1.55624752e+00  1.25441461e-09  1.80000000e+00  1.25441461e-09  8.17851404e-03  1.25441461e-09  7.23806632e-01  1.25441461e-09  1.59626258e+00  1.25441461e-09  1.59277202e+00                                 
 1.47382495e-09  7.65406846e-01  1.47382495e-09  7.05077952e-01  1.47382495e-09  1.55513476e+00  1.47382495e-09  1.80000000e+00  1.47382495e-09 -6.40081293e-03  1.47382495e-09  7.23357533e-01  1.47382495e-09  1.59567582e+00  1.47382495e-09  1.59280417e+00                                 
 1.70800023e-09  7.65316089e-01  1.70800023e-09  7.05072531e-01  1.70800023e-09  1.55503279e+00  1.70800023e-09  1.80000000e+00  1.70800023e-09  5.55319166e-03  1.70800023e-09  7.22108370e-01  1.70800023e-09  1.59478964e+00  1.70800023e-09  1.59280613e+00                                 
 2.10344055e-09  7.65054376e-01  2.10344055e-09  7.05027772e-01  2.10344055e-09  1.55545186e+00  2.10344055e-09  1.80000000e+00  2.10344055e-09 -5.07272112e-03  2.10344055e-09  7.20048694e-01  2.10344055e-09  1.59287599e+00  2.10344055e-09  1.59288170e+00                                 
 2.47068189e-09  7.64868624e-01  2.47068189e-09  7.05034710e-01  2.47068189e-09  1.55612320e+00  2.47068189e-09  1.80000000e+00  2.47068189e-09  4.49427154e-03  2.47068189e-09  7.18450878e-01  2.47068189e-09  1.59165662e+00  2.47068189e-09  1.59293616e+00                                 
 3.13313833e-09  7.64645700e-01  3.13313833e-09  7.04993507e-01  3.13313833e-09  1.55611606e+00  3.13313833e-09  1.80000000e+00  3.13313833e-09 -4.33425294e-03  3.13313833e-09  7.15495499e-01  3.13313833e-09  1.58900174e+00  3.13313833e-09  1.59305944e+00                                 
 4.08899500e-09  7.64535453e-01  4.08899500e-09  7.05012631e-01  4.08899500e-09  1.55573378e+00  4.08899500e-09  1.80000000e+00  4.08899500e-09  4.08311378e-03  4.08899500e-09  7.12487337e-01  4.08899500e-09  1.58656442e+00  4.08899500e-09  1.59317946e+00                                 
 6.00070835e-09  7.64457409e-01  6.00070835e-09  7.04995292e-01  6.00070835e-09  1.55350908e+00  6.00070835e-09  1.80000000e+00  6.00070835e-09 -4.06592589e-03  6.00070835e-09  7.08277541e-01  6.00070835e-09  1.58285526e+00  6.00070835e-09  1.59326252e+00                                 
 7.67392215e-09  7.64451649e-01  7.67392215e-09  7.05031795e-01  7.67392215e-09  1.55191734e+00  7.67392215e-09  1.80000000e+00  7.67392215e-09  3.94793911e-03  7.67392215e-09  7.06811410e-01  7.67392215e-09  1.58173081e+00  7.67392215e-09  1.59315655e+00                                 
 9.20156691e-09  7.64467188e-01  9.20156691e-09  7.05010449e-01  9.20156691e-09  1.54886239e+00  9.20156691e-09  1.80000000e+00  9.20156691e-09 -3.86754659e-03  9.20156691e-09  7.05880528e-01  9.20156691e-09  1.58081782e+00  9.20156691e-09  1.59298480e+00                                 
 1.08717519e-08  7.64508918e-01  1.08717519e-08  7.05039953e-01  1.08717519e-08  1.54481216e+00  1.08717519e-08  1.80000000e+00  1.08717519e-08  3.77715270e-03  1.08717519e-08  7.05756848e-01  1.08717519e-08  1.58082544e+00  1.08717519e-08  1.59274449e+00                                 
 1.31368577e-08  7.64548870e-01  1.31368577e-08  7.05015391e-01  1.31368577e-08  1.53696415e+00  1.31368577e-08  1.80000000e+00  1.31368577e-08 -3.71815225e-03  1.31368577e-08  7.05446698e-01  1.31368577e-08  1.58043632e+00  1.31368577e-08  1.59240793e+00                                 
 1.59507539e-08  7.64594401e-01  1.59507539e-08  7.05043094e-01  1.59507539e-08  1.52609017e+00  1.59507539e-08  1.80000000e+00  1.59507539e-08  3.67144588e-03  1.59507539e-08  7.05786901e-01  1.59507539e-08  1.58082407e+00  1.59507539e-08  1.59199463e+00                                 
 1.97494658e-08  7.64614231e-01  1.97494658e-08  7.05017340e-01  1.97494658e-08  1.50929003e+00  1.97494658e-08  1.80000000e+00  1.97494658e-08 -3.63362310e-03  1.97494658e-08  7.05826141e-01  1.97494658e-08  1.58072415e+00  1.97494658e-08  1.59150092e+00                                 
 2.49235771e-08  7.64628730e-01  2.49235771e-08  7.05044179e-01  2.49235771e-08  1.48599494e+00  2.49235771e-08  1.80000000e+00  2.49235771e-08  3.61126204e-03  2.49235771e-08  7.06377018e-01  2.49235771e-08  1.58128098e+00  2.49235771e-08  1.59093329e+00                                 
 3.33375653e-08  7.64621160e-01  3.33375653e-08  7.05017571e-01  3.33375653e-08  1.44678658e+00  3.33375653e-08  1.80000000e+00  3.33375653e-08 -3.59248024e-03  3.33375653e-08  7.06537188e-01  3.33375653e-08  1.58127971e+00  3.33375653e-08  1.59024149e+00                                 
 4.67661688e-08  7.64622487e-01  4.67661688e-08  7.05043879e-01  4.67661688e-08  1.38461363e+00  4.67661688e-08  1.80000000e+00  4.67661688e-08  3.58572172e-03  4.67661688e-08  7.07102467e-01  4.67661688e-08  1.58184866e+00  4.67661688e-08  1.58952478e+00                                 
 7.36233759e-08  7.64613688e-01  7.36233759e-08  7.05017235e-01  7.36233759e-08  1.25974571e+00  7.36233759e-08  1.80000000e+00  7.36233759e-08 -3.57791868e-03  7.36233759e-08  7.07124257e-01  7.36233759e-08  1.58173961e+00  7.36233759e-08  1.58884409e+00                                 
 1.14474320e-07  7.64618517e-01  1.14474320e-07  7.05043746e-01  1.14474320e-07  1.07222112e+00  1.14474320e-07  1.80000000e+00  1.14474320e-07  3.57795315e-03  1.14474320e-07  7.07392352e-01  1.14474320e-07  1.58207220e+00  1.14474320e-07  1.58854073e+00                                 
 1.72212628e-07  7.64612668e-01  1.72212628e-07  7.05017204e-01  1.72212628e-07  8.27280523e-01  1.72212628e-07  1.80000000e+00  1.72212628e-07 -3.57093398e-03  1.72212628e-07  7.07163269e-01  1.72212628e-07  1.58176277e+00  1.72212628e-07  1.58846449e+00                                 
 2.26126176e-07  7.64619951e-01  2.26126176e-07  7.05043833e-01  2.26126176e-07  7.12549189e-01  2.26126176e-07  1.80000000e+00  2.26126176e-07  3.57813159e-03  2.26126176e-07  7.07392449e-01  2.26126176e-07  1.58206581e+00  2.26126176e-07  1.58845297e+00                                 
 2.76050614e-07  7.64610286e-01  2.76050614e-07  7.05017147e-01  2.76050614e-07  7.08799875e-01  2.76050614e-07  1.80000000e+00  2.76050614e-07 -3.56329009e-03  2.76050614e-07  7.07167470e-01  2.76050614e-07  1.58176225e+00  2.76050614e-07  1.58845423e+00                                 
 3.00789915e-07  7.64620610e-01  3.00789915e-07  7.05043711e-01  3.00789915e-07  7.09738891e-01  3.00789915e-07  1.80000000e+00  3.00789915e-07  3.57066710e-03  3.00789915e-07  7.07388633e-01  3.00789915e-07  1.58205975e+00  3.00789915e-07  1.58845025e+00                                 
 3.35526022e-07  7.64611089e-01  3.35526022e-07  7.05017312e-01  3.35526022e-07  7.09338909e-01  3.35526022e-07  1.80000000e+00  3.35526022e-07 -3.55468963e-03  3.35526022e-07  7.07166737e-01  3.35526022e-07  1.58175954e+00  3.35526022e-07  1.58845050e+00                                 
 4.04998235e-07  7.64620159e-01  4.04998235e-07  7.05043653e-01  4.04998235e-07  7.09788333e-01  4.04998235e-07  1.80000000e+00  4.04998235e-07  3.56525872e-03  4.04998235e-07  7.07389413e-01  4.04998235e-07  1.58205651e+00  4.04998235e-07  1.58844569e+00                                 
 5.43942661e-07  7.64611261e-01  5.43942661e-07  7.05017327e-01  5.43942661e-07  7.09353050e-01  5.43942661e-07  1.80000000e+00  5.43942661e-07 -3.55199048e-03  5.43942661e-07  7.07166498e-01  5.43942661e-07  1.58175179e+00  5.43942661e-07  1.58844276e+00                                 
 8.21831514e-07  7.64620078e-01  8.21831514e-07  7.05043647e-01  8.21831514e-07  7.09781768e-01  8.21831514e-07  1.80000000e+00  8.21831514e-07  3.56390891e-03  8.21831514e-07  7.07389522e-01  8.21831514e-07  1.58204140e+00  8.21831514e-07  1.58843053e+00                                 
 1.37760922e-06  7.64611300e-01  1.37760922e-06  7.05017329e-01  1.37760922e-06  7.09356225e-01  1.37760922e-06  1.80000000e+00  1.37760922e-06 -3.55132052e-03  1.37760922e-06  7.07166446e-01  1.37760922e-06  1.58172138e+00  1.37760922e-06  1.58841244e+00                                 
 2.48916463e-06  7.64620059e-01  2.48916463e-06  7.05043647e-01  2.48916463e-06  7.09780215e-01  2.48916463e-06  1.80000000e+00  2.48916463e-06  3.56357151e-03  2.48916463e-06  7.07389548e-01  2.48916463e-06  1.58198065e+00  2.48916463e-06  1.58836984e+00                                 
 3.68916463e-06  7.64611313e-01  3.68916463e-06  7.05017330e-01  3.68916463e-06  7.09357236e-01  3.68916463e-06  1.80000000e+00  3.68916463e-06 -3.55112911e-03  3.68916463e-06  7.07166431e-01  3.68916463e-06  1.58163715e+00  3.68916463e-06  1.58832834e+00                                 
 4.88916463e-06  7.64620047e-01  4.88916463e-06  7.05043646e-01  4.88916463e-06  7.09779290e-01  4.88916463e-06  1.80000000e+00  4.88916463e-06  3.56336480e-03  4.88916463e-06  7.07389563e-01  4.88916463e-06  1.58189324e+00  4.88916463e-06  1.58828255e+00                                 
 6.00100000e-06  7.64611325e-01  6.00100000e-06  7.05017331e-01  6.00100000e-06  7.09358218e-01  6.00100000e-06  1.80000000e+00  6.00100000e-06 -3.55091585e-03  6.00100000e-06  7.07166415e-01  6.00100000e-06  1.58155288e+00  6.00100000e-06  1.58824421e+00                                 
 6.00110000e-06  7.64571066e-01  6.00110000e-06  7.04789353e-01  6.00110000e-06  7.07611830e-01  6.00110000e-06  1.62000000e+00  6.00110000e-06 -3.82221093e-04  6.00110000e-06  7.05646496e-01  6.00110000e-06  1.58030716e+00  6.00110000e-06  1.58823280e+00                                 
 6.00130000e-06  7.64604361e-01  6.00130000e-06  7.04799262e-01  6.00130000e-06  7.07947810e-01  6.00130000e-06  1.26000000e+00  6.00130000e-06  2.58181213e-04  6.00130000e-06  7.05583859e-01  6.00130000e-06  1.58026374e+00  6.00130000e-06  1.58824804e+00                                 
 6.00170000e-06  7.64659782e-01  6.00170000e-06  7.04340197e-01  6.00170000e-06  7.25883702e-01  6.00170000e-06  5.40000000e-01  6.00170000e-06  1.51704685e+00  6.00170000e-06  6.98758538e-01  6.00170000e-06  1.49396504e+00  6.00170000e-06  1.58792225e+00                                 
 6.00200000e-06  7.64599550e-01  6.00200000e-06  7.02021300e-01  6.00200000e-06  7.54864114e-01  6.00200000e-06  0.00000000e+00  6.00200000e-06  1.87329421e+00  6.00200000e-06  6.74283078e-01  6.00200000e-06  1.16121678e+00  6.00200000e-06  1.58782722e+00                                 
 6.00203653e-06  7.64611963e-01  6.00203653e-06  7.02081528e-01  6.00203653e-06  7.49478117e-01  6.00203653e-06  0.00000000e+00  6.00203653e-06  1.82854020e+00  6.00203653e-06  6.75230447e-01  6.00203653e-06  1.11745500e+00  6.00203653e-06  1.58817224e+00                                 
 6.00210958e-06  7.64618021e-01  6.00210958e-06  7.02319589e-01  6.00210958e-06  7.41612576e-01  6.00210958e-06  0.00000000e+00  6.00210958e-06  1.79234476e+00  6.00210958e-06  6.78506736e-01  6.00210958e-06  1.04364332e+00  6.00210958e-06  1.58846083e+00                                 
 6.00225570e-06  7.64613828e-01  6.00225570e-06  7.02638366e-01  6.00225570e-06  7.37762372e-01  6.00225570e-06  0.00000000e+00  6.00225570e-06  1.80228100e+00  6.00225570e-06  6.82431464e-01  6.00225570e-06  9.29399809e-01  6.00225570e-06  1.58839182e+00                                 
 6.00246383e-06  7.64615281e-01  6.00246383e-06  7.03221617e-01  6.00246383e-06  7.29699559e-01  6.00246383e-06  0.00000000e+00  6.00246383e-06  1.79744765e+00  6.00246383e-06  6.88110701e-01  6.00246383e-06  8.12198763e-01  6.00246383e-06  1.58852480e+00                                 
 6.00268230e-06  7.64613712e-01  6.00268230e-06  7.04176181e-01  6.00268230e-06  7.19549180e-01  6.00268230e-06  0.00000000e+00  6.00268230e-06  1.80092750e+00  6.00268230e-06  6.97325993e-01  6.00268230e-06  7.50148247e-01  6.00268230e-06  1.58848738e+00                                 
 6.00292396e-06  7.64614934e-01  6.00292396e-06  7.04858601e-01  6.00292396e-06  7.13888603e-01  6.00292396e-06  0.00000000e+00  6.00292396e-06  1.79933781e+00  6.00292396e-06  7.02831593e-01  6.00292396e-06  7.22871024e-01  6.00292396e-06  1.58835249e+00                                 
 6.00320478e-06  7.64614292e-01  6.00320478e-06  7.05334822e-01  6.00320478e-06  7.10790338e-01  6.00320478e-06  0.00000000e+00  6.00320478e-06  1.80046707e+00  6.00320478e-06  7.06407761e-01  6.00320478e-06  7.13811539e-01  6.00320478e-06  1.58781734e+00                                 
 6.00350828e-06  7.64615303e-01  6.00350828e-06  7.05500293e-01  6.00350828e-06  7.10646711e-01  6.00350828e-06  0.00000000e+00  6.00350828e-06  1.79973923e+00  6.00350828e-06  7.07358542e-01  6.00350828e-06  7.10924147e-01  6.00350828e-06  1.58704229e+00                                 
 6.00394815e-06  7.64614909e-01  6.00394815e-06  7.05579998e-01  6.00394815e-06  7.10626375e-01  6.00394815e-06  0.00000000e+00  6.00394815e-06  1.80020998e+00  6.00394815e-06  7.08195170e-01  6.00394815e-06  7.10829260e-01  6.00394815e-06  1.58560518e+00                                 
 6.00463718e-06  7.64615771e-01  6.00463718e-06  7.05522555e-01  6.00463718e-06  7.12343644e-01  6.00463718e-06  0.00000000e+00  6.00463718e-06  1.79985642e+00  6.00463718e-06  7.08265663e-01  6.00463718e-06  7.11795015e-01  6.00463718e-06  1.58311320e+00                                 
 6.00588936e-06  7.64615320e-01  6.00588936e-06  7.05428393e-01  6.00588936e-06  7.14801507e-01  6.00588936e-06  0.00000000e+00  6.00588936e-06  1.80014428e+00  6.00588936e-06  7.08597307e-01  6.00588936e-06  7.14772063e-01  6.00588936e-06  1.57814145e+00                                 
 6.00836420e-06  7.64615956e-01  6.00836420e-06  7.05242731e-01  6.00836420e-06  7.21169962e-01  6.00836420e-06  0.00000000e+00  6.00836420e-06  1.79988663e+00  6.00836420e-06  7.08432310e-01  6.00836420e-06  7.20534982e-01  6.00836420e-06  1.56788778e+00                                 
 6.01331390e-06  7.64615390e-01  6.01331390e-06  7.05061781e-01  6.01331390e-06  7.32943545e-01  6.01331390e-06  0.00000000e+00  6.01331390e-06  1.80012885e+00  6.01331390e-06  7.08347064e-01  6.01331390e-06  7.32867371e-01  6.01331390e-06  1.54718679e+00                                 
 6.02321329e-06  7.64615971e-01  6.02321329e-06  7.04992896e-01  6.02321329e-06  7.56778984e-01  6.02321329e-06  0.00000000e+00  6.02321329e-06  1.79989308e+00  6.02321329e-06  7.07770905e-01  6.02321329e-06  7.56056333e-01  6.02321329e-06  1.50736043e+00                                 
 6.04301206e-06  7.64615392e-01  6.04301206e-06  7.05038936e-01  6.04301206e-06  8.00033573e-01  6.04301206e-06  0.00000000e+00  6.04301206e-06  1.80012408e+00  6.04301206e-06  7.07511592e-01  6.04301206e-06  7.99987791e-01  6.04301206e-06  1.43385034e+00                                 
 6.08260962e-06  7.64615973e-01  6.08260962e-06  7.05018859e-01  6.08260962e-06  8.75665688e-01  6.08260962e-06  0.00000000e+00  6.08260962e-06  1.79989195e+00  6.08260962e-06  7.07179240e-01  6.08260962e-06  8.74229426e-01  6.08260962e-06  1.30503066e+00                                 
 6.16180473e-06  7.64615393e-01  6.16180473e-06  7.05041748e-01  6.16180473e-06  9.87054271e-01  6.16180473e-06  0.00000000e+00  6.16180473e-06  1.80011847e+00  6.16180473e-06  7.07353067e-01  6.16180473e-06  9.87600266e-01  6.16180473e-06  1.09873738e+00                                 
 6.25181221e-06  7.64615972e-01  6.25181221e-06  7.05019650e-01  6.25181221e-06  1.06811523e+00  6.25181221e-06  0.00000000e+00  6.25181221e-06  1.79988752e+00  6.25181221e-06  7.07190516e-01  6.25181221e-06  1.06609349e+00  6.25181221e-06  1.03967423e+00                                 
 6.34313506e-06  7.64615393e-01  6.34313506e-06  7.05041004e-01  6.34313506e-06  1.11729461e+00  6.34313506e-06  0.00000000e+00  6.34313506e-06  1.80011533e+00  6.34313506e-06  7.07358335e-01  6.34313506e-06  1.11818228e+00  6.34313506e-06  1.10751661e+00                                 
 6.42543485e-06  7.64615972e-01  6.42543485e-06  7.05020318e-01  6.42543485e-06  1.14514077e+00  6.42543485e-06  0.00000000e+00  6.42543485e-06  1.79988653e+00  6.42543485e-06  7.07191552e-01  6.42543485e-06  1.14396565e+00  6.42543485e-06  1.14083752e+00                                 
 6.51698773e-06  7.64615393e-01  6.51698773e-06  7.05040427e-01  6.51698773e-06  1.16373259e+00  6.51698773e-06  0.00000000e+00  6.51698773e-06  1.80011418e+00  6.51698773e-06  7.07362541e-01  6.51698773e-06  1.16457106e+00  6.51698773e-06  1.16403800e+00                                 
