 time            v(vbep)         time            v(vben)         time            v(vout)         time            v(vphi1)        time            v(vphi2)        time            v(vref)         time            v(voutc)        time            v(voutcc)       yes             currtemp       
 0.00000000e+00  8.51316859e-01  0.00000000e+00  8.04039983e-01  0.00000000e+00  1.75912269e+00  0.00000000e+00  0.00000000e+00  0.00000000e+00  1.80000000e+00  0.00000000e+00  8.08106208e-01  0.00000000e+00  1.75912269e+00  0.00000000e+00  1.76364889e+00  1.00000000e+00 -2.60000000e+01 
 1.00000000e-11  8.51337540e-01  1.00000000e-11  8.04103303e-01  1.00000000e-11  1.75994824e+00  1.00000000e-11  1.80000000e-02  1.00000000e-11  1.80024002e+00  1.00000000e-11  8.08616616e-01  1.00000000e-11  1.75957511e+00  1.00000000e-11  1.76363611e+00                                 
 2.00000000e-11  8.51343448e-01  2.00000000e-11  8.04143472e-01  2.00000000e-11  1.76052647e+00  2.00000000e-11  3.60000000e-02  2.00000000e-11  1.80034303e+00  2.00000000e-11  8.09005669e-01  2.00000000e-11  1.75993457e+00  2.00000000e-11  1.76362460e+00                                 
 4.00000000e-11  8.51343590e-01  4.00000000e-11  8.04196328e-01  4.00000000e-11  1.76132882e+00  4.00000000e-11  7.20000000e-02  4.00000000e-11  1.80039596e+00  4.00000000e-11  8.09586932e-01  4.00000000e-11  1.76049916e+00  4.00000000e-11  1.76360411e+00                                 
 8.00000000e-11  8.51333147e-01  8.00000000e-11  8.04227958e-01  8.00000000e-11  1.76180818e+00  8.00000000e-11  1.44000000e-01  8.00000000e-11  1.80021367e+00  8.00000000e-11  8.10072702e-01  8.00000000e-11  1.76107420e+00  8.00000000e-11  1.76357931e+00                                 
 1.60000000e-10  8.51329802e-01  1.60000000e-10  8.04226961e-01  1.60000000e-10  1.76168820e+00  1.60000000e-10  2.88000000e-01  1.60000000e-10  1.80002333e+00  1.60000000e-10  8.10164367e-01  1.60000000e-10  1.76137807e+00  1.60000000e-10  1.76356285e+00                                 
 3.20000000e-10  8.51327743e-01  3.20000000e-10  8.04223757e-01  3.20000000e-10  1.76142052e+00  3.20000000e-10  5.76000000e-01  3.20000000e-10  1.80002886e+00  3.20000000e-10  8.10139886e-01  3.20000000e-10  1.76147231e+00  3.20000000e-10  1.76356046e+00                                 
 6.40000000e-10  8.51260585e-01  6.40000000e-10  8.04045986e-01  6.40000000e-10  1.75279890e+00  6.40000000e-10  1.15200000e+00  6.40000000e-10  1.81354098e+00  6.40000000e-10  8.10014461e-01  6.40000000e-10  1.76529632e+00  6.40000000e-10  1.76358487e+00                                 
 9.91225633e-10  8.51606999e-01  9.91225633e-10  8.04019880e-01  9.91225633e-10  1.71952163e+00  9.91225633e-10  1.78420614e+00  9.91225633e-10  7.24580827e-02  9.91225633e-10  8.08553623e-01  9.91225633e-10  1.75120324e+00  9.91225633e-10  1.76344186e+00                                 
 1.00000000e-09  8.51633121e-01  1.00000000e-09  8.04085718e-01  1.00000000e-09  1.71914163e+00  1.00000000e-09  1.80000000e+00  1.00000000e-09  2.38418949e-02  1.00000000e-09  8.09426601e-01  1.00000000e-09  1.75129324e+00  1.00000000e-09  1.76347235e+00                                 
 1.01754873e-09  8.51631126e-01  1.01754873e-09  8.04117603e-01  1.01754873e-09  1.71911978e+00  1.01754873e-09  1.80000000e+00  1.01754873e-09  8.47446061e-03  1.01754873e-09  8.10864668e-01  1.01754873e-09  1.75237811e+00  1.01754873e-09  1.76352416e+00                                 
 1.05264620e-09  8.51692353e-01  1.05264620e-09  8.04164579e-01  1.05264620e-09  1.71859823e+00  1.05264620e-09  1.80000000e+00  1.05264620e-09 -1.33565484e-03  1.05264620e-09  8.12646484e-01  1.05264620e-09  1.75386004e+00  1.05264620e-09  1.76357041e+00                                 
 1.12284114e-09  8.51887831e-01  1.12284114e-09  8.04124645e-01  1.12284114e-09  1.71470266e+00  1.12284114e-09  1.80000000e+00  1.12284114e-09  2.07958134e-03  1.12284114e-09  8.12980321e-01  1.12284114e-09  1.75422748e+00  1.12284114e-09  1.76354251e+00                                 
 1.26323102e-09  8.52080009e-01  1.26323102e-09  8.04047198e-01  1.26323102e-09  1.70651254e+00  1.26323102e-09  1.80000000e+00  1.26323102e-09 -9.97800731e-04  1.26323102e-09  8.13309009e-01  1.26323102e-09  1.75444297e+00  1.26323102e-09  1.76355222e+00                                 
 1.48286288e-09  8.52116073e-01  1.48286288e-09  8.04044794e-01  1.48286288e-09  1.70193101e+00  1.48286288e-09  1.80000000e+00  1.48286288e-09  1.10688458e-03  1.48286288e-09  8.13921707e-01  1.48286288e-09  1.75499007e+00  1.48286288e-09  1.76356091e+00                                 
 1.73139338e-09  8.51968474e-01  1.73139338e-09  8.04021964e-01  1.73139338e-09  1.70322787e+00  1.73139338e-09  1.80000000e+00  1.73139338e-09 -9.94698814e-04  1.73139338e-09  8.13633352e-01  1.73139338e-09  1.75470976e+00  1.73139338e-09  1.76355862e+00                                 
 1.97474237e-09  8.51810020e-01  1.97474237e-09  8.04033063e-01  1.97474237e-09  1.70592457e+00  1.97474237e-09  1.80000000e+00  1.97474237e-09  8.31572743e-04  1.97474237e-09  8.13560669e-01  1.97474237e-09  1.75467756e+00  1.97474237e-09  1.76356656e+00                                 
 2.32319086e-09  8.51606947e-01  2.32319086e-09  8.04021756e-01  2.32319086e-09  1.70956597e+00  2.32319086e-09  1.80000000e+00  2.32319086e-09 -8.25514807e-04  2.32319086e-09  8.13084938e-01  2.32319086e-09  1.75424894e+00  2.32319086e-09  1.76356092e+00                                 
 2.96399694e-09  8.51360929e-01  2.96399694e-09  8.04029546e-01  2.96399694e-09  1.71572545e+00  2.96399694e-09  1.80000000e+00  2.96399694e-09  7.31982133e-04  2.96399694e-09  8.12572779e-01  2.96399694e-09  1.75384207e+00  2.96399694e-09  1.76356308e+00                                 
 4.24560910e-09  8.51172924e-01  4.24560910e-09  8.04020761e-01  4.24560910e-09  1.72499762e+00  4.24560910e-09  1.80000000e+00  4.24560910e-09 -7.69531158e-04  4.24560910e-09  8.11343628e-01  4.24560910e-09  1.75278219e+00  4.24560910e-09  1.76353650e+00                                 
 6.80883342e-09  8.51204924e-01  6.80883342e-09  8.04033543e-01  6.80883342e-09  1.73573776e+00  6.80883342e-09  1.80000000e+00  6.80883342e-09  7.16077641e-04  6.80883342e-09  8.09808157e-01  6.80883342e-09  1.75151344e+00  6.80883342e-09  1.76346315e+00                                 
 9.72496353e-09  8.51274657e-01  9.72496353e-09  8.04031122e-01  9.72496353e-09  1.73985501e+00  9.72496353e-09  1.80000000e+00  9.72496353e-09 -7.44047400e-04  9.72496353e-09  8.08642294e-01  9.72496353e-09  1.75050779e+00  9.72496353e-09  1.76332196e+00                                 
 1.25224396e-08  8.51289184e-01  1.25224396e-08  8.04041724e-01  1.25224396e-08  1.74048356e+00  1.25224396e-08  1.80000000e+00  1.25224396e-08  7.08875002e-04  1.25224396e-08  8.08233924e-01  1.25224396e-08  1.75018554e+00  1.25224396e-08  1.76316825e+00                                 
 1.56995634e-08  8.51299218e-01  1.56995634e-08  8.04035216e-01  1.56995634e-08  1.73960295e+00  1.56995634e-08  1.80000000e+00  1.56995634e-08 -7.25431876e-04  1.56995634e-08  8.07846911e-01  1.56995634e-08  1.74983193e+00  1.56995634e-08  1.76296380e+00                                 
 1.96292671e-08  8.51298856e-01  1.96292671e-08  8.04043647e-01  1.96292671e-08  1.73890368e+00  1.96292671e-08  1.80000000e+00  1.96292671e-08  7.04365047e-04  1.96292671e-08  8.07815631e-01  1.96292671e-08  1.74982042e+00  1.96292671e-08  1.76271426e+00                                 
 2.48739129e-08  8.51299761e-01  2.48739129e-08  8.04036190e-01  2.48739129e-08  1.73805901e+00  2.48739129e-08  1.80000000e+00  2.48739129e-08 -7.08612951e-04  2.48739129e-08  8.07676390e-01  2.48739129e-08  1.74966646e+00  2.48739129e-08  1.76236905e+00                                 
 3.19035755e-08  8.51313388e-01  3.19035755e-08  8.04043874e-01  3.19035755e-08  1.73481951e+00  3.19035755e-08  1.80000000e+00  3.19035755e-08  7.02822315e-04  3.19035755e-08  8.07803309e-01  3.19035755e-08  1.74977647e+00  3.19035755e-08  1.76193472e+00                                 
 4.22446480e-08  8.51317738e-01  4.22446480e-08  8.04036284e-01  4.22446480e-08  1.72658329e+00  4.22446480e-08  1.80000000e+00  4.22446480e-08 -7.02323772e-04  4.22446480e-08  8.07757117e-01  4.22446480e-08  1.74968800e+00  4.22446480e-08  1.76132031e+00                                 
 5.93702211e-08  8.51318777e-01  5.93702211e-08  8.04043837e-01  5.93702211e-08  1.71108249e+00  5.93702211e-08  1.80000000e+00  5.93702211e-08  7.00064483e-04  5.93702211e-08  8.07933936e-01  5.93702211e-08  1.74982321e+00  5.93702211e-08  1.76041341e+00                                 
 8.11098883e-08  8.51317373e-01  8.11098883e-08  8.04036247e-01  8.11098883e-08  1.68934533e+00  8.11098883e-08  1.80000000e+00  8.11098883e-08 -7.00481473e-04  8.11098883e-08  8.07902079e-01  8.11098883e-08  1.74973879e+00  8.11098883e-08  1.75940723e+00                                 
 1.24589223e-07  8.51317533e-01  1.24589223e-07  8.04043773e-01  1.24589223e-07  1.64159060e+00  1.24589223e-07  1.80000000e+00  1.24589223e-07  6.98568099e-04  1.24589223e-07  8.08085186e-01  1.24589223e-07  1.74986875e+00  1.24589223e-07  1.75785133e+00                                 
 2.11547892e-07  8.51316664e-01  2.11547892e-07  8.04036212e-01  2.11547892e-07  1.53899636e+00  2.11547892e-07  1.80000000e+00  2.11547892e-07 -6.99942988e-04  2.11547892e-07  8.08044792e-01  2.11547892e-07  1.74976323e+00  2.11547892e-07  1.75595606e+00                                 
 3.85465229e-07  8.51317106e-01  3.85465229e-07  8.04043753e-01  3.85465229e-07  1.33462566e+00  3.85465229e-07  1.80000000e+00  3.85465229e-07  6.98268877e-04  3.85465229e-07  8.08158537e-01  3.85465229e-07  1.74984565e+00  3.85465229e-07  1.75458994e+00                                 
 7.33299905e-07  8.51316612e-01  7.33299905e-07  8.04036211e-01  7.33299905e-07  9.49077166e-01  7.33299905e-07  1.80000000e+00  7.33299905e-07 -6.99525158e-04  7.33299905e-07  8.08054773e-01  7.33299905e-07  1.74971388e+00  7.33299905e-07  1.75430134e+00                                 
 7.73026839e-07  8.51316832e-01  7.73026839e-07  8.04039979e-01  7.73026839e-07  9.10511163e-01  7.73026839e-07  1.80000000e+00  7.73026839e-07 -7.04660429e-07  7.73026839e-07  8.08105045e-01  7.73026839e-07  1.74976602e+00  7.73026839e-07  1.75431357e+00                                 
 8.52480707e-07  8.51316977e-01  8.52480707e-07  8.04039990e-01  8.52480707e-07  8.49922215e-01  8.52480707e-07  1.80000000e+00  8.52480707e-07 -1.06753265e-07  8.52480707e-07  8.08106154e-01  8.52480707e-07  1.74976372e+00  8.52480707e-07  1.75432699e+00                                 
 9.97373378e-07  8.51316745e-01  9.97373378e-07  8.04039978e-01  9.97373378e-07  8.11218267e-01  9.97373378e-07  1.80000000e+00  9.97373378e-07 -1.30589170e-07  9.97373378e-07  8.08106986e-01  9.97373378e-07  1.74975820e+00  9.97373378e-07  1.75433355e+00                                 
 1.05037654e-06  8.51316874e-01  1.05037654e-06  8.04039977e-01  1.05037654e-06  8.11872420e-01  1.05037654e-06  1.80000000e+00  1.05037654e-06  1.54956589e-07  1.05037654e-06  8.08106097e-01  1.05037654e-06  1.74975513e+00  1.05037654e-06  1.75433263e+00                                 
 1.10658353e-06  8.51316828e-01  1.10658353e-06  8.04039992e-01  1.10658353e-06  8.12105766e-01  1.10658353e-06  1.80000000e+00  1.10658353e-06 -1.34338109e-07  1.10658353e-06  8.08106476e-01  1.10658353e-06  1.74975296e+00  1.10658353e-06  1.75433097e+00                                 
 1.17557280e-06  8.51316875e-01  1.17557280e-06  8.04039971e-01  1.17557280e-06  8.12208187e-01  1.17557280e-06  1.80000000e+00  1.17557280e-06  1.51084364e-07  1.17557280e-06  8.08106015e-01  1.17557280e-06  1.74974953e+00  1.17557280e-06  1.75432850e+00                                 
 1.31355135e-06  8.51316842e-01  1.31355135e-06  8.04039995e-01  1.31355135e-06  8.12242967e-01  1.31355135e-06  1.80000000e+00  1.31355135e-06 -1.34397076e-07  1.31355135e-06  8.08106399e-01  1.31355135e-06  1.74974374e+00  1.31355135e-06  1.75432287e+00                                 
 1.58950846e-06  8.51316874e-01  1.58950846e-06  8.04039969e-01  1.58950846e-06  8.12240980e-01  1.58950846e-06  1.80000000e+00  1.58950846e-06  1.50503602e-07  1.58950846e-06  8.08106019e-01  1.58950846e-06  1.74973117e+00  1.58950846e-06  1.75431085e+00                                 
 2.14142266e-06  8.51316843e-01  2.14142266e-06  8.04039996e-01  2.14142266e-06  8.12241270e-01  2.14142266e-06  1.80000000e+00  2.14142266e-06 -1.34213507e-07  2.14142266e-06  8.08106394e-01  2.14142266e-06  1.74970697e+00  2.14142266e-06  1.75428643e+00                                 
 3.24525107e-06  8.51316873e-01  3.24525107e-06  8.04039969e-01  3.24525107e-06  8.12241337e-01  3.24525107e-06  1.80000000e+00  3.24525107e-06  1.50417851e-07  3.24525107e-06  8.08106021e-01  3.24525107e-06  1.74965770e+00  3.24525107e-06  1.75423770e+00                                 
 4.44525107e-06  8.51316844e-01  4.44525107e-06  8.04039997e-01  4.44525107e-06  8.12241057e-01  4.44525107e-06  1.80000000e+00  4.44525107e-06 -1.34160011e-07  4.44525107e-06  8.08106393e-01  4.44525107e-06  1.74960473e+00  4.44525107e-06  1.75418467e+00                                 
 5.64525107e-06  8.51316872e-01  5.64525107e-06  8.04039967e-01  5.64525107e-06  8.12241546e-01  5.64525107e-06  1.80000000e+00  5.64525107e-06  1.50367862e-07  5.64525107e-06  8.08106022e-01  5.64525107e-06  1.74955114e+00  5.64525107e-06  1.75413163e+00                                 
 6.00100000e-06  8.51316844e-01  6.00100000e-06  8.04039997e-01  6.00100000e-06  8.12240863e-01  6.00100000e-06  1.80000000e+00  6.00100000e-06 -1.34054639e-07  6.00100000e-06  8.08106388e-01  6.00100000e-06  1.74953564e+00  6.00100000e-06  1.75411590e+00                                 
 6.00110000e-06  8.51287713e-01  6.00110000e-06  8.03827814e-01  6.00110000e-06  8.10124704e-01  6.00110000e-06  1.62000000e+00  6.00110000e-06 -9.31080136e-05  6.00110000e-06  8.06182509e-01  6.00110000e-06  1.74791487e+00  6.00110000e-06  1.75409922e+00                                 
 6.00130000e-06  8.51315456e-01  6.00130000e-06  8.03897383e-01  6.00130000e-06  8.10946096e-01  6.00130000e-06  1.26000000e+00  6.00130000e-06  5.10953401e-05  6.00130000e-06  8.06590045e-01  6.00130000e-06  1.74826125e+00  6.00130000e-06  1.75412521e+00                                 
 6.00170000e-06  8.51339943e-01  6.00170000e-06  8.03952572e-01  6.00170000e-06  8.12068450e-01  6.00170000e-06  5.40000000e-01  6.00170000e-06 -2.32865107e-04  6.00170000e-06  8.06010919e-01  6.00170000e-06  1.74326154e+00  6.00170000e-06  1.75407784e+00                                 
 6.00200000e-06  8.51314503e-01  6.00200000e-06  8.01556693e-01  6.00200000e-06  8.63419881e-01  6.00200000e-06  0.00000000e+00  6.00200000e-06  1.57768902e+00  6.00200000e-06  7.73649364e-01  6.00200000e-06  1.53408420e+00  6.00200000e-06  1.75309625e+00                                 
 6.00205159e-06  8.51320495e-01  6.00205159e-06  8.01527515e-01  6.00205159e-06  8.61900853e-01  6.00205159e-06  0.00000000e+00  6.00205159e-06  1.72906938e+00  6.00205159e-06  7.72779820e-01  6.00205159e-06  1.47429193e+00  6.00205159e-06  1.75341466e+00                                 
 6.00215477e-06  8.51315334e-01  6.00215477e-06  8.01820514e-01  6.00215477e-06  8.50997402e-01  6.00215477e-06  0.00000000e+00  6.00215477e-06  1.82115531e+00  6.00215477e-06  7.76129172e-01  6.00215477e-06  1.36436220e+00  6.00215477e-06  1.75398583e+00                                 
 6.00231199e-06  8.51315505e-01  6.00231199e-06  8.02631101e-01  6.00231199e-06  8.36303220e-01  6.00231199e-06  0.00000000e+00  6.00231199e-06  1.78673167e+00  6.00231199e-06  7.86324169e-01  6.00231199e-06  1.24587929e+00  6.00231199e-06  1.75411397e+00                                 
 6.00248483e-06  8.51316642e-01  6.00248483e-06  8.02957251e-01  6.00248483e-06  8.33059471e-01  6.00248483e-06  0.00000000e+00  6.00248483e-06  1.80645997e+00  6.00248483e-06  7.90105986e-01  6.00248483e-06  1.15976937e+00  6.00248483e-06  1.75417324e+00                                 
 6.00275345e-06  8.51314882e-01  6.00275345e-06  8.03323809e-01  6.00275345e-06  8.26118728e-01  6.00275345e-06  0.00000000e+00  6.00275345e-06  1.79488779e+00  6.00275345e-06  7.94199860e-01  6.00275345e-06  1.06471335e+00  6.00275345e-06  1.75423861e+00                                 
 6.00301677e-06  8.51317108e-01  6.00301677e-06  8.03606276e-01  6.00301677e-06  8.24483779e-01  6.00301677e-06  0.00000000e+00  6.00301677e-06  1.80319423e+00  6.00301677e-06  7.97289990e-01  6.00301677e-06  9.97544594e-01  6.00301677e-06  1.75432428e+00                                 
 6.00354342e-06  8.51315181e-01  6.00354342e-06  8.03891843e-01  6.00354342e-06  8.20311893e-01  6.00354342e-06  0.00000000e+00  6.00354342e-06  1.79692955e+00  6.00354342e-06  8.00123874e-01  6.00354342e-06  8.91336755e-01  6.00354342e-06  1.75439439e+00                                 
 6.00408175e-06  8.51317632e-01  6.00408175e-06  8.04292180e-01  6.00408175e-06  8.15923739e-01  6.00408175e-06  0.00000000e+00  6.00408175e-06  1.80226512e+00  6.00408175e-06  8.05068937e-01  6.00408175e-06  8.34913995e-01  6.00408175e-06  1.75439375e+00                                 
 6.00478809e-06  8.51315557e-01  6.00478809e-06  8.04449153e-01  6.00478809e-06  8.12620047e-01  6.00478809e-06  0.00000000e+00  6.00478809e-06  1.79795503e+00  6.00478809e-06  8.07480863e-01  6.00478809e-06  8.13408011e-01  6.00478809e-06  1.75420208e+00                                 
 6.00544199e-06  8.51317891e-01  6.00544199e-06  8.04475381e-01  6.00544199e-06  8.12582297e-01  6.00544199e-06  0.00000000e+00  6.00544199e-06  1.80177460e+00  6.00544199e-06  8.08641232e-01  6.00544199e-06  8.13042858e-01  6.00544199e-06  1.75391247e+00                                 
 6.00621133e-06  8.51315729e-01  6.00621133e-06  8.04354666e-01  6.00621133e-06  8.12705266e-01  6.00621133e-06  0.00000000e+00  6.00621133e-06  1.79843377e+00  6.00621133e-06  8.08210392e-01  6.00621133e-06  8.12413928e-01  6.00621133e-06  1.75344830e+00                                 
 6.00724598e-06  8.51317951e-01  6.00724598e-06  8.04297811e-01  6.00724598e-06  8.13292870e-01  6.00724598e-06  0.00000000e+00  6.00724598e-06  1.80142796e+00  6.00724598e-06  8.08806688e-01  6.00724598e-06  8.13370750e-01  6.00724598e-06  1.75277666e+00                                 
 6.00931528e-06  8.51315776e-01  6.00931528e-06  8.04140305e-01  6.00931528e-06  8.14321447e-01  6.00931528e-06  0.00000000e+00  6.00931528e-06  1.79863902e+00  6.00931528e-06  8.08400848e-01  6.00931528e-06  8.13981477e-01  6.00931528e-06  1.75130255e+00                                 
 6.01345388e-06  8.51317941e-01  6.01345388e-06  8.04093237e-01  6.01345388e-06  8.16969633e-01  6.01345388e-06  0.00000000e+00  6.01345388e-06  1.80133169e+00  6.01345388e-06  8.08911749e-01  6.01345388e-06  8.16977080e-01  6.01345388e-06  1.74830056e+00                                 
 6.02173107e-06  8.51315776e-01  6.02173107e-06  8.04027885e-01  6.02173107e-06  8.22434055e-01  6.02173107e-06  0.00000000e+00  6.02173107e-06  1.79868624e+00  6.02173107e-06  8.08396298e-01  6.02173107e-06  8.22028798e-01  6.02173107e-06  1.74224776e+00                                 
 6.03828546e-06  8.51317940e-01  6.03828546e-06  8.04051819e-01  6.03828546e-06  8.33740762e-01  6.03828546e-06  0.00000000e+00  6.03828546e-06  1.80130861e+00  6.03828546e-06  8.08720493e-01  6.03828546e-06  8.33733493e-01  6.03828546e-06  1.72955851e+00                                 
 6.06786909e-06  8.51315777e-01  6.06786909e-06  8.04022631e-01  6.06786909e-06  8.52774212e-01  6.06786909e-06  0.00000000e+00  6.06786909e-06  1.79869790e+00  6.06786909e-06  8.08109495e-01  6.06786909e-06  8.52230207e-01  6.06786909e-06  1.70394795e+00                                 
