 time            v(vbep)         time            v(vben)         time            v(vout)         time            v(vphi1)        time            v(vphi2)        time            v(vref)         yes             currtemp       
 0.00000000e+00  5.64090710e-01  0.00000000e+00  4.97755910e-01  0.00000000e+00  7.29649598e-01  0.00000000e+00  0.00000000e+00  0.00000000e+00  1.79995812e+00  0.00000000e+00  5.00000000e-01  1.00000000e+00  9.10000000e+01 
 5.00000000e-12  5.64060676e-01  5.00000000e-12  4.97731071e-01  5.00000000e-12  7.30393267e-01  5.00000000e-12  1.80000000e-02  5.00000000e-12  1.80007176e+00  5.00000000e-12  5.00000000e-01                                 
 1.00000000e-11  5.64031351e-01  1.00000000e-11  4.97706869e-01  1.00000000e-11  7.31064895e-01  1.00000000e-11  3.60000000e-02  1.00000000e-11  1.80012931e+00  1.00000000e-11  5.00000000e-01                                 
 2.00000000e-11  5.63973114e-01  2.00000000e-11  4.97658643e-01  2.00000000e-11  7.32291402e-01  2.00000000e-11  7.20000000e-02  2.00000000e-11  1.80017917e+00  2.00000000e-11  5.00000000e-01                                 
 4.00000000e-11  5.63857350e-01  4.00000000e-11  4.97562543e-01  4.00000000e-11  7.34237616e-01  4.00000000e-11  1.44000000e-01  4.00000000e-11  1.80013559e+00  4.00000000e-11  5.00000000e-01                                 
 8.00000000e-11  5.63626860e-01  8.00000000e-11  4.97371119e-01  8.00000000e-11  7.36918569e-01  8.00000000e-11  2.88000000e-01  8.00000000e-11  1.80005665e+00  8.00000000e-11  5.00000000e-01                                 
 1.60000000e-10  5.63170264e-01  1.60000000e-10  4.96991317e-01  1.60000000e-10  7.40297524e-01  1.60000000e-10  5.76000000e-01  1.60000000e-10  1.80000634e+00  1.60000000e-10  5.00000000e-01                                 
 3.20000000e-10  5.62273625e-01  3.20000000e-10  4.96243470e-01  3.20000000e-10  7.34803961e-01  3.20000000e-10  1.15200000e+00  3.20000000e-10  1.80046387e+00  3.20000000e-10  5.00000000e-01                                 
 5.00000000e-10  5.61290433e-01  5.00000000e-10  4.95420257e-01  5.00000000e-10  8.66625680e-01  5.00000000e-10  1.80000000e+00  5.00000000e-10  1.41987919e-01  5.00000000e-10  5.00000000e-01                                 
 5.22751637e-10  5.61168243e-01  5.22751637e-10  4.95317699e-01  5.22751637e-10  8.99402803e-01  5.22751637e-10  1.80000000e+00  5.22751637e-10  3.09737854e-02  5.22751637e-10  5.00000000e-01                                 
 5.68254910e-10  5.60924658e-01  5.68254910e-10  4.95113140e-01  5.68254910e-10  9.61282673e-01  5.68254910e-10  1.80000000e+00  5.68254910e-10 -1.37025061e-02  5.68254910e-10  5.00000000e-01                                 
 6.59261458e-10  5.60442314e-01  6.59261458e-10  4.94707491e-01  6.59261458e-10  1.06917215e+00  6.59261458e-10  1.80000000e+00  6.59261458e-10  1.11615063e-02  6.59261458e-10  5.00000000e-01                                 
 7.82256219e-10  5.59800418e-01  7.82256219e-10  4.94166456e-01  7.82256219e-10  1.19466050e+00  7.82256219e-10  1.80000000e+00  7.82256219e-10 -9.30041571e-03  7.82256219e-10  5.00000000e-01                                 
 9.80155724e-10  5.58790747e-01  9.80155724e-10  4.93312694e-01  9.80155724e-10  1.35577304e+00  9.80155724e-10  1.80000000e+00  9.80155724e-10  8.67097577e-03  9.80155724e-10  5.00000000e-01                                 
 1.37595473e-09  5.56851569e-01  1.37595473e-09  4.91663769e-01  1.37595473e-09  1.55595443e+00  1.37595473e-09  1.80000000e+00  1.37595473e-09 -8.10541479e-03  1.37595473e-09  5.00000000e-01                                 
 1.77070556e-09  5.55016588e-01  1.77070556e-09  4.90092285e-01  1.77070556e-09  1.64444799e+00  1.77070556e-09  1.80000000e+00  1.77070556e-09  7.87276267e-03  1.77070556e-09  5.00000000e-01                                 
 2.09936081e-09  5.53557620e-01  2.09936081e-09  4.88835214e-01  2.09936081e-09  1.67411260e+00  2.09936081e-09  1.80000000e+00  2.09936081e-09 -7.31135998e-03  2.09936081e-09  5.00000000e-01                                 
 2.47257089e-09  5.51969867e-01  2.47257089e-09  4.87459774e-01  2.47257089e-09  1.68774817e+00  2.47257089e-09  1.80000000e+00  2.47257089e-09  7.07177822e-03  2.47257089e-09  5.00000000e-01                                 
 2.92132949e-09  5.50149584e-01  2.92132949e-09  4.85873639e-01  2.92132949e-09  1.69227196e+00  2.92132949e-09  1.80000000e+00  2.92132949e-09 -6.70639532e-03  2.92132949e-09  5.00000000e-01                                 
 3.36801024e-09  5.48425830e-01  3.36801024e-09  4.84362671e-01  3.36801024e-09  1.69247043e+00  3.36801024e-09  1.80000000e+00  3.36801024e-09  6.50351292e-03  3.36801024e-09  5.00000000e-01                                 
 3.90888750e-09  5.46444515e-01  3.90888750e-09  4.82615571e-01  3.90888750e-09  1.69096798e+00  3.90888750e-09  1.80000000e+00  3.90888750e-09 -6.23123444e-03  3.90888750e-09  5.00000000e-01                                 
 4.63022716e-09  5.43962916e-01  4.63022716e-09  4.80412287e-01  4.63022716e-09  1.68862265e+00  4.63022716e-09  1.80000000e+00  4.63022716e-09  6.13029428e-03  4.63022716e-09  5.00000000e-01                                 
 5.79586070e-09  5.40284511e-01  5.79586070e-09  4.77117473e-01  5.79586070e-09  1.68465243e+00  5.79586070e-09  1.80000000e+00  5.79586070e-09 -5.98340245e-03  5.79586070e-09  5.00000000e-01                                 
 7.94327343e-09  5.34354909e-01  7.94327343e-09  4.71740139e-01  7.94327343e-09  1.67804460e+00  7.94327343e-09  1.80000000e+00  7.94327343e-09  5.98558620e-03  7.94327343e-09  5.00000000e-01                                 
 1.22380989e-08  5.24753093e-01  1.22380989e-08  4.62886798e-01  1.22380989e-08  1.66527421e+00  1.22380989e-08  1.80000000e+00  1.22380989e-08 -5.90776030e-03  1.22380989e-08  5.00000000e-01                                 
 2.08277498e-08  5.10584964e-01  2.08277498e-08  4.49592939e-01  2.08277498e-08  1.63867978e+00  2.08277498e-08  1.80000000e+00  2.08277498e-08  5.94884012e-03  2.08277498e-08  5.00000000e-01                                 
 3.80070516e-08  4.90909189e-01  3.80070516e-08  4.31002676e-01  3.80070516e-08  1.56608681e+00  3.80070516e-08  1.80000000e+00  3.80070516e-08 -5.88866138e-03  3.80070516e-08  5.00000000e-01                                 
 5.63129110e-08  4.75600375e-01  5.63129110e-08  4.16675119e-01  5.63129110e-08  1.46401832e+00  5.63129110e-08  1.80000000e+00  5.63129110e-08  5.93728225e-03  5.63129110e-08  5.00000000e-01                                 
 8.78691116e-08  4.59242644e-01  8.78691116e-08  4.01019289e-01  8.78691116e-08  1.26989876e+00  8.78691116e-08  1.80000000e+00  8.78691116e-08 -5.87917154e-03  8.78691116e-08  5.00000000e-01                                 
 1.18341935e-07  4.56573250e-01  1.18341935e-07  3.97001633e-01  1.18341935e-07  1.10103263e+00  1.18341935e-07  1.80000000e+00  1.18341935e-07  5.93099778e-03  1.18341935e-07  5.00000000e-01                                 
 1.43408564e-07  4.53491653e-01  1.43408564e-07  3.93305508e-01  1.43408564e-07  9.74512104e-01  1.43408564e-07  1.80000000e+00  1.43408564e-07 -5.87161738e-03  1.43408564e-07  5.00000000e-01                                 
 1.71038210e-07  4.46439815e-01  1.71038210e-07  3.86563297e-01  1.71038210e-07  8.79450495e-01  1.71038210e-07  1.80000000e+00  1.71038210e-07  5.92282970e-03  1.71038210e-07  5.00000000e-01                                 
 2.01825224e-07  4.41811971e-01  2.01825224e-07  3.81793102e-01  2.01825224e-07  7.99870514e-01  2.01825224e-07  1.80000000e+00  2.01825224e-07 -5.86435260e-03  2.01825224e-07  5.00000000e-01                                 
 2.30316862e-07  4.36975060e-01  2.30316862e-07  3.77075145e-01  2.30316862e-07  7.24322118e-01  2.30316862e-07  1.80000000e+00  2.30316862e-07  5.91571022e-03  2.30316862e-07  5.00000000e-01                                 
 2.77555524e-07  4.24626002e-01  2.77555524e-07  3.66035300e-01  2.77555524e-07  6.04870272e-01  2.77555524e-07  1.80000000e+00  2.77555524e-07 -5.85861917e-03  2.77555524e-07  5.00000000e-01                                 
 3.31689362e-07  4.09596371e-01  3.31689362e-07  3.52946085e-01  3.31689362e-07  5.10376220e-01  3.31689362e-07  1.80000000e+00  3.31689362e-07  5.91154709e-03  3.31689362e-07  5.00000000e-01                                 
 3.96602227e-07  3.92606513e-01  3.96602227e-07  3.38357052e-01  3.96602227e-07  4.61719385e-01  3.96602227e-07  1.80000000e+00  3.96602227e-07 -5.85509467e-03  3.96602227e-07  5.00000000e-01                                 
 4.10085971e-07  3.88828162e-01  4.10085971e-07  3.35168602e-01  4.10085971e-07  4.58881174e-01  4.10085971e-07  1.80000000e+00  4.10085971e-07  1.14334969e-05  4.10085971e-07  5.00000000e-01                                 
 4.37053459e-07  3.81104186e-01  4.37053459e-07  3.28677158e-01  4.37053459e-07  4.53630778e-01  4.37053459e-07  1.80000000e+00  4.37053459e-07  1.50902067e-05  4.37053459e-07  5.00000000e-01                                 
 4.90988436e-07  3.64317104e-01  4.90988436e-07  3.14738268e-01  4.90988436e-07  4.73132289e-01  4.90988436e-07  1.80000000e+00  4.90988436e-07  1.14137830e-05  4.90988436e-07  5.00000000e-01                                 
 5.40582456e-07  3.46005075e-01  5.40582456e-07  2.99743864e-01  5.40582456e-07  5.33176720e-01  5.40582456e-07  1.80000000e+00  5.40582456e-07  1.50311106e-05  5.40582456e-07  5.00000000e-01                                 
 5.83056584e-07  3.27761160e-01  5.83056584e-07  2.84934037e-01  5.83056584e-07  5.13202221e-01  5.83056584e-07  1.80000000e+00  5.83056584e-07  1.13488157e-05  5.83056584e-07  5.00000000e-01                                 
 6.28574994e-07  3.10297919e-01  6.28574994e-07  2.70812743e-01  6.28574994e-07  4.50863512e-01  6.28574994e-07  1.80000000e+00  6.28574994e-07  1.50937502e-05  6.28574994e-07  5.00000000e-01                                 
 6.65761655e-07  3.15223977e-01  6.65761655e-07  2.74744463e-01  6.65761655e-07  4.91624703e-01  6.65761655e-07  1.80000000e+00  6.65761655e-07  1.19010054e-05  6.65761655e-07  5.00000000e-01                                 
 7.03583488e-07  4.16972835e-01  7.03583488e-07  3.56269081e-01  7.03583488e-07  5.87150812e-01  7.03583488e-07  1.80000000e+00  7.03583488e-07  1.78952503e-05  7.03583488e-07  5.00000000e-01                                 
 7.38805548e-07  6.09812294e-01  7.38805548e-07  5.39082447e-01  7.38805548e-07  6.18018877e-01  7.38805548e-07  1.80000000e+00  7.38805548e-07  1.65364299e-05  7.38805548e-07  5.00000000e-01                                 
 7.65537580e-07  6.71830760e-01  7.65537580e-07  6.00288289e-01  7.65537580e-07  5.59396010e-01  7.65537580e-07  1.80000000e+00  7.65537580e-07  1.43279320e-05  7.65537580e-07  5.00000000e-01                                 
 7.90749719e-07  7.00954261e-01  7.90749719e-07  6.24921712e-01  7.90749719e-07  5.25563949e-01  7.90749719e-07  1.80000000e+00  7.90749719e-07  1.44310621e-05  7.90749719e-07  5.00000000e-01                                 
 8.25876153e-07  7.08171733e-01  8.25876153e-07  6.30953991e-01  8.25876153e-07  4.92061054e-01  8.25876153e-07  1.80000000e+00  8.25876153e-07  1.28381578e-05  8.25876153e-07  5.00000000e-01                                 
 8.63136259e-07  7.07660584e-01  8.63136259e-07  6.30391218e-01  8.63136259e-07  4.82556150e-01  8.63136259e-07  1.80000000e+00  8.63136259e-07  1.39431875e-05  8.63136259e-07  5.00000000e-01                                 
 9.05376176e-07  7.08361756e-01  9.05376176e-07  6.31092349e-01  9.05376176e-07  4.81867058e-01  9.05376176e-07  1.80000000e+00  9.05376176e-07  1.29779689e-05  9.05376176e-07  5.00000000e-01                                 
 9.63727785e-07  6.96630606e-01  9.63727785e-07  6.21429389e-01  9.63727785e-07  4.96163068e-01  9.63727785e-07  1.80000000e+00  9.63727785e-07  1.35078092e-05  9.63727785e-07  5.00000000e-01                                 
 9.71520279e-07  6.92840031e-01  9.71520279e-07  6.18349568e-01  9.71520279e-07  5.00165804e-01  9.71520279e-07  1.80000000e+00  9.71520279e-07  1.30636126e-05  9.71520279e-07  5.00000000e-01                                 
 9.87105266e-07  6.83755221e-01  9.87105266e-07  6.10656375e-01  9.87105266e-07  5.04218151e-01  9.87105266e-07  1.80000000e+00  9.87105266e-07  1.27973629e-05  9.87105266e-07  5.00000000e-01                                 
 1.01827524e-06  6.75615995e-01  1.01827524e-06  6.03512200e-01  1.01827524e-06  5.03112275e-01  1.01827524e-06  1.80000000e+00  1.01827524e-06  1.35946756e-05  1.01827524e-06  5.00000000e-01                                 
 1.05230416e-06  6.84816529e-01  1.05230416e-06  6.11514708e-01  1.05230416e-06  5.02479483e-01  1.05230416e-06  1.80000000e+00  1.05230416e-06  1.37153863e-05  1.05230416e-06  5.00000000e-01                                 
 1.10126676e-06  6.94744966e-01  1.10126676e-06  6.19916258e-01  1.10126676e-06  5.01033376e-01  1.10126676e-06  1.80000000e+00  1.10126676e-06  1.34827090e-05  1.10126676e-06  5.00000000e-01                                 
 1.15533082e-06  6.90119218e-01  1.15533082e-06  6.16059465e-01  1.15533082e-06  4.96804168e-01  1.15533082e-06  1.80000000e+00  1.15533082e-06  1.32257720e-05  1.15533082e-06  5.00000000e-01                                 
 1.23878917e-06  6.84284421e-01  1.23878917e-06  6.11060630e-01  1.23878917e-06  5.01169629e-01  1.23878917e-06  1.80000000e+00  1.23878917e-06  1.35050908e-05  1.23878917e-06  5.00000000e-01                                 
 1.32749657e-06  6.91367199e-01  1.32749657e-06  6.17096953e-01  1.32749657e-06  5.02845248e-01  1.32749657e-06  1.80000000e+00  1.32749657e-06  1.34814130e-05  1.32749657e-06  5.00000000e-01                                 
 1.47275529e-06  6.87823668e-01  1.47275529e-06  6.14098130e-01  1.47275529e-06  4.96507784e-01  1.47275529e-06  1.80000000e+00  1.47275529e-06  1.33290378e-05  1.47275529e-06  5.00000000e-01                                 
 1.60649984e-06  6.87504644e-01  1.60649984e-06  6.13824855e-01  1.60649984e-06  5.03671900e-01  1.60649984e-06  1.80000000e+00  1.60649984e-06  1.35174048e-05  1.60649984e-06  5.00000000e-01                                 
 1.84118371e-06  6.90516892e-01  1.84118371e-06  6.16378441e-01  1.84118371e-06  4.97717556e-01  1.84118371e-06  1.80000000e+00  1.84118371e-06  1.33557644e-05  1.84118371e-06  5.00000000e-01                                 
 2.09895498e-06  6.86360060e-01  2.09895498e-06  6.12851543e-01  2.09895498e-06  5.01718129e-01  2.09895498e-06  1.80000000e+00  2.09895498e-06  1.34679989e-05  2.09895498e-06  5.00000000e-01                                 
 2.41293533e-06  6.90897700e-01  2.41293533e-06  6.16696669e-01  2.41293533e-06  4.99791701e-01  2.41293533e-06  1.80000000e+00  2.41293533e-06  1.34076066e-05  2.41293533e-06  5.00000000e-01                                 
 2.83445391e-06  6.86387825e-01  2.83445391e-06  6.12877793e-01  2.83445391e-06  4.99977124e-01  2.83445391e-06  1.80000000e+00  2.83445391e-06  1.34255337e-05  2.83445391e-06  5.00000000e-01                                 
 3.36810806e-06  6.90686188e-01  3.36810806e-06  6.16516546e-01  3.36810806e-06  5.01103107e-01  3.36810806e-06  1.80000000e+00  3.36810806e-06  1.34391681e-05  3.36810806e-06  5.00000000e-01                                 
 4.06173143e-06  6.86671273e-01  4.06173143e-06  6.13121200e-01  4.06173143e-06  4.98997681e-01  4.06173143e-06  1.80000000e+00  4.06173143e-06  1.34022979e-05  4.06173143e-06  5.00000000e-01                                 
 4.97724982e-06  6.90438473e-01  4.97724982e-06  6.16306597e-01  4.97724982e-06  5.01807796e-01  4.97724982e-06  1.80000000e+00  4.97724982e-06  1.34557535e-05  4.97724982e-06  5.00000000e-01                                 
 5.97724982e-06  6.86924337e-01  5.97724982e-06  6.13337859e-01  5.97724982e-06  4.98452086e-01  5.97724982e-06  1.80000000e+00  5.97724982e-06  1.33895474e-05  5.97724982e-06  5.00000000e-01                                 
 6.97724982e-06  6.90194638e-01  6.97724982e-06  6.16100064e-01  6.97724982e-06  5.02293368e-01  6.97724982e-06  1.80000000e+00  6.97724982e-06  1.34670702e-05  6.97724982e-06  5.00000000e-01                                 
 7.97724982e-06  6.87203955e-01  7.97724982e-06  6.13576843e-01  7.97724982e-06  4.98003011e-01  7.97724982e-06  1.80000000e+00  7.97724982e-06  1.33791262e-05  7.97724982e-06  5.00000000e-01                                 
 8.97724982e-06  6.89919803e-01  8.97724982e-06  6.15867276e-01  8.97724982e-06  5.02701652e-01  8.97724982e-06  1.80000000e+00  8.97724982e-06  1.34765451e-05  8.97724982e-06  5.00000000e-01                                 
 9.97724982e-06  6.87507725e-01  9.97724982e-06  6.13836071e-01  9.97724982e-06  4.97637078e-01  9.97724982e-06  1.80000000e+00  9.97724982e-06  1.33706368e-05  9.97724982e-06  5.00000000e-01                                 
 1.00005000e-05  6.87095864e-01  1.00005000e-05  6.13471756e-01  1.00005000e-05  5.00546627e-01  1.00005000e-05  1.80000000e+00  1.00005000e-05  1.34486853e-05  1.00005000e-05  5.00000000e-01                                 
 1.00005500e-05  6.87099698e-01  1.00005500e-05  6.13475635e-01  1.00005500e-05  4.93299388e-01  1.00005500e-05  1.62000000e+00  1.00005500e-05 -8.01893806e-05  1.00005500e-05  5.00000000e-01                                 
 1.00006500e-05  6.87108127e-01  1.00006500e-05  6.13483236e-01  1.00006500e-05  4.79870045e-01  1.00006500e-05  1.26000000e+00  1.00006500e-05 -6.97420095e-05  1.00006500e-05  5.00000000e-01                                 
 1.00008500e-05  6.87123322e-01  1.00008500e-05  6.13496496e-01  1.00008500e-05  4.79501242e-01  1.00008500e-05  5.40000000e-01  1.00008500e-05  1.41343281e-01  1.00008500e-05  5.00000000e-01                                 
 1.00010000e-05  6.87132669e-01  1.00010000e-05  6.13504910e-01  1.00010000e-05  4.51741756e-01  1.00010000e-05  0.00000000e+00  1.00010000e-05  1.63330463e+00  1.00010000e-05  5.00000000e-01                                 
 1.00010247e-05  6.87134125e-01  1.00010247e-05  6.13506176e-01  1.00010247e-05  4.36487293e-01  1.00010247e-05  0.00000000e+00  1.00010247e-05  1.74398479e+00  1.00010247e-05  5.00000000e-01                                 
 1.00010742e-05  6.87136956e-01  1.00010742e-05  6.13508666e-01  1.00010742e-05  4.11295842e-01  1.00010742e-05  0.00000000e+00  1.00010742e-05  1.81602793e+00  1.00010742e-05  5.00000000e-01                                 
 1.00011731e-05  6.87142310e-01  1.00011731e-05  6.13513414e-01  1.00011731e-05  3.90502929e-01  1.00011731e-05  0.00000000e+00  1.00011731e-05  1.78871362e+00  1.00011731e-05  5.00000000e-01                                 
 1.00013508e-05  6.87151005e-01  1.00013508e-05  6.13521152e-01  1.00013508e-05  3.88247162e-01  1.00013508e-05  0.00000000e+00  1.00013508e-05  1.80842177e+00  1.00013508e-05  5.00000000e-01                                 
 1.00015280e-05  6.87158623e-01  1.00015280e-05  6.13527951e-01  1.00015280e-05  3.87736191e-01  1.00015280e-05  0.00000000e+00  1.00015280e-05  1.79346803e+00  1.00015280e-05  5.00000000e-01                                 
 1.00017904e-05  6.87168552e-01  1.00017904e-05  6.13536785e-01  1.00017904e-05  3.87082562e-01  1.00017904e-05  0.00000000e+00  1.00017904e-05  1.80544985e+00  1.00017904e-05  5.00000000e-01                                 
 1.00022634e-05  6.87183903e-01  1.00022634e-05  6.13550367e-01  1.00022634e-05  3.86174538e-01  1.00022634e-05  0.00000000e+00  1.00022634e-05  1.79503148e+00  1.00022634e-05  5.00000000e-01                                 
 1.00032096e-05  6.87210719e-01  1.00032096e-05  6.13573706e-01  1.00032096e-05  3.85897417e-01  1.00032096e-05  0.00000000e+00  1.00032096e-05  1.80471509e+00  1.00032096e-05  5.00000000e-01                                 
