 time            v(vbep)         time            v(vben)         time            v(vout)         time            v(vphi1)        time            v(vphi2)        time            v(vref)         time            v(voutc)        time            v(voutcc)       yes             currtemp       
 0.00000000e+00  7.63110096e-01  0.00000000e+00  7.03312421e-01  0.00000000e+00  1.58170063e+00  0.00000000e+00  0.00000000e+00  0.00000000e+00  1.80000000e+00  0.00000000e+00  7.05519447e-01  0.00000000e+00  1.58170062e+00  0.00000000e+00  1.58826549e+00  1.00000000e+00  3.40000000e+01 
 1.00000000e-11  7.63135103e-01  1.00000000e-11  7.03383638e-01  1.00000000e-11  1.58248403e+00  1.00000000e-11  1.80000000e-02  1.00000000e-11  1.80025104e+00  1.00000000e-11  7.06050215e-01  1.00000000e-11  1.58217038e+00  1.00000000e-11  1.58827947e+00                                 
 2.00000000e-11  7.63141946e-01  2.00000000e-11  7.03428330e-01  2.00000000e-11  1.58296869e+00  2.00000000e-11  3.60000000e-02  2.00000000e-11  1.80035099e+00  2.00000000e-11  7.06444731e-01  2.00000000e-11  1.58252677e+00  2.00000000e-11  1.58828479e+00                                 
 4.00000000e-11  7.63141869e-01  4.00000000e-11  7.03487269e-01  4.00000000e-11  1.58355671e+00  4.00000000e-11  7.20000000e-02  4.00000000e-11  1.80038987e+00  4.00000000e-11  7.07021906e-01  4.00000000e-11  1.58305937e+00  4.00000000e-11  1.58828671e+00                                 
 8.00000000e-11  7.63129974e-01  8.00000000e-11  7.03525250e-01  8.00000000e-11  1.58368951e+00  8.00000000e-11  1.44000000e-01  8.00000000e-11  1.80018665e+00  8.00000000e-11  7.07468427e-01  8.00000000e-11  1.58349772e+00  8.00000000e-11  1.58827609e+00                                 
 1.60000000e-10  7.63127042e-01  1.60000000e-10  7.03535849e-01  1.60000000e-10  1.58335945e+00  1.60000000e-10  2.88000000e-01  1.60000000e-10  1.80000397e+00  1.60000000e-10  7.07536104e-01  1.60000000e-10  1.58355520e+00  1.60000000e-10  1.58826634e+00                                 
 3.20000000e-10  7.63123297e-01  3.20000000e-10  7.03535646e-01  3.20000000e-10  1.58299767e+00  3.20000000e-10  5.76000000e-01  3.20000000e-10  1.79999246e+00  3.20000000e-10  7.07405040e-01  3.20000000e-10  1.58327593e+00  3.20000000e-10  1.58826242e+00                                 
 6.40000000e-10  7.63041171e-01  6.40000000e-10  7.03174134e-01  6.40000000e-10  1.58054775e+00  6.40000000e-10  1.15200000e+00  6.40000000e-10  1.81186911e+00  6.40000000e-10  7.05380866e-01  6.40000000e-10  1.58812344e+00  6.40000000e-10  1.58829129e+00                                 
 1.00000000e-09  7.63672767e-01  1.00000000e-09  7.03402699e-01  1.00000000e-09  1.55503319e+00  1.00000000e-09  1.80000000e+00  1.00000000e-09  9.10179393e-02  1.00000000e-09  7.15411058e-01  1.00000000e-09  1.58706358e+00  1.00000000e-09  1.58824477e+00                                 
 1.03636653e-09  7.63700196e-01  1.03636653e-09  7.03442208e-01  1.03636653e-09  1.55421872e+00  1.03636653e-09  1.80000000e+00  1.03636653e-09  2.01689216e-02  1.03636653e-09  7.18269081e-01  1.03636653e-09  1.58861306e+00  1.03636653e-09  1.58828523e+00                                 
 1.10909960e-09  7.63788916e-01  1.10909960e-09  7.03514238e-01  1.10909960e-09  1.55376058e+00  1.10909960e-09  1.80000000e+00  1.10909960e-09 -9.68400347e-03  1.10909960e-09  7.21968692e-01  1.10909960e-09  1.59149191e+00  1.10909960e-09  1.58831401e+00                                 
 1.25456574e-09  7.63902286e-01  1.25456574e-09  7.03387482e-01  1.25456574e-09  1.55193832e+00  1.25456574e-09  1.80000000e+00  1.25456574e-09  8.20246814e-03  1.25456574e-09  7.22184741e-01  1.25456574e-09  1.59192291e+00  1.25456574e-09  1.58826775e+00                                 
 1.47245366e-09  7.63898738e-01  1.47245366e-09  7.03361419e-01  1.47245366e-09  1.55093269e+00  1.47245366e-09  1.80000000e+00  1.47245366e-09 -6.41517839e-03  1.47245366e-09  7.21680448e-01  1.47245366e-09  1.59128868e+00  1.47245366e-09  1.58830004e+00                                 
 1.70552108e-09  7.63807726e-01  1.70552108e-09  7.03355861e-01  1.70552108e-09  1.55085069e+00  1.70552108e-09  1.80000000e+00  1.70552108e-09  5.55698293e-03  1.70552108e-09  7.20388375e-01  1.70552108e-09  1.59036605e+00  1.70552108e-09  1.58830303e+00                                 
 2.09925824e-09  7.63547549e-01  2.09925824e-09  7.03310430e-01  2.09925824e-09  1.55126282e+00  2.09925824e-09  1.80000000e+00  2.09925824e-09 -5.07392723e-03  2.09925824e-09  7.18257194e-01  2.09925824e-09  1.58839090e+00  2.09925824e-09  1.58838038e+00                                 
 2.47189962e-09  7.63359628e-01  2.47189962e-09  7.03316967e-01  2.47189962e-09  1.55191324e+00  2.47189962e-09  1.80000000e+00  2.47189962e-09  4.49775221e-03  2.47189962e-09  7.16576734e-01  2.47189962e-09  1.58710083e+00  2.47189962e-09  1.58843806e+00                                 
 3.13133990e-09  7.63138402e-01  3.13133990e-09  7.03275439e-01  3.13133990e-09  1.55185953e+00  3.13133990e-09  1.80000000e+00  3.13133990e-09 -4.33855692e-03  3.13133990e-09  7.13561681e-01  3.13133990e-09  1.58439443e+00  3.13133990e-09  1.58856368e+00                                 
 4.08080731e-09  7.63027304e-01  4.08080731e-09  7.03294632e-01  4.08080731e-09  1.55144781e+00  4.08080731e-09  1.80000000e+00  4.08080731e-09  4.08402224e-03  4.08080731e-09  7.10530495e-01  4.08080731e-09  1.58193718e+00  4.08080731e-09  1.58868471e+00                                 
 5.97974212e-09  7.62942810e-01  5.97974212e-09  7.03276990e-01  5.97974212e-09  1.54938602e+00  5.97974212e-09  1.80000000e+00  5.97974212e-09 -4.06415190e-03  5.97974212e-09  7.06357167e-01  5.97974212e-09  1.57825865e+00  5.97974212e-09  1.58876488e+00                                 
 7.58453992e-09  7.62942404e-01  7.58453992e-09  7.03313146e-01  7.58453992e-09  1.54779020e+00  7.58453992e-09  1.80000000e+00  7.58453992e-09  3.94396866e-03  7.58453992e-09  7.04995166e-01  7.58453992e-09  1.57722263e+00  7.58453992e-09  1.58866003e+00                                 
 9.11513148e-09  7.62960727e-01  9.11513148e-09  7.03291800e-01  9.11513148e-09  1.54455238e+00  9.11513148e-09  1.80000000e+00  9.11513148e-09 -3.86287802e-03  9.11513148e-09  7.04084263e-01  9.11513148e-09  1.57632664e+00  9.11513148e-09  1.58848605e+00                                 
 1.07483415e-08  7.63004806e-01  1.07483415e-08  7.03321544e-01  1.07483415e-08  1.54034549e+00  1.07483415e-08  1.80000000e+00  1.07483415e-08  3.77089335e-03  1.07483415e-08  7.03991391e-01  1.07483415e-08  1.57636043e+00  1.07483415e-08  1.58824941e+00                                 
 1.30446435e-08  7.63046069e-01  1.30446435e-08  7.03297095e-01  1.30446435e-08  1.53204815e+00  1.30446435e-08  1.80000000e+00  1.30446435e-08 -3.71243606e-03  1.30446435e-08  7.03699035e-01  1.30446435e-08  1.57598638e+00  1.30446435e-08  1.58790728e+00                                 
 1.58373374e-08  7.63091665e-01  1.58373374e-08  7.03325050e-01  1.58373374e-08  1.52085587e+00  1.58373374e-08  1.80000000e+00  1.58373374e-08  3.66533145e-03  1.58373374e-08  7.04053389e-01  1.58373374e-08  1.57638614e+00  1.58373374e-08  1.58749800e+00                                 
 1.97349651e-08  7.63110063e-01  1.97349651e-08  7.03299256e-01  1.97349651e-08  1.50315813e+00  1.97349651e-08  1.80000000e+00  1.97349651e-08 -3.62841879e-03  1.97349651e-08  7.04102250e-01  1.97349651e-08  1.57629413e+00  1.97349651e-08  1.58699552e+00                                 
 2.49974187e-08  7.63123700e-01  2.49974187e-08  7.03326207e-01  2.49974187e-08  1.47890923e+00  2.49974187e-08  1.80000000e+00  2.49974187e-08  3.60628636e-03  2.49974187e-08  7.04654941e-01  2.49974187e-08  1.57685247e+00  2.49974187e-08  1.58642761e+00                                 
 3.39594916e-08  7.63114746e-01  3.39594916e-08  7.03299454e-01  3.39594916e-08  1.43633309e+00  3.39594916e-08  1.80000000e+00  3.39594916e-08 -3.58861511e-03  3.39594916e-08  7.04822276e-01  3.39594916e-08  1.57685686e+00  3.39594916e-08  1.58571391e+00                                 
 4.78542077e-08  7.63116787e-01  4.78542077e-08  7.03325865e-01  4.78542077e-08  1.37076295e+00  4.78542077e-08  1.80000000e+00  4.78542077e-08  3.58197436e-03  4.78542077e-08  7.05374320e-01  4.78542077e-08  1.57741553e+00  4.78542077e-08  1.58501445e+00                                 
 7.56436401e-08  7.63107647e-01  7.56436401e-08  7.03299105e-01  7.56436401e-08  1.23921668e+00  7.56436401e-08  1.80000000e+00  7.56436401e-08 -3.57448600e-03  7.56436401e-08  7.05374843e-01  7.56436401e-08  1.57728975e+00  7.56436401e-08  1.58437043e+00                                 
 1.17451935e-07  7.63113213e-01  1.17451935e-07  7.03325729e-01  1.17451935e-07  1.04400342e+00  1.17451935e-07  1.80000000e+00  1.17451935e-07  3.57449622e-03  1.17451935e-07  7.05634072e-01  1.17451935e-07  1.57761533e+00  1.17451935e-07  1.58410111e+00                                 
 1.78580613e-07  7.63106862e-01  1.78580613e-07  7.03299076e-01  1.78580613e-07  7.95178959e-01  1.78580613e-07  1.80000000e+00  1.78580613e-07 -3.56706311e-03  1.78580613e-07  7.05404025e-01  1.78580613e-07  1.57730514e+00  1.78580613e-07  1.58403596e+00                                 
 2.31583730e-07  7.63114583e-01  2.31583730e-07  7.03325840e-01  2.31583730e-07  7.03964506e-01  2.31583730e-07  1.80000000e+00  2.31583730e-07  3.57492046e-03  2.31583730e-07  7.05635773e-01  2.31583730e-07  1.57761053e+00  2.31583730e-07  1.58402841e+00                                 
 2.79455480e-07  7.63104153e-01  2.79455480e-07  7.03298948e-01  2.79455480e-07  7.08250788e-01  2.79455480e-07  1.80000000e+00  2.79455480e-07 -3.55974655e-03  2.79455480e-07  7.05406641e-01  2.79455480e-07  1.57730358e+00  2.79455480e-07  1.58402970e+00                                 
 3.00987162e-07  7.63115965e-01  3.00987162e-07  7.03325818e-01  3.00987162e-07  7.08129917e-01  3.00987162e-07  1.80000000e+00  3.00987162e-07  3.56636178e-03  3.00987162e-07  7.05631642e-01  3.00987162e-07  1.57760439e+00  3.00987162e-07  1.58402583e+00                                 
 3.35360433e-07  7.63104592e-01  3.35360433e-07  7.03299046e-01  3.35360433e-07  7.07569523e-01  3.35360433e-07  1.80000000e+00  3.35360433e-07 -3.55031106e-03  3.35360433e-07  7.05406710e-01  3.35360433e-07  1.57730171e+00  3.35360433e-07  1.58402621e+00                                 
 3.99179425e-07  7.63115456e-01  3.99179425e-07  7.03325778e-01  3.99179425e-07  7.07962867e-01  3.99179425e-07  1.80000000e+00  3.99179425e-07  3.56075692e-03  3.99179425e-07  7.05632273e-01  3.99179425e-07  1.57760128e+00  3.99179425e-07  1.58402167e+00                                 
 4.95922200e-07  7.63104826e-01  4.95922200e-07  7.03299056e-01  4.95922200e-07  7.07578260e-01  4.95922200e-07  1.80000000e+00  4.95922200e-07 -3.54707925e-03  4.95922200e-07  7.05406508e-01  4.95922200e-07  1.57729577e+00  4.95922200e-07  1.58402028e+00                                 
 6.89407750e-07  7.63115322e-01  6.89407750e-07  7.03325774e-01  6.89407750e-07  7.07958148e-01  6.89407750e-07  1.80000000e+00  6.89407750e-07  3.55881493e-03  6.89407750e-07  7.05632378e-01  6.89407750e-07  1.57759083e+00  6.89407750e-07  1.58401117e+00                                 
 1.07637885e-06  7.63104892e-01  1.07637885e-06  7.03299058e-01  1.07637885e-06  7.07580497e-01  1.07637885e-06  1.80000000e+00  1.07637885e-06 -3.54610012e-03  1.07637885e-06  7.05406459e-01  1.07637885e-06  1.57727475e+00  1.07637885e-06  1.58399931e+00                                 
 1.85032105e-06  7.63115290e-01  1.85032105e-06  7.03325774e-01  1.85032105e-06  7.07957028e-01  1.85032105e-06  1.80000000e+00  1.85032105e-06  3.55832961e-03  1.85032105e-06  7.05632401e-01  1.85032105e-06  1.57754885e+00  1.85032105e-06  1.58396923e+00                                 
 3.05032105e-06  7.63104910e-01  3.05032105e-06  7.03299058e-01  3.05032105e-06  7.07581111e-01  3.05032105e-06  1.80000000e+00  3.05032105e-06 -3.54585046e-03  3.05032105e-06  7.05406447e-01  3.05032105e-06  1.57720336e+00  3.05032105e-06  1.58392804e+00                                 
 4.25032105e-06  7.63115275e-01  4.25032105e-06  7.03325773e-01  4.25032105e-06  7.07956568e-01  4.25032105e-06  1.80000000e+00  4.25032105e-06  3.55812254e-03  4.25032105e-06  7.05632411e-01  4.25032105e-06  1.57746206e+00  4.25032105e-06  1.58388257e+00                                 
 5.45032105e-06  7.63104923e-01  5.45032105e-06  7.03299058e-01  5.45032105e-06  7.07581589e-01  5.45032105e-06  1.80000000e+00  5.45032105e-06 -3.54565290e-03  5.45032105e-06  7.05406437e-01  5.45032105e-06  1.57711654e+00  5.45032105e-06  1.58384135e+00                                 
 6.00100000e-06  7.63115254e-01  6.00100000e-06  7.03325773e-01  6.00100000e-06  7.07955818e-01  6.00100000e-06  1.80000000e+00  6.00100000e-06  3.55779099e-03  6.00100000e-06  7.05632425e-01  6.00100000e-06  1.57739874e+00  6.00100000e-06  1.58381933e+00                                 
 6.00110000e-06  7.63068734e-01  6.00110000e-06  7.03071987e-01  6.00110000e-06  7.05996961e-01  6.00110000e-06  1.62000000e+00  6.00110000e-06  1.89126572e-04  6.00110000e-06  7.03884859e-01  6.00110000e-06  1.57585770e+00  6.00110000e-06  1.58380818e+00                                 
 6.00130000e-06  7.63100018e-01  6.00130000e-06  7.03079666e-01  6.00130000e-06  7.06282438e-01  6.00130000e-06  1.26000000e+00  6.00130000e-06 -2.20261427e-04  6.00130000e-06  7.03819657e-01  6.00130000e-06  1.57579654e+00  6.00130000e-06  1.58382675e+00                                 
 6.00170000e-06  7.63156539e-01  6.00170000e-06  7.02624676e-01  6.00170000e-06  7.24280299e-01  6.00170000e-06  5.40000000e-01  6.00170000e-06  1.52147017e+00  6.00170000e-06  6.97011412e-01  6.00170000e-06  1.48823544e+00  6.00170000e-06  1.58349762e+00                                 
 6.00200000e-06  7.63094484e-01  6.00200000e-06  7.00297390e-01  6.00200000e-06  7.53143269e-01  6.00200000e-06  0.00000000e+00  6.00200000e-06  1.87340357e+00  6.00200000e-06  6.72453434e-01  6.00200000e-06  1.15478438e+00  6.00200000e-06  1.58341248e+00                                 
 6.00203698e-06  7.63107309e-01  6.00203698e-06  7.00360966e-01  6.00203698e-06  7.47718493e-01  6.00203698e-06  0.00000000e+00  6.00203698e-06  1.82838648e+00  6.00203698e-06  6.73436622e-01  6.00203698e-06  1.11064120e+00  6.00203698e-06  1.58375508e+00                                 
 6.00211093e-06  7.63113547e-01  6.00211093e-06  7.00601557e-01  6.00211093e-06  7.39863336e-01  6.00211093e-06  0.00000000e+00  6.00211093e-06  1.79222401e+00  6.00211093e-06  6.76735744e-01  6.00211093e-06  1.03612677e+00  6.00211093e-06  1.58403925e+00                                 
 6.00225884e-06  7.63109096e-01  6.00225884e-06  7.00927310e-01  6.00225884e-06  7.35976538e-01  6.00225884e-06  0.00000000e+00  6.00225884e-06  1.80237260e+00  6.00225884e-06  6.80715612e-01  6.00225884e-06  9.20918825e-01  6.00225884e-06  1.58397118e+00                                 
 6.00246983e-06  7.63110516e-01  6.00246983e-06  7.01549880e-01  6.00246983e-06  7.27404741e-01  6.00246983e-06  0.00000000e+00  6.00246983e-06  1.79738188e+00  6.00246983e-06  6.86794726e-01  6.00246983e-06  8.04565851e-01  6.00246983e-06  1.58410758e+00                                 
 6.00269082e-06  7.63108774e-01  6.00269082e-06  7.02519070e-01  6.00269082e-06  7.17193221e-01  6.00269082e-06  0.00000000e+00  6.00269082e-06  1.80102575e+00  6.00269082e-06  6.96119175e-01  6.00269082e-06  7.45189066e-01  6.00269082e-06  1.58406182e+00                                 
 6.00292484e-06  7.63109950e-01  6.00292484e-06  7.03161516e-01  6.00292484e-06  7.11984887e-01  6.00292484e-06  0.00000000e+00  6.00292484e-06  1.79930805e+00  6.00292484e-06  7.01237474e-01  6.00292484e-06  7.20515550e-01  6.00292484e-06  1.58391402e+00                                 
 6.00320783e-06  7.63109196e-01  6.00320783e-06  7.03628262e-01  6.00320783e-06  7.08965886e-01  6.00320783e-06  0.00000000e+00  6.00320783e-06  1.80048952e+00  6.00320783e-06  7.04743671e-01  6.00320783e-06  7.11823386e-01  6.00320783e-06  1.58334750e+00                                 
 6.00350958e-06  7.63110149e-01  6.00350958e-06  7.03783333e-01  6.00350958e-06  7.08884611e-01  6.00350958e-06  0.00000000e+00  6.00350958e-06  1.79972369e+00  6.00350958e-06  7.05629273e-01  6.00350958e-06  7.09111566e-01  6.00350958e-06  1.58254940e+00                                 
 6.00396576e-06  7.63109659e-01  6.00396576e-06  7.03859578e-01  6.00396576e-06  7.08904883e-01  6.00396576e-06  0.00000000e+00  6.00396576e-06  1.80022438e+00  6.00396576e-06  7.06465580e-01  6.00396576e-06  7.09093011e-01  6.00396576e-06  1.58101655e+00                                 
 6.00465738e-06  7.63110434e-01  6.00465738e-06  7.03798780e-01  6.00465738e-06  7.10660686e-01  6.00465738e-06  0.00000000e+00  6.00465738e-06  1.79984394e+00  6.00465738e-06  7.06513308e-01  6.00465738e-06  7.10105337e-01  6.00465738e-06  1.57845028e+00                                 
 6.00595788e-06  7.63109860e-01  6.00595788e-06  7.03702950e-01  6.00595788e-06  7.13250943e-01  6.00595788e-06  0.00000000e+00  6.00595788e-06  1.80015655e+00  6.00595788e-06  7.06850116e-01  6.00595788e-06  7.13225053e-01  6.00595788e-06  1.57316505e+00                                 
 6.00848628e-06  7.63110406e-01  6.00848628e-06  7.03515736e-01  6.00848628e-06  7.19809528e-01  6.00848628e-06  0.00000000e+00  6.00848628e-06  1.79987477e+00  6.00848628e-06  7.06665550e-01  6.00848628e-06  7.19166743e-01  6.00848628e-06  1.56244910e+00                                 
 6.01354308e-06  7.63109790e-01  6.01354308e-06  7.03338298e-01  6.01354308e-06  7.31899940e-01  6.01354308e-06  0.00000000e+00  6.01354308e-06  1.80014063e+00  6.01354308e-06  7.06577242e-01  6.01354308e-06  7.31831683e-01  6.01354308e-06  1.54084365e+00                                 
 6.02365669e-06  7.63110390e-01  6.02365669e-06  7.03275734e-01  6.02365669e-06  7.56307726e-01  6.02365669e-06  0.00000000e+00  6.02365669e-06  1.79988142e+00  6.02365669e-06  7.05989572e-01  6.02365669e-06  7.55576114e-01  6.02365669e-06  1.49936606e+00                                 
 6.04388390e-06  7.63109798e-01  6.04388390e-06  7.03321197e-01  6.04388390e-06  8.00430107e-01  6.04388390e-06  0.00000000e+00  6.04388390e-06  1.80013566e+00  6.04388390e-06  7.05742293e-01  6.04388390e-06  8.00399304e-01  6.04388390e-06  1.42306332e+00                                 
 6.08433833e-06  7.63110392e-01  6.08433833e-06  7.03300786e-01  6.08433833e-06  8.76955570e-01  6.08433833e-06  0.00000000e+00  6.08433833e-06  1.79988021e+00  6.08433833e-06  7.05415722e-01  6.08433833e-06  8.75496158e-01  6.08433833e-06  1.28979952e+00                                 
 6.16524719e-06  7.63109800e-01  6.16524719e-06  7.03323738e-01  6.16524719e-06  9.87805519e-01  6.16524719e-06  0.00000000e+00  6.16524719e-06  1.80012988e+00  6.16524719e-06  7.05598504e-01  6.16524719e-06  9.88434745e-01  6.16524719e-06  1.08428243e+00                                 
 6.25881422e-06  7.63110392e-01  6.25881422e-06  7.03301471e-01  6.25881422e-06  1.06744586e+00  6.25881422e-06  0.00000000e+00  6.25881422e-06  1.79987576e+00  6.25881422e-06  7.05428697e-01  6.25881422e-06  1.06544619e+00  6.25881422e-06  1.03575687e+00                                 
 6.35252344e-06  7.63109800e-01  6.35252344e-06  7.03323067e-01  6.35252344e-06  1.11334779e+00  6.35252344e-06  0.00000000e+00  6.35252344e-06  1.80012679e+00  6.35252344e-06  7.05603325e-01  6.35252344e-06  1.11430279e+00  6.35252344e-06  1.10664124e+00                                 
 6.43944367e-06  7.63110391e-01  6.43944367e-06  7.03302077e-01  6.43944367e-06  1.13916494e+00  6.43944367e-06  0.00000000e+00  6.43944367e-06  1.79987484e+00  6.43944367e-06  7.05430056e-01  6.43944367e-06  1.13796305e+00  6.43944367e-06  1.13639515e+00                                 
