 time            v(vbep)         time            v(vben)         time            v(vout)         time            v(vphi1)        time            v(vphi2)        time            v(vref)         time            v(voutc)        time            v(voutcc)       yes             currtemp       
 0.00000000e+00  7.66120116e-01  0.00000000e+00  7.06747278e-01  0.00000000e+00  1.58995535e+00  0.00000000e+00  0.00000000e+00  0.00000000e+00  1.80000000e+00  0.00000000e+00  7.09034655e-01  0.00000000e+00  1.58995535e+00  0.00000000e+00  1.59645612e+00  1.00000000e+00  3.20000000e+01 
 1.00000000e-11  7.66145084e-01  1.00000000e-11  7.06818471e-01  1.00000000e-11  1.59073977e+00  1.00000000e-11  1.80000000e-02  1.00000000e-11  1.80025076e+00  1.00000000e-11  7.09565079e-01  1.00000000e-11  1.59042485e+00  1.00000000e-11  1.59646948e+00                                 
 2.00000000e-11  7.66151916e-01  2.00000000e-11  7.06863175e-01  2.00000000e-11  1.59122641e+00  2.00000000e-11  3.60000000e-02  2.00000000e-11  1.80035076e+00  2.00000000e-11  7.09959523e-01  2.00000000e-11  1.59078140e+00  2.00000000e-11  1.59647448e+00                                 
 4.00000000e-11  7.66151823e-01  4.00000000e-11  7.06922144e-01  4.00000000e-11  1.59181864e+00  4.00000000e-11  7.20000000e-02  4.00000000e-11  1.80038989e+00  4.00000000e-11  7.10536705e-01  4.00000000e-11  1.59131469e+00  4.00000000e-11  1.59647605e+00                                 
 8.00000000e-11  7.66139904e-01  8.00000000e-11  7.06960134e-01  8.00000000e-11  1.59195695e+00  8.00000000e-11  1.44000000e-01  8.00000000e-11  1.80018700e+00  8.00000000e-11  7.10983209e-01  8.00000000e-11  1.59175504e+00  8.00000000e-11  1.59646533e+00                                 
 1.60000000e-10  7.66136944e-01  1.60000000e-10  7.06970641e-01  1.60000000e-10  1.59162807e+00  1.60000000e-10  2.88000000e-01  1.60000000e-10  1.80000409e+00  1.60000000e-10  7.11049441e-01  1.60000000e-10  1.59181471e+00  1.60000000e-10  1.59645552e+00                                 
 3.20000000e-10  7.66133256e-01  3.20000000e-10  7.06971060e-01  3.20000000e-10  1.59126804e+00  3.20000000e-10  5.76000000e-01  3.20000000e-10  1.79999350e+00  3.20000000e-10  7.10922273e-01  3.20000000e-10  1.59154199e+00  3.20000000e-10  1.59645168e+00                                 
 6.40000000e-10  7.66051454e-01  6.40000000e-10  7.06616714e-01  6.40000000e-10  1.58869115e+00  6.40000000e-10  1.15200000e+00  6.40000000e-10  1.81198015e+00  6.40000000e-10  7.08977043e-01  6.40000000e-10  1.59642007e+00  6.40000000e-10  1.59648064e+00                                 
 1.00000000e-09  7.66686208e-01  1.00000000e-09  7.06833832e-01  1.00000000e-09  1.56271619e+00  1.00000000e-09  1.80000000e+00  1.00000000e-09  9.02647170e-02  1.00000000e-09  7.18638401e-01  1.00000000e-09  1.59492442e+00  1.00000000e-09  1.59643102e+00                                 
 1.03632248e-09  7.66708458e-01  1.03632248e-09  7.06874222e-01  1.03632248e-09  1.56196574e+00  1.03632248e-09  1.80000000e+00  1.03632248e-09  1.99299382e-02  1.03632248e-09  7.21470201e-01  1.03632248e-09  1.59645703e+00  1.03632248e-09  1.59647251e+00                                 
 1.10896745e-09  7.66790070e-01  1.10896745e-09  7.06946658e-01  1.10896745e-09  1.56164881e+00  1.10896745e-09  1.80000000e+00  1.10896745e-09 -9.56489665e-03  1.10896745e-09  7.25141151e-01  1.10896745e-09  1.59931427e+00  1.10896745e-09  1.59650222e+00                                 
 1.25425738e-09  7.66907885e-01  1.25425738e-09  7.06819811e-01  1.25425738e-09  1.55984590e+00  1.25425738e-09  1.80000000e+00  1.25425738e-09  8.15097344e-03  1.25425738e-09  7.25388190e-01  1.25425738e-09  1.59976840e+00  1.25425738e-09  1.59645618e+00                                 
 1.47526807e-09  7.66909765e-01  1.47526807e-09  7.06793613e-01  1.47526807e-09  1.55866943e+00  1.47526807e-09  1.80000000e+00  1.47526807e-09 -6.38805059e-03  1.47526807e-09  7.24961547e-01  1.47526807e-09  1.59920121e+00  1.47526807e-09  1.59648826e+00                                 
 1.71059873e-09  7.66818555e-01  1.71059873e-09  7.06788098e-01  1.71059873e-09  1.55858310e+00  1.71059873e-09  1.80000000e+00  1.71059873e-09  5.54790722e-03  1.71059873e-09  7.23723647e-01  1.71059873e-09  1.59832445e+00  1.71059873e-09  1.59648929e+00                                 
 2.10803214e-09  7.66555131e-01  2.10803214e-09  7.06743666e-01  2.10803214e-09  1.55905223e+00  2.10803214e-09  1.80000000e+00  2.10803214e-09 -5.07307328e-03  2.10803214e-09  7.21688963e-01  2.10803214e-09  1.59643251e+00  2.10803214e-09  1.59656326e+00                                 
 2.47022233e-09  7.66371988e-01  2.47022233e-09  7.06750841e-01  2.47022233e-09  1.55976825e+00  2.47022233e-09  1.80000000e+00  2.47022233e-09  4.49019490e-03  2.47022233e-09  7.20139064e-01  2.47022233e-09  1.59525417e+00  2.47022233e-09  1.59661452e+00                                 
 3.13522440e-09  7.66148555e-01  3.13522440e-09  7.06709971e-01  3.13522440e-09  1.55984004e+00  3.13522440e-09  1.80000000e+00  3.13522440e-09 -4.33140275e-03  3.13522440e-09  7.17212449e-01  3.13522440e-09  1.59262434e+00  3.13522440e-09  1.59673453e+00                                 
 4.09447270e-09  7.66039730e-01  4.09447270e-09  7.06729276e-01  4.09447270e-09  1.55953911e+00  4.09447270e-09  1.80000000e+00  4.09447270e-09  4.08187043e-03  4.09447270e-09  7.14231407e-01  4.09447270e-09  1.59021038e+00  4.09447270e-09  1.59685063e+00                                 
 6.01296932e-09  7.65966394e-01  6.01296932e-09  7.06712410e-01  6.01296932e-09  1.55732929e+00  6.01296932e-09  1.80000000e+00  6.01296932e-09 -4.06628945e-03  6.01296932e-09  7.10052030e-01  6.01296932e-09  1.58652750e+00  6.01296932e-09  1.59692984e+00                                 
 7.69671720e-09  7.65958497e-01  7.69671720e-09  7.06748870e-01  7.69671720e-09  1.55584078e+00  7.69671720e-09  1.80000000e+00  7.69671720e-09  3.94829701e-03  7.69671720e-09  7.08589170e-01  7.69671720e-09  1.58540589e+00  7.69671720e-09  1.59682303e+00                                 
 9.23333383e-09  7.65972991e-01  9.23333383e-09  7.06727580e-01  9.23333383e-09  1.55291645e+00  9.23333383e-09  1.80000000e+00  9.23333383e-09 -3.86898512e-03  9.23333383e-09  7.07661125e-01  9.23333383e-09  1.58449536e+00  9.23333383e-09  1.59665159e+00                                 
 1.09142310e-08  7.66013592e-01  1.09142310e-08  7.06756867e-01  1.09142310e-08  1.54901708e+00  1.09142310e-08  1.80000000e+00  1.09142310e-08  3.77935050e-03  1.09142310e-08  7.07536051e-01  1.09142310e-08  1.58450184e+00  1.09142310e-08  1.59641165e+00                                 
 1.31913610e-08  7.66053444e-01  1.31913610e-08  7.06732321e-01  1.31913610e-08  1.54135441e+00  1.31913610e-08  1.80000000e+00  1.31913610e-08 -3.72074254e-03  1.31913610e-08  7.07225496e-01  1.31913610e-08  1.58411240e+00  1.31913610e-08  1.59607617e+00                                 
 1.60234156e-08  7.66098448e-01  1.60234156e-08  7.06759845e-01  1.60234156e-08  1.53068348e+00  1.60234156e-08  1.80000000e+00  1.60234156e-08  3.67463335e-03  1.60234156e-08  7.07561669e-01  1.60234156e-08  1.58449679e+00  1.60234156e-08  1.59566329e+00                                 
 1.98446940e-08  7.66118621e-01  1.98446940e-08  7.06734177e-01  1.98446940e-08  1.51413643e+00  1.98446940e-08  1.80000000e+00  1.98446940e-08 -3.63693354e-03  1.98446940e-08  7.07597981e-01  1.98446940e-08  1.58439432e+00  1.98446940e-08  1.59516987e+00                                 
 2.50548884e-08  7.66132778e-01  2.50548884e-08  7.06760893e-01  2.50548884e-08  1.49115299e+00  2.50548884e-08  1.80000000e+00  2.50548884e-08  3.61499883e-03  2.50548884e-08  7.08143543e-01  2.50548884e-08  1.58494660e+00  2.50548884e-08  1.59460068e+00                                 
 3.35247678e-08  7.66125636e-01  3.35247678e-08  7.06734396e-01  3.35247678e-08  1.45244114e+00  3.35247678e-08  1.80000000e+00  3.35247678e-08 -3.59617858e-03  3.35247678e-08  7.08300025e-01  3.35247678e-08  1.58494194e+00  3.35247678e-08  1.59390514e+00                                 
 4.69558106e-08  7.66126704e-01  4.69558106e-08  7.06760599e-01  4.69558106e-08  1.39144186e+00  4.69558106e-08  1.80000000e+00  4.69558106e-08  3.58962600e-03  4.69558106e-08  7.08858891e-01  4.69558106e-08  1.58550529e+00  4.69558106e-08  1.59318419e+00                                 
 7.38178964e-08  7.66118327e-01  7.38178964e-08  7.06734075e-01  7.38178964e-08  1.26886883e+00  7.38178964e-08  1.80000000e+00  7.38178964e-08 -3.58166244e-03  7.38178964e-08  7.08880164e-01  7.38178964e-08  1.58539525e+00  7.38178964e-08  1.59249013e+00                                 
 1.15284616e-07  7.66122761e-01  1.15284616e-07  7.06760476e-01  1.15284616e-07  1.08201376e+00  1.15284616e-07  1.80000000e+00  1.15284616e-07  3.58190285e-03  1.15284616e-07  7.09148688e-01  1.15284616e-07  1.58572786e+00  1.15284616e-07  1.59216990e+00                                 
 1.73463146e-07  7.66117295e-01  1.73463146e-07  7.06734045e-01  1.73463146e-07  8.37140332e-01  1.73463146e-07  1.80000000e+00  1.73463146e-07 -3.57489393e-03  1.73463146e-07  7.08920519e-01  1.73463146e-07  1.58541904e+00  1.73463146e-07  1.59208979e+00                                 
 2.28982153e-07  7.66124089e-01  2.28982153e-07  7.06760552e-01  2.28982153e-07  7.16120754e-01  2.28982153e-07  1.80000000e+00  2.28982153e-07  3.58204331e-03  2.28982153e-07  7.09148176e-01  2.28982153e-07  1.58572076e+00  2.28982153e-07  1.59207728e+00                                 
 2.80378421e-07  7.66115158e-01  2.80378421e-07  7.06734007e-01  2.80378421e-07  7.10252449e-01  2.80378421e-07  1.80000000e+00  2.80378421e-07 -3.56735332e-03  2.80378421e-07  7.08924981e-01  2.80378421e-07  1.58541858e+00  2.80378421e-07  1.59207859e+00                                 
 3.06745185e-07  7.66124550e-01  3.06745185e-07  7.06760416e-01  3.06745185e-07  7.11514067e-01  3.06745185e-07  1.80000000e+00  3.06745185e-07  3.57502899e-03  3.06745185e-07  7.09144511e-01  3.06745185e-07  1.58571470e+00  3.06745185e-07  1.59207449e+00                                 
 3.42359713e-07  7.66115994e-01  3.42359713e-07  7.06734179e-01  3.42359713e-07  7.11130517e-01  3.42359713e-07  1.80000000e+00  3.42359713e-07 -3.55917697e-03  3.42359713e-07  7.08924127e-01  3.42359713e-07  1.58541565e+00  3.42359713e-07  1.59207477e+00                                 
 4.13588767e-07  7.66124132e-01  4.13588767e-07  7.06760354e-01  4.13588767e-07  7.11589780e-01  4.13588767e-07  1.80000000e+00  4.13588767e-07  3.56976292e-03  4.13588767e-07  7.09145314e-01  4.13588767e-07  1.58571137e+00  4.13588767e-07  1.59206984e+00                                 
 5.18654672e-07  7.66116164e-01  5.18654672e-07  7.06734197e-01  5.18654672e-07  7.11147318e-01  5.18654672e-07  1.80000000e+00  5.18654672e-07 -3.55625523e-03  5.18654672e-07  7.08923848e-01  5.18654672e-07  1.58540902e+00  5.18654672e-07  1.59206819e+00                                 
 7.28786482e-07  7.66124036e-01  7.28786482e-07  7.06760346e-01  7.28786482e-07  7.11580183e-01  7.28786482e-07  1.80000000e+00  7.28786482e-07  3.56798154e-03  7.28786482e-07  7.09145467e-01  7.28786482e-07  1.58569995e+00  7.28786482e-07  1.59205832e+00                                 
 1.14905010e-06  7.66116210e-01  1.14905010e-06  7.06734201e-01  1.14905010e-06  7.11151927e-01  1.14905010e-06  1.80000000e+00  1.14905010e-06 -3.55535413e-03  1.14905010e-06  7.08923777e-01  1.14905010e-06  1.58538590e+00  1.14905010e-06  1.59204516e+00                                 
 1.98957734e-06  7.66124014e-01  1.98957734e-06  7.06760345e-01  1.98957734e-06  7.11577939e-01  1.98957734e-06  1.80000000e+00  1.98957734e-06  3.56753632e-03  1.98957734e-06  7.09145502e-01  1.98957734e-06  1.58565386e+00  1.98957734e-06  1.59201228e+00                                 
 3.18957734e-06  7.66116222e-01  3.18957734e-06  7.06734201e-01  3.18957734e-06  7.11153201e-01  3.18957734e-06  1.80000000e+00  3.18957734e-06 -3.55512164e-03  3.18957734e-06  7.08923757e-01  3.18957734e-06  1.58531128e+00  3.18957734e-06  1.59197067e+00                                 
 4.38957734e-06  7.66124004e-01  4.38957734e-06  7.06760344e-01  4.38957734e-06  7.11576926e-01  4.38957734e-06  1.80000000e+00  4.38957734e-06  3.56733010e-03  4.38957734e-06  7.09145518e-01  4.38957734e-06  1.58556602e+00  4.38957734e-06  1.59192456e+00                                 
 5.58957734e-06  7.66116232e-01  5.58957734e-06  7.06734202e-01  5.58957734e-06  7.11154232e-01  5.58957734e-06  1.80000000e+00  5.58957734e-06 -3.55492234e-03  5.58957734e-06  7.08923742e-01  5.58957734e-06  1.58522336e+00  5.58957734e-06  1.59188289e+00                                 
 6.00100000e-06  7.66123985e-01  6.00100000e-06  7.06760343e-01  6.00100000e-06  7.11574951e-01  6.00100000e-06  1.80000000e+00  6.00100000e-06  3.56692314e-03  6.00100000e-06  7.09145548e-01  6.00100000e-06  1.58550705e+00  6.00100000e-06  1.59186565e+00                                 
 6.00110000e-06  7.66078662e-01  6.00110000e-06  7.06506529e-01  6.00110000e-06  7.09601682e-01  6.00110000e-06  1.62000000e+00  6.00110000e-06  1.87875682e-04  6.00110000e-06  7.07391664e-01  6.00110000e-06  1.58396094e+00  6.00110000e-06  1.59185446e+00                                 
 6.00130000e-06  7.66110113e-01  6.00130000e-06  7.06515575e-01  6.00130000e-06  7.09899754e-01  6.00130000e-06  1.26000000e+00  6.00130000e-06 -2.18363135e-04  6.00130000e-06  7.07342658e-01  6.00130000e-06  1.58391366e+00  6.00130000e-06  1.59187326e+00                                 
 6.00170000e-06  7.66165519e-01  6.00170000e-06  7.06080224e-01  6.00170000e-06  7.27474561e-01  6.00170000e-06  5.40000000e-01  6.00170000e-06  1.51234370e+00  6.00170000e-06  7.00773732e-01  6.00170000e-06  1.50034518e+00  6.00170000e-06  1.59155416e+00                                 
 6.00200000e-06  7.66104756e-01  6.00200000e-06  7.03744935e-01  6.00200000e-06  7.56609707e-01  6.00200000e-06  0.00000000e+00  6.00200000e-06  1.87130773e+00  6.00200000e-06  6.76105577e-01  6.00200000e-06  1.16978391e+00  6.00200000e-06  1.59143451e+00                                 
 6.00203719e-06  7.66117381e-01  6.00203719e-06  7.03803560e-01  6.00203719e-06  7.51288773e-01  6.00203719e-06  0.00000000e+00  6.00203719e-06  1.82741393e+00  6.00203719e-06  6.77042008e-01  6.00203719e-06  1.12527926e+00  6.00203719e-06  1.59178517e+00                                 
 6.00211156e-06  7.66123291e-01  6.00211156e-06  7.04038985e-01  6.00211156e-06  7.43480277e-01  6.00211156e-06  0.00000000e+00  6.00211156e-06  1.79232869e+00  6.00211156e-06  6.80307814e-01  6.00211156e-06  1.05019012e+00  6.00211156e-06  1.59208089e+00                                 
 6.00226030e-06  7.66118926e-01  6.00226030e-06  7.04355419e-01  6.00226030e-06  7.39555891e-01  6.00226030e-06  0.00000000e+00  6.00226030e-06  1.80235164e+00  6.00226030e-06  6.84221387e-01  6.00226030e-06  9.34160331e-01  6.00226030e-06  1.59201518e+00                                 
 6.00246966e-06  7.66120391e-01  6.00246966e-06  7.04930525e-01  6.00246966e-06  7.31640168e-01  6.00246966e-06  0.00000000e+00  6.00246966e-06  1.79740991e+00  6.00246966e-06  6.89807276e-01  6.00246966e-06  8.16164424e-01  6.00246966e-06  1.59215127e+00                                 
 6.00268970e-06  7.66118647e-01  6.00268970e-06  7.05881851e-01  6.00268970e-06  7.21540223e-01  6.00268970e-06  0.00000000e+00  6.00268970e-06  1.80094705e+00  6.00268970e-06  6.98982212e-01  6.00268970e-06  7.52905899e-01  6.00268970e-06  1.59211561e+00                                 
 6.00293619e-06  7.66119884e-01  6.00293619e-06  7.06577577e-01  6.00293619e-06  7.15716166e-01  6.00293619e-06  0.00000000e+00  6.00293619e-06  1.79930875e+00  6.00293619e-06  7.04598946e-01  6.00293619e-06  7.24752351e-01  6.00293619e-06  1.59198710e+00                                 
 6.00321782e-06  7.66119089e-01  6.00321782e-06  7.07053323e-01  6.00321782e-06  7.12642620e-01  6.00321782e-06  0.00000000e+00  6.00321782e-06  1.80048866e+00  6.00321782e-06  7.08161283e-01  6.00321782e-06  7.15677207e-01  6.00321782e-06  1.59146535e+00                                 
 6.00352436e-06  7.66120112e-01  6.00352436e-06  7.07220067e-01  6.00352436e-06  7.12467113e-01  6.00352436e-06  0.00000000e+00  6.00352436e-06  1.79972012e+00  6.00352436e-06  7.09114384e-01  6.00352436e-06  7.12755741e-01  6.00352436e-06  1.59070297e+00                                 
 6.00396159e-06  7.66119583e-01  6.00396159e-06  7.07298933e-01  6.00396159e-06  7.12449685e-01  6.00396159e-06  0.00000000e+00  6.00396159e-06  1.80022516e+00  6.00396159e-06  7.09943307e-01  6.00396159e-06  7.12650884e-01  6.00396159e-06  1.58930533e+00                                 
 6.00465748e-06  7.66120429e-01  6.00465748e-06  7.07240809e-01  6.00465748e-06  7.14137108e-01  6.00465748e-06  0.00000000e+00  6.00465748e-06  1.79984200e+00  6.00465748e-06  7.10016470e-01  6.00465748e-06  7.13598521e-01  6.00465748e-06  1.58684239e+00                                 
 6.00590706e-06  7.66119836e-01  6.00590706e-06  7.07145824e-01  6.00590706e-06  7.16565894e-01  6.00590706e-06  0.00000000e+00  6.00590706e-06  1.80015757e+00  6.00590706e-06  7.10348560e-01  6.00590706e-06  7.16530781e-01  6.00590706e-06  1.58198133e+00                                 
 6.00840347e-06  7.66120448e-01  6.00840347e-06  7.06958733e-01  6.00840347e-06  7.22900394e-01  6.00840347e-06  0.00000000e+00  6.00840347e-06  1.79987338e+00  6.00840347e-06  7.10185437e-01  6.00840347e-06  7.22274480e-01  6.00840347e-06  1.57185487e+00                                 
 6.01339628e-06  7.66119792e-01  6.01339628e-06  7.06777772e-01  6.01339628e-06  7.34672666e-01  6.01339628e-06  0.00000000e+00  6.01339628e-06  1.80014173e+00  6.01339628e-06  7.10101520e-01  6.01339628e-06  7.34589220e-01  6.01339628e-06  1.55142407e+00                                 
 6.02338190e-06  7.66120433e-01  6.02338190e-06  7.06709859e-01  6.02338190e-06  7.58460556e-01  6.02338190e-06  0.00000000e+00  6.02338190e-06  1.79988005e+00  6.02338190e-06  7.09525605e-01  6.02338190e-06  7.57747056e-01  6.02338190e-06  1.51210291e+00                                 
 6.04335315e-06  7.66119797e-01  6.04335315e-06  7.06755852e-01  6.04335315e-06  8.01650343e-01  6.04335315e-06  0.00000000e+00  6.04335315e-06  1.80013685e+00  6.04335315e-06  7.09268391e-01  6.04335315e-06  8.01594184e-01  6.04335315e-06  1.43940866e+00                                 
 6.08329564e-06  7.66120434e-01  6.08329564e-06  7.06735573e-01  6.08329564e-06  8.77067827e-01  6.08329564e-06  0.00000000e+00  6.08329564e-06  1.79987899e+00  6.08329564e-06  7.08935669e-01  6.08329564e-06  8.75641173e-01  6.08329564e-06  1.31172421e+00                                 
 6.16318063e-06  7.66119798e-01  6.16318063e-06  7.06758597e-01  6.16318063e-06  9.88033366e-01  6.16318063e-06  0.00000000e+00  6.16318063e-06  1.80013125e+00  6.16318063e-06  7.09110055e-01  6.16318063e-06  9.88544977e-01  6.16318063e-06  1.10473530e+00                                 
 6.25409615e-06  7.66120433e-01  6.25409615e-06  7.06736375e-01  6.25409615e-06  1.06873343e+00  6.25409615e-06  0.00000000e+00  6.25409615e-06  1.79987464e+00  6.25409615e-06  7.08946935e-01  6.25409615e-06  1.06675615e+00  6.25409615e-06  1.04182922e+00                                 
 6.34648626e-06  7.66119798e-01  6.34648626e-06  7.06757845e-01  6.34648626e-06  1.11769846e+00  6.34648626e-06  0.00000000e+00  6.34648626e-06  1.80012813e+00  6.34648626e-06  7.09115252e-01  6.34648626e-06  1.11855683e+00  6.34648626e-06  1.10781589e+00                                 
 6.42897482e-06  7.66120432e-01  6.42897482e-06  7.06737054e-01  6.42897482e-06  1.14513897e+00  6.42897482e-06  0.00000000e+00  6.42897482e-06  1.79987369e+00  6.42897482e-06  7.08948022e-01  6.42897482e-06  1.14399411e+00  6.42897482e-06  1.14088762e+00                                 
