 time            v(vbep)         time            v(vben)         time            v(vout)         time            v(vphi1)        time            v(vphi2)        time            v(vref)         yes             currtemp       
 0.00000000e+00  6.97701110e-01  0.00000000e+00  6.44274455e-01  0.00000000e+00  3.83079450e-01  0.00000000e+00  0.00000000e+00  0.00000000e+00  1.79995641e+00  0.00000000e+00  6.44274455e-01  1.00000000e+00  1.90000000e+01 
 5.00000000e-12  6.97677924e-01  5.00000000e-12  6.44255189e-01  5.00000000e-12  3.83591532e-01  5.00000000e-12  1.80000000e-02  5.00000000e-12  1.80006098e+00  5.00000000e-12  6.44255189e-01                                 
 1.00000000e-11  6.97655238e-01  1.00000000e-11  6.44236382e-01  1.00000000e-11  3.84013879e-01  1.00000000e-11  3.60000000e-02  1.00000000e-11  1.80012032e+00  1.00000000e-11  6.44236382e-01                                 
 2.00000000e-11  6.97610151e-01  2.00000000e-11  6.44198897e-01  2.00000000e-11  3.84722822e-01  2.00000000e-11  7.20000000e-02  2.00000000e-11  1.80018255e+00  2.00000000e-11  6.44198897e-01                                 
 4.00000000e-11  6.97520473e-01  4.00000000e-11  6.44124181e-01  4.00000000e-11  3.85594656e-01  4.00000000e-11  1.44000000e-01  4.00000000e-11  1.80016355e+00  4.00000000e-11  6.44124181e-01                                 
 8.00000000e-11  6.97341881e-01  8.00000000e-11  6.43975323e-01  8.00000000e-11  3.86398363e-01  8.00000000e-11  2.88000000e-01  8.00000000e-11  1.80009206e+00  8.00000000e-11  6.43975323e-01                                 
 1.60000000e-10  6.96987972e-01  1.60000000e-10  6.43679890e-01  1.60000000e-10  3.87131189e-01  1.60000000e-10  5.76000000e-01  1.60000000e-10  1.80004699e+00  1.60000000e-10  6.43679890e-01                                 
 3.20000000e-10  6.96292566e-01  3.20000000e-10  6.43097871e-01  3.20000000e-10  3.81677474e-01  3.20000000e-10  1.15200000e+00  3.20000000e-10  1.80013731e+00  3.20000000e-10  6.43097871e-01                                 
 5.00000000e-10  6.95529382e-01  5.00000000e-10  6.42456739e-01  5.00000000e-10  5.78269468e-01  5.00000000e-10  1.80000000e+00  5.00000000e-10  1.46278496e-01  5.00000000e-10  6.42456739e-01                                 
 5.21249938e-10  6.95440730e-01  5.21249938e-10  6.42382089e-01  5.21249938e-10  6.24589615e-01  5.21249938e-10  1.80000000e+00  5.21249938e-10  3.25965649e-02  5.21249938e-10  6.42382089e-01                                 
 5.63749815e-10  6.95263952e-01  5.63749815e-10  6.42233162e-01  5.63749815e-10  7.10353599e-01  5.63749815e-10  1.80000000e+00  5.63749815e-10 -1.31568393e-02  5.63749815e-10  6.42233162e-01                                 
 6.48749569e-10  6.94913570e-01  6.48749569e-10  6.41937598e-01  6.48749569e-10  8.50065333e-01  6.48749569e-10  1.80000000e+00  6.48749569e-10  1.17197357e-02  6.48749569e-10  6.41937598e-01                                 
 7.66210115e-10  6.94436184e-01  7.66210115e-10  6.41534078e-01  7.66210115e-10  1.00628395e+00  7.66210115e-10  1.80000000e+00  7.66210115e-10 -8.90656310e-03  7.66210115e-10  6.41534078e-01                                 
 9.50336783e-10  6.93703135e-01  9.50336783e-10  6.40912632e-01  9.50336783e-10  1.21028373e+00  9.50336783e-10  1.80000000e+00  9.50336783e-10  9.19600548e-03  9.50336783e-10  6.40912632e-01                                 
 1.29936736e-09  6.92361748e-01  1.29936736e-09  6.39769883e-01  1.29936736e-09  1.49768683e+00  1.29936736e-09  1.80000000e+00  1.29936736e-09 -7.81543375e-03  1.29936736e-09  6.39769883e-01                                 
 1.85851205e-09  6.90332855e-01  1.85851205e-09  6.38028051e-01  1.85851205e-09  1.73480096e+00  1.85851205e-09  1.80000000e+00  1.85851205e-09  8.08569027e-03  1.85851205e-09  6.38028051e-01                                 
 2.20278402e-09  6.89151422e-01  2.20278402e-09  6.37006263e-01  2.20278402e-09  1.78462838e+00  2.20278402e-09  1.80000000e+00  2.20278402e-09 -7.45060458e-03  2.20278402e-09  6.37006263e-01                                 
 2.55757716e-09  6.87982322e-01  2.55757716e-09  6.35989964e-01  2.55757716e-09  1.80644617e+00  2.55757716e-09  1.80000000e+00  2.55757716e-09  7.19216299e-03  2.55757716e-09  6.35989964e-01                                 
 2.94830213e-09  6.86747222e-01  2.94830213e-09  6.34910844e-01  2.94830213e-09  1.81508705e+00  2.94830213e-09  1.80000000e+00  2.94830213e-09 -6.79503625e-03  2.94830213e-09  6.34910844e-01                                 
 3.57274301e-09  6.84876045e-01  3.57274301e-09  6.33265772e-01  3.57274301e-09  1.81852069e+00  3.57274301e-09  1.80000000e+00  3.57274301e-09  6.64298265e-03  3.57274301e-09  6.33265772e-01                                 
 4.35314203e-09  6.82695568e-01  4.35314203e-09  6.31333743e-01  4.35314203e-09  1.81681648e+00  4.35314203e-09  1.80000000e+00  4.35314203e-09 -6.45678583e-03  4.35314203e-09  6.31333743e-01                                 
 5.70018319e-09  6.79275257e-01  5.70018319e-09  6.28273163e-01  5.70018319e-09  1.81354808e+00  5.70018319e-09  1.80000000e+00  5.70018319e-09  6.39825526e-03  5.70018319e-09  6.28273163e-01                                 
 7.81279605e-09  6.74599652e-01  7.81279605e-09  6.24035343e-01  7.81279605e-09  1.80821675e+00  7.81279605e-09  1.80000000e+00  7.81279605e-09 -6.31587506e-03  7.81279605e-09  6.24035343e-01                                 
 1.20380218e-08  6.66944117e-01  1.20380218e-08  6.16989282e-01  1.20380218e-08  1.79917174e+00  1.20380218e-08  1.80000000e+00  1.20380218e-08  6.31885417e-03  1.20380218e-08  6.16989282e-01                                 
 1.46081466e-08  6.63094887e-01  1.46081466e-08  6.13401361e-01  1.46081466e-08  1.79367670e+00  1.46081466e-08  1.80000000e+00  1.46081466e-08 -6.24681658e-03  1.46081466e-08  6.13401361e-01                                 
 1.61103438e-08  6.61037670e-01  1.61103438e-08  6.11476050e-01  1.61103438e-08  1.79120694e+00  1.61103438e-08  1.80000000e+00  1.61103438e-08  6.19564662e-03  1.61103438e-08  6.11476050e-01                                 
 1.77581359e-08  6.58911338e-01  1.77581359e-08  6.09482193e-01  1.77581359e-08  1.78781316e+00  1.77581359e-08  1.80000000e+00  1.77581359e-08 -6.10320724e-03  1.77581359e-08  6.09482193e-01                                 
 1.95317161e-08  6.56753250e-01  1.95317161e-08  6.07455642e-01  1.95317161e-08  1.78469775e+00  1.95317161e-08  1.80000000e+00  1.95317161e-08  6.06337653e-03  1.95317161e-08  6.07455642e-01                                 
 2.22681235e-08  6.53643805e-01  2.22681235e-08  6.04532874e-01  2.22681235e-08  1.77887056e+00  2.22681235e-08  1.80000000e+00  2.22681235e-08 -6.00057311e-03  2.22681235e-08  6.04532874e-01                                 
 2.51220122e-08  6.50638911e-01  2.51220122e-08  6.01707450e-01  2.51220122e-08  1.77294531e+00  2.51220122e-08  1.80000000e+00  2.51220122e-08  5.98422891e-03  2.51220122e-08  6.01707450e-01                                 
 3.00557828e-08  6.45888143e-01  3.00557828e-08  5.97244121e-01  3.00557828e-08  1.76198803e+00  3.00557828e-08  1.80000000e+00  3.00557828e-08 -5.94016231e-03  3.00557828e-08  5.97244121e-01                                 
 3.52149946e-08  6.41404242e-01  3.52149946e-08  5.93039881e-01  3.52149946e-08  1.75123314e+00  3.52149946e-08  1.80000000e+00  3.52149946e-08  5.94130758e-03  3.52149946e-08  5.93039881e-01                                 
 4.55334182e-08  6.33536343e-01  4.55334182e-08  5.85686021e-01  4.55334182e-08  1.72863414e+00  4.55334182e-08  1.80000000e+00  4.55334182e-08 -5.90856321e-03  4.55334182e-08  5.85686021e-01                                 
 6.16200535e-08  6.23637513e-01  6.16200535e-08  5.76445237e-01  6.16200535e-08  1.69583435e+00  6.16200535e-08  1.80000000e+00  6.16200535e-08  5.92464695e-03  6.16200535e-08  5.76445237e-01                                 
 8.12779114e-08  6.16097035e-01  8.12779114e-08  5.69131026e-01  8.12779114e-08  1.66422887e+00  8.12779114e-08  1.80000000e+00  8.12779114e-08 -5.89571116e-03  8.12779114e-08  5.69131026e-01                                 
 1.04208550e-07  6.18274129e-01  1.04208550e-07  5.69580073e-01  1.04208550e-07  1.66814525e+00  1.04208550e-07  1.80000000e+00  1.04208550e-07  5.91742252e-03  1.04208550e-07  5.69580073e-01                                 
 1.21163164e-07  6.18100372e-01  1.21163164e-07  5.68657213e-01  1.21163164e-07  1.65253351e+00  1.21163164e-07  1.80000000e+00  1.21163164e-07 -5.88629255e-03  1.21163164e-07  5.68657213e-01                                 
 1.37680928e-07  6.13190549e-01  1.37680928e-07  5.64104236e-01  1.37680928e-07  1.63030860e+00  1.37680928e-07  1.80000000e+00  1.37680928e-07  5.90371169e-03  1.37680928e-07  5.64104236e-01                                 
 1.52598558e-07  6.10300505e-01  1.52598558e-07  5.61270000e-01  1.52598558e-07  1.61097336e+00  1.52598558e-07  1.80000000e+00  1.52598558e-07 -5.87253181e-03  1.52598558e-07  5.61270000e-01                                 
 1.68819917e-07  6.06277680e-01  1.68819917e-07  5.57543652e-01  1.68819917e-07  1.59301044e+00  1.68819917e-07  1.80000000e+00  1.68819917e-07  5.89012190e-03  1.68819917e-07  5.57543652e-01                                 
 1.96771091e-07  5.97543946e-01  1.96771091e-07  5.49799130e-01  1.96771091e-07  1.55548422e+00  1.96771091e-07  1.80000000e+00  1.96771091e-07 -5.86265066e-03  1.96771091e-07  5.49799130e-01                                 
 2.38651711e-07  5.85474155e-01  2.38651711e-07  5.39202373e-01  2.38651711e-07  1.50385753e+00  2.38651711e-07  1.80000000e+00  2.38651711e-07  5.88397486e-03  2.38651711e-07  5.39202373e-01                                 
 2.90887942e-07  5.70940764e-01  2.90887942e-07  5.26676023e-01  2.90887942e-07  1.43576407e+00  2.90887942e-07  1.80000000e+00  2.90887942e-07 -5.85811910e-03  2.90887942e-07  5.26676023e-01                                 
 3.95360403e-07  5.38935896e-01  3.95360403e-07  4.99967288e-01  3.95360403e-07  1.30083953e+00  3.95360403e-07  1.80000000e+00  3.95360403e-07  5.88092247e-03  3.95360403e-07  4.99967288e-01                                 
 4.21478519e-07  5.29757950e-01  4.21478519e-07  4.92494314e-01  4.21478519e-07  1.26446280e+00  4.21478519e-07  1.80000000e+00  4.21478519e-07  2.18502766e-07  4.21478519e-07  4.92494314e-01                                 
 4.73714750e-07  5.08920271e-01  4.73714750e-07  4.75631506e-01  4.73714750e-07  1.19073269e+00  4.73714750e-07  1.80000000e+00  4.73714750e-07 -1.91026343e-06  4.73714750e-07  4.75631506e-01                                 
 5.78187212e-07  5.11553069e-01  5.78187212e-07  4.77522378e-01  5.78187212e-07  1.08467014e+00  5.78187212e-07  1.80000000e+00  5.78187212e-07  1.44396511e-06  5.78187212e-07  4.77522378e-01                                 
 5.99034043e-07  5.70572023e-01  5.99034043e-07  5.24549795e-01  5.99034043e-07  1.12016204e+00  5.99034043e-07  1.80000000e+00  5.99034043e-07  3.80542847e-06  5.99034043e-07  5.24549795e-01                                 
 6.40727705e-07  7.40518939e-01  6.40727705e-07  6.84349696e-01  6.40727705e-07  1.24075686e+00  6.40727705e-07  1.80000000e+00  6.40727705e-07  9.65350099e-06  6.40727705e-07  6.84349696e-01                                 
 6.92787674e-07  7.99656703e-01  6.92787674e-07  7.41740128e-01  6.92787674e-07  1.24638260e+00  6.92787674e-07  1.80000000e+00  6.92787674e-07 -5.63370101e-06  6.92787674e-07  7.41740128e-01                                 
 7.52834840e-07  8.15975898e-01  7.52834840e-07  7.55520469e-01  7.52834840e-07  1.19735200e+00  7.52834840e-07  1.80000000e+00  7.52834840e-07  6.05827443e-06  7.52834840e-07  7.55520469e-01                                 
 8.03288739e-07  8.16441699e-01  8.03288739e-07  7.56020913e-01  8.03288739e-07  1.14866516e+00  8.03288739e-07  1.80000000e+00  8.03288739e-07 -6.46385828e-06  8.03288739e-07  7.56020913e-01                                 
 8.55830148e-07  8.07577970e-01  8.55830148e-07  7.48470898e-01  8.55830148e-07  1.08246152e+00  8.55830148e-07  1.80000000e+00  8.55830148e-07  5.20754897e-06  8.55830148e-07  7.48470898e-01                                 
 8.66716064e-07  8.02129504e-01  8.66716064e-07  7.43847881e-01  8.66716064e-07  1.06732012e+00  8.66716064e-07  1.80000000e+00  8.66716064e-07 -1.10726414e-06  8.66716064e-07  7.43847881e-01                                 
 8.88487896e-07  7.90955131e-01  8.88487896e-07  7.33937175e-01  8.88487896e-07  1.03416792e+00  8.88487896e-07  1.80000000e+00  8.88487896e-07 -1.35095319e-06  8.88487896e-07  7.33937175e-01                                 
 9.32031559e-07  7.87086065e-01  9.32031559e-07  7.30359029e-01  9.32031559e-07  9.86247371e-01  9.32031559e-07  1.80000000e+00  9.32031559e-07  5.43532247e-07  9.32031559e-07  7.30359029e-01                                 
 9.85751865e-07  8.00028686e-01  9.85751865e-07  7.41980806e-01  9.85751865e-07  9.50421510e-01  9.85751865e-07  1.80000000e+00  9.85751865e-07  4.76222653e-08  9.85751865e-07  7.41980806e-01                                 
 1.05546711e-06  8.00013001e-01  1.05546711e-06  7.41977739e-01  1.05546711e-06  8.97275065e-01  1.05546711e-06  1.80000000e+00  1.05546711e-06 -2.21815086e-07  1.05546711e-06  7.41977739e-01                                 
 1.12712381e-06  7.92894585e-01  1.12712381e-06  7.35655480e-01  1.12712381e-06  8.44182344e-01  1.12712381e-06  1.80000000e+00  1.12712381e-06 -1.84740534e-07  1.12712381e-06  7.35655480e-01                                 
 1.25601147e-06  7.97758877e-01  1.25601147e-06  7.39976494e-01  1.25601147e-06  7.85524757e-01  1.25601147e-06  1.80000000e+00  1.25601147e-06  4.43086284e-07  1.25601147e-06  7.39976494e-01                                 
 1.38315462e-06  7.98126935e-01  1.38315462e-06  7.40320319e-01  1.38315462e-06  7.52281571e-01  1.38315462e-06  1.80000000e+00  1.38315462e-06 -1.21722635e-07  1.38315462e-06  7.40320319e-01                                 
 1.54506504e-06  7.93891042e-01  1.54506504e-06  7.36536155e-01  1.54506504e-06  7.30680446e-01  1.54506504e-06  1.80000000e+00  1.54506504e-06  4.49275704e-07  1.54506504e-06  7.36536155e-01                                 
 1.71779233e-06  7.99576562e-01  1.71779233e-06  7.41591082e-01  1.71779233e-06  7.39927442e-01  1.71779233e-06  1.80000000e+00  1.71779233e-06  1.79215064e-07  1.71779233e-06  7.41591082e-01                                 
 1.90457050e-06  7.94092365e-01  1.90457050e-06  7.36723958e-01  1.90457050e-06  7.39835926e-01  1.90457050e-06  1.80000000e+00  1.90457050e-06  2.26079898e-07  1.90457050e-06  7.36723958e-01                                 
 2.11225310e-06  7.98218643e-01  2.11225310e-06  7.40389174e-01  2.11225310e-06  7.38220250e-01  2.11225310e-06  1.80000000e+00  2.11225310e-06  3.20549042e-07  2.11225310e-06  7.40389174e-01                                 
 2.34879375e-06  7.95996729e-01  2.34879375e-06  7.38426944e-01  2.34879375e-06  7.39473279e-01  2.34879375e-06  1.80000000e+00  2.34879375e-06  1.49903315e-07  2.34879375e-06  7.38426944e-01                                 
 2.58261912e-06  7.96407921e-01  2.58261912e-06  7.38783860e-01  2.58261912e-06  7.38824335e-01  2.58261912e-06  1.80000000e+00  2.58261912e-06  3.45692647e-07  2.58261912e-06  7.38783860e-01                                 
 2.62468608e-06  7.97456271e-01  2.62468608e-06  7.39716793e-01  2.62468608e-06  7.39420745e-01  2.62468608e-06  1.80000000e+00  2.62468608e-06  2.89347799e-07  2.62468608e-06  7.39716793e-01                                 
 2.70882001e-06  7.96862999e-01  2.70882001e-06  7.39194525e-01  2.70882001e-06  7.39087088e-01  2.70882001e-06  1.80000000e+00  2.70882001e-06  1.81982042e-07  2.70882001e-06  7.39194525e-01                                 
 2.87708786e-06  7.96098755e-01  2.87708786e-06  7.38511789e-01  2.87708786e-06  7.38764086e-01  2.87708786e-06  1.80000000e+00  2.87708786e-06  2.96443557e-07  2.87708786e-06  7.38511789e-01                                 
 3.14082186e-06  7.97377044e-01  3.14082186e-06  7.39649188e-01  3.14082186e-06  7.39626561e-01  3.14082186e-06  1.80000000e+00  3.14082186e-06  2.13717851e-07  3.14082186e-06  7.39649188e-01                                 
 3.60420050e-06  7.95938629e-01  3.60420050e-06  7.38370376e-01  3.60420050e-06  7.38539159e-01  3.60420050e-06  1.80000000e+00  3.60420050e-06  2.69057799e-07  3.60420050e-06  7.38370376e-01                                 
 4.35486409e-06  7.97402856e-01  4.35486409e-06  7.39671563e-01  4.35486409e-06  7.39694446e-01  4.35486409e-06  1.80000000e+00  4.35486409e-06  2.31276829e-07  4.35486409e-06  7.39671563e-01                                 
 5.35486409e-06  7.95945690e-01  5.35486409e-06  7.38377008e-01  5.35486409e-06  7.38519033e-01  5.35486409e-06  1.80000000e+00  5.35486409e-06  2.57174668e-07  5.35486409e-06  7.38377008e-01                                 
 6.35486409e-06  7.97379142e-01  6.35486409e-06  7.39650126e-01  6.35486409e-06  7.39693474e-01  6.35486409e-06  1.80000000e+00  6.35486409e-06  2.41379086e-07  6.35486409e-06  7.39650126e-01                                 
 7.35486409e-06  7.95980706e-01  7.35486409e-06  7.38408448e-01  7.35486409e-06  7.38532281e-01  7.35486409e-06  1.80000000e+00  7.35486409e-06  2.47262618e-07  7.35486409e-06  7.38408448e-01                                 
 8.35486409e-06  7.97333147e-01  8.35486409e-06  7.39609067e-01  8.35486409e-06  7.39668305e-01  8.35486409e-06  1.80000000e+00  8.35486409e-06  2.51020348e-07  8.35486409e-06  7.39609067e-01                                 
 9.35486409e-06  7.96038835e-01  9.35486409e-06  7.38460458e-01  9.35486409e-06  7.38570673e-01  9.35486409e-06  1.80000000e+00  9.35486409e-06  2.37976487e-07  9.35486409e-06  7.38460458e-01                                 
 1.00005000e-05  7.97245395e-01  1.00005000e-05  7.39530939e-01  1.00005000e-05  7.39603980e-01  1.00005000e-05  1.80000000e+00  1.00005000e-05  2.62128827e-07  1.00005000e-05  7.39530939e-01                                 
 1.00005500e-05  7.97245731e-01  1.00005500e-05  7.39531245e-01  1.00005500e-05  7.32614304e-01  1.00005500e-05  1.62000000e+00  1.00005500e-05 -1.12191756e-04  1.00005500e-05  7.39531245e-01                                 
 1.00006500e-05  7.97246446e-01  1.00006500e-05  7.39531877e-01  1.00006500e-05  7.22619072e-01  1.00006500e-05  1.26000000e+00  1.00006500e-05 -5.87147047e-05  1.00006500e-05  7.39531877e-01                                 
 1.00008500e-05  7.97247925e-01  1.00008500e-05  7.39533191e-01  1.00008500e-05  7.20784993e-01  1.00008500e-05  5.40000000e-01  1.00008500e-05 -1.64842736e-03  1.00008500e-05  7.39533191e-01                                 
 1.00010000e-05  7.97248959e-01  1.00010000e-05  7.39534134e-01  1.00010000e-05  6.89720431e-01  1.00010000e-05  0.00000000e+00  1.00010000e-05  1.49916987e+00  1.00010000e-05  7.39534134e-01                                 
 1.00010263e-05  7.97249090e-01  1.00010263e-05  7.39534269e-01  1.00010263e-05  6.60234065e-01  1.00010263e-05  0.00000000e+00  1.00010263e-05  1.68542106e+00  1.00010263e-05  7.39534269e-01                                 
 1.00010790e-05  7.97249450e-01  1.00010790e-05  7.39534580e-01  1.00010790e-05  6.11298207e-01  1.00010790e-05  0.00000000e+00  1.00010790e-05  1.82222921e+00  1.00010790e-05  7.39534580e-01                                 
 1.00011842e-05  7.97250325e-01  1.00011842e-05  7.39535309e-01  1.00011842e-05  5.77226056e-01  1.00011842e-05  0.00000000e+00  1.00011842e-05  1.78743033e+00  1.00011842e-05  7.39535309e-01                                 
 1.00013460e-05  7.97251551e-01  1.00013460e-05  7.39536423e-01  1.00013460e-05  5.86888333e-01  1.00013460e-05  0.00000000e+00  1.00013460e-05  1.80861519e+00  1.00013460e-05  7.39536423e-01                                 
