 time            v(vbep)         time            v(vben)         time            v(vout)         time            v(vphi1)        time            v(vphi2)        time            v(vref)         time            v(voutc)        time            v(voutcc)       yes             currtemp       
 0.00000000e+00  7.06798735e-01  0.00000000e+00  6.39021384e-01  0.00000000e+00  1.47172601e+00  0.00000000e+00  0.00000000e+00  0.00000000e+00  1.79999999e+00  0.00000000e+00  6.39314642e-01  0.00000000e+00  1.47172600e+00  0.00000000e+00  1.47941641e+00  1.00000000e+00  7.10000000e+01 
 1.00000000e-11  7.06823856e-01  1.00000000e-11  6.39094369e-01  1.00000000e-11  1.47248589e+00  1.00000000e-11  1.80000000e-02  1.00000000e-11  1.80025381e+00  1.00000000e-11  6.39847929e-01  1.00000000e-11  1.47219630e+00  1.00000000e-11  1.47943050e+00                                 
 2.00000000e-11  7.06830641e-01  2.00000000e-11  6.39139329e-01  2.00000000e-11  1.47293917e+00  2.00000000e-11  3.60000000e-02  2.00000000e-11  1.80035259e+00  2.00000000e-11  6.40241601e-01  2.00000000e-11  1.47254834e+00  2.00000000e-11  1.47943552e+00                                 
 4.00000000e-11  7.06830566e-01  4.00000000e-11  6.39197874e-01  4.00000000e-11  1.47346785e+00  4.00000000e-11  7.20000000e-02  4.00000000e-11  1.80038781e+00  4.00000000e-11  6.40816213e-01  4.00000000e-11  1.47306883e+00  4.00000000e-11  1.47943694e+00                                 
 8.00000000e-11  7.06818956e-01  8.00000000e-11  6.39234079e-01  8.00000000e-11  1.47353435e+00  8.00000000e-11  1.44000000e-01  8.00000000e-11  1.80018162e+00  8.00000000e-11  6.41263381e-01  8.00000000e-11  1.47348218e+00  8.00000000e-11  1.47942655e+00                                 
 1.60000000e-10  7.06816225e-01  1.60000000e-10  6.39243241e-01  1.60000000e-10  1.47319745e+00  1.60000000e-10  2.88000000e-01  1.60000000e-10  1.80000609e+00  1.60000000e-10  6.41362345e-01  1.60000000e-10  1.47352446e+00  1.60000000e-10  1.47941743e+00                                 
 3.20000000e-10  7.06811359e-01  3.20000000e-10  6.39231873e-01  3.20000000e-10  1.47281124e+00  3.20000000e-10  5.76000000e-01  3.20000000e-10  1.79998012e+00  3.20000000e-10  6.41193737e-01  3.20000000e-10  1.47316811e+00  3.20000000e-10  1.47941211e+00                                 
 6.40000000e-10  7.06729015e-01  6.40000000e-10  6.38785407e-01  6.40000000e-10  1.47118623e+00  6.40000000e-10  1.15200000e+00  6.40000000e-10  1.80892753e+00  6.40000000e-10  6.38185329e-01  6.40000000e-10  1.47642954e+00  6.40000000e-10  1.47943521e+00                                 
 1.00000000e-09  7.07275081e-01  1.00000000e-09  6.39222488e-01  1.00000000e-09  1.45176984e+00  1.00000000e-09  1.80000000e+00  1.00000000e-09  1.07387502e-01  1.00000000e-09  6.54959049e-01  1.00000000e-09  1.48301395e+00  1.00000000e-09  1.47944800e+00                                 
 1.03747909e-09  7.07353398e-01  1.03747909e-09  6.39224028e-01  1.03747909e-09  1.45021119e+00  1.03747909e-09  1.80000000e+00  1.03747909e-09  2.56255221e-02  1.03747909e-09  6.58186402e-01  1.03747909e-09  1.48479309e+00  1.03747909e-09  1.47946734e+00                                 
 1.11243726e-09  7.07532777e-01  1.11243726e-09  6.39246736e-01  1.11243726e-09  1.44815226e+00  1.11243726e-09  1.80000000e+00  1.11243726e-09 -1.18176372e-02  1.11243726e-09  6.62214061e-01  1.11243726e-09  1.48791173e+00  1.11243726e-09  1.47947815e+00                                 
 1.26235360e-09  7.07668235e-01  1.26235360e-09  6.39088911e-01  1.26235360e-09  1.44476162e+00  1.26235360e-09  1.80000000e+00  1.26235360e-09  9.26837623e-03  1.26235360e-09  6.62035319e-01  1.26235360e-09  1.48805430e+00  1.26235360e-09  1.47943127e+00                                 
 1.44360684e-09  7.07637969e-01  1.44360684e-09  6.39076080e-01  1.44360684e-09  1.44375580e+00  1.44360684e-09  1.80000000e+00  1.44360684e-09 -7.01112257e-03  1.44360684e-09  6.60943762e-01  1.44360684e-09  1.48690093e+00  1.44360684e-09  1.47947101e+00                                 
 1.64837543e-09  7.07533198e-01  1.64837543e-09  6.39075344e-01  1.64837543e-09  1.44337231e+00  1.64837543e-09  1.80000000e+00  1.64837543e-09  5.72850072e-03  1.64837543e-09  6.59231605e-01  1.64837543e-09  1.48562708e+00  1.64837543e-09  1.47951055e+00                                 
 1.99354991e-09  7.07281107e-01  1.99354991e-09  6.39034015e-01  1.99354991e-09  1.44287369e+00  1.99354991e-09  1.80000000e+00  1.99354991e-09 -5.07955384e-03  1.99354991e-09  6.56359068e-01  1.99354991e-09  1.48300968e+00  1.99354991e-09  1.47965059e+00                                 
 2.53888065e-09  7.06990043e-01  2.53888065e-09  6.39039561e-01  2.53888065e-09  1.44234587e+00  2.53888065e-09  1.80000000e+00  2.53888065e-09  4.63748482e-03  2.53888065e-09  6.52606354e-01  2.53888065e-09  1.47994399e+00  2.53888065e-09  1.47987284e+00                                 
 3.34721931e-09  7.06733236e-01  3.34721931e-09  6.38992408e-01  3.34721931e-09  1.44043089e+00  3.34721931e-09  1.80000000e+00  3.34721931e-09 -4.45123029e-03  3.34721931e-09  6.47688863e-01  3.34721931e-09  1.47560266e+00  3.34721931e-09  1.48017925e+00                                 
 4.72840833e-09  7.06603790e-01  4.72840833e-09  6.39008408e-01  4.72840833e-09  1.43643280e+00  4.72840833e-09  1.80000000e+00  4.72840833e-09  4.28172877e-03  4.72840833e-09  6.42476457e-01  4.72840833e-09  1.47128735e+00  4.72840833e-09  1.48046764e+00                                 
 6.24351497e-09  7.06585636e-01  6.24351497e-09  6.38981189e-01  6.24351497e-09  1.43011485e+00  6.24351497e-09  1.80000000e+00  6.24351497e-09 -4.18254654e-03  6.24351497e-09  6.39109652e-01  6.24351497e-09  1.46829279e+00  6.24351497e-09  1.48049053e+00                                 
 7.54800602e-09  7.06630248e-01  7.54800602e-09  6.39015299e-01  7.54800602e-09  1.42390503e+00  7.54800602e-09  1.80000000e+00  7.54800602e-09  4.04025489e-03  7.54800602e-09  6.38009964e-01  7.54800602e-09  1.46748196e+00  7.54800602e-09  1.48033024e+00                                 
 8.97211630e-09  7.06663188e-01  8.97211630e-09  6.38992109e-01  8.97211630e-09  1.41556643e+00  8.97211630e-09  1.80000000e+00  8.97211630e-09 -3.92723156e-03  8.97211630e-09  6.37106658e-01  8.97211630e-09  1.46658675e+00  8.97211630e-09  1.48007259e+00                                 
 1.05103134e-08  7.06718966e-01  1.05103134e-08  6.39026974e-01  1.05103134e-08  1.40598047e+00  1.05103134e-08  1.80000000e+00  1.05103134e-08  3.82024472e-03  1.05103134e-08  6.37086671e-01  1.05103134e-08  1.46667954e+00  1.05103134e-08  1.47974828e+00                                 
 1.26294415e-08  7.06752270e-01  1.26294415e-08  6.39002254e-01  1.26294415e-08  1.39102553e+00  1.26294415e-08  1.80000000e+00  1.26294415e-08 -3.74480175e-03  1.26294415e-08  6.36868180e-01  1.26294415e-08  1.46636103e+00  1.26294415e-08  1.47930287e+00                                 
 1.51490640e-08  7.06795286e-01  1.51490640e-08  6.39034800e-01  1.51490640e-08  1.37259604e+00  1.51490640e-08  1.80000000e+00  1.51490640e-08  3.68537423e-03  1.51490640e-08  6.37334694e-01  1.51490640e-08  1.46685234e+00  1.51490640e-08  1.47880999e+00                                 
 1.87155627e-08  7.06802394e-01  1.87155627e-08  6.39006809e-01  1.87155627e-08  1.34496358e+00  1.87155627e-08  1.80000000e+00  1.87155627e-08 -3.63955637e-03  1.87155627e-08  6.37479643e-01  1.87155627e-08  1.46683786e+00  1.87155627e-08  1.47821992e+00                                 
 2.35151827e-08  7.06818377e-01  2.35151827e-08  6.39037125e-01  2.35151827e-08  1.30756302e+00  2.35151827e-08  1.80000000e+00  2.35151827e-08  3.61123908e-03  2.35151827e-08  6.38166088e-01  2.35151827e-08  1.46750959e+00  2.35151827e-08  1.47760397e+00                                 
 3.18250884e-08  7.06802519e-01  3.18250884e-08  6.39007488e-01  3.18250884e-08  1.24182663e+00  3.18250884e-08  1.80000000e+00  3.18250884e-08 -3.59000045e-03  3.18250884e-08  6.38454961e-01  3.18250884e-08  1.46761995e+00  3.18250884e-08  1.47690208e+00                                 
 4.48489317e-08  7.06808061e-01  4.48489317e-08  6.39036731e-01  4.48489317e-08  1.13967072e+00  4.48489317e-08  1.80000000e+00  4.48489317e-08  3.58172403e-03  4.48489317e-08  6.39129997e-01  4.48489317e-08  1.46829127e+00  4.48489317e-08  1.47635590e+00                                 
 7.03787257e-08  7.06792601e-01  7.03787257e-08  6.39006561e-01  7.03787257e-08  9.41440826e-01  7.03787257e-08  1.80000000e+00  7.03787257e-08 -3.57203305e-03  7.03787257e-08  6.39161547e-01  7.03787257e-08  1.46820366e+00  7.03787257e-08  1.47606107e+00                                 
 1.02293425e-07  7.06805463e-01  1.02293425e-07  6.39036151e-01  1.02293425e-07  7.26824622e-01  1.02293425e-07  1.80000000e+00  1.02293425e-07  3.57568964e-03  1.02293425e-07  6.39429677e-01  1.02293425e-07  1.46854317e+00  1.02293425e-07  1.47606481e+00                                 
 1.34462321e-07  7.06795290e-01  1.34462321e-07  6.39006960e-01  1.34462321e-07  6.37591961e-01  1.34462321e-07  1.80000000e+00  1.34462321e-07 -3.55386760e-03  1.34462321e-07  6.39204912e-01  1.34462321e-07  1.46824077e+00  1.34462321e-07  1.47608220e+00                                 
 1.64201304e-07  7.06798516e-01  1.64201304e-07  6.39035575e-01  1.64201304e-07  6.40005182e-01  1.64201304e-07  1.80000000e+00  1.64201304e-07  3.57035678e-03  1.64201304e-07  6.39431711e-01  1.64201304e-07  1.46854319e+00  1.64201304e-07  1.47608554e+00                                 
 1.79576375e-07  7.06797880e-01  1.79576375e-07  6.39007176e-01  1.79576375e-07  6.39366323e-01  1.79576375e-07  1.80000000e+00  1.79576375e-07 -3.53981105e-03  1.79576375e-07  6.39197189e-01  1.79576375e-07  1.46823304e+00  1.79576375e-07  1.47608453e+00                                 
 2.01497760e-07  7.06800631e-01  2.01497760e-07  6.39035590e-01  2.01497760e-07  6.39886725e-01  2.01497760e-07  1.80000000e+00  2.01497760e-07  3.55452145e-03  2.01497760e-07  6.39432357e-01  2.01497760e-07  1.46854224e+00  2.01497760e-07  1.47608288e+00                                 
 2.45340528e-07  7.06796391e-01  2.45340528e-07  6.39007164e-01  2.45340528e-07  6.39408783e-01  2.45340528e-07  1.80000000e+00  2.45340528e-07 -3.53010156e-03  2.45340528e-07  6.39196770e-01  2.45340528e-07  1.46823071e+00  2.45340528e-07  1.47608144e+00                                 
 3.02707741e-07  7.06801404e-01  3.02707741e-07  6.39035600e-01  3.02707741e-07  6.39847418e-01  3.02707741e-07  1.80000000e+00  3.02707741e-07  3.54879212e-03  3.02707741e-07  6.39432555e-01  3.02707741e-07  1.46853910e+00  3.02707741e-07  1.47607924e+00                                 
 4.17442167e-07  7.06795910e-01  4.17442167e-07  6.39007157e-01  4.17442167e-07  6.39416754e-01  4.17442167e-07  1.80000000e+00  4.17442167e-07 -3.52640677e-03  4.17442167e-07  6.39196653e-01  4.17442167e-07  1.46822520e+00  4.17442167e-07  1.47607597e+00                                 
 6.46911019e-07  7.06801636e-01  6.46911019e-07  6.39035604e-01  6.46911019e-07  6.39837888e-01  6.46911019e-07  1.80000000e+00  6.46911019e-07  3.54693261e-03  6.46911019e-07  6.39432610e-01  6.46911019e-07  1.46852820e+00  6.46911019e-07  1.47606834e+00                                 
 1.09153917e-06  7.06795795e-01  1.09153917e-06  6.39007155e-01  1.09153917e-06  6.39418849e-01  1.09153917e-06  1.80000000e+00  1.09153917e-06 -3.52547541e-03  1.09153917e-06  6.39196626e-01  1.09153917e-06  1.46820380e+00  1.09153917e-06  1.47605460e+00                                 
 1.98079547e-06  7.06801695e-01  1.98079547e-06  6.39035605e-01  1.98079547e-06  6.39835427e-01  1.98079547e-06  1.80000000e+00  1.98079547e-06  3.54645306e-03  1.98079547e-06  6.39432624e-01  1.98079547e-06  1.46848588e+00  1.98079547e-06  1.47602607e+00                                 
 3.18079547e-06  7.06795761e-01  3.18079547e-06  6.39007154e-01  3.18079547e-06  6.39419398e-01  3.18079547e-06  1.80000000e+00  3.18079547e-06 -3.52520904e-03  3.18079547e-06  6.39196618e-01  3.18079547e-06  1.46813748e+00  3.18079547e-06  1.47598836e+00                                 
 4.38079547e-06  7.06801723e-01  4.38079547e-06  6.39035605e-01  4.38079547e-06  6.39833946e-01  4.38079547e-06  1.80000000e+00  4.38079547e-06  3.54621673e-03  4.38079547e-06  6.39432631e-01  4.38079547e-06  1.46840967e+00  4.38079547e-06  1.47594995e+00                                 
 5.58079547e-06  7.06795733e-01  5.58079547e-06  6.39007154e-01  5.58079547e-06  6.39419953e-01  5.58079547e-06  1.80000000e+00  5.58079547e-06 -3.52497696e-03  5.58079547e-06  6.39196611e-01  5.58079547e-06  1.46806128e+00  5.58079547e-06  1.47591227e+00                                 
 6.00100000e-06  7.06801777e-01  6.00100000e-06  6.39035606e-01  6.00100000e-06  6.39831877e-01  6.00100000e-06  1.80000000e+00  6.00100000e-06  3.54576009e-03  6.00100000e-06  6.39432644e-01  6.00100000e-06  1.46835822e+00  6.00100000e-06  1.47589856e+00                                 
 6.00110000e-06  7.06747021e-01  6.00110000e-06  6.38783557e-01  6.00110000e-06  6.37985626e-01  6.00110000e-06  1.62000000e+00  6.00110000e-06  2.26664329e-04  6.00110000e-06  6.37778532e-01  6.00110000e-06  1.46689454e+00  6.00110000e-06  1.47588798e+00                                 
 6.00130000e-06  7.06780238e-01  6.00130000e-06  6.38777952e-01  6.00130000e-06  6.37961885e-01  6.00130000e-06  1.26000000e+00  6.00130000e-06 -2.58842149e-04  6.00130000e-06  6.37485609e-01  6.00130000e-06  1.46663786e+00  6.00130000e-06  1.47590358e+00                                 
 6.00165243e-06  7.06847988e-01  6.00165243e-06  6.38974230e-01  6.00165243e-06  6.39921462e-01  6.00165243e-06  6.25624232e-01  6.00165243e-06  1.06466740e-02  6.00165243e-06  6.37737620e-01  6.00165243e-06  1.46344923e+00  6.00165243e-06  1.47587945e+00                                 
 6.00200000e-06  7.06781582e-01  6.00200000e-06  6.37616544e-01  6.00200000e-06  6.72442575e-01  6.00200000e-06  0.00000000e+00  6.00200000e-06  1.60639262e+00  6.00200000e-06  6.23500645e-01  6.00200000e-06  1.26238622e+00  6.00200000e-06  1.47530406e+00                                 
 6.00204152e-06  7.06797813e-01  6.00204152e-06  6.37077421e-01  6.00204152e-06  6.79735019e-01  6.00204152e-06  0.00000000e+00  6.00204152e-06  1.72499196e+00  6.00204152e-06  6.17380249e-01  6.00204152e-06  1.19700365e+00  6.00204152e-06  1.47530314e+00                                 
 6.00212455e-06  7.06800243e-01  6.00212455e-06  6.36183317e-01  6.00212455e-06  6.85147445e-01  6.00212455e-06  0.00000000e+00  6.00212455e-06  1.81313512e+00  6.00212455e-06  6.07411613e-01  6.00212455e-06  1.06359279e+00  6.00212455e-06  1.47568947e+00                                 
 6.00229061e-06  7.06795831e-01  6.00229061e-06  6.36123540e-01  6.00229061e-06  6.75468705e-01  6.00229061e-06  0.00000000e+00  6.00229061e-06  1.78937184e+00  6.00229061e-06  6.07373999e-01  6.00229061e-06  8.55812984e-01  6.00229061e-06  1.47617062e+00                                 
 6.00245610e-06  7.06798541e-01  6.00245610e-06  6.37006170e-01  6.00245610e-06  6.63859918e-01  6.00245610e-06  0.00000000e+00  6.00245610e-06  1.80399695e+00  6.00245610e-06  6.17173580e-01  6.00245610e-06  7.40300921e-01  6.00245610e-06  1.47619646e+00                                 
 6.00263513e-06  7.06795524e-01  6.00263513e-06  6.37941347e-01  6.00263513e-06  6.51638617e-01  6.00263513e-06  0.00000000e+00  6.00263513e-06  1.79704425e+00  6.00263513e-06  6.26414191e-01  6.00263513e-06  6.78638626e-01  6.00263513e-06  1.47636193e+00                                 
 6.00285540e-06  7.06798509e-01  6.00285540e-06  6.38836839e-01  6.00285540e-06  6.44157004e-01  6.00285540e-06  0.00000000e+00  6.00285540e-06  1.80188270e+00  6.00285540e-06  6.34823549e-01  6.00285540e-06  6.52786674e-01  6.00285540e-06  1.47587559e+00                                 
 6.00307515e-06  7.06796184e-01  6.00307515e-06  6.39196006e-01  6.00307515e-06  6.41599947e-01  6.00307515e-06  0.00000000e+00  6.00307515e-06  1.79888462e+00  6.00307515e-06  6.37523596e-01  6.00307515e-06  6.44048836e-01  6.00307515e-06  1.47509566e+00                                 
 6.00332903e-06  7.06798848e-01  6.00332903e-06  6.39433003e-01  6.00332903e-06  6.40729233e-01  6.00332903e-06  0.00000000e+00  6.00332903e-06  1.80081999e+00  6.00332903e-06  6.39562353e-01  6.00332903e-06  6.41748188e-01  6.00332903e-06  1.47378088e+00                                 
 6.00370619e-06  7.06796957e-01  6.00370619e-06  6.39476815e-01  6.00370619e-06  6.41201966e-01  6.00370619e-06  0.00000000e+00  6.00370619e-06  1.79940374e+00  6.00370619e-06  6.39932807e-01  6.00370619e-06  6.40869904e-01  6.00370619e-06  1.47165949e+00                                 
 6.00431004e-06  7.06799353e-01  6.00431004e-06  6.39486351e-01  6.00431004e-06  6.42550628e-01  6.00431004e-06  0.00000000e+00  6.00431004e-06  1.80053473e+00  6.00431004e-06  6.40584295e-01  6.00431004e-06  6.42515969e-01  6.00431004e-06  1.46782179e+00                                 
 6.00532170e-06  7.06797558e-01  6.00532170e-06  6.39386843e-01  6.00532170e-06  6.45571410e-01  6.00532170e-06  0.00000000e+00  6.00532170e-06  1.79954058e+00  6.00532170e-06  6.40399790e-01  6.00532170e-06  6.45044103e-01  6.00532170e-06  1.46106549e+00                                 
 6.00725782e-06  7.06799671e-01  6.00725782e-06  6.39278183e-01  6.00725782e-06  6.51211499e-01  6.00725782e-06  0.00000000e+00  6.00725782e-06  1.80046185e+00  6.00725782e-06  6.40696578e-01  6.00725782e-06  6.51094588e-01  6.00725782e-06  1.44736321e+00                                 
 6.01113006e-06  7.06797756e-01  6.01113006e-06  6.39067106e-01  6.01113006e-06  6.62833408e-01  6.01113006e-06  0.00000000e+00  6.01113006e-06  1.79957417e+00  6.01113006e-06  6.40188026e-01  6.01113006e-06  6.62260079e-01  6.01113006e-06  1.41891687e+00                                 
 6.01887452e-06  7.06799706e-01  6.01887452e-06  6.39004355e-01  6.01887452e-06  6.85016302e-01  6.01887452e-06  0.00000000e+00  6.01887452e-06  1.80044433e+00  6.01887452e-06  6.40097286e-01  6.01887452e-06  6.84877028e-01  6.01887452e-06  1.36002747e+00                                 
 6.03169006e-06  7.06797761e-01  6.03169006e-06  6.39003694e-01  6.03169006e-06  7.20350528e-01  6.03169006e-06  0.00000000e+00  6.03169006e-06  1.79958200e+00  6.03169006e-06  6.39427568e-01  6.03169006e-06  7.19687125e-01  6.03169006e-06  1.26474391e+00                                 
 6.04642103e-06  7.06799705e-01  6.04642103e-06  6.39028149e-01  6.04642103e-06  7.58089155e-01  6.04642103e-06  0.00000000e+00  6.04642103e-06  1.80043680e+00  6.04642103e-06  6.39545336e-01  6.04642103e-06  7.57956575e-01  6.04642103e-06  1.16653749e+00                                 
 6.06939588e-06  7.06797765e-01  6.06939588e-06  6.39010203e-01  6.06939588e-06  8.12152861e-01  6.06939588e-06  0.00000000e+00  6.06939588e-06  1.79958447e+00  6.06939588e-06  6.39172544e-01  6.06939588e-06  8.11201762e-01  6.06939588e-06  1.03280921e+00                                 
 6.10314534e-06  7.06799704e-01  6.10314534e-06  6.39032473e-01  6.10314534e-06  8.80809807e-01  6.10314534e-06  0.00000000e+00  6.10314534e-06  1.80043079e+00  6.10314534e-06  6.39450045e-01  6.10314534e-06  8.80702708e-01  6.10314534e-06  9.16013380e-01                                 
 6.14400610e-06  7.06797767e-01  6.14400610e-06  6.39010118e-01  6.14400610e-06  9.49572741e-01  6.14400610e-06  0.00000000e+00  6.14400610e-06  1.79958294e+00  6.14400610e-06  6.39159425e-01  6.14400610e-06  9.47929308e-01  6.14400610e-06  9.18518518e-01                                 
 6.17365132e-06  7.06799703e-01  6.17365132e-06  6.39032986e-01  6.17365132e-06  9.90416035e-01  6.17365132e-06  0.00000000e+00  6.17365132e-06  1.80042575e+00  6.17365132e-06  6.39456266e-01  6.17365132e-06  9.90584798e-01  6.17365132e-06  9.64303778e-01                                 
