 time            v(vbep)         time            v(vben)         time            v(vout)         time            v(vphi1)        time            v(vphi2)        time            v(vref)         time            v(voutc)        time            v(voutcc)       yes             currtemp       
 0.00000000e+00  6.63792623e-01  0.00000000e+00  5.89757961e-01  0.00000000e+00  1.28096175e+00  0.00000000e+00  0.00000000e+00  0.00000000e+00  1.79999997e+00  0.00000000e+00  5.88225507e-01  0.00000000e+00  1.28096173e+00  0.00000000e+00  1.28965705e+00  1.00000000e+00  9.90000000e+01 
 1.00000000e-11  6.63818042e-01  1.00000000e-11  5.89828133e-01  1.00000000e-11  1.28165580e+00  1.00000000e-11  1.80000000e-02  1.00000000e-11  1.80023782e+00  1.00000000e-11  5.88712987e-01  1.00000000e-11  1.28138707e+00  1.00000000e-11  1.28966974e+00                                 
 2.00000000e-11  6.63824713e-01  2.00000000e-11  5.89870138e-01  2.00000000e-11  1.28205939e+00  2.00000000e-11  3.60000000e-02  2.00000000e-11  1.80032681e+00  2.00000000e-11  5.89068190e-01  2.00000000e-11  1.28169988e+00  2.00000000e-11  1.28967403e+00                                 
 4.00000000e-11  6.63824348e-01  4.00000000e-11  5.89923203e-01  4.00000000e-11  1.28251345e+00  4.00000000e-11  7.20000000e-02  4.00000000e-11  1.80035099e+00  4.00000000e-11  5.89579040e-01  4.00000000e-11  1.28215380e+00  4.00000000e-11  1.28967487e+00                                 
 8.00000000e-11  6.63812498e-01  8.00000000e-11  5.89952208e-01  8.00000000e-11  1.28253083e+00  8.00000000e-11  1.44000000e-01  8.00000000e-11  1.80015113e+00  8.00000000e-11  5.89960362e-01  8.00000000e-11  1.28249704e+00  8.00000000e-11  1.28966550e+00                                 
 1.60000000e-10  6.63809757e-01  1.60000000e-10  5.89956483e-01  1.60000000e-10  1.28222405e+00  1.60000000e-10  2.88000000e-01  1.60000000e-10  1.80000457e+00  1.60000000e-10  5.90046294e-01  1.60000000e-10  1.28253758e+00  1.60000000e-10  1.28965776e+00                                 
 3.20000000e-10  6.63804156e-01  3.20000000e-10  5.89946476e-01  3.20000000e-10  1.28188994e+00  3.20000000e-10  5.76000000e-01  3.20000000e-10  1.79999030e+00  3.20000000e-10  5.89960303e-01  3.20000000e-10  1.28229968e+00  3.20000000e-10  1.28965299e+00                                 
 6.40000000e-10  6.63723787e-01  6.40000000e-10  5.89420300e-01  6.40000000e-10  1.28005416e+00  6.40000000e-10  1.15200000e+00  6.40000000e-10  1.80553491e+00  6.40000000e-10  5.85976343e-01  6.40000000e-10  1.28329524e+00  6.40000000e-10  1.28966462e+00                                 
 1.00000000e-09  6.64338826e-01  1.00000000e-09  5.89971702e-01  1.00000000e-09  1.26068729e+00  1.00000000e-09  1.80000000e+00  1.00000000e-09  1.22857677e-01  1.00000000e-09  5.95016287e-01  1.00000000e-09  1.28598978e+00  1.00000000e-09  1.28968100e+00                                 
 1.03890802e-09  6.64428280e-01  1.03890802e-09  5.89923832e-01  1.03890802e-09  1.25837851e+00  1.03890802e-09  1.80000000e+00  1.03890802e-09  3.09037371e-02  1.03890802e-09  5.96281582e-01  1.03890802e-09  1.28611296e+00  1.03890802e-09  1.28967983e+00                                 
 1.11672405e-09  6.64607657e-01  1.11672405e-09  5.89908854e-01  1.11672405e-09  1.25635035e+00  1.11672405e-09  1.80000000e+00  1.11672405e-09 -1.34327960e-02  1.11672405e-09  5.97705622e-01  1.11672405e-09  1.28705398e+00  1.11672405e-09  1.28969201e+00                                 
 1.27235612e-09  6.64668560e-01  1.27235612e-09  5.89772091e-01  1.27235612e-09  1.25464968e+00  1.27235612e-09  1.80000000e+00  1.27235612e-09  1.01983347e-02  1.27235612e-09  5.96488578e-01  1.27235612e-09  1.28630208e+00  1.27235612e-09  1.28967546e+00                                 
 1.51986011e-09  6.64516107e-01  1.51986011e-09  5.89772151e-01  1.51986011e-09  1.25442886e+00  1.51986011e-09  1.80000000e+00  1.51986011e-09 -8.24270643e-03  1.51986011e-09  5.95812586e-01  1.51986011e-09  1.28548608e+00  1.51986011e-09  1.28972174e+00                                 
 1.79107798e-09  6.64302325e-01  1.79107798e-09  5.89766698e-01  1.79107798e-09  1.25443421e+00  1.79107798e-09  1.80000000e+00  1.79107798e-09  6.92194966e-03  1.79107798e-09  5.94711622e-01  1.79107798e-09  1.28475669e+00  1.79107798e-09  1.28975542e+00                                 
 2.26493995e-09  6.63995727e-01  2.26493995e-09  5.89749315e-01  2.26493995e-09  1.25302933e+00  2.26493995e-09  1.80000000e+00  2.26493995e-09 -6.26295998e-03  2.26493995e-09  5.93225437e-01  2.26493995e-09  1.28330871e+00  2.26493995e-09  1.28984974e+00                                 
 3.05423773e-09  6.63753778e-01  3.05423773e-09  5.89762643e-01  3.05423773e-09  1.24921792e+00  3.05423773e-09  1.80000000e+00  3.05423773e-09  5.89961910e-03  3.05423773e-09  5.91391563e-01  3.05423773e-09  1.28192232e+00  3.05423773e-09  1.28995541e+00                                 
 4.63283329e-09  6.63603674e-01  4.63283329e-09  5.89738058e-01  4.63283329e-09  1.23840099e+00  4.63283329e-09  1.80000000e+00  4.63283329e-09 -5.71439449e-03  4.63283329e-09  5.89015161e-01  4.63283329e-09  1.27974085e+00  4.63283329e-09  1.29004662e+00                                 
 6.19565969e-09  6.63626943e-01  6.19565969e-09  5.89760461e-01  6.19565969e-09  1.22683535e+00  6.19565969e-09  1.80000000e+00  6.19565969e-09  5.56803203e-03  6.19565969e-09  5.88111191e-01  6.19565969e-09  1.27913594e+00  6.19565969e-09  1.28997228e+00                                 
 7.65564799e-09  6.63648377e-01  7.65564799e-09  5.89739347e-01  7.65564799e-09  1.21463662e+00  7.65564799e-09  1.80000000e+00  7.65564799e-09 -5.36666845e-03  7.65564799e-09  5.87586042e-01  7.65564799e-09  1.27853163e+00  7.65564799e-09  1.28984306e+00                                 
 9.50431151e-09  6.63705019e-01  9.50431151e-09  5.89765950e-01  9.50431151e-09  1.19853151e+00  9.50431151e-09  1.80000000e+00  9.50431151e-09  5.26221225e-03  9.50431151e-09  5.87542950e-01  9.50431151e-09  1.27864227e+00  9.50431151e-09  1.28963566e+00                                 
 1.19302104e-08  6.63740240e-01  1.19302104e-08  5.89743332e-01  1.19302104e-08  1.17558365e+00  1.19302104e-08  1.80000000e+00  1.19302104e-08 -5.13102826e-03  1.19302104e-08  5.87385365e-01  1.19302104e-08  1.27834844e+00  1.19302104e-08  1.28937480e+00                                 
 1.53130654e-08  6.63789202e-01  1.53130654e-08  5.89770303e-01  1.53130654e-08  1.14275791e+00  1.53130654e-08  1.80000000e+00  1.53130654e-08  5.09487595e-03  1.53130654e-08  5.87641977e-01  1.53130654e-08  1.27870063e+00  1.53130654e-08  1.28904270e+00                                 
 2.00634653e-08  6.63796780e-01  2.00634653e-08  5.89745655e-01  2.00634653e-08  1.09491866e+00  2.00634653e-08  1.80000000e+00  2.00634653e-08 -5.01051670e-03  2.00634653e-08  5.87648708e-01  2.00634653e-08  1.27854535e+00  2.00634653e-08  1.28868488e+00                                 
 2.62946553e-08  6.63809930e-01  2.62946553e-08  5.89770564e-01  2.62946553e-08  1.03247531e+00  2.62946553e-08  1.80000000e+00  2.62946553e-08  5.00932849e-03  2.62946553e-08  5.87957956e-01  2.62946553e-08  1.27894122e+00  2.62946553e-08  1.28834803e+00                                 
 3.52311646e-08  6.63792615e-01  3.52311646e-08  5.89745392e-01  3.52311646e-08  9.43434531e-01  3.52311646e-08  1.80000000e+00  3.52311646e-08 -4.94713243e-03  3.52311646e-08  5.87939653e-01  3.52311646e-08  1.27877221e+00  3.52311646e-08  1.28806168e+00                                 
 4.96609684e-08  6.63802253e-01  4.96609684e-08  5.89770817e-01  4.96609684e-08  8.03594197e-01  4.96609684e-08  1.80000000e+00  4.96609684e-08  4.96987671e-03  4.96609684e-08  5.88218043e-01  4.96609684e-08  1.27914726e+00  4.96609684e-08  1.28784309e+00                                 
 6.66018662e-08  6.63790990e-01  6.66018662e-08  5.89745514e-01  6.66018662e-08  6.64384263e-01  6.66018662e-08  1.80000000e+00  6.66018662e-08 -4.91210466e-03  6.66018662e-08  5.88117241e-01  6.66018662e-08  1.27891678e+00  6.66018662e-08  1.28777643e+00                                 
 8.40879404e-08  6.63798645e-01  8.40879404e-08  5.89771171e-01  8.40879404e-08  6.03625423e-01  8.40879404e-08  1.80000000e+00  8.40879404e-08  4.95441729e-03  8.40879404e-08  5.88313894e-01  8.40879404e-08  1.27922715e+00  8.40879404e-08  1.28776782e+00                                 
 1.00394070e-07  6.63782679e-01  1.00394070e-07  5.89744416e-01  1.00394070e-07  5.92705095e-01  1.00394070e-07  1.80000000e+00  1.00394070e-07 -4.88165077e-03  1.00394070e-07  5.88141317e-01  1.00394070e-07  1.27893737e+00  1.00394070e-07  1.28777704e+00                                 
 1.14373703e-07  6.63799197e-01  1.14373703e-07  5.89771397e-01  1.14373703e-07  5.88411077e-01  1.14373703e-07  1.80000000e+00  1.14373703e-07  4.92565321e-03  1.14373703e-07  5.88312084e-01  1.14373703e-07  1.27922468e+00  1.14373703e-07  1.28777464e+00                                 
 1.30212098e-07  6.63786075e-01  1.30212098e-07  5.89744460e-01  1.30212098e-07  5.87788560e-01  1.30212098e-07  1.80000000e+00  1.30212098e-07 -4.85181382e-03  1.30212098e-07  5.88140248e-01  1.30212098e-07  1.27893598e+00  1.30212098e-07  1.28777872e+00                                 
 1.61888889e-07  6.63798558e-01  1.61888889e-07  5.89771433e-01  1.61888889e-07  5.86473235e-01  1.61888889e-07  1.80000000e+00  1.61888889e-07  4.90480568e-03  1.61888889e-07  5.88311443e-01  1.61888889e-07  1.27922236e+00  1.61888889e-07  1.28777434e+00                                 
 2.05412850e-07  6.63786921e-01  2.05412850e-07  5.89744477e-01  2.05412850e-07  5.87008649e-01  2.05412850e-07  1.80000000e+00  2.05412850e-07 -4.83986722e-03  2.05412850e-07  5.88139444e-01  2.05412850e-07  1.27893302e+00  2.05412850e-07  1.28777628e+00                                 
 2.79811461e-07  6.63798202e-01  2.79811461e-07  5.89771437e-01  2.79811461e-07  5.86484588e-01  2.79811461e-07  1.80000000e+00  2.79811461e-07  4.89678312e-03  2.79811461e-07  5.88311634e-01  2.79811461e-07  1.27921862e+00  2.79811461e-07  1.28777036e+00                                 
 4.00763516e-07  6.63787114e-01  4.00763516e-07  5.89744474e-01  4.00763516e-07  5.86977679e-01  4.00763516e-07  1.80000000e+00  4.00763516e-07 -4.83513898e-03  4.00763516e-07  5.88139299e-01  4.00763516e-07  1.27892668e+00  4.00763516e-07  1.28776998e+00                                 
 5.93184460e-07  6.63798090e-01  5.93184460e-07  5.89771439e-01  5.93184460e-07  5.86491175e-01  5.93184460e-07  1.80000000e+00  5.93184460e-07  4.89382153e-03  5.93184460e-07  5.88311728e-01  5.93184460e-07  1.27920858e+00  5.93184460e-07  1.28776031e+00                                 
 9.17871162e-07  6.63787181e-01  9.17871162e-07  5.89744473e-01  9.17871162e-07  5.86966860e-01  9.17871162e-07  1.80000000e+00  9.17871162e-07 -4.83333803e-03  9.17871162e-07  5.88139240e-01  9.17871162e-07  1.27891002e+00  9.17871162e-07  1.28775334e+00                                 
 1.43978125e-06  6.63798051e-01  1.43978125e-06  5.89771440e-01  1.43978125e-06  5.86493547e-01  1.43978125e-06  1.80000000e+00  1.43978125e-06  4.89272331e-03  1.43978125e-06  5.88311763e-01  1.43978125e-06  1.27918136e+00  1.43978125e-06  1.28773310e+00                                 
 2.30522348e-06  6.63787205e-01  2.30522348e-06  5.89744472e-01  2.30522348e-06  5.86962981e-01  2.30522348e-06  1.80000000e+00  2.30522348e-06 -4.83266995e-03  2.30522348e-06  5.88139219e-01  2.30522348e-06  1.27886539e+00  2.30522348e-06  1.28770876e+00                                 
 3.50522348e-06  6.63798036e-01  3.50522348e-06  5.89771441e-01  3.50522348e-06  5.86494647e-01  3.50522348e-06  1.80000000e+00  3.50522348e-06  4.89228623e-03  3.50522348e-06  5.88311777e-01  3.50522348e-06  1.27911497e+00  3.50522348e-06  1.28766675e+00                                 
 4.70522348e-06  6.63787217e-01  4.70522348e-06  5.89744472e-01  4.70522348e-06  5.86960940e-01  4.70522348e-06  1.80000000e+00  4.70522348e-06 -4.83230749e-03  4.70522348e-06  5.88139206e-01  4.70522348e-06  1.27878823e+00  4.70522348e-06  1.28763167e+00                                 
 5.90522348e-06  6.63798023e-01  5.90522348e-06  5.89771441e-01  5.90522348e-06  5.86495537e-01  5.90522348e-06  1.80000000e+00  5.90522348e-06  4.89191998e-03  5.90522348e-06  5.88311789e-01  5.90522348e-06  1.27903781e+00  5.90522348e-06  1.28758965e+00                                 
 6.00100000e-06  6.63787299e-01  6.00100000e-06  5.89744469e-01  6.00100000e-06  5.86948037e-01  6.00100000e-06  1.80000000e+00  6.00100000e-06 -4.82985612e-03  6.00100000e-06  5.88139124e-01  6.00100000e-06  1.27874654e+00  6.00100000e-06  1.28759003e+00                                 
 6.00110000e-06  6.63740969e-01  6.00110000e-06  5.89522505e-01  6.00110000e-06  5.85336852e-01  6.00110000e-06  1.62000000e+00  6.00110000e-06 -5.65080419e-04  6.00110000e-06  5.86749306e-01  6.00110000e-06  1.27762776e+00  6.00110000e-06  1.28757986e+00                                 
 6.00130000e-06  6.63775200e-01  6.00130000e-06  5.89512283e-01  6.00130000e-06  5.85115357e-01  6.00130000e-06  1.26000000e+00  6.00130000e-06  3.88970128e-04  6.00130000e-06  5.86345130e-01  6.00130000e-06  1.27729906e+00  6.00130000e-06  1.28759143e+00                                 
 6.00164137e-06  6.63846154e-01  6.00164137e-06  5.89721677e-01  6.00164137e-06  5.87101007e-01  6.00164137e-06  6.45537614e-01  6.00164137e-06  1.46176280e-02  6.00164137e-06  5.86639336e-01  6.00164137e-06  1.27429875e+00  6.00164137e-06  1.28757080e+00                                 
 6.00196370e-06  6.63780579e-01  6.00196370e-06  5.88877863e-01  6.00196370e-06  6.14960188e-01  6.00196370e-06  6.53465172e-02  6.00196370e-06  1.59203308e+00  6.00196370e-06  5.77961934e-01  6.00196370e-06  1.11046203e+00  6.00196370e-06  1.28701514e+00                                 
 6.00200000e-06  6.63748360e-01  6.00200000e-06  5.88045475e-01  6.00200000e-06  6.24981031e-01  6.00200000e-06  0.00000000e+00  6.00200000e-06  1.75442453e+00  6.00200000e-06  5.69414222e-01  6.00200000e-06  1.05547697e+00  6.00200000e-06  1.28675770e+00                                 
 6.00202683e-06  6.63791466e-01  6.00202683e-06  5.87661347e-01  6.00202683e-06  6.29342820e-01  6.00202683e-06  0.00000000e+00  6.00202683e-06  1.77639502e+00  6.00202683e-06  5.64415439e-01  6.00202683e-06  1.00748156e+00  6.00202683e-06  1.28680962e+00                                 
 6.00208048e-06  6.63800475e-01  6.00208048e-06  5.87150699e-01  6.00208048e-06  6.31402335e-01  6.00208048e-06  0.00000000e+00  6.00208048e-06  1.79735456e+00  6.00208048e-06  5.58353026e-01  6.00208048e-06  9.18388519e-01  6.00208048e-06  1.28715050e+00                                 
 6.00217413e-06  6.63786014e-01  6.00217413e-06  5.87063258e-01  6.00217413e-06  6.24789788e-01  6.00217413e-06  0.00000000e+00  6.00217413e-06  1.79710098e+00  6.00217413e-06  5.57790317e-01  6.00217413e-06  7.95435256e-01  6.00217413e-06  1.28763271e+00                                 
 6.00236143e-06  6.63797393e-01  6.00236143e-06  5.87998721e-01  6.00236143e-06  6.07800859e-01  6.00236143e-06  0.00000000e+00  6.00236143e-06  1.79933718e+00  6.00236143e-06  5.68021482e-01  6.00236143e-06  6.58478095e-01  6.00236143e-06  1.28806812e+00                                 
 6.00254566e-06  6.63786647e-01  6.00254566e-06  5.89017740e-01  6.00254566e-06  5.95359226e-01  6.00254566e-06  0.00000000e+00  6.00254566e-06  1.80004862e+00  6.00254566e-06  5.78543359e-01  6.00254566e-06  6.12098852e-01  6.00254566e-06  1.28794597e+00                                 
 6.00273842e-06  6.63795960e-01  6.00273842e-06  5.89632272e-01  6.00273842e-06  5.90692911e-01  6.00273842e-06  0.00000000e+00  6.00273842e-06  1.80010213e+00  6.00273842e-06  5.84238273e-01  6.00273842e-06  5.96095855e-01  6.00273842e-06  1.28718727e+00                                 
 6.00291793e-06  6.63788210e-01  6.00291793e-06  5.89916981e-01  6.00291793e-06  5.88420806e-01  6.00291793e-06  0.00000000e+00  6.00291793e-06  1.80003338e+00  6.00291793e-06  5.86803140e-01  6.00291793e-06  5.91021998e-01  6.00291793e-06  1.28611187e+00                                 
 6.00319772e-06  6.63795329e-01  6.00319772e-06  5.90090246e-01  6.00319772e-06  5.88119469e-01  6.00319772e-06  0.00000000e+00  6.00319772e-06  1.80004472e+00  6.00319772e-06  5.88291249e-01  6.00319772e-06  5.88325792e-01  6.00319772e-06  1.28415965e+00                                 
 6.00358886e-06  6.63789249e-01  6.00358886e-06  5.90139306e-01  6.00358886e-06  5.88393366e-01  6.00358886e-06  0.00000000e+00  6.00358886e-06  1.79999780e+00  6.00358886e-06  5.88984044e-01  6.00358886e-06  5.88458998e-01  6.00358886e-06  1.28110256e+00                                 
 6.00426513e-06  6.63795347e-01  6.00426513e-06  5.90104987e-01  6.00426513e-06  5.90545019e-01  6.00426513e-06  0.00000000e+00  6.00426513e-06  1.80003237e+00  6.00426513e-06  5.89116820e-01  6.00426513e-06  5.90092475e-01  6.00426513e-06  1.27545058e+00                                 
 6.00526498e-06  6.63789751e-01  6.00526498e-06  5.90047085e-01  6.00526498e-06  5.93312986e-01  6.00526498e-06  0.00000000e+00  6.00526498e-06  1.79999565e+00  6.00526498e-06  5.89262344e-01  6.00526498e-06  5.93228021e-01  6.00526498e-06  1.26653692e+00                                 
 6.00726469e-06  6.63795352e-01  6.00726469e-06  5.89928544e-01  6.00726469e-06  5.99783991e-01  6.00726469e-06  0.00000000e+00  6.00726469e-06  1.80003139e+00  6.00726469e-06  5.89150688e-01  6.00726469e-06  5.99299311e-01  6.00726469e-06  1.24779096e+00                                 
 6.01126411e-06  6.63789873e-01  6.01126411e-06  5.89790145e-01  6.01126411e-06  6.11749233e-01  6.01126411e-06  0.00000000e+00  6.01126411e-06  1.79999482e+00  6.01126411e-06  5.89052898e-01  6.01126411e-06  6.11627060e-01  6.01126411e-06  1.20920960e+00                                 
 6.01791234e-06  6.63795338e-01  6.01791234e-06  5.89738886e-01  6.01791234e-06  6.31836260e-01  6.01791234e-06  0.00000000e+00  6.01791234e-06  1.80003068e+00  6.01791234e-06  5.88721066e-01  6.01791234e-06  6.31285068e-01  6.01791234e-06  1.14408585e+00                                 
 6.03120880e-06  6.63789901e-01  6.03120880e-06  5.89754453e-01  6.03120880e-06  6.69549661e-01  6.03120880e-06  0.00000000e+00  6.03120880e-06  1.79999391e+00  6.03120880e-06  5.88482272e-01  6.03120880e-06  6.69376920e-01  6.03120880e-06  1.01327646e+00                                 
 6.04475645e-06  6.63795334e-01  6.04475645e-06  5.89752493e-01  6.04475645e-06  7.06260538e-01  6.04475645e-06  0.00000000e+00  6.04475645e-06  1.80002924e+00  6.04475645e-06  5.88271580e-01  6.04475645e-06  7.05578797e-01  6.04475645e-06  8.87552159e-01                                 
 6.06289604e-06  6.63789916e-01  6.06289604e-06  5.89759762e-01  6.06289604e-06  7.51466181e-01  6.06289604e-06  0.00000000e+00  6.06289604e-06  1.79999228e+00  6.06289604e-06  5.88281163e-01  6.06289604e-06  7.51305492e-01  6.06289604e-06  7.86608063e-01                                 
 6.08113237e-06  6.63795326e-01  6.08113237e-06  5.89755325e-01  6.08113237e-06  7.93769790e-01  6.08113237e-06  0.00000000e+00  6.08113237e-06  1.80002718e+00  6.08113237e-06  5.88183398e-01  6.08113237e-06  7.93002187e-01  6.08113237e-06  7.76050796e-01                                 
 6.09488806e-06  6.63789927e-01  6.09488806e-06  5.89760281e-01  6.09488806e-06  8.22893689e-01  6.09488806e-06  0.00000000e+00  6.09488806e-06  1.79999075e+00  6.09488806e-06  5.88259762e-01  6.09488806e-06  8.22795195e-01  6.09488806e-06  7.99276811e-01                                 
 6.11045564e-06  6.63795314e-01  6.11045564e-06  5.89755531e-01  6.11045564e-06  8.54169131e-01  6.11045564e-06  0.00000000e+00  6.11045564e-06  1.80002552e+00  6.11045564e-06  5.88174876e-01  6.11045564e-06  8.53254581e-01  6.11045564e-06  8.29992290e-01                                 
