 time            v(vbep)         time            v(vben)         time            v(vout)         time            v(vphi1)        time            v(vphi2)        time            v(vref)         yes             currtemp       
 0.00000000e+00  6.44590132e-01  0.00000000e+00  5.84980927e-01  0.00000000e+00  1.13611300e+00  0.00000000e+00  0.00000000e+00  0.00000000e+00  1.79994645e+00  0.00000000e+00  5.00000000e-01  1.00000000e+00  5.30000000e+01 
 5.00000000e-12  6.44555004e-01  5.00000000e-12  5.84951951e-01  5.00000000e-12  1.13688130e+00  5.00000000e-12  1.80000000e-02  5.00000000e-12  1.80005368e+00  5.00000000e-12  5.00000000e-01                                 
 1.00000000e-11  6.44521000e-01  1.00000000e-11  5.84923815e-01  1.00000000e-11  1.13758146e+00  1.00000000e-11  3.60000000e-02  1.00000000e-11  1.80011083e+00  1.00000000e-11  5.00000000e-01                                 
 2.00000000e-11  6.44453701e-01  2.00000000e-11  5.84867787e-01  2.00000000e-11  1.13887795e+00  2.00000000e-11  7.20000000e-02  2.00000000e-11  1.80016663e+00  2.00000000e-11  5.00000000e-01                                 
 4.00000000e-11  6.44320317e-01  4.00000000e-11  5.84756226e-01  4.00000000e-11  1.14098756e+00  4.00000000e-11  1.44000000e-01  4.00000000e-11  1.80014431e+00  4.00000000e-11  5.00000000e-01                                 
 8.00000000e-11  6.44055002e-01  8.00000000e-11  5.84534229e-01  8.00000000e-11  1.14394786e+00  8.00000000e-11  2.88000000e-01  8.00000000e-11  1.80008245e+00  8.00000000e-11  5.00000000e-01                                 
 1.60000000e-10  6.43530683e-01  1.60000000e-10  5.84094689e-01  1.60000000e-10  1.14701224e+00  1.60000000e-10  5.76000000e-01  1.60000000e-10  1.80001891e+00  1.60000000e-10  5.00000000e-01                                 
 3.20000000e-10  6.42505626e-01  3.20000000e-10  5.83232731e-01  3.20000000e-10  1.14136278e+00  3.20000000e-10  1.15200000e+00  3.20000000e-10  1.80041774e+00  3.20000000e-10  5.00000000e-01                                 
 5.00000000e-10  6.41388658e-01  5.00000000e-10  5.82289281e-01  5.00000000e-10  1.28711015e+00  5.00000000e-10  1.80000000e+00  5.00000000e-10  1.23781848e-01  5.00000000e-10  5.00000000e-01                                 
 5.21795856e-10  6.41256202e-01  5.21795856e-10  5.82177091e-01  5.21795856e-10  1.32204859e+00  5.21795856e-10  1.80000000e+00  5.21795856e-10  2.51423404e-02  5.21795856e-10  5.00000000e-01                                 
 5.65387567e-10  6.40992303e-01  5.65387567e-10  5.81953434e-01  5.65387567e-10  1.38638864e+00  5.65387567e-10  1.80000000e+00  5.65387567e-10 -1.16080385e-02  5.65387567e-10  5.00000000e-01                                 
 6.52570991e-10  6.40470664e-01  6.52570991e-10  5.81510645e-01  6.52570991e-10  1.49290494e+00  6.52570991e-10  1.80000000e+00  6.52570991e-10  9.56988422e-03  6.52570991e-10  5.00000000e-01                                 
 7.74665117e-10  6.39753595e-01  7.74665117e-10  5.80900461e-01  7.74665117e-10  1.61260341e+00  7.74665117e-10  1.80000000e+00  7.74665117e-10 -8.25583747e-03  7.74665117e-10  5.00000000e-01                                 
 9.67811062e-10  6.38649808e-01  9.67811062e-10  5.79957839e-01  9.67811062e-10  1.75126638e+00  9.67811062e-10  1.80000000e+00  9.67811062e-10  7.71994639e-03  9.67811062e-10  5.00000000e-01                                 
 1.35410295e-09  6.36545904e-01  1.35410295e-09  5.78150140e-01  1.35410295e-09  1.90310429e+00  1.35410295e-09  1.80000000e+00  1.35410295e-09 -7.28278041e-03  1.35410295e-09  5.00000000e-01                                 
 1.65026975e-09  6.35020083e-01  1.65026975e-09  5.76829937e-01  1.65026975e-09  1.94818163e+00  1.65026975e-09  1.80000000e+00  1.65026975e-09  7.00284382e-03  1.65026975e-09  5.00000000e-01                                 
 1.99393645e-09  6.33334517e-01  1.99393645e-09  5.75362863e-01  1.99393645e-09  1.96870981e+00  1.99393645e-09  1.80000000e+00  1.99393645e-09 -6.60914567e-03  1.99393645e-09  5.00000000e-01                                 
 2.33826715e-09  6.31729343e-01  2.33826715e-09  5.73957447e-01  2.33826715e-09  1.97524291e+00  2.33826715e-09  1.80000000e+00  2.33826715e-09  6.37974527e-03  2.33826715e-09  5.00000000e-01                                 
 2.91200669e-09  6.29218992e-01  2.91200669e-09  5.71743998e-01  2.91200669e-09  1.97665783e+00  2.91200669e-09  1.80000000e+00  2.91200669e-09 -6.15108981e-03  2.91200669e-09  5.00000000e-01                                 
 3.61374437e-09  6.26393888e-01  3.61374437e-09  5.69230825e-01  3.61374437e-09  1.97447877e+00  3.61374437e-09  1.80000000e+00  3.61374437e-09  6.06495666e-03  3.61374437e-09  5.00000000e-01                                 
 4.93208681e-09  6.21673721e-01  4.93208681e-09  5.64983622e-01  4.93208681e-09  1.96992833e+00  4.93208681e-09  1.80000000e+00  4.93208681e-09 -5.94960108e-03  4.93208681e-09  5.00000000e-01                                 
 6.99810507e-09  6.15451328e-01  6.99810507e-09  5.59297977e-01  6.99810507e-09  1.96412357e+00  6.99810507e-09  1.80000000e+00  6.99810507e-09  5.95278850e-03  6.99810507e-09  5.00000000e-01                                 
 9.62189013e-09  6.09014821e-01  9.62189013e-09  5.53320452e-01  9.62189013e-09  1.95809418e+00  9.62189013e-09  1.80000000e+00  9.62189013e-09 -5.87115344e-03  9.62189013e-09  5.00000000e-01                                 
 1.13960495e-08  6.05343320e-01  1.13960495e-08  5.49869303e-01  1.13960495e-08  1.95477692e+00  1.13960495e-08  1.80000000e+00  1.13960495e-08  5.85642401e-03  1.13960495e-08  5.00000000e-01                                 
 1.28045403e-08  6.02719414e-01  1.28045403e-08  5.47386869e-01  1.28045403e-08  1.95235729e+00  1.28045403e-08  1.80000000e+00  1.28045403e-08 -5.75731878e-03  1.28045403e-08  5.00000000e-01                                 
 1.43377459e-08  6.00101599e-01  1.43377459e-08  5.44898075e-01  1.43377459e-08  1.95004607e+00  1.43377459e-08  1.80000000e+00  1.43377459e-08  5.73022386e-03  1.43377459e-08  5.00000000e-01                                 
 1.68067033e-08  5.96310130e-01  1.68067033e-08  5.41273858e-01  1.68067033e-08  1.94661579e+00  1.68067033e-08  1.80000000e+00  1.68067033e-08 -5.66319065e-03  1.68067033e-08  5.00000000e-01                                 
 1.97376617e-08  5.92358055e-01  1.97376617e-08  5.37472687e-01  1.97376617e-08  1.94318119e+00  1.97376617e-08  1.80000000e+00  1.97376617e-08  5.66287007e-03  1.97376617e-08  5.00000000e-01                                 
 2.41866604e-08  5.87207782e-01  2.41866604e-08  5.32487085e-01  2.41866604e-08  1.93868070e+00  2.41866604e-08  1.80000000e+00  2.41866604e-08 -5.61323048e-03  2.41866604e-08  5.00000000e-01                                 
 2.95683881e-08  5.81986291e-01  2.95683881e-08  5.27398709e-01  2.95683881e-08  1.93409033e+00  2.95683881e-08  1.80000000e+00  2.95683881e-08  5.62666037e-03  2.95683881e-08  5.00000000e-01                                 
 4.03318437e-08  5.73628758e-01  4.03318437e-08  5.19201803e-01  4.03318437e-08  1.92387139e+00  4.03318437e-08  1.80000000e+00  4.03318437e-08 -5.58872892e-03  4.03318437e-08  5.00000000e-01                                 
 5.89309106e-08  5.62452168e-01  5.89309106e-08  5.08283371e-01  5.89309106e-08  1.90207866e+00  5.89309106e-08  1.80000000e+00  5.89309106e-08  5.61399915e-03  5.89309106e-08  5.00000000e-01                                 
 7.83130752e-08  5.52141296e-01  7.83130752e-08  4.98513485e-01  7.83130752e-08  1.88147785e+00  7.83130752e-08  1.80000000e+00  7.83130752e-08 -5.57945676e-03  7.83130752e-08  5.00000000e-01                                 
 9.45350088e-08  5.41869308e-01  9.45350088e-08  4.89312458e-01  9.45350088e-08  1.85689292e+00  9.45350088e-08  1.80000000e+00  9.45350088e-08  5.60397197e-03  9.45350088e-08  5.00000000e-01                                 
 1.13078516e-07  5.32972829e-01  1.13078516e-07  4.81246091e-01  1.13078516e-07  1.82142947e+00  1.13078516e-07  1.80000000e+00  1.13078516e-07 -5.56932215e-03  1.13078516e-07  5.00000000e-01                                 
 1.32388533e-07  5.24754238e-01  1.32388533e-07  4.73846410e-01  1.32388533e-07  1.78516136e+00  1.32388533e-07  1.80000000e+00  1.32388533e-07  5.59488382e-03  1.32388533e-07  5.00000000e-01                                 
 1.52909408e-07  5.19846177e-01  1.52909408e-07  4.69141494e-01  1.52909408e-07  1.75832389e+00  1.52909408e-07  1.80000000e+00  1.52909408e-07 -5.56050458e-03  1.52909408e-07  5.00000000e-01                                 
 1.83669332e-07  5.23854578e-01  1.83669332e-07  4.71211788e-01  1.83669332e-07  1.74904597e+00  1.83669332e-07  1.80000000e+00  1.83669332e-07  5.58823039e-03  1.83669332e-07  5.00000000e-01                                 
 2.04024696e-07  5.24286585e-01  2.04024696e-07  4.70895653e-01  2.04024696e-07  1.73030034e+00  2.04024696e-07  1.80000000e+00  2.04024696e-07 -5.55367110e-03  2.04024696e-07  5.00000000e-01                                 
 2.25971739e-07  5.20023109e-01  2.25971739e-07  4.66880986e-01  2.25971739e-07  1.70282601e+00  2.25971739e-07  1.80000000e+00  2.25971739e-07  5.57985917e-03  2.25971739e-07  5.00000000e-01                                 
 2.45915240e-07  5.16040599e-01  2.45915240e-07  4.63199728e-01  2.45915240e-07  1.67947449e+00  2.45915240e-07  1.80000000e+00  2.45915240e-07 -5.54551913e-03  2.45915240e-07  5.00000000e-01                                 
 2.67714951e-07  5.10526532e-01  2.67714951e-07  4.58307309e-01  2.67714951e-07  1.65268963e+00  2.67714951e-07  1.80000000e+00  2.67714951e-07  5.57153088e-03  2.67714951e-07  5.00000000e-01                                 
 3.04667777e-07  5.00939556e-01  3.04667777e-07  4.49929318e-01  3.04667777e-07  1.60529028e+00  3.04667777e-07  1.80000000e+00  3.04667777e-07 -5.53931929e-03  3.04667777e-07  5.00000000e-01                                 
 3.59993054e-07  4.87292212e-01  3.59993054e-07  4.38152035e-01  3.59993054e-07  1.53615339e+00  3.59993054e-07  1.80000000e+00  3.59993054e-07  5.56767007e-03  3.59993054e-07  5.00000000e-01                                 
 4.58053671e-07  4.58825442e-01  4.58053671e-07  4.14367220e-01  4.58053671e-07  1.40485507e+00  4.58053671e-07  1.80000000e+00  4.58053671e-07 -5.53696037e-03  4.58053671e-07  5.00000000e-01                                 
 5.53866097e-07  4.40664621e-01  5.53866097e-07  3.99198657e-01  5.53866097e-07  1.28644266e+00  5.53866097e-07  1.80000000e+00  5.53866097e-07  5.56601315e-03  5.53866097e-07  5.00000000e-01                                 
 6.38978809e-07  4.04045877e-01  6.38978809e-07  3.69641399e-01  6.38978809e-07  1.15978039e+00  6.38978809e-07  1.80000000e+00  6.38978809e-07 -5.53529521e-03  6.38978809e-07  5.00000000e-01                                 
 7.14020292e-07  4.33829525e-01  7.14020292e-07  3.93424920e-01  7.14020292e-07  1.10951846e+00  7.14020292e-07  1.80000000e+00  7.14020292e-07  5.56464348e-03  7.14020292e-07  5.00000000e-01                                 
 7.21319126e-07  4.48607749e-01  7.21319126e-07  4.05236769e-01  7.21319126e-07  1.11557682e+00  7.21319126e-07  1.80000000e+00  7.21319126e-07  6.01903905e-06  7.21319126e-07  5.00000000e-01                                 
 7.35916792e-07  4.95429558e-01  7.35916792e-07  4.42617721e-01  7.35916792e-07  1.14485470e+00  7.35916792e-07  1.80000000e+00  7.35916792e-07  1.18875444e-06  7.35916792e-07  5.00000000e-01                                 
 7.65112126e-07  6.62309294e-01  7.65112126e-07  5.97482445e-01  7.65112126e-07  1.27389710e+00  7.65112126e-07  1.80000000e+00  7.65112126e-07  9.61033676e-06  7.65112126e-07  5.00000000e-01                                 
 7.86791717e-07  7.14895842e-01  7.86791717e-07  6.52618243e-01  7.86791717e-07  1.30313751e+00  7.86791717e-07  1.80000000e+00  7.86791717e-07 -1.53459057e-06  7.86791717e-07  5.00000000e-01                                 
 8.07280758e-07  7.45241675e-01  8.07280758e-07  6.80092093e-01  8.07280758e-07  1.30852531e+00  8.07280758e-07  1.80000000e+00  8.07280758e-07  7.67472925e-06  8.07280758e-07  5.00000000e-01                                 
 8.34155047e-07  7.63340342e-01  8.34155047e-07  6.95566949e-01  8.34155047e-07  1.29903778e+00  8.34155047e-07  1.80000000e+00  8.34155047e-07 -2.35291191e-06  8.34155047e-07  5.00000000e-01                                 
 8.63172229e-07  7.63993515e-01  8.63172229e-07  6.96076906e-01  8.63172229e-07  1.26709021e+00  8.63172229e-07  1.80000000e+00  8.63172229e-07  6.43245514e-06  8.63172229e-07  5.00000000e-01                                 
 9.07153637e-07  7.64635875e-01  9.07153637e-07  6.96624725e-01  9.07153637e-07  1.22223137e+00  9.07153637e-07  1.80000000e+00  9.07153637e-07 -2.23938093e-06  9.07153637e-07  5.00000000e-01                                 
 9.49036720e-07  7.64177643e-01  9.49036720e-07  6.96233279e-01  9.49036720e-07  1.17550116e+00  9.49036720e-07  1.80000000e+00  9.49036720e-07  6.30865278e-06  9.49036720e-07  5.00000000e-01                                 
 9.56257027e-07  7.64387720e-01  9.56257027e-07  6.96409222e-01  9.56257027e-07  1.16867703e+00  9.56257027e-07  1.80000000e+00  9.56257027e-07  2.13203097e-06  9.56257027e-07  5.00000000e-01                                 
 9.70697641e-07  7.64417815e-01  9.70697641e-07  6.96439558e-01  9.70697641e-07  1.15342325e+00  9.70697641e-07  1.80000000e+00  9.70697641e-07  2.00855253e-06  9.70697641e-07  5.00000000e-01                                 
 9.99578869e-07  7.64607221e-01  9.99578869e-07  6.96588786e-01  9.99578869e-07  1.12280779e+00  9.99578869e-07  1.80000000e+00  9.99578869e-07  2.12447027e-06  9.99578869e-07  5.00000000e-01                                 
 1.02821307e-06  7.52877834e-01  1.02821307e-06  6.86852262e-01  1.02821307e-06  1.08196419e+00  1.02821307e-06  1.80000000e+00  1.02821307e-06  1.42465324e-06  1.02821307e-06  5.00000000e-01                                 
 1.06028546e-06  7.32057506e-01  1.06028546e-06  6.68490425e-01  1.06028546e-06  1.02973125e+00  1.06028546e-06  1.80000000e+00  1.06028546e-06  1.72330068e-06  1.06028546e-06  5.00000000e-01                                 
 1.09826832e-06  7.34049072e-01  1.09826832e-06  6.70253280e-01  1.09826832e-06  9.96115974e-01  1.09826832e-06  1.80000000e+00  1.09826832e-06  2.44414071e-06  1.09826832e-06  5.00000000e-01                                 
 1.13815534e-06  7.46221721e-01  1.13815534e-06  6.81051963e-01  1.13815534e-06  9.73383510e-01  1.13815534e-06  1.80000000e+00  1.13815534e-06  2.15727292e-06  1.13815534e-06  5.00000000e-01                                 
 1.20722491e-06  7.52431989e-01  1.20722491e-06  6.86425551e-01  1.20722491e-06  9.26613776e-01  1.20722491e-06  1.80000000e+00  1.20722491e-06  2.10826855e-06  1.20722491e-06  5.00000000e-01                                 
 1.27128479e-06  7.44024098e-01  1.27128479e-06  6.79157016e-01  1.27128479e-06  8.76843958e-01  1.27128479e-06  1.80000000e+00  1.27128479e-06  1.83090019e-06  1.27128479e-06  5.00000000e-01                                 
 1.36668732e-06  7.43236230e-01  1.36668732e-06  6.78446847e-01  1.36668732e-06  8.17555682e-01  1.36668732e-06  1.80000000e+00  1.36668732e-06  2.27569723e-06  1.36668732e-06  5.00000000e-01                                 
 1.46622460e-06  7.50585507e-01  1.46622460e-06  6.84839938e-01  1.46622460e-06  7.66009155e-01  1.46622460e-06  1.80000000e+00  1.46622460e-06  1.96685582e-06  1.46622460e-06  5.00000000e-01                                 
 1.61262195e-06  7.42443265e-01  1.61262195e-06  6.77763989e-01  1.61262195e-06  6.77759712e-01  1.61262195e-06  1.80000000e+00  1.61262195e-06  2.07540314e-06  1.61262195e-06  5.00000000e-01                                 
 1.77206602e-06  7.47678778e-01  1.77206602e-06  6.82323626e-01  1.77206602e-06  6.00460399e-01  1.77206602e-06  1.80000000e+00  1.77206602e-06  2.09945718e-06  1.77206602e-06  5.00000000e-01                                 
 1.95258559e-06  7.46339105e-01  1.95258559e-06  6.81179400e-01  1.95258559e-06  5.29280410e-01  1.95258559e-06  1.80000000e+00  1.95258559e-06  2.01933047e-06  1.95258559e-06  5.00000000e-01                                 
 2.21703029e-06  7.44964556e-01  2.21703029e-06  6.79960888e-01  2.21703029e-06  4.87820673e-01  2.21703029e-06  1.80000000e+00  2.21703029e-06  2.09977826e-06  2.21703029e-06  5.00000000e-01                                 
 2.26123497e-06  7.46805632e-01  2.26123497e-06  6.81572839e-01  2.26123497e-06  4.88218019e-01  2.26123497e-06  1.80000000e+00  2.26123497e-06  2.09518305e-06  2.26123497e-06  5.00000000e-01                                 
 2.34964433e-06  7.46682222e-01  2.34964433e-06  6.81470159e-01  2.34964433e-06  4.92810441e-01  2.34964433e-06  1.80000000e+00  2.34964433e-06  2.03366241e-06  2.34964433e-06  5.00000000e-01                                 
 2.37174667e-06  7.46046535e-01  2.37174667e-06  6.80916153e-01  2.37174667e-06  4.95140269e-01  2.37174667e-06  1.80000000e+00  2.37174667e-06  2.04113039e-06  2.37174667e-06  5.00000000e-01                                 
 2.41595135e-06  7.45560563e-01  2.41595135e-06  6.80490561e-01  2.41595135e-06  4.98799069e-01  2.41595135e-06  1.80000000e+00  2.41595135e-06  2.06406973e-06  2.41595135e-06  5.00000000e-01                                 
 2.50436070e-06  7.46443733e-01  2.50436070e-06  6.81259677e-01  2.50436070e-06  5.01299607e-01  2.50436070e-06  1.80000000e+00  2.50436070e-06  2.07491958e-06  2.50436070e-06  5.00000000e-01                                 
 2.68117942e-06  7.46099190e-01  2.68117942e-06  6.80961371e-01  2.68117942e-06  4.99788203e-01  2.68117942e-06  1.80000000e+00  2.68117942e-06  2.04871163e-06  2.68117942e-06  5.00000000e-01                                 
 2.95738778e-06  7.46066835e-01  2.95738778e-06  6.80931374e-01  2.95738778e-06  5.00292595e-01  2.95738778e-06  1.80000000e+00  2.95738778e-06  2.07688108e-06  2.95738778e-06  5.00000000e-01                                 
 3.46998137e-06  7.46302571e-01  3.46998137e-06  6.81138386e-01  3.46998137e-06  5.00259192e-01  3.46998137e-06  1.80000000e+00  3.46998137e-06  2.04992911e-06  3.46998137e-06  5.00000000e-01                                 
 4.46998137e-06  7.45973286e-01  4.46998137e-06  6.80849961e-01  4.46998137e-06  5.00095647e-01  4.46998137e-06  1.80000000e+00  4.46998137e-06  2.07553479e-06  4.46998137e-06  5.00000000e-01                                 
 5.46998137e-06  7.46357597e-01  5.46998137e-06  6.81186199e-01  5.46998137e-06  5.00370677e-01  5.46998137e-06  1.80000000e+00  5.46998137e-06  2.05110158e-06  5.46998137e-06  5.00000000e-01                                 
 6.46998137e-06  7.45923587e-01  6.46998137e-06  6.80806743e-01  6.46998137e-06  4.99998368e-01  6.46998137e-06  1.80000000e+00  6.46998137e-06  2.07421023e-06  6.46998137e-06  5.00000000e-01                                 
 7.46998137e-06  7.46400878e-01  7.46998137e-06  6.81223763e-01  7.46998137e-06  5.00454357e-01  7.46998137e-06  1.80000000e+00  7.46998137e-06  2.05256077e-06  7.46998137e-06  5.00000000e-01                                 
 8.46998137e-06  7.45885979e-01  8.46998137e-06  6.80774075e-01  8.46998137e-06  4.99927617e-01  8.46998137e-06  1.80000000e+00  8.46998137e-06  2.07263446e-06  8.46998137e-06  5.00000000e-01                                 
 9.46998137e-06  7.46431844e-01  9.46998137e-06  6.81250592e-01  9.46998137e-06  5.00512743e-01  9.46998137e-06  1.80000000e+00  9.46998137e-06  2.05423470e-06  9.46998137e-06  5.00000000e-01                                 
 1.00005000e-05  7.45853752e-01  1.00005000e-05  6.80746164e-01  1.00005000e-05  4.99866972e-01  1.00005000e-05  1.80000000e+00  1.00005000e-05  2.07007158e-06  1.00005000e-05  5.00000000e-01                                 
