 time            v(vbep)         time            v(vben)         time            v(vout)         time            v(vphi1)        time            v(vphi2)        time            v(vref)         time            v(voutc)        time            v(voutcc)       yes             currtemp       
 0.00000000e+00  6.87956887e-01  0.00000000e+00  6.14131508e-01  0.00000000e+00  1.42454094e+00  0.00000000e+00  0.00000000e+00  0.00000000e+00  1.79999998e+00  0.00000000e+00  6.13428389e-01  0.00000000e+00  1.42454092e+00  0.00000000e+00  1.43284925e+00  1.00000000e+00  9.10000000e+01 
 5.00000000e-12  6.87978479e-01  5.00000000e-12  6.14186678e-01  5.00000000e-12  1.42514285e+00  5.00000000e-12  1.80000000e-02  5.00000000e-12  1.80018658e+00  5.00000000e-12  6.13814181e-01  5.00000000e-12  1.42488333e+00  5.00000000e-12  1.43286215e+00                                 
 1.00000000e-11  6.87987848e-01  1.00000000e-11  6.14222446e-01  1.00000000e-11  1.42556699e+00  1.00000000e-11  3.60000000e-02  1.00000000e-11  1.80027012e+00  1.00000000e-11  6.14115744e-01  1.00000000e-11  1.42515191e+00  1.00000000e-11  1.43286867e+00                                 
 2.00000000e-11  6.87993967e-01  2.00000000e-11  6.14271525e-01  2.00000000e-11  1.42616350e+00  2.00000000e-11  7.20000000e-02  2.00000000e-11  1.80032113e+00  2.00000000e-11  6.14586297e-01  2.00000000e-11  1.42557336e+00  2.00000000e-11  1.43287437e+00                                 
 4.00000000e-11  6.87981930e-01  4.00000000e-11  6.14305426e-01  4.00000000e-11  1.42651573e+00  4.00000000e-11  1.44000000e-01  4.00000000e-11  1.80018554e+00  4.00000000e-11  6.15035417e-01  4.00000000e-11  1.42598559e+00  4.00000000e-11  1.43286786e+00                                 
 8.00000000e-11  6.87969083e-01  8.00000000e-11  6.14309620e-01  8.00000000e-11  1.42634803e+00  8.00000000e-11  2.88000000e-01  8.00000000e-11  1.80002934e+00  8.00000000e-11  6.15183690e-01  8.00000000e-11  1.42614200e+00  8.00000000e-11  1.43285453e+00                                 
 1.60000000e-10  6.87968783e-01  1.60000000e-10  6.14293928e-01  1.60000000e-10  1.42585868e+00  1.60000000e-10  5.76000000e-01  1.60000000e-10  1.80000834e+00  1.60000000e-10  6.15009204e-01  1.60000000e-10  1.42599617e+00  1.60000000e-10  1.43284859e+00                                 
 3.20000000e-10  6.87902039e-01  3.20000000e-10  6.13849135e-01  3.20000000e-10  1.42252989e+00  3.20000000e-10  1.15200000e+00  3.20000000e-10  1.80069371e+00  3.20000000e-10  6.11191579e-01  3.20000000e-10  1.42288798e+00  3.20000000e-10  1.43281976e+00                                 
 5.00000000e-10  6.87918823e-01  5.00000000e-10  6.14403640e-01  5.00000000e-10  1.42144094e+00  5.00000000e-10  1.80000000e+00  5.00000000e-10  1.90411237e-01  5.00000000e-10  6.19760767e-01  5.00000000e-10  1.43054139e+00  5.00000000e-10  1.43292696e+00                                 
 5.22154581e-10  6.87927813e-01  5.22154581e-10  6.14411443e-01  5.22154581e-10  1.42059857e+00  5.22154581e-10  1.80000000e+00  5.22154581e-10  5.41789418e-02  5.22154581e-10  6.21525895e-01  5.22154581e-10  1.43147513e+00  5.22154581e-10  1.43290789e+00                                 
 5.66463744e-10  6.88036301e-01  5.66463744e-10  6.14452461e-01  5.66463744e-10  1.41979979e+00  5.66463744e-10  1.80000000e+00  5.66463744e-10 -1.79687096e-02  5.66463744e-10  6.24077750e-01  5.66463744e-10  1.43359824e+00  5.66463744e-10  1.43290013e+00                                 
 6.55082069e-10  6.88164663e-01  6.55082069e-10  6.14273267e-01  6.55082069e-10  1.41676751e+00  6.55082069e-10  1.80000000e+00  6.55082069e-10  1.36067324e-02  6.55082069e-10  6.24409426e-01  6.55082069e-10  1.43413585e+00  6.55082069e-10  1.43284998e+00                                 
 7.76343243e-10  6.88220311e-01  7.76343243e-10  6.14214959e-01  7.76343243e-10  1.41475354e+00  7.76343243e-10  1.80000000e+00  7.76343243e-10 -1.05255078e-02  7.76343243e-10  6.25773694e-01  7.76343243e-10  1.43514982e+00  7.76343243e-10  1.43286036e+00                                 
 9.57739909e-10  6.88289456e-01  9.57739909e-10  6.14184347e-01  9.57739909e-10  1.41316231e+00  9.57739909e-10  1.80000000e+00  9.57739909e-10  9.34477191e-03  9.57739909e-10  6.26373426e-01  9.57739909e-10  1.43584076e+00  9.57739909e-10  1.43284449e+00                                 
 1.29745169e-09  6.88235158e-01  1.29745169e-09  6.14118376e-01  1.29745169e-09  1.41055165e+00  1.29745169e-09  1.80000000e+00  1.29745169e-09 -8.48210273e-03  1.29745169e-09  6.25451550e-01  1.29745169e-09  1.43489667e+00  1.29745169e-09  1.43290839e+00                                 
 1.65424925e-09  6.88175237e-01  1.65424925e-09  6.14146137e-01  1.65424925e-09  1.40869543e+00  1.65424925e-09  1.80000000e+00  1.65424925e-09  7.96202914e-03  1.65424925e-09  6.24749104e-01  1.65424925e-09  1.43441210e+00  1.65424925e-09  1.43301249e+00                                 
 2.28966189e-09  6.88031310e-01  2.28966189e-09  6.14104663e-01  2.28966189e-09  1.40428412e+00  2.28966189e-09  1.80000000e+00  2.28966189e-09 -7.58842439e-03  2.28966189e-09  6.22539146e-01  2.28966189e-09  1.43234868e+00  2.28966189e-09  1.43324228e+00                                 
 3.15303534e-09  6.87960109e-01  3.15303534e-09  6.14137049e-01  3.15303534e-09  1.39868751e+00  3.15303534e-09  1.80000000e+00  3.15303534e-09  7.39792749e-03  3.15303534e-09  6.20665396e-01  3.15303534e-09  1.43082639e+00  3.15303534e-09  1.43354658e+00                                 
 4.65041258e-09  6.87887047e-01  4.65041258e-09  6.14096973e-01  4.65041258e-09  1.38739445e+00  4.65041258e-09  1.80000000e+00  4.65041258e-09 -7.23129078e-03  4.65041258e-09  6.17127689e-01  4.65041258e-09  1.42761598e+00  4.65041258e-09  1.43393882e+00                                 
 7.11363569e-09  6.87901691e-01  7.11363569e-09  6.14137691e-01  7.11363569e-09  1.36876903e+00  7.11363569e-09  1.80000000e+00  7.11363569e-09  7.19659363e-03  7.11363569e-09  6.14280837e-01  7.11363569e-09  1.42525169e+00  7.11363569e-09  1.43419954e+00                                 
 9.69021922e-09  6.87900434e-01  9.69021922e-09  6.14107223e-01  9.69021922e-09  1.34731041e+00  9.69021922e-09  1.80000000e+00  9.69021922e-09 -7.07926920e-03  9.69021922e-09  6.12268458e-01  9.69021922e-09  1.42337888e+00  9.69021922e-09  1.43411675e+00                                 
 1.19518280e-08  6.87935569e-01  1.19518280e-08  6.14148019e-01  1.19518280e-08  1.32812446e+00  1.19518280e-08  1.80000000e+00  1.19518280e-08  7.04399775e-03  1.19518280e-08  6.12097609e-01  1.19518280e-08  1.42333671e+00  1.19518280e-08  1.43391394e+00                                 
 1.44257118e-08  6.87929685e-01  1.44257118e-08  6.14112566e-01  1.44257118e-08  1.30569560e+00  1.44257118e-08  1.80000000e+00  1.44257118e-08 -6.92353031e-03  1.44257118e-08  6.11498045e-01  1.44257118e-08  1.42268851e+00  1.44257118e-08  1.43364808e+00                                 
 1.70810676e-08  6.87958477e-01  1.70810676e-08  6.14150422e-01  1.70810676e-08  1.28182248e+00  1.70810676e-08  1.80000000e+00  1.70810676e-08  6.90302988e-03  1.70810676e-08  6.11948419e-01  1.70810676e-08  1.42318174e+00  1.70810676e-08  1.43337690e+00                                 
 2.07153288e-08  6.87947720e-01  2.07153288e-08  6.14113297e-01  2.07153288e-08  1.24778605e+00  2.07153288e-08  1.80000000e+00  2.07153288e-08 -6.80640649e-03  2.07153288e-08  6.11753992e-01  2.07153288e-08  1.42288633e+00  2.07153288e-08  1.43305305e+00                                 
 2.51152224e-08  6.87970606e-01  2.51152224e-08  6.14150663e-01  2.51152224e-08  1.20689999e+00  2.51152224e-08  1.80000000e+00  2.51152224e-08  6.81400988e-03  2.51152224e-08  6.12470463e-01  2.51152224e-08  1.42361089e+00  2.51152224e-08  1.43276878e+00                                 
 3.12856279e-08  6.87953054e-01  3.12856279e-08  6.14113279e-01  3.12856279e-08  1.14846888e+00  3.12856279e-08  1.80000000e+00  3.12856279e-08 -6.73755609e-03  3.12856279e-08  6.12428054e-01  3.12856279e-08  1.42345467e+00  3.12856279e-08  1.43251859e+00                                 
 3.99314111e-08  6.87970084e-01  3.99314111e-08  6.14150539e-01  3.99314111e-08  1.06755277e+00  3.99314111e-08  1.80000000e+00  3.99314111e-08  6.76540885e-03  3.99314111e-08  6.13180997e-01  3.99314111e-08  1.42421899e+00  3.99314111e-08  1.43238288e+00                                 
 5.50161435e-08  6.87948070e-01  5.50161435e-08  6.14112912e-01  5.50161435e-08  9.27015606e-01  5.50161435e-08  1.80000000e+00  5.50161435e-08 -6.70561770e-03  5.50161435e-08  6.13066326e-01  5.50161435e-08  1.42401217e+00  5.50161435e-08  1.43238953e+00                                 
 8.51856083e-08  6.87966960e-01  8.51856083e-08  6.14150129e-01  8.51856083e-08  6.87256043e-01  8.51856083e-08  1.80000000e+00  8.51856083e-08  6.75098686e-03  8.51856083e-08  6.13621575e-01  8.51856083e-08  1.42461375e+00  8.51856083e-08  1.43257824e+00                                 
 1.04307982e-07  6.87952287e-01  1.04307982e-07  6.14113492e-01  1.04307982e-07  6.19226558e-01  1.04307982e-07  1.80000000e+00  1.04307982e-07 -6.68464377e-03  1.04307982e-07  6.13238385e-01  1.04307982e-07  1.42417110e+00  1.04307982e-07  1.43265028e+00                                 
 1.27183182e-07  6.87959232e-01  1.27183182e-07  6.14149284e-01  1.27183182e-07  6.13200795e-01  1.27183182e-07  1.80000000e+00  1.27183182e-07  6.73685885e-03  1.27183182e-07  6.13630548e-01  1.27183182e-07  1.42462315e+00  1.27183182e-07  1.43269200e+00                                 
 1.40237203e-07  6.87950627e-01  1.40237203e-07  6.14113677e-01  1.40237203e-07  6.12556651e-01  1.40237203e-07  1.80000000e+00  1.40237203e-07 -6.66436459e-03  1.40237203e-07  6.13230229e-01  1.40237203e-07  1.42416406e+00  1.40237203e-07  1.43269346e+00                                 
 1.56534557e-07  6.87963972e-01  1.56534557e-07  6.14149294e-01  1.56534557e-07  6.13131384e-01  1.56534557e-07  1.80000000e+00  1.56534557e-07  6.71360279e-03  1.56534557e-07  6.13627909e-01  1.56534557e-07  1.42461989e+00  1.56534557e-07  1.43270072e+00                                 
 1.89129265e-07  6.87949327e-01  1.89129265e-07  6.14113697e-01  1.89129265e-07  6.12397470e-01  1.89129265e-07  1.80000000e+00  1.89129265e-07 -6.64901642e-03  1.89129265e-07  6.13229076e-01  1.89129265e-07  1.42416171e+00  1.89129265e-07  1.43269711e+00                                 
 2.46032024e-07  6.87964658e-01  2.46032024e-07  6.14149311e-01  2.46032024e-07  6.13046555e-01  2.46032024e-07  1.80000000e+00  2.46032024e-07  6.70546844e-03  2.46032024e-07  6.13627617e-01  2.46032024e-07  1.42461680e+00  2.46032024e-07  1.43270000e+00                                 
 3.49034450e-07  6.87949009e-01  3.49034450e-07  6.14113689e-01  3.49034450e-07  6.12398105e-01  3.49034450e-07  1.80000000e+00  3.49034450e-07 -6.64447076e-03  3.49034450e-07  6.13229065e-01  3.49034450e-07  1.42415674e+00  3.49034450e-07  1.43269226e+00                                 
 5.44713639e-07  6.87964818e-01  5.44713639e-07  6.14149315e-01  5.44713639e-07  6.13037561e-01  5.44713639e-07  1.80000000e+00  5.44713639e-07  6.70297000e-03  5.44713639e-07  6.13627624e-01  5.44713639e-07  1.42460745e+00  5.44713639e-07  1.43269066e+00                                 
 8.96478762e-07  6.87948925e-01  8.96478762e-07  6.14113687e-01  8.96478762e-07  6.12398419e-01  8.96478762e-07  1.80000000e+00  8.96478762e-07 -6.64314607e-03  8.96478762e-07  6.13229061e-01  8.96478762e-07  1.42413964e+00  8.96478762e-07  1.43267517e+00                                 
 1.60000901e-06  6.87964862e-01  1.60000901e-06  6.14149317e-01  1.60000901e-06  6.13037991e-01  1.60000901e-06  1.80000000e+00  1.60000901e-06  6.70226598e-03  1.60000901e-06  6.13627626e-01  1.60000901e-06  1.42457445e+00  1.60000901e-06  1.43265771e+00                                 
 2.60000901e-06  6.87948901e-01  2.60000901e-06  6.14113686e-01  2.60000901e-06  6.12394732e-01  2.60000901e-06  1.80000000e+00  2.60000901e-06 -6.64267885e-03  2.60000901e-06  6.13229060e-01  2.60000901e-06  1.42408640e+00  2.60000901e-06  1.43262200e+00                                 
 3.60000901e-06  6.87964882e-01  3.60000901e-06  6.14149317e-01  3.60000901e-06  6.13036521e-01  3.60000901e-06  1.80000000e+00  3.60000901e-06  6.70192808e-03  3.60000901e-06  6.13627627e-01  3.60000901e-06  1.42451197e+00  3.60000901e-06  1.43259530e+00                                 
 4.60000901e-06  6.87948881e-01  4.60000901e-06  6.14113685e-01  4.60000901e-06  6.12396952e-01  4.60000901e-06  1.80000000e+00  4.60000901e-06 -6.64238170e-03  4.60000901e-06  6.13229059e-01  4.60000901e-06  1.42402391e+00  4.60000901e-06  1.43255959e+00                                 
 5.60000901e-06  6.87964902e-01  5.60000901e-06  6.14149318e-01  5.60000901e-06  6.13035717e-01  5.60000901e-06  1.80000000e+00  5.60000901e-06  6.70159146e-03  5.60000901e-06  6.13627628e-01  5.60000901e-06  1.42444950e+00  5.60000901e-06  1.43253291e+00                                 
 6.60000901e-06  6.87948861e-01  6.60000901e-06  6.14113684e-01  6.60000901e-06  6.12397065e-01  6.60000901e-06  1.80000000e+00  6.60000901e-06 -6.64204866e-03  6.60000901e-06  6.13229058e-01  6.60000901e-06  1.42396146e+00  6.60000901e-06  1.43249722e+00                                 
 7.60000901e-06  6.87964921e-01  7.60000901e-06  6.14149318e-01  7.60000901e-06  6.13034886e-01  7.60000901e-06  1.80000000e+00  7.60000901e-06  6.70125485e-03  7.60000901e-06  6.13627629e-01  7.60000901e-06  1.42438705e+00  7.60000901e-06  1.43247054e+00                                 
 8.60000901e-06  6.87948842e-01  8.60000901e-06  6.14113684e-01  8.60000901e-06  6.12397169e-01  8.60000901e-06  1.80000000e+00  8.60000901e-06 -6.64171563e-03  8.60000901e-06  6.13229057e-01  8.60000901e-06  1.42389903e+00  8.60000901e-06  1.43243487e+00                                 
 9.60000901e-06  6.87964940e-01  9.60000901e-06  6.14149319e-01  9.60000901e-06  6.13034053e-01  9.60000901e-06  1.80000000e+00  9.60000901e-06  6.70091825e-03  9.60000901e-06  6.13627630e-01  9.60000901e-06  1.42432461e+00  9.60000901e-06  1.43240818e+00                                 
 1.00005000e-05  6.87948809e-01  1.00005000e-05  6.14113683e-01  1.00005000e-05  6.12398647e-01  1.00005000e-05  1.80000000e+00  1.00005000e-05 -6.64115577e-03  1.00005000e-05  6.13229055e-01  1.00005000e-05  1.42385529e+00  1.00005000e-05  1.43239118e+00                                 
 1.00005500e-05  6.87918791e-01  1.00005500e-05  6.13939719e-01  1.00005500e-05  6.10870597e-01  1.00005500e-05  1.62000000e+00  1.00005500e-05 -8.17762765e-04  1.00005500e-05  6.11959260e-01  1.00005500e-05  1.42278999e+00  1.00005500e-05  1.43237877e+00                                 
 1.00006500e-05  6.87946103e-01  1.00006500e-05  6.13906687e-01  1.00006500e-05  6.10716311e-01  1.00006500e-05  1.26000000e+00  1.00006500e-05  5.88809652e-04  1.00006500e-05  6.11471690e-01  1.00006500e-05  1.42237494e+00  1.00006500e-05  1.43239275e+00                                 
 1.00008500e-05  6.88001143e-01  1.00008500e-05  6.14079750e-01  1.00008500e-05  6.12920523e-01  1.00008500e-05  5.40000000e-01  1.00008500e-05  5.22126450e-02  1.00008500e-05  6.11865475e-01  1.00008500e-05  1.42064894e+00  1.00008500e-05  1.43238137e+00                                 
 1.00010000e-05  6.87939349e-01  1.00010000e-05  6.13481484e-01  1.00010000e-05  6.34013940e-01  1.00010000e-05  0.00000000e+00  1.00010000e-05  1.55690921e+00  1.00010000e-05  6.05420388e-01  1.00010000e-05  1.36258568e+00  1.00010000e-05  1.43190612e+00                                 
 1.00010248e-05  6.87957057e-01  1.00010248e-05  6.13050338e-01  1.00010248e-05  6.39849252e-01  1.00010248e-05  0.00000000e+00  1.00010248e-05  1.70664468e+00  1.00010248e-05  6.00271699e-01  1.00010248e-05  1.33286690e+00  1.00010248e-05  1.43167856e+00                                 
 1.00010743e-05  6.87962251e-01  1.00010743e-05  6.12305656e-01  1.00010743e-05  6.45409227e-01  1.00010743e-05  0.00000000e+00  1.00010743e-05  1.81806090e+00  1.00010743e-05  5.91201703e-01  1.00010743e-05  1.26864302e+00  1.00010743e-05  1.43153355e+00                                 
 1.00011733e-05  6.87956051e-01  1.00011733e-05  6.12161270e-01  1.00011733e-05  6.41300785e-01  1.00011733e-05  0.00000000e+00  1.00011733e-05  1.78836667e+00  1.00011733e-05  5.89390239e-01  1.00011733e-05  1.15725590e+00  1.00011733e-05  1.43211053e+00                                 
 1.00013062e-05  6.87960074e-01  1.00013062e-05  6.12413455e-01  1.00013062e-05  6.38530001e-01  1.00013062e-05  0.00000000e+00  1.00013062e-05  1.80627819e+00  1.00013062e-05  5.92745082e-01  1.00013062e-05  1.03918857e+00  1.00013062e-05  1.43251306e+00                                 
 1.00015238e-05  6.87955482e-01  1.00015238e-05  6.12580376e-01  1.00015238e-05  6.34671835e-01  1.00015238e-05  0.00000000e+00  1.00015238e-05  1.79426941e+00  1.00015238e-05  5.93551565e-01  1.00015238e-05  8.79244509e-01  1.00015238e-05  1.43274601e+00                                 
 1.00017971e-05  6.87959009e-01  1.00017971e-05  6.13283699e-01  1.00017971e-05  6.27253284e-01  1.00017971e-05  0.00000000e+00  1.00017971e-05  1.80394122e+00  1.00017971e-05  6.00643296e-01  1.00017971e-05  7.45799204e-01  1.00017971e-05  1.43253500e+00                                 
 1.00022018e-05  6.87955459e-01  1.00022018e-05  6.14028013e-01  1.00022018e-05  6.18727283e-01  1.00022018e-05  0.00000000e+00  1.00022018e-05  1.79619158e+00  1.00022018e-05  6.07721299e-01  1.00022018e-05  6.46973567e-01  1.00022018e-05  1.43123499e+00                                 
 1.00026148e-05  6.87958615e-01  1.00026148e-05  6.14533965e-01  1.00026148e-05  6.14871804e-01  1.00026148e-05  0.00000000e+00  1.00026148e-05  1.80325405e+00  1.00026148e-05  6.13235533e-01  1.00026148e-05  6.21669225e-01  1.00026148e-05  1.42880966e+00                                 
 1.00030076e-05  6.87955586e-01  1.00030076e-05  6.14538697e-01  1.00030076e-05  6.15503149e-01  1.00030076e-05  0.00000000e+00  1.00030076e-05  1.79718957e+00  1.00030076e-05  6.13409167e-01  1.00030076e-05  6.15747211e-01  1.00030076e-05  1.42604042e+00                                 
 1.00034158e-05  6.87958362e-01  1.00034158e-05  6.14608095e-01  1.00034158e-05  6.15831091e-01  1.00034158e-05  0.00000000e+00  1.00034158e-05  1.80245346e+00  1.00034158e-05  6.14867993e-01  1.00034158e-05  6.16400005e-01  1.00034158e-05  1.42292813e+00                                 
 1.00040810e-05  6.87955685e-01  1.00040810e-05  6.14479799e-01  1.00040810e-05  6.18358148e-01  1.00040810e-05  0.00000000e+00  1.00040810e-05  1.79775888e+00  1.00040810e-05  6.14217130e-01  1.00040810e-05  6.17025812e-01  1.00040810e-05  1.41764907e+00                                 
 1.00052617e-05  6.87958194e-01  1.00052617e-05  6.14434494e-01  1.00052617e-05  6.21638117e-01  1.00052617e-05  0.00000000e+00  1.00052617e-05  1.80214437e+00  1.00052617e-05  6.15093111e-01  1.00052617e-05  6.21587920e-01  1.00052617e-05  1.40780400e+00                                 
 1.00075832e-05  6.87955648e-01  1.00075832e-05  6.14214856e-01  1.00075832e-05  6.29623839e-01  1.00075832e-05  0.00000000e+00  1.00075832e-05  1.79791716e+00  1.00075832e-05  6.14197035e-01  1.00075832e-05  6.28219879e-01  1.00075832e-05  1.38753023e+00                                 
 1.00122263e-05  6.87958123e-01  1.00122263e-05  6.14154598e-01  1.00122263e-05  6.43791297e-01  1.00122263e-05  0.00000000e+00  1.00122263e-05  1.80206631e+00  1.00122263e-05  6.14705580e-01  1.00122263e-05  6.43665982e-01  1.00122263e-05  1.34564532e+00                                 
 1.00199178e-05  6.87955654e-01  1.00199178e-05  6.14086438e-01  1.00199178e-05  6.67852025e-01  1.00199178e-05  0.00000000e+00  1.00199178e-05  1.79795776e+00  1.00199178e-05  6.13579941e-01  1.00199178e-05  6.66267607e-01  1.00199178e-05  1.27498010e+00                                 
