 time            v(vbep)         time            v(vben)         time            v(vout)         time            v(vphi1)        time            v(vphi2)        time            v(vref)         yes             currtemp       
 0.00000000e+00  7.42495581e-01  0.00000000e+00  6.92535143e-01  0.00000000e+00  1.06463227e+00  0.00000000e+00  0.00000000e+00  0.00000000e+00  1.79994500e+00  0.00000000e+00  6.92535143e-01  1.00000000e+00  0.00000000e+00 
 5.00000000e-12  7.42463695e-01  5.00000000e-12  6.92508807e-01  5.00000000e-12  1.06537034e+00  5.00000000e-12  1.80000000e-02  5.00000000e-12  1.80006825e+00  5.00000000e-12  6.92508807e-01                                 
 1.00000000e-11  7.42432888e-01  1.00000000e-11  6.92483236e-01  1.00000000e-11  1.06604979e+00  1.00000000e-11  3.60000000e-02  1.00000000e-11  1.80014276e+00  1.00000000e-11  6.92483236e-01                                 
 2.00000000e-11  7.42371975e-01  2.00000000e-11  6.92432320e-01  2.00000000e-11  1.06731647e+00  2.00000000e-11  7.20000000e-02  2.00000000e-11  1.80022847e+00  2.00000000e-11  6.92432320e-01                                 
 4.00000000e-11  7.42251352e-01  4.00000000e-11  6.92330955e-01  4.00000000e-11  1.06942462e+00  4.00000000e-11  1.44000000e-01  4.00000000e-11  1.80023008e+00  4.00000000e-11  6.92330955e-01                                 
 8.00000000e-11  7.42011489e-01  8.00000000e-11  6.92129312e-01  8.00000000e-11  1.07239297e+00  8.00000000e-11  2.88000000e-01  8.00000000e-11  1.80014497e+00  8.00000000e-11  6.92129312e-01                                 
 1.60000000e-10  7.41537869e-01  1.60000000e-10  6.91730374e-01  1.60000000e-10  1.07517018e+00  1.60000000e-10  5.76000000e-01  1.60000000e-10  1.80003621e+00  1.60000000e-10  6.91730374e-01                                 
 3.20000000e-10  7.40613437e-01  3.20000000e-10  6.90949215e-01  3.20000000e-10  1.06559009e+00  3.20000000e-10  1.15200000e+00  3.20000000e-10  1.80027397e+00  3.20000000e-10  6.90949215e-01                                 
 5.00000000e-10  7.39608393e-01  5.00000000e-10  6.90095981e-01  5.00000000e-10  1.14687951e+00  5.00000000e-10  1.80000000e+00  5.00000000e-10  1.29209570e-01  5.00000000e-10  6.90095981e-01                                 
 5.20645757e-10  7.39495640e-01  5.20645757e-10  6.89999986e-01  5.20645757e-10  1.16872173e+00  5.20645757e-10  1.80000000e+00  5.20645757e-10  2.99888639e-02  5.20645757e-10  6.89999986e-01                                 
 5.61937271e-10  7.39271012e-01  5.61937271e-10  6.89808627e-01  5.61937271e-10  1.21232339e+00  5.61937271e-10  1.80000000e+00  5.61937271e-10 -1.19628079e-02  5.61937271e-10  6.89808627e-01                                 
 6.44520299e-10  7.38827066e-01  6.44520299e-10  6.89429850e-01  6.44520299e-10  1.29163571e+00  6.44520299e-10  1.80000000e+00  6.44520299e-10  1.03359574e-02  6.44520299e-10  6.89429850e-01                                 
 7.64568610e-10  7.38194008e-01  7.64568610e-10  6.88888380e-01  7.64568610e-10  1.39478509e+00  7.64568610e-10  1.80000000e+00  7.64568610e-10 -8.13701119e-03  7.64568610e-10  6.88888380e-01                                 
 9.44180885e-10  7.37272792e-01  9.44180885e-10  6.88097658e-01  9.44180885e-10  1.52329988e+00  9.44180885e-10  1.80000000e+00  9.44180885e-10  8.07432524e-03  9.44180885e-10  6.88097658e-01                                 
 1.30340543e-09  7.35516349e-01  1.30340543e-09  6.86581133e-01  1.30340543e-09  1.69271025e+00  1.30340543e-09  1.80000000e+00  1.30340543e-09 -7.16016515e-03  1.30340543e-09  6.86581133e-01                                 
 1.69711971e-09  7.33711689e-01  1.69711971e-09  6.85010785e-01  1.69711971e-09  1.78225142e+00  1.69711971e-09  1.80000000e+00  1.69711971e-09  7.12545859e-03  1.69711971e-09  6.85010785e-01                                 
 2.07305482e-09  7.32093344e-01  2.07305482e-09  6.83592233e-01  2.07305482e-09  1.81567504e+00  2.07305482e-09  1.80000000e+00  2.07305482e-09 -6.65727892e-03  2.07305482e-09  6.83592233e-01                                 
 2.46881395e-09  7.30487949e-01  2.46881395e-09  6.82175681e-01  2.46881395e-09  1.82866817e+00  2.46881395e-09  1.80000000e+00  2.46881395e-09  6.43381214e-03  2.46881395e-09  6.82175681e-01                                 
 2.97286569e-09  7.28572203e-01  2.97286569e-09  6.80473533e-01  2.97286569e-09  1.83245362e+00  2.97286569e-09  1.80000000e+00  2.97286569e-09 -6.16775336e-03  2.97286569e-09  6.80473533e-01                                 
 3.69193740e-09  7.26055340e-01  3.69193740e-09  6.78218663e-01  3.69193740e-09  1.83204462e+00  3.69193740e-09  1.80000000e+00  3.69193740e-09  6.04484193e-03  3.69193740e-09  6.78218663e-01                                 
 4.77994883e-09  7.22646623e-01  4.77994883e-09  6.75132838e-01  4.77994883e-09  1.82865565e+00  4.77994883e-09  1.80000000e+00  4.77994883e-09 -5.92215831e-03  4.77994883e-09  6.75132838e-01                                 
 6.66978399e-09  7.17595354e-01  6.66978399e-09  6.70498219e-01  6.66978399e-09  1.82410407e+00  6.66978399e-09  1.80000000e+00  6.66978399e-09  5.88858056e-03  6.66978399e-09  6.70498219e-01                                 
 1.04494543e-08  7.09680870e-01  1.04494543e-08  6.63107042e-01  1.04494543e-08  1.81646087e+00  1.04494543e-08  1.80000000e+00  1.04494543e-08 -5.83832898e-03  1.04494543e-08  6.63107042e-01                                 
 1.61784785e-08  7.01016022e-01  1.61784785e-08  6.54850969e-01  1.61784785e-08  1.80883560e+00  1.61784785e-08  1.80000000e+00  1.61784785e-08  5.84538816e-03  1.61784785e-08  6.54850969e-01                                 
 1.86096089e-08  6.98140291e-01  1.86096089e-08  6.52074174e-01  1.86096089e-08  1.80603958e+00  1.86096089e-08  1.80000000e+00  1.86096089e-08 -5.77971812e-03  1.86096089e-08  6.52074174e-01                                 
 1.98407124e-08  6.96804994e-01  1.98407124e-08  6.50779999e-01  1.98407124e-08  1.80511866e+00  1.98407124e-08  1.80000000e+00  1.98407124e-08  5.71775510e-03  1.98407124e-08  6.50779999e-01                                 
 2.18149786e-08  6.94803357e-01  2.18149786e-08  6.48834863e-01  2.18149786e-08  1.80313937e+00  2.18149786e-08  1.80000000e+00  2.18149786e-08 -5.64472407e-03  2.18149786e-08  6.48834863e-01                                 
 2.45178324e-08  6.92302981e-01  2.45178324e-08  6.46396726e-01  2.45178324e-08  1.80125260e+00  2.45178324e-08  1.80000000e+00  2.45178324e-08  5.62867080e-03  2.45178324e-08  6.46396726e-01                                 
 2.88882928e-08  6.88729817e-01  2.88882928e-08  6.42897594e-01  2.88882928e-08  1.79800927e+00  2.88882928e-08  1.80000000e+00  2.88882928e-08 -5.58460863e-03  2.88882928e-08  6.42897594e-01                                 
 3.36314822e-08  6.85370052e-01  3.36314822e-08  6.39592345e-01  3.36314822e-08  1.79550765e+00  3.36314822e-08  1.80000000e+00  3.36314822e-08  5.58490533e-03  3.36314822e-08  6.39592345e-01                                 
 4.02587885e-08  6.81334248e-01  4.02587885e-08  6.35605700e-01  4.02587885e-08  1.79164210e+00  4.02587885e-08  1.80000000e+00  4.02587885e-08 -5.54848089e-03  4.02587885e-08  6.35605700e-01                                 
 5.01336070e-08  6.76314876e-01  5.01336070e-08  6.30629574e-01  5.01336070e-08  1.78418614e+00  5.01336070e-08  1.80000000e+00  5.01336070e-08  5.55990160e-03  5.01336070e-08  6.30629574e-01                                 
 6.34873946e-08  6.70544935e-01  6.34873946e-08  6.24944514e-01  6.34873946e-08  1.76848100e+00  6.34873946e-08  1.80000000e+00  6.34873946e-08 -5.53134710e-03  6.34873946e-08  6.24944514e-01                                 
 8.79246911e-08  6.60796725e-01  8.79246911e-08  6.15624931e-01  8.79246911e-08  1.74627468e+00  8.79246911e-08  1.80000000e+00  8.79246911e-08  5.54889725e-03  8.79246911e-08  6.15624931e-01                                 
 1.04240942e-07  6.52883655e-01  1.04240942e-07  6.08518097e-01  1.04240942e-07  1.73424871e+00  1.04240942e-07  1.80000000e+00  1.04240942e-07 -5.52137674e-03  1.04240942e-07  6.08518097e-01                                 
 1.22551694e-07  6.45519666e-01  1.22551694e-07  6.01887048e-01  1.22551694e-07  1.70205696e+00  1.22551694e-07  1.80000000e+00  1.22551694e-07  5.53669070e-03  1.22551694e-07  6.01887048e-01                                 
 1.39752725e-07  6.39041467e-01  1.39752725e-07  5.96116136e-01  1.39752725e-07  1.67335587e+00  1.39752725e-07  1.80000000e+00  1.39752725e-07 -5.51019599e-03  1.39752725e-07  5.96116136e-01                                 
 1.57796571e-07  6.33156567e-01  1.57796571e-07  5.90873467e-01  1.57796571e-07  1.64458613e+00  1.57796571e-07  1.80000000e+00  1.57796571e-07  5.52580179e-03  1.57796571e-07  5.90873467e-01                                 
 1.83545268e-07  6.35761312e-01  1.83545268e-07  5.92188109e-01  1.83545268e-07  1.63803639e+00  1.83545268e-07  1.80000000e+00  1.83545268e-07 -5.49880513e-03  1.83545268e-07  5.92188109e-01                                 
 2.06933280e-07  6.38942262e-01  2.06933280e-07  5.94078602e-01  2.06933280e-07  1.62559307e+00  2.06933280e-07  1.80000000e+00  2.06933280e-07  5.51762479e-03  2.06933280e-07  5.94078602e-01                                 
 2.29861485e-07  6.33205322e-01  2.29861485e-07  5.88975421e-01  2.29861485e-07  1.59573236e+00  2.29861485e-07  1.80000000e+00  2.29861485e-07 -5.49206441e-03  2.29861485e-07  5.88975421e-01                                 
 2.51107358e-07  6.27762325e-01  2.51107358e-07  5.84199822e-01  2.51107358e-07  1.57047965e+00  2.51107358e-07  1.80000000e+00  2.51107358e-07  5.50895789e-03  2.51107358e-07  5.84199822e-01                                 
 2.73976540e-07  6.22996103e-01  2.73976540e-07  5.79974684e-01  2.73976540e-07  1.54293866e+00  2.73976540e-07  1.80000000e+00  2.73976540e-07 -5.48327529e-03  2.73976540e-07  5.79974684e-01                                 
 3.19174135e-07  6.12075112e-01  3.19174135e-07  5.70563293e-01  3.19174135e-07  1.48850318e+00  3.19174135e-07  1.80000000e+00  3.19174135e-07  5.50255961e-03  3.19174135e-07  5.70563293e-01                                 
 3.78843010e-07  6.00093338e-01  3.78843010e-07  5.60281166e-01  3.78843010e-07  1.41714050e+00  3.78843010e-07  1.80000000e+00  3.78843010e-07 -5.47946022e-03  3.78843010e-07  5.60281166e-01                                 
 4.65431464e-07  5.73535385e-01  4.65431464e-07  5.38434032e-01  4.65431464e-07  1.30573754e+00  4.65431464e-07  1.80000000e+00  4.65431464e-07  5.49957508e-03  4.65431464e-07  5.38434032e-01                                 
 5.44573717e-07  5.51958178e-01  5.44573717e-07  5.20885168e-01  5.44573717e-07  1.20398587e+00  5.44573717e-07  1.80000000e+00  5.44573717e-07 -5.47707875e-03  5.44573717e-07  5.20885168e-01                                 
 6.36012930e-07  5.16478752e-01  6.36012930e-07  4.92403293e-01  6.36012930e-07  1.07586629e+00  6.36012930e-07  1.80000000e+00  6.36012930e-07  5.49705835e-03  6.36012930e-07  4.92403293e-01                                 
 7.56011335e-07  7.76213622e-01  7.56011335e-07  7.24705824e-01  7.56011335e-07  1.20376422e+00  7.56011335e-07  1.80000000e+00  7.56011335e-07 -5.46671502e-03  7.56011335e-07  7.24705824e-01                                 
 7.72944914e-07  7.94654706e-01  7.72944914e-07  7.42968827e-01  7.72944914e-07  1.20610386e+00  7.72944914e-07  1.80000000e+00  7.72944914e-07  4.34287678e-07  7.72944914e-07  7.42968827e-01                                 
 8.06812072e-07  8.18227601e-01  8.06812072e-07  7.65238903e-01  8.06812072e-07  1.19450503e+00  8.06812072e-07  1.80000000e+00  8.06812072e-07  1.58362031e-06  8.06812072e-07  7.65238903e-01                                 
 8.74546389e-07  8.57997578e-01  8.74546389e-07  7.98949309e-01  8.74546389e-07  1.16241793e+00  8.74546389e-07  1.80000000e+00  8.74546389e-07 -1.21463759e-07  8.74546389e-07  7.98949309e-01                                 
 8.83358559e-07  8.65208417e-01  8.83358559e-07  8.04420172e-01  8.83358559e-07  1.16030051e+00  8.83358559e-07  1.80000000e+00  8.83358559e-07  1.11786938e-06  8.83358559e-07  8.04420172e-01                                 
 9.00982897e-07  8.83170769e-01  9.00982897e-07  8.17213429e-01  9.00982897e-07  1.15869995e+00  9.00982897e-07  1.80000000e+00  9.00982897e-07  1.70974630e-06  9.00982897e-07  8.17213429e-01                                 
 9.21339519e-07  8.98764057e-01  9.21339519e-07  8.27583363e-01  9.21339519e-07  1.15278546e+00  9.21339519e-07  1.80000000e+00  9.21339519e-07  1.80911370e-07  9.21339519e-07  8.27583363e-01                                 
 9.42101586e-07  8.89421988e-01  9.42101586e-07  8.21766986e-01  9.42101586e-07  1.12485952e+00  9.42101586e-07  1.80000000e+00  9.42101586e-07 -2.39215691e-06  9.42101586e-07  8.21766986e-01                                 
 9.63033389e-07  8.80258647e-01  9.63033389e-07  8.15255676e-01  9.63033389e-07  1.09395105e+00  9.63033389e-07  1.80000000e+00  9.63033389e-07 -5.82121942e-08  9.63033389e-07  8.15255676e-01                                 
 9.82191954e-07  8.74759265e-01  9.82191954e-07  8.11626567e-01  9.82191954e-07  1.06931078e+00  9.82191954e-07  1.80000000e+00  9.82191954e-07 -1.70107833e-06  9.82191954e-07  8.11626567e-01                                 
 9.86981596e-07  8.70363728e-01  9.86981596e-07  8.08406101e-01  9.86981596e-07  1.06035182e+00  9.86981596e-07  1.80000000e+00  9.86981596e-07 -2.05106549e-06  9.86981596e-07  8.08406101e-01                                 
 9.96560879e-07  8.62541692e-01  9.96560879e-07  8.02539198e-01  9.96560879e-07  1.04268453e+00  9.96560879e-07  1.80000000e+00  9.96560879e-07 -1.77958050e-06  9.96560879e-07  8.02539198e-01                                 
 1.01267837e-06  8.49916354e-01  1.01267837e-06  7.92682539e-01  1.01267837e-06  1.01306174e+00  1.01267837e-06  1.80000000e+00  1.01267837e-06 -1.97219102e-06  1.01267837e-06  7.92682539e-01                                 
 1.04037280e-06  8.28949257e-01  1.04037280e-06  7.74901467e-01  1.04037280e-06  9.64852716e-01  1.04037280e-06  1.80000000e+00  1.04037280e-06 -1.68515035e-06  1.04037280e-06  7.74901467e-01                                 
 1.08834474e-06  8.16628873e-01  1.08834474e-06  7.63812614e-01  1.08834474e-06  9.13653904e-01  1.08834474e-06  1.80000000e+00  1.08834474e-06  1.37496312e-07  1.08834474e-06  7.63812614e-01                                 
 1.13444619e-06  8.25041374e-01  1.13444619e-06  7.71384996e-01  1.13444619e-06  8.86536900e-01  1.13444619e-06  1.80000000e+00  1.13444619e-06  1.02726635e-07  1.13444619e-06  7.71384996e-01                                 
 1.19207459e-06  8.28346406e-01  1.19207459e-06  7.74377563e-01  1.19207459e-06  8.50813434e-01  1.19207459e-06  1.80000000e+00  1.19207459e-06 -2.51784361e-07  1.19207459e-06  7.74377563e-01                                 
 1.26420871e-06  8.21217406e-01  1.26420871e-06  7.67963105e-01  1.26420871e-06  8.08461276e-01  1.26420871e-06  1.80000000e+00  1.26420871e-06 -3.37183238e-07  1.26420871e-06  7.67963105e-01                                 
 1.37586886e-06  8.25426969e-01  1.37586886e-06  7.71769712e-01  1.37586886e-06  7.80453841e-01  1.37586886e-06  1.80000000e+00  1.37586886e-06  4.17799599e-07  1.37586886e-06  7.71769712e-01                                 
 1.48091205e-06  8.25003147e-01  1.48091205e-06  7.71376039e-01  1.48091205e-06  7.66846780e-01  1.48091205e-06  1.80000000e+00  1.48091205e-06 -3.89043058e-07  1.48091205e-06  7.71376039e-01                                 
 1.50114847e-06  8.23826451e-01  1.50114847e-06  7.70332101e-01  1.50114847e-06  7.64162853e-01  1.50114847e-06  1.80000000e+00  1.50114847e-06 -7.22696335e-08  1.50114847e-06  7.70332101e-01                                 
 1.54162130e-06  8.23360295e-01  1.54162130e-06  7.69908680e-01  1.54162130e-06  7.61097798e-01  1.54162130e-06  1.80000000e+00  1.54162130e-06  1.09409967e-07  1.54162130e-06  7.69908680e-01                                 
 1.62256697e-06  8.25100743e-01  1.62256697e-06  7.71469596e-01  1.62256697e-06  7.59295238e-01  1.62256697e-06  1.80000000e+00  1.62256697e-06  6.51025409e-08  1.62256697e-06  7.71469596e-01                                 
 1.74404374e-06  8.23971934e-01  1.74404374e-06  7.70461580e-01  1.74404374e-06  7.67880225e-01  1.74404374e-06  1.80000000e+00  1.74404374e-06  7.34211385e-08  1.74404374e-06  7.70461580e-01                                 
 1.87077615e-06  8.24287806e-01  1.87077615e-06  7.70740670e-01  1.87077615e-06  7.73970459e-01  1.87077615e-06  1.80000000e+00  1.87077615e-06  7.82134153e-08  1.87077615e-06  7.70740670e-01                                 
 2.01471420e-06  8.24625426e-01  2.01471420e-06  7.71047174e-01  2.01471420e-06  7.69022971e-01  2.01471420e-06  1.80000000e+00  2.01471420e-06  2.76901261e-08  2.01471420e-06  7.71047174e-01                                 
 2.17822466e-06  8.23926302e-01  2.17822466e-06  7.70417284e-01  2.17822466e-06  7.71104967e-01  2.17822466e-06  1.80000000e+00  2.17822466e-06  8.73536638e-08  2.17822466e-06  7.70417284e-01                                 
 2.33186181e-06  8.24740154e-01  2.33186181e-06  7.71148721e-01  2.33186181e-06  7.71255723e-01  2.33186181e-06  1.80000000e+00  2.33186181e-06  4.72507018e-08  2.33186181e-06  7.71148721e-01                                 
 2.58518953e-06  8.23965287e-01  2.58518953e-06  7.70453262e-01  2.58518953e-06  7.70332996e-01  2.58518953e-06  1.80000000e+00  2.58518953e-06  6.12169681e-08  2.58518953e-06  7.70453262e-01                                 
 2.99780390e-06  8.24653510e-01  2.99780390e-06  7.71070622e-01  2.99780390e-06  7.71352340e-01  2.99780390e-06  1.80000000e+00  2.99780390e-06  6.42383360e-08  2.99780390e-06  7.71070622e-01                                 
 3.52578053e-06  8.24043528e-01  3.52578053e-06  7.70523785e-01  3.52578053e-06  7.70361787e-01  3.52578053e-06  1.80000000e+00  3.52578053e-06  5.06439382e-08  3.52578053e-06  7.70523785e-01                                 
 4.42420896e-06  8.24592852e-01  4.42420896e-06  7.71016114e-01  4.42420896e-06  7.71307265e-01  4.42420896e-06  1.80000000e+00  4.42420896e-06  7.09689296e-08  4.42420896e-06  7.71016114e-01                                 
 5.42420896e-06  8.24088956e-01  5.42420896e-06  7.70564662e-01  5.42420896e-06  7.70404821e-01  5.42420896e-06  1.80000000e+00  5.42420896e-06  4.63435743e-08  5.42420896e-06  7.70564662e-01                                 
 6.42420896e-06  8.24548644e-01  6.42420896e-06  7.70976419e-01  6.42420896e-06  7.71259564e-01  6.42420896e-06  1.80000000e+00  6.42420896e-06  7.47128019e-08  6.42420896e-06  7.70976419e-01                                 
 7.42420896e-06  8.24134307e-01  7.42420896e-06  7.70605434e-01  7.42420896e-06  7.70456752e-01  7.42420896e-06  1.80000000e+00  7.42420896e-06  4.29241125e-08  7.42420896e-06  7.70605434e-01                                 
 8.42420896e-06  8.24502857e-01  8.42420896e-06  7.70935324e-01  8.42420896e-06  7.71206240e-01  8.42420896e-06  1.80000000e+00  8.42420896e-06  7.77986827e-08  8.42420896e-06  7.70935324e-01                                 
 9.42420896e-06  8.24180653e-01  9.42420896e-06  7.70647070e-01  9.42420896e-06  7.70512695e-01  9.42420896e-06  1.80000000e+00  9.42420896e-06  4.01780972e-08  9.42420896e-06  7.70647070e-01                                 
 1.00005000e-05  8.24439863e-01  1.00005000e-05  7.70878812e-01  1.00005000e-05  7.71127985e-01  1.00005000e-05  1.80000000e+00  1.00005000e-05  8.09105596e-08  1.00005000e-05  7.70878812e-01                                 
 1.00005500e-05  8.24440350e-01  1.00005500e-05  7.70879245e-01  1.00005500e-05  7.64278352e-01  1.00005500e-05  1.62000000e+00  1.00005500e-05 -1.01982204e-04  1.00005500e-05  7.70879245e-01                                 
