 time            v(vbep)         time            v(vben)         time            v(vout)         time            v(vphi1)        time            v(vphi2)        time            v(vref)         yes             currtemp       
 0.00000000e+00  6.60008511e-01  0.00000000e+00  6.02583175e-01  0.00000000e+00  8.95388191e-01  0.00000000e+00  0.00000000e+00  0.00000000e+00  1.79995858e+00  0.00000000e+00  5.00000000e-01  1.00000000e+00  4.10000000e+01 
 5.00000000e-12  6.59981255e-01  5.00000000e-12  6.02560579e-01  5.00000000e-12  8.96121175e-01  5.00000000e-12  1.80000000e-02  5.00000000e-12  1.80006034e+00  5.00000000e-12  5.00000000e-01                                 
 1.00000000e-11  6.59954661e-01  1.00000000e-11  6.02538554e-01  1.00000000e-11  8.96781376e-01  1.00000000e-11  3.60000000e-02  1.00000000e-11  1.80011281e+00  1.00000000e-11  5.00000000e-01                                 
 2.00000000e-11  6.59901866e-01  2.00000000e-11  6.02494666e-01  2.00000000e-11  8.97984800e-01  2.00000000e-11  7.20000000e-02  2.00000000e-11  1.80016162e+00  2.00000000e-11  5.00000000e-01                                 
 4.00000000e-11  6.59796956e-01  4.00000000e-11  6.02407217e-01  4.00000000e-11  8.99859586e-01  4.00000000e-11  1.44000000e-01  4.00000000e-11  1.80013421e+00  4.00000000e-11  5.00000000e-01                                 
 8.00000000e-11  6.59588107e-01  8.00000000e-11  6.02233052e-01  8.00000000e-11  9.02227252e-01  8.00000000e-11  2.88000000e-01  8.00000000e-11  1.80007031e+00  8.00000000e-11  5.00000000e-01                                 
 1.60000000e-10  6.59174577e-01  1.60000000e-10  6.01887639e-01  1.60000000e-10  9.04380214e-01  1.60000000e-10  5.76000000e-01  1.60000000e-10  1.80001634e+00  1.60000000e-10  5.00000000e-01                                 
 3.20000000e-10  6.58363246e-01  3.20000000e-10  6.01208077e-01  3.20000000e-10  8.97432399e-01  3.20000000e-10  1.15200000e+00  3.20000000e-10  1.80037190e+00  3.20000000e-10  5.00000000e-01                                 
 5.00000000e-10  6.57474762e-01  5.00000000e-10  6.00460934e-01  5.00000000e-10  1.06400191e+00  5.00000000e-10  1.80000000e+00  5.00000000e-10  1.18416064e-01  5.00000000e-10  5.00000000e-01                                 
 5.21615102e-10  6.57369931e-01  5.21615102e-10  6.00372559e-01  5.21615102e-10  1.10328822e+00  5.21615102e-10  1.80000000e+00  5.21615102e-10  2.34140610e-02  5.21615102e-10  5.00000000e-01                                 
 5.64845305e-10  6.57160946e-01  5.64845305e-10  6.00196290e-01  5.64845305e-10  1.17648061e+00  5.64845305e-10  1.80000000e+00  5.64845305e-10 -1.09325965e-02  5.64845305e-10  5.00000000e-01                                 
 6.51305713e-10  6.56747091e-01  6.51305713e-10  5.99846733e-01  6.51305713e-10  1.30169010e+00  6.51305713e-10  1.80000000e+00  6.51305713e-10  9.08676440e-03  6.51305713e-10  5.00000000e-01                                 
 7.73533620e-10  6.56171181e-01  7.73533620e-10  5.99359217e-01  7.73533620e-10  1.45016031e+00  7.73533620e-10  1.80000000e+00  7.73533620e-10 -7.89559459e-03  7.73533620e-10  5.00000000e-01                                 
 9.65808089e-10  6.55286052e-01  9.65808089e-10  5.98607521e-01  9.65808089e-10  1.63080283e+00  9.65808089e-10  1.80000000e+00  9.65808089e-10  7.40518539e-03  9.65808089e-10  5.00000000e-01                                 
 1.35035703e-09  6.53587002e-01  1.35035703e-09  5.97156583e-01  1.35035703e-09  1.84366191e+00  1.35035703e-09  1.80000000e+00  1.35035703e-09 -6.99706607e-03  1.35035703e-09  5.00000000e-01                                 
 1.65635624e-09  6.52298659e-01  1.65635624e-09  5.96049266e-01  1.65635624e-09  1.91531451e+00  1.65635624e-09  1.80000000e+00  1.65635624e-09  6.76012132e-03  1.65635624e-09  5.00000000e-01                                 
 1.96318515e-09  6.51058537e-01  1.96318515e-09  5.94977767e-01  1.96318515e-09  1.94580924e+00  1.96318515e-09  1.80000000e+00  1.96318515e-09 -6.35832314e-03  1.96318515e-09  5.00000000e-01                                 
 2.28888593e-09  6.49794493e-01  2.28888593e-09  5.93880038e-01  2.28888593e-09  1.95850434e+00  2.28888593e-09  1.80000000e+00  2.28888593e-09  6.13592257e-03  2.28888593e-09  5.00000000e-01                                 
 2.75449099e-09  6.48072820e-01  2.75449099e-09  5.92376147e-01  2.75449099e-09  1.96352799e+00  2.75449099e-09  1.80000000e+00  2.75449099e-09 -5.88868698e-03  2.75449099e-09  5.00000000e-01                                 
 3.35552088e-09  6.45984128e-01  3.35552088e-09  5.90538464e-01  3.35552088e-09  1.96323429e+00  3.35552088e-09  1.80000000e+00  3.35552088e-09  5.79055253e-03  3.35552088e-09  5.00000000e-01                                 
 4.31832503e-09  6.42908080e-01  4.31832503e-09  5.87807099e-01  4.31832503e-09  1.96041470e+00  4.31832503e-09  1.80000000e+00  4.31832503e-09 -5.66173552e-03  4.31832503e-09  5.00000000e-01                                 
 5.80812936e-09  6.38684357e-01  5.80812936e-09  5.84010964e-01  5.80812936e-09  1.95642444e+00  5.80812936e-09  1.80000000e+00  5.80812936e-09  5.64483781e-03  5.80812936e-09  5.00000000e-01                                 
 8.78773803e-09  6.31644146e-01  8.78773803e-09  5.77580580e-01  8.78773803e-09  1.94905062e+00  8.78773803e-09  1.80000000e+00  8.78773803e-09 -5.57314043e-03  8.78773803e-09  5.00000000e-01                                 
 1.02831158e-08  6.28671439e-01  1.02831158e-08  5.74825301e-01  1.02831158e-08  1.94593307e+00  1.02831158e-08  1.80000000e+00  1.02831158e-08  5.55383222e-03  1.02831158e-08  5.00000000e-01                                 
 1.16638470e-08  6.26164792e-01  1.16638470e-08  5.72487292e-01  1.16638470e-08  1.94320815e+00  1.16638470e-08  1.80000000e+00  1.16638470e-08 -5.46386449e-03  1.16638470e-08  5.00000000e-01                                 
 1.32662542e-08  6.23491282e-01  1.32662542e-08  5.69980501e-01  1.32662542e-08  1.94031930e+00  1.32662542e-08  1.80000000e+00  1.32662542e-08  5.44187164e-03  1.32662542e-08  5.00000000e-01                                 
 1.56187551e-08  6.19937085e-01  1.56187551e-08  5.66629849e-01  1.56187551e-08  1.93623456e+00  1.56187551e-08  1.80000000e+00  1.56187551e-08 -5.38123745e-03  1.56187551e-08  5.00000000e-01                                 
 1.87287766e-08  6.15771208e-01  1.87287766e-08  5.62680712e-01  1.87287766e-08  1.93134646e+00  1.87287766e-08  1.80000000e+00  1.87287766e-08  5.38120282e-03  1.87287766e-08  5.00000000e-01                                 
 2.27073095e-08  6.11104318e-01  2.27073095e-08  5.58235961e-01  2.27073095e-08  1.92547226e+00  2.27073095e-08  1.80000000e+00  2.27073095e-08 -5.33602346e-03  2.27073095e-08  5.00000000e-01                                 
 2.88786050e-08  6.04784060e-01  2.88786050e-08  5.52215582e-01  2.88786050e-08  1.91628308e+00  2.88786050e-08  1.80000000e+00  2.88786050e-08  5.34839126e-03  2.88786050e-08  5.00000000e-01                                 
 3.87171495e-08  5.95057100e-01  3.87171495e-08  5.43170370e-01  3.87171495e-08  1.89686736e+00  3.87171495e-08  1.80000000e+00  3.87171495e-08 -5.31531508e-03  3.87171495e-08  5.00000000e-01                                 
 5.61293243e-08  5.82015146e-01  5.61293243e-08  5.30994935e-01  5.61293243e-08  1.85616311e+00  5.61293243e-08  1.80000000e+00  5.61293243e-08  5.33609524e-03  5.61293243e-08  5.00000000e-01                                 
 7.39700226e-08  5.71483536e-01  7.39700226e-08  5.21228199e-01  7.39700226e-08  1.82193927e+00  7.39700226e-08  1.80000000e+00  7.39700226e-08 -5.30619975e-03  7.39700226e-08  5.00000000e-01                                 
 9.89287564e-08  5.60767641e-01  9.89287564e-08  5.11198488e-01  9.89287564e-08  1.77632648e+00  9.89287564e-08  1.80000000e+00  9.89287564e-08  5.32866984e-03  9.89287564e-08  5.00000000e-01                                 
 1.28428672e-07  5.62136737e-01  1.28428672e-07  5.10813194e-01  1.28428672e-07  1.76866568e+00  1.28428672e-07  1.80000000e+00  1.28428672e-07 -5.29990923e-03  1.28428672e-07  5.00000000e-01                                 
 1.50982542e-07  5.62217352e-01  1.50982542e-07  5.09934202e-01  1.50982542e-07  1.74876545e+00  1.50982542e-07  1.80000000e+00  1.50982542e-07  5.32240714e-03  1.50982542e-07  5.00000000e-01                                 
 1.74795123e-07  5.56328060e-01  1.74795123e-07  5.04418948e-01  1.74795123e-07  1.71730377e+00  1.74795123e-07  1.80000000e+00  1.74795123e-07 -5.29339613e-03  1.74795123e-07  5.00000000e-01                                 
 1.94451036e-07  5.52502890e-01  1.94451036e-07  5.00764981e-01  1.94451036e-07  1.69503038e+00  1.94451036e-07  1.80000000e+00  1.94451036e-07  5.31515919e-03  1.94451036e-07  5.00000000e-01                                 
 2.15303416e-07  5.46819118e-01  2.15303416e-07  4.95667182e-01  2.15303416e-07  1.66890065e+00  2.15303416e-07  1.80000000e+00  2.15303416e-07 -5.28581448e-03  2.15303416e-07  5.00000000e-01                                 
 2.48629162e-07  5.37000342e-01  2.48629162e-07  4.87055388e-01  2.48629162e-07  1.62648263e+00  2.48629162e-07  1.80000000e+00  2.48629162e-07  5.30904492e-03  2.48629162e-07  5.00000000e-01                                 
 2.96352454e-07  5.24203341e-01  2.96352454e-07  4.75932403e-01  2.96352454e-07  1.56490081e+00  2.96352454e-07  1.80000000e+00  2.96352454e-07 -5.28185263e-03  2.96352454e-07  5.00000000e-01                                 
 3.70971903e-07  5.02173575e-01  3.70971903e-07  4.57331657e-01  3.70971903e-07  1.46805842e+00  3.70971903e-07  1.80000000e+00  3.70971903e-07  5.30635524e-03  3.70971903e-07  5.00000000e-01                                 
 4.63886428e-07  4.81830437e-01  4.63886428e-07  4.40247646e-01  4.63886428e-07  1.35013359e+00  4.63886428e-07  1.80000000e+00  4.63886428e-07 -5.27992085e-03  4.63886428e-07  5.00000000e-01                                 
 5.58289218e-07  4.40201702e-01  5.58289218e-07  4.06598296e-01  5.58289218e-07  1.21128520e+00  5.58289218e-07  1.80000000e+00  5.58289218e-07  5.30451396e-03  5.58289218e-07  5.00000000e-01                                 
 6.43265580e-07  5.24133722e-01  6.43265580e-07  4.73433401e-01  6.43265580e-07  1.20027930e+00  6.43265580e-07  1.80000000e+00  6.43265580e-07 -5.27687443e-03  6.43265580e-07  5.00000000e-01                                 
 7.43126513e-07  7.47541396e-01  7.43126513e-07  6.86517241e-01  7.43126513e-07  1.30972834e+00  7.43126513e-07  1.80000000e+00  7.43126513e-07  5.30463759e-03  7.43126513e-07  5.00000000e-01                                 
 7.54686985e-07  7.55464676e-01  7.54686985e-07  6.93903834e-01  7.54686985e-07  1.30498447e+00  7.54686985e-07  1.80000000e+00  7.54686985e-07  3.41201378e-06  7.54686985e-07  5.00000000e-01                                 
 7.77807931e-07  7.66012257e-01  7.77807931e-07  7.03290548e-01  7.77807931e-07  1.29062198e+00  7.77807931e-07  1.80000000e+00  7.77807931e-07 -6.38540052e-07  7.77807931e-07  5.00000000e-01                                 
 8.24049821e-07  7.73072652e-01  8.24049821e-07  7.09375831e-01  8.24049821e-07  1.24837606e+00  8.24049821e-07  1.80000000e+00  8.24049821e-07  2.92062974e-06  8.24049821e-07  5.00000000e-01                                 
 8.32722375e-07  7.73495626e-01  8.32722375e-07  7.09738987e-01  8.32722375e-07  1.23957222e+00  8.32722375e-07  1.80000000e+00  8.32722375e-07  1.07591799e-06  8.32722375e-07  5.00000000e-01                                 
 8.50067482e-07  7.74302483e-01  8.50067482e-07  7.10424514e-01  8.50067482e-07  1.22191979e+00  8.50067482e-07  1.80000000e+00  8.50067482e-07  1.05984897e-06  8.50067482e-07  5.00000000e-01                                 
 8.84757697e-07  7.75428684e-01  8.84757697e-07  7.11377536e-01  8.84757697e-07  1.18612460e+00  8.84757697e-07  1.80000000e+00  8.84757697e-07  1.05138053e-06  8.84757697e-07  5.00000000e-01                                 
 9.35601554e-07  7.76611597e-01  9.35601554e-07  7.12373871e-01  9.35601554e-07  1.13318738e+00  9.35601554e-07  1.80000000e+00  9.35601554e-07  1.04747804e-06  9.35601554e-07  5.00000000e-01                                 
 9.95392937e-07  7.75958909e-01  9.95392937e-07  7.11828269e-01  9.95392937e-07  1.06958080e+00  9.95392937e-07  1.80000000e+00  9.95392937e-07  1.00341537e-06  9.95392937e-07  5.00000000e-01                                 
 1.00514965e-06  7.73074570e-01  1.00514965e-06  7.09400548e-01  1.00514965e-06  1.05682614e+00  1.00514965e-06  1.80000000e+00  1.00514965e-06  8.35661236e-07  1.00514965e-06  5.00000000e-01                                 
 1.02466307e-06  7.63639295e-01  1.02466307e-06  7.01260720e-01  1.02466307e-06  1.02815154e+00  1.02466307e-06  1.80000000e+00  1.02466307e-06  5.62153398e-07  1.02466307e-06  5.00000000e-01                                 
 1.06368991e-06  7.52502546e-01  1.06368991e-06  6.91267671e-01  1.06368991e-06  9.80689439e-01  1.06368991e-06  1.80000000e+00  1.06368991e-06  1.07372844e-06  1.06368991e-06  5.00000000e-01                                 
 1.10586972e-06  7.62196036e-01  1.10586972e-06  6.99936398e-01  1.10586972e-06  9.53768247e-01  1.10586972e-06  1.80000000e+00  1.10586972e-06  1.30895992e-06  1.10586972e-06  5.00000000e-01                                 
 1.17087318e-06  7.69631479e-01  1.17087318e-06  7.06438020e-01  1.17087318e-06  9.11822837e-01  1.17087318e-06  1.80000000e+00  1.17087318e-06  9.37165496e-07  1.17087318e-06  5.00000000e-01                                 
 1.23347823e-06  7.63209880e-01  1.23347823e-06  7.00855119e-01  1.23347823e-06  8.64913145e-01  1.23347823e-06  1.80000000e+00  1.23347823e-06  9.80237459e-07  1.23347823e-06  5.00000000e-01                                 
 1.33005964e-06  7.61200818e-01  1.33005964e-06  6.99066190e-01  1.33005964e-06  8.04879837e-01  1.33005964e-06  1.80000000e+00  1.33005964e-06  1.05459228e-06  1.33005964e-06  5.00000000e-01                                 
 1.43275011e-06  7.67607689e-01  1.43275011e-06  7.04687504e-01  1.43275011e-06  7.52208550e-01  1.43275011e-06  1.80000000e+00  1.43275011e-06  1.09930674e-06  1.43275011e-06  5.00000000e-01                                 
 1.58923157e-06  7.61524433e-01  1.58923157e-06  6.99364009e-01  1.58923157e-06  6.63263704e-01  1.58923157e-06  1.80000000e+00  1.58923157e-06  9.12369916e-07  1.58923157e-06  5.00000000e-01                                 
 1.76130327e-06  7.64985217e-01  1.76130327e-06  7.02397059e-01  1.76130327e-06  5.81918704e-01  1.76130327e-06  1.80000000e+00  1.76130327e-06  1.17850892e-06  1.76130327e-06  5.00000000e-01                                 
 1.97612379e-06  7.64465976e-01  1.97612379e-06  7.01954989e-01  1.97612379e-06  5.13594625e-01  1.97612379e-06  1.80000000e+00  1.97612379e-06  8.88352562e-07  1.97612379e-06  5.00000000e-01                                 
 2.21832870e-06  7.62858426e-01  2.21832870e-06  7.00530701e-01  2.21832870e-06  4.89270631e-01  2.21832870e-06  1.80000000e+00  2.21832870e-06  1.16554775e-06  2.21832870e-06  5.00000000e-01                                 
 2.47922877e-06  7.65865143e-01  2.47922877e-06  7.03175772e-01  2.47922877e-06  5.01980171e-01  2.47922877e-06  1.80000000e+00  2.47922877e-06  9.18602335e-07  2.47922877e-06  5.00000000e-01                                 
 2.75092302e-06  7.62046062e-01  2.75092302e-06  6.99817277e-01  2.75092302e-06  5.01719074e-01  2.75092302e-06  1.80000000e+00  2.75092302e-06  1.12276685e-06  2.75092302e-06  5.00000000e-01                                 
 3.02645069e-06  7.66043318e-01  3.02645069e-06  7.03327990e-01  3.02645069e-06  4.98021256e-01  3.02645069e-06  1.80000000e+00  3.02645069e-06  9.64543765e-07  3.02645069e-06  5.00000000e-01                                 
 3.30702144e-06  7.62345390e-01  3.30702144e-06  7.00084633e-01  3.30702144e-06  5.00443685e-01  3.30702144e-06  1.80000000e+00  3.30702144e-06  1.08025173e-06  3.30702144e-06  5.00000000e-01                                 
 3.64282095e-06  7.65475022e-01  3.64282095e-06  7.02829769e-01  3.64282095e-06  5.00894076e-01  3.64282095e-06  1.80000000e+00  3.64282095e-06  9.97760623e-07  3.64282095e-06  5.00000000e-01                                 
 4.15323021e-06  7.62971029e-01  4.15323021e-06  7.00637578e-01  4.15323021e-06  4.99157855e-01  4.15323021e-06  1.80000000e+00  4.15323021e-06  1.05985363e-06  4.15323021e-06  5.00000000e-01                                 
 4.81925200e-06  7.65009514e-01  4.81925200e-06  7.02422097e-01  4.81925200e-06  5.01349610e-01  4.81925200e-06  1.80000000e+00  4.81925200e-06  1.00895019e-06  4.81925200e-06  5.00000000e-01                                 
 5.81925200e-06  7.63345528e-01  5.81925200e-06  7.00967605e-01  5.81925200e-06  4.99022028e-01  5.81925200e-06  1.80000000e+00  5.81925200e-06  1.05330892e-06  5.81925200e-06  5.00000000e-01                                 
 6.81925200e-06  7.64718530e-01  6.81925200e-06  7.02167163e-01  6.81925200e-06  5.01341059e-01  6.81925200e-06  1.80000000e+00  6.81925200e-06  1.01309887e-06  6.81925200e-06  5.00000000e-01                                 
 7.81925200e-06  7.63649077e-01  7.81925200e-06  7.01234663e-01  7.81925200e-06  4.99106395e-01  7.81925200e-06  1.80000000e+00  7.81925200e-06  1.05001993e-06  7.81925200e-06  5.00000000e-01                                 
 8.81925200e-06  7.64426234e-01  8.81925200e-06  7.01910968e-01  8.81925200e-06  5.01189581e-01  8.81925200e-06  1.80000000e+00  8.81925200e-06  1.01553292e-06  8.81925200e-06  5.00000000e-01                                 
 9.81925200e-06  7.63943949e-01  9.81925200e-06  7.01493717e-01  9.81925200e-06  4.99310039e-01  9.81925200e-06  1.80000000e+00  9.81925200e-06  1.04842279e-06  9.81925200e-06  5.00000000e-01                                 
 1.00005000e-05  7.63599429e-01  1.00005000e-05  7.01185709e-01  1.00005000e-05  5.00272450e-01  1.00005000e-05  1.80000000e+00  1.00005000e-05  1.01297730e-06  1.00005000e-05  5.00000000e-01                                 
 1.00005500e-05  7.63603594e-01  1.00005500e-05  7.01189972e-01  1.00005500e-05  4.92403762e-01  1.00005500e-05  1.62000000e+00  1.00005500e-05 -7.86728576e-05  1.00005500e-05  5.00000000e-01                                 
 1.00006500e-05  7.63613365e-01  1.00006500e-05  7.01198540e-01  1.00006500e-05  4.78565444e-01  1.00006500e-05  1.26000000e+00  1.00006500e-05 -6.14082041e-05  1.00006500e-05  5.00000000e-01                                 
 1.00008500e-05  7.63632036e-01  1.00008500e-05  7.01214271e-01  1.00008500e-05  4.76338343e-01  1.00008500e-05  5.40000000e-01  1.00008500e-05 -4.09211749e-03  1.00008500e-05  5.00000000e-01                                 
 1.00010000e-05  7.63644169e-01  1.00010000e-05  7.01224903e-01  1.00010000e-05  4.37541373e-01  1.00010000e-05  0.00000000e+00  1.00010000e-05  1.57690443e+00  1.00010000e-05  5.00000000e-01                                 
 1.00010220e-05  7.63645899e-01  1.00010220e-05  7.01226368e-01  1.00010220e-05  4.12556891e-01  1.00010220e-05  0.00000000e+00  1.00010220e-05  1.71687255e+00  1.00010220e-05  5.00000000e-01                                 
 1.00010661e-05  7.63649297e-01  1.00010661e-05  7.01229282e-01  1.00010661e-05  3.64535494e-01  1.00010661e-05  0.00000000e+00  1.00010661e-05  1.81751282e+00  1.00010661e-05  5.00000000e-01                                 
 1.00011541e-05  7.63655985e-01  1.00011541e-05  7.01235043e-01  1.00011541e-05  3.07013016e-01  1.00011541e-05  0.00000000e+00  1.00011541e-05  1.78742793e+00  1.00011541e-05  5.00000000e-01                                 
 1.00012622e-05  7.63663931e-01  1.00012622e-05  7.01241929e-01  1.00012622e-05  2.92251017e-01  1.00012622e-05  0.00000000e+00  1.00012622e-05  1.80671895e+00  1.00012622e-05  5.00000000e-01                                 
