 time            v(vbep)         time            v(vben)         time            v(vout)         time            v(vphi1)        time            v(vphi2)        time            v(vref)         time            v(voutc)        time            v(voutcc)       yes             currtemp       
 0.00000000e+00  7.44960498e-01  0.00000000e+00  6.82601843e-01  0.00000000e+00  1.54605911e+00  0.00000000e+00  0.00000000e+00  0.00000000e+00  1.80000000e+00  0.00000000e+00  6.84272074e-01  0.00000000e+00  1.54605910e+00  0.00000000e+00  1.55298623e+00  1.00000000e+00  4.60000000e+01 
 1.00000000e-11  7.44985612e-01  1.00000000e-11  6.82673424e-01  1.00000000e-11  1.54683552e+00  1.00000000e-11  1.80000000e-02  1.00000000e-11  1.80025244e+00  1.00000000e-11  6.84805065e-01  1.00000000e-11  1.54653037e+00  1.00000000e-11  1.55300036e+00                                 
 2.00000000e-11  7.44992487e-01  2.00000000e-11  6.82718128e-01  2.00000000e-11  1.54730924e+00  2.00000000e-11  3.60000000e-02  2.00000000e-11  1.80035218e+00  2.00000000e-11  6.85200302e-01  2.00000000e-11  1.54688617e+00  2.00000000e-11  1.55300561e+00                                 
 4.00000000e-11  7.44992487e-01  4.00000000e-11  6.82776929e-01  4.00000000e-11  1.54787566e+00  4.00000000e-11  7.20000000e-02  4.00000000e-11  1.80038996e+00  4.00000000e-11  6.85778176e-01  4.00000000e-11  1.54741580e+00  4.00000000e-11  1.55300736e+00                                 
 8.00000000e-11  7.44980764e-01  8.00000000e-11  6.82814602e-01  8.00000000e-11  1.54798240e+00  8.00000000e-11  1.44000000e-01  8.00000000e-11  1.80018554e+00  8.00000000e-11  6.86226328e-01  8.00000000e-11  1.54784547e+00  8.00000000e-11  1.55299679e+00                                 
 1.60000000e-10  7.44977966e-01  1.60000000e-10  6.82825203e-01  1.60000000e-10  1.54764707e+00  1.60000000e-10  2.88000000e-01  1.60000000e-10  1.80000453e+00  1.60000000e-10  6.86305097e-01  1.60000000e-10  1.54789441e+00  1.60000000e-10  1.55298732e+00                                 
 3.20000000e-10  7.44973869e-01  3.20000000e-10  6.82821002e-01  3.20000000e-10  1.54727186e+00  3.20000000e-10  5.76000000e-01  3.20000000e-10  1.79998716e+00  3.20000000e-10  6.86155582e-01  3.20000000e-10  1.54757865e+00  3.20000000e-10  1.55298284e+00                                 
 6.40000000e-10  7.44890526e-01  6.40000000e-10  6.82429957e-01  6.40000000e-10  1.54525371e+00  6.40000000e-10  1.15200000e+00  6.40000000e-10  1.81110199e+00  6.40000000e-10  6.83792334e-01  6.40000000e-10  1.55207869e+00  6.40000000e-10  1.55301058e+00                                 
 1.00000000e-09  7.45510541e-01  1.00000000e-09  6.82723343e-01  1.00000000e-09  1.52174007e+00  1.00000000e-09  1.80000000e+00  1.00000000e-09  9.59021216e-02  1.00000000e-09  6.96231066e-01  1.00000000e-09  1.55363832e+00  1.00000000e-09  1.55298321e+00                                 
 1.03666890e-09  7.45561936e-01  1.03666890e-09  6.82753612e-01  1.03666890e-09  1.52060824e+00  1.03666890e-09  1.80000000e+00  1.03666890e-09  2.17671969e-02  1.03666890e-09  6.99271780e-01  1.03666890e-09  1.55531182e+00  1.03666890e-09  1.55301764e+00                                 
 1.11000669e-09  7.45691330e-01  1.11000669e-09  6.82815407e-01  1.11000669e-09  1.51941805e+00  1.11000669e-09  1.80000000e+00  1.11000669e-09 -1.03770240e-02  1.11000669e-09  7.03193231e-01  1.11000669e-09  1.55836331e+00  1.11000669e-09  1.55304107e+00                                 
 1.25668228e-09  7.45806808e-01  1.25668228e-09  6.82683107e-01  1.25668228e-09  1.51704989e+00  1.25668228e-09  1.80000000e+00  1.25668228e-09  8.52971207e-03  1.25668228e-09  7.03383130e-01  1.25668228e-09  1.55878987e+00  1.25668228e-09  1.55299367e+00                                 
 1.45771411e-09  7.45784173e-01  1.45771411e-09  6.82660194e-01  1.45771411e-09  1.51637085e+00  1.45771411e-09  1.80000000e+00  1.45771411e-09 -6.58322550e-03  1.45771411e-09  7.02683098e-01  1.45771411e-09  1.55798362e+00  1.45771411e-09  1.55302691e+00                                 
 1.67836752e-09  7.45690752e-01  1.67836752e-09  6.82655483e-01  1.67836752e-09  1.51620753e+00  1.67836752e-09  1.80000000e+00  1.67836752e-09  5.60745598e-03  1.67836752e-09  7.01262393e-01  1.67836752e-09  1.55695380e+00  1.67836752e-09  1.55304105e+00                                 
 2.04774537e-09  7.45441735e-01  2.04774537e-09  6.82608525e-01  2.04774537e-09  1.51614962e+00  2.04774537e-09  1.80000000e+00  2.04774537e-09 -5.05816994e-03  2.04774537e-09  6.98879985e-01  2.04774537e-09  1.55476071e+00  2.04774537e-09  1.55313768e+00                                 
 2.48663921e-09  7.45216474e-01  2.48663921e-09  6.82612176e-01  2.48663921e-09  1.51630921e+00  2.48663921e-09  1.80000000e+00  2.48663921e-09  4.53671306e-03  2.48663921e-09  6.96512805e-01  2.48663921e-09  1.55288226e+00  2.48663921e-09  1.55324318e+00                                 
 3.15103836e-09  7.44986894e-01  3.15103836e-09  6.82567629e-01  3.15103836e-09  1.51559843e+00  3.15103836e-09  1.80000000e+00  3.15103836e-09 -4.36730471e-03  3.15103836e-09  6.93010652e-01  3.15103836e-09  1.54975545e+00  3.15103836e-09  1.55341707e+00                                 
 4.13192372e-09  7.44848463e-01  4.13192372e-09  6.82585303e-01  4.13192372e-09  1.51473683e+00  4.13192372e-09  1.80000000e+00  4.13192372e-09  4.12157185e-03  4.13192372e-09  6.89425623e-01  4.13192372e-09  1.54682447e+00  4.13192372e-09  1.55359367e+00                                 
 6.09369444e-09  7.44749116e-01  6.09369444e-09  6.82563926e-01  6.09369444e-09  1.51168131e+00  6.09369444e-09  1.80000000e+00  6.09369444e-09 -4.08307651e-03  6.09369444e-09  6.84721033e-01  6.09369444e-09  1.54269074e+00  6.09369444e-09  1.55370298e+00                                 
 7.62106477e-09  7.44780565e-01  7.62106477e-09  6.82600222e-01  7.62106477e-09  1.50833649e+00  7.62106477e-09  1.80000000e+00  7.62106477e-09  3.96192658e-03  7.62106477e-09  6.83384899e-01  7.62106477e-09  1.54167722e+00  7.62106477e-09  1.55358164e+00                                 
 9.07545981e-09  7.44807372e-01  9.07545981e-09  6.82577972e-01  9.07545981e-09  1.50338500e+00  9.07545981e-09  1.80000000e+00  9.07545981e-09 -3.86862418e-03  9.07545981e-09  6.82480403e-01  9.07545981e-09  1.54078527e+00  9.07545981e-09  1.55338511e+00                                 
 1.06217458e-08  7.44860080e-01  1.06217458e-08  6.82609725e-01  1.06217458e-08  1.49741053e+00  1.06217458e-08  1.80000000e+00  1.06217458e-08  3.76838393e-03  1.06217458e-08  6.82415240e-01  1.06217458e-08  1.54084184e+00  1.06217458e-08  1.55312708e+00                                 
 1.28480007e-08  7.44900510e-01  1.28480007e-08  6.82585116e-01  1.28480007e-08  1.48669964e+00  1.28480007e-08  1.80000000e+00  1.28480007e-08 -3.70614278e-03  1.28480007e-08  6.82143458e-01  1.28480007e-08  1.54048328e+00  1.28480007e-08  1.55274818e+00                                 
 1.54956589e-08  7.44948038e-01  1.54956589e-08  6.82614882e-01  1.54956589e-08  1.47301065e+00  1.54956589e-08  1.80000000e+00  1.54956589e-08  3.65293459e-03  1.54956589e-08  6.82548763e-01  1.54956589e-08  1.54092496e+00  1.54956589e-08  1.55231330e+00                                 
 1.92161581e-08  7.44961823e-01  1.92161581e-08  6.82588179e-01  1.92161581e-08  1.45190645e+00  1.92161581e-08  1.80000000e+00  1.92161581e-08 -3.61456509e-03  1.92161581e-08  6.82645285e-01  1.92161581e-08  1.54087242e+00  1.92161581e-08  1.55178290e+00                                 
 2.41366010e-08  7.44977772e-01  2.41366010e-08  6.82616411e-01  2.41366010e-08  1.42365779e+00  2.41366010e-08  1.80000000e+00  2.41366010e-08  3.58791649e-03  2.41366010e-08  6.83261989e-01  2.41366010e-08  1.54148517e+00  2.41366010e-08  1.55121077e+00                                 
 3.25464496e-08  7.44965005e-01  3.25464496e-08  6.82588513e-01  3.25464496e-08  1.37423809e+00  3.25464496e-08  1.80000000e+00  3.25464496e-08 -3.57037532e-03  3.25464496e-08  6.83486588e-01  3.25464496e-08  1.54153976e+00  3.25464496e-08  1.55051370e+00                                 
 4.64198861e-08  7.44968958e-01  4.64198861e-08  6.82615997e-01  4.64198861e-08  1.29331104e+00  4.64198861e-08  1.80000000e+00  4.64198861e-08  3.56168871e-03  4.64198861e-08  6.84116367e-01  4.64198861e-08  1.54216630e+00  4.64198861e-08  1.54984502e+00                                 
 7.41667592e-08  7.44956233e-01  7.41667592e-08  6.82587937e-01  7.41667592e-08  1.13171703e+00  7.41667592e-08  1.80000000e+00  7.41667592e-08 -3.55555790e-03  7.41667592e-08  6.84132168e-01  7.41667592e-08  1.54205849e+00  7.41667592e-08  1.54932807e+00                                 
 1.09487982e-07  7.44964885e-01  1.09487982e-07  6.82615726e-01  1.09487982e-07  9.30274557e-01  1.09487982e-07  1.80000000e+00  1.09487982e-07  3.55380378e-03  1.09487982e-07  6.84388303e-01  1.09487982e-07  1.54238435e+00  1.09487982e-07  1.54919561e+00                                 
 1.65165112e-07  7.44956838e-01  1.65165112e-07  6.82587948e-01  1.65165112e-07  7.17186580e-01  1.65165112e-07  1.80000000e+00  1.65165112e-07 -3.54414269e-03  1.65165112e-07  6.84153615e-01  1.65165112e-07  1.54207151e+00  1.65165112e-07  1.54916233e+00                                 
 2.06450523e-07  7.44964586e-01  2.06450523e-07  6.82615873e-01  2.06450523e-07  6.82093740e-01  2.06450523e-07  1.80000000e+00  2.06450523e-07  3.55353598e-03  2.06450523e-07  6.84395292e-01  2.06450523e-07  1.54238575e+00  2.06450523e-07  1.54916011e+00                                 
 2.39221381e-07  7.44954412e-01  2.39221381e-07  6.82587611e-01  2.39221381e-07  6.86188423e-01  2.39221381e-07  1.80000000e+00  2.39221381e-07 -3.53587349e-03  2.39221381e-07  6.84151330e-01  2.39221381e-07  1.54206710e+00  2.39221381e-07  1.54916049e+00                                 
 2.66869092e-07  7.44967092e-01  2.66869092e-07  6.82616139e-01  2.66869092e-07  6.85934616e-01  2.66869092e-07  1.80000000e+00  2.66869092e-07  3.54473448e-03  2.66869092e-07  6.84391876e-01  2.66869092e-07  1.54238058e+00  2.66869092e-07  1.54915660e+00                                 
 2.96856980e-07  7.44953885e-01  2.96856980e-07  6.82587519e-01  2.96856980e-07  6.85983094e-01  2.96856980e-07  1.80000000e+00  2.96856980e-07 -3.52687673e-03  2.96856980e-07  6.84152526e-01  2.96856980e-07  1.54206623e+00  2.96856980e-07  1.54915718e+00                                 
 3.47233683e-07  7.44967055e-01  3.47233683e-07  6.82616158e-01  3.47233683e-07  6.85998365e-01  3.47233683e-07  1.80000000e+00  3.47233683e-07  3.53780464e-03  3.47233683e-07  6.84391450e-01  3.47233683e-07  1.54237735e+00  3.47233683e-07  1.54915359e+00                                 
 4.17436725e-07  7.44954003e-01  4.17436725e-07  6.82587520e-01  4.17436725e-07  6.85948902e-01  4.17436725e-07  1.80000000e+00  4.17436725e-07 -3.52246277e-03  4.17436725e-07  6.84152723e-01  4.17436725e-07  1.54206231e+00  4.17436725e-07  1.54915286e+00                                 
 5.36014688e-07  7.44966951e-01  5.36014688e-07  6.82616154e-01  5.36014688e-07  6.86017276e-01  5.36014688e-07  1.80000000e+00  5.36014688e-07  3.53485180e-03  5.36014688e-07  6.84391346e-01  5.36014688e-07  1.54237071e+00  5.36014688e-07  1.54914712e+00                                 
 7.37776033e-07  7.44954072e-01  7.37776033e-07  6.82587524e-01  7.37776033e-07  6.85938724e-01  7.37776033e-07  1.80000000e+00  7.37776033e-07 -3.52072538e-03  7.37776033e-07  6.84152774e-01  7.37776033e-07  1.54205134e+00  7.37776033e-07  1.54914182e+00                                 
 1.07559151e-06  7.44966908e-01  1.07559151e-06  6.82616152e-01  1.07559151e-06  6.86022792e-01  1.07559151e-06  1.80000000e+00  1.07559151e-06  3.53382133e-03  1.07559151e-06  6.84391319e-01  1.07559151e-06  1.54235209e+00  1.07559151e-06  1.54912858e+00                                 
 1.68179606e-06  7.44954098e-01  1.68179606e-06  6.82587525e-01  1.68179606e-06  6.85935574e-01  1.68179606e-06  1.80000000e+00  1.68179606e-06 -3.52012713e-03  1.68179606e-06  6.84152790e-01  1.68179606e-06  1.54201886e+00  1.68179606e-06  1.54910935e+00                                 
 2.72923639e-06  7.44966894e-01  2.72923639e-06  6.82616151e-01  2.72923639e-06  6.86024498e-01  2.72923639e-06  1.80000000e+00  2.72923639e-06  3.53348229e-03  2.72923639e-06  6.84391310e-01  2.72923639e-06  1.54229512e+00  2.72923639e-06  1.54907170e+00                                 
 3.92923639e-06  7.44954108e-01  3.92923639e-06  6.82587526e-01  3.92923639e-06  6.85934399e-01  3.92923639e-06  1.80000000e+00  3.92923639e-06 -3.51990814e-03  3.92923639e-06  6.84152796e-01  3.92923639e-06  1.54194145e+00  3.92923639e-06  1.54903204e+00                                 
 5.12923639e-06  7.44966884e-01  5.12923639e-06  6.82616150e-01  5.12923639e-06  6.86025564e-01  5.12923639e-06  1.80000000e+00  5.12923639e-06  3.53326602e-03  5.12923639e-06  6.84391305e-01  5.12923639e-06  1.54221245e+00  5.12923639e-06  1.54898914e+00                                 
 6.00100000e-06  7.44954119e-01  6.00100000e-06  6.82587526e-01  6.00100000e-06  6.85933123e-01  6.00100000e-06  1.80000000e+00  6.00100000e-06 -3.51965577e-03  6.00100000e-06  6.84152801e-01  6.00100000e-06  1.54187010e+00  6.00100000e-06  1.54896077e+00                                 
 6.00110000e-06  7.44913087e-01  6.00110000e-06  6.82362045e-01  6.00110000e-06  6.84214631e-01  6.00110000e-06  1.62000000e+00  6.00110000e-06 -3.92309406e-04  6.00110000e-06  6.82681431e-01  6.00110000e-06  1.54066353e+00  6.00110000e-06  1.54895026e+00                                 
 6.00130000e-06  7.44946831e-01  6.00130000e-06  6.82365754e-01  6.00130000e-06  6.84412345e-01  6.00130000e-06  1.26000000e+00  6.00130000e-06  2.57530618e-04  6.00130000e-06  6.82527851e-01  6.00130000e-06  1.54054263e+00  6.00130000e-06  1.54896442e+00                                 
 6.00165644e-06  7.45004347e-01  6.00165644e-06  6.82590269e-01  6.00165644e-06  6.86521264e-01  6.00165644e-06  6.18411552e-01  6.00165644e-06 -1.98772218e-03  6.00165644e-06  6.83277464e-01  6.00165644e-06  1.53852563e+00  6.00165644e-06  1.54894717e+00                                 
 6.00200000e-06  7.44949910e-01  6.00200000e-06  6.80982833e-01  6.00200000e-06  7.18333287e-01  6.00200000e-06  0.00000000e+00  6.00200000e-06  1.59637460e+00  6.00200000e-06  6.66108816e-01  6.00200000e-06  1.35025518e+00  6.00200000e-06  1.54835474e+00                                 
 6.00204087e-06  7.44963922e-01  6.00204087e-06  6.80614108e-01  6.00204087e-06  7.24665807e-01  6.00204087e-06  0.00000000e+00  6.00204087e-06  1.72033912e+00  6.00204087e-06  6.61975517e-01  6.00204087e-06  1.29181184e+00  6.00204087e-06  1.54836770e+00                                 
 6.00212262e-06  7.44962744e-01  6.00212262e-06  6.79907593e-01  6.00212262e-06  7.29207375e-01  6.00212262e-06  0.00000000e+00  6.00212262e-06  1.81353639e+00  6.00212262e-06  6.54339799e-01  6.00212262e-06  1.16992951e+00  6.00212262e-06  1.54872158e+00                                 
 6.00226968e-06  7.44958540e-01  6.00226968e-06  6.79778621e-01  6.00226968e-06  7.20319895e-01  6.00226968e-06  0.00000000e+00  6.00226968e-06  1.79005601e+00  6.00226968e-06  6.53843194e-01  6.00226968e-06  9.92351621e-01  6.00226968e-06  1.54919075e+00                                 
 6.00241841e-06  7.44961155e-01  6.00241841e-06  6.80171405e-01  6.00241841e-06  7.15242930e-01  6.00241841e-06  0.00000000e+00  6.00241841e-06  1.80334183e+00  6.00241841e-06  6.58550226e-01  6.00241841e-06  8.70603467e-01  6.00241841e-06  1.54916168e+00                                 
 6.00260810e-06  7.44957393e-01  6.00260810e-06  6.80887238e-01  6.00260810e-06  7.05070655e-01  6.00260810e-06  0.00000000e+00  6.00260810e-06  1.79678644e+00  6.00260810e-06  6.65721743e-01  6.00260810e-06  7.67459012e-01  6.00260810e-06  1.54934768e+00                                 
 6.00283068e-06  7.44960822e-01  6.00283068e-06  6.81955101e-01  6.00283068e-06  6.93950616e-01  6.00283068e-06  0.00000000e+00  6.00283068e-06  1.80159574e+00  6.00283068e-06  6.76090468e-01  6.00283068e-06  7.15021323e-01  6.00283068e-06  1.54928931e+00                                 
 6.00303618e-06  7.44957786e-01  6.00303618e-06  6.82482316e-01  6.00303618e-06  6.89947553e-01  6.00303618e-06  0.00000000e+00  6.00303618e-06  1.79904415e+00  6.00303618e-06  6.80191179e-01  6.00303618e-06  6.96801725e-01  6.00303618e-06  1.54906409e+00                                 
 6.00331675e-06  7.44960985e-01  6.00331675e-06  6.82939039e-01  6.00331675e-06  6.87004154e-01  6.00331675e-06  0.00000000e+00  6.00331675e-06  1.80071433e+00  6.00331675e-06  6.83800485e-01  6.00331675e-06  6.89501037e-01  6.00331675e-06  1.54829835e+00                                 
 6.00360133e-06  7.44958546e-01  6.00360133e-06  6.83049927e-01  6.00360133e-06  6.87209429e-01  6.00360133e-06  0.00000000e+00  6.00360133e-06  1.79955322e+00  6.00360133e-06  6.84393309e-01  6.00360133e-06  6.87162105e-01  6.00360133e-06  1.54731740e+00                                 
 6.00409619e-06  7.44961313e-01  6.00409619e-06  6.83130891e-01  6.00409619e-06  6.87355189e-01  6.00409619e-06  0.00000000e+00  6.00409619e-06  1.80038537e+00  6.00409619e-06  6.85399722e-01  6.00409619e-06  6.87605953e-01  6.00409619e-06  1.54522826e+00                                 
 6.00477704e-06  7.44959162e-01  6.00477704e-06  6.83055528e-01  6.00477704e-06  6.89406060e-01  6.00477704e-06  0.00000000e+00  6.00477704e-06  1.79969815e+00  6.00477704e-06  6.85256519e-01  6.00477704e-06  6.88714298e-01  6.00477704e-06  1.54208285e+00                                 
 6.00613874e-06  7.44961575e-01  6.00613874e-06  6.82978068e-01  6.00613874e-06  6.92437460e-01  6.00613874e-06  0.00000000e+00  6.00613874e-06  1.80029969e+00  6.00613874e-06  6.85722362e-01  6.00613874e-06  6.92515737e-01  6.00613874e-06  1.53524654e+00                                 
 6.00878746e-06  7.44959379e-01  6.00878746e-06  6.82775777e-01  6.00878746e-06  7.00038691e-01  6.00878746e-06  0.00000000e+00  6.00878746e-06  1.79973590e+00  6.00878746e-06  6.85346187e-01  6.00878746e-06  6.99267564e-01  6.00878746e-06  1.52128393e+00                                 
 6.01408491e-06  7.44961608e-01  6.01408491e-06  6.82619063e-01  6.01408491e-06  7.13767153e-01  6.01408491e-06  0.00000000e+00  6.01408491e-06  1.80028004e+00  6.01408491e-06  6.85359640e-01  6.01408491e-06  7.13822658e-01  6.01408491e-06  1.49279744e+00                                 
 6.02467979e-06  7.44959396e-01  6.02467979e-06  6.82562812e-01  6.02467979e-06  7.41478685e-01  6.02467979e-06  0.00000000e+00  6.02467979e-06  1.79974426e+00  6.02467979e-06  6.84604368e-01  6.02467979e-06  7.40599507e-01  6.02467979e-06  1.43833579e+00                                 
 6.04273734e-06  7.44961599e-01  6.04273734e-06  6.82614943e-01  6.04273734e-06  7.84258257e-01  6.04273734e-06  0.00000000e+00  6.04273734e-06  1.80027396e+00  6.04273734e-06  6.84554325e-01  6.04273734e-06  7.84395966e-01  6.04273734e-06  1.35410193e+00                                 
 6.07885243e-06  7.44959399e-01  6.07885243e-06  6.82585384e-01  6.07885243e-06  8.60028512e-01  6.07885243e-06  0.00000000e+00  6.07885243e-06  1.79974390e+00  6.07885243e-06  6.84100593e-01  6.07885243e-06  8.58409543e-01  6.07885243e-06  1.20885120e+00                                 
 6.14194858e-06  7.44961597e-01  6.14194858e-06  6.82618063e-01  6.14194858e-06  9.61059344e-01  6.14194858e-06  0.00000000e+00  6.14194858e-06  1.80026804e+00  6.14194858e-06  6.84419755e-01  6.14194858e-06  9.62055449e-01  6.14194858e-06  1.03321408e+00                                 
 6.24778103e-06  7.44959400e-01  6.24778103e-06  6.82585832e-01  6.24778103e-06  1.06952529e+00  6.24778103e-06  0.00000000e+00  6.24778103e-06  1.79973889e+00  6.24778103e-06  6.84110378e-01  6.24778103e-06  1.06694625e+00  6.24778103e-06  1.02082708e+00                                 
