 time            v(vbep)         time            v(vben)         time            v(vout)         time            v(vphi1)        time            v(vphi2)        time            v(vref)         yes             currtemp       
 0.00000000e+00  7.47003321e-01  0.00000000e+00  6.97409314e-01  0.00000000e+00  1.05565023e+00  0.00000000e+00  0.00000000e+00  0.00000000e+00  1.79994293e+00  0.00000000e+00  6.97409314e-01  1.00000000e+00 -2.00000000e+00 
 5.00000000e-12  7.46970446e-01  5.00000000e-12  6.97382187e-01  5.00000000e-12  1.05638809e+00  5.00000000e-12  1.80000000e-02  5.00000000e-12  1.80006653e+00  5.00000000e-12  6.97382187e-01                                 
 1.00000000e-11  7.46938734e-01  1.00000000e-11  6.97355866e-01  1.00000000e-11  1.05706774e+00  1.00000000e-11  3.60000000e-02  1.00000000e-11  1.80014157e+00  1.00000000e-11  6.97355866e-01                                 
 2.00000000e-11  7.46876073e-01  2.00000000e-11  6.97303464e-01  2.00000000e-11  1.05833516e+00  2.00000000e-11  7.20000000e-02  2.00000000e-11  1.80022825e+00  2.00000000e-11  6.97303464e-01                                 
 4.00000000e-11  7.46752063e-01  4.00000000e-11  6.97199154e-01  4.00000000e-11  1.06044703e+00  4.00000000e-11  1.44000000e-01  4.00000000e-11  1.80023110e+00  4.00000000e-11  6.97199154e-01                                 
 8.00000000e-11  7.46505506e-01  8.00000000e-11  6.96991687e-01  8.00000000e-11  1.06342367e+00  8.00000000e-11  2.88000000e-01  8.00000000e-11  1.80014619e+00  8.00000000e-11  6.96991687e-01                                 
 1.60000000e-10  7.46018855e-01  1.60000000e-10  6.96581367e-01  1.60000000e-10  1.06624395e+00  1.60000000e-10  5.76000000e-01  1.60000000e-10  1.80003759e+00  1.60000000e-10  6.96581367e-01                                 
 3.20000000e-10  7.45069653e-01  3.20000000e-10  6.95778444e-01  3.20000000e-10  1.05654779e+00  3.20000000e-10  1.15200000e+00  3.20000000e-10  1.80026991e+00  3.20000000e-10  6.95778444e-01                                 
 5.00000000e-10  7.44038697e-01  5.00000000e-10  6.94902232e-01  5.00000000e-10  1.13694418e+00  5.00000000e-10  1.80000000e+00  5.00000000e-10  1.27894345e-01  5.00000000e-10  6.94902232e-01                                 
 5.20609453e-10  7.43923313e-01  5.20609453e-10  6.94803884e-01  5.20609453e-10  1.15865256e+00  5.20609453e-10  1.80000000e+00  5.20609453e-10  2.95274355e-02  5.20609453e-10  6.94803884e-01                                 
 5.61828358e-10  7.43693467e-01  5.61828358e-10  6.94607849e-01  5.61828358e-10  1.20200542e+00  5.61828358e-10  1.80000000e+00  5.61828358e-10 -1.18220395e-02  5.61828358e-10  6.94607849e-01                                 
 6.44266168e-10  7.43239346e-01  6.44266168e-10  6.94219929e-01  6.44266168e-10  1.28101677e+00  6.44266168e-10  1.80000000e+00  6.44266168e-10  1.02269767e-02  6.44266168e-10  6.94219929e-01                                 
 7.64327898e-10  7.42590899e-01  7.64327898e-10  6.93664614e-01  7.64327898e-10  1.38435058e+00  7.64327898e-10  1.80000000e+00  7.64327898e-10 -8.06378852e-03  7.64327898e-10  6.93664614e-01                                 
 9.43958078e-10  7.41648009e-01  9.43958078e-10  6.92854253e-01  9.43958078e-10  1.51363276e+00  9.43958078e-10  1.80000000e+00  9.43958078e-10  8.01036904e-03  9.43958078e-10  6.92854253e-01                                 
 1.30321844e-09  7.39852480e-01  1.30321844e-09  6.91301882e-01  1.30321844e-09  1.68513370e+00  1.30321844e-09  1.80000000e+00  1.30321844e-09 -7.10281852e-03  1.30321844e-09  6.91301882e-01                                 
 1.70487176e-09  7.37974925e-01  1.70487176e-09  6.89665623e-01  1.70487176e-09  1.77788427e+00  1.70487176e-09  1.80000000e+00  1.70487176e-09  7.08006834e-03  1.70487176e-09  6.89665623e-01                                 
 2.08132202e-09  7.36325904e-01  2.08132202e-09  6.88217759e-01  2.08132202e-09  1.81166110e+00  2.08132202e-09  1.80000000e+00  2.08132202e-09 -6.61788224e-03  2.08132202e-09  6.88217759e-01                                 
 2.47997343e-09  7.34682934e-01  2.47997343e-09  6.86765518e-01  2.47997343e-09  1.82488757e+00  2.47997343e-09  1.80000000e+00  2.47997343e-09  6.40014347e-03  2.47997343e-09  6.86765518e-01                                 
 2.98041604e-09  7.32753064e-01  2.98041604e-09  6.85047771e-01  2.98041604e-09  1.82870219e+00  2.98041604e-09  1.80000000e+00  2.98041604e-09 -6.13610361e-03  2.98041604e-09  6.85047771e-01                                 
 3.70348975e-09  7.30189185e-01  3.70348975e-09  6.82746660e-01  3.70348975e-09  1.82830785e+00  3.70348975e-09  1.80000000e+00  3.70348975e-09  6.01561424e-03  3.70348975e-09  6.82746660e-01                                 
 4.78520220e-09  7.26762588e-01  4.78520220e-09  6.79639077e-01  4.78520220e-09  1.82490084e+00  4.78520220e-09  1.80000000e+00  4.78520220e-09 -5.89409157e-03  4.78520220e-09  6.79639077e-01                                 
 6.67982506e-09  7.21654368e-01  6.67982506e-09  6.74944068e-01  6.67982506e-09  1.82028552e+00  6.67982506e-09  1.80000000e+00  6.67982506e-09  5.86109308e-03  6.67982506e-09  6.74944068e-01                                 
 1.04690708e-08  7.13681036e-01  1.04690708e-08  6.67485596e-01  1.04690708e-08  1.81257163e+00  1.04690708e-08  1.80000000e+00  1.04690708e-08 -5.81174048e-03  1.04690708e-08  6.67485596e-01                                 
 1.61040529e-08  7.05130841e-01  1.61040529e-08  6.59327591e-01  1.61040529e-08  1.80501751e+00  1.61040529e-08  1.80000000e+00  1.61040529e-08  5.81847116e-03  1.61040529e-08  6.59327591e-01                                 
 1.88998801e-08  7.01835692e-01  1.88998801e-08  6.56141755e-01  1.88998801e-08  1.80183724e+00  1.88998801e-08  1.80000000e+00  1.88998801e-08 -5.75889965e-03  1.88998801e-08  6.56141755e-01                                 
 2.01594515e-08  7.00487940e-01  2.01594515e-08  6.54833420e-01  2.01594515e-08  1.80089604e+00  2.01594515e-08  1.80000000e+00  2.01594515e-08  5.69975598e-03  2.01594515e-08  6.54833420e-01                                 
 2.22242517e-08  6.98426707e-01  2.22242517e-08  6.52827210e-01  2.22242517e-08  1.79885560e+00  2.22242517e-08  1.80000000e+00  2.22242517e-08 -5.62958489e-03  2.22242517e-08  6.52827210e-01                                 
 2.47720952e-08  6.96102552e-01  2.47720952e-08  6.50557683e-01  2.47720952e-08  1.79710236e+00  2.47720952e-08  1.80000000e+00  2.47720952e-08  5.61168490e-03  2.47720952e-08  6.50557683e-01                                 
 2.90515337e-08  6.92635913e-01  2.90515337e-08  6.47158968e-01  2.90515337e-08  1.79392989e+00  2.90515337e-08  1.80000000e+00  2.90515337e-08 -5.56749070e-03  2.90515337e-08  6.47158968e-01                                 
 3.36249490e-08  6.89414725e-01  3.36249490e-08  6.43986925e-01  3.36249490e-08  1.79155107e+00  3.36249490e-08  1.80000000e+00  3.36249490e-08  5.56719311e-03  3.36249490e-08  6.43986925e-01                                 
 4.07819786e-08  6.85100887e-01  4.07819786e-08  6.39720646e-01  4.07819786e-08  1.78777225e+00  4.07819786e-08  1.80000000e+00  4.07819786e-08 -5.53209531e-03  4.07819786e-08  6.39720646e-01                                 
 4.90096103e-08  6.80947711e-01  4.90096103e-08  6.35595513e-01  4.90096103e-08  1.78402994e+00  4.90096103e-08  1.80000000e+00  4.90096103e-08  5.54187166e-03  4.90096103e-08  6.35595513e-01                                 
 6.33740178e-08  6.74945141e-01  6.33740178e-08  6.29630025e-01  6.33740178e-08  1.77029205e+00  6.33740178e-08  1.80000000e+00  6.33740178e-08 -5.51380780e-03  6.33740178e-08  6.29630025e-01                                 
 7.99350209e-08  6.68463372e-01  7.99350209e-08  6.23372765e-01  7.99350209e-08  1.75486481e+00  7.99350209e-08  1.80000000e+00  7.99350209e-08  5.52937326e-03  7.99350209e-08  6.23372765e-01                                 
 9.83518643e-08  6.61851771e-01  9.83518643e-08  6.17112471e-01  9.83518643e-08  1.73983685e+00  9.83518643e-08  1.80000000e+00  9.83518643e-08 -5.50253864e-03  9.83518643e-08  6.17112471e-01                                 
 1.16977780e-07  6.53234426e-01  1.16977780e-07  6.09427973e-01  1.16977780e-07  1.71045980e+00  1.16977780e-07  1.80000000e+00  1.16977780e-07  5.51794341e-03  1.16977780e-07  6.09427973e-01                                 
 1.36728173e-07  6.45511233e-01  1.36728173e-07  6.02544084e-01  1.36728173e-07  1.67589932e+00  1.36728173e-07  1.80000000e+00  1.36728173e-07 -5.49249488e-03  1.36728173e-07  6.02544084e-01                                 
 1.59652352e-07  6.37782000e-01  1.59652352e-07  5.95674809e-01  1.59652352e-07  1.63897223e+00  1.59652352e-07  1.80000000e+00  1.59652352e-07  5.50916172e-03  1.59652352e-07  5.95674809e-01                                 
 1.84411074e-07  6.35843105e-01  1.84411074e-07  5.93441652e-01  1.84411074e-07  1.61623808e+00  1.84411074e-07  1.80000000e+00  1.84411074e-07 -5.48324591e-03  1.84411074e-07  5.93441652e-01                                 
 2.18581127e-07  6.40498319e-01  2.18581127e-07  5.96259370e-01  2.18581127e-07  1.60450185e+00  2.18581127e-07  1.80000000e+00  2.18581127e-07  5.50350757e-03  2.18581127e-07  5.96259370e-01                                 
 2.39171847e-07  6.37298808e-01  2.39171847e-07  5.93246550e-01  2.39171847e-07  1.58092375e+00  2.39171847e-07  1.80000000e+00  2.39171847e-07 -5.47730223e-03  2.39171847e-07  5.93246550e-01                                 
 2.62196798e-07  6.30518555e-01  2.62196798e-07  5.87392762e-01  2.62196798e-07  1.55285606e+00  2.62196798e-07  1.80000000e+00  2.62196798e-07  5.49440003e-03  2.62196798e-07  5.87392762e-01                                 
 2.88883098e-07  6.24872110e-01  2.88883098e-07  5.82423755e-01  2.88883098e-07  1.51957348e+00  2.88883098e-07  1.80000000e+00  2.88883098e-07 -5.46951519e-03  2.88883098e-07  5.82423755e-01                                 
 3.17677651e-07  6.18448369e-01  3.17677651e-07  5.76862936e-01  3.17677651e-07  1.48622197e+00  3.17677651e-07  1.80000000e+00  3.17677651e-07  5.48762852e-03  3.17677651e-07  5.76862936e-01                                 
 3.69371424e-07  6.06070791e-01  3.69371424e-07  5.66353357e-01  3.69371424e-07  1.42159114e+00  3.69371424e-07  1.80000000e+00  3.69371424e-07 -5.46455335e-03  3.69371424e-07  5.66353357e-01                                 
 4.42844745e-07  5.92631554e-01  4.42844745e-07  5.54947997e-01  4.42844745e-07  1.33672435e+00  4.42844745e-07  1.80000000e+00  4.42844745e-07  5.48475234e-03  4.42844745e-07  5.54947997e-01                                 
 5.23685191e-07  5.67936025e-01  5.23685191e-07  5.34790484e-01  5.23685191e-07  1.22996189e+00  5.23685191e-07  1.80000000e+00  5.23685191e-07 -5.46247433e-03  5.23685191e-07  5.34790484e-01                                 
 6.02741337e-07  5.40602085e-01  6.02741337e-07  5.12757870e-01  6.02741337e-07  1.12442415e+00  6.02741337e-07  1.80000000e+00  6.02741337e-07  5.48236699e-03  6.02741337e-07  5.12757870e-01                                 
 7.13661122e-07  5.59353610e-01  7.13661122e-07  5.27640844e-01  7.13661122e-07  1.02239077e+00  7.13661122e-07  1.80000000e+00  7.13661122e-07 -5.45898167e-03  7.13661122e-07  5.27640844e-01                                 
 7.33111465e-07  6.11386715e-01  7.33111465e-07  5.69147763e-01  7.33111465e-07  1.05557601e+00  7.33111465e-07  1.80000000e+00  7.33111465e-07  2.41388863e-06  7.33111465e-07  5.69147763e-01                                 
 7.72012150e-07  7.67555008e-01  7.72012150e-07  7.15058850e-01  7.72012150e-07  1.16979405e+00  7.72012150e-07  1.80000000e+00  7.72012150e-07  1.09128654e-05  7.72012150e-07  7.15058850e-01                                 
 8.16338145e-07  8.26552606e-01  8.16338145e-07  7.73553889e-01  8.16338145e-07  1.18479519e+00  8.16338145e-07  1.80000000e+00  8.16338145e-07 -6.20206953e-06  8.16338145e-07  7.73553889e-01                                 
 8.75638476e-07  8.76907379e-01  8.75638476e-07  8.14165994e-01  8.75638476e-07  1.16760949e+00  8.75638476e-07  1.80000000e+00  8.75638476e-07  8.48281321e-06  8.75638476e-07  8.14165994e-01                                 
 9.13346479e-07  9.24530513e-01  9.13346479e-07  8.44473210e-01  9.13346479e-07  1.17638350e+00  9.13346479e-07  1.80000000e+00  9.13346479e-07 -4.88876950e-06  9.13346479e-07  8.44473210e-01                                 
 9.57379628e-07  9.52901545e-01  9.57379628e-07  8.59813872e-01  9.57379628e-07  1.15271293e+00  9.57379628e-07  1.80000000e+00  9.57379628e-07  5.90950459e-06  9.57379628e-07  8.59813872e-01                                 
 9.63191111e-07  9.50118681e-01  9.63191111e-07  8.58501734e-01  9.63191111e-07  1.14747149e+00  9.63191111e-07  1.80000000e+00  9.63191111e-07 -6.66592578e-07  9.63191111e-07  8.58501734e-01                                 
 9.74814079e-07  9.47222802e-01  9.74814079e-07  8.56973080e-01  9.74814079e-07  1.13421179e+00  9.74814079e-07  1.80000000e+00  9.74814079e-07 -8.00662576e-07  9.74814079e-07  8.56973080e-01                                 
 9.98060014e-07  9.48059371e-01  9.98060014e-07  8.57362468e-01  9.98060014e-07  1.10922395e+00  9.98060014e-07  1.80000000e+00  9.98060014e-07 -3.47789643e-08  9.98060014e-07  8.57362468e-01                                 
 1.02994695e-06  9.47209077e-01  1.02994695e-06  8.56983334e-01  1.02994695e-06  1.07607340e+00  1.02994695e-06  1.80000000e+00  1.02994695e-06 -8.19720718e-07  1.02994695e-06  8.56983334e-01                                 
 1.06719199e-06  9.46843059e-01  1.06719199e-06  8.56738386e-01  1.06719199e-06  1.03586507e+00  1.06719199e-06  1.80000000e+00  1.06719199e-06 -5.85310727e-08  1.06719199e-06  8.56738386e-01                                 
 1.14168207e-06  9.45963435e-01  1.14168207e-06  8.56343046e-01  1.14168207e-06  9.86534332e-01  1.14168207e-06  1.80000000e+00  1.14168207e-06 -3.58349162e-07  1.14168207e-06  8.56343046e-01                                 
 1.22541245e-06  9.44749302e-01  1.22541245e-06  8.55661783e-01  1.22541245e-06  9.45945913e-01  1.22541245e-06  1.80000000e+00  1.22541245e-06  3.94553058e-08  1.22541245e-06  8.55661783e-01                                 
 1.31146329e-06  9.43832294e-01  1.31146329e-06  8.55238842e-01  1.31146329e-06  9.04253154e-01  1.31146329e-06  1.80000000e+00  1.31146329e-06 -3.43627649e-07  1.31146329e-06  8.55238842e-01                                 
 1.40028734e-06  9.42436548e-01  1.40028734e-06  8.54460219e-01  1.40028734e-06  8.84700317e-01  1.40028734e-06  1.80000000e+00  1.40028734e-06  2.92482779e-07  1.40028734e-06  8.54460219e-01                                 
 1.53203713e-06  9.40928298e-01  1.53203713e-06  8.53716908e-01  1.53203713e-06  8.59701619e-01  1.53203713e-06  1.80000000e+00  1.53203713e-06 -3.59217403e-07  1.53203713e-06  8.53716908e-01                                 
 1.73996782e-06  9.37712757e-01  1.73996782e-06  8.51960339e-01  1.73996782e-06  8.54196522e-01  1.73996782e-06  1.80000000e+00  1.73996782e-06  4.22952503e-07  1.73996782e-06  8.51960339e-01                                 
 1.94896619e-06  9.34710683e-01  1.94896619e-06  8.50390488e-01  1.94896619e-06  8.47843748e-01  1.94896619e-06  1.80000000e+00  1.94896619e-06 -3.88615612e-07  1.94896619e-06  8.50390488e-01                                 
 2.22147075e-06  9.29016251e-01  2.22147075e-06  8.47207062e-01  2.22147075e-06  8.48492178e-01  2.22147075e-06  1.80000000e+00  2.22147075e-06  4.49066442e-07  2.22147075e-06  8.47207062e-01                                 
 2.27036875e-06  9.27944077e-01  2.27036875e-06  8.46632243e-01  2.27036875e-06  8.46143820e-01  2.27036875e-06  1.80000000e+00  2.27036875e-06 -3.30783697e-09  2.27036875e-06  8.46632243e-01                                 
 2.36816475e-06  9.25228718e-01  2.36816475e-06  8.45102049e-01  2.36816475e-06  8.44201037e-01  2.36816475e-06  1.80000000e+00  2.36816475e-06  2.11200676e-08  2.36816475e-06  8.45102049e-01                                 
 2.56375676e-06  9.16396859e-01  2.56375676e-06  8.39983363e-01  2.56375676e-06  8.38934035e-01  2.56375676e-06  1.80000000e+00  2.56375676e-06 -5.05823145e-08  2.56375676e-06  8.39983363e-01                                 
 2.60858922e-06  9.12959555e-01  2.60858922e-06  8.37935174e-01  2.60858922e-06  8.36518366e-01  2.60858922e-06  1.80000000e+00  2.60858922e-06 -6.59983159e-08  2.60858922e-06  8.37935174e-01                                 
 2.69825414e-06  9.02831813e-01  2.69825414e-06  8.31705224e-01  2.69825414e-06  8.29539403e-01  2.69825414e-06  1.80000000e+00  2.69825414e-06 -1.77235564e-07  2.69825414e-06  8.31705224e-01                                 
 2.72067037e-06  8.98551702e-01  2.72067037e-06  8.28982866e-01  2.72067037e-06  8.26476573e-01  2.72067037e-06  1.80000000e+00  2.72067037e-06 -2.46187044e-07  2.72067037e-06  8.28982866e-01                                 
 2.76550283e-06  8.86596526e-01  2.76550283e-06  8.21076464e-01  2.76550283e-06  8.17606167e-01  2.76550283e-06  1.80000000e+00  2.76550283e-06 -4.99722632e-07  2.76550283e-06  8.21076464e-01                                 
 2.85516775e-06  8.41970032e-01  2.85516775e-06  7.87023232e-01  2.85516775e-06  7.82410319e-01  2.85516775e-06  1.80000000e+00  2.85516775e-06 -1.09339866e-06  2.85516775e-06  7.87023232e-01                                 
 2.91740038e-06  8.20440225e-01  2.91740038e-06  7.67936730e-01  2.91740038e-06  7.66321094e-01  2.91740038e-06  1.80000000e+00  2.91740038e-06 -4.71981895e-08  2.91740038e-06  7.67936730e-01                                 
 2.98382152e-06  8.28450961e-01  2.98382152e-06  7.75200995e-01  2.98382152e-06  7.75403450e-01  2.98382152e-06  1.80000000e+00  2.98382152e-06  6.07850310e-07  2.98382152e-06  7.75200995e-01                                 
 3.05217668e-06  8.29965039e-01  3.05217668e-06  7.76544821e-01  3.05217668e-06  7.76656819e-01  3.05217668e-06  1.80000000e+00  3.05217668e-06 -4.24558561e-07  3.05217668e-06  7.76544821e-01                                 
 3.13272566e-06  8.24256492e-01  3.13272566e-06  7.71438653e-01  3.13272566e-06  7.71329680e-01  3.13272566e-06  1.80000000e+00  3.13272566e-06  2.64433332e-07  3.13272566e-06  7.71438653e-01                                 
 3.26925070e-06  8.29163250e-01  3.26925070e-06  7.75819723e-01  3.26925070e-06  7.76067991e-01  3.26925070e-06  1.80000000e+00  3.26925070e-06 -2.95763362e-08  3.26925070e-06  7.75819723e-01                                 
 3.40989903e-06  8.26358036e-01  3.40989903e-06  7.73342058e-01  3.40989903e-06  7.73245143e-01  3.40989903e-06  1.80000000e+00  3.40989903e-06  5.76209838e-08  3.40989903e-06  7.73342058e-01                                 
 3.60779363e-06  8.27229690e-01  3.60779363e-06  7.74089087e-01  3.60779363e-06  7.74274018e-01  3.60779363e-06  1.80000000e+00  3.60779363e-06  6.05601772e-08  3.60779363e-06  7.74089087e-01                                 
 3.91402141e-06  8.27697823e-01  3.91402141e-06  7.74544639e-01  3.91402141e-06  7.74511866e-01  3.91402141e-06  1.80000000e+00  3.91402141e-06  4.68917394e-08  3.91402141e-06  7.74544639e-01                                 
 4.51097030e-06  8.26577858e-01  4.51097030e-06  7.73503703e-01  4.51097030e-06  7.73646920e-01  4.51097030e-06  1.80000000e+00  4.51097030e-06  4.80042059e-08  4.51097030e-06  7.73503703e-01                                 
 5.24957105e-06  8.28066028e-01  5.24957105e-06  7.74873635e-01  5.24957105e-06  7.74866412e-01  5.24957105e-06  1.80000000e+00  5.24957105e-06  6.12737164e-08  5.24957105e-06  7.74873635e-01                                 
 6.24957105e-06  8.26329013e-01  6.24957105e-06  7.73280405e-01  6.24957105e-06  7.73403743e-01  6.24957105e-06  1.80000000e+00  6.24957105e-06  3.41320275e-08  6.24957105e-06  7.73280405e-01                                 
