 time            v(vbep)         time            v(vben)         time            v(vout)         time            v(vphi1)        time            v(vphi2)        time            v(vref)         time            v(voutc)        time            v(voutcc)       yes             currtemp       
 0.00000000e+00  7.29739655e-01  0.00000000e+00  6.65228820e-01  0.00000000e+00  1.51712707e+00  0.00000000e+00  0.00000000e+00  0.00000000e+00  1.79999999e+00  0.00000000e+00  6.66384668e-01  0.00000000e+00  1.51712706e+00  0.00000000e+00  1.52435589e+00  1.00000000e+00  5.60000000e+01 
 1.00000000e-11  7.29764766e-01  1.00000000e-11  6.65300926e-01  1.00000000e-11  1.51789736e+00  1.00000000e-11  1.80000000e-02  1.00000000e-11  1.80025334e+00  1.00000000e-11  6.66918808e-01  1.00000000e-11  1.51759889e+00  1.00000000e-11  1.52436963e+00                                 
 2.00000000e-11  7.29771622e-01  2.00000000e-11  6.65345730e-01  2.00000000e-11  1.51836275e+00  2.00000000e-11  3.60000000e-02  2.00000000e-11  1.80035286e+00  2.00000000e-11  6.67314190e-01  2.00000000e-11  1.51795384e+00  2.00000000e-11  1.52437456e+00                                 
 4.00000000e-11  7.29771635e-01  4.00000000e-11  6.65404461e-01  4.00000000e-11  1.51891335e+00  4.00000000e-11  7.20000000e-02  4.00000000e-11  1.80038977e+00  4.00000000e-11  6.67892021e-01  4.00000000e-11  1.51848075e+00  4.00000000e-11  1.52437591e+00                                 
 8.00000000e-11  7.29760014e-01  8.00000000e-11  6.65441668e-01  8.00000000e-11  1.51900241e+00  8.00000000e-11  1.44000000e-01  8.00000000e-11  1.80018458e+00  8.00000000e-11  6.68341268e-01  8.00000000e-11  1.51890435e+00  8.00000000e-11  1.52436536e+00                                 
 1.60000000e-10  7.29757271e-01  1.60000000e-10  6.65451876e-01  1.60000000e-10  1.51866525e+00  1.60000000e-10  2.88000000e-01  1.60000000e-10  1.80000537e+00  1.60000000e-10  6.68429772e-01  1.60000000e-10  1.51894978e+00  1.60000000e-10  1.52435606e+00                                 
 3.20000000e-10  7.29752863e-01  3.20000000e-10  6.65444472e-01  3.20000000e-10  1.51828156e+00  3.20000000e-10  5.76000000e-01  3.20000000e-10  1.79998357e+00  3.20000000e-10  6.68269192e-01  3.20000000e-10  1.51861107e+00  3.20000000e-10  1.52435116e+00                                 
 6.40000000e-10  7.29669489e-01  6.40000000e-10  6.65031424e-01  6.40000000e-10  1.51648600e+00  6.40000000e-10  1.15200000e+00  6.40000000e-10  1.81035107e+00  6.40000000e-10  6.65647793e-01  6.40000000e-10  1.52270601e+00  6.40000000e-10  1.52437749e+00                                 
 1.00000000e-09  7.30264395e-01  1.00000000e-09  6.65380602e-01  1.00000000e-09  1.49466031e+00  1.00000000e-09  1.80000000e+00  1.00000000e-09  1.00268855e-01  1.00000000e-09  6.80042390e-01  1.00000000e-09  1.52643070e+00  1.00000000e-09  1.52436648e+00                                 
 1.03696085e-09  7.30329699e-01  1.03696085e-09  6.65400817e-01  1.03696085e-09  1.49333750e+00  1.03696085e-09  1.80000000e+00  1.03696085e-09  2.32226120e-02  1.03696085e-09  6.83210774e-01  1.03696085e-09  1.52818943e+00  1.03696085e-09  1.52439539e+00                                 
 1.11088255e-09  7.30485290e-01  1.11088255e-09  6.65449377e-01  1.11088255e-09  1.49170409e+00  1.11088255e-09  1.80000000e+00  1.11088255e-09 -1.09518686e-02  1.11088255e-09  6.87264795e-01  1.11088255e-09  1.53134263e+00  1.11088255e-09  1.52441399e+00                                 
 1.25872596e-09  7.30613593e-01  1.25872596e-09  6.65308170e-01  1.25872596e-09  1.48878861e+00  1.25872596e-09  1.80000000e+00  1.25872596e-09  8.80660906e-03  1.25872596e-09  6.87386905e-01  1.25872596e-09  1.53172485e+00  1.25872596e-09  1.52436607e+00                                 
 1.44935534e-09  7.30586230e-01  1.44935534e-09  6.65288843e-01  1.44935534e-09  1.48800581e+00  1.44935534e-09  1.80000000e+00  1.44935534e-09 -6.74303618e-03  1.44935534e-09  6.86546714e-01  1.44935534e-09  1.53079440e+00  1.44935534e-09  1.52440115e+00                                 
 1.66200710e-09  7.30488098e-01  1.66200710e-09  6.65285510e-01  1.66200710e-09  1.48776267e+00  1.66200710e-09  1.80000000e+00  1.66200710e-09  5.64560494e-03  1.66200710e-09  6.85021924e-01  1.66200710e-09  1.52967778e+00  1.66200710e-09  1.52442532e+00                                 
 2.01642482e-09  7.30240720e-01  2.01642482e-09  6.65239775e-01  2.01642482e-09  1.48745817e+00  2.01642482e-09  1.80000000e+00  2.01642482e-09 -5.05069646e-03  2.01642482e-09  6.82456764e-01  2.01642482e-09  1.52732625e+00  2.01642482e-09  1.52453928e+00                                 
 2.50670432e-09  7.29981381e-01  2.50670432e-09  6.65242837e-01  2.50670432e-09  1.48732402e+00  2.50670432e-09  1.80000000e+00  2.50670432e-09  4.56871407e-03  2.50670432e-09  6.79485891e-01  2.50670432e-09  1.52493012e+00  2.50670432e-09  1.52469342e+00                                 
 3.21111759e-09  7.29734287e-01  3.21111759e-09  6.65196793e-01  3.21111759e-09  1.48632517e+00  3.21111759e-09  1.80000000e+00  3.21111759e-09 -4.38981209e-03  3.21111759e-09  6.75451030e-01  3.21111759e-09  1.52134539e+00  3.21111759e-09  1.52491946e+00                                 
 4.28999752e-09  7.29587999e-01  4.28999752e-09  6.65213762e-01  4.28999752e-09  1.48484559e+00  4.28999752e-09  1.80000000e+00  4.28999752e-09  4.17185248e-03  4.28999752e-09  6.71251623e-01  4.28999752e-09  1.51789028e+00  4.28999752e-09  1.52514995e+00                                 
 5.97069542e-09  7.29520851e-01  5.97069542e-09  6.65188710e-01  5.97069542e-09  1.48076829e+00  5.97069542e-09  1.80000000e+00  5.97069542e-09 -4.10586151e-03  5.97069542e-09  6.66953382e-01  5.97069542e-09  1.51410185e+00  5.97069542e-09  1.52525944e+00                                 
 7.46452727e-09  7.29556430e-01  7.46452727e-09  6.65224433e-01  7.46452727e-09  1.47609446e+00  7.46452727e-09  1.80000000e+00  7.46452727e-09  3.98047396e-03  7.46452727e-09  6.65429968e-01  7.46452727e-09  1.51292935e+00  7.46452727e-09  1.52513815e+00                                 
 8.88133963e-09  7.29586378e-01  8.88133963e-09  6.65201858e-01  8.88133963e-09  1.46994959e+00  8.88133963e-09  1.80000000e+00  8.88133963e-09 -3.87913704e-03  8.88133963e-09  6.64427479e-01  8.88133963e-09  1.51195300e+00  8.88133963e-09  1.52492850e+00                                 
 1.03970694e-08  7.29641204e-01  1.03970694e-08  6.65235191e-01  1.03970694e-08  1.46274765e+00  1.03970694e-08  1.80000000e+00  1.03970694e-08  3.77341006e-03  1.03970694e-08  6.64321247e-01  1.03970694e-08  1.51197401e+00  1.03970694e-08  1.52465011e+00                                 
 1.24508449e-08  7.29678932e-01  1.24508449e-08  6.65210599e-01  1.24508449e-08  1.45113317e+00  1.24508449e-08  1.80000000e+00  1.24508449e-08 -3.70343156e-03  1.24508449e-08  6.64025745e-01  1.24508449e-08  1.51159449e+00  1.24508449e-08  1.52426221e+00                                 
 1.49503054e-08  7.29726757e-01  1.49503054e-08  6.65241834e-01  1.49503054e-08  1.43620212e+00  1.49503054e-08  1.80000000e+00  1.49503054e-08  3.64459982e-03  1.49503054e-08  6.64436021e-01  1.49503054e-08  1.51203942e+00  1.49503054e-08  1.52380741e+00                                 
 1.83449876e-08  7.29740000e-01  1.83449876e-08  6.65214639e-01  1.83449876e-08  1.41416670e+00  1.83449876e-08  1.80000000e+00  1.83449876e-08 -3.60181491e-03  1.83449876e-08  6.64538584e-01  1.83449876e-08  1.51199198e+00  1.83449876e-08  1.52326939e+00                                 
 2.28699944e-08  7.29758150e-01  2.28699944e-08  6.65243902e-01  2.28699944e-08  1.38438355e+00  2.28699944e-08  1.80000000e+00  2.28699944e-08  3.57119728e-03  2.28699944e-08  6.65193047e-01  2.28699944e-08  1.51263613e+00  2.28699944e-08  1.52268676e+00                                 
 3.01719186e-08  7.29745438e-01  3.01719186e-08  6.65215301e-01  3.01719186e-08  1.33504295e+00  3.01719186e-08  1.80000000e+00  3.01719186e-08 -3.55115669e-03  3.01719186e-08  6.65442402e-01  3.01719186e-08  1.51271315e+00  3.01719186e-08  1.52201599e+00                                 
 4.29024003e-08  7.29749416e-01  4.29024003e-08  6.65243590e-01  4.29024003e-08  1.24937266e+00  4.29024003e-08  1.80000000e+00  4.29024003e-08  3.54070140e-03  4.29024003e-08  6.66152025e-01  4.29024003e-08  1.51340708e+00  4.29024003e-08  1.52134608e+00                                 
 6.61180191e-08  7.29735248e-01  6.61180191e-08  6.65214541e-01  6.61180191e-08  1.09329904e+00  6.61180191e-08  1.80000000e+00  6.61180191e-08 -3.53396564e-03  6.61180191e-08  6.66210571e-01  6.61180191e-08  1.51333827e+00  6.61180191e-08  1.52089363e+00                                 
 9.88118118e-08  7.29744002e-01  9.88118118e-08  6.65243101e-01  9.88118118e-08  8.78722835e-01  9.88118118e-08  1.80000000e+00  9.88118118e-08  3.53158473e-03  9.88118118e-08  6.66502639e-01  9.88118118e-08  1.51369532e+00  9.88118118e-08  1.52078285e+00                                 
 1.33018434e-07  7.29737327e-01  1.33018434e-07  6.65214534e-01  1.33018434e-07  7.14488921e-01  1.33018434e-07  1.80000000e+00  1.33018434e-07 -3.52022208e-03  1.33018434e-07  6.66263120e-01  1.33018434e-07  1.51338052e+00  1.33018434e-07  1.52077472e+00                                 
 1.61314396e-07  7.29742692e-01  1.61314396e-07  6.65243342e-01  1.61314396e-07  6.69698874e-01  1.61314396e-07  1.80000000e+00  1.61314396e-07  3.52874252e-03  1.61314396e-07  6.66511940e-01  1.61314396e-07  1.51370066e+00  1.61314396e-07  1.52077339e+00                                 
 1.88254437e-07  7.29734231e-01  1.88254437e-07  6.65214092e-01  1.88254437e-07  6.67641810e-01  1.88254437e-07  1.80000000e+00  1.88254437e-07 -3.50848855e-03  1.88254437e-07  6.66262412e-01  1.88254437e-07  1.51337820e+00  1.88254437e-07  1.52077406e+00                                 
 2.11267706e-07  7.29744772e-01  2.11267706e-07  6.65243550e-01  2.11267706e-07  6.67637313e-01  2.11267706e-07  1.80000000e+00  2.11267706e-07  3.51800615e-03  2.11267706e-07  6.66507137e-01  2.11267706e-07  1.51369471e+00  2.11267706e-07  1.52077091e+00                                 
 2.35592692e-07  7.29734514e-01  2.35592692e-07  6.65214076e-01  2.35592692e-07  6.67515693e-01  2.35592692e-07  1.80000000e+00  2.35592692e-07 -3.49718073e-03  2.35592692e-07  6.66262464e-01  2.35592692e-07  1.51337677e+00  2.35592692e-07  1.52077065e+00                                 
 2.84242665e-07  7.29744781e-01  2.84242665e-07  6.65243550e-01  2.84242665e-07  6.67629390e-01  2.84242665e-07  1.80000000e+00  2.84242665e-07  3.50972458e-03  2.84242665e-07  6.66506766e-01  2.84242665e-07  1.51369182e+00  2.84242665e-07  1.52076753e+00                                 
 3.81542609e-07  7.29734536e-01  3.81542609e-07  6.65214082e-01  3.81542609e-07  6.67507425e-01  3.81542609e-07  1.80000000e+00  3.81542609e-07 -3.49305532e-03  3.81542609e-07  6.66262552e-01  3.81542609e-07  1.51337206e+00  3.81542609e-07  1.52076531e+00                                 
 5.76142498e-07  7.29744772e-01  5.76142498e-07  6.65243546e-01  5.76142498e-07  6.67632213e-01  5.76142498e-07  1.80000000e+00  5.76142498e-07  3.50765744e-03  5.76142498e-07  6.66506727e-01  5.76142498e-07  1.51368207e+00  5.76142498e-07  1.52075784e+00                                 
 9.65342275e-07  7.29734541e-01  9.65342275e-07  6.65214085e-01  9.65342275e-07  6.67506015e-01  9.65342275e-07  1.80000000e+00  9.65342275e-07 -3.49202901e-03  9.65342275e-07  6.66262570e-01  9.65342275e-07  1.51335270e+00  9.65342275e-07  1.52074594e+00                                 
 1.74374183e-06  7.29744770e-01  1.74374183e-06  6.65243545e-01  1.74374183e-06  6.67632841e-01  1.74374183e-06  1.80000000e+00  1.74374183e-06  3.50714087e-03  1.74374183e-06  6.66506718e-01  1.74374183e-06  1.51364327e+00  1.74374183e-06  1.52071911e+00                                 
 2.94374183e-06  7.29734542e-01  2.94374183e-06  6.65214086e-01  2.94374183e-06  6.67505647e-01  2.94374183e-06  1.80000000e+00  2.94374183e-06 -3.49175737e-03  2.94374183e-06  6.66262575e-01  2.94374183e-06  1.51328703e+00  2.94374183e-06  1.52068035e+00                                 
 4.14374183e-06  7.29744769e-01  4.14374183e-06  6.65243544e-01  4.14374183e-06  6.67633105e-01  4.14374183e-06  1.80000000e+00  4.14374183e-06  3.50691838e-03  4.14374183e-06  6.66506714e-01  4.14374183e-06  1.51356361e+00  4.14374183e-06  1.52063956e+00                                 
 5.34374183e-06  7.29734543e-01  5.34374183e-06  6.65214086e-01  5.34374183e-06  6.67505363e-01  5.34374183e-06  1.80000000e+00  5.34374183e-06 -3.49154208e-03  5.34374183e-06  6.66262579e-01  5.34374183e-06  1.51320744e+00  5.34374183e-06  1.52060085e+00                                 
 6.00100000e-06  7.29744768e-01  6.00100000e-06  6.65243544e-01  6.00100000e-06  6.67633472e-01  6.00100000e-06  1.80000000e+00  6.00100000e-06  3.50660287e-03  6.00100000e-06  6.66506709e-01  6.00100000e-06  1.51350204e+00  6.00100000e-06  1.52057808e+00                                 
 6.00110000e-06  7.29692656e-01  6.00110000e-06  6.64991108e-01  6.00110000e-06  6.65761703e-01  6.00110000e-06  1.62000000e+00  6.00110000e-06  2.07033470e-04  6.00110000e-06  6.64818381e-01  6.00110000e-06  1.51200995e+00  6.00110000e-06  1.52056725e+00                                 
 6.00130000e-06  7.29724867e-01  6.00130000e-06  6.64989098e-01  6.00130000e-06  6.65884292e-01  6.00130000e-06  1.26000000e+00  6.00130000e-06 -2.41573941e-04  6.00130000e-06  6.64601120e-01  6.00130000e-06  1.51181832e+00  6.00130000e-06  1.52058383e+00                                 
 6.00165694e-06  7.29787839e-01  6.00165694e-06  6.65185786e-01  6.00165694e-06  6.67870269e-01  6.00165694e-06  6.17516411e-01  6.00165694e-06  3.66491829e-03  6.00165694e-06  6.64948257e-01  6.00165694e-06  1.50884572e+00  6.00165694e-06  1.52056021e+00                                 
 6.00200000e-06  7.29726709e-01  6.00200000e-06  6.63728545e-01  6.00200000e-06  7.00340862e-01  6.00200000e-06  0.00000000e+00  6.00200000e-06  1.60090614e+00  6.00200000e-06  6.49533704e-01  6.00200000e-06  1.31624894e+00  6.00200000e-06  1.51998069e+00                                 
 6.00204102e-06  7.29741832e-01  6.00204102e-06  6.63284883e-01  6.00204102e-06  7.06852825e-01  6.00204102e-06  0.00000000e+00  6.00204102e-06  1.72244181e+00  6.00204102e-06  6.44506204e-01  6.00204102e-06  1.25506517e+00  6.00204102e-06  1.51998626e+00                                 
 6.00212307e-06  7.29742521e-01  6.00212307e-06  6.62486627e-01  6.00212307e-06  7.11562767e-01  6.00212307e-06  0.00000000e+00  6.00212307e-06  1.81331706e+00  6.00212307e-06  6.35709150e-01  6.00212307e-06  1.12857583e+00  6.00212307e-06  1.52035408e+00                                 
 6.00228717e-06  7.29738048e-01  6.00228717e-06  6.62360757e-01  6.00228717e-06  7.02489797e-01  6.00228717e-06  0.00000000e+00  6.00228717e-06  1.78950914e+00  6.00228717e-06  6.35162268e-01  6.00228717e-06  9.27606187e-01  6.00228717e-06  1.52083962e+00                                 
 6.00244208e-06  7.29740519e-01  6.00244208e-06  6.62952006e-01  6.00244208e-06  6.95043936e-01  6.00244208e-06  0.00000000e+00  6.00244208e-06  1.80374087e+00  6.00244208e-06  6.41932778e-01  6.00244208e-06  8.08667064e-01  6.00244208e-06  1.52080592e+00                                 
 6.00262901e-06  7.29737150e-01  6.00262901e-06  6.63821965e-01  6.00262901e-06  6.83050068e-01  6.00262901e-06  0.00000000e+00  6.00262901e-06  1.79676605e+00  6.00262901e-06  6.50614868e-01  6.00262901e-06  7.24617010e-01  6.00262901e-06  1.52101954e+00                                 
 6.00285442e-06  7.29740204e-01  6.00285442e-06  6.64845005e-01  6.00285442e-06  6.73392783e-01  6.00285442e-06  0.00000000e+00  6.00285442e-06  1.80189338e+00  6.00285442e-06  6.60374200e-01  6.00285442e-06  6.86792920e-01  6.00285442e-06  1.52080608e+00                                 
 6.00307331e-06  7.29737496e-01  6.00307331e-06  6.65289840e-01  6.00307331e-06  6.70258780e-01  6.00307331e-06  0.00000000e+00  6.00307331e-06  1.79886456e+00  6.00307331e-06  6.63682884e-01  6.00307331e-06  6.74057504e-01  6.00307331e-06  1.52034446e+00                                 
 6.00332548e-06  7.29740336e-01  6.00332548e-06  6.65610739e-01  6.00332548e-06  6.68532855e-01  6.00332548e-06  0.00000000e+00  6.00332548e-06  1.80082781e+00  6.00332548e-06  6.66314758e-01  6.00332548e-06  6.70317320e-01  6.00332548e-06  1.51938286e+00                                 
 6.00365929e-06  7.29738107e-01  6.00365929e-06  6.65687958e-01  6.00365929e-06  6.68902002e-01  6.00365929e-06  0.00000000e+00  6.00365929e-06  1.79942634e+00  6.00365929e-06  6.66767144e-01  6.00365929e-06  6.68580816e-01  6.00365929e-06  1.51793308e+00                                 
 6.00419710e-06  7.29740605e-01  6.00419710e-06  6.65732679e-01  6.00419710e-06  6.69579662e-01  6.00419710e-06  0.00000000e+00  6.00419710e-06  1.80050326e+00  6.00419710e-06  6.67631358e-01  6.00419710e-06  6.69731681e-01  6.00419710e-06  1.51517429e+00                                 
 6.00505590e-06  7.29738529e-01  6.00505590e-06  6.65638294e-01  6.00505590e-06  6.72183639e-01  6.00505590e-06  0.00000000e+00  6.00505590e-06  1.79957813e+00  6.00505590e-06  6.67424018e-01  6.00505590e-06  6.71506802e-01  6.00505590e-06  1.51046182e+00                                 
 6.00662628e-06  7.29740712e-01  6.00662628e-06  6.65554397e-01  6.00662628e-06  6.76236526e-01  6.00662628e-06  0.00000000e+00  6.00662628e-06  1.80041924e+00  6.00662628e-06  6.67860287e-01  6.00662628e-06  6.76264178e-01  6.00662628e-06  1.50120251e+00                                 
 6.00976704e-06  7.29738588e-01  6.00976704e-06  6.65338430e-01  6.00976704e-06  6.85570686e-01  6.00976704e-06  0.00000000e+00  6.00976704e-06  1.79961789e+00  6.00976704e-06  6.67362405e-01  6.00976704e-06  6.84832197e-01  6.00976704e-06  1.48190516e+00                                 
 6.01604855e-06  7.29740702e-01  6.01604855e-06  6.65222404e-01  6.01604855e-06  7.02816269e-01  6.01604855e-06  0.00000000e+00  6.01604855e-06  1.80039885e+00  6.01604855e-06  6.67366051e-01  6.01604855e-06  7.02833777e-01  6.01604855e-06  1.44216944e+00                                 
 6.02861158e-06  7.29738603e-01  6.02861158e-06  6.65200306e-01  6.02861158e-06  7.36789187e-01  6.02861158e-06  0.00000000e+00  6.02861158e-06  1.79962656e+00  6.02861158e-06  6.66557795e-01  6.02861158e-06  7.35930501e-01  6.02861158e-06  1.36686223e+00                                 
 6.04352590e-06  7.29740702e-01  6.04352590e-06  6.65239424e-01  6.04352590e-06  7.73761017e-01  6.04352590e-06  0.00000000e+00  6.04352590e-06  1.80039174e+00  6.04352590e-06  6.66674198e-01  6.04352590e-06  7.73838236e-01  6.04352590e-06  1.28637930e+00                                 
 6.07335453e-06  7.29738609e-01  6.07335453e-06  6.65213837e-01  6.07335453e-06  8.40947687e-01  6.07335453e-06  0.00000000e+00  6.07335453e-06  1.79962794e+00  6.07335453e-06  6.66202626e-01  6.07335453e-06  8.39557865e-01  6.07335453e-06  1.14581289e+00                                 
 6.11964454e-06  7.29740701e-01  6.11964454e-06  6.65243746e-01  6.11964454e-06  9.25999862e-01  6.11964454e-06  0.00000000e+00  6.11964454e-06  1.80038579e+00  6.11964454e-06  6.66549846e-01  6.11964454e-06  9.26488439e-01  6.11964454e-06  9.95905448e-01                                 
 6.21222455e-06  7.29738610e-01  6.21222455e-06  6.65213923e-01  6.21222455e-06  1.04550021e+00  6.21222455e-06  0.00000000e+00  6.21222455e-06  1.79962348e+00  6.21222455e-06  6.66202355e-01  6.21222455e-06  1.04290389e+00  6.21222455e-06  9.90904077e-01                                 
 6.27250106e-06  7.29740700e-01  6.27250106e-06  6.65243778e-01  6.27250106e-06  1.09414219e+00  6.27250106e-06  0.00000000e+00  6.27250106e-06  1.80038085e+00  6.27250106e-06  6.66559020e-01  6.27250106e-06  1.09534105e+00  6.27250106e-06  1.08004989e+00                                 
