 time            v(vbep)         time            v(vben)         time            v(vout)         time            v(vphi1)        time            v(vphi2)        time            v(vref)         yes             currtemp       
 0.00000000e+00  6.72355950e-01  0.00000000e+00  6.16199373e-01  0.00000000e+00  7.87696780e-01  0.00000000e+00  0.00000000e+00  0.00000000e+00  1.79995987e+00  0.00000000e+00  5.00000000e-01  1.00000000e+00  3.40000000e+01 
 5.00000000e-12  6.72329785e-01  5.00000000e-12  6.16177668e-01  5.00000000e-12  7.88384539e-01  5.00000000e-12  1.80000000e-02  5.00000000e-12  1.80005804e+00  5.00000000e-12  5.00000000e-01                                 
 1.00000000e-11  6.72304237e-01  1.00000000e-11  6.16156502e-01  1.00000000e-11  7.88998995e-01  1.00000000e-11  3.60000000e-02  1.00000000e-11  1.80010817e+00  1.00000000e-11  5.00000000e-01                                 
 2.00000000e-11  6.72253508e-01  2.00000000e-11  6.16114322e-01  2.00000000e-11  7.90108444e-01  2.00000000e-11  7.20000000e-02  2.00000000e-11  1.80015404e+00  2.00000000e-11  5.00000000e-01                                 
 4.00000000e-11  6.72152681e-01  4.00000000e-11  6.16030272e-01  4.00000000e-11  7.91799861e-01  4.00000000e-11  1.44000000e-01  4.00000000e-11  1.80012645e+00  4.00000000e-11  5.00000000e-01                                 
 8.00000000e-11  6.71951946e-01  8.00000000e-11  6.15862863e-01  8.00000000e-11  7.93891649e-01  8.00000000e-11  2.88000000e-01  8.00000000e-11  1.80006649e+00  8.00000000e-11  5.00000000e-01                                 
 1.60000000e-10  6.71554419e-01  1.60000000e-10  6.15530807e-01  1.60000000e-10  7.95945053e-01  1.60000000e-10  5.76000000e-01  1.60000000e-10  1.80001950e+00  1.60000000e-10  5.00000000e-01                                 
 3.20000000e-10  6.70774262e-01  3.20000000e-10  6.14877354e-01  3.20000000e-10  7.88313653e-01  3.20000000e-10  1.15200000e+00  3.20000000e-10  1.80032878e+00  3.20000000e-10  5.00000000e-01                                 
 5.00000000e-10  6.69919574e-01  5.00000000e-10  6.14158663e-01  5.00000000e-10  9.66092401e-01  5.00000000e-10  1.80000000e+00  5.00000000e-10  1.15448089e-01  5.00000000e-10  5.00000000e-01                                 
 5.21521974e-10  6.69819136e-01  5.21521974e-10  6.14073998e-01  5.21521974e-10  1.00727731e+00  5.21521974e-10  1.80000000e+00  5.21521974e-10  2.24578414e-02  5.21521974e-10  5.00000000e-01                                 
 5.64565921e-10  6.69618899e-01  5.64565921e-10  6.13905121e-01  5.64565921e-10  1.08411641e+00  5.64565921e-10  1.80000000e+00  5.64565921e-10 -1.05456996e-02  5.64565921e-10  5.00000000e-01                                 
 6.50653816e-10  6.69222290e-01  6.50653816e-10  6.13570167e-01  6.50653816e-10  1.21674485e+00  6.50653816e-10  1.80000000e+00  6.50653816e-10  8.81249327e-03  6.50653816e-10  5.00000000e-01                                 
 7.72980254e-10  6.68667405e-01  7.72980254e-10  6.13100511e-01  7.72980254e-10  1.37752685e+00  7.72980254e-10  1.80000000e+00  7.72980254e-10 -7.68521480e-03  7.72980254e-10  5.00000000e-01                                 
 9.64789945e-10  6.67817031e-01  9.64789945e-10  6.12378453e-01  9.64789945e-10  1.57691435e+00  9.64789945e-10  1.80000000e+00  9.64789945e-10  7.22061626e-03  9.64789945e-10  5.00000000e-01                                 
 1.34840933e-09  6.66183595e-01  1.34840933e-09  6.10983881e-01  1.34840933e-09  1.81945284e+00  1.34840933e-09  1.80000000e+00  1.34840933e-09 -6.82935622e-03  1.34840933e-09  5.00000000e-01                                 
 1.68375606e-09  6.64824468e-01  1.68375606e-09  6.09815816e-01  1.68375606e-09  1.91038550e+00  1.68375606e-09  1.80000000e+00  1.68375606e-09  6.63659373e-03  1.68375606e-09  5.00000000e-01                                 
 1.97829494e-09  6.63679204e-01  1.97829494e-09  6.08826249e-01  1.97829494e-09  1.94331723e+00  1.97829494e-09  1.80000000e+00  1.97829494e-09 -6.23734902e-03  1.97829494e-09  5.00000000e-01                                 
 2.30623031e-09  6.62453186e-01  2.30623031e-09  6.07761679e-01  2.30623031e-09  1.95829037e+00  2.30623031e-09  1.80000000e+00  2.30623031e-09  6.02862711e-03  2.30623031e-09  5.00000000e-01                                 
 2.73222396e-09  6.60931506e-01  2.73222396e-09  6.06433058e-01  2.73222396e-09  1.96416242e+00  2.73222396e-09  1.80000000e+00  2.73222396e-09 -5.77438233e-03  2.73222396e-09  5.00000000e-01                                 
 3.32779000e-09  6.58925219e-01  3.32779000e-09  6.04669305e-01  3.32779000e-09  1.96459450e+00  3.32779000e-09  1.80000000e+00  3.32779000e-09  5.68015840e-03  3.32779000e-09  5.00000000e-01                                 
 4.20325464e-09  6.56199515e-01  4.20325464e-09  6.02252134e-01  4.20325464e-09  1.96217014e+00  4.20325464e-09  1.80000000e+00  4.20325464e-09 -5.54859102e-03  4.20325464e-09  5.00000000e-01                                 
 5.62020194e-09  6.52252144e-01  5.62020194e-09  5.98711501e-01  5.62020194e-09  1.95839971e+00  5.62020194e-09  1.80000000e+00  5.62020194e-09  5.52903031e-03  5.62020194e-09  5.00000000e-01                                 
 8.45409654e-09  6.45619340e-01  8.45409654e-09  5.92668083e-01  8.45409654e-09  1.95133897e+00  8.45409654e-09  1.80000000e+00  8.45409654e-09 -5.45874854e-03  8.45409654e-09  5.00000000e-01                                 
 1.00508521e-08  6.42467327e-01  1.00508521e-08  5.89753934e-01  1.00508521e-08  1.94785525e+00  1.00508521e-08  1.80000000e+00  1.00508521e-08  5.44522634e-03  1.00508521e-08  5.00000000e-01                                 
 1.16001829e-08  6.39696750e-01  1.16001829e-08  5.87174631e-01  1.16001829e-08  1.94479929e+00  1.16001829e-08  1.80000000e+00  1.16001829e-08 -5.36519105e-03  1.16001829e-08  5.00000000e-01                                 
 1.33343284e-08  6.36866909e-01  1.33343284e-08  5.84525224e-01  1.33343284e-08  1.94162647e+00  1.33343284e-08  1.80000000e+00  1.33343284e-08  5.34800696e-03  1.33343284e-08  5.00000000e-01                                 
 1.57467299e-08  6.33308212e-01  1.57467299e-08  5.81175768e-01  1.57467299e-08  1.93742812e+00  1.57467299e-08  1.80000000e+00  1.57467299e-08 -5.29104449e-03  1.57467299e-08  5.00000000e-01                                 
 1.89199277e-08  6.29140934e-01  1.89199277e-08  5.77234979e-01  1.89199277e-08  1.93236473e+00  1.89199277e-08  1.80000000e+00  1.89199277e-08  5.29140226e-03  1.89199277e-08  5.00000000e-01                                 
 2.32289531e-08  6.24125562e-01  2.32289531e-08  5.72482815e-01  2.32289531e-08  1.92565226e+00  2.32289531e-08  1.80000000e+00  2.32289531e-08 -5.24983669e-03  2.32289531e-08  5.00000000e-01                                 
 2.98302548e-08  6.17150662e-01  2.98302548e-08  5.65922660e-01  2.98302548e-08  1.91402185e+00  2.98302548e-08  1.80000000e+00  2.98302548e-08  5.26229907e-03  2.98302548e-08  5.00000000e-01                                 
 4.11688972e-08  6.07138576e-01  4.11688972e-08  5.56533229e-01  4.11688972e-08  1.88615847e+00  4.11688972e-08  1.80000000e+00  4.11688972e-08 -5.23174278e-03  4.11688972e-08  5.00000000e-01                                 
 5.78704801e-08  5.95482928e-01  5.78704801e-08  5.45641511e-01  5.78704801e-08  1.85218347e+00  5.78704801e-08  1.80000000e+00  5.78704801e-08  5.25143619e-03  5.78704801e-08  5.00000000e-01                                 
 7.76876377e-08  5.84394408e-01  7.76876377e-08  5.35366805e-01  7.76876377e-08  1.81109462e+00  7.76876377e-08  1.80000000e+00  7.76876377e-08 -5.22340526e-03  7.76876377e-08  5.00000000e-01                                 
 1.02202264e-07  5.76672698e-01  1.02202264e-07  5.27813642e-01  1.02202264e-07  1.77623993e+00  1.02202264e-07  1.80000000e+00  1.02202264e-07  5.24487730e-03  1.02202264e-07  5.00000000e-01                                 
 1.41690032e-07  5.77533969e-01  1.41690032e-07  5.26671902e-01  1.41690032e-07  1.75786818e+00  1.41690032e-07  1.80000000e+00  1.41690032e-07 -5.21817415e-03  1.41690032e-07  5.00000000e-01                                 
 1.66430515e-07  5.75677680e-01  1.66430515e-07  5.24285469e-01  1.66430515e-07  1.73260115e+00  1.66430515e-07  1.80000000e+00  1.66430515e-07  5.23983784e-03  1.66430515e-07  5.00000000e-01                                 
 1.91052150e-07  5.68293285e-01  1.91052150e-07  5.17653747e-01  1.91052150e-07  1.70035565e+00  1.91052150e-07  1.80000000e+00  1.91052150e-07 -5.21236468e-03  1.91052150e-07  5.00000000e-01                                 
 2.13726087e-07  5.61855463e-01  2.13726087e-07  5.11914707e-01  2.13726087e-07  1.67197869e+00  2.13726087e-07  1.80000000e+00  2.13726087e-07  5.23350760e-03  2.13726087e-07  5.00000000e-01                                 
 2.38721800e-07  5.54785865e-01  2.38721800e-07  5.05688222e-01  2.38721800e-07  1.64151992e+00  2.38721800e-07  1.80000000e+00  2.38721800e-07 -5.20614539e-03  2.38721800e-07  5.00000000e-01                                 
 2.75750339e-07  5.44373364e-01  2.75750339e-07  4.96642213e-01  2.75750339e-07  1.59274082e+00  2.75750339e-07  1.80000000e+00  2.75750339e-07  5.22851250e-03  2.75750339e-07  5.00000000e-01                                 
 3.35873224e-07  5.27680478e-01  3.35873224e-07  4.82394852e-01  3.35873224e-07  1.51748748e+00  3.35873224e-07  1.80000000e+00  3.35873224e-07 -5.20292007e-03  3.35873224e-07  5.00000000e-01                                 
 4.10745053e-07  5.05058419e-01  4.10745053e-07  4.63569357e-01  4.10745053e-07  1.41631912e+00  4.10745053e-07  1.80000000e+00  4.10745053e-07  5.22626633e-03  4.10745053e-07  5.00000000e-01                                 
 5.38389434e-07  4.51779620e-01  5.38389434e-07  4.20438801e-01  5.38389434e-07  1.23317335e+00  5.38389434e-07  1.80000000e+00  5.38389434e-07 -5.20145837e-03  5.38389434e-07  5.00000000e-01                                 
 5.60440383e-07  4.42756288e-01  5.60440383e-07  4.13211479e-01  5.60440383e-07  1.20011395e+00  5.60440383e-07  1.80000000e+00  5.60440383e-07 -2.99279520e-07  5.60440383e-07  5.00000000e-01                                 
 6.04542281e-07  4.59304411e-01  6.04542281e-07  4.26451491e-01  6.04542281e-07  1.16897748e+00  6.04542281e-07  1.80000000e+00  6.04542281e-07  1.95656188e-06  6.04542281e-07  5.00000000e-01                                 
 6.10509617e-07  4.70262700e-01  6.10509617e-07  4.35214103e-01  6.10509617e-07  1.17315920e+00  6.10509617e-07  1.80000000e+00  6.10509617e-07  1.45848123e-06  6.10509617e-07  5.00000000e-01                                 
 6.22444289e-07  5.03038018e-01  6.22444289e-07  4.61395119e-01  6.22444289e-07  1.19187444e+00  6.22444289e-07  1.80000000e+00  6.22444289e-07  2.27709645e-06  6.22444289e-07  5.00000000e-01                                 
 6.46313633e-07  6.58394851e-01  6.46313633e-07  5.93684086e-01  6.46313633e-07  1.31487616e+00  6.46313633e-07  1.80000000e+00  6.46313633e-07  5.51138046e-06  6.46313633e-07  5.00000000e-01                                 
 6.65036577e-07  7.25631357e-01  6.65036577e-07  6.66594489e-01  6.65036577e-07  1.36174350e+00  6.65036577e-07  1.80000000e+00  6.65036577e-07  9.04743362e-07  6.65036577e-07  5.00000000e-01                                 
 6.85256044e-07  7.56637845e-01  6.85256044e-07  6.97602508e-01  6.85256044e-07  1.36837620e+00  6.85256044e-07  1.80000000e+00  6.85256044e-07  2.56150469e-06  6.85256044e-07  5.00000000e-01                                 
 7.12970906e-07  7.81146466e-01  7.12970906e-07  7.19220220e-01  7.12970906e-07  1.36425504e+00  7.12970906e-07  1.80000000e+00  7.12970906e-07  9.51697199e-08  7.12970906e-07  5.00000000e-01                                 
 7.39424180e-07  7.83223548e-01  7.39424180e-07  7.21261983e-01  7.39424180e-07  1.33703136e+00  7.39424180e-07  1.80000000e+00  7.39424180e-07  1.35358866e-06  7.39424180e-07  5.00000000e-01                                 
 7.82723184e-07  7.84215956e-01  7.82723184e-07  7.21883418e-01  7.82723184e-07  1.29377571e+00  7.82723184e-07  1.80000000e+00  7.82723184e-07  3.09103449e-08  7.82723184e-07  5.00000000e-01                                 
 8.28667516e-07  7.84420907e-01  8.28667516e-07  7.22270566e-01  8.28667516e-07  1.24413899e+00  8.28667516e-07  1.80000000e+00  8.28667516e-07  1.30507357e-06  8.28667516e-07  5.00000000e-01                                 
 8.91110664e-07  7.85715114e-01  8.91110664e-07  7.23167887e-01  8.91110664e-07  1.18067051e+00  8.91110664e-07  1.80000000e+00  8.91110664e-07  7.42994236e-08  8.91110664e-07  5.00000000e-01                                 
 9.70925957e-07  7.75919544e-01  9.70925957e-07  7.14956996e-01  9.70925957e-07  1.08540584e+00  9.70925957e-07  1.80000000e+00  9.70925957e-07  1.09304618e-06  9.70925957e-07  5.00000000e-01                                 
 9.81413486e-07  7.72929194e-01  9.81413486e-07  7.12211053e-01  9.81413486e-07  1.07217325e+00  9.81413486e-07  1.80000000e+00  9.81413486e-07  4.87153811e-07  9.81413486e-07  5.00000000e-01                                 
 1.00238854e-06  7.68523970e-01  1.00238854e-06  7.08262173e-01  1.00238854e-06  1.04606193e+00  1.00238854e-06  1.80000000e+00  1.00238854e-06  5.51828042e-07  1.00238854e-06  5.00000000e-01                                 
 1.04433866e-06  7.70654099e-01  1.04433866e-06  7.10160805e-01  1.04433866e-06  1.00563820e+00  1.04433866e-06  1.80000000e+00  1.04433866e-06  8.49490241e-07  1.04433866e-06  5.00000000e-01                                 
 1.11591586e-06  7.78654204e-01  1.11591586e-06  7.17202396e-01  1.11591586e-06  9.49435817e-01  1.11591586e-06  1.80000000e+00  1.11591586e-06  6.55500779e-07  1.11591586e-06  5.00000000e-01                                 
 1.19052230e-06  7.74153207e-01  1.19052230e-06  7.13282026e-01  1.19052230e-06  8.90742312e-01  1.19052230e-06  1.80000000e+00  1.19052230e-06  6.08192299e-07  1.19052230e-06  5.00000000e-01                                 
 1.31257056e-06  7.72554252e-01  1.31257056e-06  7.11843582e-01  1.31257056e-06  8.12728175e-01  1.31257056e-06  1.80000000e+00  1.31257056e-06  7.14458570e-07  1.31257056e-06  5.00000000e-01                                 
 1.43922881e-06  7.77143841e-01  1.43922881e-06  7.15899736e-01  1.43922881e-06  7.45564096e-01  1.43922881e-06  1.80000000e+00  1.43922881e-06  6.79679109e-07  1.43922881e-06  5.00000000e-01                                 
 1.64403189e-06  7.72125894e-01  1.64403189e-06  7.11470900e-01  1.64403189e-06  6.35313660e-01  1.64403189e-06  1.80000000e+00  1.64403189e-06  6.27895491e-07  1.64403189e-06  5.00000000e-01                                 
 1.88365302e-06  7.76133387e-01  1.88365302e-06  7.15011620e-01  1.88365302e-06  5.41074454e-01  1.88365302e-06  1.80000000e+00  1.88365302e-06  7.37705703e-07  1.88365302e-06  5.00000000e-01                                 
 1.92046212e-06  7.75708913e-01  1.92046212e-06  7.14637753e-01  1.92046212e-06  5.30892985e-01  1.92046212e-06  1.80000000e+00  1.92046212e-06  6.65918429e-07  1.92046212e-06  5.00000000e-01                                 
 1.99408033e-06  7.74080411e-01  1.99408033e-06  7.13206433e-01  1.99408033e-06  5.13816886e-01  1.99408033e-06  1.80000000e+00  1.99408033e-06  6.47983458e-07  1.99408033e-06  5.00000000e-01                                 
 2.14131674e-06  7.74363404e-01  2.14131674e-06  7.13452176e-01  2.14131674e-06  4.97836673e-01  2.14131674e-06  1.80000000e+00  2.14131674e-06  6.96727440e-07  2.14131674e-06  5.00000000e-01                                 
 2.33084667e-06  7.75048588e-01  2.33084667e-06  7.14058670e-01  2.33084667e-06  4.90926400e-01  2.33084667e-06  1.80000000e+00  2.33084667e-06  6.50710937e-07  2.33084667e-06  5.00000000e-01                                 
 2.53142505e-06  7.73837684e-01  2.53142505e-06  7.12989669e-01  2.53142505e-06  5.00739869e-01  2.53142505e-06  1.80000000e+00  2.53142505e-06  6.83188459e-07  2.53142505e-06  5.00000000e-01                                 
 2.73287744e-06  7.75207495e-01  2.73287744e-06  7.14196916e-01  2.73287744e-06  5.04254944e-01  2.73287744e-06  1.80000000e+00  2.73287744e-06  6.65474341e-07  2.73287744e-06  5.00000000e-01                                 
 2.95301107e-06  7.73969492e-01  2.95301107e-06  7.13107365e-01  2.95301107e-06  4.95589079e-01  2.95301107e-06  1.80000000e+00  2.95301107e-06  6.68968483e-07  2.95301107e-06  5.00000000e-01                                 
 3.18474407e-06  7.74889368e-01  3.18474407e-06  7.13916189e-01  3.18474407e-06  5.02141081e-01  3.18474407e-06  1.80000000e+00  3.18474407e-06  6.77845687e-07  3.18474407e-06  5.00000000e-01                                 
 3.45826422e-06  7.74355391e-01  3.45826422e-06  7.13448235e-01  3.45826422e-06  4.99691152e-01  3.45826422e-06  1.80000000e+00  3.45826422e-06  6.60247493e-07  3.45826422e-06  5.00000000e-01                                 
 3.94762556e-06  7.74598144e-01  3.94762556e-06  7.13659643e-01  3.94762556e-06  5.00198273e-01  3.94762556e-06  1.80000000e+00  3.94762556e-06  6.81960911e-07  3.94762556e-06  5.00000000e-01                                 
 4.64510456e-06  7.74531804e-01  4.64510456e-06  7.13603685e-01  4.64510456e-06  5.00459362e-01  4.64510456e-06  1.80000000e+00  4.64510456e-06  6.58977803e-07  4.64510456e-06  5.00000000e-01                                 
 5.60331467e-06  7.74478497e-01  5.60331467e-06  7.13554281e-01  5.60331467e-06  4.99797768e-01  5.60331467e-06  1.80000000e+00  5.60331467e-06  6.82308203e-07  5.60331467e-06  5.00000000e-01                                 
 6.60331467e-06  7.74625319e-01  6.60331467e-06  7.13685995e-01  6.60331467e-06  5.00703511e-01  6.60331467e-06  1.80000000e+00  6.60331467e-06  6.59041816e-07  6.60331467e-06  5.00000000e-01                                 
 7.60331467e-06  7.74391884e-01  7.60331467e-06  7.13478030e-01  7.60331467e-06  4.99607937e-01  7.60331467e-06  1.80000000e+00  7.60331467e-06  6.81971031e-07  7.60331467e-06  5.00000000e-01                                 
 8.60331467e-06  7.74705830e-01  8.60331467e-06  7.13756797e-01  8.60331467e-06  5.00836478e-01  8.60331467e-06  1.80000000e+00  8.60331467e-06  6.59632549e-07  8.60331467e-06  5.00000000e-01                                 
 9.60331467e-06  7.74317031e-01  9.60331467e-06  7.13412156e-01  9.60331467e-06  4.99510520e-01  9.60331467e-06  1.80000000e+00  9.60331467e-06  6.81143555e-07  9.60331467e-06  5.00000000e-01                                 
 1.00005000e-05  7.74815081e-01  1.00005000e-05  7.13852745e-01  1.00005000e-05  5.00900782e-01  1.00005000e-05  1.80000000e+00  1.00005000e-05  6.61710186e-07  1.00005000e-05  5.00000000e-01                                 
 1.00005500e-05  7.74814279e-01  1.00005500e-05  7.13852038e-01  1.00005500e-05  4.92970350e-01  1.00005500e-05  1.62000000e+00  1.00005500e-05 -7.77402930e-05  1.00005500e-05  5.00000000e-01                                 
 1.00006500e-05  7.74812702e-01  1.00006500e-05  7.13850638e-01  1.00006500e-05  4.79129457e-01  1.00006500e-05  1.26000000e+00  1.00006500e-05 -5.95165077e-05  1.00006500e-05  5.00000000e-01                                 
 1.00008500e-05  7.74809610e-01  1.00008500e-05  7.13847891e-01  1.00008500e-05  4.77067471e-01  1.00008500e-05  5.40000000e-01  1.00008500e-05 -3.77839103e-03  1.00008500e-05  5.00000000e-01                                 
 1.00010000e-05  7.74807210e-01  1.00010000e-05  7.13845793e-01  1.00010000e-05  4.38098043e-01  1.00010000e-05  0.00000000e+00  1.00010000e-05  1.57237356e+00  1.00010000e-05  5.00000000e-01                                 
 1.00010204e-05  7.74806838e-01  1.00010204e-05  7.13845482e-01  1.00010204e-05  4.14002530e-01  1.00010204e-05  0.00000000e+00  1.00010204e-05  1.71054180e+00  1.00010204e-05  5.00000000e-01                                 
