 time            v(vbep)         time            v(vben)         time            v(vout)         time            v(vphi1)        time            v(vphi2)        time            v(vref)         time            v(voutc)        time            v(voutcc)       yes             currtemp       
 0.00000000e+00  6.77629034e-01  0.00000000e+00  6.05632136e-01  0.00000000e+00  1.39183691e+00  0.00000000e+00  0.00000000e+00  0.00000000e+00  1.79999998e+00  0.00000000e+00  6.04713600e-01  0.00000000e+00  1.39183690e+00  0.00000000e+00  1.40015634e+00  1.00000000e+00  9.00000000e+01 
 1.00000000e-11  6.77654324e-01  1.00000000e-11  6.05704624e-01  1.00000000e-11  1.39256574e+00  1.00000000e-11  1.80000000e-02  1.00000000e-11  1.80024733e+00  1.00000000e-11  6.05229207e-01  1.00000000e-11  1.39228992e+00  1.00000000e-11  1.40016852e+00                                 
 2.00000000e-11  6.77661023e-01  2.00000000e-11  6.05748602e-01  2.00000000e-11  1.39299423e+00  2.00000000e-11  3.60000000e-02  2.00000000e-11  1.80034186e+00  2.00000000e-11  6.05607567e-01  2.00000000e-11  1.39262621e+00  2.00000000e-11  1.40017250e+00                                 
 4.00000000e-11  6.77660751e-01  4.00000000e-11  6.05804992e-01  4.00000000e-11  1.39348414e+00  4.00000000e-11  7.20000000e-02  4.00000000e-11  1.80037185e+00  4.00000000e-11  6.06156146e-01  4.00000000e-11  1.39311891e+00  4.00000000e-11  1.40017283e+00                                 
 8.00000000e-11  6.77648993e-01  8.00000000e-11  6.05837721e-01  8.00000000e-11  1.39352101e+00  8.00000000e-11  1.44000000e-01  8.00000000e-11  1.80016741e+00  8.00000000e-11  6.06574943e-01  8.00000000e-11  1.39349963e+00  8.00000000e-11  1.40016276e+00                                 
 1.60000000e-10  6.77646258e-01  1.60000000e-10  6.05843687e-01  1.60000000e-10  1.39319369e+00  1.60000000e-10  2.88000000e-01  1.60000000e-10  1.80000418e+00  1.60000000e-10  6.06665967e-01  1.60000000e-10  1.39353316e+00  1.60000000e-10  1.40015418e+00                                 
 3.20000000e-10  6.77640880e-01  3.20000000e-10  6.05830779e-01  3.20000000e-10  1.39284262e+00  3.20000000e-10  5.76000000e-01  3.20000000e-10  1.79998348e+00  3.20000000e-10  6.06525657e-01  3.20000000e-10  1.39321561e+00  3.20000000e-10  1.40014902e+00                                 
 6.40000000e-10  6.77560017e-01  6.40000000e-10  6.05335590e-01  6.40000000e-10  1.39115572e+00  6.40000000e-10  1.15200000e+00  6.40000000e-10  1.80683895e+00  6.40000000e-10  6.02934953e-01  6.40000000e-10  1.39509319e+00  6.40000000e-10  1.40016577e+00                                 
 1.00000000e-09  6.78101792e-01  1.00000000e-09  6.05878207e-01  1.00000000e-09  1.37298174e+00  1.00000000e-09  1.80000000e+00  1.00000000e-09  1.17730878e-01  1.00000000e-09  6.18479467e-01  1.00000000e-09  1.40219266e+00  1.00000000e-09  1.40019501e+00                                 
 1.03834741e-09  6.78189705e-01  1.03834741e-09  6.05847663e-01  1.03834741e-09  1.37102322e+00  1.03834741e-09  1.80000000e+00  1.03834741e-09  2.91431750e-02  1.03834741e-09  6.20984507e-01  1.03834741e-09  1.40333501e+00  1.03834741e-09  1.40019941e+00                                 
 1.11504224e-09  6.78379408e-01  1.11504224e-09  6.05833769e-01  1.11504224e-09  1.36875686e+00  1.11504224e-09  1.80000000e+00  1.11504224e-09 -1.29402122e-02  1.11504224e-09  6.23898202e-01  1.11504224e-09  1.40550289e+00  1.11504224e-09  1.40020402e+00                                 
 1.26843189e-09  6.78491094e-01  1.26843189e-09  6.05666755e-01  1.26843189e-09  1.36564601e+00  1.26843189e-09  1.80000000e+00  1.26843189e-09  9.92142483e-03  1.26843189e-09  6.22898650e-01  1.26843189e-09  1.40495186e+00  1.26843189e-09  1.40017036e+00                                 
 1.46406971e-09  6.78427611e-01  1.46406971e-09  6.05662994e-01  1.46406971e-09  1.36456475e+00  1.46406971e-09  1.80000000e+00  1.46406971e-09 -7.59920816e-03  1.46406971e-09  6.21666543e-01  1.46406971e-09  1.40366441e+00  1.46406971e-09  1.40021977e+00                                 
 1.67677311e-09  6.78294233e-01  1.67677311e-09  6.05662134e-01  1.67677311e-09  1.36406914e+00  1.67677311e-09  1.80000000e+00  1.67677311e-09  6.14744814e-03  1.67677311e-09  6.20009159e-01  1.67677311e-09  1.40244615e+00  1.67677311e-09  1.40027117e+00                                 
 2.08204193e-09  6.78004420e-01  2.08204193e-09  6.05631504e-01  2.08204193e-09  1.36284047e+00  2.08204193e-09  1.80000000e+00  2.08204193e-09 -5.50083340e-03  2.08204193e-09  6.17129182e-01  2.08204193e-09  1.39981512e+00  2.08204193e-09  1.40043332e+00                                 
 2.71527642e-09  6.77721703e-01  2.71527642e-09  6.05644277e-01  2.71527642e-09  1.36064858e+00  2.71527642e-09  1.80000000e+00  2.71527642e-09  5.09004312e-03  2.71527642e-09  6.13617797e-01  2.71527642e-09  1.39697081e+00  2.71527642e-09  1.40066660e+00                                 
 3.92920788e-09  6.77472469e-01  3.92920788e-09  6.05604220e-01  3.92920788e-09  1.35444090e+00  3.92920788e-09  1.80000000e+00  3.92920788e-09 -4.92292533e-03  3.92920788e-09  6.08562346e-01  3.92920788e-09  1.39251041e+00  3.92920788e-09  1.40098937e+00                                 
 5.39081956e-09  6.77431290e-01  5.39081956e-09  6.05626239e-01  5.39081956e-09  1.34622042e+00  5.39081956e-09  1.80000000e+00  5.39081956e-09  4.76534517e-03  5.39081956e-09  6.05507798e-01  5.39081956e-09  1.39005594e+00  5.39081956e-09  1.40108655e+00                                 
 6.63905645e-09  6.77436135e-01  6.63905645e-09  6.05599899e-01  6.63905645e-09  1.33791502e+00  6.63905645e-09  1.80000000e+00  6.63905645e-09 -4.59463602e-03  6.63905645e-09  6.03960235e-01  6.63905645e-09  1.38860078e+00  6.63905645e-09  1.40099658e+00                                 
 8.06683081e-09  6.77487863e-01  8.06683081e-09  6.05632639e-01  8.06683081e-09  1.32776003e+00  8.06683081e-09  1.80000000e+00  8.06683081e-09  4.45849861e-03  8.06683081e-09  6.03408172e-01  8.06683081e-09  1.38826389e+00  8.06683081e-09  1.40078210e+00                                 
 9.50963766e-09  6.77518351e-01  9.50963766e-09  6.05608054e-01  9.50963766e-09  1.31603823e+00  9.50963766e-09  1.80000000e+00  9.50963766e-09 -4.31229388e-03  9.50963766e-09  6.02910371e-01  9.50963766e-09  1.38770157e+00  9.50963766e-09  1.40052459e+00                                 
 1.16066316e-08  6.77580288e-01  1.16066316e-08  6.05642025e-01  1.16066316e-08  1.29835867e+00  1.16066316e-08  1.80000000e+00  1.16066316e-08  4.23355465e-03  1.16066316e-08  6.03061714e-01  1.16066316e-08  1.38794501e+00  1.16066316e-08  1.40013244e+00                                 
 1.40110292e-08  6.77604388e-01  1.40110292e-08  6.05615388e-01  1.40110292e-08  1.27651525e+00  1.40110292e-08  1.80000000e+00  1.40110292e-08 -4.14118001e-03  1.40110292e-08  6.02985703e-01  1.40110292e-08  1.38773675e+00  1.40110292e-08  1.39971742e+00                                 
 1.75967807e-08  6.77641523e-01  1.75967807e-08  6.05646947e-01  1.75967807e-08  1.24347508e+00  1.75967807e-08  1.80000000e+00  1.75967807e-08  4.10564310e-03  1.75967807e-08  6.03489728e-01  1.75967807e-08  1.38826806e+00  1.75967807e-08  1.39918902e+00                                 
 2.22680258e-08  6.77636829e-01  2.22680258e-08  6.05617832e-01  2.22680258e-08  1.19926162e+00  2.22680258e-08  1.80000000e+00  2.22680258e-08 -4.05024161e-03  2.22680258e-08  6.03599945e-01  2.22680258e-08  1.38821767e+00  2.22680258e-08  1.39866695e+00                                 
 3.05326846e-08  6.77645688e-01  3.05326846e-08  6.05647866e-01  3.05326846e-08  1.12168782e+00  3.05326846e-08  1.80000000e+00  3.05326846e-08  4.04523881e-03  3.05326846e-08  6.04231582e-01  3.05326846e-08  1.38885731e+00  3.05326846e-08  1.39806936e+00                                 
 4.14353515e-08  6.77626978e-01  4.14353515e-08  6.05617455e-01  4.14353515e-08  1.01994730e+00  4.14353515e-08  1.80000000e+00  4.14353515e-08 -4.01161036e-03  4.14353515e-08  6.04305562e-01  4.14353515e-08  1.38878813e+00  4.14353515e-08  1.39768488e+00                                 
 6.28647623e-08  6.77634534e-01  6.28647623e-08  6.05647187e-01  6.28647623e-08  8.25886095e-01  6.28647623e-08  1.80000000e+00  6.28647623e-08  4.02216227e-03  6.28647623e-08  6.04759045e-01  6.28647623e-08  1.38929251e+00  6.28647623e-08  1.39746098e+00                                 
 8.40587101e-08  6.77628662e-01  8.40587101e-08  6.05617347e-01  8.40587101e-08  6.70078434e-01  8.40587101e-08  1.80000000e+00  8.40587101e-08 -3.98818942e-03  8.40587101e-08  6.04586741e-01  8.40587101e-08  1.38902542e+00  8.40587101e-08  1.39747321e+00                                 
 1.03252059e-07  6.77632124e-01  1.03252059e-07  6.05647533e-01  1.03252059e-07  6.15620391e-01  1.03252059e-07  1.80000000e+00  1.03252059e-07  4.01441424e-03  1.03252059e-07  6.04836584e-01  1.03252059e-07  1.38935977e+00  1.03252059e-07  1.39749739e+00                                 
 1.21611520e-07  6.77621731e-01  1.21611520e-07  6.05616406e-01  1.21611520e-07  6.07334563e-01  1.21611520e-07  1.80000000e+00  1.21611520e-07 -3.96624030e-03  1.21611520e-07  6.04598537e-01  1.21611520e-07  1.38903593e+00  1.21611520e-07  1.39751232e+00                                 
 1.37931114e-07  6.77634555e-01  1.37931114e-07  6.05647774e-01  1.37931114e-07  6.04409453e-01  1.37931114e-07  1.80000000e+00  1.37931114e-07  3.99488497e-03  1.37931114e-07  6.04830884e-01  1.37931114e-07  1.38935401e+00  1.37931114e-07  1.39751435e+00                                 
 1.55519636e-07  6.77623338e-01  1.55519636e-07  6.05616480e-01  1.55519636e-07  6.04401116e-01  1.55519636e-07  1.80000000e+00  1.55519636e-07 -3.94575868e-03  1.55519636e-07  6.04597799e-01  1.55519636e-07  1.38903459e+00  1.55519636e-07  1.39751668e+00                                 
 1.90696681e-07  6.77634475e-01  1.90696681e-07  6.05647754e-01  1.90696681e-07  6.03580625e-01  1.90696681e-07  1.80000000e+00  1.90696681e-07  3.98018260e-03  1.90696681e-07  6.04829643e-01  1.90696681e-07  1.38935107e+00  1.90696681e-07  1.39751500e+00                                 
 2.44809705e-07  6.77623683e-01  2.44809705e-07  6.05616519e-01  2.44809705e-07  6.04081071e-01  2.44809705e-07  1.80000000e+00  2.44809705e-07 -3.93771339e-03  2.44809705e-07  6.04597527e-01  2.44809705e-07  1.38903160e+00  2.44809705e-07  1.39751430e+00                                 
 3.33150056e-07  6.77634337e-01  3.33150056e-07  6.05647736e-01  3.33150056e-07  6.03612010e-01  3.33150056e-07  1.80000000e+00  3.33150056e-07  3.97504685e-03  3.33150056e-07  6.04829640e-01  3.33150056e-07  1.38934640e+00  3.33150056e-07  1.39751037e+00                                 
 4.89213871e-07  6.77623756e-01  4.89213871e-07  6.05616529e-01  4.89213871e-07  6.04055854e-01  4.89213871e-07  1.80000000e+00  4.89213871e-07 -3.93468438e-03  4.89213871e-07  6.04597520e-01  4.89213871e-07  1.38902376e+00  4.89213871e-07  1.39750642e+00                                 
 7.39703013e-07  6.77634296e-01  7.39703013e-07  6.05647730e-01  7.39703013e-07  6.03619325e-01  7.39703013e-07  1.80000000e+00  7.39703013e-07  3.97325705e-03  7.39703013e-07  6.04829646e-01  7.39703013e-07  1.38933327e+00  7.39703013e-07  1.39749729e+00                                 
 1.24068130e-06  6.77623778e-01  1.24068130e-06  6.05616532e-01  1.24068130e-06  6.04048359e-01  1.24068130e-06  1.80000000e+00  1.24068130e-06 -3.93366203e-03  1.24068130e-06  6.04597516e-01  1.24068130e-06  1.38899957e+00  1.24068130e-06  1.39748224e+00                                 
 2.24263786e-06  6.77634285e-01  2.24263786e-06  6.05647729e-01  2.24263786e-06  6.03621128e-01  2.24263786e-06  1.80000000e+00  2.24263786e-06  3.97274199e-03  2.24263786e-06  6.04829649e-01  2.24263786e-06  1.38928486e+00  2.24263786e-06  1.39744894e+00                                 
 3.44263786e-06  6.77623785e-01  3.44263786e-06  6.05616533e-01  3.44263786e-06  6.04046185e-01  3.44263786e-06  1.80000000e+00  3.44263786e-06 -3.93334945e-03  3.44263786e-06  6.04597514e-01  3.44263786e-06  1.38892862e+00  3.44263786e-06  1.39741137e+00                                 
 4.64263786e-06  6.77634279e-01  4.64263786e-06  6.05647728e-01  4.64263786e-06  6.03622446e-01  4.64263786e-06  1.80000000e+00  4.64263786e-06  3.97245533e-03  4.64263786e-06  6.04829650e-01  4.64263786e-06  1.38920754e+00  4.64263786e-06  1.39737171e+00                                 
 5.84263786e-06  6.77623791e-01  5.84263786e-06  6.05616534e-01  5.84263786e-06  6.04043294e-01  5.84263786e-06  1.80000000e+00  5.84263786e-06 -3.93306075e-03  5.84263786e-06  6.04597513e-01  5.84263786e-06  1.38885139e+00  5.84263786e-06  1.39733423e+00                                 
 6.00100000e-06  6.77634254e-01  6.00100000e-06  6.05647724e-01  6.00100000e-06  6.03627281e-01  6.00100000e-06  1.80000000e+00  6.00100000e-06  3.97122616e-03  6.00100000e-06  6.04829658e-01  6.00100000e-06  1.38916384e+00  6.00100000e-06  1.39732808e+00                                 
 6.00110000e-06  6.77578236e-01  6.00110000e-06  6.05395290e-01  6.00110000e-06  6.01874160e-01  6.00110000e-06  1.62000000e+00  6.00110000e-06  2.93498625e-04  6.00110000e-06  6.03206912e-01  6.00110000e-06  1.38772340e+00  6.00110000e-06  1.39731812e+00                                 
 6.00130000e-06  6.77613084e-01  6.00130000e-06  6.05386129e-01  6.00130000e-06  6.01866761e-01  6.00130000e-06  1.26000000e+00  6.00130000e-06 -3.02422585e-04  6.00130000e-06  6.02848728e-01  6.00130000e-06  1.38741039e+00  6.00130000e-06  1.39733306e+00                                 
 6.00164817e-06  6.77683880e-01  6.00164817e-06  6.05576742e-01  6.00164817e-06  6.03914825e-01  6.00164817e-06  6.33294377e-01  6.00164817e-06  3.12814796e-02  6.00164817e-06  6.02929801e-01  6.00164817e-06  1.38395532e+00  6.00164817e-06  1.39730778e+00                                 
 6.00200000e-06  6.77610316e-01  6.00200000e-06  6.04334798e-01  6.00200000e-06  6.36889414e-01  6.00200000e-06  0.00000000e+00  6.00200000e-06  1.61623954e+00  6.00200000e-06  5.90022552e-01  6.00200000e-06  1.17315631e+00  6.00200000e-06  1.39672895e+00                                 
 6.00204648e-06  6.77627791e-01  6.00204648e-06  6.03664764e-01  6.00204648e-06  6.44825782e-01  6.00204648e-06  0.00000000e+00  6.00204648e-06  1.73367178e+00  6.00204648e-06  5.82424469e-01  6.00204648e-06  1.09702522e+00  6.00204648e-06  1.39673126e+00                                 
 6.00213945e-06  6.77632022e-01  6.00213945e-06  6.02693675e-01  6.00213945e-06  6.49917992e-01  6.00213945e-06  0.00000000e+00  6.00213945e-06  1.81467701e+00  6.00213945e-06  5.71475687e-01  6.00213945e-06  9.46495923e-01  6.00213945e-06  1.39717283e+00                                 
 6.00232539e-06  6.77627426e-01  6.00232539e-06  6.03091110e-01  6.00232539e-06  6.34660444e-01  6.00232539e-06  0.00000000e+00  6.00232539e-06  1.78782578e+00  6.00232539e-06  5.76158652e-01  6.00232539e-06  7.39444170e-01  6.00232539e-06  1.39768908e+00                                 
 6.00251141e-06  6.77629972e-01  6.00251141e-06  6.04332092e-01  6.00251141e-06  6.19246654e-01  6.00251141e-06  0.00000000e+00  6.00251141e-06  1.80596291e+00  6.00251141e-06  5.89444682e-01  6.00251141e-06  6.53732815e-01  6.00251141e-06  1.39772880e+00                                 
 6.00265915e-06  6.77627273e-01  6.00265915e-06  6.05002269e-01  6.00265915e-06  6.11660913e-01  6.00265915e-06  0.00000000e+00  6.00265915e-06  1.79687631e+00  6.00265915e-06  5.95770591e-01  6.00265915e-06  6.26217621e-01  6.00265915e-06  1.39759795e+00                                 
 6.00286139e-06  6.77629652e-01  6.00286139e-06  6.05643306e-01  6.00286139e-06  6.07083745e-01  6.00286139e-06  0.00000000e+00  6.00286139e-06  1.80202941e+00  6.00286139e-06  6.01774704e-01  6.00286139e-06  6.12377911e-01  6.00286139e-06  1.39670016e+00                                 
 6.00306555e-06  6.77627705e-01  6.00306555e-06  6.05874969e-01  6.00306555e-06  6.05407493e-01  6.00306555e-06  0.00000000e+00  6.00306555e-06  1.79881736e+00  6.00306555e-06  6.03555264e-01  6.00306555e-06  6.06972200e-01  6.00306555e-06  1.39560355e+00                                 
 6.00338797e-06  6.77629728e-01  6.00338797e-06  6.06065123e-01  6.00338797e-06  6.05106507e-01  6.00338797e-06  0.00000000e+00  6.00338797e-06  1.80093793e+00  6.00338797e-06  6.05376974e-01  6.00338797e-06  6.05483802e-01  6.00338797e-06  1.39340608e+00                                 
 6.00380831e-06  6.77628107e-01  6.00380831e-06  6.06053237e-01  6.00380831e-06  6.05949136e-01  6.00380831e-06  0.00000000e+00  6.00380831e-06  1.79928109e+00  6.00380831e-06  6.05442715e-01  6.00380831e-06  6.05580554e-01  6.00380831e-06  1.39036899e+00                                 
 6.00456069e-06  6.77629852e-01  6.00456069e-06  6.06035607e-01  6.00456069e-06  6.08069804e-01  6.00456069e-06  0.00000000e+00  6.00456069e-06  1.80066236e+00  6.00456069e-06  6.05971696e-01  6.00456069e-06  6.07966421e-01  6.00456069e-06  1.38444513e+00                                 
 6.00574608e-06  6.77628244e-01  6.00574608e-06  6.05927180e-01  6.00574608e-06  6.11681263e-01  6.00574608e-06  0.00000000e+00  6.00574608e-06  1.79941683e+00  6.00574608e-06  6.05714612e-01  6.00574608e-06  6.11230343e-01  6.00574608e-06  1.37466071e+00                                 
 6.00811685e-06  6.77629811e-01  6.00811685e-06  6.05805520e-01  6.00811685e-06  6.18951556e-01  6.00811685e-06  0.00000000e+00  6.00811685e-06  1.80058941e+00  6.00811685e-06  6.05940213e-01  6.00811685e-06  6.18802734e-01  6.00811685e-06  1.35397951e+00                                 
 6.01285840e-06  6.77628239e-01  6.01285840e-06  6.05628390e-01  6.01285840e-06  6.33266115e-01  6.01285840e-06  0.00000000e+00  6.01285840e-06  1.79944704e+00  6.01285840e-06  6.05401927e-01  6.01285840e-06  6.32767075e-01  6.01285840e-06  1.31149625e+00                                 
 6.02045315e-06  6.77629810e-01  6.02045315e-06  6.05625737e-01  6.02045315e-06  6.55513155e-01  6.02045315e-06  0.00000000e+00  6.02045315e-06  1.80057075e+00  6.02045315e-06  6.05383939e-01  6.02045315e-06  6.55324844e-01  6.02045315e-06  1.24218929e+00                                 
 6.03564266e-06  6.77628250e-01  6.03564266e-06  6.05615400e-01  6.03564266e-06  6.97846311e-01  6.03564266e-06  0.00000000e+00  6.03564266e-06  1.79945618e+00  6.03564266e-06  6.04744793e-01  6.03564266e-06  6.97251643e-01  6.03564266e-06  1.10289040e+00                                 
 6.04965138e-06  6.77629813e-01  6.04965138e-06  6.05641250e-01  6.04965138e-06  7.34331795e-01  6.04965138e-06  0.00000000e+00  6.04965138e-06  1.80056222e+00  6.04965138e-06  6.04923986e-01  6.04965138e-06  7.34120875e-01  6.04965138e-06  9.85323218e-01                                 
 6.06900643e-06  6.77628255e-01  6.06900643e-06  6.05619939e-01  6.06900643e-06  7.81044006e-01  6.06900643e-06  0.00000000e+00  6.06900643e-06  1.79946056e+00  6.06900643e-06  6.04574010e-01  6.06900643e-06  7.80262847e-01  6.06900643e-06  8.64339077e-01                                 
 6.09812688e-06  6.77629812e-01  6.09812688e-06  6.05643933e-01  6.09812688e-06  8.43689176e-01  6.09812688e-06  0.00000000e+00  6.09812688e-06  1.80055538e+00  6.09812688e-06  6.04852133e-01  6.09812688e-06  8.43555402e-01  6.09812688e-06  8.19869954e-01                                 
 6.11567669e-06  6.77628257e-01  6.11567669e-06  6.05620138e-01  6.11567669e-06  8.77322610e-01  6.11567669e-06  0.00000000e+00  6.11567669e-06  1.79946261e+00  6.11567669e-06  6.04555953e-01  6.11567669e-06  8.76323167e-01  6.11567669e-06  8.52098729e-01                                 
 6.12774953e-06  6.77629809e-01  6.12774953e-06  6.05644444e-01  6.12774953e-06  8.98750534e-01  6.12774953e-06  0.00000000e+00  6.12774953e-06  1.80054731e+00  6.12774953e-06  6.04855418e-01  6.12774953e-06  8.98611527e-01  6.12774953e-06  8.74019536e-01                                 
