 time            v(vbep)         time            v(vben)         time            v(vout)         time            v(vphi1)        time            v(vphi2)        time            v(vref)         yes             currtemp       
 0.00000000e+00  7.74225755e-01  0.00000000e+00  7.26832120e-01  0.00000000e+00  1.03568385e+00  0.00000000e+00  0.00000000e+00  0.00000000e+00  1.79992869e+00  0.00000000e+00  5.00000000e-01  1.00000000e+00 -1.40000000e+01 
 5.00000000e-12  7.74185314e-01  5.00000000e-12  7.26799037e-01  5.00000000e-12  1.03640353e+00  5.00000000e-12  1.80000000e-02  5.00000000e-12  1.80003494e+00  5.00000000e-12  5.00000000e-01                                 
 1.00000000e-11  7.74146791e-01  1.00000000e-11  7.26767126e-01  1.00000000e-11  1.03705288e+00  1.00000000e-11  3.60000000e-02  1.00000000e-11  1.80009070e+00  1.00000000e-11  5.00000000e-01                                 
 2.00000000e-11  7.74071099e-01  2.00000000e-11  7.26703659e-01  2.00000000e-11  1.03824412e+00  2.00000000e-11  7.20000000e-02  2.00000000e-11  1.80014274e+00  2.00000000e-11  5.00000000e-01                                 
 4.00000000e-11  7.73922085e-01  4.00000000e-11  7.26577450e-01  4.00000000e-11  1.04014787e+00  4.00000000e-11  1.44000000e-01  4.00000000e-11  1.80011173e+00  4.00000000e-11  5.00000000e-01                                 
 8.00000000e-11  7.73626150e-01  8.00000000e-11  7.26326730e-01  8.00000000e-11  1.04278441e+00  8.00000000e-11  2.88000000e-01  8.00000000e-11  1.80003965e+00  8.00000000e-11  5.00000000e-01                                 
 1.60000000e-10  7.73043619e-01  1.60000000e-10  7.25832074e-01  1.60000000e-10  1.04599119e+00  1.60000000e-10  5.76000000e-01  1.60000000e-10  1.79999677e+00  1.60000000e-10  5.00000000e-01                                 
 3.20000000e-10  7.71912997e-01  3.20000000e-10  7.24868630e-01  3.20000000e-10  1.03954173e+00  3.20000000e-10  1.15200000e+00  3.20000000e-10  1.80028204e+00  3.20000000e-10  5.00000000e-01                                 
 5.00000000e-10  7.70693466e-01  5.00000000e-10  7.23824015e-01  5.00000000e-10  1.19342671e+00  5.00000000e-10  1.80000000e+00  5.00000000e-10  9.45089460e-02  5.00000000e-10  5.00000000e-01                                 
 5.20638495e-10  7.70557400e-01  5.20638495e-10  7.23707099e-01  5.20638495e-10  1.22752917e+00  5.20638495e-10  1.80000000e+00  5.20638495e-10  1.66567755e-02  5.20638495e-10  5.00000000e-01                                 
 5.61915484e-10  7.70286545e-01  5.61915484e-10  7.23474196e-01  5.61915484e-10  1.28858834e+00  5.61915484e-10  1.80000000e+00  5.61915484e-10 -7.74356019e-03  5.61915484e-10  5.00000000e-01                                 
 6.44469464e-10  7.69752614e-01  6.44469464e-10  7.23014308e-01  6.44469464e-10  1.38547517e+00  6.44469464e-10  1.80000000e+00  6.44469464e-10  6.88668399e-03  6.44469464e-10  5.00000000e-01                                 
 7.68044433e-10  7.68972163e-01  7.68044433e-10  7.22340221e-01  7.68044433e-10  1.49913347e+00  7.68044433e-10  1.80000000e+00  7.68044433e-10 -6.02989702e-03  7.68044433e-10  5.00000000e-01                                 
 9.55371872e-10  7.67829672e-01  9.55371872e-10  7.21349493e-01  9.55371872e-10  1.62540007e+00  9.55371872e-10  1.80000000e+00  9.55371872e-10  5.78708503e-03  9.55371872e-10  5.00000000e-01                                 
 1.33002675e-09  7.65677426e-01  1.33002675e-09  7.19470800e-01  1.33002675e-09  1.77053299e+00  1.33002675e-09  1.80000000e+00  1.33002675e-09 -5.50477221e-03  1.33002675e-09  5.00000000e-01                                 
 1.62541169e-09  7.64095091e-01  1.62541169e-09  7.18078949e-01  1.62541169e-09  1.81901652e+00  1.62541169e-09  1.80000000e+00  1.62541169e-09  5.35384280e-03  1.62541169e-09  5.00000000e-01                                 
 1.98135946e-09  7.62305162e-01  1.98135946e-09  7.16494103e-01  1.98135946e-09  1.84336245e+00  1.98135946e-09  1.80000000e+00  1.98135946e-09 -5.10057610e-03  1.98135946e-09  5.00000000e-01                                 
 2.31329428e-09  7.60739121e-01  2.31329428e-09  7.15098550e-01  2.31329428e-09  1.85113920e+00  2.31329428e-09  1.80000000e+00  2.31329428e-09  4.99699070e-03  2.31329428e-09  5.00000000e-01                                 
 2.63491082e-09  7.59306419e-01  2.63491082e-09  7.13814682e-01  2.63491082e-09  1.85346303e+00  2.63491082e-09  1.80000000e+00  2.63491082e-09 -4.75864193e-03  2.63491082e-09  5.00000000e-01                                 
 3.04409988e-09  7.57590468e-01  3.04409988e-09  7.12268369e-01  3.04409988e-09  1.85381527e+00  3.04409988e-09  1.80000000e+00  3.04409988e-09  4.65515319e-03  3.04409988e-09  5.00000000e-01                                 
 3.48791974e-09  7.55849982e-01  3.48791974e-09  7.10690515e-01  3.48791974e-09  1.85306975e+00  3.48791974e-09  1.80000000e+00  3.48791974e-09 -4.50944041e-03  3.48791974e-09  5.00000000e-01                                 
 4.24170438e-09  7.53137948e-01  4.24170438e-09  7.08214174e-01  4.24170438e-09  1.85139907e+00  4.24170438e-09  1.80000000e+00  4.24170438e-09  4.45467764e-03  4.24170438e-09  5.00000000e-01                                 
 5.27404507e-09  7.49837557e-01  5.27404507e-09  7.05172487e-01  5.27404507e-09  1.84920504e+00  5.27404507e-09  1.80000000e+00  5.27404507e-09 -4.38888830e-03  5.27404507e-09  5.00000000e-01                                 
 7.20836441e-09  7.44606657e-01  7.20836441e-09  7.00295039e-01  7.20836441e-09  1.84588538e+00  7.20836441e-09  1.80000000e+00  7.20836441e-09  4.37657227e-03  7.20836441e-09  5.00000000e-01                                 
 1.07925194e-08  7.37087522e-01  1.07925194e-08  6.93175311e-01  1.07925194e-08  1.84140631e+00  1.07925194e-08  1.80000000e+00  1.07925194e-08 -4.34692952e-03  1.07925194e-08  5.00000000e-01                                 
 1.79608294e-08  7.26641561e-01  1.79608294e-08  6.83104093e-01  1.79608294e-08  1.83623136e+00  1.79608294e-08  1.80000000e+00  1.79608294e-08  4.35545039e-03  1.79608294e-08  5.00000000e-01                                 
 3.22974494e-08  7.13855104e-01  3.22974494e-08  6.70534960e-01  3.22974494e-08  1.83317138e+00  3.22974494e-08  1.80000000e+00  3.22974494e-08 -4.33573337e-03  3.22974494e-08  5.00000000e-01                                 
 5.16740709e-08  7.03617474e-01  5.16740709e-08  6.60313651e-01  5.16740709e-08  1.83397883e+00  5.16740709e-08  1.80000000e+00  5.16740709e-08  4.34956833e-03  5.16740709e-08  5.00000000e-01                                 
 7.14689714e-08  6.96507966e-01  7.14689714e-08  6.53178406e-01  7.14689714e-08  1.83627475e+00  7.14689714e-08  1.80000000e+00  7.14689714e-08 -4.33037391e-03  7.14689714e-08  5.00000000e-01                                 
 9.85064281e-08  6.89400548e-01  9.85064281e-08  6.46016091e-01  9.85064281e-08  1.80569880e+00  9.85064281e-08  1.80000000e+00  9.85064281e-08  4.34517025e-03  9.85064281e-08  5.00000000e-01                                 
 1.23095244e-07  6.82836310e-01  1.23095244e-07  6.39738006e-01  1.23095244e-07  1.73838137e+00  1.23095244e-07  1.80000000e+00  1.23095244e-07 -4.32643519e-03  1.23095244e-07  5.00000000e-01                                 
 1.46813073e-07  6.75004069e-01  1.46813073e-07  6.32673353e-01  1.46813073e-07  1.68435055e+00  1.46813073e-07  1.80000000e+00  1.46813073e-07  4.34091410e-03  1.46813073e-07  5.00000000e-01                                 
 1.68921868e-07  6.67391049e-01  1.68921868e-07  6.25962060e-01  1.68921868e-07  1.56764823e+00  1.68921868e-07  1.80000000e+00  1.68921868e-07 -4.32207998e-03  1.68921868e-07  5.00000000e-01                                 
 1.89724408e-07  6.60439416e-01  1.89724408e-07  6.19904843e-01  1.89724408e-07  1.43283813e+00  1.89724408e-07  1.80000000e+00  1.89724408e-07  4.33624160e-03  1.89724408e-07  5.00000000e-01                                 
 2.11110725e-07  6.54732679e-01  2.11110725e-07  6.14892700e-01  2.11110725e-07  1.31409824e+00  2.11110725e-07  1.80000000e+00  2.11110725e-07 -4.31729663e-03  2.11110725e-07  5.00000000e-01                                 
 2.35303212e-07  6.60953107e-01  2.35303212e-07  6.19309334e-01  2.35303212e-07  1.22197554e+00  2.35303212e-07  1.80000000e+00  2.35303212e-07  4.33221710e-03  2.35303212e-07  5.00000000e-01                                 
 2.53261757e-07  6.63958607e-01  2.53261757e-07  6.21319225e-01  2.53261757e-07  1.12426327e+00  2.53261757e-07  1.80000000e+00  2.53261757e-07 -4.31254990e-03  2.53261757e-07  5.00000000e-01                                 
 2.73155634e-07  6.58180410e-01  2.73155634e-07  6.16351868e-01  2.73155634e-07  9.98145868e-01  2.73155634e-07  1.80000000e+00  2.73155634e-07  4.32654928e-03  2.73155634e-07  5.00000000e-01                                 
 2.92199860e-07  6.54281427e-01  2.92199860e-07  6.12921808e-01  2.92199860e-07  8.96470363e-01  2.92199860e-07  1.80000000e+00  2.92199860e-07 -4.30738101e-03  2.92199860e-07  5.00000000e-01                                 
 3.10019972e-07  6.51024688e-01  3.10019972e-07  6.10046270e-01  3.10019972e-07  8.19082008e-01  3.10019972e-07  1.80000000e+00  3.10019972e-07  4.32113115e-03  3.10019972e-07  5.00000000e-01                                 
 3.39567181e-07  6.44607021e-01  3.39567181e-07  6.04517259e-01  3.39567181e-07  7.24784998e-01  3.39567181e-07  1.80000000e+00  3.39567181e-07 -4.30294923e-03  3.39567181e-07  5.00000000e-01                                 
 3.69671821e-07  6.38554462e-01  3.69671821e-07  5.99324316e-01  3.69671821e-07  6.67333387e-01  3.69671821e-07  1.80000000e+00  3.69671821e-07  4.31778820e-03  3.69671821e-07  5.00000000e-01                                 
 4.16916524e-07  6.28301589e-01  4.16916524e-07  5.90672175e-01  4.16916524e-07  5.86552700e-01  4.16916524e-07  1.80000000e+00  4.16916524e-07 -4.30020856e-03  4.16916524e-07  5.00000000e-01                                 
 4.76520550e-07  6.15253814e-01  4.76520550e-07  5.79810161e-01  4.76520550e-07  5.09979133e-01  4.76520550e-07  1.80000000e+00  4.76520550e-07  4.31589921e-03  4.76520550e-07  5.00000000e-01                                 
 5.66474570e-07  5.91293251e-01  5.66474570e-07  5.60264706e-01  5.66474570e-07  4.59235477e-01  5.66474570e-07  1.80000000e+00  5.66474570e-07 -4.29893003e-03  5.66474570e-07  5.00000000e-01                                 
 6.30462780e-07  5.72473249e-01  6.30462780e-07  5.45083344e-01  6.30462780e-07  4.46660481e-01  6.30462780e-07  1.80000000e+00  6.30462780e-07  4.31455613e-03  6.30462780e-07  5.00000000e-01                                 
 6.99615297e-07  5.48906269e-01  6.99615297e-07  5.26181208e-01  6.99615297e-07  4.57696647e-01  6.99615297e-07  1.80000000e+00  6.99615297e-07 -4.29748381e-03  6.99615297e-07  5.00000000e-01                                 
 7.76159065e-07  5.39392235e-01  7.76159065e-07  5.18574662e-01  7.76159065e-07  5.25511347e-01  7.76159065e-07  1.80000000e+00  7.76159065e-07  4.31334884e-03  7.76159065e-07  5.00000000e-01                                 
 7.85823830e-07  5.43540414e-01  7.85823830e-07  5.21896812e-01  7.85823830e-07  5.35379224e-01  7.85823830e-07  1.80000000e+00  7.85823830e-07  1.48706538e-06  7.85823830e-07  5.00000000e-01                                 
 8.05153360e-07  5.61864573e-01  8.05153360e-07  5.36561102e-01  8.05153360e-07  5.57055084e-01  8.05153360e-07  1.80000000e+00  8.05153360e-07 -7.79856908e-07  8.05153360e-07  5.00000000e-01                                 
 8.28738217e-07  6.32835872e-01  8.28738217e-07  5.93287967e-01  8.28738217e-07  5.79105579e-01  8.28738217e-07  1.80000000e+00  8.28738217e-07  3.01493707e-06  8.28738217e-07  5.00000000e-01                                 
 8.51571732e-07  7.65646985e-01  8.51571732e-07  7.12109226e-01  8.51571732e-07  5.91693855e-01  8.51571732e-07  1.80000000e+00  8.51571732e-07  2.12056157e-06  8.51571732e-07  5.00000000e-01                                 
 8.73355134e-07  8.13452851e-01  8.73355134e-07  7.64543929e-01  8.73355134e-07  5.55325471e-01  8.73355134e-07  1.80000000e+00  8.73355134e-07  5.46081844e-07  8.73355134e-07  5.00000000e-01                                 
 8.97738699e-07  8.39999502e-01  8.97738699e-07  7.89801629e-01  8.97738699e-07  5.28402339e-01  8.97738699e-07  1.80000000e+00  8.97738699e-07  6.67336420e-07  8.97738699e-07  5.00000000e-01                                 
 9.41647312e-07  8.84609596e-01  9.41647312e-07  8.27016704e-01  9.41647312e-07  5.23996405e-01  9.41647312e-07  1.80000000e+00  9.41647312e-07  6.40718204e-07  9.41647312e-07  5.00000000e-01                                 
 9.46657712e-07  8.90159889e-01  9.46657712e-07  8.31085760e-01  9.46657712e-07  5.23563148e-01  9.46657712e-07  1.80000000e+00  9.46657712e-07  4.36190786e-07  9.46657712e-07  5.00000000e-01                                 
 9.56678511e-07  9.02599818e-01  9.56678511e-07  8.39743881e-01  9.56678511e-07  5.25290593e-01  9.56678511e-07  1.80000000e+00  9.56678511e-07  9.26109255e-07  9.56678511e-07  5.00000000e-01                                 
 9.76720108e-07  9.32479947e-01  9.76720108e-07  8.58408621e-01  9.76720108e-07  5.29199363e-01  9.76720108e-07  1.80000000e+00  9.76720108e-07  7.54610947e-07  9.76720108e-07  5.00000000e-01                                 
 9.96435170e-07  9.62171017e-01  9.96435170e-07  8.74346490e-01  9.96435170e-07  5.28961869e-01  9.96435170e-07  1.80000000e+00  9.96435170e-07  8.74097948e-07  9.96435170e-07  5.00000000e-01                                 
 1.01899261e-06  9.69175391e-01  1.01899261e-06  8.78105012e-01  1.01899261e-06  5.16609297e-01  1.01899261e-06  1.80000000e+00  1.01899261e-06 -3.13628060e-07  1.01899261e-06  5.00000000e-01                                 
 1.04281073e-06  9.62949809e-01  1.04281073e-06  8.74941798e-01  1.04281073e-06  5.02254940e-01  1.04281073e-06  1.80000000e+00  1.04281073e-06  7.23169770e-08  1.04281073e-06  5.00000000e-01                                 
 1.06999661e-06  9.65894696e-01  1.06999661e-06  8.76403745e-01  1.06999661e-06  5.02270843e-01  1.06999661e-06  1.80000000e+00  1.06999661e-06  1.05874938e-07  1.06999661e-06  5.00000000e-01                                 
 1.09895293e-06  9.63492158e-01  1.09895293e-06  8.75269875e-01  1.09895293e-06  5.00956718e-01  1.09895293e-06  1.80000000e+00  1.09895293e-06 -1.40381082e-07  1.09895293e-06  5.00000000e-01                                 
 1.13925541e-06  9.63953796e-01  1.13925541e-06  8.75427604e-01  1.13925541e-06  5.01459325e-01  1.13925541e-06  1.80000000e+00  1.13925541e-06  1.76203987e-07  1.13925541e-06  5.00000000e-01                                 
 1.19572290e-06  9.62729221e-01  1.19572290e-06  8.74901134e-01  1.19572290e-06  5.01418734e-01  1.19572290e-06  1.80000000e+00  1.19572290e-06 -1.49664680e-07  1.19572290e-06  5.00000000e-01                                 
 1.28941036e-06  9.61852159e-01  1.28941036e-06  8.74386538e-01  1.28941036e-06  4.99400290e-01  1.28941036e-06  1.80000000e+00  1.28941036e-06  1.70826838e-07  1.28941036e-06  5.00000000e-01                                 
 1.47675602e-06  9.59418865e-01  1.47675602e-06  8.73251039e-01  1.47675602e-06  4.97182220e-01  1.47675602e-06  1.80000000e+00  1.47675602e-06 -1.42215405e-07  1.47675602e-06  5.00000000e-01                                 
 1.77545967e-06  9.55962692e-01  1.77545967e-06  8.71412221e-01  1.77545967e-06  5.00712505e-01  1.77545967e-06  1.80000000e+00  1.77545967e-06  1.66649241e-07  1.77545967e-06  5.00000000e-01                                 
 2.21455128e-06  9.50721716e-01  2.21455128e-06  8.68776753e-01  2.21455128e-06  5.00661866e-01  2.21455128e-06  1.80000000e+00  2.21455128e-06 -1.39669589e-07  2.21455128e-06  5.00000000e-01                                 
 2.73835265e-06  9.44298436e-01  2.73835265e-06  8.65242540e-01  2.73835265e-06  4.98009478e-01  2.73835265e-06  1.80000000e+00  2.73835265e-06  1.64241003e-07  2.73835265e-06  5.00000000e-01                                 
 3.54997160e-06  8.52790153e-01  3.54997160e-06  8.01654704e-01  3.54997160e-06  4.97693480e-01  3.54997160e-06  1.80000000e+00  3.54997160e-06 -2.53766267e-07  3.54997160e-06  5.00000000e-01                                 
 3.63135761e-06  8.45955052e-01  3.63135761e-06  7.95242414e-01  3.63135761e-06  5.00165580e-01  3.63135761e-06  1.80000000e+00  3.63135761e-06 -3.20100026e-08  3.63135761e-06  5.00000000e-01                                 
 3.79412962e-06  8.43269334e-01  3.79412962e-06  7.92806263e-01  3.79412962e-06  5.02890089e-01  3.79412962e-06  1.80000000e+00  3.79412962e-06  5.09775599e-08  3.79412962e-06  5.00000000e-01                                 
 4.03338485e-06  8.45298590e-01  4.03338485e-06  7.94650032e-01  4.03338485e-06  4.98970056e-01  4.03338485e-06  1.80000000e+00  4.03338485e-06 -1.64926410e-09  4.03338485e-06  5.00000000e-01                                 
 4.29681812e-06  8.43708209e-01  4.29681812e-06  7.93205123e-01  4.29681812e-06  4.99436979e-01  4.29681812e-06  1.80000000e+00  4.29681812e-06  3.36519248e-08  4.29681812e-06  5.00000000e-01                                 
 4.82368466e-06  8.44973018e-01  4.82368466e-06  7.94356182e-01  4.82368466e-06  5.01120556e-01  4.82368466e-06  1.80000000e+00  4.82368466e-06  8.31179178e-09  4.82368466e-06  5.00000000e-01                                 
 5.54159311e-06  8.43869962e-01  5.54159311e-06  7.93351829e-01  5.54159311e-06  4.99191302e-01  5.54159311e-06  1.80000000e+00  5.54159311e-06  2.90256959e-08  5.54159311e-06  5.00000000e-01                                 
 6.49821118e-06  8.44854272e-01  6.49821118e-06  7.94248977e-01  6.49821118e-06  5.00976946e-01  6.49821118e-06  1.80000000e+00  6.49821118e-06  1.13262880e-08  6.49821118e-06  5.00000000e-01                                 
 7.49821118e-06  8.43960725e-01  7.49821118e-06  7.93434080e-01  7.49821118e-06  4.99339975e-01  7.49821118e-06  1.80000000e+00  7.49821118e-06  2.67656423e-08  7.49821118e-06  5.00000000e-01                                 
 8.49821118e-06  8.44766838e-01  8.49821118e-06  7.94170034e-01  8.49821118e-06  5.00804908e-01  8.49821118e-06  1.80000000e+00  8.49821118e-06  1.33253678e-08  8.49821118e-06  5.00000000e-01                                 
 9.49821118e-06  8.44041427e-01  9.49821118e-06  7.93507171e-01  9.49821118e-06  4.99481466e-01  9.49821118e-06  1.80000000e+00  9.49821118e-06  2.49633393e-08  9.49821118e-06  5.00000000e-01                                 
 1.00005000e-05  8.44652932e-01  1.00005000e-05  7.94067181e-01  1.00005000e-05  5.00650602e-01  1.00005000e-05  1.80000000e+00  1.00005000e-05  1.56140677e-08  1.00005000e-05  5.00000000e-01                                 
 1.00005500e-05  8.44652223e-01  1.00005500e-05  7.94066266e-01  1.00005500e-05  4.92706572e-01  1.00005500e-05  1.62000000e+00  1.00005500e-05 -7.27613586e-05  1.00005500e-05  5.00000000e-01                                 
 1.00006500e-05  8.44650839e-01  1.00006500e-05  7.94064563e-01  1.00006500e-05  4.79251129e-01  1.00006500e-05  1.26000000e+00  1.00006500e-05 -4.55537496e-05  1.00006500e-05  5.00000000e-01                                 
 1.00008500e-05  8.44648705e-01  1.00008500e-05  7.94061907e-01  1.00008500e-05  4.79132263e-01  1.00008500e-05  5.40000000e-01  1.00008500e-05 -2.31276347e-04  1.00008500e-05  5.00000000e-01                                 
 1.00010000e-05  8.44647493e-01  1.00010000e-05  7.94060380e-01  1.00010000e-05  4.47157136e-01  1.00010000e-05  0.00000000e+00  1.00010000e-05  1.54525969e+00  1.00010000e-05  5.00000000e-01                                 
 1.00010156e-05  8.44647322e-01  1.00010156e-05  7.94060211e-01  1.00010156e-05  4.28140894e-01  1.00010156e-05  0.00000000e+00  1.00010156e-05  1.68006528e+00  1.00010156e-05  5.00000000e-01                                 
