 time            v(vbep)         time            v(vben)         time            v(vout)         time            v(vphi1)        time            v(vphi2)        time            v(vref)         time            v(voutc)        time            v(voutcc)       yes             currtemp       
 0.00000000e+00  7.55565518e-01  0.00000000e+00  6.94703351e-01  0.00000000e+00  1.56841359e+00  0.00000000e+00  0.00000000e+00  0.00000000e+00  1.80000000e+00  0.00000000e+00  6.96698115e-01  0.00000000e+00  1.56841358e+00  0.00000000e+00  1.57512728e+00  1.00000000e+00  3.90000000e+01 
 1.00000000e-11  7.55590593e-01  1.00000000e-11  6.94774690e-01  1.00000000e-11  1.56919425e+00  1.00000000e-11  1.80000000e-02  1.00000000e-11  1.80025164e+00  1.00000000e-11  6.97229981e-01  1.00000000e-11  1.56888414e+00  1.00000000e-11  1.57514147e+00                                 
 2.00000000e-11  7.55597457e-01  2.00000000e-11  6.94819380e-01  2.00000000e-11  1.56967439e+00  2.00000000e-11  3.60000000e-02  2.00000000e-11  1.80035151e+00  2.00000000e-11  6.97624914e-01  2.00000000e-11  1.56924041e+00  2.00000000e-11  1.57514685e+00                                 
 4.00000000e-11  7.55597417e-01  4.00000000e-11  6.94878269e-01  4.00000000e-11  1.57025335e+00  4.00000000e-11  7.20000000e-02  4.00000000e-11  1.80038994e+00  4.00000000e-11  6.98202537e-01  4.00000000e-11  1.56977194e+00  4.00000000e-11  1.57514880e+00                                 
 8.00000000e-11  7.55585592e-01  8.00000000e-11  6.94916188e-01  8.00000000e-11  1.57037494e+00  8.00000000e-11  1.44000000e-01  8.00000000e-11  1.80018625e+00  8.00000000e-11  6.98649788e-01  8.00000000e-11  1.57020666e+00  8.00000000e-11  1.57513821e+00                                 
 1.60000000e-10  7.55582722e-01  1.60000000e-10  6.94926918e-01  1.60000000e-10  1.57004197e+00  1.60000000e-10  2.88000000e-01  1.60000000e-10  1.80000430e+00  1.60000000e-10  6.98722107e-01  1.60000000e-10  1.57026012e+00  1.60000000e-10  1.57512857e+00                                 
 3.20000000e-10  7.55578834e-01  3.20000000e-10  6.94925175e-01  3.20000000e-10  1.56967355e+00  3.20000000e-10  5.76000000e-01  3.20000000e-10  1.79999027e+00  3.20000000e-10  6.98583566e-01  3.20000000e-10  1.56996457e+00  3.20000000e-10  1.57512441e+00                                 
 6.40000000e-10  7.55496050e-01  6.40000000e-10  6.94551838e-01  6.40000000e-10  1.56740615e+00  6.40000000e-10  1.15200000e+00  6.40000000e-10  1.81156225e+00  6.40000000e-10  6.96425249e-01  6.40000000e-10  1.57467688e+00  6.40000000e-10  1.57515283e+00                                 
 1.00000000e-09  7.56129804e-01  1.00000000e-09  6.94806021e-01  1.00000000e-09  1.54257830e+00  1.00000000e-09  1.80000000e+00  1.00000000e-09  9.30332608e-02  1.00000000e-09  7.07502774e-01  1.00000000e-09  1.57472505e+00  1.00000000e-09  1.57511435e+00                                 
 1.03648788e-09  7.56167953e-01  1.03648788e-09  6.94841842e-01  1.03648788e-09  1.54160959e+00  1.03648788e-09  1.80000000e+00  1.03648788e-09  2.08267963e-02  1.03648788e-09  7.10448983e-01  1.03648788e-09  1.57633590e+00  1.03648788e-09  1.57515243e+00                                 
 1.10946364e-09  7.56273613e-01  1.10946364e-09  6.94910058e-01  1.10946364e-09  1.54082580e+00  1.10946364e-09  1.80000000e+00  1.10946364e-09 -9.96883155e-03  1.10946364e-09  7.14267905e-01  1.10946364e-09  1.57930910e+00  1.10946364e-09  1.57517911e+00                                 
 1.25541517e-09  7.56385335e-01  1.25541517e-09  6.94781583e-01  1.25541517e-09  1.53881199e+00  1.25541517e-09  1.80000000e+00  1.25541517e-09  8.34567212e-03  1.25541517e-09  7.14522707e-01  1.25541517e-09  1.57978074e+00  1.25541517e-09  1.57513231e+00                                 
 1.46536037e-09  7.56374087e-01  1.46536037e-09  6.94757030e-01  1.46536037e-09  1.53796060e+00  1.46536037e-09  1.80000000e+00  1.46536037e-09 -6.47829656e-03  1.46536037e-09  7.13989194e-01  1.46536037e-09  1.57911957e+00  1.46536037e-09  1.57516467e+00                                 
 1.69267406e-09  7.56284117e-01  1.69267406e-09  6.94752148e-01  1.69267406e-09  1.53778712e+00  1.69267406e-09  1.80000000e+00  1.69267406e-09  5.57998084e-03  1.69267406e-09  7.12694625e-01  1.69267406e-09  1.57819599e+00  1.69267406e-09  1.57517200e+00                                 
 2.07442957e-09  7.56030761e-01  2.07442957e-09  6.94706144e-01  2.07442957e-09  1.53792169e+00  2.07442957e-09  1.80000000e+00  2.07442957e-09 -5.06233399e-03  2.07442957e-09  7.10529057e-01  2.07442957e-09  1.57619022e+00  2.07442957e-09  1.57525699e+00                                 
 2.47290004e-09  7.55827669e-01  2.47290004e-09  6.94711457e-01  2.47290004e-09  1.53832284e+00  2.47290004e-09  1.80000000e+00  2.47290004e-09  4.51232670e-03  2.47290004e-09  7.08634750e-01  2.47290004e-09  1.57471687e+00  2.47290004e-09  1.57533318e+00                                 
 3.12783568e-09  7.55603886e-01  3.12783568e-09  6.94668221e-01  3.12783568e-09  1.53789086e+00  3.12783568e-09  1.80000000e+00  3.12783568e-09 -4.34517291e-03  3.12783568e-09  7.05479822e-01  3.12783568e-09  1.57188932e+00  3.12783568e-09  1.57547947e+00                                 
 4.08442123e-09  7.55481851e-01  4.08442123e-09  6.94685986e-01  4.08442123e-09  1.53711927e+00  4.08442123e-09  1.80000000e+00  4.08442123e-09  4.09187922e-03  4.08442123e-09  7.02214062e-01  4.08442123e-09  1.56923126e+00  4.08442123e-09  1.57562903e+00                                 
 5.99759232e-09  7.55383240e-01  5.99759232e-09  6.94666207e-01  5.99759232e-09  1.53460619e+00  5.99759232e-09  1.80000000e+00  5.99759232e-09 -4.06575209e-03  5.99759232e-09  6.97677038e-01  5.99759232e-09  1.56524198e+00  5.99759232e-09  1.57573892e+00                                 
 7.67085089e-09  7.55391721e-01  7.67085089e-09  6.94703256e-01  7.67085089e-09  1.53217271e+00  7.67085089e-09  1.80000000e+00  7.67085089e-09  3.95018777e-03  7.67085089e-09  6.96095757e-01  7.67085089e-09  1.56401952e+00  7.67085089e-09  1.57563072e+00                                 
 9.13923517e-09  7.55410980e-01  9.13923517e-09  6.94681533e-01  9.13923517e-09  1.52836676e+00  9.13923517e-09  1.80000000e+00  9.13923517e-09 -3.86287392e-03  9.13923517e-09  6.95137296e-01  9.13923517e-09  1.56308269e+00  9.13923517e-09  1.57545344e+00                                 
 1.07707947e-08  7.55458061e-01  1.07707947e-08  6.94712189e-01  1.07707947e-08  1.52342341e+00  1.07707947e-08  1.80000000e+00  1.07707947e-08  3.76879585e-03  1.07707947e-08  6.94998554e-01  1.07707947e-08  1.56307702e+00  1.07707947e-08  1.57520247e+00                                 
 1.29415243e-08  7.55496867e-01  1.29415243e-08  6.94687497e-01  1.29415243e-08  1.51467990e+00  1.29415243e-08  1.80000000e+00  1.29415243e-08 -3.70667942e-03  1.29415243e-08  6.94679518e-01  1.29415243e-08  1.56267995e+00  1.29415243e-08  1.57485632e+00                                 
 1.56621184e-08  7.55545173e-01  1.56621184e-08  6.94716136e-01  1.56621184e-08  1.50268180e+00  1.56621184e-08  1.80000000e+00  1.56621184e-08  3.65645248e-03  1.56621184e-08  6.95035900e-01  1.56621184e-08  1.56308063e+00  1.56621184e-08  1.57442946e+00                                 
 1.92491983e-08  7.55563267e-01  1.92491983e-08  6.94689893e-01  1.92491983e-08  1.48487864e+00  1.92491983e-08  1.80000000e+00  1.92491983e-08 -3.61697824e-03  1.92491983e-08  6.95091030e-01  1.92491983e-08  1.56299440e+00  1.92491983e-08  1.57393203e+00                                 
 2.41295651e-08  7.55580614e-01  2.41295651e-08  6.94717403e-01  2.41295651e-08  1.46025084e+00  2.41295651e-08  1.80000000e+00  2.41295651e-08  3.59157832e-03  2.41295651e-08  6.95678669e-01  2.41295651e-08  1.56358223e+00  2.41295651e-08  1.57336497e+00                                 
 3.17981366e-08  7.55571359e-01  3.17981366e-08  6.94690241e-01  3.17981366e-08  1.42030651e+00  3.17981366e-08  1.80000000e+00  3.17981366e-08 -3.57202170e-03  3.17981366e-08  6.95864054e-01  3.17981366e-08  1.56360391e+00  3.17981366e-08  1.57270112e+00                                 
 4.50729639e-08  7.55573841e-01  4.50729639e-08  6.94717108e-01  4.50729639e-08  1.35161642e+00  4.50729639e-08  1.80000000e+00  4.50729639e-08  3.56399247e-03  4.50729639e-08  6.96494793e-01  4.50729639e-08  1.56422797e+00  4.50729639e-08  1.57197549e+00                                 
 7.07419546e-08  7.55562515e-01  7.07419546e-08  6.94689799e-01  7.07419546e-08  1.21851596e+00  7.07419546e-08  1.80000000e+00  7.07419546e-08 -3.55686726e-03  7.07419546e-08  6.96538147e-01  7.07419546e-08  1.56413983e+00  7.07419546e-08  1.57135252e+00                                 
 1.07544098e-07  7.55569379e-01  1.07544098e-07  6.94716902e-01  1.07544098e-07  1.03025500e+00  1.07544098e-07  1.80000000e+00  1.07544098e-07  3.55563404e-03  1.07544098e-07  6.96813899e-01  1.07544098e-07  1.56448021e+00  1.07544098e-07  1.57111262e+00                                 
 1.59244967e-07  7.55561433e-01  1.59244967e-07  6.94689754e-01  1.59244967e-07  7.95443357e-01  1.59244967e-07  1.80000000e+00  1.59244967e-07 -3.54850810e-03  1.59244967e-07  6.96580457e-01  1.59244967e-07  1.56416817e+00  1.59244967e-07  1.57105210e+00                                 
 2.05645700e-07  7.55571436e-01  2.05645700e-07  6.94717040e-01  2.05645700e-07  6.98569177e-01  2.05645700e-07  1.80000000e+00  2.05645700e-07  3.55572591e-03  2.05645700e-07  6.96816645e-01  2.05645700e-07  1.56447710e+00  2.05645700e-07  1.57104253e+00                                 
 2.49133068e-07  7.55557797e-01  2.49133068e-07  6.94689617e-01  2.49133068e-07  6.98602713e-01  2.49133068e-07  1.80000000e+00  2.49133068e-07 -3.54008186e-03  2.49133068e-07  6.96583855e-01  2.49133068e-07  1.56416764e+00  2.49133068e-07  1.57104333e+00                                 
 2.68523837e-07  7.55572824e-01  2.68523837e-07  6.94716969e-01  2.68523837e-07  6.98943806e-01  2.68523837e-07  1.80000000e+00  2.68523837e-07  3.54628280e-03  2.68523837e-07  6.96812265e-01  2.68523837e-07  1.56447100e+00  2.68523837e-07  1.57103989e+00                                 
 2.99920240e-07  7.55558682e-01  2.99920240e-07  6.94689758e-01  2.99920240e-07  6.98541102e-01  2.99920240e-07  1.80000000e+00  2.99920240e-07 -3.52955930e-03  2.99920240e-07  6.96583392e-01  2.99920240e-07  1.56416554e+00  2.99920240e-07  1.57103980e+00                                 
 3.62713045e-07  7.55572167e-01  3.62713045e-07  6.94716927e-01  3.62713045e-07  6.98922611e-01  3.62713045e-07  1.80000000e+00  3.62713045e-07  3.54022184e-03  3.62713045e-07  6.96812913e-01  3.62713045e-07  1.56446808e+00  3.62713045e-07  1.57103556e+00                                 
 4.56819352e-07  7.55558990e-01  4.56819352e-07  6.94689767e-01  4.56819352e-07  6.98546786e-01  4.56819352e-07  1.80000000e+00  4.56819352e-07 -3.52621926e-03  4.56819352e-07  6.96583203e-01  4.56819352e-07  1.56415986e+00  4.56819352e-07  1.57103398e+00                                 
 6.45031966e-07  7.55571987e-01  6.45031966e-07  6.94716923e-01  6.45031966e-07  6.98919196e-01  6.45031966e-07  1.80000000e+00  6.45031966e-07  3.53820119e-03  6.45031966e-07  6.96813016e-01  6.45031966e-07  1.56445812e+00  6.45031966e-07  1.57102556e+00                                 
 1.02145719e-06  7.55559078e-01  1.02145719e-06  6.94689769e-01  1.02145719e-06  6.98548465e-01  1.02145719e-06  1.80000000e+00  1.02145719e-06 -3.52520179e-03  1.02145719e-06  6.96583156e-01  1.02145719e-06  1.56413980e+00  1.02145719e-06  1.57101398e+00                                 
 1.73672928e-06  7.55571942e-01  1.73672928e-06  6.94716922e-01  1.73672928e-06  6.98918325e-01  1.73672928e-06  1.80000000e+00  1.73672928e-06  3.53768751e-03  1.73672928e-06  6.96813039e-01  1.73672928e-06  1.56441939e+00  1.73672928e-06  1.57098687e+00                                 
 2.93672928e-06  7.55559103e-01  2.93672928e-06  6.94689769e-01  2.93672928e-06  6.98548951e-01  2.93672928e-06  1.80000000e+00  2.93672928e-06 -3.52493110e-03  2.93672928e-06  6.96583143e-01  2.93672928e-06  1.56407181e+00  2.93672928e-06  1.57094609e+00                                 
 4.13672928e-06  7.55571924e-01  4.13672928e-06  6.94716922e-01  4.13672928e-06  6.98917979e-01  4.13672928e-06  1.80000000e+00  4.13672928e-06  3.53747741e-03  4.13672928e-06  6.96813048e-01  4.13672928e-06  1.56433411e+00  4.13672928e-06  1.57090171e+00                                 
 5.33672928e-06  7.55559121e-01  5.33672928e-06  6.94689770e-01  5.33672928e-06  6.98549318e-01  5.33672928e-06  1.80000000e+00  5.33672928e-06 -3.52473317e-03  5.33672928e-06  6.96583133e-01  5.33672928e-06  1.56398646e+00  5.33672928e-06  1.57086087e+00                                 
 6.00100000e-06  7.55571899e-01  6.00100000e-06  6.94716922e-01  6.00100000e-06  6.98917474e-01  6.00100000e-06  1.80000000e+00  6.00100000e-06  3.53718110e-03  6.00100000e-06  6.96813061e-01  6.00100000e-06  1.56426787e+00  6.00100000e-06  1.57083555e+00                                 
 6.00110000e-06  7.55523563e-01  6.00110000e-06  6.94463563e-01  6.00110000e-06  6.96977767e-01  6.00110000e-06  1.62000000e+00  6.00110000e-06  1.92487178e-04  6.00110000e-06  6.95080777e-01  6.00110000e-06  1.56273951e+00  6.00110000e-06  1.57082447e+00                                 
 6.00130000e-06  7.55554815e-01  6.00130000e-06  6.94468406e-01  6.00130000e-06  6.97220765e-01  6.00130000e-06  1.26000000e+00  6.00130000e-06 -2.24741556e-04  6.00130000e-06  6.94977700e-01  6.00130000e-06  1.56264589e+00  6.00130000e-06  1.57084252e+00                                 
 6.00170000e-06  7.55614119e-01  6.00170000e-06  6.93948574e-01  6.00170000e-06  7.16532770e-01  6.00170000e-06  5.40000000e-01  6.00170000e-06  1.53867616e+00  6.00170000e-06  6.87390752e-01  6.00170000e-06  1.46272465e+00  6.00170000e-06  1.57048555e+00                                 
 6.00200000e-06  7.55549045e-01  6.00200000e-06  6.91644076e-01  6.00200000e-06  7.44617012e-01  6.00200000e-06  0.00000000e+00  6.00200000e-06  1.87760459e+00  6.00200000e-06  6.63123508e-01  6.00200000e-06  1.11997130e+00  6.00200000e-06  1.57049658e+00                                 
 6.00203655e-06  7.55562338e-01  6.00203655e-06  6.91722118e-01  6.00203655e-06  7.38940344e-01  6.00203655e-06  0.00000000e+00  6.00203655e-06  1.83038032e+00  6.00203655e-06  6.64240991e-01  6.00203655e-06  1.07644111e+00  6.00203655e-06  1.57081267e+00                                 
 6.00210966e-06  7.55569369e-01  6.00210966e-06  6.91979215e-01  6.00210966e-06  7.30957314e-01  6.00210966e-06  0.00000000e+00  6.00210966e-06  1.79203653e+00  6.00210966e-06  6.67653590e-01  6.00210966e-06  1.00280262e+00  6.00210966e-06  1.57106445e+00                                 
 6.00225588e-06  7.55564758e-01  6.00225588e-06  6.92345406e-01  6.00225588e-06  7.26897384e-01  6.00225588e-06  0.00000000e+00  6.00225588e-06  1.80237569e+00  6.00225588e-06  6.71982411e-01  6.00225588e-06  8.89524835e-01  6.00225588e-06  1.57099614e+00                                 
 6.00246978e-06  7.55566091e-01  6.00246978e-06  6.93083471e-01  6.00246978e-06  7.16747283e-01  6.00246978e-06  0.00000000e+00  6.00246978e-06  1.79737651e+00  6.00246978e-06  6.79250908e-01  6.00246978e-06  7.78579513e-01  6.00246978e-06  1.57113190e+00                                 
 6.00269445e-06  7.55564380e-01  6.00269445e-06  6.94079343e-01  6.00269445e-06  7.06546651e-01  6.00269445e-06  0.00000000e+00  6.00269445e-06  1.80118149e+00  6.00269445e-06  6.88752503e-01  6.00269445e-06  7.27854949e-01  6.00269445e-06  1.57105407e+00                                 
 6.00291077e-06  7.55565447e-01  6.00291077e-06  6.94621051e-01  6.00291077e-06  7.02519025e-01  6.00291077e-06  0.00000000e+00  6.00291077e-06  1.79930861e+00  6.00291077e-06  6.92926987e-01  6.00291077e-06  7.09429772e-01  6.00291077e-06  1.57084150e+00                                 
 6.00321323e-06  7.55564807e-01  6.00321323e-06  6.95067284e-01  6.00321323e-06  6.99702814e-01  6.00321323e-06  0.00000000e+00  6.00321323e-06  1.80050487e+00  6.00321323e-06  6.96306523e-01  6.00321323e-06  7.01894802e-01  6.00321323e-06  1.57010712e+00                                 
 6.00350707e-06  7.55565620e-01  6.00350707e-06  6.95180056e-01  6.00350707e-06  6.99946814e-01  6.00350707e-06  0.00000000e+00  6.00350707e-06  1.79972046e+00  6.00350707e-06  6.96938836e-01  6.00350707e-06  6.99943368e-01  6.00350707e-06  1.56920010e+00                                 
 6.00402663e-06  7.55565228e-01  6.00402663e-06  6.95240152e-01  6.00402663e-06  7.00169560e-01  6.00402663e-06  0.00000000e+00  6.00402663e-06  1.80023362e+00  6.00402663e-06  6.97762176e-01  6.00402663e-06  7.00322650e-01  6.00402663e-06  1.56723326e+00                                 
 6.00473445e-06  7.55565854e-01  6.00473445e-06  6.95168746e-01  6.00473445e-06  7.02183436e-01  6.00473445e-06  0.00000000e+00  6.00473445e-06  1.79983753e+00  6.00473445e-06  6.97736547e-01  6.00473445e-06  7.01575113e-01  6.00473445e-06  1.56430112e+00                                 
 6.00615009e-06  7.55565341e-01  6.00615009e-06  6.95071894e-01  6.00615009e-06  7.05222104e-01  6.00615009e-06  0.00000000e+00  6.00615009e-06  1.80016430e+00  6.00615009e-06  6.98076681e-01  6.00615009e-06  7.05218195e-01  6.00615009e-06  1.55794669e+00                                 
 6.00898137e-06  7.55565769e-01  6.00898137e-06  6.94871440e-01  6.00898137e-06  7.12988415e-01  6.00898137e-06  0.00000000e+00  6.00898137e-06  1.79986761e+00  6.00898137e-06  6.97819922e-01  6.00898137e-06  7.12294596e-01  6.00898137e-06  1.54470122e+00                                 
 6.01464394e-06  7.55565261e-01  6.01464394e-06  6.94707317e-01  6.01464394e-06  7.27163538e-01  6.01464394e-06  0.00000000e+00  6.01464394e-06  1.80014887e+00  6.01464394e-06  6.97705009e-01  6.01464394e-06  7.27132341e-01  6.01464394e-06  1.51806598e+00                                 
 6.02596906e-06  7.55565762e-01  6.02596906e-06  6.94672075e-01  6.02596906e-06  7.55634514e-01  6.02596906e-06  0.00000000e+00  6.02596906e-06  1.79987397e+00  6.02596906e-06  6.97068361e-01  6.02596906e-06  7.54830049e-01  6.02596906e-06  1.46744947e+00                                 
 6.04861932e-06  7.55565269e-01  6.04861932e-06  6.94712868e-01  6.04861932e-06  8.06855733e-01  6.04861932e-06  0.00000000e+00  6.04861932e-06  1.80014383e+00  6.04861932e-06  6.96873260e-01  6.04861932e-06  8.06886715e-01  6.04861932e-06  1.37602848e+00                                 
 6.09391983e-06  7.55565765e-01  6.09391983e-06  6.94692251e-01  6.09391983e-06  8.94683349e-01  6.09391983e-06  0.00000000e+00  6.09391983e-06  1.79987226e+00  6.09391983e-06  6.96580955e-01  6.09391983e-06  8.92850952e-01  6.09391983e-06  1.21957629e+00                                 
 6.18452085e-06  7.55565270e-01  6.18452085e-06  6.94714370e-01  6.18452085e-06  1.01879148e+00  6.18452085e-06  0.00000000e+00  6.18452085e-06  1.80013754e+00  6.18452085e-06  6.96791041e-01  6.18452085e-06  1.01972783e+00  6.18452085e-06  1.04674607e+00                                 
 6.33029651e-06  7.55565765e-01  6.33029651e-06  6.94692465e-01  6.33029651e-06  1.12787515e+00  6.33029651e-06  0.00000000e+00  6.33029651e-06  1.79986697e+00  6.33029651e-06  6.96596345e-01  6.33029651e-06  1.12627779e+00  6.33029651e-06  1.09151071e+00                                 
 6.42674601e-06  7.55565271e-01  6.42674601e-06  6.94714064e-01  6.42674601e-06  1.16150075e+00  6.42674601e-06  0.00000000e+00  6.42674601e-06  1.80013450e+00  6.42674601e-06  6.96794362e-01  6.42674601e-06  1.16249797e+00  6.42674601e-06  1.16313858e+00                                 
 6.53727825e-06  7.55565765e-01  6.53727825e-06  6.94692789e-01  6.53727825e-06  1.18396314e+00  6.53727825e-06  0.00000000e+00  6.53727825e-06  1.79986648e+00  6.53727825e-06  6.96598807e-01  6.53727825e-06  1.18284454e+00  6.53727825e-06  1.18401968e+00                                 
