 time            v(vbep)         time            v(vben)         time            v(vout)         time            v(vphi1)        time            v(vphi2)        time            v(vref)         time            v(voutc)        time            v(voutcc)       yes             currtemp       
 0.00000000e+00  8.28177305e-01  0.00000000e+00  7.77610019e-01  0.00000000e+00  1.70872787e+00  0.00000000e+00  0.00000000e+00  0.00000000e+00  1.80000000e+00  0.00000000e+00  7.81276872e-01  0.00000000e+00  1.70872787e+00  0.00000000e+00  1.71388816e+00  1.00000000e+00 -1.00000000e+01 
 1.00000000e-11  8.28199674e-01  1.00000000e-11  7.77677647e-01  1.00000000e-11  1.70952888e+00  1.00000000e-11  1.80000000e-02  1.00000000e-11  1.80024239e+00  1.00000000e-11  7.81793109e-01  1.00000000e-11  1.70918495e+00  1.00000000e-11  1.71387339e+00                                 
 2.00000000e-11  8.28205915e-01  2.00000000e-11  7.77720221e-01  2.00000000e-11  1.71006423e+00  2.00000000e-11  3.60000000e-02  2.00000000e-11  1.80034332e+00  2.00000000e-11  7.82182093e-01  2.00000000e-11  1.70954093e+00  2.00000000e-11  1.71386114e+00                                 
 4.00000000e-11  8.28205836e-01  4.00000000e-11  7.77775867e-01  4.00000000e-11  1.71076957e+00  4.00000000e-11  7.20000000e-02  4.00000000e-11  1.80038959e+00  4.00000000e-11  7.82756300e-01  4.00000000e-11  1.71008704e+00  4.00000000e-11  1.71384073e+00                                 
 8.00000000e-11  8.28194542e-01  8.00000000e-11  7.77808540e-01  8.00000000e-11  1.71108437e+00  8.00000000e-11  1.44000000e-01  8.00000000e-11  1.80019850e+00  8.00000000e-11  7.83213081e-01  8.00000000e-11  1.71059094e+00  8.00000000e-11  1.71381959e+00                                 
 1.60000000e-10  8.28191161e-01  1.60000000e-10  7.77808766e-01  1.60000000e-10  1.71084256e+00  1.60000000e-10  2.88000000e-01  1.60000000e-10  1.80001269e+00  1.60000000e-10  7.83275534e-01  1.60000000e-10  1.71076185e+00  1.60000000e-10  1.71380767e+00                                 
 3.20000000e-10  8.28188633e-01  3.20000000e-10  7.77808049e-01  3.20000000e-10  1.71053540e+00  3.20000000e-10  5.76000000e-01  3.20000000e-10  1.80001835e+00  3.20000000e-10  7.83234716e-01  3.20000000e-10  1.71069662e+00  3.20000000e-10  1.71380532e+00                                 
 6.40000000e-10  8.28117264e-01  6.40000000e-10  7.77587233e-01  6.40000000e-10  1.70456456e+00  6.40000000e-10  1.15200000e+00  6.40000000e-10  1.81349671e+00  6.40000000e-10  7.82641141e-01  6.40000000e-10  1.71540499e+00  6.40000000e-10  1.71383379e+00                                 
 9.95940321e-10  8.28539761e-01  9.95940321e-10  7.77621711e-01  9.95940321e-10  1.67469830e+00  9.95940321e-10  1.79269258e+00  9.95940321e-10  7.64766715e-02  9.95940321e-10  7.84055915e-01  9.95940321e-10  1.70488727e+00  9.95940321e-10  1.71371977e+00                                 
 1.00000000e-09  8.28553707e-01  1.00000000e-09  7.77643556e-01  1.00000000e-09  1.67443436e+00  1.00000000e-09  1.80000000e+00  1.00000000e-09  4.85965422e-02  1.00000000e-09  7.84375733e-01  1.00000000e-09  1.70477434e+00  1.00000000e-09  1.71372741e+00                                 
 1.00811936e-09  8.28536164e-01  1.00811936e-09  7.77649893e-01  1.00811936e-09  1.67433296e+00  1.00811936e-09  1.80000000e+00  1.00811936e-09  2.56539877e-02  1.00811936e-09  7.85096405e-01  1.00811936e-09  1.70510024e+00  1.00811936e-09  1.71375406e+00                                 
 1.02435808e-09  8.28523050e-01  1.02435808e-09  7.77699095e-01  1.02435808e-09  1.67464988e+00  1.02435808e-09  1.80000000e+00  1.02435808e-09  2.38062088e-03  1.02435808e-09  7.86617587e-01  1.02435808e-09  1.70613954e+00  1.02435808e-09  1.71380542e+00                                 
 1.05683551e-09  8.28575943e-01  1.05683551e-09  7.77769810e-01  1.05683551e-09  1.67511494e+00  1.05683551e-09  1.80000000e+00  1.05683551e-09  9.82710547e-04  1.05683551e-09  7.88404945e-01  1.05683551e-09  1.70772860e+00  1.05683551e-09  1.71383109e+00                                 
 1.12179038e-09  8.28718676e-01  1.12179038e-09  7.77708989e-01  1.12179038e-09  1.67307850e+00  1.12179038e-09  1.80000000e+00  1.12179038e-09  6.28528544e-04  1.12179038e-09  7.88817636e-01  1.12179038e-09  1.70810127e+00  1.12179038e-09  1.71379524e+00                                 
 1.25170012e-09  8.28892575e-01  1.25170012e-09  7.77635062e-01  1.25170012e-09  1.66812147e+00  1.25170012e-09  1.80000000e+00  1.25170012e-09  3.22798201e-04  1.25170012e-09  7.89384077e-01  1.25170012e-09  1.70856587e+00  1.25170012e-09  1.71381188e+00                                 
 1.51151961e-09  8.28955039e-01  1.51151961e-09  7.77615428e-01  1.51151961e-09  1.66366898e+00  1.51151961e-09  1.80000000e+00  1.51151961e-09  2.27345290e-05  1.51151961e-09  7.89683031e-01  1.51151961e-09  1.70881189e+00  1.51151961e-09  1.71380875e+00                                 
 1.77920518e-09  8.28791914e-01  1.77920518e-09  7.77603823e-01  1.77920518e-09  1.66491801e+00  1.77920518e-09  1.80000000e+00  1.77920518e-09 -3.31868965e-05  1.77920518e-09  7.89144668e-01  1.77920518e-09  1.70835388e+00  1.77920518e-09  1.71381519e+00                                 
 2.04335279e-09  8.28618537e-01  2.04335279e-09  7.77603561e-01  2.04335279e-09  1.66699885e+00  2.04335279e-09  1.80000000e+00  2.04335279e-09 -3.31421796e-05  2.04335279e-09  7.88697462e-01  2.04335279e-09  1.70797620e+00  2.04335279e-09  1.71381593e+00                                 
 2.38488613e-09  8.28422646e-01  2.38488613e-09  7.77597050e-01  2.38488613e-09  1.66959207e+00  2.38488613e-09  1.80000000e+00  2.38488613e-09 -3.95551914e-05  2.38488613e-09  7.88049435e-01  2.38488613e-09  1.70742707e+00  2.38488613e-09  1.71382093e+00                                 
 3.06795281e-09  8.28184821e-01  3.06795281e-09  7.77592604e-01  3.06795281e-09  1.67393094e+00  3.06795281e-09  1.80000000e+00  3.06795281e-09 -3.07548524e-05  3.06795281e-09  7.86906933e-01  3.06795281e-09  1.70646050e+00  3.06795281e-09  1.71382420e+00                                 
 4.43408616e-09  8.28037787e-01  4.43408616e-09  7.77589369e-01  4.43408616e-09  1.67991357e+00  4.43408616e-09  1.80000000e+00  4.43408616e-09 -3.45631228e-05  4.43408616e-09  7.84939438e-01  4.43408616e-09  1.70479451e+00  4.43408616e-09  1.71381647e+00                                 
 7.16635288e-09  8.28093425e-01  7.16635288e-09  7.77598640e-01  7.16635288e-09  1.68466263e+00  7.16635288e-09  1.80000000e+00  7.16635288e-09 -2.15342621e-05  7.16635288e-09  7.82479278e-01  7.16635288e-09  1.70271209e+00  7.16635288e-09  1.71372051e+00                                 
 9.47241547e-09  8.28129534e-01  9.47241547e-09  7.77604566e-01  9.47241547e-09  1.68450040e+00  9.47241547e-09  1.80000000e+00  9.47241547e-09 -2.44879338e-05  9.47241547e-09  7.81462325e-01  9.47241547e-09  1.70184956e+00  9.47241547e-09  1.71357157e+00                                 
 1.20938283e-08  8.28140487e-01  1.20938283e-08  7.77608412e-01  1.20938283e-08  1.68315889e+00  1.20938283e-08  1.80000000e+00  1.20938283e-08 -1.18504887e-05  1.20938283e-08  7.80942907e-01  1.20938283e-08  1.70140676e+00  1.20938283e-08  1.71335451e+00                                 
 1.44586531e-08  8.28132970e-01  1.44586531e-08  7.77609185e-01  1.44586531e-08  1.68247660e+00  1.44586531e-08  1.80000000e+00  1.44586531e-08 -1.18752323e-05  1.44586531e-08  7.80725725e-01  1.44586531e-08  1.70121736e+00  1.44586531e-08  1.71314006e+00                                 
 1.82735272e-08  8.28143361e-01  1.82735272e-08  7.77610183e-01  1.82735272e-08  1.68100028e+00  1.82735272e-08  1.80000000e+00  1.82735272e-08 -2.44434787e-07  1.82735272e-08  7.80642662e-01  1.82735272e-08  1.70113586e+00  1.82735272e-08  1.71278521e+00                                 
 2.25623531e-08  8.28162780e-01  2.25623531e-08  7.77609863e-01  2.25623531e-08  1.67698034e+00  2.25623531e-08  1.80000000e+00  2.25623531e-08 -5.60056892e-06  2.25623531e-08  7.80650228e-01  2.25623531e-08  1.70112666e+00  2.25623531e-08  1.71239878e+00                                 
 2.95519100e-08  8.28177958e-01  2.95519100e-08  7.77610350e-01  2.95519100e-08  1.66745851e+00  2.95519100e-08  1.80000000e+00  2.95519100e-08  2.18268658e-06  2.95519100e-08  7.80753807e-01  2.95519100e-08  1.70119026e+00  2.95519100e-08  1.71181417e+00                                 
 3.85973225e-08  8.28179571e-01  3.85973225e-08  7.77609997e-01  3.85973225e-08  1.65330431e+00  3.85973225e-08  1.80000000e+00  3.85973225e-08 -4.94244413e-06  3.85973225e-08  7.80851262e-01  3.85973225e-08  1.70124530e+00  3.85973225e-08  1.71114562e+00                                 
 5.35789295e-08  8.28180195e-01  5.35789295e-08  7.77610295e-01  5.35789295e-08  1.62865649e+00  5.35789295e-08  1.80000000e+00  5.35789295e-08  2.12039561e-06  5.35789295e-08  7.81000413e-01  5.35789295e-08  1.70133819e+00  5.35789295e-08  1.71022088e+00                                 
 7.70727843e-08  8.28177461e-01  7.70727843e-08  7.77609898e-01  7.70727843e-08  1.58829555e+00  7.70727843e-08  1.80000000e+00  7.70727843e-08 -5.09080534e-06  7.70727843e-08  7.81118727e-01  7.70727843e-08  1.70140363e+00  7.70727843e-08  1.70913737e+00                                 
 1.24060494e-07  8.28178612e-01  1.24060494e-07  7.77610208e-01  1.24060494e-07  1.50544136e+00  1.24060494e-07  1.80000000e+00  1.24060494e-07  2.04231758e-06  1.24060494e-07  7.81246184e-01  1.24060494e-07  1.70147693e+00  1.24060494e-07  1.70783465e+00                                 
 2.18035913e-07  8.28176328e-01  2.18035913e-07  7.77609861e-01  2.18035913e-07  1.33988755e+00  2.18035913e-07  1.80000000e+00  2.18035913e-07 -5.06756012e-06  2.18035913e-07  7.81273673e-01  2.18035913e-07  1.70147608e+00  2.18035913e-07  1.70686282e+00                                 
 3.54068664e-07  8.28178295e-01  3.54068664e-07  7.77610196e-01  3.54068664e-07  1.10565569e+00  3.54068664e-07  1.80000000e+00  3.54068664e-07  2.20667069e-06  3.54068664e-07  7.81282387e-01  3.54068664e-07  1.70147428e+00  3.54068664e-07  1.70664885e+00                                 
 5.63279480e-07  8.28176329e-01  5.63279480e-07  7.77609850e-01  5.63279480e-07  8.30905066e-01  5.63279480e-07  1.80000000e+00  5.63279480e-07 -4.02252507e-06  5.63279480e-07  7.81270258e-01  5.63279480e-07  1.70145444e+00  5.63279480e-07  1.70664151e+00                                 
 7.44825836e-07  8.28178329e-01  7.44825836e-07  7.77610195e-01  7.44825836e-07  7.72854927e-01  7.44825836e-07  1.80000000e+00  7.44825836e-07  3.74900754e-06  7.44825836e-07  7.81284570e-01  7.44825836e-07  1.70145934e+00  7.44825836e-07  1.70663521e+00                                 
 8.45620405e-07  8.28176111e-01  8.45620405e-07  7.77609830e-01  8.45620405e-07  7.86897576e-01  8.45620405e-07  1.80000000e+00  8.45620405e-07 -3.56491769e-06  8.45620405e-07  7.81269413e-01  8.45620405e-07  1.70144184e+00  8.45620405e-07  1.70663110e+00                                 
 9.08767471e-07  8.28178585e-01  9.08767471e-07  7.77610218e-01  9.08767471e-07  7.85239984e-01  9.08767471e-07  1.80000000e+00  9.08767471e-07  3.59650562e-06  9.08767471e-07  7.81283864e-01  9.08767471e-07  1.70145179e+00  9.08767471e-07  1.70662755e+00                                 
 9.87442456e-07  8.28176038e-01  9.87442456e-07  7.77609824e-01  9.87442456e-07  7.84962518e-01  9.87442456e-07  1.80000000e+00  9.87442456e-07 -3.54706704e-06  9.87442456e-07  7.81269913e-01  9.87442456e-07  1.70143628e+00  9.87442456e-07  1.70662490e+00                                 
 1.07644892e-06  8.28178567e-01  1.07644892e-06  7.77610230e-01  1.07644892e-06  7.85045465e-01  1.07644892e-06  1.80000000e+00  1.07644892e-06  3.60563795e-06  1.07644892e-06  7.81283835e-01  1.07644892e-06  1.70144469e+00  1.07644892e-06  1.70662055e+00                                 
 1.25446186e-06  8.28176050e-01  1.25446186e-06  7.77609826e-01  1.25446186e-06  7.84970273e-01  1.25446186e-06  1.80000000e+00  1.25446186e-06 -3.54972935e-06  1.25446186e-06  7.81269936e-01  1.25446186e-06  1.70142505e+00  1.25446186e-06  1.70661369e+00                                 
 1.61048774e-06  8.28178562e-01  1.61048774e-06  7.77610236e-01  1.61048774e-06  7.85048371e-01  1.61048774e-06  1.80000000e+00  1.61048774e-06  3.60869044e-06  1.61048774e-06  7.81283832e-01  1.61048774e-06  1.70142219e+00  1.61048774e-06  1.70659811e+00                                 
 2.32253949e-06  8.28176053e-01  2.32253949e-06  7.77609825e-01  2.32253949e-06  7.84974287e-01  2.32253949e-06  1.80000000e+00  2.32253949e-06 -3.55058997e-06  2.32253949e-06  7.81269944e-01  2.32253949e-06  1.70138005e+00  2.32253949e-06  1.70656880e+00                                 
 3.52253949e-06  8.28178560e-01  3.52253949e-06  7.77610235e-01  3.52253949e-06  7.85050058e-01  3.52253949e-06  1.80000000e+00  3.52253949e-06  3.60859456e-06  3.52253949e-06  7.81283827e-01  3.52253949e-06  1.70134160e+00  3.52253949e-06  1.70651772e+00                                 
 4.72253949e-06  8.28176053e-01  4.72253949e-06  7.77609818e-01  4.72253949e-06  7.84975543e-01  4.72253949e-06  1.80000000e+00  4.72253949e-06 -3.55209491e-06  4.72253949e-06  7.81269939e-01  4.72253949e-06  1.70127890e+00  4.72253949e-06  1.70646791e+00                                 
 5.92253949e-06  8.28178559e-01  5.92253949e-06  7.77610230e-01  5.92253949e-06  7.85050389e-01  5.92253949e-06  1.80000000e+00  5.92253949e-06  3.60795778e-06  5.92253949e-06  7.81283818e-01  5.92253949e-06  1.70124040e+00  5.92253949e-06  1.70641680e+00                                 
 6.00100000e-06  8.28176061e-01  6.00100000e-06  7.77609813e-01  6.00100000e-06  7.84978400e-01  6.00100000e-06  1.80000000e+00  6.00100000e-06 -3.55533086e-06  6.00100000e-06  7.81269959e-01  6.00100000e-06  1.70122498e+00  6.00100000e-06  1.70641412e+00                                 
 6.00110000e-06  8.28144681e-01  6.00110000e-06  7.77384294e-01  6.00110000e-06  7.82941478e-01  6.00110000e-06  1.62000000e+00  6.00110000e-06 -9.74675837e-05  6.00110000e-06  7.79438953e-01  6.00110000e-06  1.69967491e+00  6.00110000e-06  1.70639942e+00                                 
 6.00130000e-06  8.28174681e-01  6.00130000e-06  7.77441793e-01  6.00130000e-06  7.83648699e-01  6.00130000e-06  1.26000000e+00  6.00130000e-06  4.59290566e-05  6.00130000e-06  7.79740554e-01  6.00130000e-06  1.69993310e+00  6.00130000e-06  1.70642210e+00                                 
 6.00170000e-06  8.28205411e-01  6.00170000e-06  7.77500604e-01  6.00170000e-06  7.85962463e-01  6.00170000e-06  5.40000000e-01  6.00170000e-06  2.14307283e-01  6.00170000e-06  7.79039844e-01  6.00170000e-06  1.69141312e+00  6.00170000e-06  1.70636225e+00                                 
 6.00200000e-06  8.28171389e-01  6.00200000e-06  7.75249296e-01  6.00200000e-06  8.31224489e-01  6.00200000e-06  0.00000000e+00  6.00200000e-06  1.63828035e+00  6.00200000e-06  7.51622709e-01  6.00200000e-06  1.48595103e+00  6.00200000e-06  1.70554838e+00                                 
 6.00204885e-06  8.28179035e-01  6.00204885e-06  7.75234708e-01  6.00204885e-06  8.29521676e-01  6.00204885e-06  0.00000000e+00  6.00204885e-06  1.74544137e+00  6.00204885e-06  7.51311842e-01  6.00204885e-06  1.42847935e+00  6.00204885e-06  1.70581381e+00                                 
 6.00214654e-06  8.28176587e-01  6.00214654e-06  7.75275701e-01  6.00214654e-06  8.22163011e-01  6.00214654e-06  0.00000000e+00  6.00214654e-06  1.81453864e+00  6.00214654e-06  7.51859591e-01  6.00214654e-06  1.31843620e+00  6.00214654e-06  1.70630779e+00                                 
 6.00231517e-06  8.28175980e-01  6.00231517e-06  7.75827442e-01  6.00231517e-06  8.10174218e-01  6.00231517e-06  0.00000000e+00  6.00231517e-06  1.78976785e+00  6.00231517e-06  7.58476559e-01  6.00231517e-06  1.18083458e+00  6.00231517e-06  1.70648806e+00                                 
 6.00249033e-06  8.28176922e-01  6.00249033e-06  7.76163663e-01  6.00249033e-06  8.06448915e-01  6.00249033e-06  0.00000000e+00  6.00249033e-06  1.80487980e+00  6.00249033e-06  7.62124266e-01  6.00249033e-06  1.08681843e+00  6.00249033e-06  1.70655986e+00                                 
 6.00271766e-06  8.28175403e-01  6.00271766e-06  7.76487045e-01  6.00271766e-06  8.01548649e-01  6.00271766e-06  0.00000000e+00  6.00271766e-06  1.79616955e+00  6.00271766e-06  7.65180429e-01  6.00271766e-06  9.92663357e-01  6.00271766e-06  1.70664558e+00                                 
 6.00298117e-06  8.28177222e-01  6.00298117e-06  7.76884597e-01  6.00298117e-06  7.98678824e-01  6.00298117e-06  0.00000000e+00  6.00298117e-06  1.80214976e+00  6.00298117e-06  7.69011344e-01  6.00298117e-06  9.09188888e-01  6.00298117e-06  1.70671839e+00                                 
 6.00350818e-06  8.28175778e-01  6.00350818e-06  7.77569495e-01  6.00350818e-06  7.90404632e-01  6.00350818e-06  0.00000000e+00  6.00350818e-06  1.79772115e+00  6.00350818e-06  7.75683341e-01  6.00350818e-06  8.11662702e-01  6.00350818e-06  1.70671102e+00                                 
 6.00399811e-06  8.28177769e-01  6.00399811e-06  7.78043025e-01  6.00399811e-06  7.85985390e-01  6.00399811e-06  0.00000000e+00  6.00399811e-06  1.80181260e+00  6.00399811e-06  7.80697043e-01  6.00399811e-06  7.89715884e-01  6.00399811e-06  1.70652269e+00                                 
 6.00441417e-06  8.28176156e-01  6.00441417e-06  7.78069861e-01  6.00441417e-06  7.85628159e-01  6.00441417e-06  0.00000000e+00  6.00441417e-06  1.79856259e+00  6.00441417e-06  7.80933523e-01  6.00441417e-06  7.85935076e-01  6.00441417e-06  1.70619947e+00                                 
 6.00498044e-06  8.28178040e-01  6.00498044e-06  7.78107080e-01  6.00498044e-06  7.85415150e-01  6.00498044e-06  0.00000000e+00  6.00498044e-06  1.80123041e+00  6.00498044e-06  7.82017946e-01  6.00498044e-06  7.85890841e-01  6.00498044e-06  1.70562921e+00                                 
 6.00569913e-06  8.28176394e-01  6.00569913e-06  7.77983581e-01  6.00569913e-06  7.86178694e-01  6.00569913e-06  0.00000000e+00  6.00569913e-06  1.79892477e+00  6.00569913e-06  7.81564465e-01  6.00569913e-06  7.85620209e-01  6.00569913e-06  1.70476643e+00                                 
 6.00713650e-06  8.28178155e-01  6.00713650e-06  7.77892041e-01  6.00713650e-06  7.87190344e-01  6.00713650e-06  0.00000000e+00  6.00713650e-06  1.80101614e+00  6.00713650e-06  7.82252312e-01  6.00713650e-06  7.87412658e-01  6.00713650e-06  1.70289208e+00                                 
 6.01001126e-06  8.28176455e-01  6.01001126e-06  7.77707130e-01  6.01001126e-06  7.90320995e-01  6.01001126e-06  0.00000000e+00  6.01001126e-06  1.79902369e+00  6.01001126e-06  7.81788595e-01  6.01001126e-06  7.89691211e-01  6.01001126e-06  1.69895965e+00                                 
 6.01576078e-06  8.28178151e-01  6.01576078e-06  7.77654954e-01  6.01576078e-06  7.96353131e-01  6.01576078e-06  0.00000000e+00  6.01576078e-06  1.80096891e+00  6.01576078e-06  7.82262215e-01  6.01576078e-06  7.96515192e-01  6.01576078e-06  1.69113466e+00                                 
 6.02725980e-06  8.28176461e-01  6.02725980e-06  7.77577207e-01  6.02725980e-06  8.09291315e-01  6.02725980e-06  0.00000000e+00  6.02725980e-06  1.79904684e+00  6.02725980e-06  7.81544273e-01  6.02725980e-06  8.08553018e-01  6.02725980e-06  1.67545046e+00                                 
 6.04816950e-06  8.28178150e-01  6.04816950e-06  7.77629705e-01  6.04816950e-06  8.31062450e-01  6.04816950e-06  0.00000000e+00  6.04816950e-06  1.80095671e+00  6.04816950e-06  7.81844168e-01  6.04816950e-06  8.31302524e-01  6.04816950e-06  1.64575195e+00                                 
 6.08998888e-06  8.28176461e-01  6.08998888e-06  7.77587022e-01  6.08998888e-06  8.71329002e-01  6.08998888e-06  0.00000000e+00  6.08998888e-06  1.79905213e+00  6.08998888e-06  7.81098229e-01  6.08998888e-06  8.70014740e-01  6.08998888e-06  1.58356387e+00                                 
