 time            v(vbep)         time            v(vben)         time            v(vout)         time            v(vphi1)        time            v(vphi2)        time            v(vref)         yes             currtemp       
 0.00000000e+00  5.85146789e-01  0.00000000e+00  5.22372539e-01  0.00000000e+00  1.39182177e-01  0.00000000e+00  0.00000000e+00  0.00000000e+00  1.79997662e+00  0.00000000e+00  5.00000000e-01  1.00000000e+00  7.10000000e+01 
 5.00000000e-12  5.85129763e-01  5.00000000e-12  5.22358385e-01  5.00000000e-12  1.39739820e-01  5.00000000e-12  1.80000000e-02  5.00000000e-12  1.80006733e+00  5.00000000e-12  5.00000000e-01                                 
 1.00000000e-11  5.85112954e-01  1.00000000e-11  5.22344518e-01  1.00000000e-11  1.40240972e-01  1.00000000e-11  3.60000000e-02  1.00000000e-11  1.80011223e+00  1.00000000e-11  5.00000000e-01                                 
 2.00000000e-11  5.85079447e-01  2.00000000e-11  5.22316859e-01  2.00000000e-11  1.41158337e-01  2.00000000e-11  7.20000000e-02  2.00000000e-11  1.80015192e+00  2.00000000e-11  5.00000000e-01                                 
 4.00000000e-11  5.85012631e-01  4.00000000e-11  5.22261676e-01  4.00000000e-11  1.42605801e-01  4.00000000e-11  1.44000000e-01  4.00000000e-11  1.80012415e+00  4.00000000e-11  5.00000000e-01                                 
 8.00000000e-11  5.84879378e-01  8.00000000e-11  5.22151582e-01  8.00000000e-11  1.44579604e-01  8.00000000e-11  2.88000000e-01  8.00000000e-11  1.80007437e+00  8.00000000e-11  5.00000000e-01                                 
 1.60000000e-10  5.84614451e-01  1.60000000e-10  5.21932474e-01  1.60000000e-10  1.47024255e-01  1.60000000e-10  5.76000000e-01  1.60000000e-10  1.80003195e+00  1.60000000e-10  5.00000000e-01                                 
 3.20000000e-10  5.84090711e-01  3.20000000e-10  5.21498492e-01  3.20000000e-10  1.73530128e-01  3.20000000e-10  1.15200000e+00  3.20000000e-10  1.80020804e+00  3.20000000e-10  5.00000000e-01                                 
 5.00000000e-10  5.83511052e-01  5.00000000e-10  5.21016883e-01  5.00000000e-10  4.77111046e-01  5.00000000e-10  1.80000000e+00  5.00000000e-10  1.32774161e-01  5.00000000e-10  5.00000000e-01                                 
 5.22452556e-10  5.83439527e-01  5.22452556e-10  5.20957353e-01  5.22452556e-10  5.40455428e-01  5.22452556e-10  1.80000000e+00  5.22452556e-10  2.76032930e-02  5.22452556e-10  5.00000000e-01                                 
 5.67357668e-10  5.83296782e-01  5.67357668e-10  5.20838506e-01  5.67357668e-10  6.57047161e-01  5.67357668e-10  1.80000000e+00  5.67357668e-10 -1.26862663e-02  5.67357668e-10  5.00000000e-01                                 
 6.57167892e-10  5.83013126e-01  6.57167892e-10  5.20602096e-01  6.57167892e-10  8.40888307e-01  6.57167892e-10  1.80000000e+00  6.57167892e-10  1.03936198e-02  6.57167892e-10  5.00000000e-01                                 
 7.79996242e-10  5.82629052e-01  7.79996242e-10  5.20281486e-01  7.79996242e-10  1.02964428e+00  7.79996242e-10  1.80000000e+00  7.79996242e-10 -8.83766034e-03  7.79996242e-10  5.00000000e-01                                 
 9.76396250e-10  5.82023906e-01  9.76396250e-10  5.19775164e-01  9.76396250e-10  1.26456994e+00  9.76396250e-10  1.80000000e+00  9.76396250e-10  8.23188214e-03  9.76396250e-10  5.00000000e-01                                 
 1.29897491e-09  5.81052985e-01  1.29897491e-09  5.18959847e-01  1.29897491e-09  1.53927665e+00  1.29897491e-09  1.80000000e+00  1.29897491e-09 -7.67553556e-03  1.29897491e-09  5.00000000e-01                                 
 1.91194953e-09  5.79281430e-01  1.91194953e-09  5.17463090e-01  1.91194953e-09  1.77388220e+00  1.91194953e-09  1.80000000e+00  1.91194953e-09  7.58126663e-03  1.91194953e-09  5.00000000e-01                                 
 2.18553916e-09  5.78520306e-01  2.18553916e-09  5.16816349e-01  2.18553916e-09  1.80269835e+00  2.18553916e-09  1.80000000e+00  2.18553916e-09 -7.02856352e-03  2.18553916e-09  5.00000000e-01                                 
 2.51031297e-09  5.77638662e-01  2.51031297e-09  5.16064554e-01  2.51031297e-09  1.81729659e+00  2.51031297e-09  1.80000000e+00  2.51031297e-09  6.74977523e-03  2.51031297e-09  5.00000000e-01                                 
 2.87679776e-09  5.76670883e-01  2.87679776e-09  5.15236091e-01  2.87679776e-09  1.82348805e+00  2.87679776e-09  1.80000000e+00  2.87679776e-09 -6.37992681e-03  2.87679776e-09  5.00000000e-01                                 
 3.60976734e-09  5.74814736e-01  3.60976734e-09  5.13638084e-01  3.60976734e-09  1.82552062e+00  3.60976734e-09  1.80000000e+00  3.60976734e-09  6.29588351e-03  3.60976734e-09  5.00000000e-01                                 
 4.37652983e-09  5.72977413e-01  4.37652983e-09  5.12044676e-01  4.37652983e-09  1.82399743e+00  4.37652983e-09  1.80000000e+00  4.37652983e-09 -6.10622176e-03  4.37652983e-09  5.00000000e-01                                 
 5.91005482e-09  5.69575274e-01  5.91005482e-09  5.09066133e-01  5.91005482e-09  1.82051244e+00  5.91005482e-09  1.80000000e+00  5.91005482e-09  6.09506156e-03  5.91005482e-09  5.00000000e-01                                 
 8.31022871e-09  5.64846925e-01  8.31022871e-09  5.04870156e-01  8.31022871e-09  1.81411072e+00  8.31022871e-09  1.80000000e+00  8.31022871e-09 -5.99626857e-03  8.31022871e-09  5.00000000e-01                                 
 9.86238793e-09  5.62112170e-01  9.86238793e-09  5.02414074e-01  9.86238793e-09  1.81025061e+00  9.86238793e-09  1.80000000e+00  9.86238793e-09  5.98088538e-03  9.86238793e-09  5.00000000e-01                                 
 1.12962201e-08  5.59768728e-01  1.12962201e-08  5.00294257e-01  1.12962201e-08  1.80697330e+00  1.12962201e-08  1.80000000e+00  1.12962201e-08 -5.86784272e-03  1.12962201e-08  5.00000000e-01                                 
 1.28190333e-08  5.57446559e-01  1.28190333e-08  4.98180676e-01  1.28190333e-08  1.80368412e+00  1.28190333e-08  1.80000000e+00  1.28190333e-08  5.84434778e-03  1.28190333e-08  5.00000000e-01                                 
 1.44491852e-08  5.55128311e-01  1.44491852e-08  4.96058256e-01  1.44491852e-08  1.80025790e+00  1.44491852e-08  1.80000000e+00  1.44491852e-08 -5.74637580e-03  1.44491852e-08  5.00000000e-01                                 
 1.60416298e-08  5.53012569e-01  1.60416298e-08  4.94110653e-01  1.60416298e-08  1.79714180e+00  1.60416298e-08  1.80000000e+00  1.60416298e-08  5.72339543e-03  1.60416298e-08  5.00000000e-01                                 
 1.80369331e-08  5.50545247e-01  1.80369331e-08  4.91826894e-01  1.80369331e-08  1.79322151e+00  1.80369331e-08  1.80000000e+00  1.80369331e-08 -5.63968547e-03  1.80369331e-08  5.00000000e-01                                 
 2.06215672e-08  5.47616499e-01  2.06215672e-08  4.89098414e-01  2.06215672e-08  1.78835448e+00  2.06215672e-08  1.80000000e+00  2.06215672e-08  5.63890394e-03  2.06215672e-08  5.00000000e-01                                 
 2.39988701e-08  5.44179537e-01  2.39988701e-08  4.85871422e-01  2.39988701e-08  1.78219111e+00  2.39988701e-08  1.80000000e+00  2.39988701e-08 -5.57595917e-03  2.39988701e-08  5.00000000e-01                                 
 2.90740930e-08  5.39684898e-01  2.90740930e-08  4.81610061e-01  2.90740930e-08  1.77360493e+00  2.90740930e-08  1.80000000e+00  2.90740930e-08  5.59281325e-03  2.90740930e-08  5.00000000e-01                                 
 3.75296182e-08  5.33475775e-01  3.75296182e-08  4.75653179e-01  3.75296182e-08  1.76018893e+00  3.75296182e-08  1.80000000e+00  3.75296182e-08 -5.54663208e-03  3.75296182e-08  5.00000000e-01                                 
 5.44406686e-08  5.23854408e-01  5.44406686e-08  4.66315345e-01  5.44406686e-08  1.73509675e+00  5.44406686e-08  1.80000000e+00  5.44406686e-08  5.57653361e-03  5.44406686e-08  5.00000000e-01                                 
 8.53608818e-08  5.11380937e-01  8.53608818e-08  4.54082034e-01  8.53608818e-08  1.69309509e+00  8.53608818e-08  1.80000000e+00  8.53608818e-08 -5.53808517e-03  8.53608818e-08  5.00000000e-01                                 
 1.30852789e-07  4.96268535e-01  1.30852789e-07  4.39680165e-01  1.30852789e-07  1.63377398e+00  1.30852789e-07  1.80000000e+00  1.30852789e-07  5.57161532e-03  1.30852789e-07  5.00000000e-01                                 
 1.80528570e-07  4.80374181e-01  1.80528570e-07  4.25195950e-01  1.80528570e-07  1.56849007e+00  1.80528570e-07  1.80000000e+00  1.80528570e-07 -5.53421563e-03  1.80528570e-07  5.00000000e-01                                 
 2.52617538e-07  4.60240649e-01  2.52617538e-07  4.07266151e-01  2.52617538e-07  1.47482572e+00  2.52617538e-07  1.80000000e+00  2.52617538e-07  5.56854555e-03  2.52617538e-07  5.00000000e-01                                 
 3.30687456e-07  4.38956396e-01  3.30687456e-07  3.88917791e-01  3.30687456e-07  1.37235611e+00  3.30687456e-07  1.80000000e+00  3.30687456e-07 -5.53175485e-03  3.30687456e-07  5.00000000e-01                                 
 4.78201543e-07  3.92370287e-01  4.78201543e-07  3.50284661e-01  4.78201543e-07  1.17232440e+00  4.78201543e-07  1.80000000e+00  4.78201543e-07  5.56671964e-03  4.78201543e-07  5.00000000e-01                                 
 4.99839187e-07  3.84269968e-01  4.99839187e-07  3.43714226e-01  4.99839187e-07  1.14200427e+00  4.99839187e-07  1.80000000e+00  4.99839187e-07  6.18034775e-06  4.99839187e-07  5.00000000e-01                                 
 5.43114475e-07  3.68552397e-01  5.43114475e-07  3.30986583e-01  5.43114475e-07  1.08295225e+00  5.43114475e-07  1.80000000e+00  5.43114475e-07  4.02859538e-06  5.43114475e-07  5.00000000e-01                                 
 5.98838128e-07  3.70036824e-01  5.98838128e-07  3.32072756e-01  5.98838128e-07  1.03171088e+00  5.98838128e-07  1.80000000e+00  5.98838128e-07  6.56605337e-06  5.98838128e-07  5.00000000e-01                                 
 6.11812823e-07  3.81711002e-01  6.11812823e-07  3.41405823e-01  6.11812823e-07  1.03104798e+00  6.11812823e-07  1.80000000e+00  6.11812823e-07  5.73049934e-06  6.11812823e-07  5.00000000e-01                                 
 6.37762213e-07  4.32474220e-01  6.37762213e-07  3.81944848e-01  6.37762213e-07  1.05490863e+00  6.37762213e-07  1.80000000e+00  6.37762213e-07  6.81049334e-06  6.37762213e-07  5.00000000e-01                                 
 6.89660994e-07  6.47150258e-01  6.89660994e-07  5.81116260e-01  6.89660994e-07  1.20855925e+00  6.89660994e-07  1.80000000e+00  6.89660994e-07  8.94724481e-06  6.89660994e-07  5.00000000e-01                                 
 7.21009655e-07  6.91940836e-01  7.21009655e-07  6.25734707e-01  7.21009655e-07  1.22025898e+00  7.21009655e-07  1.80000000e+00  7.21009655e-07  4.11964847e-06  7.21009655e-07  5.00000000e-01                                 
 7.51835854e-07  7.13313319e-01  7.51835854e-07  6.44725313e-01  7.51835854e-07  1.20644322e+00  7.51835854e-07  1.80000000e+00  7.51835854e-07  7.39441299e-06  7.51835854e-07  5.00000000e-01                                 
 7.84452852e-07  7.25634230e-01  7.84452852e-07  6.55481847e-01  7.84452852e-07  1.18540635e+00  7.84452852e-07  1.80000000e+00  7.84452852e-07  3.92389323e-06  7.84452852e-07  5.00000000e-01                                 
 8.20729761e-07  7.30898570e-01  8.20729761e-07  6.59784574e-01  8.20729761e-07  1.15078174e+00  8.20729761e-07  1.80000000e+00  8.20729761e-07  6.79533459e-06  8.20729761e-07  5.00000000e-01                                 
 8.76762462e-07  7.34244711e-01  8.76762462e-07  6.62628641e-01  8.76762462e-07  1.09804654e+00  8.76762462e-07  1.80000000e+00  8.76762462e-07  3.92621503e-06  8.76762462e-07  5.00000000e-01                                 
 9.33942522e-07  7.24620365e-01  9.33942522e-07  6.54551546e-01  9.33942522e-07  1.03298887e+00  9.33942522e-07  1.80000000e+00  9.33942522e-07  6.34924926e-06  9.33942522e-07  5.00000000e-01                                 
 1.01324304e-06  7.07627302e-01  1.01324304e-06  6.39905302e-01  1.01324304e-06  9.55601102e-01  1.01324304e-06  1.80000000e+00  1.01324304e-06  3.90919420e-06  1.01324304e-06  5.00000000e-01                                 
 1.09486370e-06  7.19578645e-01  1.09486370e-06  6.50216122e-01  1.09486370e-06  9.09702474e-01  1.09486370e-06  1.80000000e+00  1.09486370e-06  6.86888998e-06  1.09486370e-06  5.00000000e-01                                 
 1.17949529e-06  7.27730527e-01  1.17949529e-06  6.57238234e-01  1.17949529e-06  8.64588699e-01  1.17949529e-06  1.80000000e+00  1.17949529e-06  3.88992264e-06  1.17949529e-06  5.00000000e-01                                 
 1.27172246e-06  7.09389751e-01  1.27172246e-06  6.41346377e-01  1.27172246e-06  7.92301274e-01  1.27172246e-06  1.80000000e+00  1.27172246e-06  6.35063710e-06  1.27172246e-06  5.00000000e-01                                 
 1.36618638e-06  7.19824830e-01  1.36618638e-06  6.50511350e-01  1.36618638e-06  7.48295853e-01  1.36618638e-06  1.80000000e+00  1.36618638e-06  4.40648512e-06  1.36618638e-06  5.00000000e-01                                 
 1.37814561e-06  7.22786886e-01  1.37814561e-06  6.53014512e-01  1.37814561e-06  7.43719480e-01  1.37814561e-06  1.80000000e+00  1.37814561e-06  5.46451317e-06  1.37814561e-06  5.00000000e-01                                 
 1.40206405e-06  7.25839503e-01  1.40206405e-06  6.55605529e-01  1.40206405e-06  7.32832390e-01  1.40206405e-06  1.80000000e+00  1.40206405e-06  5.32410029e-06  1.40206405e-06  5.00000000e-01                                 
 1.44990095e-06  7.19038270e-01  1.44990095e-06  6.49835684e-01  1.44990095e-06  7.00133683e-01  1.44990095e-06  1.80000000e+00  1.44990095e-06  5.03439097e-06  1.44990095e-06  5.00000000e-01                                 
 1.51189071e-06  7.14049592e-01  1.51189071e-06  6.45479747e-01  1.51189071e-06  6.62301068e-01  1.51189071e-06  1.80000000e+00  1.51189071e-06  5.40229068e-06  1.51189071e-06  5.00000000e-01                                 
 1.58119186e-06  7.21587327e-01  1.58119186e-06  6.52001194e-01  1.58119186e-06  6.32609453e-01  1.58119186e-06  1.80000000e+00  1.58119186e-06  5.34561521e-06  1.58119186e-06  5.00000000e-01                                 
 1.68412520e-06  7.19279695e-01  1.68412520e-06  6.50028188e-01  1.68412520e-06  5.78561387e-01  1.68412520e-06  1.80000000e+00  1.68412520e-06  5.19682955e-06  1.68412520e-06  5.00000000e-01                                 
 1.79066524e-06  7.16910586e-01  1.79066524e-06  6.47978535e-01  1.79066524e-06  5.34614224e-01  1.79066524e-06  1.80000000e+00  1.79066524e-06  5.34187055e-06  1.79066524e-06  5.00000000e-01                                 
 1.98216832e-06  7.21248241e-01  1.98216832e-06  6.51711507e-01  1.98216832e-06  4.99246984e-01  1.98216832e-06  1.80000000e+00  1.98216832e-06  5.27144466e-06  1.98216832e-06  5.00000000e-01                                 
 2.14281715e-06  7.17074533e-01  2.14281715e-06  6.48125665e-01  2.14281715e-06  4.90014483e-01  2.14281715e-06  1.80000000e+00  2.14281715e-06  5.26249185e-06  2.14281715e-06  5.00000000e-01                                 
 2.31945353e-06  7.20085275e-01  2.31945353e-06  6.50711245e-01  2.31945353e-06  5.04180256e-01  2.31945353e-06  1.80000000e+00  2.31945353e-06  5.33903445e-06  2.31945353e-06  5.00000000e-01                                 
 2.52410369e-06  7.18696302e-01  2.52410369e-06  6.49528722e-01  2.52410369e-06  5.00445233e-01  2.52410369e-06  1.80000000e+00  2.52410369e-06  5.22293035e-06  2.52410369e-06  5.00000000e-01                                 
 2.77149274e-06  7.18717400e-01  2.77149274e-06  6.49534505e-01  2.77149274e-06  4.98437167e-01  2.77149274e-06  1.80000000e+00  2.77149274e-06  5.35214826e-06  2.77149274e-06  5.00000000e-01                                 
 3.08196195e-06  7.19691376e-01  3.08196195e-06  6.50384288e-01  3.08196195e-06  5.02440085e-01  3.08196195e-06  1.80000000e+00  3.08196195e-06  5.22645990e-06  3.08196195e-06  5.00000000e-01                                 
 3.39851521e-06  7.18029179e-01  3.39851521e-06  6.48941833e-01  3.39851521e-06  4.97775367e-01  3.39851521e-06  1.80000000e+00  3.39851521e-06  5.33943017e-06  3.39851521e-06  5.00000000e-01                                 
 3.82618669e-06  7.20106571e-01  3.82618669e-06  6.50739578e-01  3.82618669e-06  5.02626462e-01  3.82618669e-06  1.80000000e+00  3.82618669e-06  5.24231089e-06  3.82618669e-06  5.00000000e-01                                 
 4.34266642e-06  7.17814895e-01  4.34266642e-06  6.48757772e-01  4.34266642e-06  4.97895050e-01  4.34266642e-06  1.80000000e+00  4.34266642e-06  5.32465642e-06  4.34266642e-06  5.00000000e-01                                 
 5.03864103e-06  7.20195266e-01  5.03864103e-06  6.50814821e-01  5.03864103e-06  5.02484131e-01  5.03864103e-06  1.80000000e+00  5.03864103e-06  5.25486788e-06  5.03864103e-06  5.00000000e-01                                 
 6.02359139e-06  7.17786791e-01  6.02359139e-06  6.48734127e-01  6.02359139e-06  4.98049997e-01  6.02359139e-06  1.80000000e+00  6.02359139e-06  5.31525759e-06  6.02359139e-06  5.00000000e-01                                 
 7.02359139e-06  7.20191072e-01  7.02359139e-06  6.50810715e-01  7.02359139e-06  5.02344347e-01  7.02359139e-06  1.80000000e+00  7.02359139e-06  5.26265002e-06  7.02359139e-06  5.00000000e-01                                 
 8.02359139e-06  7.17811419e-01  8.02359139e-06  6.48755923e-01  8.02359139e-06  4.98205754e-01  8.02359139e-06  1.80000000e+00  8.02359139e-06  5.30757451e-06  8.02359139e-06  5.00000000e-01                                 
 9.02359139e-06  7.20149525e-01  9.02359139e-06  6.50774874e-01  9.02359139e-06  5.02176377e-01  9.02359139e-06  1.80000000e+00  9.02359139e-06  5.27023123e-06  9.02359139e-06  5.00000000e-01                                 
 1.00005000e-05  7.17875441e-01  1.00005000e-05  6.48811932e-01  1.00005000e-05  4.98391379e-01  1.00005000e-05  1.80000000e+00  1.00005000e-05  5.30007357e-06  1.00005000e-05  5.00000000e-01                                 
 1.00005500e-05  7.17876775e-01  1.00005500e-05  6.48813317e-01  1.00005500e-05  4.90845076e-01  1.00005500e-05  1.62000000e+00  1.00005500e-05 -7.92041634e-05  1.00005500e-05  5.00000000e-01                                 
 1.00006500e-05  7.17879645e-01  1.00006500e-05  6.48816001e-01  1.00006500e-05  4.77118510e-01  1.00006500e-05  1.26000000e+00  1.00006500e-05 -6.60758823e-05  1.00006500e-05  5.00000000e-01                                 
 1.00008500e-05  7.17884664e-01  1.00008500e-05  6.48820556e-01  1.00008500e-05  4.74998904e-01  1.00008500e-05  5.40000000e-01  1.00008500e-05  2.62129292e-02  1.00008500e-05  5.00000000e-01                                 
 1.00010000e-05  7.17887565e-01  1.00010000e-05  6.48823299e-01  1.00010000e-05  4.39008111e-01  1.00010000e-05  0.00000000e+00  1.00010000e-05  1.60153627e+00  1.00010000e-05  5.00000000e-01                                 
 1.00010250e-05  7.17887986e-01  1.00010250e-05  6.48823691e-01  1.00010250e-05  4.16476072e-01  1.00010250e-05  0.00000000e+00  1.00010250e-05  1.73321018e+00  1.00010250e-05  5.00000000e-01                                 
 1.00010750e-05  7.17888836e-01  1.00010750e-05  6.48824472e-01  1.00010750e-05  3.76109904e-01  1.00010750e-05  0.00000000e+00  1.00010750e-05  1.81886335e+00  1.00010750e-05  5.00000000e-01                                 
 1.00011750e-05  7.17890524e-01  1.00011750e-05  6.48826002e-01  1.00011750e-05  3.34432909e-01  1.00011750e-05  0.00000000e+00  1.00011750e-05  1.78643347e+00  1.00011750e-05  5.00000000e-01                                 
 1.00013082e-05  7.17892560e-01  1.00013082e-05  6.48827884e-01  1.00013082e-05  3.26184719e-01  1.00013082e-05  0.00000000e+00  1.00013082e-05  1.80876628e+00  1.00013082e-05  5.00000000e-01                                 
