 time            v(vbep)         time            v(vben)         time            v(vout)         time            v(vphi1)        time            v(vphi2)        time            v(vref)         time            v(voutc)        time            v(voutcc)       yes             currtemp       
 0.00000000e+00  8.35954364e-01  0.00000000e+00  7.84756001e-01  0.00000000e+00  1.71676256e+00  0.00000000e+00  0.00000000e+00  0.00000000e+00  1.80000000e+00  0.00000000e+00  7.88558510e-01  0.00000000e+00  1.71676255e+00  0.00000000e+00  1.72189790e+00  1.00000000e+00 -1.00000000e+01 
 5.00000000e-12  8.35974275e-01  5.00000000e-12  7.84808816e-01  5.00000000e-12  1.71741706e+00  5.00000000e-12  1.80000000e-02  5.00000000e-12  1.80018224e+00  5.00000000e-12  7.88954383e-01  5.00000000e-12  1.71711198e+00  5.00000000e-12  1.72191072e+00                                 
 1.00000000e-11  8.35983113e-01  1.00000000e-11  7.84843918e-01  1.00000000e-11  1.71792013e+00  1.00000000e-11  3.60000000e-02  1.00000000e-11  1.80026720e+00  1.00000000e-11  7.89269209e-01  1.00000000e-11  1.71739227e+00  1.00000000e-11  1.72191825e+00                                 
 2.00000000e-11  8.35988985e-01  2.00000000e-11  7.84892822e-01  2.00000000e-11  1.71869365e+00  2.00000000e-11  7.20000000e-02  2.00000000e-11  1.80032573e+00  2.00000000e-11  7.89764997e-01  2.00000000e-11  1.71783982e+00  2.00000000e-11  1.72192653e+00                                 
 4.00000000e-11  8.35977525e-01  4.00000000e-11  7.84928183e-01  4.00000000e-11  1.71936967e+00  4.00000000e-11  1.44000000e-01  4.00000000e-11  1.80020630e+00  4.00000000e-11  7.90254917e-01  4.00000000e-11  1.71831207e+00  4.00000000e-11  1.72192322e+00                                 
 8.00000000e-11  8.35963974e-01  8.00000000e-11  7.84928388e-01  8.00000000e-11  1.71944414e+00  8.00000000e-11  2.88000000e-01  8.00000000e-11  1.80003437e+00  8.00000000e-11  7.90396289e-01  8.00000000e-11  1.71853523e+00  8.00000000e-11  1.72190633e+00                                 
 1.60000000e-10  8.35965328e-01  1.60000000e-10  7.84912417e-01  1.60000000e-10  1.71904399e+00  1.60000000e-10  5.76000000e-01  1.60000000e-10  1.80001910e+00  1.60000000e-10  7.90220672e-01  1.60000000e-10  1.71853137e+00  1.60000000e-10  1.72189880e+00                                 
 3.20000000e-10  8.35907864e-01  3.20000000e-10  7.84487229e-01  3.20000000e-10  1.71380085e+00  3.20000000e-10  1.15200000e+00  3.20000000e-10  1.80059357e+00  3.20000000e-10  7.86216903e-01  3.20000000e-10  1.71517471e+00  3.20000000e-10  1.72186144e+00                                 
 5.00000000e-10  8.36027154e-01  5.00000000e-10  7.84859559e-01  5.00000000e-10  1.70535819e+00  5.00000000e-10  1.80000000e+00  5.00000000e-10  1.28670227e-01  5.00000000e-10  7.89668353e-01  5.00000000e-10  1.71756557e+00  5.00000000e-10  1.72193351e+00                                 
 5.20231685e-10  8.36007376e-01  5.20231685e-10  7.84909963e-01  5.20231685e-10  1.70487294e+00  5.20231685e-10  1.80000000e+00  5.20231685e-10  3.06320710e-02  5.20231685e-10  7.90991944e-01  5.20231685e-10  1.71837496e+00  5.20231685e-10  1.72193510e+00                                 
 5.60695054e-10  8.36014732e-01  5.60695054e-10  7.85006449e-01  5.60695054e-10  1.70507182e+00  5.60695054e-10  1.80000000e+00  5.60695054e-10 -1.19328495e-02  5.60695054e-10  7.92881488e-01  5.60695054e-10  1.72009280e+00  5.60695054e-10  1.72194180e+00                                 
 6.41621792e-10  8.36052044e-01  6.41621792e-10  7.84844845e-01  6.41621792e-10  1.70391703e+00  6.41621792e-10  1.80000000e+00  6.41621792e-10  1.00418074e-02  6.41621792e-10  7.91158593e-01  6.41621792e-10  1.71877619e+00  6.41621792e-10  1.72187016e+00                                 
 7.59266690e-10  8.36084509e-01  7.59266690e-10  7.84824282e-01  7.59266690e-10  1.70322681e+00  7.59266690e-10  1.80000000e+00  7.59266690e-10 -7.94055463e-03  7.59266690e-10  7.91417524e-01  7.59266690e-10  1.71885743e+00  7.59266690e-10  1.72191397e+00                                 
 9.34413444e-10  8.36181060e-01  9.34413444e-10  7.84796109e-01  9.34413444e-10  1.70047584e+00  9.34413444e-10  1.80000000e+00  9.34413444e-10  7.63549627e-03  9.34413444e-10  7.91824602e-01  9.34413444e-10  1.71933576e+00  9.34413444e-10  1.72189089e+00                                 
 1.28470695e-09  8.36244314e-01  1.28470695e-09  7.84750085e-01  1.28470695e-09  1.69450787e+00  1.28470695e-09  1.80000000e+00  1.28470695e-09 -6.95576415e-03  1.28470695e-09  7.91911483e-01  1.28470695e-09  1.71929527e+00  1.28470695e-09  1.72190050e+00                                 
 1.69016922e-09  8.36205066e-01  1.69016922e-09  7.84760026e-01  1.69016922e-09  1.69295654e+00  1.69016922e-09  1.80000000e+00  1.69016922e-09  6.74511346e-03  1.69016922e-09  7.92302228e-01  1.69016922e-09  1.71974558e+00  1.69016922e-09  1.72189548e+00                                 
 2.15085338e-09  8.36094345e-01  2.15085338e-09  7.84734617e-01  2.15085338e-09  1.69285106e+00  2.15085338e-09  1.80000000e+00  2.15085338e-09 -6.45222065e-03  2.15085338e-09  7.91805450e-01  2.15085338e-09  1.71920933e+00  2.15085338e-09  1.72190292e+00                                 
 2.63328341e-09  8.36021119e-01  2.63328341e-09  7.84756704e-01  2.63328341e-09  1.69388246e+00  2.63328341e-09  1.80000000e+00  2.63328341e-09  6.22004972e-03  2.63328341e-09  7.91997186e-01  2.63328341e-09  1.71947783e+00  2.63328341e-09  1.72191325e+00                                 
 3.38563624e-09  8.35942902e-01  3.38563624e-09  7.84735440e-01  3.38563624e-09  1.69443729e+00  3.38563624e-09  1.80000000e+00  3.38563624e-09 -6.06290805e-03  3.38563624e-09  7.91335811e-01  3.38563624e-09  1.71880493e+00  3.38563624e-09  1.72192791e+00                                 
 4.73181063e-09  8.35918095e-01  4.73181063e-09  7.84760596e-01  4.73181063e-09  1.69575698e+00  4.73181063e-09  1.80000000e+00  4.73181063e-09  5.98682467e-03  4.73181063e-09  7.91204527e-01  4.73181063e-09  1.71878724e+00  4.73181063e-09  1.72196805e+00                                 
 7.42415941e-09  8.35917615e-01  7.42415941e-09  7.84741317e-01  7.42415941e-09  1.69559566e+00  7.42415941e-09  1.80000000e+00  7.42415941e-09 -5.93827197e-03  7.42415941e-09  7.89951455e-01  7.42415941e-09  1.71760279e+00  7.42415941e-09  1.72202821e+00                                 
 1.28088570e-08  8.35938728e-01  1.28088570e-08  7.84766585e-01  1.28088570e-08  1.69333142e+00  1.28088570e-08  1.80000000e+00  1.28088570e-08  5.92977489e-03  1.28088570e-08  7.89159056e-01  1.28088570e-08  1.71701151e+00  1.28088570e-08  1.72210284e+00                                 
 1.80644410e-08  8.35938966e-01  1.80644410e-08  7.84744765e-01  1.80644410e-08  1.68838075e+00  1.80644410e-08  1.80000000e+00  1.80644410e-08 -5.89362918e-03  1.80644410e-08  7.88241266e-01  1.80644410e-08  1.71612157e+00  1.80644410e-08  1.72209360e+00                                 
 2.34840329e-08  8.35951973e-01  2.34840329e-08  7.84767299e-01  2.34840329e-08  1.68264121e+00  2.34840329e-08  1.80000000e+00  2.34840329e-08  5.89145256e-03  2.34840329e-08  7.88396879e-01  2.34840329e-08  1.71635110e+00  2.34840329e-08  1.72205652e+00                                 
 2.88711120e-08  8.35946098e-01  2.88711120e-08  7.84744729e-01  2.88711120e-08  1.67558541e+00  2.88711120e-08  1.80000000e+00  2.88711120e-08 -5.85191599e-03  2.88711120e-08  7.87947775e-01  2.88711120e-08  1.71586468e+00  2.88711120e-08  1.72199562e+00                                 
 3.63585274e-08  8.35953156e-01  3.63585274e-08  7.84767352e-01  3.63585274e-08  1.66639899e+00  3.63585274e-08  1.80000000e+00  3.63585274e-08  5.86014333e-03  3.63585274e-08  7.88334909e-01  3.63585274e-08  1.71629129e+00  3.63585274e-08  1.72192483e+00                                 
 4.55070200e-08  8.35950875e-01  4.55070200e-08  7.84744707e-01  4.55070200e-08  1.65293748e+00  4.55070200e-08  1.80000000e+00  4.55070200e-08 -5.82437454e-03  4.55070200e-08  7.88015191e-01  4.55070200e-08  1.71591547e+00  4.55070200e-08  1.72183599e+00                                 
 5.92466459e-08  8.35958214e-01  5.92466459e-08  7.84767370e-01  5.92466459e-08  1.63168352e+00  5.92466459e-08  1.80000000e+00  5.92466459e-08  5.84175514e-03  5.92466459e-08  7.88491878e-01  5.92466459e-08  1.71641852e+00  5.92466459e-08  1.72174646e+00                                 
 7.87722725e-08  8.35952711e-01  7.87722725e-08  7.84744667e-01  7.87722725e-08  1.59860185e+00  7.87722725e-08  1.80000000e+00  7.87722725e-08 -5.81111692e-03  7.87722725e-08  7.88212430e-01  7.87722725e-08  1.71607811e+00  7.87722725e-08  1.72165192e+00                                 
 1.09921606e-07  8.35957484e-01  1.09921606e-07  7.84767349e-01  1.09921606e-07  1.54532018e+00  1.09921606e-07  1.80000000e+00  1.09921606e-07  5.83296056e-03  1.09921606e-07  7.88679848e-01  1.09921606e-07  1.71657463e+00  1.09921606e-07  1.72158765e+00                                 
 1.57710099e-07  8.35951841e-01  1.57710099e-07  7.84744640e-01  1.57710099e-07  1.46202440e+00  1.57710099e-07  1.80000000e+00  1.57710099e-07 -5.80556727e-03  1.57710099e-07  7.88351341e-01  1.57710099e-07  1.71619350e+00  1.57710099e-07  1.72154833e+00                                 
 2.53287084e-07  8.35957032e-01  2.53287084e-07  7.84767345e-01  2.53287084e-07  1.29802565e+00  2.53287084e-07  1.80000000e+00  2.53287084e-07  5.82964521e-03  2.53287084e-07  7.88749765e-01  2.53287084e-07  1.71662935e+00  2.53287084e-07  1.72155160e+00                                 
 4.32531888e-07  8.35951700e-01  4.32531888e-07  7.84744635e-01  4.32531888e-07  9.98761458e-01  4.32531888e-07  1.80000000e+00  4.32531888e-07 -5.80367094e-03  4.32531888e-07  7.88367892e-01  4.32531888e-07  1.71619600e+00  4.32531888e-07  1.72154638e+00                                 
 6.39942436e-07  8.35957037e-01  6.39942436e-07  7.84767347e-01  6.39942436e-07  8.01020507e-01  6.39942436e-07  1.80000000e+00  6.39942436e-07  5.82940536e-03  6.39942436e-07  7.88748159e-01  6.39942436e-07  1.71661027e+00  6.39942436e-07  1.72154132e+00                                 
 7.55212711e-07  8.35951745e-01  7.55212711e-07  7.84744643e-01  7.55212711e-07  7.89975179e-01  7.55212711e-07  1.80000000e+00  7.55212711e-07 -5.80191604e-03  7.55212711e-07  7.88370254e-01  7.55212711e-07  1.71618342e+00  7.55212711e-07  1.72153092e+00                                 
 8.63491914e-07  8.35956843e-01  8.63491914e-07  7.84767325e-01  8.63491914e-07  7.93374261e-01  8.63491914e-07  1.80000000e+00  8.63491914e-07  5.82758011e-03  8.63491914e-07  7.88746770e-01  8.63491914e-07  1.71659916e+00  8.63491914e-07  1.72153217e+00                                 
 9.70219674e-07  8.35951966e-01  9.70219674e-07  7.84744669e-01  9.70219674e-07  7.91887770e-01  9.70219674e-07  1.80000000e+00  9.70219674e-07 -5.79996239e-03  9.70219674e-07  7.88369839e-01  9.70219674e-07  1.71617354e+00  9.70219674e-07  1.72152079e+00                                 
 1.07418305e-06  8.35956722e-01  1.07418305e-06  7.84767305e-01  1.07418305e-06  7.92806486e-01  1.07418305e-06  1.80000000e+00  1.07418305e-06  5.82562771e-03  1.07418305e-06  7.88747185e-01  1.07418305e-06  1.71659017e+00  1.07418305e-06  1.72152276e+00                                 
 1.22101798e-06  8.35952019e-01  1.22101798e-06  7.84744683e-01  1.22101798e-06  7.92124073e-01  1.22101798e-06  1.80000000e+00  1.22101798e-06 -5.79821647e-03  1.22101798e-06  7.88369600e-01  1.22101798e-06  1.71616224e+00  1.22101798e-06  1.72150977e+00                                 
 1.43708537e-06  8.35956706e-01  1.43708537e-06  7.84767296e-01  1.43708537e-06  7.92711105e-01  1.43708537e-06  1.80000000e+00  1.43708537e-06  5.82443601e-03  1.43708537e-06  7.88747296e-01  1.43708537e-06  1.71657418e+00  1.43708537e-06  1.72150672e+00                                 
 1.81978942e-06  8.35952023e-01  1.81978942e-06  7.84744689e-01  1.81978942e-06  7.92169855e-01  1.81978942e-06  1.80000000e+00  1.81978942e-06 -5.79737420e-03  1.81978942e-06  7.88369547e-01  1.81978942e-06  1.71613568e+00  1.81978942e-06  1.72148333e+00                                 
 2.58519752e-06  8.35956705e-01  2.58519752e-06  7.84767293e-01  2.58519752e-06  7.92690043e-01  2.58519752e-06  1.80000000e+00  2.58519752e-06  5.82399094e-03  2.58519752e-06  7.88747320e-01  2.58519752e-06  1.71652336e+00  2.58519752e-06  1.72145603e+00                                 
 3.58519752e-06  8.35952023e-01  3.58519752e-06  7.84744690e-01  3.58519752e-06  7.92181177e-01  3.58519752e-06  1.80000000e+00  3.58519752e-06 -5.79727265e-03  3.58519752e-06  7.88369535e-01  3.58519752e-06  1.71605752e+00  3.58519752e-06  1.72140544e+00                                 
 4.58519752e-06  8.35956706e-01  4.58519752e-06  7.84767293e-01  4.58519752e-06  7.92680795e-01  4.58519752e-06  1.80000000e+00  4.58519752e-06  5.82385028e-03  4.58519752e-06  7.88747331e-01  4.58519752e-06  1.71643483e+00  4.58519752e-06  1.72136777e+00                                 
 5.58519752e-06  8.35952022e-01  5.58519752e-06  7.84744691e-01  5.58519752e-06  7.92189999e-01  5.58519752e-06  1.80000000e+00  5.58519752e-06 -5.79712131e-03  5.58519752e-06  7.88369525e-01  5.58519752e-06  1.71596896e+00  5.58519752e-06  1.72131717e+00                                 
 6.58519752e-06  8.35956707e-01  6.58519752e-06  7.84767292e-01  6.58519752e-06  7.92672410e-01  6.58519752e-06  1.80000000e+00  6.58519752e-06  5.82364585e-03  6.58519752e-06  7.88747340e-01  6.58519752e-06  1.71634630e+00  6.58519752e-06  1.72127951e+00                                 
 7.58519752e-06  8.35952021e-01  7.58519752e-06  7.84744692e-01  7.58519752e-06  7.92198003e-01  7.58519752e-06  1.80000000e+00  7.58519752e-06 -5.79691884e-03  7.58519752e-06  7.88369517e-01  7.58519752e-06  1.71588042e+00  7.58519752e-06  1.72122892e+00                                 
 8.58519752e-06  8.35956708e-01  8.58519752e-06  7.84767290e-01  8.58519752e-06  7.92664803e-01  8.58519752e-06  1.80000000e+00  8.58519752e-06  5.82344145e-03  8.58519752e-06  7.88747349e-01  8.58519752e-06  1.71625773e+00  8.58519752e-06  1.72119121e+00                                 
 9.58519752e-06  8.35952020e-01  9.58519752e-06  7.84744693e-01  9.58519752e-06  7.92205267e-01  9.58519752e-06  1.80000000e+00  9.58519752e-06 -5.79671641e-03  9.58519752e-06  7.88369509e-01  9.58519752e-06  1.71579180e+00  9.58519752e-06  1.72114058e+00                                 
 1.00005000e-05  8.35956710e-01  1.00005000e-05  7.84767288e-01  1.00005000e-05  7.92653407e-01  1.00005000e-05  1.80000000e+00  1.00005000e-05  5.82310184e-03  1.00005000e-05  7.88747359e-01  1.00005000e-05  1.71619503e+00  1.00005000e-05  1.72112870e+00                                 
 1.00005500e-05  8.35926513e-01  1.00005500e-05  7.84574381e-01  1.00005500e-05  7.90624236e-01  1.00005500e-05  1.62000000e+00  1.00005500e-05  3.90583296e-04  1.00005500e-05  7.86921949e-01  1.00005500e-05  1.71456718e+00  1.00005500e-05  1.72110282e+00                                 
 1.00006500e-05  8.35951265e-01  1.00006500e-05  7.84594143e-01  1.00006500e-05  7.90971017e-01  1.00006500e-05  1.26000000e+00  1.00006500e-05 -3.54577732e-04  1.00006500e-05  7.86872133e-01  1.00006500e-05  1.71451886e+00  1.00006500e-05  1.72112988e+00                                 
 1.00008500e-05  8.35974181e-01  1.00008500e-05  7.84876503e-01  1.00008500e-05  7.93885907e-01  1.00008500e-05  5.40000000e-01  1.00008500e-05  8.85059627e-05  1.00008500e-05  7.89578168e-01  1.00008500e-05  1.71670447e+00  1.00008500e-05  1.72114062e+00                                 
 1.00010000e-05  8.35950745e-01  1.00010000e-05  7.83336345e-01  1.00010000e-05  8.16328820e-01  1.00010000e-05  0.00000000e+00  1.00010000e-05  1.46772288e+00  1.00010000e-05  7.69312305e-01  1.00010000e-05  1.64582372e+00  1.00010000e-05  1.72038699e+00                                 
 1.00010276e-05  8.35965058e-01  1.00010276e-05  7.83054616e-01  1.00010276e-05  8.24925116e-01  1.00010276e-05  0.00000000e+00  1.00010276e-05  1.68188320e+00  1.00010276e-05  7.65219274e-01  1.00010276e-05  1.61797267e+00  1.00010276e-05  1.72027582e+00                                 
 1.00010827e-05  8.35955604e-01  1.00010827e-05  7.82668504e-01  1.00010827e-05  8.30394467e-01  1.00010827e-05  0.00000000e+00  1.00010827e-05  1.82656901e+00  1.00010827e-05  7.60003624e-01  1.00010827e-05  1.56106449e+00  1.00010827e-05  1.72027066e+00                                 
 1.00011931e-05  8.35949667e-01  1.00011931e-05  7.82844595e-01  1.00011931e-05  8.19489488e-01  1.00011931e-05  0.00000000e+00  1.00011931e-05  1.78335266e+00  1.00011931e-05  7.62275662e-01  1.00011931e-05  1.46648108e+00  1.00011931e-05  1.72080844e+00                                 
 1.00013471e-05  8.35959184e-01  1.00013471e-05  7.83414596e-01  1.00013471e-05  8.15389818e-01  1.00013471e-05  0.00000000e+00  1.00013471e-05  1.80998582e+00  1.00013471e-05  7.69394656e-01  1.00013471e-05  1.36885375e+00  1.00013471e-05  1.72113528e+00                                 
 1.00015719e-05  8.35948967e-01  1.00015719e-05  7.83741321e-01  1.00015719e-05  8.08584741e-01  1.00015719e-05  0.00000000e+00  1.00015719e-05  1.79182572e+00  1.00015719e-05  7.73051468e-01  1.00015719e-05  1.25732448e+00  1.00015719e-05  1.72123168e+00                                 
 1.00020214e-05  8.35958964e-01  1.00020214e-05  7.84353390e-01  1.00020214e-05  8.03120350e-01  1.00020214e-05  0.00000000e+00  1.00020214e-05  1.80662142e+00  1.00020214e-05  7.79341173e-01  1.00020214e-05  1.11419951e+00  1.00020214e-05  1.72139264e+00                                 
 1.00026748e-05  8.35949312e-01  1.00026748e-05  7.84637839e-01  1.00026748e-05  7.99428034e-01  1.00026748e-05  0.00000000e+00  1.00026748e-05  1.79376177e+00  1.00026748e-05  7.81553925e-01  1.00026748e-05  9.81536891e-01  1.00026748e-05  1.72130299e+00                                 
 1.00032862e-05  8.35958962e-01  1.00032862e-05  7.84906645e-01  1.00032862e-05  7.97668460e-01  1.00032862e-05  0.00000000e+00  1.00032862e-05  1.80536130e+00  1.00032862e-05  7.84534893e-01  1.00032862e-05  9.00033518e-01  1.00032862e-05  1.72102177e+00                                 
 1.00041704e-05  8.35949684e-01  1.00041704e-05  7.84978055e-01  1.00041704e-05  7.95732073e-01  1.00041704e-05  0.00000000e+00  1.00041704e-05  1.79483842e+00  1.00041704e-05  7.85982891e-01  1.00041704e-05  8.23983706e-01  1.00041704e-05  1.72033724e+00                                 
 1.00052514e-05  8.35958884e-01  1.00052514e-05  7.85147576e-01  1.00052514e-05  7.93688257e-01  1.00052514e-05  0.00000000e+00  1.00052514e-05  1.80473401e+00  1.00052514e-05  7.89423423e-01  1.00052514e-05  7.97711245e-01  1.00052514e-05  1.71934186e+00                                 
 1.00060930e-05  8.35949907e-01  1.00060930e-05  7.84979820e-01  1.00060930e-05  7.94901236e-01  1.00060930e-05  0.00000000e+00  1.00060930e-05  1.79558659e+00  1.00060930e-05  7.88482394e-01  1.00060930e-05  7.94110536e-01  1.00060930e-05  1.71836702e+00                                 
 1.00073421e-05  8.35958723e-01  1.00073421e-05  7.84984041e-01  1.00073421e-05  7.95226459e-01  1.00073421e-05  0.00000000e+00  1.00073421e-05  1.80412116e+00  1.00073421e-05  7.89854563e-01  1.00073421e-05  7.95683786e-01  1.00073421e-05  1.71686904e+00                                 
 1.00087305e-05  8.35950060e-01  1.00087305e-05  7.84823191e-01  1.00087305e-05  7.97367021e-01  1.00087305e-05  0.00000000e+00  1.00087305e-05  1.79604176e+00  1.00087305e-05  7.88765852e-01  1.00087305e-05  7.95942207e-01  1.00087305e-05  1.71509916e+00                                 
 1.00115073e-05  8.35958627e-01  1.00115073e-05  7.84846761e-01  1.00115073e-05  7.99534861e-01  1.00115073e-05  0.00000000e+00  1.00115073e-05  1.80381592e+00  1.00115073e-05  7.89841514e-01  1.00115073e-05  7.99823350e-01  1.00115073e-05  1.71163354e+00                                 
