 time            v(vbep)         time            v(vben)         time            v(vout)         time            v(vphi1)        time            v(vphi2)        time            v(vref)         time            v(voutc)        time            v(voutcc)       yes             currtemp       
 0.00000000e+00  8.41220403e-01  0.00000000e+00  7.92508754e-01  0.00000000e+00  1.73699052e+00  0.00000000e+00  0.00000000e+00  0.00000000e+00  1.80000000e+00  0.00000000e+00  7.96423360e-01  0.00000000e+00  1.73699051e+00  0.00000000e+00  1.74181115e+00  1.00000000e+00 -1.90000000e+01 
 1.00000000e-11  8.41241851e-01  1.00000000e-11  7.92574276e-01  1.00000000e-11  1.73781838e+00  1.00000000e-11  1.80000000e-02  1.00000000e-11  1.80024267e+00  1.00000000e-11  7.96937974e-01  1.00000000e-11  1.73744745e+00  1.00000000e-11  1.74182173e+00                                 
 2.00000000e-11  8.41247908e-01  2.00000000e-11  7.92615704e-01  2.00000000e-11  1.73838589e+00  2.00000000e-11  3.60000000e-02  2.00000000e-11  1.80034528e+00  2.00000000e-11  7.97328355e-01  2.00000000e-11  1.73780774e+00  2.00000000e-11  1.74182624e+00                                 
 4.00000000e-11  8.41247938e-01  4.00000000e-11  7.92670038e-01  4.00000000e-11  1.73915527e+00  4.00000000e-11  7.20000000e-02  4.00000000e-11  1.80039519e+00  4.00000000e-11  7.97908530e-01  4.00000000e-11  1.73836832e+00  4.00000000e-11  1.74182815e+00                                 
 8.00000000e-11  8.41237090e-01  8.00000000e-11  7.92702126e-01  8.00000000e-11  1.73956265e+00  8.00000000e-11  1.44000000e-01  8.00000000e-11  1.80020704e+00  8.00000000e-11  7.98382107e-01  8.00000000e-11  1.73891664e+00  8.00000000e-11  1.74181759e+00                                 
 1.60000000e-10  8.41233718e-01  1.60000000e-10  7.92701204e-01  1.60000000e-10  1.73938261e+00  1.60000000e-10  2.88000000e-01  1.60000000e-10  1.80001772e+00  1.60000000e-10  7.98457683e-01  1.60000000e-10  1.73916400e+00  1.60000000e-10  1.74180414e+00                                 
 3.20000000e-10  8.41231454e-01  3.20000000e-10  7.92698748e-01  3.20000000e-10  1.73909734e+00  3.20000000e-10  5.76000000e-01  3.20000000e-10  1.80002423e+00  3.20000000e-10  7.98424953e-01  3.20000000e-10  1.73919183e+00  3.20000000e-10  1.74180171e+00                                 
 6.40000000e-10  8.41162502e-01  6.40000000e-10  7.92505089e-01  6.40000000e-10  1.73175952e+00  6.40000000e-10  1.15200000e+00  6.40000000e-10  1.81355569e+00  6.40000000e-10  7.98124503e-01  6.40000000e-10  1.74349272e+00  6.40000000e-10  1.74182847e+00                                 
 9.94413016e-10  8.41541493e-01  9.94413016e-10  7.92505721e-01  9.94413016e-10  1.70017201e+00  9.94413016e-10  1.78994343e+00  9.94413016e-10  7.39119236e-02  9.94413016e-10  7.97953303e-01  9.94413016e-10  1.73101080e+00  9.94413016e-10  1.74169907e+00                                 
 1.00000000e-09  8.41559553e-01  1.00000000e-09  7.92541269e-01  1.00000000e-09  1.69984566e+00  1.00000000e-09  1.80000000e+00  1.00000000e-09  3.83815294e-02  1.00000000e-09  7.98427632e-01  1.00000000e-09  1.73092906e+00  1.00000000e-09  1.74171341e+00                                 
 1.01117397e-09  8.41543856e-01  1.01117397e-09  7.92559692e-01  1.01117397e-09  1.69983732e+00  1.01117397e-09  1.80000000e+00  1.01117397e-09  1.71454662e-02  1.01117397e-09  7.99433934e-01  1.01117397e-09  1.73153904e+00  1.01117397e-09  1.74175196e+00                                 
 1.03352190e-09  8.41551825e-01  1.03352190e-09  7.92617396e-01  1.03352190e-09  1.70010274e+00  1.03352190e-09  1.80000000e+00  1.03352190e-09 -7.27415867e-04  1.03352190e-09  8.01183043e-01  1.03352190e-09  1.73286625e+00  1.03352190e-09  1.74180815e+00                                 
 1.07821777e-09  8.41666170e-01  1.07821777e-09  7.92645683e-01  1.07821777e-09  1.69930806e+00  1.07821777e-09  1.80000000e+00  1.07821777e-09  1.92702112e-03  1.07821777e-09  8.02412051e-01  1.07821777e-09  1.73402269e+00  1.07821777e-09  1.74180884e+00                                 
 1.16760951e-09  8.41855020e-01  1.16760951e-09  7.92554329e-01  1.16760951e-09  1.69451377e+00  1.16760951e-09  1.80000000e+00  1.16760951e-09 -3.48381770e-04  1.16760951e-09  8.02461498e-01  1.16760951e-09  1.73403177e+00  1.16760951e-09  1.74178365e+00                                 
 1.34639298e-09  8.42014750e-01  1.34639298e-09  7.92520035e-01  1.34639298e-09  1.68753491e+00  1.34639298e-09  1.80000000e+00  1.34639298e-09  8.44344812e-04  1.34639298e-09  8.03283859e-01  1.34639298e-09  1.73473598e+00  1.34639298e-09  1.74181042e+00                                 
 1.55168704e-09  8.41982322e-01  1.55168704e-09  7.92502457e-01  1.55168704e-09  1.68559752e+00  1.55168704e-09  1.80000000e+00  1.55168704e-09 -5.99707120e-04  1.55168704e-09  8.03223807e-01  1.55168704e-09  1.73466076e+00  1.55168704e-09  1.74179739e+00                                 
 1.81702398e-09  8.41814210e-01  1.81702398e-09  7.92501769e-01  1.81702398e-09  1.68742025e+00  1.81702398e-09  1.80000000e+00  1.81702398e-09  5.15462992e-04  1.81702398e-09  8.03031268e-01  1.81702398e-09  1.73451397e+00  1.81702398e-09  1.74181196e+00                                 
 2.07329173e-09  8.41651748e-01  2.07329173e-09  7.92496119e-01  2.07329173e-09  1.68970798e+00  2.07329173e-09  1.80000000e+00  2.07329173e-09 -5.18375207e-04  2.07329173e-09  8.02623840e-01  2.07329173e-09  1.73415347e+00  2.07329173e-09  1.74180346e+00                                 
 2.51025389e-09  8.41418147e-01  2.51025389e-09  7.92497250e-01  2.51025389e-09  1.69367157e+00  2.51025389e-09  1.80000000e+00  2.51025389e-09  4.23077862e-04  2.51025389e-09  8.02125860e-01  2.51025389e-09  1.73374732e+00  2.51025389e-09  1.74181152e+00                                 
 3.23522539e-09  8.41199017e-01  3.23522539e-09  7.92490785e-01  3.23522539e-09  1.69902033e+00  3.23522539e-09  1.80000000e+00  3.23522539e-09 -4.66518600e-04  3.23522539e-09  8.01174588e-01  3.23522539e-09  1.73292994e+00  3.23522539e-09  1.74179903e+00                                 
 4.68516840e-09  8.41071386e-01  4.68516840e-09  7.92493902e-01  4.68516840e-09  1.70690916e+00  4.68516840e-09  1.80000000e+00  4.68516840e-09  4.01619622e-04  4.68516840e-09  7.99724919e-01  4.68516840e-09  1.73171964e+00  4.68516840e-09  1.74177855e+00                                 
 7.58505441e-09  8.41140946e-01  7.58505441e-09  7.92497064e-01  7.58505441e-09  1.71417974e+00  7.58505441e-09  1.80000000e+00  7.58505441e-09 -4.44461644e-04  7.58505441e-09  7.97651624e-01  7.58505441e-09  1.72995571e+00  7.58505441e-09  1.74165689e+00                                 
 1.06831940e-08  8.41182797e-01  1.06831940e-08  7.92506916e-01  1.06831940e-08  1.71546790e+00  1.06831940e-08  1.80000000e+00  1.06831940e-08  4.03500765e-04  1.06831940e-08  7.96669341e-01  1.06831940e-08  1.72913794e+00  1.06831940e-08  1.74147291e+00                                 
 1.36038735e-08  8.41196043e-01  1.36038735e-08  7.92505523e-01  1.36038735e-08  1.71438777e+00  1.36038735e-08  1.80000000e+00  1.36038735e-08 -4.28934483e-04  1.36038735e-08  7.96172228e-01  1.36038735e-08  1.72870095e+00  1.36038735e-08  1.74124935e+00                                 
 1.65376588e-08  8.41193110e-01  1.65376588e-08  7.92510200e-01  1.65376588e-08  1.71348283e+00  1.65376588e-08  1.80000000e+00  1.65376588e-08  4.03217159e-04  1.65376588e-08  7.96047733e-01  1.65376588e-08  1.72860252e+00  1.65376588e-08  1.74102286e+00                                 
 2.06748405e-08  8.41196093e-01  2.06748405e-08  7.92506925e-01  2.06748405e-08  1.71255399e+00  2.06748405e-08  1.80000000e+00  2.06748405e-08 -4.12304194e-04  2.06748405e-08  7.95904918e-01  2.06748405e-08  1.72845724e+00  2.06748405e-08  1.74068466e+00                                 
 2.60541759e-08  8.41207494e-01  2.60541759e-08  7.92510666e-01  2.60541759e-08  1.70969592e+00  2.60541759e-08  1.80000000e+00  2.60541759e-08  4.04847662e-04  2.60541759e-08  7.95974923e-01  2.60541759e-08  1.72851199e+00  2.60541759e-08  1.74027166e+00                                 
 3.39019770e-08  8.41222277e-01  3.39019770e-08  7.92507032e-01  3.39019770e-08  1.70211707e+00  3.39019770e-08  1.80000000e+00  3.39019770e-08 -4.05946475e-04  3.39019770e-08  7.95976559e-01  3.39019770e-08  1.72847599e+00  3.39019770e-08  1.73969250e+00                                 
 4.52901571e-08  8.41220618e-01  4.52901571e-08  7.92510697e-01  4.52901571e-08  1.68903457e+00  4.52901571e-08  1.80000000e+00  4.52901571e-08  4.03069332e-04  4.52901571e-08  7.96123716e-01  4.52901571e-08  1.72858261e+00  4.52901571e-08  1.73894906e+00                                 
 6.23965369e-08  8.41224021e-01  6.23965369e-08  7.92506992e-01  6.23965369e-08  1.66775756e+00  6.23965369e-08  1.80000000e+00  6.23965369e-08 -4.04340417e-04  6.23965369e-08  7.96161684e-01  6.23965369e-08  1.72856680e+00  6.23965369e-08  1.73797877e+00                                 
 9.15034021e-08  8.41218983e-01  9.15034021e-08  7.92510616e-01  9.15034021e-08  1.62915145e+00  9.15034021e-08  1.80000000e+00  9.15034021e-08  4.02928452e-04  9.15034021e-08  7.96327722e-01  9.15034021e-08  1.72867957e+00  9.15034021e-08  1.73671088e+00                                 
 1.49717132e-07  8.41222825e-01  1.49717132e-07  7.92506932e-01  1.49717132e-07  1.54757524e+00  1.49717132e-07  1.80000000e+00  1.49717132e-07 -4.03869483e-04  1.49717132e-07  7.96361256e-01  1.49717132e-07  1.72865234e+00  1.49717132e-07  1.73510884e+00                                 
 2.66144593e-07  8.41218200e-01  2.66144593e-07  7.92510583e-01  2.66144593e-07  1.38371779e+00  2.66144593e-07  1.80000000e+00  2.66144593e-07  4.02936520e-04  2.66144593e-07  7.96455998e-01  2.66144593e-07  1.72871373e+00  2.66144593e-07  1.73385070e+00                                 
 4.92586735e-07  8.41222608e-01  4.92586735e-07  7.92506925e-01  4.92586735e-07  1.07440849e+00  4.92586735e-07  1.80000000e+00  4.92586735e-07 -4.03561461e-04  4.92586735e-07  7.96392279e-01  4.92586735e-07  1.72863005e+00  4.92586735e-07  1.73346712e+00                                 
 7.60144017e-07  8.41218213e-01  7.60144017e-07  7.92510582e-01  7.60144017e-07  8.28377244e-01  7.60144017e-07  1.80000000e+00  7.60144017e-07  4.02467674e-04  7.60144017e-07  7.96453457e-01  7.60144017e-07  1.72868366e+00  7.60144017e-07  1.73351928e+00                                 
 1.03450207e-06  8.41222597e-01  1.03450207e-06  7.92506928e-01  1.03450207e-06  7.89511093e-01  1.03450207e-06  1.80000000e+00  1.03450207e-06 -4.02405381e-04  1.03450207e-06  7.96394203e-01  1.03450207e-06  1.72860865e+00  1.03450207e-06  1.73349005e+00                                 
 1.19428717e-06  8.41218141e-01  1.19428717e-06  7.92510570e-01  1.19428717e-06  8.03307097e-01  1.19428717e-06  1.80000000e+00  1.19428717e-06  4.02568703e-04  1.19428717e-06  7.96452233e-01  1.19428717e-06  1.72866352e+00  1.19428717e-06  1.73349054e+00                                 
 1.31472730e-06  8.41222731e-01  1.31472730e-06  7.92506946e-01  1.31472730e-06  7.99970256e-01  1.31472730e-06  1.80000000e+00  1.31472730e-06 -4.02343077e-04  1.31472730e-06  7.96394317e-01  1.31472730e-06  1.72859660e+00  1.31472730e-06  1.73347944e+00                                 
 1.43047977e-06  8.41218046e-01  1.43047977e-06  7.92510555e-01  1.43047977e-06  8.00460198e-01  1.43047977e-06  1.80000000e+00  1.43047977e-06  4.02868174e-04  1.43047977e-06  7.96452537e-01  1.43047977e-06  1.72865353e+00  1.43047977e-06  1.73348052e+00                                 
 1.54569082e-06  8.41222774e-01  1.54569082e-06  7.92506960e-01  1.54569082e-06  8.00351881e-01  1.54569082e-06  1.80000000e+00  1.54569082e-06 -4.02151104e-04  1.54569082e-06  7.96394162e-01  1.54569082e-06  1.72858644e+00  1.54569082e-06  1.73346951e+00                                 
 1.74911595e-06  8.41218028e-01  1.74911595e-06  7.92510546e-01  1.74911595e-06  8.00448841e-01  1.74911595e-06  1.80000000e+00  1.74911595e-06  4.03387140e-04  1.74911595e-06  7.96452631e-01  1.74911595e-06  1.72863977e+00  1.74911595e-06  1.73346670e+00                                 
 2.07318622e-06  8.41222780e-01  2.07318622e-06  7.92506965e-01  2.07318622e-06  8.00376322e-01  2.07318622e-06  1.80000000e+00  2.07318622e-06 -4.02061505e-04  2.07318622e-06  7.96394139e-01  2.07318622e-06  1.72856352e+00  2.07318622e-06  1.73344668e+00                                 
 2.60090765e-06  8.41218025e-01  2.60090765e-06  7.92510543e-01  2.60090765e-06  8.00440357e-01  2.60090765e-06  1.80000000e+00  2.60090765e-06  4.03200755e-04  2.60090765e-06  7.96452641e-01  2.60090765e-06  1.72860277e+00  2.60090765e-06  1.73342983e+00                                 
 3.59091963e-06  8.41222782e-01  3.59091963e-06  7.92506966e-01  3.59091963e-06  8.00379440e-01  3.59091963e-06  1.80000000e+00  3.59091963e-06 -4.02028998e-04  3.59091963e-06  7.96394129e-01  3.59091963e-06  1.72849747e+00  3.59091963e-06  1.73338088e+00                                 
 4.79091963e-06  8.41218023e-01  4.79091963e-06  7.92510541e-01  4.79091963e-06  8.00439278e-01  4.79091963e-06  1.80000000e+00  4.79091963e-06  4.02823335e-04  4.79091963e-06  7.96452630e-01  4.79091963e-06  1.72850745e+00  4.79091963e-06  1.73333485e+00                                 
 5.99091963e-06  8.41222783e-01  5.99091963e-06  7.92506967e-01  5.99091963e-06  8.00380856e-01  5.99091963e-06  1.80000000e+00  5.99091963e-06 -4.02010377e-04  5.99091963e-06  7.96394124e-01  5.99091963e-06  1.72839309e+00  5.99091963e-06  1.73327685e+00                                 
 6.00100000e-06  8.41218059e-01  6.00100000e-06  7.92510515e-01  6.00100000e-06  8.00422774e-01  6.00100000e-06  1.80000000e+00  6.00100000e-06  4.01049791e-04  6.00100000e-06  7.96452778e-01  6.00100000e-06  1.72845494e+00  6.00100000e-06  1.73328240e+00                                 
 6.00110000e-06  8.41189562e-01  6.00110000e-06  7.92290631e-01  6.00110000e-06  7.98320595e-01  6.00110000e-06  1.62000000e+00  6.00110000e-06 -6.89951019e-05  6.00110000e-06  7.94540875e-01  6.00110000e-06  1.72683445e+00  6.00110000e-06  1.73326412e+00                                 
 6.00130000e-06  8.41218549e-01  6.00130000e-06  7.92355817e-01  6.00130000e-06  7.99092245e-01  6.00130000e-06  1.26000000e+00  6.00130000e-06  2.63064365e-05  6.00130000e-06  7.94900782e-01  6.00130000e-06  1.72714056e+00  6.00130000e-06  1.73328807e+00                                 
 6.00170000e-06  8.41245390e-01  6.00170000e-06  7.92393715e-01  6.00170000e-06  8.00264684e-01  6.00170000e-06  5.40000000e-01  6.00170000e-06  1.93208125e-02  6.00170000e-06  7.94024457e-01  6.00170000e-06  1.72064708e+00  6.00170000e-06  1.73323554e+00                                 
 6.00200000e-06  8.41216584e-01  6.00200000e-06  7.90096487e-01  6.00200000e-06  8.49968243e-01  6.00200000e-06  0.00000000e+00  6.00200000e-06  1.58760829e+00  6.00200000e-06  7.64429306e-01  6.00200000e-06  1.51568580e+00  6.00200000e-06  1.73234150e+00                                 
 6.00205102e-06  8.41223134e-01  6.00205102e-06  7.90078119e-01  6.00205102e-06  8.47903090e-01  6.00205102e-06  0.00000000e+00  6.00205102e-06  1.73142588e+00  6.00205102e-06  7.63872079e-01  6.00205102e-06  1.45682462e+00  6.00205102e-06  1.73263069e+00                                 
 6.00215305e-06  8.41219094e-01  6.00215305e-06  7.90260388e-01  6.00215305e-06  8.38204117e-01  6.00215305e-06  0.00000000e+00  6.00215305e-06  1.81997057e+00  6.00215305e-06  7.65929833e-01  6.00215305e-06  1.34542024e+00  6.00215305e-06  1.73315831e+00                                 
 6.00230691e-06  8.41219062e-01  6.00230691e-06  7.90945596e-01  6.00230691e-06  8.25084489e-01  6.00230691e-06  0.00000000e+00  6.00230691e-06  1.78740880e+00  6.00230691e-06  7.74300245e-01  6.00230691e-06  1.22390137e+00  6.00230691e-06  1.73330494e+00                                 
 6.00247586e-06  8.41220061e-01  6.00247586e-06  7.91269123e-01  6.00247586e-06  8.21614368e-01  6.00247586e-06  0.00000000e+00  6.00247586e-06  1.80596675e+00  6.00247586e-06  7.77929202e-01  6.00247586e-06  1.13526665e+00  6.00247586e-06  1.73337491e+00                                 
 6.00271863e-06  8.41218445e-01  6.00271863e-06  7.91600107e-01  6.00271863e-06  8.15710661e-01  6.00271863e-06  0.00000000e+00  6.00271863e-06  1.79534803e+00  6.00271863e-06  7.81328350e-01  6.00271863e-06  1.04109366e+00  6.00271863e-06  1.73344963e+00                                 
 6.00297449e-06  8.41220456e-01  6.00297449e-06  7.91924089e-01  6.00297449e-06  8.13591396e-01  6.00297449e-06  0.00000000e+00  6.00297449e-06  1.80278531e+00  6.00297449e-06  7.84663077e-01  6.00297449e-06  9.67067926e-01  6.00297449e-06  1.73353775e+00                                 
 6.00348622e-06  8.41218775e-01  6.00348622e-06  7.92333239e-01  6.00348622e-06  8.08310760e-01  6.00348622e-06  0.00000000e+00  6.00348622e-06  1.79720866e+00  6.00348622e-06  7.88621692e-01  6.00348622e-06  8.58500761e-01  6.00348622e-06  1.73358457e+00                                 
 6.00405881e-06  8.41221026e-01  6.00405881e-06  7.92859776e-01  6.00405881e-06  8.02453984e-01  6.00405881e-06  0.00000000e+00  6.00405881e-06  1.80213398e+00  6.00405881e-06  7.94764832e-01  6.00405881e-06  8.10486480e-01  6.00405881e-06  1.73351058e+00                                 
 6.00455024e-06  8.41219165e-01  6.00455024e-06  7.92935811e-01  6.00455024e-06  8.00966160e-01  6.00455024e-06  0.00000000e+00  6.00455024e-06  1.79823197e+00  6.00455024e-06  7.95817664e-01  6.00455024e-06  8.02138057e-01  6.00455024e-06  1.73328149e+00                                 
 6.00513473e-06  8.41221275e-01  6.00513473e-06  7.92975751e-01  6.00513473e-06  8.00733407e-01  6.00513473e-06  0.00000000e+00  6.00513473e-06  1.80150786e+00  6.00513473e-06  7.96982459e-01  6.00513473e-06  8.01208386e-01  6.00513473e-06  1.73290336e+00                                 
 6.00578249e-06  8.41219376e-01  6.00578249e-06  7.92868739e-01  6.00578249e-06  8.01031755e-01  6.00578249e-06  0.00000000e+00  6.00578249e-06  1.79870115e+00  6.00578249e-06  7.96596549e-01  6.00578249e-06  8.00687102e-01  6.00578249e-06  1.73236348e+00                                 
 6.00707800e-06  8.41221366e-01  6.00707800e-06  7.92782212e-01  6.00707800e-06  8.01781871e-01  6.00707800e-06  0.00000000e+00  6.00707800e-06  1.80121146e+00  6.00707800e-06  7.97214860e-01  6.00707800e-06  8.01893115e-01  6.00707800e-06  1.73118761e+00                                 
 6.00966901e-06  8.41219441e-01  6.00966901e-06  7.92602957e-01  6.00966901e-06  8.03695939e-01  6.00966901e-06  0.00000000e+00  6.00966901e-06  1.79883671e+00  6.00966901e-06  7.96830398e-01  6.00966901e-06  8.03259362e-01  6.00966901e-06  1.72863814e+00                                 
 6.01485105e-06  8.41221360e-01  6.01485105e-06  7.92556269e-01  6.01485105e-06  8.07874957e-01  6.01485105e-06  0.00000000e+00  6.01485105e-06  1.80114716e+00  6.01485105e-06  7.97300498e-01  6.01485105e-06  8.07917849e-01  6.01485105e-06  1.72351368e+00                                 
 6.02521511e-06  8.41219445e-01  6.02521511e-06  7.92487080e-01  6.02521511e-06  8.16777301e-01  6.02521511e-06  0.00000000e+00  6.02521511e-06  1.79886842e+00  6.02521511e-06  7.96718459e-01  6.02521511e-06  8.16258031e-01  6.02521511e-06  1.71322576e+00                                 
 6.04337076e-06  8.41221360e-01  6.04337076e-06  7.92521897e-01  6.04337076e-06  8.31925079e-01  6.04337076e-06  0.00000000e+00  6.04337076e-06  1.80113073e+00  6.04337076e-06  7.97009510e-01  6.04337076e-06  8.31981847e-01  6.04337076e-06  1.69423502e+00                                 
 6.07968206e-06  8.41219446e-01  6.07968206e-06  7.92491372e-01  6.07968206e-06  8.60376666e-01  6.07968206e-06  0.00000000e+00  6.07968206e-06  1.79887673e+00  6.07968206e-06  7.96356917e-01  6.07968206e-06  8.59589284e-01  6.07968206e-06  1.65242837e+00                                 
