 time            v(vbep)         time            v(vben)         time            v(vout)         time            v(vphi1)        time            v(vphi2)        time            v(vref)         time            v(voutc)        time            v(voutcc)       yes             currtemp       
 0.00000000e+00  7.81323284e-01  0.00000000e+00  7.21892267e-01  0.00000000e+00  1.60969094e+00  0.00000000e+00  0.00000000e+00  0.00000000e+00  1.80000000e+00  0.00000000e+00  7.24481644e-01  0.00000000e+00  1.60969092e+00  0.00000000e+00  1.61605703e+00  1.00000000e+00  2.80000000e+01 
 5.00000000e-12  7.81345037e-01  5.00000000e-12  7.21946529e-01  5.00000000e-12  1.61032316e+00  5.00000000e-12  1.80000000e-02  5.00000000e-12  1.80018423e+00  5.00000000e-12  7.24874968e-01  5.00000000e-12  1.61003985e+00  5.00000000e-12  1.61607017e+00                                 
 1.00000000e-11  7.81354602e-01  1.00000000e-11  7.21982493e-01  1.00000000e-11  1.61078664e+00  1.00000000e-11  3.60000000e-02  1.00000000e-11  1.80026826e+00  1.00000000e-11  7.25184971e-01  1.00000000e-11  1.61031655e+00  1.00000000e-11  1.61607728e+00                                 
 2.00000000e-11  7.81360907e-01  2.00000000e-11  7.22032677e-01  2.00000000e-11  1.61146530e+00  2.00000000e-11  7.20000000e-02  2.00000000e-11  1.80032264e+00  2.00000000e-11  7.25670492e-01  2.00000000e-11  1.61075410e+00  2.00000000e-11  1.61608416e+00                                 
 4.00000000e-11  7.81348552e-01  4.00000000e-11  7.22069535e-01  4.00000000e-11  1.61194849e+00  4.00000000e-11  1.44000000e-01  4.00000000e-11  1.80019469e+00  4.00000000e-11  7.26138319e-01  4.00000000e-11  1.61119459e+00  4.00000000e-11  1.61607850e+00                                 
 8.00000000e-11  7.81334637e-01  8.00000000e-11  7.22074328e-01  8.00000000e-11  1.61184693e+00  8.00000000e-11  2.88000000e-01  8.00000000e-11  1.80002950e+00  8.00000000e-11  7.26264956e-01  8.00000000e-11  1.61136167e+00  8.00000000e-11  1.61606304e+00                                 
 1.60000000e-10  7.81335567e-01  1.60000000e-10  7.22062670e-01  1.60000000e-10  1.61137420e+00  1.60000000e-10  5.76000000e-01  1.60000000e-10  1.80001199e+00  1.60000000e-10  7.26063361e-01  1.60000000e-10  1.61124407e+00  1.60000000e-10  1.61605761e+00                                 
 3.20000000e-10  7.81270556e-01  3.20000000e-10  7.21619351e-01  3.20000000e-10  1.60730970e+00  3.20000000e-10  1.15200000e+00  3.20000000e-10  1.80071236e+00  3.20000000e-10  7.22211775e-01  3.20000000e-10  1.60808189e+00  3.20000000e-10  1.61602646e+00                                 
 5.00000000e-10  7.81380677e-01  5.00000000e-10  7.22056117e-01  5.00000000e-10  1.60222356e+00  5.00000000e-10  1.80000000e+00  5.00000000e-10  1.50329182e-01  5.00000000e-10  7.27472899e-01  5.00000000e-10  1.61239541e+00  5.00000000e-10  1.61610776e+00                                 
 5.20792960e-10  7.81376091e-01  5.20792960e-10  7.22099416e-01  5.20792960e-10  1.60163265e+00  5.20792960e-10  1.80000000e+00  5.20792960e-10  3.87758987e-02  5.20792960e-10  7.28962847e-01  5.20792960e-10  1.61325045e+00  5.20792960e-10  1.61610171e+00                                 
 5.62378881e-10  7.81432319e-01  5.62378881e-10  7.22179508e-01  5.62378881e-10  1.60120848e+00  5.62378881e-10  1.80000000e+00  5.62378881e-10 -1.42755820e-02  5.62378881e-10  7.30962178e-01  5.62378881e-10  1.61499982e+00  5.62378881e-10  1.61610030e+00                                 
 6.45550723e-10  7.81515995e-01  6.45550723e-10  7.22019319e-01  6.45550723e-10  1.59866015e+00  6.45550723e-10  1.80000000e+00  6.45550723e-10  1.14318308e-02  6.45550723e-10  7.30034139e-01  6.45550723e-10  1.61439711e+00  6.45550723e-10  1.61604486e+00                                 
 7.64113032e-10  7.81537213e-01  7.64113032e-10  7.21992526e-01  7.64113032e-10  1.59762976e+00  7.64113032e-10  1.80000000e+00  7.64113032e-10 -9.01572263e-03  7.64113032e-10  7.31007318e-01  7.64113032e-10  1.61508609e+00  7.64113032e-10  1.61607736e+00                                 
 9.40726425e-10  7.81593738e-01  9.40726425e-10  7.21959933e-01  9.40726425e-10  1.59678993e+00  9.40726425e-10  1.80000000e+00  9.40726425e-10  8.39651458e-03  9.40726425e-10  7.31716614e-01  9.40726425e-10  1.61584932e+00  9.40726425e-10  1.61604873e+00                                 
 1.29395321e-09  7.81599951e-01  1.29395321e-09  7.21886560e-01  1.29395321e-09  1.59424561e+00  1.29395321e-09  1.80000000e+00  1.29395321e-09 -7.62299182e-03  1.29395321e-09  7.31579911e-01  1.29395321e-09  1.61560540e+00  1.29395321e-09  1.61606609e+00                                 
 1.76963642e-09  7.81549367e-01  1.76963642e-09  7.21896822e-01  1.76963642e-09  1.59277691e+00  1.76963642e-09  1.80000000e+00  1.76963642e-09  7.40119706e-03  1.76963642e-09  7.31479634e-01  1.76963642e-09  1.61564105e+00  1.76963642e-09  1.61608776e+00                                 
 2.33575078e-09  7.81427122e-01  2.33575078e-09  7.21861823e-01  2.33575078e-09  1.59139093e+00  2.33575078e-09  1.80000000e+00  2.33575078e-09 -7.09401996e-03  2.33575078e-09  7.30410586e-01  2.33575078e-09  1.61458957e+00  2.33575078e-09  1.61615086e+00                                 
 2.93838649e-09  7.81362760e-01  2.93838649e-09  7.21891324e-01  2.93838649e-09  1.59064103e+00  2.93838649e-09  1.80000000e+00  2.93838649e-09  6.85498610e-03  2.93838649e-09  7.30080659e-01  2.93838649e-09  1.61441300e+00  2.93838649e-09  1.61621740e+00                                 
 3.79342951e-09  7.81300902e-01  3.79342951e-09  7.21861817e-01  3.79342951e-09  1.58853491e+00  3.79342951e-09  1.80000000e+00  3.79342951e-09 -6.68071538e-03  3.79342951e-09  7.28709939e-01  3.79342951e-09  1.61310465e+00  3.79342951e-09  1.61631792e+00                                 
 5.32551242e-09  7.81289926e-01  5.32551242e-09  7.21895783e-01  5.32551242e-09  1.58528056e+00  5.32551242e-09  1.80000000e+00  5.32551242e-09  6.59236406e-03  5.32551242e-09  7.27586114e-01  5.32551242e-09  1.61222985e+00  5.32551242e-09  1.61647015e+00                                 
 8.38967823e-09  7.81278940e-01  8.38967823e-09  7.21872719e-01  8.38967823e-09  1.57695675e+00  8.38967823e-09  1.80000000e+00  8.38967823e-09 -6.54021990e-03  8.38967823e-09  7.25062177e-01  8.38967823e-09  1.60992243e+00  8.38967823e-09  1.61663786e+00                                 
 1.23064474e-08  7.81296209e-01  1.23064474e-08  7.21907179e-01  1.23064474e-08  1.56595015e+00  1.23064474e-08  1.80000000e+00  1.23064474e-08  6.51643744e-03  1.23064474e-08  7.24141198e-01  1.23064474e-08  1.60922778e+00  1.23064474e-08  1.61663883e+00                                 
 1.53455132e-08  7.81288678e-01  1.53455132e-08  7.21877072e-01  1.53455132e-08  1.55616147e+00  1.53455132e-08  1.80000000e+00  1.53455132e-08 -6.45325096e-03  1.53455132e-08  7.23354939e-01  1.53455132e-08  1.60843485e+00  1.53455132e-08  1.61654579e+00                                 
 1.88624526e-08  7.81308831e-01  1.88624526e-08  7.21907520e-01  1.88624526e-08  1.54474146e+00  1.88624526e-08  1.80000000e+00  1.88624526e-08  6.43684200e-03  1.88624526e-08  7.23634273e-01  1.88624526e-08  1.60877863e+00  1.88624526e-08  1.61641334e+00                                 
 2.25720299e-08  7.81307133e-01  2.25720299e-08  7.21877152e-01  2.25720299e-08  1.53103901e+00  2.25720299e-08  1.80000000e+00  2.25720299e-08 -6.37591037e-03  2.25720299e-08  7.23269733e-01  2.25720299e-08  1.60835007e+00  2.25720299e-08  1.61627071e+00                                 
 2.80774410e-08  7.81326940e-01  2.80774410e-08  7.21907685e-01  2.80774410e-08  1.51034156e+00  2.80774410e-08  1.80000000e+00  2.80774410e-08  6.37752015e-03  2.80774410e-08  7.23842209e-01  2.80774410e-08  1.60894527e+00  2.80774410e-08  1.61609364e+00                                 
 3.43896169e-08  7.81320853e-01  3.43896169e-08  7.21877192e-01  3.43896169e-08  1.48483774e+00  3.43896169e-08  1.80000000e+00  3.43896169e-08 -6.32968221e-03  3.43896169e-08  7.23647112e-01  3.43896169e-08  1.60866462e+00  3.43896169e-08  1.61593907e+00                                 
 4.42081722e-08  7.81332164e-01  4.42081722e-08  7.21907613e-01  4.42081722e-08  1.44519754e+00  4.42081722e-08  1.80000000e+00  4.42081722e-08  6.34309271e-03  4.42081722e-08  7.24302324e-01  4.42081722e-08  1.60933384e+00  4.42081722e-08  1.61579755e+00                                 
 5.72594115e-08  7.81320452e-01  5.72594115e-08  7.21877051e-01  5.72594115e-08  1.39128160e+00  5.72594115e-08  1.80000000e+00  5.72594115e-08 -6.30592685e-03  5.72594115e-08  7.24091810e-01  5.72594115e-08  1.60904456e+00  5.72594115e-08  1.61571573e+00                                 
 8.11255360e-08  7.81329180e-01  8.11255360e-08  7.21907518e-01  8.11255360e-08  1.29370771e+00  8.11255360e-08  1.80000000e+00  8.11255360e-08  6.32731381e-03  8.11255360e-08  7.24640831e-01  8.11255360e-08  1.60962709e+00  8.11255360e-08  1.61570630e+00                                 
 1.17592427e-07  7.81318212e-01  1.17592427e-07  7.21877001e-01  1.17592427e-07  1.14486362e+00  1.17592427e-07  1.80000000e+00  1.17592427e-07 -6.29668612e-03  1.17592427e-07  7.24278154e-01  1.17592427e-07  1.60920886e+00  1.17592427e-07  1.61575529e+00                                 
 1.79156779e-07  7.81328352e-01  1.79156779e-07  7.21907507e-01  1.79156779e-07  9.01139278e-01  1.79156779e-07  1.80000000e+00  1.79156779e-07  6.32188353e-03  1.79156779e-07  7.24683177e-01  1.79156779e-07  1.60966367e+00  1.79156779e-07  1.61580021e+00                                 
 2.59931492e-07  7.81318473e-01  2.59931492e-07  7.21877014e-01  2.59931492e-07  7.28643916e-01  2.59931492e-07  1.80000000e+00  2.59931492e-07 -6.29085936e-03  2.59931492e-07  7.24278940e-01  2.59931492e-07  1.60920453e+00  2.59931492e-07  1.61579968e+00                                 
 3.32667339e-07  7.81328076e-01  3.32667339e-07  7.21907535e-01  3.32667339e-07  7.25614269e-01  3.32667339e-07  1.80000000e+00  3.32667339e-07  6.32023127e-03  3.32667339e-07  7.24687357e-01  3.32667339e-07  1.60966104e+00  3.32667339e-07  1.61580078e+00                                 
 3.79002743e-07  7.81317765e-01  3.79002743e-07  7.21876888e-01  3.79002743e-07  7.28142871e-01  3.79002743e-07  1.80000000e+00  3.79002743e-07 -6.28641512e-03  3.79002743e-07  7.24275829e-01  3.79002743e-07  1.60919726e+00  3.79002743e-07  1.61579558e+00                                 
 4.24994910e-07  7.81329272e-01  4.24994910e-07  7.21907699e-01  4.24994910e-07  7.26613655e-01  4.24994910e-07  1.80000000e+00  4.24994910e-07  6.31469260e-03  4.24994910e-07  7.24686312e-01  4.24994910e-07  1.60965641e+00  4.24994910e-07  1.61579559e+00                                 
 4.72161538e-07  7.81317165e-01  4.72161538e-07  7.21876776e-01  4.72161538e-07  7.27327448e-01  4.72161538e-07  1.80000000e+00  4.72161538e-07 -6.28092031e-03  4.72161538e-07  7.24277465e-01  4.72161538e-07  1.60919509e+00  4.72161538e-07  1.61579164e+00                                 
 5.20811978e-07  7.81329385e-01  5.20811978e-07  7.21907761e-01  5.20811978e-07  7.27066198e-01  5.20811978e-07  1.80000000e+00  5.20811978e-07  6.30931228e-03  5.20811978e-07  7.24685370e-01  5.20811978e-07  1.60965183e+00  5.20811978e-07  1.61579212e+00                                 
 5.88016754e-07  7.81317241e-01  5.88016754e-07  7.21876747e-01  5.88016754e-07  7.27106326e-01  5.88016754e-07  1.80000000e+00  5.88016754e-07 -6.27634661e-03  5.88016754e-07  7.24277924e-01  5.88016754e-07  1.60919101e+00  5.88016754e-07  1.61578699e+00                                 
 6.80804891e-07  7.81329277e-01  6.80804891e-07  7.21907772e-01  6.80804891e-07  7.27159369e-01  6.80804891e-07  1.80000000e+00  6.80804891e-07  6.30599528e-03  6.80804891e-07  7.24685167e-01  6.80804891e-07  1.60964539e+00  6.80804891e-07  1.61578596e+00                                 
 8.31936052e-07  7.81317326e-01  8.31936052e-07  7.21876742e-01  8.31936052e-07  7.27061274e-01  8.31936052e-07  1.80000000e+00  8.31936052e-07 -6.27407334e-03  8.31936052e-07  7.24278024e-01  8.31936052e-07  1.60918162e+00  8.31936052e-07  1.61577747e+00                                 
 1.13384553e-06  7.81329227e-01  1.13384553e-06  7.21907774e-01  1.13384553e-06  7.27179646e-01  1.13384553e-06  1.80000000e+00  1.13384553e-06  6.30468336e-03  1.13384553e-06  7.24685120e-01  1.13384553e-06  1.60962770e+00  1.13384553e-06  1.61576836e+00                                 
 1.73766449e-06  7.81317351e-01  1.73766449e-06  7.21876741e-01  1.73766449e-06  7.27052235e-01  1.73766449e-06  1.80000000e+00  1.73766449e-06 -6.27332350e-03  1.73766449e-06  7.24278046e-01  1.73766449e-06  1.60914635e+00  1.73766449e-06  1.61574224e+00                                 
 2.73766449e-06  7.81329214e-01  2.73766449e-06  7.21907775e-01  2.73766449e-06  7.27184131e-01  2.73766449e-06  1.80000000e+00  2.73766449e-06  6.30436168e-03  2.73766449e-06  7.24685109e-01  2.73766449e-06  1.60956522e+00  2.73766449e-06  1.61570601e+00                                 
 3.73766449e-06  7.81317361e-01  3.73766449e-06  7.21876741e-01  3.73766449e-06  7.27048961e-01  3.73766449e-06  1.80000000e+00  3.73766449e-06 -6.27329117e-03  3.73766449e-06  7.24278054e-01  3.73766449e-06  1.60906849e+00  3.73766449e-06  1.61566450e+00                                 
 4.73766449e-06  7.81329203e-01  4.73766449e-06  7.21907774e-01  4.73766449e-06  7.27187286e-01  4.73766449e-06  1.80000000e+00  4.73766449e-06  6.30412430e-03  4.73766449e-06  7.24685101e-01  4.73766449e-06  1.60948734e+00  4.73766449e-06  1.61562827e+00                                 
 5.73766449e-06  7.81317371e-01  5.73766449e-06  7.21876741e-01  5.73766449e-06  7.27045867e-01  5.73766449e-06  1.80000000e+00  5.73766449e-06 -6.27303594e-03  5.73766449e-06  7.24278062e-01  5.73766449e-06  1.60899061e+00  5.73766449e-06  1.61558674e+00                                 
 6.73766449e-06  7.81329193e-01  6.73766449e-06  7.21907775e-01  6.73766449e-06  7.27190262e-01  6.73766449e-06  1.80000000e+00  6.73766449e-06  6.30386650e-03  6.73766449e-06  7.24685094e-01  6.73766449e-06  1.60940942e+00  6.73766449e-06  1.61555049e+00                                 
 7.73766449e-06  7.81317381e-01  7.73766449e-06  7.21876741e-01  7.73766449e-06  7.27042947e-01  7.73766449e-06  1.80000000e+00  7.73766449e-06 -6.27278073e-03  7.73766449e-06  7.24278069e-01  7.73766449e-06  1.60891271e+00  7.73766449e-06  1.61550896e+00                                 
 8.73766449e-06  7.81329182e-01  8.73766449e-06  7.21907774e-01  8.73766449e-06  7.27193071e-01  8.73766449e-06  1.80000000e+00  8.73766449e-06  6.30360870e-03  8.73766449e-06  7.24685086e-01  8.73766449e-06  1.60933157e+00  8.73766449e-06  1.61547278e+00                                 
 9.73766449e-06  7.81317392e-01  9.73766449e-06  7.21876741e-01  9.73766449e-06  7.27040189e-01  9.73766449e-06  1.80000000e+00  9.73766449e-06 -6.27252553e-03  9.73766449e-06  7.24278076e-01  9.73766449e-06  1.60883490e+00  9.73766449e-06  1.61543128e+00                                 
 1.00005000e-05  7.81329158e-01  1.00005000e-05  7.21907775e-01  1.00005000e-05  7.27199209e-01  1.00005000e-05  1.80000000e+00  1.00005000e-05  6.30299465e-03  1.00005000e-05  7.24685070e-01  1.00005000e-05  1.60928240e+00  1.00005000e-05  1.61542372e+00                                 
 1.00005500e-05  7.81291237e-01  1.00005500e-05  7.21701613e-01  1.00005500e-05  7.25262403e-01  1.00005500e-05  1.62000000e+00  1.00005500e-05  4.96838298e-04  1.00005500e-05  7.22931866e-01  1.00005500e-05  1.60770334e+00  1.00005500e-05  1.61540223e+00                                 
 1.00006500e-05  7.81316346e-01  1.00006500e-05  7.21688180e-01  1.00006500e-05  7.25394499e-01  1.00006500e-05  1.26000000e+00  1.00006500e-05 -4.47893590e-04  1.00006500e-05  7.22683273e-01  1.00006500e-05  1.60747910e+00  1.00006500e-05  1.61542574e+00                                 
 1.00008500e-05  7.81354422e-01  1.00008500e-05  7.21921012e-01  1.00008500e-05  7.27881706e-01  1.00008500e-05  5.40000000e-01  1.00008500e-05 -1.92830999e-03  1.00008500e-05  7.24284138e-01  1.00008500e-05  1.60797016e+00  1.00008500e-05  1.61542262e+00                                 
 1.00010000e-05  7.81313633e-01  1.00010000e-05  7.20796483e-01  1.00010000e-05  7.48491855e-01  1.00010000e-05  0.00000000e+00  1.00010000e-05  1.49548891e+00  1.00010000e-05  7.10983556e-01  1.00010000e-05  1.54761695e+00  1.00010000e-05  1.61486907e+00                                 
 1.00010260e-05  7.81330886e-01  1.00010260e-05  7.20499178e-01  1.00010260e-05  7.54962904e-01  1.00010260e-05  0.00000000e+00  1.00010260e-05  1.68556842e+00  1.00010260e-05  7.07292993e-01  1.00010260e-05  1.52177289e+00  1.00010260e-05  1.61472778e+00                                 
 1.00010780e-05  7.81327084e-01  1.00010780e-05  7.19929982e-01  1.00010780e-05  7.60800637e-01  1.00010780e-05  0.00000000e+00  1.00010780e-05  1.82284303e+00  1.00010780e-05  7.00626123e-01  1.00010780e-05  1.46426866e+00  1.00010780e-05  1.61461268e+00                                 
 1.00011820e-05  7.81320115e-01  1.00011820e-05  7.19844937e-01  1.00011820e-05  7.53658120e-01  1.00011820e-05  0.00000000e+00  1.00011820e-05  1.78590154e+00  1.00011820e-05  7.00497562e-01  1.00011820e-05  1.36377870e+00  1.00011820e-05  1.61512373e+00                                 
 1.00013136e-05  7.81328110e-01  1.00013136e-05  7.20204337e-01  1.00013136e-05  7.49954636e-01  1.00013136e-05  0.00000000e+00  1.00013136e-05  1.80763064e+00  1.00013136e-05  7.05603067e-01  1.00013136e-05  1.26734276e+00  1.00013136e-05  1.61547844e+00                                 
 1.00015287e-05  7.81319352e-01  1.00015287e-05  7.20403709e-01  1.00015287e-05  7.45414931e-01  1.00015287e-05  0.00000000e+00  1.00015287e-05  1.79358179e+00  1.00015287e-05  7.07383320e-01  1.00015287e-05  1.13792976e+00  1.00015287e-05  1.61565607e+00                                 
 1.00018819e-05  7.81327084e-01  1.00018819e-05  7.20995505e-01  1.00018819e-05  7.40423838e-01  1.00018819e-05  0.00000000e+00  1.00018819e-05  1.80486710e+00  1.00018819e-05  7.12594178e-01  1.00018819e-05  9.89488120e-01  1.00018819e-05  1.61569379e+00                                 
 1.00023507e-05  7.81319523e-01  1.00023507e-05  7.21419224e-01  1.00023507e-05  7.37145243e-01  1.00023507e-05  0.00000000e+00  1.00023507e-05  1.79541741e+00  1.00023507e-05  7.15202195e-01  1.00023507e-05  8.50381034e-01  1.00023507e-05  1.61532275e+00                                 
 1.00028549e-05  7.81326831e-01  1.00028549e-05  7.22052671e-01  1.00028549e-05  7.31557159e-01  1.00028549e-05  0.00000000e+00  1.00028549e-05  1.80374264e+00  1.00028549e-05  7.21306299e-01  1.00028549e-05  7.70834723e-01  1.00028549e-05  1.61463325e+00                                 
 1.00034046e-05  7.81319909e-01  1.00034046e-05  7.22276417e-01  1.00034046e-05  7.30055231e-01  1.00034046e-05  0.00000000e+00  1.00034046e-05  1.79658014e+00  1.00034046e-05  7.23311246e-01  1.00034046e-05  7.37125315e-01  1.00034046e-05  1.61347106e+00                                 
 1.00039731e-05  7.81326571e-01  1.00039731e-05  7.22437184e-01  1.00039731e-05  7.29098018e-01  1.00039731e-05  0.00000000e+00  1.00039731e-05  1.80300706e+00  1.00039731e-05  7.25635204e-01  1.00039731e-05  7.31280621e-01  1.00039731e-05  1.61193547e+00                                 
 1.00046376e-05  7.81320210e-01  1.00046376e-05  7.22307645e-01  1.00046376e-05  7.31149540e-01  1.00046376e-05  0.00000000e+00  1.00046376e-05  1.79728013e+00  1.00046376e-05  7.25073011e-01  1.00046376e-05  7.29836286e-01  1.00046376e-05  1.60981085e+00                                 
 1.00054437e-05  7.81326336e-01  1.00054437e-05  7.22292138e-01  1.00054437e-05  7.32019591e-01  1.00054437e-05  0.00000000e+00  1.00054437e-05  1.80248627e+00  1.00054437e-05  7.26105205e-01  1.00054437e-05  7.32166418e-01  1.00054437e-05  1.60708576e+00                                 
