 time            v(vbep)         time            v(vben)         time            v(vout)         time            v(vphi1)        time            v(vphi2)        time            v(vref)         yes             currtemp       
 0.00000000e+00  6.65986172e-01  0.00000000e+00  6.08917463e-01  0.00000000e+00  1.00908888e+00  0.00000000e+00  0.00000000e+00  0.00000000e+00  1.79995519e+00  0.00000000e+00  5.00000000e-01  1.00000000e+00  3.90000000e+01 
 5.00000000e-12  6.65957006e-01  5.00000000e-12  6.08893311e-01  5.00000000e-12  1.00983886e+00  5.00000000e-12  1.80000000e-02  5.00000000e-12  1.80005833e+00  5.00000000e-12  5.00000000e-01                                 
 1.00000000e-11  6.65928614e-01  1.00000000e-11  6.08869792e-01  1.00000000e-11  1.01051838e+00  1.00000000e-11  3.60000000e-02  1.00000000e-11  1.80011208e+00  1.00000000e-11  5.00000000e-01                                 
 2.00000000e-11  6.65872303e-01  2.00000000e-11  6.08822936e-01  2.00000000e-11  1.01176752e+00  2.00000000e-11  7.20000000e-02  2.00000000e-11  1.80016314e+00  2.00000000e-11  5.00000000e-01                                 
 4.00000000e-11  6.65760489e-01  4.00000000e-11  6.08729594e-01  4.00000000e-11  1.01375721e+00  4.00000000e-11  1.44000000e-01  4.00000000e-11  1.80013805e+00  4.00000000e-11  5.00000000e-01                                 
 8.00000000e-11  6.65537957e-01  8.00000000e-11  6.08543745e-01  8.00000000e-11  1.01638992e+00  8.00000000e-11  2.88000000e-01  8.00000000e-11  1.80007454e+00  8.00000000e-11  5.00000000e-01                                 
 1.60000000e-10  6.65097620e-01  1.60000000e-10  6.08175366e-01  1.60000000e-10  1.01878670e+00  1.60000000e-10  5.76000000e-01  1.60000000e-10  1.80001436e+00  1.60000000e-10  5.00000000e-01                                 
 3.20000000e-10  6.64234738e-01  3.20000000e-10  6.07451412e-01  3.20000000e-10  1.01241880e+00  3.20000000e-10  1.15200000e+00  3.20000000e-10  1.80038083e+00  3.20000000e-10  5.00000000e-01                                 
 5.00000000e-10  6.63291406e-01  5.00000000e-10  6.06656673e-01  5.00000000e-10  1.17466899e+00  5.00000000e-10  1.80000000e+00  5.00000000e-10  1.17510500e-01  5.00000000e-10  5.00000000e-01                                 
 5.21550470e-10  6.63180558e-01  5.21550470e-10  6.06563044e-01  5.21550470e-10  1.21283938e+00  5.21550470e-10  1.80000000e+00  5.21550470e-10  2.31624063e-02  5.21550470e-10  5.00000000e-01                                 
 5.64651410e-10  6.62959619e-01  5.64651410e-10  6.06376322e-01  5.64651410e-10  1.28339804e+00  5.64651410e-10  1.80000000e+00  5.64651410e-10 -1.08139599e-02  5.64651410e-10  5.00000000e-01                                 
 6.50853291e-10  6.62522339e-01  6.50853291e-10  6.06006228e-01  6.50853291e-10  1.40182278e+00  6.50853291e-10  1.80000000e+00  6.50853291e-10  9.00723710e-03  6.50853291e-10  5.00000000e-01                                 
 7.73017677e-10  6.61912885e-01  7.73017677e-10  6.05489224e-01  7.73017677e-10  1.53912947e+00  7.73017677e-10  1.80000000e+00  7.73017677e-10 -7.82913621e-03  7.73017677e-10  5.00000000e-01                                 
 9.64978371e-10  6.60978511e-01  9.64978371e-10  6.04693931e-01  9.64978371e-10  1.70122007e+00  9.64978371e-10  1.80000000e+00  9.64978371e-10  7.34936908e-03  9.64978371e-10  5.00000000e-01                                 
 1.34889976e-09  6.59189055e-01  1.34889976e-09  6.03162083e-01  1.34889976e-09  1.88538130e+00  1.34889976e-09  1.80000000e+00  1.34889976e-09 -6.94641044e-03  1.34889976e-09  5.00000000e-01                                 
 1.62515429e-09  6.57962889e-01  1.62515429e-09  6.02105682e-01  1.62515429e-09  1.94038461e+00  1.62515429e-09  1.80000000e+00  1.62515429e-09  6.67714028e-03  1.62515429e-09  5.00000000e-01                                 
 1.93723332e-09  6.56633870e-01  1.93723332e-09  6.00954684e-01  1.93723332e-09  1.96751436e+00  1.93723332e-09  1.80000000e+00  1.93723332e-09 -6.28887732e-03  1.93723332e-09  5.00000000e-01                                 
 2.26397924e-09  6.55301401e-01  2.26397924e-09  5.99794555e-01  2.26397924e-09  1.97815023e+00  2.26397924e-09  1.80000000e+00  2.26397924e-09  6.07146028e-03  2.26397924e-09  5.00000000e-01                                 
 2.76946058e-09  6.53347363e-01  2.76946058e-09  5.98082530e-01  2.76946058e-09  1.98211336e+00  2.76946058e-09  1.80000000e+00  2.76946058e-09 -5.84359160e-03  2.76946058e-09  5.00000000e-01                                 
 3.38558933e-09  6.51123474e-01  3.38558933e-09  5.96118879e-01  3.38558933e-09  1.98111274e+00  3.38558933e-09  1.80000000e+00  3.38558933e-09  5.75025112e-03  3.38558933e-09  5.00000000e-01                                 
 4.44481095e-09  6.47641487e-01  4.44481095e-09  5.93013874e-01  4.44481095e-09  1.97783463e+00  4.44481095e-09  1.80000000e+00  4.44481095e-09 -5.63151890e-03  4.44481095e-09  5.00000000e-01                                 
 6.05758481e-09  6.43006651e-01  6.05758481e-09  5.88826200e-01  6.05758481e-09  1.97353671e+00  6.05758481e-09  1.80000000e+00  6.05758481e-09  5.61968846e-03  6.05758481e-09  5.00000000e-01                                 
 9.28313253e-09  6.35424337e-01  9.28313253e-09  5.81858041e-01  9.28313253e-09  1.96563426e+00  9.28313253e-09  1.80000000e+00  9.28313253e-09 -5.55142734e-03  9.28313253e-09  5.00000000e-01                                 
 1.07975400e-08  6.32472661e-01  1.07975400e-08  5.79103739e-01  1.07975400e-08  1.96256613e+00  1.07975400e-08  1.80000000e+00  1.07975400e-08  5.53122881e-03  1.07975400e-08  5.00000000e-01                                 
 1.22869164e-08  6.29834948e-01  1.22869164e-08  5.76626713e-01  1.22869164e-08  1.95968048e+00  1.22869164e-08  1.80000000e+00  1.22869164e-08 -5.44749544e-03  1.22869164e-08  5.00000000e-01                                 
 1.40117838e-08  6.27049785e-01  1.40117838e-08  5.73996614e-01  1.40117838e-08  1.95662303e+00  1.40117838e-08  1.80000000e+00  1.40117838e-08  5.42852187e-03  1.40117838e-08  5.00000000e-01                                 
 1.67909736e-08  6.23044341e-01  1.67909736e-08  5.70191260e-01  1.67909736e-08  1.95183111e+00  1.67909736e-08  1.80000000e+00  1.67909736e-08 -5.37394098e-03  1.67909736e-08  5.00000000e-01                                 
 2.02901396e-08  6.18653542e-01  2.02901396e-08  5.65993666e-01  2.02901396e-08  1.94620354e+00  2.02901396e-08  1.80000000e+00  2.02901396e-08  5.37668819e-03  2.02901396e-08  5.00000000e-01                                 
 2.52197362e-08  6.13323467e-01  2.52197362e-08  5.60876042e-01  2.52197362e-08  1.93874784e+00  2.52197362e-08  1.80000000e+00  2.52197362e-08 -5.33560969e-03  2.52197362e-08  5.00000000e-01                                 
 3.28472781e-08  6.06275027e-01  3.28472781e-08  5.54114042e-01  3.28472781e-08  1.92899864e+00  3.28472781e-08  1.80000000e+00  3.28472781e-08  5.35046706e-03  3.28472781e-08  5.00000000e-01                                 
 4.45411204e-08  5.97442584e-01  4.45411204e-08  5.45650768e-01  4.45411204e-08  1.91680372e+00  4.45411204e-08  1.80000000e+00  4.45411204e-08 -5.31849609e-03  4.45411204e-08  5.00000000e-01                                 
 5.72535402e-08  5.87778153e-01  5.72535402e-08  5.36729379e-01  5.72535402e-08  1.89612761e+00  5.72535402e-08  1.80000000e+00  5.72535402e-08  5.33753852e-03  5.72535402e-08  5.00000000e-01                                 
 7.18994513e-08  5.78681726e-01  7.18994513e-08  5.28338089e-01  7.18994513e-08  1.86255997e+00  7.18994513e-08  1.80000000e+00  7.18994513e-08 -5.30695099e-03  7.18994513e-08  5.00000000e-01                                 
 9.24447478e-08  5.68123141e-01  9.24447478e-08  5.18642047e-01  9.24447478e-08  1.82436485e+00  9.24447478e-08  1.80000000e+00  9.24447478e-08  5.32860087e-03  9.24447478e-08  5.00000000e-01                                 
 1.14758931e-07  5.59274192e-01  1.14758931e-07  5.10481503e-01  1.14758931e-07  1.78440418e+00  1.14758931e-07  1.80000000e+00  1.14758931e-07 -5.29966108e-03  1.14758931e-07  5.00000000e-01                                 
 1.43154130e-07  5.61457313e-01  1.43154130e-07  5.10963118e-01  1.43154130e-07  1.77708991e+00  1.43154130e-07  1.80000000e+00  1.43154130e-07  5.32289983e-03  1.43154130e-07  5.00000000e-01                                 
 1.65072313e-07  5.62635011e-01  1.65072313e-07  5.11056334e-01  1.65072313e-07  1.75966147e+00  1.65072313e-07  1.80000000e+00  1.65072313e-07 -5.29355151e-03  1.65072313e-07  5.00000000e-01                                 
 1.89034075e-07  5.57001523e-01  1.89034075e-07  5.05797940e-01  1.89034075e-07  1.72892861e+00  1.89034075e-07  1.80000000e+00  1.89034075e-07  5.31589917e-03  1.89034075e-07  5.00000000e-01                                 
 2.09299150e-07  5.52575083e-01  2.09299150e-07  5.01692600e-01  2.09299150e-07  1.70553237e+00  2.09299150e-07  1.80000000e+00  2.09299150e-07 -5.28657913e-03  2.09299150e-07  5.00000000e-01                                 
 2.30348678e-07  5.46938848e-01  2.30348678e-07  4.96667405e-01  2.30348678e-07  1.67936034e+00  2.30348678e-07  1.80000000e+00  2.30348678e-07  5.30836819e-03  2.30348678e-07  5.00000000e-01                                 
 2.67177227e-07  5.36629425e-01  2.67177227e-07  4.87647815e-01  2.67177227e-07  1.63314593e+00  2.67177227e-07  1.80000000e+00  2.67177227e-07 -5.28088740e-03  2.67177227e-07  5.00000000e-01                                 
 3.15753730e-07  5.24015796e-01  3.15753730e-07  4.76736486e-01  3.15753730e-07  1.57081982e+00  3.15753730e-07  1.80000000e+00  3.15753730e-07  5.30471131e-03  3.15753730e-07  5.00000000e-01                                 
 3.96938334e-07  4.99609301e-01  3.96938334e-07  4.56277173e-01  3.96938334e-07  1.46559856e+00  3.96938334e-07  1.80000000e+00  3.96938334e-07 -5.27841339e-03  3.96938334e-07  5.00000000e-01                                 
 4.86555210e-07  4.79829736e-01  4.86555210e-07  4.39788738e-01  4.86555210e-07  1.35150609e+00  4.86555210e-07  1.80000000e+00  4.86555210e-07  5.30298780e-03  4.86555210e-07  5.00000000e-01                                 
 5.77694980e-07  4.39715546e-01  5.77694980e-07  4.07420714e-01  5.77694980e-07  1.21788854e+00  5.77694980e-07  1.80000000e+00  5.77694980e-07 -5.27690276e-03  5.77694980e-07  5.00000000e-01                                 
 6.50124920e-07  4.69020638e-01  6.50124920e-07  4.30797649e-01  6.50124920e-07  1.16744686e+00  6.50124920e-07  1.80000000e+00  6.50124920e-07  5.30183504e-03  6.50124920e-07  5.00000000e-01                                 
 7.25883620e-07  7.33407463e-01  7.25883620e-07  6.73663210e-01  7.25883620e-07  1.34132792e+00  7.25883620e-07  1.80000000e+00  7.25883620e-07 -5.27125939e-03  7.25883620e-07  5.00000000e-01                                 
 7.86834766e-07  7.83093892e-01  7.86834766e-07  7.18768089e-01  7.86834766e-07  1.32582035e+00  7.86834766e-07  1.80000000e+00  7.86834766e-07  5.29693004e-03  7.86834766e-07  5.00000000e-01                                 
 8.42788331e-07  7.84967282e-01  8.42788331e-07  7.20254375e-01  8.42788331e-07  1.26688817e+00  8.42788331e-07  1.80000000e+00  8.42788331e-07 -5.26998731e-03  8.42788331e-07  5.00000000e-01                                 
 8.50213064e-07  7.84980252e-01  8.50213064e-07  7.20291676e-01  8.50213064e-07  1.25977952e+00  8.50213064e-07  1.80000000e+00  8.50213064e-07 -1.48424283e-06  8.50213064e-07  5.00000000e-01                                 
 8.65062529e-07  7.84972179e-01  8.65062529e-07  7.20293017e-01  8.65062529e-07  1.24410718e+00  8.65062529e-07  1.80000000e+00  8.65062529e-07  3.41230913e-06  8.65062529e-07  5.00000000e-01                                 
 8.94761460e-07  7.84989797e-01  8.94761460e-07  7.20300489e-01  8.94761460e-07  1.21255508e+00  8.94761460e-07  1.80000000e+00  8.94761460e-07 -1.60574574e-06  8.94761460e-07  5.00000000e-01                                 
 9.40176272e-07  7.85173466e-01  9.40176272e-07  7.20460523e-01  9.40176272e-07  1.16453457e+00  9.40176272e-07  1.80000000e+00  9.40176272e-07  3.45120737e-06  9.40176272e-07  5.00000000e-01                                 
 9.46556835e-07  7.84664133e-01  9.46556835e-07  7.20040519e-01  9.46556835e-07  1.15726612e+00  9.46556835e-07  1.80000000e+00  9.46556835e-07  8.54295402e-07  9.46556835e-07  5.00000000e-01                                 
 9.59317960e-07  7.78888433e-01  9.59317960e-07  7.15264476e-01  9.59317960e-07  1.13842758e+00  9.59317960e-07  1.80000000e+00  9.59317960e-07  3.86273476e-07  9.59317960e-07  5.00000000e-01                                 
 9.84840210e-07  7.60184538e-01  9.84840210e-07  6.98964403e-01  9.84840210e-07  1.09336628e+00  9.84840210e-07  1.80000000e+00  9.84840210e-07  4.06730625e-07  9.84840210e-07  5.00000000e-01                                 
 1.01295132e-06  7.50386092e-01  1.01295132e-06  6.90030657e-01  1.01295132e-06  1.05417031e+00  1.01295132e-06  1.80000000e+00  1.01295132e-06  8.88406624e-07  1.01295132e-06  5.00000000e-01                                 
 1.04982380e-06  7.56725386e-01  1.04982380e-06  6.95789279e-01  1.04982380e-06  1.02271047e+00  1.04982380e-06  1.80000000e+00  1.04982380e-06  1.17316185e-06  1.04982380e-06  5.00000000e-01                                 
 1.09667268e-06  7.72107843e-01  1.09667268e-06  7.09415172e-01  1.09667268e-06  9.92277879e-01  1.09667268e-06  1.80000000e+00  1.09667268e-06  1.12722922e-06  1.09667268e-06  5.00000000e-01                                 
 1.16324651e-06  7.71448992e-01  1.16324651e-06  7.08874957e-01  1.16324651e-06  9.36286985e-01  1.16324651e-06  1.80000000e+00  1.16324651e-06  7.04691397e-07  1.16324651e-06  5.00000000e-01                                 
 1.23205419e-06  7.62851783e-01  1.23205419e-06  7.01310128e-01  1.23205419e-06  8.80647736e-01  1.23205419e-06  1.80000000e+00  1.23205419e-06  9.43417128e-07  1.23205419e-06  5.00000000e-01                                 
 1.34055649e-06  7.66952849e-01  1.34055649e-06  7.04936694e-01  1.34055649e-06  8.17180703e-01  1.34055649e-06  1.80000000e+00  1.34055649e-06  9.40890155e-07  1.34055649e-06  5.00000000e-01                                 
 1.45733078e-06  7.70303850e-01  1.45733078e-06  7.07865251e-01  1.45733078e-06  7.53492119e-01  1.45733078e-06  1.80000000e+00  1.45733078e-06  9.31004485e-07  1.45733078e-06  5.00000000e-01                                 
 1.62671476e-06  7.63069648e-01  1.62671476e-06  7.01512560e-01  1.62671476e-06  6.57320752e-01  1.62671476e-06  1.80000000e+00  1.62671476e-06  8.38117620e-07  1.62671476e-06  5.00000000e-01                                 
 1.80259996e-06  7.70213144e-01  1.80259996e-06  7.07777851e-01  1.80259996e-06  5.78285367e-01  1.80259996e-06  1.80000000e+00  1.80259996e-06  1.04784313e-06  1.80259996e-06  5.00000000e-01                                 
 2.04152996e-06  7.64675360e-01  2.04152996e-06  7.02943763e-01  2.04152996e-06  5.05082799e-01  2.04152996e-06  1.80000000e+00  2.04152996e-06  7.53290822e-07  2.04152996e-06  5.00000000e-01                                 
 2.07378666e-06  7.65245013e-01  2.07378666e-06  7.03433339e-01  2.07378666e-06  5.02707534e-01  2.07378666e-06  1.80000000e+00  2.07378666e-06  9.23580959e-07  2.07378666e-06  5.00000000e-01                                 
 2.13830006e-06  7.67535685e-01  2.13830006e-06  7.05447052e-01  2.13830006e-06  4.99510253e-01  2.13830006e-06  1.80000000e+00  2.13830006e-06  9.55941162e-07  2.13830006e-06  5.00000000e-01                                 
 2.26732685e-06  7.67568956e-01  2.26732685e-06  7.05482268e-01  2.26732685e-06  4.91620593e-01  2.26732685e-06  1.80000000e+00  2.26732685e-06  8.75394863e-07  2.26732685e-06  5.00000000e-01                                 
 2.43881685e-06  7.66205217e-01  2.43881685e-06  7.04278810e-01  2.43881685e-06  4.93343551e-01  2.43881685e-06  1.80000000e+00  2.43881685e-06  9.43016021e-07  2.43881685e-06  5.00000000e-01                                 
 2.45857858e-06  7.66809937e-01  2.45857858e-06  7.04811281e-01  2.45857858e-06  4.95961894e-01  2.45857858e-06  1.80000000e+00  2.45857858e-06  9.38147392e-07  2.45857858e-06  5.00000000e-01                                 
 2.49810205e-06  7.67609337e-01  2.49810205e-06  7.05514119e-01  2.49810205e-06  4.99813970e-01  2.49810205e-06  1.80000000e+00  2.49810205e-06  9.19017966e-07  2.49810205e-06  5.00000000e-01                                 
 2.57714899e-06  7.67175247e-01  2.57714899e-06  7.05135018e-01  2.57714899e-06  5.00820515e-01  2.57714899e-06  1.80000000e+00  2.57714899e-06  9.00429580e-07  2.57714899e-06  5.00000000e-01                                 
 2.73524286e-06  7.66775161e-01  2.73524286e-06  7.04781525e-01  2.73524286e-06  4.99696999e-01  2.73524286e-06  1.80000000e+00  2.73524286e-06  9.25129605e-07  2.73524286e-06  5.00000000e-01                                 
 3.01982616e-06  7.67478872e-01  3.01982616e-06  7.05400876e-01  3.01982616e-06  5.00657882e-01  3.01982616e-06  1.80000000e+00  3.01982616e-06  9.07563459e-07  3.01982616e-06  5.00000000e-01                                 
 3.43185096e-06  7.66689830e-01  3.43185096e-06  7.04707004e-01  3.43185096e-06  4.99720677e-01  3.43185096e-06  1.80000000e+00  3.43185096e-06  9.18813172e-07  3.43185096e-06  5.00000000e-01                                 
 4.25590055e-06  7.67494654e-01  4.25590055e-06  7.05414422e-01  4.25590055e-06  5.00648308e-01  4.25590055e-06  1.80000000e+00  4.25590055e-06  9.11709369e-07  4.25590055e-06  5.00000000e-01                                 
 5.25590055e-06  7.66695162e-01  5.25590055e-06  7.04711889e-01  5.25590055e-06  4.99731307e-01  5.25590055e-06  1.80000000e+00  5.25590055e-06  9.16277074e-07  5.25590055e-06  5.00000000e-01                                 
 6.25590055e-06  7.67481620e-01  6.25590055e-06  7.05402799e-01  6.25590055e-06  5.00633725e-01  6.25590055e-06  1.80000000e+00  6.25590055e-06  9.13967092e-07  6.25590055e-06  5.00000000e-01                                 
 7.25590055e-06  7.66715290e-01  7.25590055e-06  7.04729755e-01  7.25590055e-06  4.99750538e-01  7.25590055e-06  1.80000000e+00  7.25590055e-06  9.14072970e-07  7.25590055e-06  5.00000000e-01                                 
 8.25590055e-06  7.67455398e-01  8.25590055e-06  7.05379635e-01  8.25590055e-06  5.00609275e-01  8.25590055e-06  1.80000000e+00  8.25590055e-06  9.16098803e-07  8.25590055e-06  5.00000000e-01                                 
 9.25590055e-06  7.66747970e-01  9.25590055e-06  7.04758644e-01  9.25590055e-06  4.99780567e-01  9.25590055e-06  1.80000000e+00  9.25590055e-06  9.12031447e-07  9.25590055e-06  5.00000000e-01                                 
 1.00005000e-05  7.67410477e-01  1.00005000e-05  7.05340055e-01  1.00005000e-05  5.00566640e-01  1.00005000e-05  1.80000000e+00  1.00005000e-05  9.18341670e-07  1.00005000e-05  5.00000000e-01                                 
 1.00005500e-05  7.67410656e-01  1.00005500e-05  7.05340215e-01  1.00005500e-05  4.92686560e-01  1.00005500e-05  1.62000000e+00  1.00005500e-05 -7.84694277e-05  1.00005500e-05  5.00000000e-01                                 
 1.00006500e-05  7.67411028e-01  1.00006500e-05  7.05340544e-01  1.00006500e-05  4.78870875e-01  1.00006500e-05  1.26000000e+00  1.00006500e-05 -6.08311176e-05  1.00006500e-05  5.00000000e-01                                 
 1.00008500e-05  7.67411804e-01  1.00008500e-05  7.05341225e-01  1.00008500e-05  4.76751177e-01  1.00008500e-05  5.40000000e-01  1.00008500e-05 -4.09253566e-03  1.00008500e-05  5.00000000e-01                                 
 1.00010000e-05  7.67412288e-01  1.00010000e-05  7.05341678e-01  1.00010000e-05  4.37779366e-01  1.00010000e-05  0.00000000e+00  1.00010000e-05  1.57558791e+00  1.00010000e-05  5.00000000e-01                                 
