 time            v(vbep)         time            v(vben)         time            v(vout)         time            v(vphi1)        time            v(vphi2)        time            v(vref)         yes             currtemp       
 0.00000000e+00  5.63656804e-01  0.00000000e+00  4.97138405e-01  0.00000000e+00  9.17313023e-01  0.00000000e+00  0.00000000e+00  0.00000000e+00  1.79995618e+00  0.00000000e+00  5.00000000e-01  1.00000000e+00  9.20000000e+01 
 5.00000000e-12  5.63625489e-01  5.00000000e-12  4.97112524e-01  5.00000000e-12  9.18106129e-01  5.00000000e-12  1.80000000e-02  5.00000000e-12  1.80007314e+00  5.00000000e-12  5.00000000e-01                                 
 1.00000000e-11  5.63594949e-01  1.00000000e-11  4.97087319e-01  1.00000000e-11  9.18828784e-01  1.00000000e-11  3.60000000e-02  1.00000000e-11  1.80013293e+00  1.00000000e-11  5.00000000e-01                                 
 2.00000000e-11  5.63534327e-01  2.00000000e-11  4.97037100e-01  2.00000000e-11  9.20163460e-01  2.00000000e-11  7.20000000e-02  2.00000000e-11  1.80018586e+00  2.00000000e-11  5.00000000e-01                                 
 4.00000000e-11  5.63413868e-01  4.00000000e-11  4.96937039e-01  4.00000000e-11  9.22339274e-01  4.00000000e-11  1.44000000e-01  4.00000000e-11  1.80014327e+00  4.00000000e-11  5.00000000e-01                                 
 8.00000000e-11  5.63174063e-01  8.00000000e-11  4.96737755e-01  8.00000000e-11  9.25460826e-01  8.00000000e-11  2.88000000e-01  8.00000000e-11  1.80006147e+00  8.00000000e-11  5.00000000e-01                                 
 1.60000000e-10  5.62699174e-01  1.60000000e-10  4.96342467e-01  1.60000000e-10  9.29269469e-01  1.60000000e-10  5.76000000e-01  1.60000000e-10  1.80000283e+00  1.60000000e-10  5.00000000e-01                                 
 3.20000000e-10  5.61767192e-01  3.20000000e-10  4.95564562e-01  3.20000000e-10  9.25013585e-01  3.20000000e-10  1.15200000e+00  3.20000000e-10  1.80050249e+00  3.20000000e-10  5.00000000e-01                                 
 5.00000000e-10  5.60746147e-01  5.00000000e-10  4.94708929e-01  5.00000000e-10  1.03846358e+00  5.00000000e-10  1.80000000e+00  5.00000000e-10  1.42284933e-01  5.00000000e-10  5.00000000e-01                                 
 5.22704916e-10  5.60619587e-01  5.22704916e-10  4.94602605e-01  5.22704916e-10  1.06762694e+00  5.22704916e-10  1.80000000e+00  5.22704916e-10  3.11667674e-02  5.22704916e-10  5.00000000e-01                                 
 5.68114747e-10  5.60367313e-01  5.68114747e-10  4.94390554e-01  5.68114747e-10  1.12294924e+00  5.68114747e-10  1.80000000e+00  5.68114747e-10 -1.37461131e-02  5.68114747e-10  5.00000000e-01                                 
 6.58934410e-10  5.59867913e-01  6.58934410e-10  4.93970160e-01  6.58934410e-10  1.22000514e+00  6.58934410e-10  1.80000000e+00  6.58934410e-10  1.11787541e-02  6.58934410e-10  5.00000000e-01                                 
 7.81810481e-10  5.59202914e-01  7.81810481e-10  4.93409089e-01  7.81810481e-10  1.33199510e+00  7.81810481e-10  1.80000000e+00  7.81810481e-10 -9.31072349e-03  7.81810481e-10  5.00000000e-01                                 
 9.79454183e-10  5.58157981e-01  9.79454183e-10  4.92524558e-01  9.79454183e-10  1.47117617e+00  9.79454183e-10  1.80000000e+00  9.79454183e-10  8.67938328e-03  9.79454183e-10  5.00000000e-01                                 
 1.37474159e-09  5.56153492e-01  1.37474159e-09  4.90818068e-01  1.37474159e-09  1.63445260e+00  1.37474159e-09  1.80000000e+00  1.37474159e-09 -8.11107855e-03  1.37474159e-09  5.00000000e-01                                 
 1.70607649e-09  5.54555446e-01  1.70607649e-09  4.89448359e-01  1.70607649e-09  1.69298479e+00  1.70607649e-09  1.80000000e+00  1.70607649e-09  7.80439088e-03  1.70607649e-09  5.00000000e-01                                 
 2.04529753e-09  5.52989757e-01  2.04529753e-09  4.88098670e-01  2.04529753e-09  1.71838616e+00  2.04529753e-09  1.80000000e+00  2.04529753e-09 -7.25983997e-03  2.04529753e-09  5.00000000e-01                                 
 2.40271919e-09  5.51410812e-01  2.40271919e-09  4.86729991e-01  2.40271919e-09  1.72865416e+00  2.40271919e-09  1.80000000e+00  2.40271919e-09  7.00953225e-03  2.40271919e-09  5.00000000e-01                                 
 2.81696197e-09  5.49663919e-01  2.81696197e-09  4.85207103e-01  2.81696197e-09  1.73188308e+00  2.81696197e-09  1.80000000e+00  2.81696197e-09 -6.62011183e-03  2.81696197e-09  5.00000000e-01                                 
 3.27090175e-09  5.47843050e-01  3.27090175e-09  4.83610297e-01  3.27090175e-09  1.73197638e+00  3.27090175e-09  1.80000000e+00  3.27090175e-09  6.42597286e-03  3.27090175e-09  5.00000000e-01                                 
 3.77816082e-09  5.45912886e-01  3.77816082e-09  4.81907430e-01  3.77816082e-09  1.73067198e+00  3.77816082e-09  1.80000000e+00  3.77816082e-09 -6.14155499e-03  3.77816082e-09  5.00000000e-01                                 
 4.46546066e-09  5.43454216e-01  4.46546066e-09  4.79723684e-01  4.46546066e-09  1.72872185e+00  4.46546066e-09  1.80000000e+00  4.46546066e-09  6.03486133e-03  4.46546066e-09  5.00000000e-01                                 
 5.48038635e-09  5.40108343e-01  5.48038635e-09  4.76726909e-01  5.48038635e-09  1.72569381e+00  5.48038635e-09  1.80000000e+00  5.48038635e-09 -5.87591212e-03  5.48038635e-09  5.00000000e-01                                 
 7.37008198e-09  5.34603301e-01  7.37008198e-09  4.71738896e-01  7.37008198e-09  1.72068828e+00  7.37008198e-09  1.80000000e+00  7.37008198e-09  5.87168289e-03  7.37008198e-09  5.00000000e-01                                 
 1.11494732e-08  5.25591503e-01  1.11494732e-08  4.63439894e-01  1.11494732e-08  1.71112639e+00  1.11494732e-08  1.80000000e+00  1.11494732e-08 -5.79141690e-03  1.11494732e-08  5.00000000e-01                                 
 1.87082557e-08  5.12191019e-01  1.87082557e-08  4.50869092e-01  1.87082557e-08  1.69139297e+00  1.87082557e-08  1.80000000e+00  1.87082557e-08  5.83058402e-03  1.87082557e-08  5.00000000e-01                                 
 3.38258208e-08  4.93289076e-01  3.38258208e-08  4.33005382e-01  3.38258208e-08  1.64021713e+00  3.38258208e-08  1.80000000e+00  3.38258208e-08 -5.77010764e-03  3.38258208e-08  5.00000000e-01                                 
 5.55063098e-08  4.74440983e-01  5.55063098e-08  4.15278438e-01  5.55063098e-08  1.53264723e+00  5.55063098e-08  1.80000000e+00  5.55063098e-08  5.81939365e-03  5.55063098e-08  5.00000000e-01                                 
 7.94321247e-08  4.58844732e-01  7.94321247e-08  4.00787999e-01  7.94321247e-08  1.38321622e+00  7.94321247e-08  1.80000000e+00  7.94321247e-08 -5.76072404e-03  7.94321247e-08  5.00000000e-01                                 
 1.06904391e-07  4.52219739e-01  1.06904391e-07  3.93675496e-01  1.06904391e-07  1.23731984e+00  1.06904391e-07  1.80000000e+00  1.06904391e-07  5.81179296e-03  1.06904391e-07  5.00000000e-01                                 
 1.36400234e-07  4.50518297e-01  1.36400234e-07  3.90728212e-01  1.36400234e-07  1.07779623e+00  1.36400234e-07  1.80000000e+00  1.36400234e-07 -5.75329605e-03  1.36400234e-07  5.00000000e-01                                 
 1.60541026e-07  4.45651171e-01  1.60541026e-07  3.85793335e-01  1.60541026e-07  9.62525201e-01  1.60541026e-07  1.80000000e+00  1.60541026e-07  5.80384733e-03  1.60541026e-07  5.00000000e-01                                 
 1.88073716e-07  4.40612537e-01  1.88073716e-07  3.80742488e-01  1.88073716e-07  8.73414696e-01  1.88073716e-07  1.80000000e+00  1.88073716e-07 -5.74533177e-03  1.88073716e-07  5.00000000e-01                                 
 2.29244161e-07  4.34545213e-01  2.29244161e-07  3.74593529e-01  2.29244161e-07  7.65260895e-01  2.29244161e-07  1.80000000e+00  2.29244161e-07  5.79763655e-03  2.29244161e-07  5.00000000e-01                                 
 2.69810418e-07  4.25099821e-01  2.69810418e-07  3.66004386e-01  2.69810418e-07  6.58935429e-01  2.69810418e-07  1.80000000e+00  2.69810418e-07 -5.74044240e-03  2.69810418e-07  5.00000000e-01                                 
 3.28279935e-07  4.09228066e-01  3.28279935e-07  3.52111088e-01  3.28279935e-07  5.33868634e-01  3.28279935e-07  1.80000000e+00  3.28279935e-07  5.79330425e-03  3.28279935e-07  5.00000000e-01                                 
 4.02591348e-07  3.90354789e-01  4.02591348e-07  3.35850286e-01  4.02591348e-07  4.59419912e-01  4.02591348e-07  1.80000000e+00  4.02591348e-07 -5.73731261e-03  4.02591348e-07  5.00000000e-01                                 
 4.81501910e-07  3.67533633e-01  4.81501910e-07  3.16724218e-01  4.81501910e-07  4.43977562e-01  4.81501910e-07  1.80000000e+00  4.81501910e-07  5.79059604e-03  4.81501910e-07  5.00000000e-01                                 
 4.91127443e-07  3.64815578e-01  4.91127443e-07  3.14467273e-01  4.91127443e-07  4.46314386e-01  4.91127443e-07  1.80000000e+00  4.91127443e-07  1.66019353e-05  4.91127443e-07  5.00000000e-01                                 
 5.10378509e-07  3.58784735e-01  5.10378509e-07  3.09486452e-01  5.10378509e-07  4.74333707e-01  5.10378509e-07  1.80000000e+00  5.10378509e-07  1.11169142e-05  5.10378509e-07  5.00000000e-01                                 
 5.39982850e-07  3.48258994e-01  5.39982850e-07  3.00858346e-01  5.39982850e-07  5.32898590e-01  5.39982850e-07  1.80000000e+00  5.39982850e-07  1.65412134e-05  5.39982850e-07  5.00000000e-01                                 
 5.72374509e-07  3.35505431e-01  5.72374509e-07  2.90468921e-01  5.72374509e-07  5.32836403e-01  5.72374509e-07  1.80000000e+00  5.72374509e-07  1.10798334e-05  5.72374509e-07  5.00000000e-01                                 
 6.03299126e-07  3.22154412e-01  6.03299126e-07  2.79645644e-01  6.03299126e-07  4.91850200e-01  6.03299126e-07  1.80000000e+00  6.03299126e-07  1.65073659e-05  6.03299126e-07  5.00000000e-01                                 
 6.35745823e-07  3.08809007e-01  6.35745823e-07  2.68857258e-01  6.35745823e-07  4.70566802e-01  6.35745823e-07  1.80000000e+00  6.35745823e-07  1.11116524e-05  6.35745823e-07  5.00000000e-01                                 
 6.72702838e-07  3.04490531e-01  6.72702838e-07  2.65352652e-01  6.72702838e-07  4.88779299e-01  6.72702838e-07  1.80000000e+00  6.72702838e-07  1.68181566e-05  6.72702838e-07  5.00000000e-01                                 
 7.10045210e-07  3.54633321e-01  7.10045210e-07  3.05596300e-01  7.10045210e-07  5.43004250e-01  7.10045210e-07  1.80000000e+00  7.10045210e-07  1.26811568e-05  7.10045210e-07  5.00000000e-01                                 
 7.53193889e-07  5.96690329e-01  7.53193889e-07  5.25649338e-01  7.53193889e-07  6.13921554e-01  7.53193889e-07  1.80000000e+00  7.53193889e-07  2.27182636e-05  7.53193889e-07  5.00000000e-01                                 
 7.84451225e-07  6.71635653e-01  7.84451225e-07  5.99613074e-01  7.84451225e-07  5.54196012e-01  7.84451225e-07  1.80000000e+00  7.84451225e-07  9.47720082e-06  7.84451225e-07  5.00000000e-01                                 
 8.14529220e-07  7.02212299e-01  8.14529220e-07  6.25475602e-01  8.14529220e-07  5.14303363e-01  8.14529220e-07  1.80000000e+00  8.14529220e-07  2.02394867e-05  8.14529220e-07  5.00000000e-01                                 
 8.51516806e-07  7.07083329e-01  8.51516806e-07  6.29493933e-01  8.51516806e-07  4.88769559e-01  8.51516806e-07  1.80000000e+00  8.51516806e-07  8.13226395e-06  8.51516806e-07  5.00000000e-01                                 
 8.93425778e-07  7.05842513e-01  8.93425778e-07  6.28422854e-01  8.93425778e-07  4.79282793e-01  8.93425778e-07  1.80000000e+00  8.93425778e-07  1.98052893e-05  8.93425778e-07  5.00000000e-01                                 
 9.35110997e-07  7.06976675e-01  9.35110997e-07  6.29398413e-01  9.35110997e-07  4.85214378e-01  9.35110997e-07  1.80000000e+00  9.35110997e-07  8.36676220e-06  9.35110997e-07  5.00000000e-01                                 
 9.42061161e-07  7.06423602e-01  9.42061161e-07  6.28932151e-01  9.42061161e-07  4.87526866e-01  9.42061161e-07  1.80000000e+00  9.42061161e-07  1.38695772e-05  9.42061161e-07  5.00000000e-01                                 
 9.55961490e-07  7.06305573e-01  9.55961490e-07  6.28825714e-01  9.55961490e-07  4.97184534e-01  9.55961490e-07  1.80000000e+00  9.55961490e-07  1.41720176e-05  9.55961490e-07  5.00000000e-01                                 
 9.83762149e-07  6.93604332e-01  9.83762149e-07  6.18534805e-01  9.83762149e-07  5.07471293e-01  9.83762149e-07  1.80000000e+00  9.83762149e-07  1.31130069e-05  9.83762149e-07  5.00000000e-01                                 
 1.01521787e-06  6.69311273e-01  1.01521787e-06  5.97566941e-01  1.01521787e-06  4.94744895e-01  1.01521787e-06  1.80000000e+00  1.01521787e-06  1.36149079e-05  1.01521787e-06  5.00000000e-01                                 
 1.05113565e-06  6.71046482e-01  1.05113565e-06  5.99062706e-01  1.05113565e-06  4.96707826e-01  1.05113565e-06  1.80000000e+00  1.05113565e-06  1.45174214e-05  1.05113565e-06  5.00000000e-01                                 
 1.08860972e-06  6.88690412e-01  1.08860972e-06  6.14338344e-01  1.08860972e-06  5.10552405e-01  1.08860972e-06  1.80000000e+00  1.08860972e-06  1.43409191e-05  1.08860972e-06  5.00000000e-01                                 
 1.13831160e-06  6.95207069e-01  1.13831160e-06  6.19820088e-01  1.13831160e-06  5.02427947e-01  1.13831160e-06  1.80000000e+00  1.13831160e-06  1.39407504e-05  1.13831160e-06  5.00000000e-01                                 
 1.19243062e-06  6.86430567e-01  1.19243062e-06  6.12455438e-01  1.19243062e-06  4.90105049e-01  1.19243062e-06  1.80000000e+00  1.19243062e-06  1.38415057e-05  1.19243062e-06  5.00000000e-01                                 
 1.26672379e-06  6.81879717e-01  1.26672379e-06  6.08557572e-01  1.26672379e-06  5.04629757e-01  1.26672379e-06  1.80000000e+00  1.26672379e-06  1.41094934e-05  1.26672379e-06  5.00000000e-01                                 
 1.34694369e-06  6.91433739e-01  1.34694369e-06  6.16657471e-01  1.34694369e-06  5.05176163e-01  1.34694369e-06  1.80000000e+00  1.34694369e-06  1.41472225e-05  1.34694369e-06  5.00000000e-01                                 
 1.43801103e-06  6.86446614e-01  1.43801103e-06  6.12481400e-01  1.43801103e-06  4.91142499e-01  1.43801103e-06  1.80000000e+00  1.43801103e-06  1.38187191e-05  1.43801103e-06  5.00000000e-01                                 
 1.55472638e-06  6.84961040e-01  1.55472638e-06  6.11182173e-01  1.55472638e-06  5.07535828e-01  1.55472638e-06  1.80000000e+00  1.55472638e-06  1.42140985e-05  1.55472638e-06  5.00000000e-01                                 
 1.68717160e-06  6.90319236e-01  1.68717160e-06  6.15746742e-01  1.68717160e-06  4.97403424e-01  1.68717160e-06  1.80000000e+00  1.68717160e-06  1.39113187e-05  1.68717160e-06  5.00000000e-01                                 
 1.82098373e-06  6.84136988e-01  1.82098373e-06  6.10487161e-01  1.82098373e-06  4.98279380e-01  1.82098373e-06  1.80000000e+00  1.82098373e-06  1.40666595e-05  1.82098373e-06  5.00000000e-01                                 
 1.98555256e-06  6.88948767e-01  1.98555256e-06  6.14586113e-01  1.98555256e-06  5.05262533e-01  1.98555256e-06  1.80000000e+00  1.98555256e-06  1.40385100e-05  1.98555256e-06  5.00000000e-01                                 
 2.20519595e-06  6.86216655e-01  2.20519595e-06  6.12265097e-01  2.20519595e-06  4.93916788e-01  2.20519595e-06  1.80000000e+00  2.20519595e-06  1.39970315e-05  2.20519595e-06  5.00000000e-01                                 
 2.46951739e-06  6.87276187e-01  2.46951739e-06  6.13170397e-01  2.46951739e-06  5.06886362e-01  2.46951739e-06  1.80000000e+00  2.46951739e-06  1.40655682e-05  2.46951739e-06  5.00000000e-01                                 
 2.82071050e-06  6.87502098e-01  2.82071050e-06  6.13356246e-01  2.82071050e-06  4.93847237e-01  2.82071050e-06  1.80000000e+00  2.82071050e-06  1.39918556e-05  2.82071050e-06  5.00000000e-01                                 
 3.17192302e-06  6.86350627e-01  3.17192302e-06  6.12385206e-01  3.17192302e-06  5.06107088e-01  3.17192302e-06  1.80000000e+00  3.17192302e-06  1.40586263e-05  3.17192302e-06  5.00000000e-01                                 
 3.59982408e-06  6.88169955e-01  3.59982408e-06  6.13920595e-01  3.59982408e-06  4.95099778e-01  3.59982408e-06  1.80000000e+00  3.59982408e-06  1.40047459e-05  3.59982408e-06  5.00000000e-01                                 
 4.06724724e-06  6.85908624e-01  4.06724724e-06  6.12010196e-01  4.06724724e-06  5.04662714e-01  4.06724724e-06  1.80000000e+00  4.06724724e-06  1.40432371e-05  4.06724724e-06  5.00000000e-01                                 
 4.60617847e-06  6.88429367e-01  4.60617847e-06  6.14138864e-01  4.60617847e-06  4.96608229e-01  4.60617847e-06  1.80000000e+00  4.60617847e-06  1.40207611e-05  4.60617847e-06  5.00000000e-01                                 
 5.24313592e-06  6.85766697e-01  5.24313592e-06  6.11890268e-01  5.24313592e-06  5.03244167e-01  5.24313592e-06  1.80000000e+00  5.24313592e-06  1.40283927e-05  5.24313592e-06  5.00000000e-01                                 
 5.99802112e-06  6.88479491e-01  5.99802112e-06  6.14180448e-01  5.99802112e-06  4.97868506e-01  5.99802112e-06  1.80000000e+00  5.99802112e-06  1.40337452e-05  5.99802112e-06  5.00000000e-01                                 
 6.93578909e-06  6.85765345e-01  6.93578909e-06  6.11889760e-01  6.93578909e-06  5.02172829e-01  6.93578909e-06  1.80000000e+00  6.93578909e-06  1.40175871e-05  6.93578909e-06  5.00000000e-01                                 
 7.93578909e-06  6.88450373e-01  7.93578909e-06  6.14155323e-01  7.93578909e-06  4.98804610e-01  7.93578909e-06  1.80000000e+00  7.93578909e-06  1.40430140e-05  7.93578909e-06  5.00000000e-01                                 
 8.93578909e-06  6.85819933e-01  8.93578909e-06  6.11936756e-01  8.93578909e-06  5.01266693e-01  8.93578909e-06  1.80000000e+00  8.93578909e-06  1.40087774e-05  8.93578909e-06  5.00000000e-01                                 
 9.93578909e-06  6.88376443e-01  9.93578909e-06  6.14092381e-01  9.93578909e-06  4.99700643e-01  9.93578909e-06  1.80000000e+00  9.93578909e-06  1.40515900e-05  9.93578909e-06  5.00000000e-01                                 
 1.00005000e-05  6.87044292e-01  1.00005000e-05  6.12979262e-01  1.00005000e-05  4.96286472e-01  1.00005000e-05  1.80000000e+00  1.00005000e-05  1.39715376e-05  1.00005000e-05  5.00000000e-01                                 
 1.00005500e-05  6.87035334e-01  1.00005500e-05  6.12970823e-01  1.00005500e-05  4.89039986e-01  1.00005500e-05  1.62000000e+00  1.00005500e-05 -8.00580889e-05  1.00005500e-05  5.00000000e-01                                 
 1.00006500e-05  6.87016502e-01  1.00006500e-05  6.12954435e-01  1.00006500e-05  4.75596994e-01  1.00006500e-05  1.26000000e+00  1.00006500e-05 -6.96123817e-05  1.00006500e-05  5.00000000e-01                                 
 1.00008500e-05  6.86983222e-01  1.00008500e-05  6.12926082e-01  1.00008500e-05  4.75348560e-01  1.00008500e-05  5.40000000e-01  1.00008500e-05  1.53802081e-01  1.00008500e-05  5.00000000e-01                                 
 1.00010000e-05  6.86962611e-01  1.00010000e-05  6.12908106e-01  1.00010000e-05  4.47338537e-01  1.00010000e-05  0.00000000e+00  1.00010000e-05  1.63592457e+00  1.00010000e-05  5.00000000e-01                                 
 1.00010247e-05  6.86959414e-01  1.00010247e-05  6.12905389e-01  1.00010247e-05  4.32117142e-01  1.00010247e-05  0.00000000e+00  1.00010247e-05  1.74487088e+00  1.00010247e-05  5.00000000e-01                                 
 1.00010741e-05  6.86953280e-01  1.00010741e-05  6.12900091e-01  1.00010741e-05  4.07017764e-01  1.00010741e-05  0.00000000e+00  1.00010741e-05  1.81577872e+00  1.00010741e-05  5.00000000e-01                                 
