 time            v(vbep)         time            v(vben)         time            v(vout)         time            v(vphi1)        time            v(vphi2)        time            v(vref)         yes             currtemp       
 0.00000000e+00  7.49662348e-01  0.00000000e+00  7.01173446e-01  0.00000000e+00  9.16461276e-01  0.00000000e+00  0.00000000e+00  0.00000000e+00  1.79996086e+00  0.00000000e+00  5.00000000e-01  1.00000000e+00 -8.00000000e+00 
 5.00000000e-12  7.49638617e-01  5.00000000e-12  7.01153731e-01  5.00000000e-12  9.17157033e-01  5.00000000e-12  1.80000000e-02  5.00000000e-12  1.80005987e+00  5.00000000e-12  5.00000000e-01                                 
 1.00000000e-11  7.49615457e-01  1.00000000e-11  7.01134496e-01  1.00000000e-11  9.17779858e-01  1.00000000e-11  3.60000000e-02  1.00000000e-11  1.80010811e+00  1.00000000e-11  5.00000000e-01                                 
 2.00000000e-11  7.49569482e-01  2.00000000e-11  7.01096166e-01  2.00000000e-11  9.18909589e-01  2.00000000e-11  7.20000000e-02  2.00000000e-11  1.80014860e+00  2.00000000e-11  5.00000000e-01                                 
 4.00000000e-11  7.49478130e-01  4.00000000e-11  7.01019791e-01  4.00000000e-11  9.20666830e-01  4.00000000e-11  1.44000000e-01  4.00000000e-11  1.80010931e+00  4.00000000e-11  5.00000000e-01                                 
 8.00000000e-11  7.49296288e-01  8.00000000e-11  7.00867696e-01  8.00000000e-11  9.23018933e-01  8.00000000e-11  2.88000000e-01  8.00000000e-11  1.80003842e+00  8.00000000e-11  5.00000000e-01                                 
 1.60000000e-10  7.48936346e-01  1.60000000e-10  7.00566137e-01  1.60000000e-10  9.26092035e-01  1.60000000e-10  5.76000000e-01  1.60000000e-10  1.80000146e+00  1.60000000e-10  5.00000000e-01                                 
 3.20000000e-10  7.48230606e-01  3.20000000e-10  6.99973193e-01  3.20000000e-10  9.19196672e-01  3.20000000e-10  1.15200000e+00  3.20000000e-10  1.80027651e+00  3.20000000e-10  5.00000000e-01                                 
 5.00000000e-10  7.47458450e-01  5.00000000e-10  6.99321810e-01  5.00000000e-10  1.07653435e+00  5.00000000e-10  1.80000000e+00  5.00000000e-10  9.71559146e-02  5.00000000e-10  5.00000000e-01                                 
 5.20760736e-10  7.47370983e-01  5.20760736e-10  6.99247837e-01  5.20760736e-10  1.11160202e+00  5.20760736e-10  1.80000000e+00  5.20760736e-10  1.73465106e-02  5.20760736e-10  5.00000000e-01                                 
 5.62282207e-10  7.47196607e-01  5.62282207e-10  6.99100287e-01  5.62282207e-10  1.17493259e+00  5.62282207e-10  1.80000000e+00  5.62282207e-10 -8.07806783e-03  5.62282207e-10  5.00000000e-01                                 
 6.45325150e-10  7.46851254e-01  6.45325150e-10  6.98807662e-01  6.45325150e-10  1.27750722e+00  6.45325150e-10  1.80000000e+00  6.45325150e-10  7.13055485e-03  6.45325150e-10  5.00000000e-01                                 
 7.68662801e-10  7.46346511e-01  7.68662801e-10  6.98379024e-01  7.68662801e-10  1.40053347e+00  7.68662801e-10  1.80000000e+00  7.68662801e-10 -6.24156052e-03  7.68662801e-10  5.00000000e-01                                 
 9.56607485e-10  7.45595442e-01  9.56607485e-10  6.97739114e-01  9.56607485e-10  1.54294479e+00  9.56607485e-10  1.80000000e+00  9.56607485e-10  5.97222383e-03  9.56607485e-10  5.00000000e-01                                 
 1.33249685e-09  7.44154175e-01  1.33249685e-09  6.96504357e-01  1.33249685e-09  1.71373959e+00  1.33249685e-09  1.80000000e+00  1.33249685e-09 -5.67910617e-03  1.33249685e-09  5.00000000e-01                                 
 1.66591208e-09  7.42939278e-01  1.66591208e-09  6.95456530e-01  1.66591208e-09  1.77944076e+00  1.66591208e-09  1.80000000e+00  1.66591208e-09  5.54542014e-03  1.66591208e-09  5.00000000e-01                                 
 1.99011021e-09  7.41810320e-01  1.99011021e-09  6.94477207e-01  1.99011021e-09  1.80617415e+00  1.99011021e-09  1.80000000e+00  1.99011021e-09 -5.26009787e-03  1.99011021e-09  5.00000000e-01                                 
 2.33589441e-09  7.40658126e-01  2.33589441e-09  6.93472298e-01  2.33589441e-09  1.81749208e+00  2.33589441e-09  1.80000000e+00  2.33589441e-09  5.15413224e-03  2.33589441e-09  5.00000000e-01                                 
 2.67751513e-09  7.39568209e-01  2.67751513e-09  6.92516755e-01  2.67751513e-09  1.82113852e+00  2.67751513e-09  1.80000000e+00  2.67751513e-09 -4.91779382e-03  2.67751513e-09  5.00000000e-01                                 
 3.07505425e-09  7.38355272e-01  3.07505425e-09  6.91447864e-01  3.07505425e-09  1.82197992e+00  3.07505425e-09  1.80000000e+00  3.07505425e-09  4.80133487e-03  3.07505425e-09  5.00000000e-01                                 
 3.54351815e-09  7.36995675e-01  3.54351815e-09  6.90243024e-01  3.54351815e-09  1.82142144e+00  3.54351815e-09  1.80000000e+00  3.54351815e-09 -4.65456103e-03  3.54351815e-09  5.00000000e-01                                 
 4.29590639e-09  7.34951541e-01  4.29590639e-09  6.88418859e-01  4.29590639e-09  1.81985740e+00  4.29590639e-09  1.80000000e+00  4.29590639e-09  4.59710785e-03  4.29590639e-09  5.00000000e-01                                 
 5.36101506e-09  7.32310361e-01  5.36101506e-09  6.86040232e-01  5.36101506e-09  1.81752741e+00  5.36101506e-09  1.80000000e+00  5.36101506e-09 -4.52820648e-03  5.36101506e-09  5.00000000e-01                                 
 7.34844335e-09  7.28001739e-01  7.34844335e-09  6.82112541e-01  7.34844335e-09  1.81350865e+00  7.34844335e-09  1.80000000e+00  7.34844335e-09  4.51672420e-03  7.34844335e-09  5.00000000e-01                                 
 1.13232999e-08  7.21053740e-01  1.13232999e-08  6.75672058e-01  1.13232999e-08  1.80557198e+00  1.13232999e-08  1.80000000e+00  1.13232999e-08 -4.48629060e-03  1.13232999e-08  5.00000000e-01                                 
 1.92730131e-08  7.10970618e-01  1.92730131e-08  6.66140314e-01  1.92730131e-08  1.78771476e+00  1.92730131e-08  1.80000000e+00  1.92730131e-08  4.49643210e-03  1.92730131e-08  5.00000000e-01                                 
 3.51724394e-08  6.97296620e-01  3.51724394e-08  6.53074140e-01  3.51724394e-08  1.72873338e+00  3.51724394e-08  1.80000000e+00  3.51724394e-08 -4.47576702e-03  3.51724394e-08  5.00000000e-01                                 
 5.11641050e-08  6.85673047e-01  5.11641050e-08  6.42309909e-01  5.11641050e-08  1.63510591e+00  5.11641050e-08  1.80000000e+00  5.11641050e-08  4.48975186e-03  5.11641050e-08  5.00000000e-01                                 
 7.50034297e-08  6.72979460e-01  7.50034297e-08  6.30564836e-01  7.50034297e-08  1.48452909e+00  7.50034297e-08  1.80000000e+00  7.50034297e-08 -4.46993892e-03  7.50034297e-08  5.00000000e-01                                 
 1.00579268e-07  6.63013061e-01  1.00579268e-07  6.21351588e-01  1.00579268e-07  1.32931763e+00  1.00579268e-07  1.80000000e+00  1.00579268e-07  4.48549634e-03  1.00579268e-07  5.00000000e-01                                 
 1.27703366e-07  6.65032701e-01  1.27703366e-07  6.21826911e-01  1.27703366e-07  1.21574615e+00  1.27703366e-07  1.80000000e+00  1.27703366e-07 -4.46547174e-03  1.27703366e-07  5.00000000e-01                                 
 1.50802761e-07  6.67022133e-01  1.50802761e-07  6.22581769e-01  1.50802761e-07  1.09023346e+00  1.50802761e-07  1.80000000e+00  1.50802761e-07  4.48115907e-03  1.50802761e-07  5.00000000e-01                                 
 1.75287053e-07  6.60106102e-01  1.75287053e-07  6.16352565e-01  1.75287053e-07  9.41908092e-01  1.75287053e-07  1.80000000e+00  1.75287053e-07 -4.46126086e-03  1.75287053e-07  5.00000000e-01                                 
 1.99466590e-07  6.54065087e-01  1.99466590e-07  6.10918676e-01  1.99466590e-07  8.31368498e-01  1.99466590e-07  1.80000000e+00  1.99466590e-07  4.47674601e-03  1.99466590e-07  5.00000000e-01                                 
 2.21707102e-07  6.48859128e-01  2.21707102e-07  6.06266987e-01  2.21707102e-07  7.56611013e-01  2.21707102e-07  1.80000000e+00  2.21707102e-07 -4.45663132e-03  2.21707102e-07  5.00000000e-01                                 
 2.60940072e-07  6.39336301e-01  2.60940072e-07  5.97924372e-01  2.60940072e-07  6.68816463e-01  2.60940072e-07  1.80000000e+00  2.60940072e-07  4.47294129e-03  2.60940072e-07  5.00000000e-01                                 
 3.10587810e-07  6.27577020e-01  3.10587810e-07  5.87798858e-01  3.10587810e-07  5.82480320e-01  3.10587810e-07  1.80000000e+00  3.10587810e-07 -4.45419619e-03  3.10587810e-07  5.00000000e-01                                 
 3.61483084e-07  6.17123792e-01  3.61483084e-07  5.78867405e-01  3.61483084e-07  5.15259028e-01  3.61483084e-07  1.80000000e+00  3.61483084e-07  4.47083715e-03  3.61483084e-07  5.00000000e-01                                 
 4.42124979e-07  5.94183281e-01  4.42124979e-07  5.59945740e-01  4.42124979e-07  4.69820564e-01  4.42124979e-07  1.80000000e+00  4.42124979e-07 -4.45255662e-03  4.42124979e-07  5.00000000e-01                                 
 5.13411768e-07  5.74504247e-01  5.13411768e-07  5.43929667e-01  5.13411768e-07  4.56845271e-01  5.13411768e-07  1.80000000e+00  5.13411768e-07  4.46943926e-03  5.13411768e-07  5.00000000e-01                                 
 5.88398022e-07  5.50892766e-01  5.88398022e-07  5.24908741e-01  5.88398022e-07  4.53849433e-01  5.88398022e-07  1.80000000e+00  5.88398022e-07 -4.45114038e-03  5.88398022e-07  5.00000000e-01                                 
 5.96534190e-07  5.48100120e-01  5.96534190e-07  5.22668479e-01  5.96534190e-07  4.57963834e-01  5.96534190e-07  1.80000000e+00  5.96534190e-07 -1.63538752e-06  5.96534190e-07  5.00000000e-01                                 
 6.12806526e-07  5.42395141e-01  6.12806526e-07  5.18094251e-01  6.12806526e-07  4.77335443e-01  6.12806526e-07  1.80000000e+00  6.12806526e-07  1.44467245e-06  6.12806526e-07  5.00000000e-01                                 
 6.36791641e-07  5.34195399e-01  6.36791641e-07  5.11525865e-01  6.36791641e-07  5.09710444e-01  6.36791641e-07  1.80000000e+00  6.36791641e-07 -1.63208085e-06  6.36791641e-07  5.00000000e-01                                 
 6.64297887e-07  5.26728499e-01  6.64297887e-07  5.05549620e-01  6.64297887e-07  5.24868971e-01  6.64297887e-07  1.80000000e+00  6.64297887e-07  1.49611253e-06  6.64297887e-07  5.00000000e-01                                 
 6.95422489e-07  5.27522655e-01  6.95422489e-07  5.06185962e-01  6.95422489e-07  5.35693298e-01  6.95422489e-07  1.80000000e+00  6.95422489e-07 -1.41495904e-06  6.95422489e-07  5.00000000e-01                                 
 7.36961333e-07  5.94265198e-01  7.36961333e-07  5.59524130e-01  7.36961333e-07  5.38273272e-01  7.36961333e-07  1.80000000e+00  7.36961333e-07  2.65968738e-06  7.36961333e-07  5.00000000e-01                                 
 7.76112038e-07  7.76532027e-01  7.76112038e-07  7.25218375e-01  7.76112038e-07  5.71780341e-01  7.76112038e-07  1.80000000e+00  7.76112038e-07  1.66301441e-06  7.76112038e-07  5.00000000e-01                                 
 7.80147039e-07  7.87543590e-01  7.80147039e-07  7.37068871e-01  7.80147039e-07  5.68935935e-01  7.80147039e-07  1.80000000e+00  7.80147039e-07  1.70372008e-06  7.80147039e-07  5.00000000e-01                                 
 7.88217041e-07  8.01835792e-01  7.88217041e-07  7.51908923e-01  7.88217041e-07  5.57004981e-01  7.88217041e-07  1.80000000e+00  7.88217041e-07  5.19760810e-07  7.88217041e-07  5.00000000e-01                                 
 8.04357046e-07  8.20564952e-01  8.04357046e-07  7.69847670e-01  8.04357046e-07  5.34396761e-01  8.04357046e-07  1.80000000e+00  8.04357046e-07  9.10795849e-07  8.04357046e-07  5.00000000e-01                                 
 8.28926398e-07  8.39056906e-01  8.28926398e-07  7.86852090e-01  8.28926398e-07  5.18878875e-01  8.28926398e-07  1.80000000e+00  8.28926398e-07  9.13262115e-08  8.28926398e-07  5.00000000e-01                                 
 8.70732261e-07  8.73328773e-01  8.70732261e-07  8.15118158e-01  8.70732261e-07  5.17935581e-01  8.70732261e-07  1.80000000e+00  8.70732261e-07  9.33795205e-07  8.70732261e-07  5.00000000e-01                                 
 9.12035182e-07  9.24706507e-01  9.12035182e-07  8.49286402e-01  9.12035182e-07  5.25324932e-01  9.12035182e-07  1.80000000e+00  9.12035182e-07  5.70303788e-07  9.12035182e-07  5.00000000e-01                                 
 9.50123381e-07  9.37191286e-01  9.50123381e-07  8.56657260e-01  9.50123381e-07  5.08413795e-01  9.50123381e-07  1.80000000e+00  9.50123381e-07 -9.41801539e-08  9.50123381e-07  5.00000000e-01                                 
 9.85312893e-07  9.27968154e-01  9.85312893e-07  8.51391282e-01  9.85312893e-07  4.92955224e-01  9.85312893e-07  1.80000000e+00  9.85312893e-07 -1.11162029e-07  9.85312893e-07  5.00000000e-01                                 
 9.92875468e-07  9.30291346e-01  9.92875468e-07  8.52671047e-01  9.92875468e-07  4.94227511e-01  9.92875468e-07  1.80000000e+00  9.92875468e-07  1.69506966e-07  9.92875468e-07  5.00000000e-01                                 
 1.00800062e-06  9.32230354e-01  1.00800062e-06  8.53815925e-01  1.00800062e-06  4.95891372e-01  1.00800062e-06  1.80000000e+00  1.00800062e-06  5.90877180e-08  1.00800062e-06  5.00000000e-01                                 
 1.03825092e-06  9.30483366e-01  1.03825092e-06  8.52842717e-01  1.03825092e-06  4.95502654e-01  1.03825092e-06  1.80000000e+00  1.03825092e-06 -5.57365128e-08  1.03825092e-06  5.00000000e-01                                 
 1.08241835e-06  9.29983577e-01  1.08241835e-06  8.52528002e-01  1.08241835e-06  4.96242878e-01  1.08241835e-06  1.80000000e+00  1.08241835e-06  9.95813067e-08  1.08241835e-06  5.00000000e-01                                 
 1.12777996e-06  9.28532398e-01  1.12777996e-06  8.51733400e-01  1.12777996e-06  4.96517952e-01  1.12777996e-06  1.80000000e+00  1.12777996e-06 -6.72474337e-08  1.12777996e-06  5.00000000e-01                                 
 1.21850317e-06  9.25940569e-01  1.21850317e-06  8.50198915e-01  1.21850317e-06  4.96398138e-01  1.21850317e-06  1.80000000e+00  1.21850317e-06  9.41246299e-08  1.21850317e-06  5.00000000e-01                                 
 1.39069505e-06  9.18188712e-01  1.39069505e-06  8.45646568e-01  1.39069505e-06  5.00131666e-01  1.39069505e-06  1.80000000e+00  1.39069505e-06 -8.10547185e-08  1.39069505e-06  5.00000000e-01                                 
 1.41968668e-06  9.16294868e-01  1.41968668e-06  8.44477493e-01  1.41968668e-06  5.00889920e-01  1.41968668e-06  1.80000000e+00  1.41968668e-06 -8.76224033e-09  1.41968668e-06  5.00000000e-01                                 
 1.47766995e-06  9.11959710e-01  1.47766995e-06  8.41806358e-01  1.47766995e-06  5.00926702e-01  1.47766995e-06  1.80000000e+00  1.47766995e-06 -1.61754039e-08  1.47766995e-06  5.00000000e-01                                 
 1.59363650e-06  8.92580459e-01  1.59363650e-06  8.29147498e-01  1.59363650e-06  4.94451916e-01  1.59363650e-06  1.80000000e+00  1.59363650e-06 -1.15373950e-07  1.59363650e-06  5.00000000e-01                                 
 1.72144955e-06  8.48679237e-01  1.72144955e-06  7.95294850e-01  1.72144955e-06  4.89352202e-01  1.72144955e-06  1.80000000e+00  1.72144955e-06 -2.30987200e-07  1.72144955e-06  5.00000000e-01                                 
 1.81266851e-06  8.30738089e-01  1.81266851e-06  7.79381557e-01  1.81266851e-06  5.08130470e-01  1.81266851e-06  1.80000000e+00  1.81266851e-06  5.46948764e-08  1.81266851e-06  5.00000000e-01                                 
 1.91495666e-06  8.38489725e-01  1.91495666e-06  7.86358044e-01  1.91495666e-06  5.08523083e-01  1.91495666e-06  1.80000000e+00  1.91495666e-06  9.54686306e-08  1.91495666e-06  5.00000000e-01                                 
 2.02713648e-06  8.35509167e-01  2.02713648e-06  7.83719079e-01  2.02713648e-06  4.81181593e-01  2.02713648e-06  1.80000000e+00  2.02713648e-06 -6.12225551e-08  2.02713648e-06  5.00000000e-01                                 
 2.14621599e-06  8.34766469e-01  2.14621599e-06  7.83014567e-01  2.14621599e-06  5.02838992e-01  2.14621599e-06  1.80000000e+00  2.14621599e-06  1.16823492e-07  2.14621599e-06  5.00000000e-01                                 
 2.26725746e-06  8.37390548e-01  2.26725746e-06  7.85402287e-01  2.26725746e-06  5.10811049e-01  2.26725746e-06  1.80000000e+00  2.26725746e-06 -2.88266618e-08  2.26725746e-06  5.00000000e-01                                 
 2.29054915e-06  8.36252929e-01  2.29054915e-06  7.84373419e-01  2.29054915e-06  5.06523909e-01  2.29054915e-06  1.80000000e+00  2.29054915e-06  2.42529301e-09  2.29054915e-06  5.00000000e-01                                 
 2.33713253e-06  8.35261618e-01  2.33713253e-06  7.83477518e-01  2.33713253e-06  5.01385003e-01  2.33713253e-06  1.80000000e+00  2.33713253e-06  3.55672135e-08  2.33713253e-06  5.00000000e-01                                 
 2.43029930e-06  8.36091652e-01  2.43029930e-06  7.84224936e-01  2.43029930e-06  4.99972722e-01  2.43029930e-06  1.80000000e+00  2.43029930e-06  3.84248694e-08  2.43029930e-06  5.00000000e-01                                 
 2.61663283e-06  8.35701393e-01  2.61663283e-06  7.83874828e-01  2.61663283e-06  4.98632342e-01  2.61663283e-06  1.80000000e+00  2.61663283e-06  2.21844509e-08  2.61663283e-06  5.00000000e-01                                 
 2.88446552e-06  8.35863171e-01  2.88446552e-06  7.84019230e-01  2.88446552e-06  5.00939528e-01  2.88446552e-06  1.80000000e+00  2.88446552e-06  4.16416206e-08  2.88446552e-06  5.00000000e-01                                 
 3.24215343e-06  8.35838052e-01  3.24215343e-06  7.83997838e-01  3.24215343e-06  5.00196897e-01  3.24215343e-06  1.80000000e+00  3.24215343e-06  2.13343657e-08  3.24215343e-06  5.00000000e-01                                 
 3.88303456e-06  8.35787065e-01  3.88303456e-06  7.83950782e-01  3.88303456e-06  4.99536436e-01  3.88303456e-06  1.80000000e+00  3.88303456e-06  4.16778393e-08  3.88303456e-06  5.00000000e-01                                 
 4.69647762e-06  8.35880093e-01  4.69647762e-06  7.84035622e-01  4.69647762e-06  5.00923073e-01  4.69647762e-06  1.80000000e+00  4.69647762e-06  2.15388376e-08  4.69647762e-06  5.00000000e-01                                 
 5.69647762e-06  8.35757380e-01  5.69647762e-06  7.83924106e-01  5.69647762e-06  4.99136072e-01  5.69647762e-06  1.80000000e+00  5.69647762e-06  4.14099533e-08  5.69647762e-06  5.00000000e-01                                 
 6.69647762e-06  8.35904142e-01  6.69647762e-06  7.84057215e-01  6.69647762e-06  5.01159031e-01  6.69647762e-06  1.80000000e+00  6.69647762e-06  2.18536987e-08  6.69647762e-06  5.00000000e-01                                 
 7.69647762e-06  8.35735962e-01  7.69647762e-06  7.83904876e-01  7.69647762e-06  4.99021829e-01  7.69647762e-06  1.80000000e+00  7.69647762e-06  4.10340366e-08  7.69647762e-06  5.00000000e-01                                 
 8.69647762e-06  8.35923293e-01  8.69647762e-06  7.84074392e-01  8.69647762e-06  5.01182022e-01  8.69647762e-06  1.80000000e+00  8.69647762e-06  2.22850563e-08  8.69647762e-06  5.00000000e-01                                 
 9.69647762e-06  8.35719254e-01  9.69647762e-06  7.83889890e-01  9.69647762e-06  4.99101305e-01  9.69647762e-06  1.80000000e+00  9.69647762e-06  4.05529788e-08  9.69647762e-06  5.00000000e-01                                 
 1.00005000e-05  8.35949286e-01  1.00005000e-05  7.84097647e-01  1.00005000e-05  5.00784622e-01  1.00005000e-05  1.80000000e+00  1.00005000e-05  2.34872241e-08  1.00005000e-05  5.00000000e-01                                 
 1.00005500e-05  8.35948665e-01  1.00005500e-05  7.84097114e-01  1.00005500e-05  4.92829692e-01  1.00005500e-05  1.62000000e+00  1.00005500e-05 -7.48643838e-05  1.00005500e-05  5.00000000e-01                                 
