 time            v(vbep)         time            v(vben)         time            v(vout)         time            v(vphi1)        time            v(vphi2)        time            v(vref)         yes             currtemp       
 0.00000000e+00  5.52426703e-01  0.00000000e+00  4.87186034e-01  0.00000000e+00  1.93122855e-01  0.00000000e+00  0.00000000e+00  0.00000000e+00  1.79997999e+00  0.00000000e+00  5.00000000e-01  1.00000000e+00  8.50000000e+01 
 5.00000000e-12  5.52411627e-01  5.00000000e-12  4.87173504e-01  5.00000000e-12  1.93728212e-01  5.00000000e-12  1.80000000e-02  5.00000000e-12  1.80007462e+00  5.00000000e-12  5.00000000e-01                                 
 1.00000000e-11  5.52396714e-01  1.00000000e-11  4.87161216e-01  1.00000000e-11  1.94271353e-01  1.00000000e-11  3.60000000e-02  1.00000000e-11  1.80012119e+00  1.00000000e-11  5.00000000e-01                                 
 2.00000000e-11  5.52366965e-01  2.00000000e-11  4.87136702e-01  2.00000000e-11  1.95262292e-01  2.00000000e-11  7.20000000e-02  2.00000000e-11  1.80016166e+00  2.00000000e-11  5.00000000e-01                                 
 4.00000000e-11  5.52307616e-01  4.00000000e-11  4.87087784e-01  4.00000000e-11  1.96813824e-01  4.00000000e-11  1.44000000e-01  4.00000000e-11  1.80013013e+00  4.00000000e-11  5.00000000e-01                                 
 8.00000000e-11  5.52189214e-01  8.00000000e-11  4.86990159e-01  8.00000000e-11  1.98895601e-01  8.00000000e-11  2.88000000e-01  8.00000000e-11  1.80007594e+00  8.00000000e-11  5.00000000e-01                                 
 1.60000000e-10  5.51953639e-01  1.60000000e-10  4.86795746e-01  1.60000000e-10  2.01358567e-01  1.60000000e-10  5.76000000e-01  1.60000000e-10  1.80003110e+00  1.60000000e-10  5.00000000e-01                                 
 3.20000000e-10  5.51487226e-01  3.20000000e-10  4.86410183e-01  3.20000000e-10  2.18281416e-01  3.20000000e-10  1.15200000e+00  3.20000000e-10  1.80029415e+00  3.20000000e-10  5.00000000e-01                                 
 5.00000000e-10  5.50969873e-01  5.00000000e-10  4.85981494e-01  5.00000000e-10  4.85738570e-01  5.00000000e-10  1.80000000e+00  5.00000000e-10  1.39205953e-01  5.00000000e-10  5.00000000e-01                                 
 5.22744076e-10  5.50905114e-01  5.22744076e-10  4.85927751e-01  5.22744076e-10  5.44827854e-01  5.22744076e-10  1.80000000e+00  5.22744076e-10  2.96896095e-02  5.22744076e-10  5.00000000e-01                                 
 5.68232229e-10  5.50775844e-01  5.68232229e-10  4.85820435e-01  5.68232229e-10  6.54839423e-01  5.68232229e-10  1.80000000e+00  5.68232229e-10 -1.35024917e-02  5.68232229e-10  5.00000000e-01                                 
 6.59208535e-10  5.50518783e-01  6.59208535e-10  4.85606835e-01  6.59208535e-10  8.31775765e-01  6.59208535e-10  1.80000000e+00  6.59208535e-10  1.09355961e-02  6.59208535e-10  5.00000000e-01                                 
 7.82270779e-10  5.50174113e-01  7.82270779e-10  4.85320029e-01  7.82270779e-10  1.01242616e+00  7.82270779e-10  1.80000000e+00  7.82270779e-10 -9.23087334e-03  7.82270779e-10  5.00000000e-01                                 
 9.80194459e-10  5.49626874e-01  9.80194459e-10  4.84863714e-01  9.80194459e-10  1.23664124e+00  9.80194459e-10  1.80000000e+00  9.80194459e-10  8.57107341e-03  9.80194459e-10  5.00000000e-01                                 
 1.29750804e-09  5.48767139e-01  1.29750804e-09  4.84144501e-01  1.29750804e-09  1.49403004e+00  1.29750804e-09  1.80000000e+00  1.29750804e-09 -7.95476075e-03  1.29750804e-09  5.00000000e-01                                 
 1.89433583e-09  5.47205337e-01  1.89433583e-09  4.82830886e-01  1.89433583e-09  1.72257583e+00  1.89433583e-09  1.80000000e+00  1.89433583e-09  7.84828487e-03  1.89433583e-09  5.00000000e-01                                 
 2.17818806e-09  5.46486789e-01  2.17818806e-09  4.82223413e-01  2.17818806e-09  1.75603171e+00  2.17818806e-09  1.80000000e+00  2.17818806e-09 -7.26102175e-03  2.17818806e-09  5.00000000e-01                                 
 2.51453813e-09  5.45654224e-01  2.51453813e-09  4.81517188e-01  2.51453813e-09  1.77306598e+00  2.51453813e-09  1.80000000e+00  2.51453813e-09  6.97666326e-03  2.51453813e-09  5.00000000e-01                                 
 2.89409379e-09  5.44738185e-01  2.89409379e-09  4.80737269e-01  2.89409379e-09  1.78057416e+00  2.89409379e-09  1.80000000e+00  2.89409379e-09 -6.57975107e-03  2.89409379e-09  5.00000000e-01                                 
 3.58006631e-09  5.43141509e-01  3.58006631e-09  4.79370844e-01  3.58006631e-09  1.78342080e+00  3.58006631e-09  1.80000000e+00  3.58006631e-09  6.48455579e-03  3.58006631e-09  5.00000000e-01                                 
 4.34072024e-09  5.41453344e-01  4.34072024e-09  4.77916572e-01  4.34072024e-09  1.78232304e+00  4.34072024e-09  1.80000000e+00  4.34072024e-09 -6.27040842e-03  4.34072024e-09  5.00000000e-01                                 
 5.79259401e-09  5.38440035e-01  5.79259401e-09  4.75297977e-01  5.79259401e-09  1.77945599e+00  5.79259401e-09  1.80000000e+00  5.79259401e-09  6.26272095e-03  5.79259401e-09  5.00000000e-01                                 
 8.01779881e-09  5.34268824e-01  8.01779881e-09  4.71627840e-01  8.01779881e-09  1.77466217e+00  8.01779881e-09  1.80000000e+00  8.01779881e-09 -6.14541966e-03  8.01779881e-09  5.00000000e-01                                 
 9.49614762e-09  5.31753492e-01  9.49614762e-09  4.69389687e-01  9.49614762e-09  1.77161262e+00  9.49614762e-09  1.80000000e+00  9.49614762e-09  6.13291769e-03  9.49614762e-09  5.00000000e-01                                 
 1.13414789e-08  5.28848838e-01  1.13414789e-08  4.66784132e-01  1.13414789e-08  1.76791292e+00  1.13414789e-08  1.80000000e+00  1.13414789e-08 -6.01983833e-03  1.13414789e-08  5.00000000e-01                                 
 1.33650645e-08  5.25923124e-01  1.33650645e-08  4.64137890e-01  1.33650645e-08  1.76401468e+00  1.33650645e-08  1.80000000e+00  1.33650645e-08  6.01888109e-03  1.33650645e-08  5.00000000e-01                                 
 1.55216812e-08  5.23062160e-01  1.55216812e-08  4.61529859e-01  1.55216812e-08  1.75984245e+00  1.55216812e-08  1.80000000e+00  1.55216812e-08 -5.92083531e-03  1.55216812e-08  5.00000000e-01                                 
 1.80409131e-08  5.20008216e-01  1.80409131e-08  4.58724357e-01  1.80409131e-08  1.75512523e+00  1.80409131e-08  1.80000000e+00  1.80409131e-08  5.92777028e-03  1.80409131e-08  5.00000000e-01                                 
 2.14332495e-08  5.16309391e-01  2.14332495e-08  4.55297216e-01  2.14332495e-08  1.74884777e+00  2.14332495e-08  1.80000000e+00  2.14332495e-08 -5.84951674e-03  2.14332495e-08  5.00000000e-01                                 
 2.66960421e-08  5.11322899e-01  2.66960421e-08  4.50627486e-01  2.66960421e-08  1.73965569e+00  2.66960421e-08  1.80000000e+00  2.66960421e-08  5.87755303e-03  2.66960421e-08  5.00000000e-01                                 
 3.54500059e-08  5.04487257e-01  3.54500059e-08  4.44140381e-01  3.54500059e-08  1.72514717e+00  3.54500059e-08  1.80000000e+00  3.54500059e-08 -5.81819494e-03  3.54500059e-08  5.00000000e-01                                 
 5.29579334e-08  4.94071552e-01  5.29579334e-08  4.34106560e-01  5.29579334e-08  1.69813540e+00  5.29579334e-08  1.80000000e+00  5.29579334e-08  5.86017015e-03  5.29579334e-08  5.00000000e-01                                 
 8.76315962e-08  4.78661678e-01  8.76315962e-08  4.19272923e-01  8.76315962e-08  1.64859864e+00  8.76315962e-08  1.80000000e+00  8.76315962e-08 -5.80932323e-03  8.76315962e-08  5.00000000e-01                                 
 1.40544204e-07  4.58496770e-01  1.40544204e-07  4.00565973e-01  1.40544204e-07  1.57522257e+00  1.40544204e-07  1.80000000e+00  1.40544204e-07  5.85538755e-03  1.40544204e-07  5.00000000e-01                                 
 1.90054477e-07  4.42590347e-01  1.90054477e-07  3.86170636e-01  1.90054477e-07  1.50801171e+00  1.90054477e-07  1.80000000e+00  1.90054477e-07 -5.80529522e-03  1.90054477e-07  5.00000000e-01                                 
 2.74061795e-07  4.18627685e-01  2.74061795e-07  3.65026400e-01  2.74061795e-07  1.39531854e+00  2.74061795e-07  1.80000000e+00  2.74061795e-07  5.85217765e-03  2.74061795e-07  5.00000000e-01                                 
 3.85113335e-07  3.84898243e-01  3.85113335e-07  3.36500123e-01  3.85113335e-07  1.24315063e+00  3.85113335e-07  1.80000000e+00  3.85113335e-07 -5.80320625e-03  3.85113335e-07  5.00000000e-01                                 
 5.40303303e-07  3.66341415e-01  5.40303303e-07  3.20537090e-01  5.40303303e-07  1.06803038e+00  5.40303303e-07  1.80000000e+00  5.40303303e-07  5.85082356e-03  5.40303303e-07  5.00000000e-01                                 
 7.77941760e-07  6.88922407e-01  7.77941760e-07  6.17880888e-01  7.77941760e-07  1.14005172e+00  7.77941760e-07  1.80000000e+00  7.77941760e-07 -5.80012665e-03  7.77941760e-07  5.00000000e-01                                 
 8.02142227e-07  6.98810842e-01  8.02142227e-07  6.26197286e-01  8.02142227e-07  1.12530328e+00  8.02142227e-07  1.80000000e+00  8.02142227e-07  9.60473340e-06  8.02142227e-07  5.00000000e-01                                 
 8.50543159e-07  7.11373299e-01  8.50543159e-07  6.36664703e-01  8.50543159e-07  1.08891668e+00  8.50543159e-07  1.80000000e+00  8.50543159e-07  1.13745169e-05  8.50543159e-07  5.00000000e-01                                 
 8.62643392e-07  7.12442034e-01  8.62643392e-07  6.37542981e-01  8.62643392e-07  1.07834090e+00  8.62643392e-07  1.80000000e+00  8.62643392e-07  1.03341798e-05  8.62643392e-07  5.00000000e-01                                 
 8.86843858e-07  7.14072146e-01  8.86843858e-07  6.38868577e-01  8.86843858e-07  1.05727542e+00  8.86843858e-07  1.80000000e+00  8.86843858e-07  1.03094215e-05  8.86843858e-07  5.00000000e-01                                 
 9.35244790e-07  6.99548383e-01  9.35244790e-07  6.26870818e-01  9.35244790e-07  1.00311888e+00  9.35244790e-07  1.80000000e+00  9.35244790e-07  9.74214581e-06  9.35244790e-07  5.00000000e-01                                 
 9.89559334e-07  6.82442916e-01  9.89559334e-07  6.11960699e-01  9.89559334e-07  9.48125785e-01  9.89559334e-07  1.80000000e+00  9.89559334e-07  1.02536882e-05  9.89559334e-07  5.00000000e-01                                 
 1.04923890e-06  6.98651146e-01  1.04923890e-06  6.26054735e-01  1.04923890e-06  9.22481683e-01  1.04923890e-06  1.80000000e+00  1.04923890e-06  1.07122398e-05  1.04923890e-06  5.00000000e-01                                 
 1.12135334e-06  7.06314070e-01  1.12135334e-06  6.32517159e-01  1.12135334e-06  8.82564078e-01  1.12135334e-06  1.80000000e+00  1.12135334e-06  1.00111919e-05  1.12135334e-06  5.00000000e-01                                 
 1.19367240e-06  6.91264155e-01  1.19367240e-06  6.19738777e-01  1.19367240e-06  8.24634842e-01  1.19367240e-06  1.80000000e+00  1.19367240e-06  1.01681467e-05  1.19367240e-06  5.00000000e-01                                 
 1.27575930e-06  6.95780905e-01  1.27575930e-06  6.23603992e-01  1.27575930e-06  7.79727232e-01  1.27575930e-06  1.80000000e+00  1.27575930e-06  1.04467330e-05  1.27575930e-06  5.00000000e-01                                 
 1.36234874e-06  7.03672181e-01  1.36234874e-06  6.30318462e-01  1.36234874e-06  7.36116921e-01  1.36234874e-06  1.80000000e+00  1.36234874e-06  1.02378581e-05  1.36234874e-06  5.00000000e-01                                 
 1.50757686e-06  6.92056207e-01  1.50757686e-06  6.20411049e-01  1.50757686e-06  6.44935292e-01  1.50757686e-06  1.80000000e+00  1.50757686e-06  1.01590922e-05  1.50757686e-06  5.00000000e-01                                 
 1.64548381e-06  7.00489208e-01  1.64548381e-06  6.27627566e-01  1.64548381e-06  5.80951770e-01  1.64548381e-06  1.80000000e+00  1.64548381e-06  1.04680660e-05  1.64548381e-06  5.00000000e-01                                 
 1.79722378e-06  6.97523454e-01  1.79722378e-06  6.25119975e-01  1.79722378e-06  5.21294379e-01  1.79722378e-06  1.80000000e+00  1.79722378e-06  1.00357378e-05  1.79722378e-06  5.00000000e-01                                 
 1.99737990e-06  6.96373432e-01  1.99737990e-06  6.24124578e-01  1.99737990e-06  4.91176711e-01  1.99737990e-06  1.80000000e+00  1.99737990e-06  1.04817763e-05  1.99737990e-06  5.00000000e-01                                 
 2.02874176e-06  6.98528587e-01  2.02874176e-06  6.25965930e-01  2.02874176e-06  4.93203229e-01  2.02874176e-06  1.80000000e+00  2.02874176e-06  1.03264838e-05  2.02874176e-06  5.00000000e-01                                 
 2.09146547e-06  6.99118004e-01  2.09146547e-06  6.26472708e-01  2.09146547e-06  4.96762197e-01  2.09146547e-06  1.80000000e+00  2.09146547e-06  1.02235774e-05  2.09146547e-06  5.00000000e-01                                 
 2.21691290e-06  6.96308631e-01  2.21691290e-06  6.24074998e-01  2.21691290e-06  4.99800571e-01  2.21691290e-06  1.80000000e+00  2.21691290e-06  1.02656428e-05  2.21691290e-06  5.00000000e-01                                 
 2.39381195e-06  6.98846421e-01  2.39381195e-06  6.26238420e-01  2.39381195e-06  5.01282888e-01  2.39381195e-06  1.80000000e+00  2.39381195e-06  1.02866366e-05  2.39381195e-06  5.00000000e-01                                 
 2.59953188e-06  6.97152503e-01  2.59953188e-06  6.24798985e-01  2.59953188e-06  4.99407046e-01  2.59953188e-06  1.80000000e+00  2.59953188e-06  1.02288152e-05  2.59953188e-06  5.00000000e-01                                 
 2.98490721e-06  6.98123767e-01  2.98490721e-06  6.25622906e-01  2.98490721e-06  5.00846996e-01  2.98490721e-06  1.80000000e+00  2.98490721e-06  1.03036473e-05  2.98490721e-06  5.00000000e-01                                 
 3.51402367e-06  6.97622512e-01  3.51402367e-06  6.25200223e-01  3.51402367e-06  4.99856989e-01  3.51402367e-06  1.80000000e+00  3.51402367e-06  1.02236357e-05  3.51402367e-06  5.00000000e-01                                 
 4.51402367e-06  6.97830868e-01  4.51402367e-06  6.25373115e-01  4.51402367e-06  5.00527412e-01  4.51402367e-06  1.80000000e+00  4.51402367e-06  1.03051897e-05  4.51402367e-06  5.00000000e-01                                 
 5.51402367e-06  6.97817099e-01  5.51402367e-06  6.25366102e-01  5.51402367e-06  5.00083275e-01  5.51402367e-06  1.80000000e+00  5.51402367e-06  1.02235250e-05  5.51402367e-06  5.00000000e-01                                 
 6.51402367e-06  6.97643709e-01  6.51402367e-06  6.25213588e-01  6.51402367e-06  5.00302645e-01  6.51402367e-06  1.80000000e+00  6.51402367e-06  1.03046706e-05  6.51402367e-06  5.00000000e-01                                 
 7.51402367e-06  6.97996043e-01  7.51402367e-06  6.25518499e-01  7.51402367e-06  5.00303867e-01  7.51402367e-06  1.80000000e+00  7.51402367e-06  1.02246464e-05  7.51402367e-06  5.00000000e-01                                 
 8.51402367e-06  6.97473740e-01  8.51402367e-06  6.25068712e-01  8.51402367e-06  5.00088650e-01  8.51402367e-06  1.80000000e+00  8.51402367e-06  1.03029765e-05  8.51402367e-06  5.00000000e-01                                 
 9.51402367e-06  6.98153405e-01  9.51402367e-06  6.25652374e-01  9.51402367e-06  5.00508800e-01  9.51402367e-06  1.80000000e+00  9.51402367e-06  1.02268763e-05  9.51402367e-06  5.00000000e-01                                 
 1.00005000e-05  6.97259022e-01  1.00005000e-05  6.24885733e-01  1.00005000e-05  4.99802826e-01  1.00005000e-05  1.80000000e+00  1.00005000e-05  1.02984591e-05  1.00005000e-05  5.00000000e-01                                 
 1.00005500e-05  6.97261062e-01  1.00005500e-05  6.24887480e-01  1.00005500e-05  4.92417750e-01  1.00005500e-05  1.62000000e+00  1.00005500e-05 -7.62067058e-05  1.00005500e-05  5.00000000e-01                                 
 1.00006500e-05  6.97265157e-01  1.00006500e-05  6.24890972e-01  1.00006500e-05  4.78812688e-01  1.00006500e-05  1.26000000e+00  1.00006500e-05 -6.43425470e-05  1.00006500e-05  5.00000000e-01                                 
 1.00008500e-05  6.97273317e-01  1.00008500e-05  6.24897924e-01  1.00008500e-05  4.77536466e-01  1.00008500e-05  5.40000000e-01  1.00008500e-05  8.70571246e-02  1.00008500e-05  5.00000000e-01                                 
 1.00010000e-05  6.97279306e-01  1.00010000e-05  6.24903054e-01  1.00010000e-05  4.42958165e-01  1.00010000e-05  0.00000000e+00  1.00010000e-05  1.62081550e+00  1.00010000e-05  5.00000000e-01                                 
 1.00010248e-05  6.97280272e-01  1.00010248e-05  6.24903885e-01  1.00010248e-05  4.23137482e-01  1.00010248e-05  0.00000000e+00  1.00010248e-05  1.73993814e+00  1.00010248e-05  5.00000000e-01                                 
 1.00010744e-05  6.97282243e-01  1.00010744e-05  6.24905563e-01  1.00010744e-05  3.88034252e-01  1.00010744e-05  0.00000000e+00  1.00010744e-05  1.81727606e+00  1.00010744e-05  5.00000000e-01                                 
 1.00011736e-05  6.97286281e-01  1.00011736e-05  6.24908979e-01  1.00011736e-05  3.52190813e-01  1.00011736e-05  0.00000000e+00  1.00011736e-05  1.78766795e+00  1.00011736e-05  5.00000000e-01                                 
 1.00013227e-05  6.97292328e-01  1.00013227e-05  6.24914139e-01  1.00013227e-05  3.44043246e-01  1.00013227e-05  0.00000000e+00  1.00013227e-05  1.80842871e+00  1.00013227e-05  5.00000000e-01                                 
 1.00015724e-05  6.97302265e-01  1.00015724e-05  6.24922642e-01  1.00015724e-05  3.44345746e-01  1.00015724e-05  0.00000000e+00  1.00015724e-05  1.79284775e+00  1.00015724e-05  5.00000000e-01                                 
 1.00017995e-05  6.97311129e-01  1.00017995e-05  6.24930225e-01  1.00017995e-05  3.44548987e-01  1.00017995e-05  0.00000000e+00  1.00017995e-05  1.80577362e+00  1.00017995e-05  5.00000000e-01                                 
 1.00022314e-05  6.97327770e-01  1.00022314e-05  6.24944453e-01  1.00022314e-05  3.44369808e-01  1.00022314e-05  0.00000000e+00  1.00022314e-05  1.79478689e+00  1.00022314e-05  5.00000000e-01                                 
 1.00027409e-05  6.97347328e-01  1.00027409e-05  6.24961154e-01  1.00027409e-05  3.44583536e-01  1.00027409e-05  0.00000000e+00  1.00027409e-05  1.80474013e+00  1.00027409e-05  5.00000000e-01                                 
 1.00037599e-05  6.97386737e-01  1.00037599e-05  6.24994779e-01  1.00037599e-05  3.44801503e-01  1.00037599e-05  0.00000000e+00  1.00037599e-05  1.79545119e+00  1.00037599e-05  5.00000000e-01                                 
 1.00057979e-05  6.97465767e-01  1.00057979e-05  6.25062211e-01  1.00057979e-05  3.46100902e-01  1.00057979e-05  0.00000000e+00  1.00057979e-05  1.80442922e+00  1.00057979e-05  5.00000000e-01                                 
 1.00098739e-05  6.97617783e-01  1.00098739e-05  6.25191994e-01  1.00098739e-05  3.49051858e-01  1.00098739e-05  0.00000000e+00  1.00098739e-05  1.79560318e+00  1.00098739e-05  5.00000000e-01                                 
 1.00180258e-05  6.97888916e-01  1.00180258e-05  6.25423389e-01  1.00180258e-05  3.58859522e-01  1.00180258e-05  0.00000000e+00  1.00180258e-05  1.80435484e+00  1.00180258e-05  5.00000000e-01                                 
 1.00343297e-05  6.98271674e-01  1.00343297e-05  6.25750032e-01  1.00343297e-05  4.09299345e-01  1.00343297e-05  0.00000000e+00  1.00343297e-05  1.79564041e+00  1.00343297e-05  5.00000000e-01                                 
 1.00536815e-05  6.98380253e-01  1.00536815e-05  6.25843511e-01  1.00536815e-05  5.02191499e-01  1.00536815e-05  0.00000000e+00  1.00536815e-05  1.80433221e+00  1.00536815e-05  5.00000000e-01                                 
 1.00826798e-05  6.97992185e-01  1.00826798e-05  6.25514003e-01  1.00826798e-05  6.14301754e-01  1.00826798e-05  0.00000000e+00  1.00826798e-05  1.79565771e+00  1.00826798e-05  5.00000000e-01                                 
