 time            v(vbep)         time            v(vben)         time            v(vout)         time            v(vphi1)        time            v(vphi2)        time            v(vref)         time            v(voutc)        time            v(voutcc)       yes             currtemp       
 0.00000000e+00  7.59312924e-01  0.00000000e+00  6.96555253e-01  0.00000000e+00  1.56805465e+00  0.00000000e+00  0.00000000e+00  0.00000000e+00  1.80000000e+00  0.00000000e+00  6.98552544e-01  0.00000000e+00  1.56805463e+00  0.00000000e+00  1.57487233e+00  1.00000000e+00  4.30000000e+01 
 5.00000000e-12  7.59334770e-01  5.00000000e-12  6.96609256e-01  5.00000000e-12  1.56867997e+00  5.00000000e-12  1.80000000e-02  5.00000000e-12  1.80018498e+00  5.00000000e-12  6.98944871e-01  5.00000000e-12  1.56840303e+00  5.00000000e-12  1.57488550e+00                                 
 1.00000000e-11  7.59344373e-01  1.00000000e-11  6.96644939e-01  1.00000000e-11  1.56913273e+00  1.00000000e-11  3.60000000e-02  1.00000000e-11  1.80026891e+00  1.00000000e-11  6.99253409e-01  1.00000000e-11  1.56867849e+00  1.00000000e-11  1.57489247e+00                                 
 2.00000000e-11  7.59350747e-01  2.00000000e-11  6.96694658e-01  2.00000000e-11  1.56978747e+00  2.00000000e-11  7.20000000e-02  2.00000000e-11  1.80032244e+00  2.00000000e-11  6.99736267e-01  2.00000000e-11  1.56911324e+00  2.00000000e-11  1.57489900e+00                                 
 4.00000000e-11  7.59338535e-01  4.00000000e-11  6.96731052e-01  4.00000000e-11  1.57022848e+00  4.00000000e-11  1.44000000e-01  4.00000000e-11  1.80019256e+00  4.00000000e-11  7.00200369e-01  4.00000000e-11  1.56954721e+00  4.00000000e-11  1.57489295e+00                                 
 8.00000000e-11  7.59324912e-01  8.00000000e-11  6.96736591e-01  8.00000000e-11  1.57010085e+00  8.00000000e-11  2.88000000e-01  8.00000000e-11  1.80002989e+00  8.00000000e-11  7.00332590e-01  8.00000000e-11  1.56970947e+00  8.00000000e-11  1.57487810e+00                                 
 1.60000000e-10  7.59325575e-01  1.60000000e-10  6.96724563e-01  1.60000000e-10  1.56961603e+00  1.60000000e-10  5.76000000e-01  1.60000000e-10  1.80001000e+00  1.60000000e-10  7.00130987e-01  1.60000000e-10  1.56957325e+00  1.60000000e-10  1.57487266e+00                                 
 3.20000000e-10  7.59258816e-01  3.20000000e-10  6.96281779e-01  3.20000000e-10  1.56580002e+00  3.20000000e-10  1.15200000e+00  3.20000000e-10  1.80072921e+00  3.20000000e-10  6.96294366e-01  3.20000000e-10  1.56643622e+00  3.20000000e-10  1.57484249e+00                                 
 5.00000000e-10  7.59351194e-01  5.00000000e-10  6.96745464e-01  5.00000000e-10  1.56180830e+00  5.00000000e-10  1.80000000e+00  5.00000000e-10  1.59450352e-01  5.00000000e-10  7.02403126e-01  5.00000000e-10  1.57160709e+00  5.00000000e-10  1.57492996e+00                                 
 5.21059414e-10  7.59351228e-01  5.21059414e-10  6.96782255e-01  5.21059414e-10  1.56117253e+00  5.21059414e-10  1.80000000e+00  5.21059414e-10  4.22784135e-02  5.21059414e-10  7.03974447e-01  5.21059414e-10  1.57249407e+00  5.21059414e-10  1.57492092e+00                                 
 5.63178243e-10  7.59423773e-01  5.63178243e-10  6.96853300e-01  5.63178243e-10  1.56060007e+00  5.63178243e-10  1.80000000e+00  5.63178243e-10 -1.51825364e-02  5.63178243e-10  7.06102958e-01  5.63178243e-10  1.57432920e+00  5.63178243e-10  1.57491758e+00                                 
 6.47415901e-10  7.59527027e-01  6.47415901e-10  6.96692033e-01  6.47415901e-10  1.55773413e+00  6.47415901e-10  1.80000000e+00  6.47415901e-10  1.19602909e-02  6.47415901e-10  7.05534489e-01  6.47415901e-10  1.57405058e+00  6.47415901e-10  1.57486515e+00                                 
 7.66457536e-10  7.59564571e-01  7.66457536e-10  6.96657893e-01  7.66457536e-10  1.55625009e+00  7.66457536e-10  1.80000000e+00  7.66457536e-10 -9.41526441e-03  7.66457536e-10  7.06711819e-01  7.66457536e-10  1.57491382e+00  7.66457536e-10  1.57489173e+00                                 
 9.43796571e-10  7.59619242e-01  9.43796571e-10  6.96625234e-01  9.43796571e-10  1.55533780e+00  9.43796571e-10  1.80000000e+00  9.43796571e-10  8.64558023e-03  9.43796571e-10  7.07484655e-01  9.43796571e-10  1.57574029e+00  9.43796571e-10  1.57486395e+00                                 
 1.29847464e-09  7.59596810e-01  1.29847464e-09  6.96549748e-01  1.29847464e-09  1.55336541e+00  1.29847464e-09  1.80000000e+00  1.29847464e-09 -7.86073843e-03  1.29847464e-09  7.07187295e-01  1.29847464e-09  1.57535293e+00  1.29847464e-09  1.57488824e+00                                 
 1.72404652e-09  7.59543287e-01  1.72404652e-09  6.96564000e-01  1.72404652e-09  1.55205210e+00  1.72404652e-09  1.80000000e+00  1.72404652e-09  7.56760474e-03  1.72404652e-09  7.06921216e-01  1.72404652e-09  1.57524603e+00  1.72404652e-09  1.57492704e+00                                 
 2.37228558e-09  7.59409293e-01  2.37228558e-09  6.96525463e-01  2.37228558e-09  1.54979500e+00  2.37228558e-09  1.80000000e+00  2.37228558e-09 -7.27074015e-03  2.37228558e-09  7.05480578e-01  2.37228558e-09  1.57386436e+00  2.37228558e-09  1.57503383e+00                                 
 3.02287122e-09  7.59347644e-01  3.02287122e-09  6.96555425e-01  3.02287122e-09  1.54814691e+00  3.02287122e-09  1.80000000e+00  3.02287122e-09  7.03034092e-03  3.02287122e-09  7.04832641e-01  3.02287122e-09  1.57341136e+00  3.02287122e-09  1.57514344e+00                                 
 4.00207926e-09  7.59282993e-01  4.00207926e-09  6.96522925e-01  4.00207926e-09  1.54458029e+00  4.00207926e-09  1.80000000e+00  4.00207926e-09 -6.86661174e-03  4.00207926e-09  7.02993876e-01  4.00207926e-09  1.57168883e+00  4.00207926e-09  1.57530404e+00                                 
 5.45994204e-09  7.59276077e-01  5.45994204e-09  6.96557815e-01  5.45994204e-09  1.53981642e+00  5.45994204e-09  1.80000000e+00  5.45994204e-09  6.76468130e-03  5.45994204e-09  7.01600842e-01  5.45994204e-09  1.57058154e+00  5.45994204e-09  1.57548954e+00                                 
 8.37566760e-09  7.59256281e-01  8.37566760e-09  6.96533282e-01  8.37566760e-09  1.52870382e+00  8.37566760e-09  1.80000000e+00  8.37566760e-09 -6.70477015e-03  8.37566760e-09  6.98812049e-01  8.37566760e-09  1.56803895e+00  8.37566760e-09  1.57565974e+00                                 
 1.18201094e-08  7.59274003e-01  1.18201094e-08  6.96570365e-01  1.18201094e-08  1.51533707e+00  1.18201094e-08  1.80000000e+00  1.18201094e-08  6.67797701e-03  1.18201094e-08  6.97909035e-01  1.18201094e-08  1.56736080e+00  1.18201094e-08  1.57561454e+00                                 
 1.44860626e-08  7.59274257e-01  1.44860626e-08  6.96539034e-01  1.44860626e-08  1.50329596e+00  1.44860626e-08  1.80000000e+00  1.44860626e-08 -6.60036559e-03  1.44860626e-08  6.97136673e-01  1.44860626e-08  1.56657478e+00  1.44860626e-08  1.57548655e+00                                 
 1.75878304e-08  7.59299017e-01  1.75878304e-08  6.96571538e-01  1.75878304e-08  1.48907148e+00  1.75878304e-08  1.80000000e+00  1.75878304e-08  6.57739179e-03  1.75878304e-08  6.97442083e-01  1.75878304e-08  1.56694225e+00  1.75878304e-08  1.57531673e+00                                 
 2.09827837e-08  7.59297800e-01  2.09827837e-08  6.96539397e-01  2.09827837e-08  1.47185952e+00  2.09827837e-08  1.80000000e+00  2.09827837e-08 -6.50862294e-03  2.09827837e-08  6.97110501e-01  2.09827837e-08  1.56653789e+00  2.09827837e-08  1.57513394e+00                                 
 2.58842387e-08  7.59319274e-01  2.58842387e-08  6.96571678e-01  2.58842387e-08  1.44680457e+00  2.58842387e-08  1.80000000e+00  2.58842387e-08  6.50592220e-03  2.58842387e-08  6.97737883e-01  2.58842387e-08  1.56718226e+00  2.58842387e-08  1.57491759e+00                                 
 3.15535209e-08  7.59311009e-01  3.15535209e-08  6.96539386e-01  3.15535209e-08  1.41626741e+00  3.15535209e-08  1.80000000e+00  3.15535209e-08 -6.45325029e-03  3.15535209e-08  6.97593182e-01  3.15535209e-08  1.56694213e+00  3.15535209e-08  1.57473331e+00                                 
 4.01783216e-08  7.59323699e-01  4.01783216e-08  6.96571576e-01  4.01783216e-08  1.37004239e+00  4.01783216e-08  1.80000000e+00  4.01783216e-08  6.46411029e-03  4.01783216e-08  6.98302553e-01  4.01783216e-08  1.56766117e+00  4.01783216e-08  1.57457507e+00                                 
 5.17749645e-08  7.59309641e-01  5.17749645e-08  6.96539190e-01  5.17749645e-08  1.30685019e+00  5.17749645e-08  1.80000000e+00  5.17749645e-08 -6.42429239e-03  5.17749645e-08  6.98129911e-01  5.17749645e-08  1.56740306e+00  5.17749645e-08  1.57449341e+00                                 
 7.25033232e-08  7.59319890e-01  7.25033232e-08  6.96571411e-01  7.25033232e-08  1.19512251e+00  7.25033232e-08  1.80000000e+00  7.25033232e-08  6.44487969e-03  7.25033232e-08  6.98706026e-01  7.25033232e-08  1.56801316e+00  7.25033232e-08  1.57450568e+00                                 
 1.06537718e-07  7.59306837e-01  1.06537718e-07  6.96539088e-01  1.06537718e-07  1.01260373e+00  1.06537718e-07  1.80000000e+00  1.06537718e-07 -6.41304174e-03  1.06537718e-07  6.98349089e-01  1.06537718e-07  1.56759871e+00  1.06537718e-07  1.57458613e+00                                 
 1.37932564e-07  7.59318297e-01  1.37932564e-07  6.96571358e-01  1.37932564e-07  8.51270845e-01  1.37932564e-07  1.80000000e+00  1.37932564e-07  6.43673478e-03  1.37932564e-07  6.98753424e-01  1.37932564e-07  1.56805655e+00  1.37932564e-07  1.57462812e+00                                 
 1.73043715e-07  7.59309001e-01  1.73043715e-07  6.96539164e-01  1.73043715e-07  7.27783096e-01  1.73043715e-07  1.80000000e+00  1.73043715e-07 -6.40233423e-03  1.73043715e-07  6.98348253e-01  1.73043715e-07  1.56759638e+00  1.73043715e-07  1.57463836e+00                                 
 2.01274644e-07  7.59317491e-01  2.01274644e-07  6.96571468e-01  2.01274644e-07  7.00486013e-01  2.01274644e-07  1.80000000e+00  2.01274644e-07  6.43012067e-03  2.01274644e-07  6.98761808e-01  2.01274644e-07  1.56806157e+00  2.01274644e-07  1.57464561e+00                                 
 2.28180574e-07  7.59306762e-01  2.28180574e-07  6.96538883e-01  2.28180574e-07  7.00466778e-01  2.28180574e-07  1.80000000e+00  2.28180574e-07 -6.39184475e-03  2.28180574e-07  6.98347844e-01  2.28180574e-07  1.56759421e+00  2.28180574e-07  1.57464416e+00                                 
 2.51723893e-07  7.59318823e-01  2.51723893e-07  6.96571623e-01  2.51723893e-07  7.00735589e-01  2.51723893e-07  1.80000000e+00  2.51723893e-07  6.41907671e-03  2.51723893e-07  6.98757444e-01  2.51723893e-07  1.56805583e+00  2.51723893e-07  1.57464571e+00                                 
 2.76926771e-07  7.59306957e-01  2.76926771e-07  6.96538857e-01  2.76926771e-07  7.00472176e-01  2.76926771e-07  1.80000000e+00  2.76926771e-07 -6.38052817e-03  2.76926771e-07  6.98347665e-01  2.76926771e-07  1.56759231e+00  2.76926771e-07  1.57464175e+00                                 
 3.27332525e-07  7.59318898e-01  3.27332525e-07  6.96571632e-01  3.27332525e-07  7.00712478e-01  3.27332525e-07  1.80000000e+00  3.27332525e-07  6.41080539e-03  3.27332525e-07  6.98757268e-01  3.27332525e-07  1.56805280e+00  3.27332525e-07  1.57464250e+00                                 
 4.28144035e-07  7.59306942e-01  4.28144035e-07  6.96538858e-01  4.28144035e-07  7.00469355e-01  4.28144035e-07  1.80000000e+00  4.28144035e-07 -6.37626566e-03  4.28144035e-07  6.98347705e-01  4.28144035e-07  1.56758680e+00  4.28144035e-07  1.57463592e+00                                 
 6.29767055e-07  7.59318909e-01  6.29767055e-07  6.96571631e-01  6.29767055e-07  7.00713503e-01  6.29767055e-07  1.80000000e+00  6.29767055e-07  6.40874809e-03  6.29767055e-07  6.98757247e-01  6.29767055e-07  1.56804162e+00  6.29767055e-07  1.57463135e+00                                 
 1.03301309e-06  7.59306937e-01  1.03301309e-06  6.96538858e-01  1.03301309e-06  7.00468816e-01  1.03301309e-06  1.80000000e+00  1.03301309e-06 -6.37524792e-03  1.03301309e-06  6.98347715e-01  1.03301309e-06  1.56756451e+00  1.03301309e-06  1.57461365e+00                                 
 1.83950517e-06  7.59318912e-01  1.83950517e-06  6.96571631e-01  1.83950517e-06  7.00713769e-01  1.83950517e-06  1.80000000e+00  1.83950517e-06  6.40823388e-03  1.83950517e-06  6.98757242e-01  1.83950517e-06  1.56799701e+00  1.83950517e-06  1.57458682e+00                                 
 2.83950517e-06  7.59306935e-01  2.83950517e-06  6.96538859e-01  2.83950517e-06  7.00468651e-01  2.83950517e-06  1.80000000e+00  2.83950517e-06 -6.37510978e-03  2.83950517e-06  6.98347718e-01  2.83950517e-06  1.56749793e+00  2.83950517e-06  1.57454716e+00                                 
 3.83950517e-06  7.59318913e-01  3.83950517e-06  6.96571630e-01  3.83950517e-06  7.00713915e-01  3.83950517e-06  1.80000000e+00  3.83950517e-06  6.40799040e-03  3.83950517e-06  6.98757240e-01  3.83950517e-06  1.56792332e+00  3.83950517e-06  1.57451324e+00                                 
 4.83950517e-06  7.59306934e-01  4.83950517e-06  6.96538859e-01  4.83950517e-06  7.00468501e-01  4.83950517e-06  1.80000000e+00  4.83950517e-06 -6.37486261e-03  4.83950517e-06  6.98347721e-01  4.83950517e-06  1.56742428e+00  4.83950517e-06  1.57447362e+00                                 
 5.83950517e-06  7.59318914e-01  5.83950517e-06  6.96571630e-01  5.83950517e-06  7.00714061e-01  5.83950517e-06  1.80000000e+00  5.83950517e-06  6.40771394e-03  5.83950517e-06  6.98757237e-01  5.83950517e-06  1.56784968e+00  5.83950517e-06  1.57443971e+00                                 
 6.83950517e-06  7.59306932e-01  6.83950517e-06  6.96538859e-01  6.83950517e-06  7.00468350e-01  6.83950517e-06  1.80000000e+00  6.83950517e-06 -6.37458897e-03  6.83950517e-06  6.98347724e-01  6.83950517e-06  1.56735066e+00  6.83950517e-06  1.57440010e+00                                 
 7.83950517e-06  7.59318916e-01  7.83950517e-06  6.96571630e-01  7.83950517e-06  7.00714210e-01  7.83950517e-06  1.80000000e+00  7.83950517e-06  6.40743750e-03  7.83950517e-06  6.98757234e-01  7.83950517e-06  1.56777605e+00  7.83950517e-06  1.57436620e+00                                 
 8.83950517e-06  7.59306931e-01  8.83950517e-06  6.96538859e-01  8.83950517e-06  7.00468198e-01  8.83950517e-06  1.80000000e+00  8.83950517e-06 -6.37431535e-03  8.83950517e-06  6.98347726e-01  8.83950517e-06  1.56727702e+00  8.83950517e-06  1.57432658e+00                                 
 9.83950517e-06  7.59318917e-01  9.83950517e-06  6.96571630e-01  9.83950517e-06  7.00714359e-01  9.83950517e-06  1.80000000e+00  9.83950517e-06  6.40716107e-03  9.83950517e-06  6.98757232e-01  9.83950517e-06  1.56770240e+00  9.83950517e-06  1.57429266e+00                                 
 1.00005000e-05  7.59306925e-01  1.00005000e-05  6.96538860e-01  1.00005000e-05  7.00467641e-01  1.00005000e-05  1.80000000e+00  1.00005000e-05 -6.37336718e-03  1.00005000e-05  6.98347735e-01  1.00005000e-05  1.56723428e+00  1.00005000e-05  1.57428388e+00                                 
 1.00005500e-05  7.59276757e-01  1.00005500e-05  6.96364006e-01  1.00005500e-05  6.98849738e-01  1.00005500e-05  1.62000000e+00  1.00005500e-05 -6.98303153e-04  1.00005500e-05  6.97014337e-01  1.00005500e-05  1.56611360e+00  1.00005500e-05  1.57426968e+00                                 
 1.00006500e-05  7.59304294e-01  1.00006500e-05  6.96344950e-01  1.00006500e-05  6.98907284e-01  1.00006500e-05  1.26000000e+00  1.00006500e-05  5.13623110e-04  1.00006500e-05  6.96727688e-01  1.00006500e-05  1.56587289e+00  1.00006500e-05  1.57428642e+00                                 
 1.00008500e-05  7.59346417e-01  1.00008500e-05  6.96546797e-01  1.00008500e-05  7.01194047e-01  1.00008500e-05  5.40000000e-01  1.00008500e-05 -4.48962908e-03  1.00008500e-05  6.97828539e-01  1.00008500e-05  1.56553035e+00  1.00008500e-05  1.57428107e+00                                 
 1.00010000e-05  7.59301284e-01  1.00010000e-05  6.95604068e-01  1.00010000e-05  7.21837019e-01  1.00010000e-05  0.00000000e+00  1.00010000e-05  1.50943486e+00  1.00010000e-05  6.86866743e-01  1.00010000e-05  1.50785752e+00  1.00010000e-05  1.57377245e+00                                 
 1.00010257e-05  7.59318492e-01  1.00010257e-05  6.95283733e-01  1.00010257e-05  7.27861327e-01  1.00010257e-05  0.00000000e+00  1.00010257e-05  1.68987080e+00  1.00010257e-05  6.82923741e-01  1.00010257e-05  1.48146818e+00  1.00010257e-05  1.57360626e+00                                 
 1.00010770e-05  7.59316805e-01  1.00010770e-05  6.94660406e-01  1.00010770e-05  7.33651112e-01  1.00010770e-05  0.00000000e+00  1.00010770e-05  1.82170313e+00  1.00010770e-05  6.75525640e-01  1.00010770e-05  1.42235452e+00  1.00010770e-05  1.57346827e+00                                 
 1.00011796e-05  7.59309975e-01  1.00011796e-05  6.94537715e-01  1.00011796e-05  7.27505621e-01  1.00011796e-05  0.00000000e+00  1.00011796e-05  1.78651168e+00  1.00011796e-05  6.74784321e-01  1.00011796e-05  1.31872629e+00  1.00011796e-05  1.57399695e+00                                 
 1.00013082e-05  7.59316895e-01  1.00013082e-05  6.94860063e-01  1.00013082e-05  7.23954010e-01  1.00013082e-05  0.00000000e+00  1.00013082e-05  1.80718857e+00  1.00013082e-05  6.79412304e-01  1.00013082e-05  1.21941848e+00  1.00013082e-05  1.57435752e+00                                 
 1.00015248e-05  7.59309246e-01  1.00015248e-05  6.95033010e-01  1.00015248e-05  7.19865965e-01  1.00015248e-05  0.00000000e+00  1.00015248e-05  1.79382776e+00  1.00015248e-05  6.80730707e-01  1.00015248e-05  1.08089276e+00  1.00015248e-05  1.57455208e+00                                 
 1.00018446e-05  7.59315905e-01  1.00018446e-05  6.95587318e-01  1.00018446e-05  7.15126769e-01  1.00018446e-05  0.00000000e+00  1.00018446e-05  1.80456185e+00  1.00018446e-05  6.85697973e-01  1.00018446e-05  9.34627025e-01  1.00018446e-05  1.57452605e+00                                 
 1.00022879e-05  7.59309556e-01  1.00022879e-05  6.96099714e-01  1.00022879e-05  7.10483773e-01  1.00022879e-05  0.00000000e+00  1.00022879e-05  1.79563863e+00  1.00022879e-05  6.89480467e-01  1.00022879e-05  7.96918756e-01  1.00022879e-05  1.57405168e+00                                 
 1.00027676e-05  7.59315769e-01  1.00027676e-05  6.96786475e-01  1.00027676e-05  7.04186346e-01  1.00027676e-05  0.00000000e+00  1.00027676e-05  1.80357195e+00  1.00027676e-05  6.96287176e-01  1.00027676e-05  7.29636690e-01  1.00027676e-05  1.57310109e+00                                 
 1.00031853e-05  7.59310017e-01  1.00031853e-05  6.96936193e-01  1.00031853e-05  7.03571526e-01  1.00031853e-05  0.00000000e+00  1.00031853e-05  1.79687380e+00  1.00031853e-05  6.97523647e-01  1.00031853e-05  7.09315111e-01  1.00031853e-05  1.57184063e+00                                 
 1.00036933e-05  7.59315540e-01  1.00036933e-05  6.97092224e-01  1.00036933e-05  7.02769472e-01  1.00036933e-05  0.00000000e+00  1.00036933e-05  1.80273337e+00  1.00036933e-05  6.99757185e-01  1.00036933e-05  7.04673838e-01  1.00036933e-05  1.56994844e+00                                 
 1.00042556e-05  7.59310365e-01  1.00042556e-05  6.96984105e-01  1.00042556e-05  7.04794516e-01  1.00042556e-05  0.00000000e+00  1.00042556e-05  1.79756973e+00  1.00042556e-05  6.99239408e-01  1.00042556e-05  7.03541651e-01  1.00042556e-05  1.56756063e+00                                 
 1.00051235e-05  7.59315371e-01  1.00051235e-05  6.96962382e-01  1.00051235e-05  7.06160110e-01  1.00051235e-05  0.00000000e+00  1.00051235e-05  1.80224984e+00  1.00051235e-05  7.00258200e-01  1.00051235e-05  7.06217764e-01  1.00051235e-05  1.56364432e+00                                 
 1.00065271e-05  7.59310524e-01  1.00065271e-05  6.96770552e-01  1.00065271e-05  7.10760705e-01  1.00065271e-05  0.00000000e+00  1.00065271e-05  1.79785689e+00  1.00065271e-05  6.99505012e-01  1.00065271e-05  7.09153757e-01  1.00065271e-05  1.55696761e+00                                 
