 time            v(vbep)         time            v(vben)         time            v(vout)         time            v(vphi1)        time            v(vphi2)        time            v(vref)         yes             currtemp       
 0.00000000e+00  6.01154079e-01  0.00000000e+00  5.39084748e-01  0.00000000e+00  1.34252972e-01  0.00000000e+00  0.00000000e+00  0.00000000e+00  1.79996936e+00  0.00000000e+00  5.00000000e-01  1.00000000e+00  6.70000000e+01 
 5.00000000e-12  6.01132366e-01  5.00000000e-12  5.39066717e-01  5.00000000e-12  1.34787936e-01  5.00000000e-12  1.80000000e-02  5.00000000e-12  1.80006570e+00  5.00000000e-12  5.00000000e-01                                 
 1.00000000e-11  6.01111025e-01  1.00000000e-11  5.39049089e-01  1.00000000e-11  1.35270074e-01  1.00000000e-11  3.60000000e-02  1.00000000e-11  1.80011304e+00  1.00000000e-11  5.00000000e-01                                 
 2.00000000e-11  6.01068543e-01  2.00000000e-11  5.39013942e-01  2.00000000e-11  1.36157190e-01  2.00000000e-11  7.20000000e-02  2.00000000e-11  1.80015307e+00  2.00000000e-11  5.00000000e-01                                 
 4.00000000e-11  6.00983930e-01  4.00000000e-11  5.38943855e-01  4.00000000e-11  1.37590268e-01  4.00000000e-11  1.44000000e-01  4.00000000e-11  1.80011631e+00  4.00000000e-11  5.00000000e-01                                 
 8.00000000e-11  6.00815305e-01  8.00000000e-11  5.38804119e-01  8.00000000e-11  1.39717070e-01  8.00000000e-11  2.88000000e-01  8.00000000e-11  1.80005521e+00  8.00000000e-11  5.00000000e-01                                 
 1.60000000e-10  6.00480581e-01  1.60000000e-10  5.38526389e-01  1.60000000e-10  1.43029865e-01  1.60000000e-10  5.76000000e-01  1.60000000e-10  1.80001525e+00  1.60000000e-10  5.00000000e-01                                 
 3.20000000e-10  5.99820794e-01  3.20000000e-10  5.37977700e-01  3.20000000e-10  1.69999531e-01  3.20000000e-10  1.15200000e+00  3.20000000e-10  1.80023002e+00  3.20000000e-10  5.00000000e-01                                 
 5.00000000e-10  5.99093526e-01  5.00000000e-10  5.37370936e-01  5.00000000e-10  4.56975695e-01  5.00000000e-10  1.80000000e+00  5.00000000e-10  1.31082999e-01  5.00000000e-10  5.00000000e-01                                 
 5.22372136e-10  5.99004343e-01  5.22372136e-10  5.37296376e-01  5.22372136e-10  5.15327818e-01  5.22372136e-10  1.80000000e+00  5.22372136e-10  2.72321300e-02  5.22372136e-10  5.00000000e-01                                 
 5.67116407e-10  5.98826440e-01  5.67116407e-10  5.37147579e-01  5.67116407e-10  6.21302775e-01  5.67116407e-10  1.80000000e+00  5.67116407e-10 -1.23145079e-02  5.67116407e-10  5.00000000e-01                                 
 6.56604949e-10  5.98473434e-01  6.56604949e-10  5.36851973e-01  6.56604949e-10  7.83003874e-01  6.56604949e-10  1.80000000e+00  6.56604949e-10  1.02944123e-02  6.56604949e-10  5.00000000e-01                                 
 7.79454153e-10  5.97994784e-01  7.79454153e-10  5.36450401e-01  7.79454153e-10  9.40545962e-01  7.79454153e-10  1.80000000e+00  7.79454153e-10 -8.64383308e-03  7.79454153e-10  5.00000000e-01                                 
 9.75378832e-10  5.97245187e-01  9.75378832e-10  5.35819794e-01  9.75378832e-10  1.12355561e+00  9.75378832e-10  1.80000000e+00  9.75378832e-10  8.11258427e-03  9.75378832e-10  5.00000000e-01                                 
 1.27331386e-09  5.96136373e-01  1.27331386e-09  5.34883188e-01  1.27331386e-09  1.32256187e+00  1.27331386e-09  1.80000000e+00  1.27331386e-09 -7.52447912e-03  1.27331386e-09  5.00000000e-01                                 
 1.73524933e-09  5.94486625e-01  1.73524933e-09  5.33481426e-01  1.73524933e-09  1.49823697e+00  1.73524933e-09  1.80000000e+00  1.73524933e-09  7.36784879e-03  1.73524933e-09  5.00000000e-01                                 
 2.14594563e-09  5.93085537e-01  2.14594563e-09  5.32283265e-01  2.14594563e-09  1.56358179e+00  2.14594563e-09  1.80000000e+00  2.14594563e-09 -6.96174915e-03  2.14594563e-09  5.00000000e-01                                 
 2.53697082e-09  5.91803951e-01  2.53697082e-09  5.31181307e-01  2.53697082e-09  1.58759379e+00  2.53697082e-09  1.80000000e+00  2.53697082e-09  6.76193277e-03  2.53697082e-09  5.00000000e-01                                 
 2.95574188e-09  5.90483603e-01  2.95574188e-09  5.30040204e-01  2.95574188e-09  1.59592990e+00  2.95574188e-09  1.80000000e+00  2.95574188e-09 -6.43445737e-03  2.95574188e-09  5.00000000e-01                                 
 3.38927060e-09  5.89169297e-01  3.38927060e-09  5.28898606e-01  3.38927060e-09  1.59741918e+00  3.38927060e-09  1.80000000e+00  3.38927060e-09  6.23834477e-03  3.38927060e-09  5.00000000e-01                                 
 3.90778244e-09  5.87661837e-01  3.90778244e-09  5.27582437e-01  3.90778244e-09  1.59595298e+00  3.90778244e-09  1.80000000e+00  3.90778244e-09 -6.00203934e-03  3.90778244e-09  5.00000000e-01                                 
 4.67587692e-09  5.85545146e-01  4.67587692e-09  5.25722611e-01  4.67587692e-09  1.59249762e+00  4.67587692e-09  1.80000000e+00  4.67587692e-09  5.90938132e-03  4.67587692e-09  5.00000000e-01                                 
 5.81492216e-09  5.82630048e-01  5.81492216e-09  5.23139972e-01  5.81492216e-09  1.58716724e+00  5.81492216e-09  1.80000000e+00  5.81492216e-09 -5.78959318e-03  5.81492216e-09  5.00000000e-01                                 
 8.09301263e-09  5.77442798e-01  8.09301263e-09  5.18489775e-01  8.09301263e-09  1.57824204e+00  8.09301263e-09  1.80000000e+00  8.09301263e-09  5.78170616e-03  8.09301263e-09  5.00000000e-01                                 
 1.26491936e-08  5.68894696e-01  1.26491936e-08  5.10697454e-01  1.26491936e-08  1.56359661e+00  1.26491936e-08  1.80000000e+00  1.26491936e-08 -5.72649347e-03  1.26491936e-08  5.00000000e-01                                 
 2.17615554e-08  5.56198824e-01  2.17615554e-08  4.98887044e-01  2.17615554e-08  1.53425829e+00  2.17615554e-08  1.80000000e+00  2.17615554e-08  5.75087650e-03  2.17615554e-08  5.00000000e-01                                 
 3.96478697e-08  5.40630463e-01  3.96478697e-08  4.83959248e-01  3.96478697e-08  1.44730156e+00  3.96478697e-08  1.80000000e+00  3.96478697e-08 -5.71039579e-03  3.96478697e-08  5.00000000e-01                                 
 6.89811492e-08  5.26155861e-01  6.89811492e-08  4.69619524e-01  6.89811492e-08  1.26092923e+00  6.89811492e-08  1.80000000e+00  6.89811492e-08  5.74285725e-03  6.89811492e-08  5.00000000e-01                                 
 9.85054320e-08  5.16095482e-01  9.85054320e-08  4.59665579e-01  9.85054320e-08  1.07256562e+00  9.85054320e-08  1.80000000e+00  9.85054320e-08 -5.70385855e-03  9.85054320e-08  5.00000000e-01                                 
 1.41735274e-07  5.05383350e-01  1.41735274e-07  4.49040563e-01  1.41735274e-07  8.69876465e-01  1.41735274e-07  1.80000000e+00  1.41735274e-07  5.73761722e-03  1.41735274e-07  5.00000000e-01                                 
 1.90973175e-07  4.90168106e-01  1.90973175e-07  4.35200503e-01  1.90973175e-07  7.28465869e-01  1.90973175e-07  1.80000000e+00  1.90973175e-07 -5.69988890e-03  1.90973175e-07  5.00000000e-01                                 
 2.41623694e-07  4.72484971e-01  2.41623694e-07  4.19804782e-01  2.41623694e-07  6.09677408e-01  2.41623694e-07  1.80000000e+00  2.41623694e-07  5.73383383e-03  2.41623694e-07  5.00000000e-01                                 
 3.08419431e-07  4.51195425e-01  3.08419431e-07  4.01594733e-01  3.08419431e-07  5.02205755e-01  3.08419431e-07  1.80000000e+00  3.08419431e-07 -5.69664101e-03  3.08419431e-07  5.00000000e-01                                 
 3.96144568e-07  4.15966285e-01  3.96144568e-07  3.72522088e-01  3.96144568e-07  4.57646199e-01  3.96144568e-07  1.80000000e+00  3.96144568e-07  5.73130675e-03  3.96144568e-07  5.00000000e-01                                 
 4.12064799e-07  4.08465223e-01  4.12064799e-07  3.66436425e-01  4.12064799e-07  4.55098282e-01  4.12064799e-07  1.80000000e+00  4.12064799e-07  5.58799021e-06  4.12064799e-07  5.00000000e-01                                 
 4.43905262e-07  3.91300601e-01  4.43905262e-07  3.52565805e-01  4.43905262e-07  4.71375838e-01  4.43905262e-07  1.80000000e+00  4.43905262e-07  2.53226870e-06  4.43905262e-07  5.00000000e-01                                 
 4.50966842e-07  3.87163333e-01  4.50966842e-07  3.49234789e-01  4.50966842e-07  4.82720295e-01  4.50966842e-07  1.80000000e+00  4.50966842e-07  4.03802563e-06  4.50966842e-07  5.00000000e-01                                 
 4.65090002e-07  3.78719539e-01  4.65090002e-07  3.42441262e-01  4.65090002e-07  5.05262881e-01  4.65090002e-07  1.80000000e+00  4.65090002e-07  4.02720024e-06  4.65090002e-07  5.00000000e-01                                 
 4.93336322e-07  3.65193983e-01  4.93336322e-07  3.31571881e-01  4.93336322e-07  5.30761491e-01  4.93336322e-07  1.80000000e+00  4.93336322e-07  4.15519342e-06  4.93336322e-07  5.00000000e-01                                 
 5.28620711e-07  3.89881009e-01  5.28620711e-07  3.51346464e-01  5.28620711e-07  5.21998179e-01  5.28620711e-07  1.80000000e+00  5.28620711e-07  5.18284930e-06  5.28620711e-07  5.00000000e-01                                 
 5.70066300e-07  6.35391777e-01  5.70066300e-07  5.69151909e-01  5.70066300e-07  5.94736103e-01  5.70066300e-07  1.80000000e+00  5.70066300e-07  1.04478481e-05  5.70066300e-07  5.00000000e-01                                 
 6.00247810e-07  7.04515382e-01  6.00247810e-07  6.38454335e-01  6.00247810e-07  5.50042468e-01  6.00247810e-07  1.80000000e+00  6.00247810e-07  1.86219493e-06  6.00247810e-07  5.00000000e-01                                 
 6.28861571e-07  7.27318784e-01  6.28861571e-07  6.58659723e-01  6.28861571e-07  5.06230377e-01  6.28861571e-07  1.80000000e+00  6.28861571e-07  7.97738080e-06  6.28861571e-07  5.00000000e-01                                 
 6.72111902e-07  7.34726575e-01  6.72111902e-07  6.64983702e-01  6.72111902e-07  4.91172811e-01  6.72111902e-07  1.80000000e+00  6.72111902e-07  1.03220327e-06  6.72111902e-07  5.00000000e-01                                 
 7.13223219e-07  7.34919593e-01  7.13223219e-07  6.65120018e-01  7.13223219e-07  4.82666575e-01  7.13223219e-07  1.80000000e+00  7.13223219e-07  7.55546103e-06  7.13223219e-07  5.00000000e-01                                 
 7.20008639e-07  7.35813403e-01  7.20008639e-07  6.65869990e-01  7.20008639e-07  4.83497329e-01  7.20008639e-07  1.80000000e+00  7.20008639e-07  4.54365350e-06  7.20008639e-07  5.00000000e-01                                 
 7.33579480e-07  7.36368731e-01  7.33579480e-07  6.66343832e-01  7.33579480e-07  4.83406905e-01  7.33579480e-07  1.80000000e+00  7.33579480e-07  4.19190944e-06  7.33579480e-07  5.00000000e-01                                 
 7.60721162e-07  7.37102075e-01  7.60721162e-07  6.66944392e-01  7.60721162e-07  4.89945528e-01  7.60721162e-07  1.80000000e+00  7.60721162e-07  4.50797551e-06  7.60721162e-07  5.00000000e-01                                 
 8.03389705e-07  7.38519960e-01  8.03389705e-07  6.68125833e-01  8.03389705e-07  5.12665561e-01  8.03389705e-07  1.80000000e+00  8.03389705e-07  4.20625242e-06  8.03389705e-07  5.00000000e-01                                 
 8.59620513e-07  7.28006943e-01  8.59620513e-07  6.59305299e-01  8.59620513e-07  5.01128126e-01  8.59620513e-07  1.80000000e+00  8.59620513e-07  4.14875660e-06  8.59620513e-07  5.00000000e-01                                 
 8.68114817e-07  7.24107667e-01  8.68114817e-07  6.55955929e-01  8.68114817e-07  4.94780314e-01  8.68114817e-07  1.80000000e+00  8.68114817e-07  3.97319101e-06  8.68114817e-07  5.00000000e-01                                 
 8.85103425e-07  7.17787394e-01  8.85103425e-07  6.50423891e-01  8.85103425e-07  4.86326791e-01  8.85103425e-07  1.80000000e+00  8.85103425e-07  4.09795155e-06  8.85103425e-07  5.00000000e-01                                 
 9.19080641e-07  7.17847109e-01  9.19080641e-07  6.50446760e-01  9.19080641e-07  4.94136123e-01  9.19080641e-07  1.80000000e+00  9.19080641e-07  4.56116150e-06  9.19080641e-07  5.00000000e-01                                 
 9.80093506e-07  7.28977328e-01  9.80093506e-07  6.60109292e-01  9.80093506e-07  5.13725612e-01  9.80093506e-07  1.80000000e+00  9.80093506e-07  4.38420920e-06  9.80093506e-07  5.00000000e-01                                 
 1.04400618e-06  7.27003481e-01  1.04400618e-06  6.58436028e-01  1.04400618e-06  4.96124200e-01  1.04400618e-06  1.80000000e+00  1.04400618e-06  4.22414139e-06  1.04400618e-06  5.00000000e-01                                 
 1.13124631e-06  7.21603249e-01  1.13124631e-06  6.53752720e-01  1.13124631e-06  4.94127874e-01  1.13124631e-06  1.80000000e+00  1.13124631e-06  4.33722740e-06  1.13124631e-06  5.00000000e-01                                 
 1.22911258e-06  7.26772147e-01  1.22911258e-06  6.58225848e-01  1.22911258e-06  5.10205114e-01  1.22911258e-06  1.80000000e+00  1.22911258e-06  4.40222021e-06  1.22911258e-06  5.00000000e-01                                 
 1.37044410e-06  7.24979012e-01  1.37044410e-06  6.56688870e-01  1.37044410e-06  4.91707114e-01  1.37044410e-06  1.80000000e+00  1.37044410e-06  4.23587202e-06  1.37044410e-06  5.00000000e-01                                 
 1.53854061e-06  7.23953895e-01  1.53854061e-06  6.55794963e-01  1.53854061e-06  5.05624443e-01  1.53854061e-06  1.80000000e+00  1.53854061e-06  4.41209046e-06  1.53854061e-06  5.00000000e-01                                 
 1.70849447e-06  7.26793827e-01  1.70849447e-06  6.58248647e-01  1.70849447e-06  4.98955912e-01  1.70849447e-06  1.80000000e+00  1.70849447e-06  4.27139131e-06  1.70849447e-06  5.00000000e-01                                 
 1.93088182e-06  7.23163529e-01  1.93088182e-06  6.55113204e-01  1.93088182e-06  4.98399492e-01  1.93088182e-06  1.80000000e+00  1.93088182e-06  4.36094286e-06  1.93088182e-06  5.00000000e-01                                 
 2.21607570e-06  7.26731753e-01  2.21607570e-06  6.58192397e-01  2.21607570e-06  5.04068160e-01  2.21607570e-06  1.80000000e+00  2.21607570e-06  4.31588630e-06  2.21607570e-06  5.00000000e-01                                 
 2.57644753e-06  7.23550385e-01  2.57644753e-06  6.55451123e-01  2.57644753e-06  4.95051733e-01  2.57644753e-06  1.80000000e+00  2.57644753e-06  4.32811503e-06  2.57644753e-06  5.00000000e-01                                 
 3.07148049e-06  7.26306381e-01  3.07148049e-06  6.57825461e-01  3.07148049e-06  5.06080416e-01  3.07148049e-06  1.80000000e+00  3.07148049e-06  4.33797340e-06  3.07148049e-06  5.00000000e-01                                 
 3.75842588e-06  7.23944841e-01  3.75842588e-06  6.55793888e-01  3.75842588e-06  4.93953211e-01  3.75842588e-06  1.80000000e+00  3.75842588e-06  4.31433119e-06  3.75842588e-06  5.00000000e-01                                 
 4.56390436e-06  7.25990704e-01  4.56390436e-06  6.57553312e-01  4.56390436e-06  5.06717323e-01  4.56390436e-06  1.80000000e+00  4.56390436e-06  4.34710170e-06  4.56390436e-06  5.00000000e-01                                 
 5.56390436e-06  7.24232692e-01  5.56390436e-06  6.56043509e-01  5.56390436e-06  4.93569269e-01  5.56390436e-06  1.80000000e+00  5.56390436e-06  4.30778177e-06  5.56390436e-06  5.00000000e-01                                 
 6.56390436e-06  7.25738616e-01  6.56390436e-06  6.57335946e-01  6.56390436e-06  5.06940148e-01  6.56390436e-06  1.80000000e+00  6.56390436e-06  4.35206308e-06  6.56390436e-06  5.00000000e-01                                 
 7.56390436e-06  7.24497137e-01  7.56390436e-06  6.56272509e-01  7.56390436e-06  4.93450878e-01  7.56390436e-06  1.80000000e+00  7.56390436e-06  4.30361730e-06  7.56390436e-06  5.00000000e-01                                 
 8.56390436e-06  7.25481818e-01  8.56390436e-06  6.57114457e-01  8.56390436e-06  5.06961375e-01  8.56390436e-06  1.80000000e+00  8.56390436e-06  4.35542435e-06  8.56390436e-06  5.00000000e-01                                 
 9.56390436e-06  7.24758808e-01  9.56390436e-06  6.56498815e-01  9.56390436e-06  4.93531316e-01  9.56390436e-06  1.80000000e+00  9.56390436e-06  4.30105380e-06  9.56390436e-06  5.00000000e-01                                 
 1.00005000e-05  7.25072641e-01  1.00005000e-05  6.56761393e-01  1.00005000e-05  5.06592332e-01  1.00005000e-05  1.80000000e+00  1.00005000e-05  4.35754204e-06  1.00005000e-05  5.00000000e-01                                 
 1.00005500e-05  7.25077150e-01  1.00005500e-05  6.56765493e-01  1.00005500e-05  4.99062465e-01  1.00005500e-05  1.62000000e+00  1.00005500e-05 -8.72723828e-05  1.00005500e-05  5.00000000e-01                                 
 1.00006500e-05  7.25086420e-01  1.00006500e-05  6.56773566e-01  1.00006500e-05  4.85456596e-01  1.00006500e-05  1.26000000e+00  1.00006500e-05 -7.17915383e-05  1.00006500e-05  5.00000000e-01                                 
 1.00008500e-05  7.25103837e-01  1.00008500e-05  6.56788568e-01  1.00008500e-05  4.83571840e-01  1.00008500e-05  5.40000000e-01  1.00008500e-05  1.68996723e-02  1.00008500e-05  5.00000000e-01                                 
 1.00010000e-05  7.25115657e-01  1.00010000e-05  6.56798891e-01  1.00010000e-05  4.52456521e-01  1.00010000e-05  0.00000000e+00  1.00010000e-05  1.59708515e+00  1.00010000e-05  5.00000000e-01                                 
 1.00010251e-05  7.25117552e-01  1.00010251e-05  6.56800533e-01  1.00010251e-05  4.32968219e-01  1.00010251e-05  0.00000000e+00  1.00010251e-05  1.73124733e+00  1.00010251e-05  5.00000000e-01                                 
 1.00010752e-05  7.25121329e-01  1.00010752e-05  6.56803802e-01  1.00010752e-05  4.00318274e-01  1.00010752e-05  0.00000000e+00  1.00010752e-05  1.81893329e+00  1.00010752e-05  5.00000000e-01                                 
 1.00011755e-05  7.25128758e-01  1.00011755e-05  6.56810237e-01  1.00011755e-05  3.73039356e-01  1.00011755e-05  0.00000000e+00  1.00011755e-05  1.78648658e+00  1.00011755e-05  5.00000000e-01                                 
 1.00013231e-05  7.25139229e-01  1.00013231e-05  6.56819358e-01  1.00013231e-05  3.71217607e-01  1.00013231e-05  0.00000000e+00  1.00013231e-05  1.80936093e+00  1.00013231e-05  5.00000000e-01                                 
 1.00015082e-05  7.25151631e-01  1.00015082e-05  6.56830182e-01  1.00015082e-05  3.70207755e-01  1.00015082e-05  0.00000000e+00  1.00015082e-05  1.79269501e+00  1.00015082e-05  5.00000000e-01                                 
 1.00017023e-05  7.25163970e-01  1.00017023e-05  6.56840949e-01  1.00017023e-05  3.69538159e-01  1.00017023e-05  0.00000000e+00  1.00017023e-05  1.80565076e+00  1.00017023e-05  5.00000000e-01                                 
 1.00020906e-05  7.25187211e-01  1.00020906e-05  6.56861217e-01  1.00020906e-05  3.68348836e-01  1.00020906e-05  0.00000000e+00  1.00020906e-05  1.79497712e+00  1.00020906e-05  5.00000000e-01                                 
 1.00028673e-05  7.25230422e-01  1.00028673e-05  6.56898796e-01  1.00028673e-05  3.67604845e-01  1.00028673e-05  0.00000000e+00  1.00028673e-05  1.80469581e+00  1.00028673e-05  5.00000000e-01                                 
 1.00044206e-05  7.25310880e-01  1.00044206e-05  6.56968493e-01  1.00044206e-05  3.67797380e-01  1.00044206e-05  0.00000000e+00  1.00044206e-05  1.79542311e+00  1.00044206e-05  5.00000000e-01                                 
 1.00075272e-05  7.25457017e-01  1.00075272e-05  6.57094818e-01  1.00075272e-05  3.70863136e-01  1.00075272e-05  0.00000000e+00  1.00075272e-05  1.80448327e+00  1.00075272e-05  5.00000000e-01                                 
 1.00137403e-05  7.25691699e-01  1.00137403e-05  6.57297696e-01  1.00137403e-05  3.78671294e-01  1.00137403e-05  0.00000000e+00  1.00137403e-05  1.79552821e+00  1.00137403e-05  5.00000000e-01                                 
