 time            v(vbep)         time            v(vben)         time            v(vout)         time            v(vphi1)        time            v(vphi2)        time            v(vref)         yes             currtemp       
 0.00000000e+00  6.48505153e-01  0.00000000e+00  5.77619666e-01  0.00000000e+00  1.01776037e+00  0.00000000e+00  0.00000000e+00  0.00000000e+00  1.79918816e+00  0.00000000e+00  5.00000000e-01  1.00000000e+00  9.90000000e+01 
 5.00000000e-12  6.48071898e-01  5.00000000e-12  5.77372888e-01  5.00000000e-12  1.01854288e+00  5.00000000e-12  1.80000000e-02  5.00000000e-12  1.79947542e+00  5.00000000e-12  5.00000000e-01                                 
 1.00000000e-11  6.47730504e-01  1.00000000e-11  5.77181307e-01  1.00000000e-11  1.01925714e+00  1.00000000e-11  3.60000000e-02  1.00000000e-11  1.79967591e+00  1.00000000e-11  5.00000000e-01                                 
 2.00000000e-11  6.47154518e-01  2.00000000e-11  5.76818700e-01  2.00000000e-11  1.02057876e+00  2.00000000e-11  7.20000000e-02  2.00000000e-11  1.79995356e+00  2.00000000e-11  5.00000000e-01                                 
 4.00000000e-11  6.46284794e-01  4.00000000e-11  5.76118327e-01  4.00000000e-11  1.02272664e+00  4.00000000e-11  1.44000000e-01  4.00000000e-11  1.80011967e+00  4.00000000e-11  5.00000000e-01                                 
 8.00000000e-11  6.44709872e-01  8.00000000e-11  5.74731822e-01  8.00000000e-11  1.02571568e+00  8.00000000e-11  2.88000000e-01  8.00000000e-11  1.80009144e+00  8.00000000e-11  5.00000000e-01                                 
 1.60000000e-10  6.41646318e-01  1.60000000e-10  5.72028005e-01  1.60000000e-10  1.02875589e+00  1.60000000e-10  5.76000000e-01  1.60000000e-10  1.80001664e+00  1.60000000e-10  5.00000000e-01                                 
 3.20000000e-10  6.35818222e-01  3.20000000e-10  5.66868876e-01  3.20000000e-10  1.02574454e+00  3.20000000e-10  1.15200000e+00  3.20000000e-10  1.80045208e+00  3.20000000e-10  5.00000000e-01                                 
 5.00000000e-10  6.29739523e-01  5.00000000e-10  5.61466044e-01  5.00000000e-10  1.18338771e+00  5.00000000e-10  1.80000000e+00  5.00000000e-10  1.45752560e-01  5.00000000e-10  5.00000000e-01                                 
 5.22875168e-10  6.29009877e-01  5.22875168e-10  5.60816098e-01  5.22875168e-10  1.22245476e+00  5.22875168e-10  1.80000000e+00  5.22875168e-10  3.22960891e-02  5.22875168e-10  5.00000000e-01                                 
 5.68625504e-10  6.27561589e-01  5.68625504e-10  5.59523601e-01  5.68625504e-10  1.29599554e+00  5.68625504e-10  1.80000000e+00  5.68625504e-10 -1.41991166e-02  5.68625504e-10  5.00000000e-01                                 
 6.60126176e-10  6.24747839e-01  6.60126176e-10  5.57010523e-01  6.60126176e-10  1.42155180e+00  6.60126176e-10  1.80000000e+00  6.60126176e-10  1.13689243e-02  6.60126176e-10  5.00000000e-01                                 
 7.83190372e-10  6.21137704e-01  7.83190372e-10  5.53778433e-01  7.83190372e-10  1.55927458e+00  7.83190372e-10  1.80000000e+00  7.83190372e-10 -9.53908489e-03  7.83190372e-10  5.00000000e-01                                 
 9.81766793e-10  6.15697440e-01  9.81766793e-10  5.48892657e-01  9.81766793e-10  1.72331489e+00  9.81766793e-10  1.80000000e+00  9.81766793e-10  8.82447630e-03  9.81766793e-10  5.00000000e-01                                 
 1.37891963e-09  6.06044371e-01  1.37891963e-09  5.40176550e-01  1.37891963e-09  1.89940048e+00  1.37891963e-09  1.80000000e+00  1.37891963e-09 -8.23739969e-03  1.37891963e-09  5.00000000e-01                                 
 1.65280890e-09  6.00281552e-01  1.65280890e-09  5.34934947e-01  1.65280890e-09  1.94494102e+00  1.65280890e-09  1.80000000e+00  1.65280890e-09  7.82580744e-03  1.65280890e-09  5.00000000e-01                                 
 1.99039553e-09  5.93962649e-01  1.99039553e-09  5.29151494e-01  1.99039553e-09  1.96607117e+00  1.99039553e-09  1.80000000e+00  1.99039553e-09 -7.28704877e-03  1.99039553e-09  5.00000000e-01                                 
 2.30639190e-09  5.88711933e-01  2.30639190e-09  5.24318079e-01  2.30639190e-09  1.97073266e+00  2.30639190e-09  1.80000000e+00  2.30639190e-09  6.96346667e-03  2.30639190e-09  5.00000000e-01                                 
 2.85993084e-09  5.80713720e-01  2.85993084e-09  5.16903165e-01  2.85993084e-09  1.96815261e+00  2.85993084e-09  1.80000000e+00  2.85993084e-09 -6.64519889e-03  2.85993084e-09  5.00000000e-01                                 
 3.48182570e-09  5.73185182e-01  3.48182570e-09  5.09863988e-01  3.48182570e-09  1.96149371e+00  3.48182570e-09  1.80000000e+00  3.48182570e-09  6.52949502e-03  3.48182570e-09  5.00000000e-01                                 
 4.67508546e-09  5.61611672e-01  4.67508546e-09  4.98934345e-01  4.67508546e-09  1.95001426e+00  4.67508546e-09  1.80000000e+00  4.67508546e-09 -6.35178125e-03  4.67508546e-09  5.00000000e-01                                 
 6.35391210e-09  5.49527999e-01  6.35391210e-09  4.87380611e-01  6.35391210e-09  1.93822297e+00  6.35391210e-09  1.80000000e+00  6.35391210e-09  6.36268951e-03  6.35391210e-09  5.00000000e-01                                 
 9.71156537e-09  5.32822657e-01  9.71156537e-09  4.71207018e-01  9.71156537e-09  1.92200269e+00  9.71156537e-09  1.80000000e+00  9.71156537e-09 -6.24700777e-03  9.71156537e-09  5.00000000e-01                                 
 1.15165250e-08  5.26457358e-01  1.15165250e-08  4.64978740e-01  1.15165250e-08  1.91595408e+00  1.15165250e-08  1.80000000e+00  1.15165250e-08  6.25385673e-03  1.15165250e-08  5.00000000e-01                                 
 1.30949816e-08  5.21706616e-01  1.30949816e-08  4.60313385e-01  1.30949816e-08  1.91134747e+00  1.30949816e-08  1.80000000e+00  1.30949816e-08 -6.11310219e-03  1.30949816e-08  5.00000000e-01                                 
 1.49780761e-08  5.16764820e-01  1.49780761e-08  4.55448059e-01  1.49780761e-08  1.90669968e+00  1.49780761e-08  1.80000000e+00  1.49780761e-08  6.11890014e-03  1.49780761e-08  5.00000000e-01                                 
 1.76163187e-08  5.10831698e-01  1.76163187e-08  4.49590553e-01  1.76163187e-08  1.90098355e+00  1.76163187e-08  1.80000000e+00  1.76163187e-08 -6.01112318e-03  1.76163187e-08  5.00000000e-01                                 
 2.10679863e-08  5.04334860e-01  2.10679863e-08  4.43159320e-01  2.10679863e-08  1.89487703e+00  2.10679863e-08  1.80000000e+00  2.10679863e-08  6.04363428e-03  2.10679863e-08  5.00000000e-01                                 
 2.62196776e-08  4.96446140e-01  2.62196776e-08  4.35328508e-01  2.62196776e-08  1.88732673e+00  2.62196776e-08  1.80000000e+00  2.62196776e-08 -5.95713893e-03  2.62196776e-08  5.00000000e-01                                 
 3.49127982e-08  4.86181878e-01  3.49127982e-08  4.25110251e-01  3.49127982e-08  1.87766799e+00  3.49127982e-08  1.80000000e+00  3.49127982e-08  6.00974190e-03  3.49127982e-08  5.00000000e-01                                 
 5.22990393e-08  4.71735952e-01  5.22990393e-08  4.10684053e-01  5.22990393e-08  1.86393133e+00  5.22990393e-08  1.80000000e+00  5.22990393e-08 -5.93762165e-03  5.22990393e-08  5.00000000e-01                                 
 8.64281039e-08  4.53945600e-01  8.64281039e-08  3.92855389e-01  8.64281039e-08  1.84723801e+00  8.64281039e-08  1.80000000e+00  8.64281039e-08  6.00061535e-03  8.64281039e-08  5.00000000e-01                                 
 1.27962542e-07  4.41317435e-01  1.27962542e-07  3.80002471e-01  1.27962542e-07  1.83723870e+00  1.27962542e-07  1.80000000e+00  1.27962542e-07 -5.93160467e-03  1.27962542e-07  5.00000000e-01                                 
 1.74172501e-07  4.32243118e-01  1.74172501e-07  3.70595219e-01  1.74172501e-07  1.83208939e+00  1.74172501e-07  1.80000000e+00  1.74172501e-07  5.99574745e-03  1.74172501e-07  5.00000000e-01                                 
 2.08874999e-07  4.25514193e-01  2.08874999e-07  3.63970445e-01  2.08874999e-07  1.81560848e+00  2.08874999e-07  1.80000000e+00  2.08874999e-07 -5.92613922e-03  2.08874999e-07  5.00000000e-01                                 
 2.52088864e-07  4.08006878e-01  2.52088864e-07  3.48777069e-01  2.52088864e-07  1.75904638e+00  2.52088864e-07  1.80000000e+00  2.52088864e-07  5.98982612e-03  2.52088864e-07  5.00000000e-01                                 
 2.86007019e-07  3.95748420e-01  2.86007019e-07  3.38199620e-01  2.86007019e-07  1.70355956e+00  2.86007019e-07  1.80000000e+00  2.86007019e-07 -5.92040572e-03  2.86007019e-07  5.00000000e-01                                 
 3.15805945e-07  3.98060940e-01  3.15805945e-07  3.39360804e-01  3.15805945e-07  1.68951298e+00  3.15805945e-07  1.80000000e+00  3.15805945e-07  5.98350664e-03  3.15805945e-07  5.00000000e-01                                 
 3.42218288e-07  3.99815800e-01  3.42218288e-07  3.40186948e-01  3.42218288e-07  1.66660527e+00  3.42218288e-07  1.80000000e+00  3.42218288e-07 -5.91279101e-03  3.42218288e-07  5.00000000e-01                                 
 3.68887461e-07  3.96154913e-01  3.68887461e-07  3.36748232e-01  3.68887461e-07  1.63294942e+00  3.68887461e-07  1.80000000e+00  3.68887461e-07  5.97512264e-03  3.68887461e-07  5.00000000e-01                                 
 3.93111229e-07  3.94904213e-01  3.93111229e-07  3.35303016e-01  3.93111229e-07  1.60621522e+00  3.93111229e-07  1.80000000e+00  3.93111229e-07 -5.90426247e-03  3.93111229e-07  5.00000000e-01                                 
 4.18746716e-07  3.93587132e-01  4.18746716e-07  3.33805854e-01  4.18746716e-07  1.57906122e+00  4.18746716e-07  1.80000000e+00  4.18746716e-07  5.96643643e-03  4.18746716e-07  5.00000000e-01                                 
 4.61272640e-07  3.88082263e-01  4.61272640e-07  3.28743833e-01  4.61272640e-07  1.52769502e+00  4.61272640e-07  1.80000000e+00  4.61272640e-07 -5.89767315e-03  4.61272640e-07  5.00000000e-01                                 
 5.13106320e-07  3.77988330e-01  5.13106320e-07  3.19979079e-01  5.13106320e-07  1.46380535e+00  5.13106320e-07  1.80000000e+00  5.13106320e-07  5.96174120e-03  5.13106320e-07  5.00000000e-01                                 
 5.84923703e-07  3.63314956e-01  5.84923703e-07  3.07443735e-01  5.84923703e-07  1.37131255e+00  5.84923703e-07  1.80000000e+00  5.84923703e-07 -5.89410354e-03  5.84923703e-07  5.00000000e-01                                 
 6.62662241e-07  3.46904724e-01  6.62662241e-07  2.93631172e-01  6.62662241e-07  1.27286580e+00  6.62662241e-07  1.80000000e+00  6.62662241e-07  5.95885513e-03  6.62662241e-07  5.00000000e-01                                 
 8.18139317e-07  3.01426946e-01  8.18139317e-07  2.56352044e-01  8.18139317e-07  1.07435557e+00  8.18139317e-07  1.80000000e+00  8.18139317e-07 -5.89217713e-03  8.18139317e-07  5.00000000e-01                                 
 8.41355000e-07  2.95100896e-01  8.41355000e-07  2.51210542e-01  8.41355000e-07  1.04973106e+00  8.41355000e-07  1.80000000e+00  8.41355000e-07  1.77101604e-05  8.41355000e-07  5.00000000e-01                                 
 8.87786366e-07  2.81022012e-01  8.87786366e-07  2.39803999e-01  8.87786366e-07  1.00061760e+00  8.87786366e-07  1.80000000e+00  8.87786366e-07  1.98656146e-05  8.87786366e-07  5.00000000e-01                                 
 9.54879250e-07  2.89211037e-01  9.54879250e-07  2.46368778e-01  9.54879250e-07  9.60831542e-01  9.54879250e-07  1.80000000e+00  9.54879250e-07  1.81672990e-05  9.54879250e-07  5.00000000e-01                                 
 9.69903570e-07  3.08468351e-01  9.69903570e-07  2.61866180e-01  9.69903570e-07  9.67682670e-01  9.69903570e-07  1.80000000e+00  9.69903570e-07  1.96420341e-05  9.69903570e-07  5.00000000e-01                                 
 9.99952212e-07  3.93697559e-01  9.99952212e-07  3.30306316e-01  9.99952212e-07  1.02259189e+00  9.99952212e-07  1.80000000e+00  9.99952212e-07  2.14153295e-05  9.99952212e-07  5.00000000e-01                                 
 1.00544804e-06  4.23415612e-01  1.00544804e-06  3.54164369e-01  1.00544804e-06  1.04537078e+00  1.00544804e-06  1.80000000e+00  1.00544804e-06  2.20936113e-05  1.00544804e-06  5.00000000e-01                                 
 1.01643969e-06  4.93096129e-01  1.01643969e-06  4.11821255e-01  1.01643969e-06  1.10077472e+00  1.01643969e-06  1.80000000e+00  1.01643969e-06  2.36500444e-05  1.01643969e-06  5.00000000e-01                                 
 1.03602562e-06  5.85838123e-01  1.03602562e-06  5.11405595e-01  1.03602562e-06  1.17085818e+00  1.03602562e-06  1.80000000e+00  1.03602562e-06  2.17291645e-05  1.03602562e-06  5.00000000e-01                                 
 1.05308811e-06  6.23612441e-01  1.05308811e-06  5.53459026e-01  1.05308811e-06  1.18937826e+00  1.05308811e-06  1.80000000e+00  1.05308811e-06  2.02822705e-05  1.05308811e-06  5.00000000e-01                                 
 1.06930262e-06  6.60744007e-01  1.06930262e-06  5.86840349e-01  1.06930262e-06  1.20757759e+00  1.06930262e-06  1.80000000e+00  1.06930262e-06  2.14006333e-05  1.06930262e-06  5.00000000e-01                                 
 1.08876017e-06  6.91568692e-01  1.08876017e-06  6.13199975e-01  1.08876017e-06  1.21683140e+00  1.08876017e-06  1.80000000e+00  1.08876017e-06  1.93774339e-05  1.08876017e-06  5.00000000e-01                                 
 1.10967321e-06  7.01013295e-01  1.10967321e-06  6.20614998e-01  1.10967321e-06  1.20373480e+00  1.10967321e-06  1.80000000e+00  1.10967321e-06  1.93460319e-05  1.10967321e-06  5.00000000e-01                                 
 1.13798937e-06  7.02379273e-01  1.13798937e-06  6.21778456e-01  1.13798937e-06  1.17534127e+00  1.13798937e-06  1.80000000e+00  1.13798937e-06  1.86577387e-05  1.13798937e-06  5.00000000e-01                                 
 1.17233274e-06  7.02472300e-01  1.17233274e-06  6.21769023e-01  1.17233274e-06  1.14016179e+00  1.17233274e-06  1.80000000e+00  1.17233274e-06  1.92466981e-05  1.17233274e-06  5.00000000e-01                                 
 1.20386786e-06  7.02283630e-01  1.20386786e-06  6.21697652e-01  1.20386786e-06  1.10905136e+00  1.20386786e-06  1.80000000e+00  1.20386786e-06  1.86567134e-05  1.20386786e-06  5.00000000e-01                                 
 1.24736753e-06  6.88145126e-01  1.24736753e-06  6.10390251e-01  1.24736753e-06  1.05659271e+00  1.24736753e-06  1.80000000e+00  1.24736753e-06  1.87021042e-05  1.24736753e-06  5.00000000e-01                                 
 1.25356644e-06  6.82708712e-01  1.25356644e-06  6.05977851e-01  1.25356644e-06  1.04650127e+00  1.25356644e-06  1.80000000e+00  1.25356644e-06  1.82246885e-05  1.25356644e-06  5.00000000e-01                                 
 1.26596426e-06  6.71779632e-01  1.26596426e-06  5.96792362e-01  1.26596426e-06  1.02649942e+00  1.26596426e-06  1.80000000e+00  1.26596426e-06  1.81731728e-05  1.26596426e-06  5.00000000e-01                                 
 1.29075990e-06  6.56231146e-01  1.29075990e-06  5.83177182e-01  1.29075990e-06  9.93824161e-01  1.29075990e-06  1.80000000e+00  1.29075990e-06  1.86248459e-05  1.29075990e-06  5.00000000e-01                                 
 1.32989365e-06  6.61262569e-01  1.32989365e-06  5.87593099e-01  1.32989365e-06  9.70864405e-01  1.32989365e-06  1.80000000e+00  1.32989365e-06  1.94690744e-05  1.32989365e-06  5.00000000e-01                                 
 1.37046075e-06  6.80051734e-01  1.37046075e-06  6.03710513e-01  1.37046075e-06  9.59859094e-01  1.37046075e-06  1.80000000e+00  1.37046075e-06  1.92432415e-05  1.37046075e-06  5.00000000e-01                                 
 1.42183920e-06  6.84734859e-01  1.42183920e-06  6.07622311e-01  1.42183920e-06  9.29885418e-01  1.42183920e-06  1.80000000e+00  1.42183920e-06  1.88342622e-05  1.42183920e-06  5.00000000e-01                                 
 1.47613100e-06  6.74509035e-01  1.47613100e-06  5.99075673e-01  1.47613100e-06  8.86400196e-01  1.47613100e-06  1.80000000e+00  1.47613100e-06  1.87465949e-05  1.47613100e-06  5.00000000e-01                                 
 1.54986732e-06  6.71296389e-01  1.54986732e-06  5.96327071e-01  1.54986732e-06  8.38366283e-01  1.54986732e-06  1.80000000e+00  1.54986732e-06  1.90762164e-05  1.54986732e-06  5.00000000e-01                                 
 1.62930367e-06  6.81744672e-01  1.62930367e-06  6.05131684e-01  1.62930367e-06  8.00006172e-01  1.62930367e-06  1.80000000e+00  1.62930367e-06  1.90557499e-05  1.62930367e-06  5.00000000e-01                                 
 1.74201617e-06  6.74003775e-01  1.74201617e-06  5.98655994e-01  1.74201617e-06  7.27646357e-01  1.74201617e-06  1.80000000e+00  1.74201617e-06  1.87348876e-05  1.74201617e-06  5.00000000e-01                                 
 1.84788052e-06  6.75081068e-01  1.84788052e-06  5.99535902e-01  1.84788052e-06  6.69913589e-01  1.84788052e-06  1.80000000e+00  1.84788052e-06  1.91805988e-05  1.84788052e-06  5.00000000e-01                                 
 1.99214598e-06  6.79503626e-01  1.99214598e-06  6.03286946e-01  1.99214598e-06  5.97420532e-01  1.99214598e-06  1.80000000e+00  1.99214598e-06  1.87813583e-05  1.99214598e-06  5.00000000e-01                                 
 2.22585200e-06  6.72955045e-01  2.22585200e-06  5.97735736e-01  2.22585200e-06  5.10481969e-01  2.22585200e-06  1.80000000e+00  2.22585200e-06  1.90750941e-05  2.22585200e-06  5.00000000e-01                                 
 2.45345674e-06  6.79587057e-01  2.45345674e-06  6.03351120e-01  2.45345674e-06  4.90737871e-01  2.45345674e-06  1.80000000e+00  2.45345674e-06  1.88819678e-05  2.45345674e-06  5.00000000e-01                                 
 2.67333202e-06  6.73850745e-01  2.67333202e-06  5.98503812e-01  2.67333202e-06  4.98529300e-01  2.67333202e-06  1.80000000e+00  2.67333202e-06  1.89782175e-05  2.67333202e-06  5.00000000e-01                                 
 2.92203376e-06  6.78199533e-01  2.92203376e-06  6.02185200e-01  2.92203376e-06  5.05418767e-01  2.92203376e-06  1.80000000e+00  2.92203376e-06  1.89540544e-05  2.92203376e-06  5.00000000e-01                                 
 3.19086486e-06  6.75543397e-01  3.19086486e-06  5.99941713e-01  3.19086486e-06  4.94981869e-01  3.19086486e-06  1.80000000e+00  3.19086486e-06  1.89347320e-05  3.19086486e-06  5.00000000e-01                                 
 3.46408835e-06  6.76639797e-01  3.46408835e-06  6.00872122e-01  3.46408835e-06  5.03323723e-01  3.46408835e-06  1.80000000e+00  3.46408835e-06  1.89753991e-05  3.46408835e-06  5.00000000e-01                                 
 3.78362325e-06  6.76922931e-01  3.78362325e-06  6.01106392e-01  3.78362325e-06  4.98709095e-01  3.78362325e-06  1.80000000e+00  3.78362325e-06  1.89307366e-05  3.78362325e-06  5.00000000e-01                                 
 4.20888937e-06  6.75682302e-01  4.20888937e-06  6.00064223e-01  4.20888937e-06  5.00845003e-01  4.20888937e-06  1.80000000e+00  4.20888937e-06  1.89683126e-05  4.20888937e-06  5.00000000e-01                                 
 4.79918358e-06  6.77501053e-01  4.79918358e-06  6.01592363e-01  4.79918358e-06  5.00304191e-01  4.79918358e-06  1.80000000e+00  4.79918358e-06  1.89411906e-05  4.79918358e-06  5.00000000e-01                                 
 5.69719986e-06  6.75335374e-01  5.69719986e-06  5.99771336e-01  5.69719986e-06  4.99923037e-01  5.69719986e-06  1.80000000e+00  5.69719986e-06  1.89588787e-05  5.69719986e-06  5.00000000e-01                                 
 6.69719986e-06  6.77710194e-01  6.69719986e-06  6.01767716e-01  6.69719986e-06  5.00905555e-01  6.69719986e-06  1.80000000e+00  6.69719986e-06  1.89493588e-05  6.69719986e-06  5.00000000e-01                                 
 7.69719986e-06  6.75160505e-01  7.69719986e-06  5.99623802e-01  7.69719986e-06  4.99424376e-01  7.69719986e-06  1.80000000e+00  7.69719986e-06  1.89505058e-05  7.69719986e-06  5.00000000e-01                                 
