 time            v(vbep)         time            v(vben)         time            v(vout)         time            v(vphi1)        time            v(vphi2)        time            v(vref)         time            v(voutc)        time            v(voutcc)       yes             currtemp       
 0.00000000e+00  8.04793215e-01  0.00000000e+00  7.50897902e-01  0.00000000e+00  1.66530426e+00  0.00000000e+00  0.00000000e+00  0.00000000e+00  1.80000000e+00  0.00000000e+00  7.54071392e-01  0.00000000e+00  1.66530426e+00  0.00000000e+00  1.67099684e+00  1.00000000e+00  6.00000000e+00 
 1.00000000e-11  8.04816956e-01  1.00000000e-11  7.50968241e-01  1.00000000e-11  1.66610771e+00  1.00000000e-11  1.80000000e-02  1.00000000e-11  1.80024717e+00  1.00000000e-11  7.54595153e-01  1.00000000e-11  1.66576873e+00  1.00000000e-11  1.67101117e+00                                 
 2.00000000e-11  8.04823486e-01  2.00000000e-11  7.51012492e-01  2.00000000e-11  1.66662703e+00  2.00000000e-11  3.60000000e-02  2.00000000e-11  1.80034799e+00  2.00000000e-11  7.54987456e-01  2.00000000e-11  1.66612663e+00  2.00000000e-11  1.67101729e+00                                 
 4.00000000e-11  8.04823302e-01  4.00000000e-11  7.51070540e-01  4.00000000e-11  1.66728735e+00  4.00000000e-11  7.20000000e-02  4.00000000e-11  1.80039076e+00  4.00000000e-11  7.55563747e-01  4.00000000e-11  1.66666940e+00  4.00000000e-11  1.67102058e+00                                 
 8.00000000e-11  8.04811473e-01  8.00000000e-11  7.51105948e-01  8.00000000e-11  1.66751813e+00  8.00000000e-11  1.44000000e-01  8.00000000e-11  1.80019240e+00  8.00000000e-11  7.56013080e-01  8.00000000e-11  1.66714462e+00  8.00000000e-11  1.67101034e+00                                 
 1.60000000e-10  8.04808181e-01  1.60000000e-10  7.51110476e-01  1.60000000e-10  1.66722571e+00  1.60000000e-10  2.88000000e-01  1.60000000e-10  1.80000675e+00  1.60000000e-10  7.56067676e-01  1.60000000e-10  1.66725798e+00  1.60000000e-10  1.67099932e+00                                 
 3.20000000e-10  8.04805205e-01  3.20000000e-10  7.51112097e-01  3.20000000e-10  1.66689954e+00  3.20000000e-10  5.76000000e-01  3.20000000e-10  1.80000801e+00  3.20000000e-10  7.55992170e-01  3.20000000e-10  1.66710355e+00  3.20000000e-10  1.67099673e+00                                 
 6.40000000e-10  8.04729456e-01  6.40000000e-10  7.50841271e-01  6.40000000e-10  1.66256398e+00  6.40000000e-10  1.15200000e+00  6.40000000e-10  1.81314434e+00  6.40000000e-10  7.54898420e-01  6.40000000e-10  1.67214273e+00  6.40000000e-10  1.67102610e+00                                 
 9.98261105e-10  8.05256935e-01  9.98261105e-10  7.50937681e-01  9.98261105e-10  1.63394931e+00  9.98261105e-10  1.79686999e+00  9.98261105e-10  8.12766829e-02  9.98261105e-10  7.59349492e-01  9.98261105e-10  1.66499891e+00  9.98261105e-10  1.67093660e+00                                 
 1.00000000e-09  8.05262708e-01  1.00000000e-09  7.50943206e-01  1.00000000e-09  1.63380630e+00  1.00000000e-09  1.80000000e+00  1.00000000e-09  6.78331263e-02  1.00000000e-09  7.59469219e-01  1.00000000e-09  1.66491264e+00  1.00000000e-09  1.67093736e+00                                 
 1.00347779e-09  8.05250833e-01  1.00347779e-09  7.50929432e-01  1.00347779e-09  1.63354421e+00  1.00347779e-09  1.80000000e+00  1.00347779e-09  4.96423534e-02  1.00347779e-09  7.59670071e-01  1.00347779e-09  1.66483673e+00  1.00347779e-09  1.67094191e+00                                 
 1.01043337e-09  8.05232233e-01  1.01043337e-09  7.50931854e-01  1.01043337e-09  1.63337738e+00  1.01043337e-09  1.80000000e+00  1.01043337e-09  2.33501303e-02  1.01043337e-09  7.60280564e-01  1.01043337e-09  1.66501303e+00  1.01043337e-09  1.67096265e+00                                 
 1.02434452e-09  8.05218708e-01  1.02434452e-09  7.50999332e-01  1.02434452e-09  1.63394081e+00  1.02434452e-09  1.80000000e+00  1.02434452e-09  4.62383471e-03  1.02434452e-09  7.61871252e-01  1.02434452e-09  1.66616862e+00  1.02434452e-09  1.67101347e+00                                 
 1.05216684e-09  8.05248872e-01  1.05216684e-09  7.51077386e-01  1.05216684e-09  1.63470177e+00  1.05216684e-09  1.80000000e+00  1.05216684e-09  6.42333407e-04  1.05216684e-09  7.63783857e-01  1.05216684e-09  1.66782455e+00  1.05216684e-09  1.67103505e+00                                 
 1.10781147e-09  8.05339376e-01  1.10781147e-09  7.51040491e-01  1.10781147e-09  1.63406483e+00  1.10781147e-09  1.80000000e+00  1.10781147e-09  9.06560975e-04  1.10781147e-09  7.64628227e-01  1.10781147e-09  1.66858631e+00  1.10781147e-09  1.67100188e+00                                 
 1.21910072e-09  8.05474190e-01  1.21910072e-09  7.50947861e-01  1.21910072e-09  1.63153678e+00  1.21910072e-09  1.80000000e+00  1.21910072e-09  2.53770289e-04  1.21910072e-09  7.65143483e-01  1.21910072e-09  1.66900821e+00  1.21910072e-09  1.67100703e+00                                 
 1.44167924e-09  8.05576409e-01  1.44167924e-09  7.50921319e-01  1.44167924e-09  1.62807876e+00  1.44167924e-09  1.80000000e+00  1.44167924e-09  2.56405656e-04  1.44167924e-09  7.65394522e-01  1.44167924e-09  1.66922003e+00  1.44167924e-09  1.67100765e+00                                 
 1.74129052e-09  8.05444122e-01  1.74129052e-09  7.50899766e-01  1.74129052e-09  1.62802646e+00  1.74129052e-09  1.80000000e+00  1.74129052e-09 -1.69644755e-04  1.74129052e-09  7.64462583e-01  1.74129052e-09  1.66842339e+00  1.74129052e-09  1.67101302e+00                                 
 2.01728387e-09  8.05258641e-01  2.01728387e-09  7.50895476e-01  2.01728387e-09  1.62957532e+00  2.01728387e-09  1.80000000e+00  2.01728387e-09  8.49558172e-05  2.01728387e-09  7.63708477e-01  2.01728387e-09  1.66778811e+00  2.01728387e-09  1.67102570e+00                                 
 2.35859796e-09  8.05057305e-01  2.35859796e-09  7.50881947e-01  2.35859796e-09  1.63128015e+00  2.35859796e-09  1.80000000e+00  2.35859796e-09 -1.59090443e-04  2.35859796e-09  7.62691372e-01  2.35859796e-09  1.66692069e+00  2.35859796e-09  1.67104031e+00                                 
 2.88767333e-09  8.04854697e-01  2.88767333e-09  7.50876712e-01  2.88767333e-09  1.63355994e+00  2.88767333e-09  1.80000000e+00  2.88767333e-09  6.81318226e-05  2.88767333e-09  7.61323096e-01  2.88767333e-09  1.66576243e+00  2.88767333e-09  1.67106772e+00                                 
 3.94582407e-09  8.04691599e-01  3.94582407e-09  7.50869521e-01  3.94582407e-09  1.63643733e+00  3.94582407e-09  1.80000000e+00  3.94582407e-09 -1.45826402e-04  3.94582407e-09  7.58905590e-01  3.94582407e-09  1.66370547e+00  3.94582407e-09  1.67110376e+00                                 
 6.06212554e-09  8.04687343e-01  6.06212554e-09  7.50881861e-01  6.06212554e-09  1.63807705e+00  6.06212554e-09  1.80000000e+00  6.06212554e-09  7.07187339e-05  6.06212554e-09  7.55777454e-01  6.06212554e-09  1.66105260e+00  6.06212554e-09  1.67109541e+00                                 
 8.04301296e-09  8.04720829e-01  8.04301296e-09  7.50889068e-01  8.04301296e-09  1.63684414e+00  8.04301296e-09  1.80000000e+00  8.04301296e-09 -1.30878010e-04  8.04301296e-09  7.54248602e-01  8.04301296e-09  1.65975106e+00  8.04301296e-09  1.67098457e+00                                 
 9.85367990e-09  8.04715135e-01  9.85367990e-09  7.50895918e-01  9.85367990e-09  1.63590640e+00  9.85367990e-09  1.80000000e+00  9.85367990e-09  8.53159202e-05  9.85367990e-09  7.53603619e-01  9.85367990e-09  1.65920564e+00  9.85367990e-09  1.67082731e+00                                 
 1.18681626e-08  8.04711992e-01  1.18681626e-08  7.50895521e-01  1.18681626e-08  1.63502921e+00  1.18681626e-08  1.80000000e+00  1.18681626e-08 -1.09676875e-04  1.18681626e-08  7.53220174e-01  1.18681626e-08  1.65887307e+00  1.18681626e-08  1.67061439e+00                                 
 1.45311255e-08  8.04735417e-01  1.45311255e-08  7.50898635e-01  1.45311255e-08  1.63260152e+00  1.45311255e-08  1.80000000e+00  1.45311255e-08  9.40174772e-05  1.45311255e-08  7.53096278e-01  1.45311255e-08  1.65876297e+00  1.45311255e-08  1.67031699e+00                                 
 1.79309431e-08  8.04765725e-01  1.79309431e-08  7.50896557e-01  1.79309431e-08  1.62702987e+00  1.79309431e-08  1.80000000e+00  1.79309431e-08 -1.01522613e-04  1.79309431e-08  7.53082361e-01  1.79309431e-08  1.65873423e+00  1.79309431e-08  1.66993643e+00                                 
 2.25112353e-08  8.04788766e-01  2.25112353e-08  7.50899131e-01  2.25112353e-08  1.61722128e+00  2.25112353e-08  1.80000000e+00  2.25112353e-08  9.52895590e-05  2.25112353e-08  7.53231482e-01  2.25112353e-08  1.65884456e+00  2.25112353e-08  1.66946219e+00                                 
 2.89196780e-08  8.04797533e-01  2.89196780e-08  7.50897009e-01  2.89196780e-08  1.60174023e+00  2.89196780e-08  1.80000000e+00  2.89196780e-08 -9.96559514e-05  2.89196780e-08  7.53380887e-01  2.89196780e-08  1.65894368e+00  2.89196780e-08  1.66887295e+00                                 
 3.94322995e-08  8.04797720e-01  3.94322995e-08  7.50899206e-01  3.94322995e-08  1.57527801e+00  3.94322995e-08  1.80000000e+00  3.94322995e-08  9.47746895e-05  3.94322995e-08  7.53630240e-01  3.94322995e-08  1.65912813e+00  3.94322995e-08  1.66808299e+00                                 
 5.50177712e-08  8.04795382e-01  5.50177712e-08  7.50896834e-01  5.50177712e-08  1.53504451e+00  5.50177712e-08  1.80000000e+00  5.50177712e-08 -9.93126638e-05  5.50177712e-08  7.53807151e-01  5.50177712e-08  1.65924593e+00  5.50177712e-08  1.66721234e+00                                 
 8.61887145e-08  8.04794309e-01  8.61887145e-08  7.50899039e-01  8.61887145e-08  1.45371808e+00  8.61887145e-08  1.80000000e+00  8.61887145e-08  9.44203817e-05  8.61887145e-08  7.54018314e-01  8.61887145e-08  1.65939895e+00  8.61887145e-08  1.66616292e+00                                 
 1.48530601e-07  8.04792986e-01  1.48530601e-07  7.50896774e-01  1.48530601e-07  1.29132126e+00  1.48530601e-07  1.80000000e+00  1.48530601e-07 -9.92331021e-05  1.48530601e-07  7.54062366e-01  1.48530601e-07  1.65941371e+00  1.48530601e-07  1.66534464e+00                                 
 2.32907792e-07  8.04793479e-01  2.32907792e-07  7.50899032e-01  2.32907792e-07  1.07533184e+00  2.32907792e-07  1.80000000e+00  2.32907792e-07  9.45343671e-05  2.32907792e-07  7.54083671e-01  2.32907792e-07  1.65942815e+00  2.32907792e-07  1.66514068e+00                                 
 3.63205864e-07  8.04792968e-01  3.63205864e-07  7.50896772e-01  3.63205864e-07  8.11069060e-01  3.63205864e-07  1.80000000e+00  3.63205864e-07 -9.73631248e-05  3.63205864e-07  7.54057394e-01  3.63205864e-07  1.65939632e+00  3.63205864e-07  1.66511230e+00                                 
 4.71441733e-07  8.04793654e-01  4.71441733e-07  7.50899051e-01  4.71441733e-07  7.46863325e-01  4.71441733e-07  1.80000000e+00  4.71441733e-07  9.68759391e-05  4.71441733e-07  7.54086951e-01  4.71441733e-07  1.65942040e+00  4.71441733e-07  1.66511389e+00                                 
 5.72478560e-07  8.04792414e-01  5.72478560e-07  7.50896730e-01  5.72478560e-07  7.60759807e-01  5.72478560e-07  1.80000000e+00  5.72478560e-07 -9.65174281e-05  5.72478560e-07  7.54056506e-01  5.72478560e-07  1.65938722e+00  5.72478560e-07  1.66510776e+00                                 
 6.25879438e-07  8.04794252e-01  6.25879438e-07  7.50899090e-01  6.25879438e-07  7.57304437e-01  6.25879438e-07  1.80000000e+00  6.25879438e-07  9.66000043e-05  6.25879438e-07  7.54085491e-01  6.25879438e-07  1.65941291e+00  6.25879438e-07  1.66510673e+00                                 
 6.87916939e-07  8.04792187e-01  6.87916939e-07  7.50896715e-01  6.87916939e-07  7.57235296e-01  6.87916939e-07  1.80000000e+00  6.87916939e-07 -9.65096190e-05  6.87916939e-07  7.54057426e-01  6.87916939e-07  1.65938336e+00  6.87916939e-07  1.66510279e+00                                 
 7.67853277e-07  8.04794215e-01  7.67853277e-07  7.50899090e-01  7.67853277e-07  7.57345757e-01  7.67853277e-07  1.80000000e+00  7.67853277e-07  9.65791028e-05  7.67853277e-07  7.54085373e-01  7.67853277e-07  1.65940712e+00  7.67853277e-07  1.66510119e+00                                 
 8.80684389e-07  8.04792234e-01  8.80684389e-07  7.50896716e-01  8.80684389e-07  7.57239673e-01  8.80684389e-07  1.80000000e+00  8.80684389e-07 -9.64937460e-05  8.80684389e-07  7.54057421e-01  8.80684389e-07  1.65937561e+00  8.80684389e-07  1.66509505e+00                                 
 1.10634661e-06  8.04794185e-01  1.10634661e-06  7.50899090e-01  1.10634661e-06  7.57353290e-01  1.10634661e-06  1.80000000e+00  1.10634661e-06  9.65893025e-05  1.10634661e-06  7.54085382e-01  1.10634661e-06  1.65939350e+00  1.10634661e-06  1.66508759e+00                                 
 1.55767107e-06  8.04792249e-01  1.55767107e-06  7.50896716e-01  1.55767107e-06  7.57242578e-01  1.55767107e-06  1.80000000e+00  1.55767107e-06 -9.65844668e-05  1.55767107e-06  7.54057423e-01  1.55767107e-06  1.65934837e+00  1.55767107e-06  1.66506785e+00                                 
 2.46031997e-06  8.04794178e-01  2.46031997e-06  7.50899090e-01  2.46031997e-06  7.57355217e-01  2.46031997e-06  1.80000000e+00  2.46031997e-06  9.65806339e-05  2.46031997e-06  7.54085382e-01  2.46031997e-06  1.65933905e+00  2.46031997e-06  1.66503324e+00                                 
 3.66031997e-06  8.04792253e-01  3.66031997e-06  7.50896716e-01  3.66031997e-06  7.57243901e-01  3.66031997e-06  1.80000000e+00  3.66031997e-06 -9.64589460e-05  3.66031997e-06  7.54057419e-01  3.66031997e-06  1.65926385e+00  3.66031997e-06  1.66498351e+00                                 
 4.86031997e-06  8.04794174e-01  4.86031997e-06  7.50899089e-01  4.86031997e-06  7.57356424e-01  4.86031997e-06  1.80000000e+00  4.86031997e-06  9.65167142e-05  4.86031997e-06  7.54085376e-01  4.86031997e-06  1.65924257e+00  4.86031997e-06  1.66493697e+00                                 
 6.00100000e-06  8.04792257e-01  6.00100000e-06  7.50896716e-01  6.00100000e-06  7.57244295e-01  6.00100000e-06  1.80000000e+00  6.00100000e-06 -9.63995782e-05  6.00100000e-06  7.54057417e-01  6.00100000e-06  1.65916975e+00  6.00100000e-06  1.66488960e+00                                 
 6.00110000e-06  8.04756593e-01  6.00110000e-06  7.50661546e-01  6.00110000e-06  7.55284072e-01  6.00110000e-06  1.62000000e+00  6.00110000e-06 -1.06666615e-04  6.00110000e-06  7.52316107e-01  6.00110000e-06  1.65769217e+00  6.00110000e-06  1.66487737e+00                                 
 6.00130000e-06  8.04787933e-01  6.00130000e-06  7.50699706e-01  6.00130000e-06  7.55852337e-01  6.00130000e-06  1.26000000e+00  6.00130000e-06  4.39745857e-05  6.00130000e-06  7.52485237e-01  6.00130000e-06  1.65783862e+00  6.00130000e-06  1.66489771e+00                                 
 6.00170000e-06  8.04827206e-01  6.00170000e-06  7.50721331e-01  6.00170000e-06  7.63956966e-01  6.00170000e-06  5.40000000e-01  6.00170000e-06  9.71966478e-01  6.00170000e-06  7.51190820e-01  6.00170000e-06  1.63276377e+00  6.00170000e-06  1.66476703e+00                                 
 6.00200000e-06  8.04783227e-01  6.00200000e-06  7.48440576e-01  6.00200000e-06  7.99272176e-01  6.00200000e-06  0.00000000e+00  6.00200000e-06  1.78033860e+00  6.00200000e-06  7.25522483e-01  6.00200000e-06  1.37961373e+00  6.00200000e-06  1.66410957e+00                                 
 6.00204316e-06  8.04793081e-01  6.00204316e-06  7.48319218e-01  6.00204316e-06  7.98094425e-01  6.00204316e-06  0.00000000e+00  6.00204316e-06  1.79181874e+00  6.00204316e-06  7.24230004e-01  6.00204316e-06  1.32584122e+00  6.00204316e-06  1.66446659e+00                                 
 6.00212947e-06  8.04793847e-01  6.00212947e-06  7.48291488e-01  6.00212947e-06  7.92711532e-01  6.00212947e-06  0.00000000e+00  6.00212947e-06  1.79995047e+00  6.00212947e-06  7.24361627e-01  6.00212947e-06  1.23098282e+00  6.00212947e-06  1.66493640e+00                                 
 6.00230210e-06  8.04791463e-01  6.00230210e-06  7.48675108e-01  6.00230210e-06  7.84109473e-01  6.00230210e-06  0.00000000e+00  6.00230210e-06  1.79836591e+00  6.00230210e-06  7.29340521e-01  6.00230210e-06  1.09388513e+00  6.00230210e-06  1.66499909e+00                                 
 6.00251431e-06  8.04792887e-01  6.00251431e-06  7.49091498e-01  6.00251431e-06  7.79252268e-01  6.00251431e-06  0.00000000e+00  6.00251431e-06  1.80024470e+00  6.00251431e-06  7.33651963e-01  6.00251431e-06  9.74269774e-01  6.00251431e-06  1.66513790e+00                                 
 6.00277456e-06  8.04791205e-01  6.00277456e-06  7.49671217e-01  6.00277456e-06  7.73213834e-01  6.00277456e-06  0.00000000e+00  6.00277456e-06  1.79908176e+00  6.00277456e-06  7.39042685e-01  6.00277456e-06  8.67358039e-01  6.00277456e-06  1.66517637e+00                                 
 6.00311027e-06  8.04793035e-01  6.00311027e-06  7.50503276e-01  6.00311027e-06  7.65048899e-01  6.00311027e-06  0.00000000e+00  6.00311027e-06  1.80016510e+00  6.00311027e-06  7.46692031e-01  6.00311027e-06  7.91295941e-01  6.00311027e-06  1.66520548e+00                                 
 6.00347038e-06  8.04791692e-01  6.00347038e-06  7.51122300e-01  6.00347038e-06  7.59335240e-01  6.00347038e-06  0.00000000e+00  6.00347038e-06  1.79976531e+00  6.00347038e-06  7.52016276e-01  6.00347038e-06  7.65331645e-01  6.00347038e-06  1.66501059e+00                                 
 6.00381690e-06  8.04793403e-01  6.00381690e-06  7.51357472e-01  6.00381690e-06  7.58446591e-01  6.00381690e-06  0.00000000e+00  6.00381690e-06  1.80022223e+00  6.00381690e-06  7.53728122e-01  6.00381690e-06  7.59697376e-01  6.00381690e-06  1.66466694e+00                                 
 6.00424092e-06  8.04792175e-01  6.00424092e-06  7.51440181e-01  6.00424092e-06  7.57905044e-01  6.00424092e-06  0.00000000e+00  6.00424092e-06  1.79983014e+00  6.00424092e-06  7.54525790e-01  6.00424092e-06  7.58331456e-01  6.00424092e-06  1.66401762e+00                                 
 6.00479842e-06  8.04793705e-01  6.00479842e-06  7.51408322e-01  6.00479842e-06  7.58788832e-01  6.00479842e-06  0.00000000e+00  6.00479842e-06  1.80016787e+00  6.00479842e-06  7.54748093e-01  6.00479842e-06  7.58434051e-01  6.00479842e-06  1.66302710e+00                                 
 6.00591340e-06  8.04792505e-01  6.00591340e-06  7.51295134e-01  6.00591340e-06  7.59923367e-01  6.00591340e-06  0.00000000e+00  6.00591340e-06  1.79985470e+00  6.00591340e-06  7.54992810e-01  6.00591340e-06  7.59897821e-01  6.00591340e-06  1.66075322e+00                                 
 6.00785314e-06  8.04793857e-01  6.00785314e-06  7.51139908e-01  6.00785314e-06  7.63173973e-01  6.00785314e-06  0.00000000e+00  6.00785314e-06  1.80015487e+00  6.00785314e-06  7.55043266e-01  6.00785314e-06  7.62709273e-01  6.00785314e-06  1.65657451e+00                                 
 6.01173263e-06  8.04792559e-01  6.01173263e-06  7.50987625e-01  6.01173263e-06  7.69097257e-01  6.01173263e-06  0.00000000e+00  6.01173263e-06  1.79986104e+00  6.01173263e-06  7.55052558e-01  6.01173263e-06  7.68996649e-01  6.01173263e-06  1.64809169e+00                                 
 6.01949160e-06  8.04793866e-01  6.01949160e-06  7.50881335e-01  6.01949160e-06  7.82078501e-01  6.01949160e-06  0.00000000e+00  6.01949160e-06  1.80015143e+00  6.01949160e-06  7.54772982e-01  6.01949160e-06  7.81538306e-01  6.01949160e-06  1.63139535e+00                                 
 6.03500953e-06  8.04792565e-01  6.03500953e-06  7.50891511e-01  6.03500953e-06  8.05982161e-01  6.03500953e-06  0.00000000e+00  6.03500953e-06  1.79986210e+00  6.03500953e-06  7.54495973e-01  6.03500953e-06  8.05877506e-01  6.03500953e-06  1.59823838e+00                                 
 6.06604540e-06  8.04793864e-01  6.06604540e-06  7.50894997e-01  6.06604540e-06  8.50346759e-01  6.06604540e-06  0.00000000e+00  6.06604540e-06  1.80014936e+00  6.06604540e-06  7.54144003e-01  6.06604540e-06  8.49498237e-01  6.06604540e-06  1.53323085e+00                                 
