 time            v(vbep)         time            v(vben)         time            v(vout)         time            v(vphi1)        time            v(vphi2)        time            v(vref)         time            v(voutc)        time            v(voutcc)       yes             currtemp       
 0.00000000e+00  7.74012739e-01  0.00000000e+00  7.13477955e-01  0.00000000e+00  1.59665561e+00  0.00000000e+00  0.00000000e+00  0.00000000e+00  1.80000000e+00  0.00000000e+00  7.15884434e-01  0.00000000e+00  1.59665560e+00  0.00000000e+00  1.60317146e+00  1.00000000e+00  3.30000000e+01 
 5.00000000e-12  7.74034561e-01  5.00000000e-12  7.13532094e-01  5.00000000e-12  1.59728535e+00  5.00000000e-12  1.80000000e-02  5.00000000e-12  1.80018447e+00  5.00000000e-12  7.16277410e-01  5.00000000e-12  1.59700434e+00  5.00000000e-12  1.60318444e+00                                 
 1.00000000e-11  7.74044154e-01  1.00000000e-11  7.13567951e-01  1.00000000e-11  1.59774499e+00  1.00000000e-11  3.60000000e-02  1.00000000e-11  1.80026845e+00  1.00000000e-11  7.16586907e-01  1.00000000e-11  1.59728062e+00  1.00000000e-11  1.60319137e+00                                 
 2.00000000e-11  7.74050492e-01  2.00000000e-11  7.13617979e-01  2.00000000e-11  1.59841509e+00  2.00000000e-11  7.20000000e-02  2.00000000e-11  1.80032253e+00  2.00000000e-11  7.17071511e-01  2.00000000e-11  1.59771721e+00  2.00000000e-11  1.60319795e+00                                 
 4.00000000e-11  7.74038161e-01  4.00000000e-11  7.13654748e-01  4.00000000e-11  1.59888303e+00  4.00000000e-11  1.44000000e-01  4.00000000e-11  1.80019393e+00  4.00000000e-11  7.17538012e-01  4.00000000e-11  1.59815540e+00  4.00000000e-11  1.60319200e+00                                 
 8.00000000e-11  7.74024325e-01  8.00000000e-11  7.13659951e-01  8.00000000e-11  1.59877151e+00  8.00000000e-11  2.88000000e-01  8.00000000e-11  1.80002959e+00  8.00000000e-11  7.17666256e-01  8.00000000e-11  1.59832040e+00  8.00000000e-11  1.60317672e+00                                 
 1.60000000e-10  7.74025173e-01  1.60000000e-10  7.13648387e-01  1.60000000e-10  1.59829415e+00  1.60000000e-10  5.76000000e-01  1.60000000e-10  1.80001124e+00  1.60000000e-10  7.17464069e-01  1.60000000e-10  1.59819549e+00  1.60000000e-10  1.60317131e+00                                 
 3.20000000e-10  7.73959465e-01  3.20000000e-10  7.13205110e-01  3.20000000e-10  1.59431924e+00  3.20000000e-10  1.15200000e+00  3.20000000e-10  1.80071954e+00  3.20000000e-10  7.13619029e-01  3.20000000e-10  1.59504342e+00  3.20000000e-10  1.60314052e+00                                 
 5.00000000e-10  7.74064748e-01  5.00000000e-10  7.13650362e-01  5.00000000e-10  1.58958708e+00  5.00000000e-10  1.80000000e+00  5.00000000e-10  1.53378821e-01  5.00000000e-10  7.19158428e-01  5.00000000e-10  1.59963949e+00  5.00000000e-10  1.60322381e+00                                 
 5.20878645e-10  7.74061864e-01  5.20878645e-10  7.13691694e-01  5.20878645e-10  1.58897871e+00  5.20878645e-10  1.80000000e+00  5.20878645e-10  3.99382269e-02  5.20878645e-10  7.20674595e-01  5.20878645e-10  1.60050413e+00  5.20878645e-10  1.60321676e+00                                 
 5.62635936e-10  7.74123887e-01  5.62635936e-10  7.13769009e-01  5.62635936e-10  1.58849715e+00  5.62635936e-10  1.80000000e+00  5.62635936e-10 -1.45829711e-02  5.62635936e-10  7.22713528e-01  5.62635936e-10  1.60227895e+00  5.62635936e-10  1.60321467e+00                                 
 6.46150517e-10  7.74214677e-01  6.46150517e-10  7.13608970e-01  6.46150517e-10  1.58582306e+00  6.46150517e-10  1.80000000e+00  6.46150517e-10  1.16126538e-02  6.46150517e-10  7.21904480e-01  6.46150517e-10  1.60178350e+00  6.46150517e-10  1.60316038e+00                                 
 7.64852720e-10  7.74240865e-01  7.64852720e-10  7.13579875e-01  7.64852720e-10  1.58463641e+00  7.64852720e-10  1.80000000e+00  7.64852720e-10 -9.15309764e-03  7.64852720e-10  7.22950209e-01  7.64852720e-10  1.60253434e+00  7.64852720e-10  1.60319093e+00                                 
 9.41687492e-10  7.74295211e-01  9.41687492e-10  7.13547184e-01  9.41687492e-10  1.58381608e+00  9.41687492e-10  1.80000000e+00  9.41687492e-10  8.48494956e-03  9.41687492e-10  7.23685687e-01  9.41687492e-10  1.60332312e+00  9.41687492e-10  1.60316244e+00                                 
 1.29535703e-09  7.74291740e-01  1.29535703e-09  7.13472502e-01  1.29535703e-09  1.58151346e+00  1.29535703e-09  1.80000000e+00  1.29535703e-09 -7.70553046e-03  1.29535703e-09  7.23498796e-01  1.29535703e-09  1.60303431e+00  1.29535703e-09  1.60318168e+00                                 
 1.75133927e-09  7.74241023e-01  1.75133927e-09  7.13484007e-01  1.75133927e-09  1.58010560e+00  1.75133927e-09  1.80000000e+00  1.75133927e-09  7.46057894e-03  1.75133927e-09  7.23344278e-01  1.75133927e-09  1.60302348e+00  1.75133927e-09  1.60320856e+00                                 
 2.33655299e-09  7.74116360e-01  2.33655299e-09  7.13447718e-01  2.33655299e-09  1.57846512e+00  2.33655299e-09  1.80000000e+00  2.33655299e-09 -7.15282206e-03  2.33655299e-09  7.22171921e-01  2.33655299e-09  1.60187999e+00  2.33655299e-09  1.60328328e+00                                 
 2.95476063e-09  7.74051892e-01  2.95476063e-09  7.13477373e-01  2.95476063e-09  1.57743453e+00  2.95476063e-09  1.80000000e+00  2.95476063e-09  6.91331217e-03  2.95476063e-09  7.21741898e-01  2.95476063e-09  1.60161652e+00  2.95476063e-09  1.60336277e+00                                 
 3.83936059e-09  7.73988788e-01  3.83936059e-09  7.13446785e-01  3.83936059e-09  1.57491724e+00  3.83936059e-09  1.80000000e+00  3.83936059e-09 -6.74083775e-03  3.83936059e-09  7.20234698e-01  3.83936059e-09  1.60018720e+00  3.83936059e-09  1.60348043e+00                                 
 5.32424009e-09  7.73978792e-01  5.32424009e-09  7.13480988e-01  5.32424009e-09  1.57122024e+00  5.32424009e-09  1.80000000e+00  5.32424009e-09  6.64636512e-03  5.32424009e-09  7.19027545e-01  5.32424009e-09  1.59924038e+00  5.32424009e-09  1.60364370e+00                                 
 8.29399910e-09  7.73965349e-01  8.29399910e-09  7.13457381e-01  8.29399910e-09  1.56206951e+00  8.29399910e-09  1.80000000e+00  8.29399910e-09 -6.59194310e-03  8.29399910e-09  7.16406374e-01  8.29399910e-09  1.59684670e+00  8.29399910e-09  1.60381630e+00                                 
 1.20504833e-08  7.73980819e-01  1.20504833e-08  7.13492949e-01  1.20504833e-08  1.55029724e+00  1.20504833e-08  1.80000000e+00  1.20504833e-08  6.56663269e-03  1.20504833e-08  7.15454372e-01  1.20504833e-08  1.59612538e+00  1.20504833e-08  1.60380699e+00                                 
 1.49661046e-08  7.73975732e-01  1.49661046e-08  7.13462411e-01  1.49661046e-08  1.53978319e+00  1.49661046e-08  1.80000000e+00  1.49661046e-08 -6.49914772e-03  1.49661046e-08  7.14661207e-01  1.49661046e-08  1.59532481e+00  1.49661046e-08  1.60370291e+00                                 
 1.83444151e-08  7.73997932e-01  1.83444151e-08  7.13493557e-01  1.83444151e-08  1.52740142e+00  1.83444151e-08  1.80000000e+00  1.83444151e-08  6.48068710e-03  1.83444151e-08  7.14946140e-01  1.83444151e-08  1.59567377e+00  1.83444151e-08  1.60355769e+00                                 
 2.19019013e-08  7.73996542e-01  2.19019013e-08  7.13462575e-01  2.19019013e-08  1.51271502e+00  2.19019013e-08  1.80000000e+00  2.19019013e-08 -6.41692337e-03  2.19019013e-08  7.14590940e-01  2.19019013e-08  1.59525195e+00  2.19019013e-08  1.60340327e+00                                 
 2.71714355e-08  7.74017181e-01  2.71714355e-08  7.13493717e-01  2.71714355e-08  1.49064766e+00  2.71714355e-08  1.80000000e+00  2.71714355e-08  6.41693652e-03  2.71714355e-08  7.15182566e-01  2.71714355e-08  1.59586423e+00  2.71714355e-08  1.60321307e+00                                 
 3.31948430e-08  7.74010458e-01  3.31948430e-08  7.13462600e-01  3.31948430e-08  1.46373715e+00  3.31948430e-08  1.80000000e+00  3.31948430e-08 -6.36746172e-03  3.31948430e-08  7.15003821e-01  3.31948430e-08  1.59559672e+00  3.31948430e-08  1.60304912e+00                                 
 4.25384516e-08  7.74022300e-01  4.25384516e-08  7.13493635e-01  4.25384516e-08  1.42208743e+00  4.25384516e-08  1.80000000e+00  4.25384516e-08  6.37986853e-03  4.25384516e-08  7.15679593e-01  4.25384516e-08  1.59628464e+00  4.25384516e-08  1.60290127e+00                                 
 5.49063014e-08  7.74009817e-01  5.49063014e-08  7.13462441e-01  5.49063014e-08  1.36580108e+00  5.49063014e-08  1.80000000e+00  5.49063014e-08 -6.34184044e-03  5.49063014e-08  7.15481460e-01  5.49063014e-08  1.59600553e+00  5.49063014e-08  1.60281901e+00                                 
 7.75122196e-08  7.74019011e-01  7.75122196e-08  7.13493520e-01  7.75122196e-08  1.26399500e+00  7.75122196e-08  1.80000000e+00  7.75122196e-08  6.36281346e-03  7.75122196e-08  7.16041714e-01  7.75122196e-08  1.59659910e+00  7.75122196e-08  1.60281549e+00                                 
 1.12635225e-07  7.74007345e-01  1.12635225e-07  7.13462376e-01  1.12635225e-07  1.10621024e+00  1.12635225e-07  1.80000000e+00  1.12635225e-07 -6.33188735e-03  1.12635225e-07  7.15680602e-01  1.12635225e-07  1.59618187e+00  1.12635225e-07  1.60287381e+00                                 
 1.57808926e-07  7.74018057e-01  1.57808926e-07  7.13493503e-01  1.57808926e-07  9.08522111e-01  1.57808926e-07  1.80000000e+00  1.57808926e-07  6.35631700e-03  1.57808926e-07  7.16086309e-01  1.57808926e-07  1.59663873e+00  1.57808926e-07  1.60291721e+00                                 
 2.26190665e-07  7.74007724e-01  2.26190665e-07  7.13462392e-01  2.26190665e-07  7.28945901e-01  2.26190665e-07  1.80000000e+00  2.26190665e-07 -6.32486564e-03  2.26190665e-07  7.15680641e-01  2.26190665e-07  1.59617824e+00  2.26190665e-07  1.60292359e+00                                 
 2.85858656e-07  7.74017963e-01  2.85858656e-07  7.13493556e-01  2.85858656e-07  7.14067582e-01  2.85858656e-07  1.80000000e+00  2.85858656e-07  6.35423935e-03  2.85858656e-07  7.16091830e-01  2.85858656e-07  1.59663847e+00  2.85858656e-07  1.60292607e+00                                 
 3.27500718e-07  7.74006419e-01  3.27500718e-07  7.13462220e-01  3.27500718e-07  7.19630010e-01  3.27500718e-07  1.80000000e+00  3.27500718e-07 -6.31945041e-03  3.27500718e-07  7.15677939e-01  3.27500718e-07  1.59617208e+00  3.27500718e-07  1.60292133e+00                                 
 3.61600363e-07  7.74019548e-01  3.61600363e-07  7.13493752e-01  3.61600363e-07  7.18036943e-01  3.61600363e-07  1.80000000e+00  3.61600363e-07  6.34718960e-03  3.61600363e-07  7.16089396e-01  3.61600363e-07  1.59663332e+00  3.61600363e-07  1.60292165e+00                                 
 3.97609105e-07  7.74005973e-01  3.97609105e-07  7.13462108e-01  3.97609105e-07  7.18357643e-01  3.97609105e-07  1.80000000e+00  3.97609105e-07 -6.31195841e-03  3.97609105e-07  7.15679824e-01  3.97609105e-07  1.59617108e+00  3.97609105e-07  1.60291786e+00                                 
 4.38340749e-07  7.74019361e-01  4.38340749e-07  7.13493794e-01  4.38340749e-07  7.18402275e-01  4.38340749e-07  1.80000000e+00  4.38340749e-07  6.34027458e-03  4.38340749e-07  7.16088743e-01  4.38340749e-07  1.59662977e+00  4.38340749e-07  1.60291889e+00                                 
 4.99178499e-07  7.74006227e-01  4.99178499e-07  7.13462094e-01  4.99178499e-07  7.18242118e-01  4.99178499e-07  1.80000000e+00  4.99178499e-07 -6.30653339e-03  4.99178499e-07  7.15680055e-01  4.99178499e-07  1.59616743e+00  4.99178499e-07  1.60291386e+00                                 
 6.04645160e-07  7.74019189e-01  6.04645160e-07  7.13493797e-01  6.04645160e-07  7.18440227e-01  6.04645160e-07  1.80000000e+00  6.04645160e-07  6.33683225e-03  6.04645160e-07  7.16088655e-01  6.04645160e-07  1.59662329e+00  6.04645160e-07  1.60291256e+00                                 
 8.07416971e-07  7.74006322e-01  8.07416971e-07  7.13462095e-01  8.07416971e-07  7.18227230e-01  8.07416971e-07  1.80000000e+00  8.07416971e-07 -6.30453688e-03  8.07416971e-07  7.15680094e-01  8.07416971e-07  1.59615567e+00  8.07416971e-07  1.60290206e+00                                 
 1.21296059e-06  7.74019141e-01  1.21296059e-06  7.13493797e-01  1.21296059e-06  7.18446493e-01  1.21296059e-06  1.80000000e+00  1.21296059e-06  6.33584023e-03  1.21296059e-06  7.16088638e-01  1.21296059e-06  1.59659997e+00  1.21296059e-06  1.60288930e+00                                 
 2.02404784e-06  7.74006345e-01  2.02404784e-06  7.13462095e-01  2.02404784e-06  7.18224341e-01  2.02404784e-06  1.80000000e+00  2.02404784e-06 -6.30402687e-03  2.02404784e-06  7.15680102e-01  2.02404784e-06  1.59610909e+00  2.02404784e-06  1.60285554e+00                                 
 3.02404784e-06  7.74019127e-01  3.02404784e-06  7.13493797e-01  3.02404784e-06  7.18448136e-01  3.02404784e-06  1.80000000e+00  3.02404784e-06  6.33557928e-03  3.02404784e-06  7.16088633e-01  3.02404784e-06  1.59653059e+00  3.02404784e-06  1.60282005e+00                                 
 4.02404784e-06  7.74006358e-01  4.02404784e-06  7.13462095e-01  4.02404784e-06  7.18222908e-01  4.02404784e-06  1.80000000e+00  4.02404784e-06 -6.30397799e-03  4.02404784e-06  7.15680106e-01  4.02404784e-06  1.59603245e+00  4.02404784e-06  1.60277902e+00                                 
 5.02404784e-06  7.74019115e-01  5.02404784e-06  7.13493796e-01  5.02404784e-06  7.18449520e-01  5.02404784e-06  1.80000000e+00  5.02404784e-06  6.33531989e-03  5.02404784e-06  7.16088628e-01  5.02404784e-06  1.59645395e+00  5.02404784e-06  1.60274353e+00                                 
 6.02404784e-06  7.74006370e-01  6.02404784e-06  7.13462095e-01  6.02404784e-06  7.18221550e-01  6.02404784e-06  1.80000000e+00  6.02404784e-06 -6.30371671e-03  6.02404784e-06  7.15680111e-01  6.02404784e-06  1.59595584e+00  6.02404784e-06  1.60270253e+00                                 
 7.02404784e-06  7.74019102e-01  7.02404784e-06  7.13493796e-01  7.02404784e-06  7.18450827e-01  7.02404784e-06  1.80000000e+00  7.02404784e-06  6.33505596e-03  7.02404784e-06  7.16088624e-01  7.02404784e-06  1.59637733e+00  7.02404784e-06  1.60266705e+00                                 
 8.02404784e-06  7.74006383e-01  8.02404784e-06  7.13462095e-01  8.02404784e-06  7.18220265e-01  8.02404784e-06  1.80000000e+00  8.02404784e-06 -6.30345544e-03  8.02404784e-06  7.15680115e-01  8.02404784e-06  1.59587924e+00  8.02404784e-06  1.60262605e+00                                 
 9.02404784e-06  7.74019090e-01  9.02404784e-06  7.13493796e-01  9.02404784e-06  7.18452063e-01  9.02404784e-06  1.80000000e+00  9.02404784e-06  6.33479205e-03  9.02404784e-06  7.16088620e-01  9.02404784e-06  1.59630075e+00  9.02404784e-06  1.60259060e+00                                 
 1.00005000e-05  7.74006395e-01  1.00005000e-05  7.13462095e-01  1.00005000e-05  7.18219036e-01  1.00005000e-05  1.80000000e+00  1.00005000e-05 -6.30319333e-03  1.00005000e-05  7.15680118e-01  1.00005000e-05  1.59580359e+00  1.00005000e-05  1.60255051e+00                                 
 1.00005500e-05  7.73976358e-01  1.00005500e-05  7.13285947e-01  1.00005500e-05  7.16585014e-01  1.00005500e-05  1.62000000e+00  1.00005500e-05 -6.70882941e-04  1.00005500e-05  7.14326239e-01  1.00005500e-05  1.59466585e+00  1.00005500e-05  1.60253585e+00                                 
 1.00006500e-05  7.74004385e-01  1.00006500e-05  7.13272180e-01  1.00006500e-05  7.16709701e-01  1.00006500e-05  1.26000000e+00  1.00006500e-05  4.99533086e-04  1.00006500e-05  7.14093648e-01  1.00006500e-05  1.59447233e+00  1.00006500e-05  1.60255351e+00                                 
 1.00008500e-05  7.74042685e-01  1.00008500e-05  7.13491037e-01  1.00008500e-05  7.19090191e-01  1.00008500e-05  5.40000000e-01  1.00008500e-05 -3.58582337e-03  1.00008500e-05  7.15474267e-01  1.00008500e-05  1.59462189e+00  1.00008500e-05  1.60255097e+00                                 
 1.00010000e-05  7.74001574e-01  1.00010000e-05  7.12430792e-01  1.00010000e-05  7.39794549e-01  1.00010000e-05  0.00000000e+00  1.00010000e-05  1.50200777e+00  1.00010000e-05  7.03019231e-01  1.00010000e-05  1.53514302e+00  1.00010000e-05  1.60201210e+00                                 
 1.00010259e-05  7.74018581e-01  1.00010259e-05  7.12123729e-01  1.00010259e-05  7.46066970e-01  1.00010259e-05  0.00000000e+00  1.00010259e-05  1.68776156e+00  1.00010259e-05  6.99222758e-01  1.00010259e-05  1.50901792e+00  1.00010259e-05  1.60186229e+00                                 
 1.00010778e-05  7.74015362e-01  1.00010778e-05  7.11534740e-01  1.00010778e-05  7.51840263e-01  1.00010778e-05  0.00000000e+00  1.00010778e-05  1.82241145e+00  1.00010778e-05  6.92303443e-01  1.00010778e-05  1.45081451e+00  1.00010778e-05  1.60174093e+00                                 
 1.00011816e-05  7.74008642e-01  1.00011816e-05  7.11437259e-01  1.00011816e-05  7.45030748e-01  1.00011816e-05  0.00000000e+00  1.00011816e-05  1.78612072e+00  1.00011816e-05  6.92007558e-01  1.00011816e-05  1.34907617e+00  1.00011816e-05  1.60225990e+00                                 
 1.00013123e-05  7.74016326e-01  1.00013123e-05  7.11781200e-01  1.00013123e-05  7.41374384e-01  1.00013123e-05  0.00000000e+00  1.00013123e-05  1.80746927e+00  1.00013123e-05  6.96932499e-01  1.00013123e-05  1.25158013e+00  1.00013123e-05  1.60261507e+00                                 
 1.00015283e-05  7.74008154e-01  1.00015283e-05  7.11972597e-01  1.00015283e-05  7.36978612e-01  1.00015283e-05  0.00000000e+00  1.00015283e-05  1.79366465e+00  1.00015283e-05  6.98562180e-01  1.00015283e-05  1.11896224e+00  1.00015283e-05  1.60279864e+00                                 
 1.00018693e-05  7.74015686e-01  1.00018693e-05  7.12550396e-01  1.00018693e-05  7.32102930e-01  1.00018693e-05  0.00000000e+00  1.00018693e-05  1.80476397e+00  1.00018693e-05  7.03659641e-01  1.00018693e-05  9.71445361e-01  1.00018693e-05  1.60281277e+00                                 
 1.00023284e-05  7.74008740e-01  1.00023284e-05  7.13001784e-01  1.00023284e-05  7.28436413e-01  1.00023284e-05  0.00000000e+00  1.00023284e-05  1.79549387e+00  1.00023284e-05  7.06610512e-01  1.00023284e-05  8.32305967e-01  1.00023284e-05  1.60240832e+00                                 
 1.00028235e-05  7.74015759e-01  1.00028235e-05  7.13660827e-01  1.00028235e-05  7.22523566e-01  1.00028235e-05  0.00000000e+00  1.00028235e-05  1.80367855e+00  1.00028235e-05  7.13010718e-01  1.00028235e-05  7.56533744e-01  1.00028235e-05  1.60164345e+00                                 
 1.00033158e-05  7.74009331e-01  1.00033158e-05  7.13860031e-01  1.00033158e-05  7.21338276e-01  1.00033158e-05  0.00000000e+00  1.00033158e-05  1.79669156e+00  1.00033158e-05  7.14730816e-01  1.00033158e-05  7.28242078e-01  1.00033158e-05  1.60047395e+00                                 
 1.00038539e-05  7.74015624e-01  1.00038539e-05  7.14022583e-01  1.00038539e-05  7.20402784e-01  1.00038539e-05  0.00000000e+00  1.00038539e-05  1.80289635e+00  1.00038539e-05  7.17029812e-01  1.00038539e-05  7.22582846e-01  1.00038539e-05  1.59885395e+00                                 
 1.00044761e-05  7.74009741e-01  1.00044761e-05  7.13904877e-01  1.00044761e-05  7.22409808e-01  1.00044761e-05  0.00000000e+00  1.00044761e-05  1.79739803e+00  1.00044761e-05  7.16515034e-01  1.00044761e-05  7.21152480e-01  1.00044761e-05  1.59666401e+00                                 
 1.00052941e-05  7.74015487e-01  1.00052941e-05  7.13886645e-01  1.00052941e-05  7.23430400e-01  1.00052941e-05  0.00000000e+00  1.00052941e-05  1.80238679e+00  1.00052941e-05  7.17534836e-01  1.00052941e-05  7.23537906e-01  1.00052941e-05  1.59360747e+00                                 
 1.00067721e-05  7.74009965e-01  1.00067721e-05  7.13686620e-01  1.00067721e-05  7.27874816e-01  1.00067721e-05  0.00000000e+00  1.00067721e-05  1.79772019e+00  1.00067721e-05  7.16784896e-01  1.00067721e-05  7.26269708e-01  1.00067721e-05  1.58779725e+00                                 
