 time            v(vbep)         time            v(vben)         time            v(vout)         time            v(vphi1)        time            v(vphi2)        time            v(vref)         time            v(voutc)        time            v(voutcc)       yes             currtemp       
 0.00000000e+00  7.35836664e-01  0.00000000e+00  6.72188893e-01  0.00000000e+00  1.53042166e+00  0.00000000e+00  0.00000000e+00  0.00000000e+00  1.80000000e+00  0.00000000e+00  6.73557122e-01  0.00000000e+00  1.53042165e+00  0.00000000e+00  1.53752724e+00  1.00000000e+00  5.20000000e+01 
 1.00000000e-11  7.35861780e-01  1.00000000e-11  6.72260778e-01  1.00000000e-11  1.53119421e+00  1.00000000e-11  1.80000000e-02  1.00000000e-11  1.80025301e+00  1.00000000e-11  6.74090994e-01  1.00000000e-11  1.53089341e+00  1.00000000e-11  1.53754048e+00                                 
 2.00000000e-11  7.35868648e-01  2.00000000e-11  6.72305540e-01  2.00000000e-11  1.53166280e+00  2.00000000e-11  3.60000000e-02  2.00000000e-11  1.80035265e+00  2.00000000e-11  6.74486474e-01  2.00000000e-11  1.53124884e+00  2.00000000e-11  1.53754518e+00                                 
 4.00000000e-11  7.35868664e-01  4.00000000e-11  6.72364307e-01  4.00000000e-11  1.53221955e+00  4.00000000e-11  7.20000000e-02  4.00000000e-11  1.80038997e+00  4.00000000e-11  6.75064592e-01  4.00000000e-11  1.53177705e+00  4.00000000e-11  1.53754628e+00                                 
 8.00000000e-11  7.35857010e-01  8.00000000e-11  6.72401733e-01  8.00000000e-11  1.53231560e+00  8.00000000e-11  1.44000000e-01  8.00000000e-11  1.80018513e+00  8.00000000e-11  6.75513735e-01  8.00000000e-11  1.53220323e+00  8.00000000e-11  1.53753564e+00                                 
 1.60000000e-10  7.35854252e-01  1.60000000e-10  6.72412144e-01  1.60000000e-10  1.53197892e+00  1.60000000e-10  2.88000000e-01  1.60000000e-10  1.80000510e+00  1.60000000e-10  6.75598663e-01  1.60000000e-10  1.53224977e+00  1.60000000e-10  1.53752628e+00                                 
 3.20000000e-10  7.35849969e-01  3.20000000e-10  6.72405977e-01  3.20000000e-10  1.53159781e+00  3.20000000e-10  5.76000000e-01  3.20000000e-10  1.79998488e+00  3.20000000e-10  6.75441965e-01  3.20000000e-10  1.53191862e+00  3.20000000e-10  1.53752152e+00                                 
 6.40000000e-10  7.35766510e-01  6.40000000e-10  6.72002263e-01  6.40000000e-10  1.52971259e+00  6.40000000e-10  1.15200000e+00  6.40000000e-10  1.81066131e+00  6.40000000e-10  6.72929449e-01  6.40000000e-10  1.53617967e+00  6.40000000e-10  1.53754845e+00                                 
 1.00000000e-09  7.36375605e-01  1.00000000e-09  6.72328641e-01  1.00000000e-09  1.50711573e+00  1.00000000e-09  1.80000000e+00  1.00000000e-09  9.85097959e-02  1.00000000e-09  6.86586498e-01  1.00000000e-09  1.53905631e+00  1.00000000e-09  1.53753096e+00                                 
 1.03684041e-09  7.36435932e-01  1.03684041e-09  6.72353038e-01  1.03684041e-09  1.50585856e+00  1.03684041e-09  1.80000000e+00  1.03684041e-09  2.26350907e-02  1.03684041e-09  6.89714241e-01  1.03684041e-09  1.54078932e+00  1.03684041e-09  1.53756218e+00                                 
 1.11052123e-09  7.36581976e-01  1.11052123e-09  6.72407104e-01  1.11052123e-09  1.50438386e+00  1.11052123e-09  1.80000000e+00  1.11052123e-09 -1.07210039e-02  1.11052123e-09  6.93733828e-01  1.11052123e-09  1.54391725e+00  1.11052123e-09  1.53758278e+00                                 
 1.25788287e-09  7.36705233e-01  1.25788287e-09  6.72269605e-01  1.25788287e-09  1.50167961e+00  1.25788287e-09  1.80000000e+00  1.25788287e-09  8.69753079e-03  1.25788287e-09  6.93906784e-01  1.25788287e-09  1.54433762e+00  1.25788287e-09  1.53753491e+00                                 
 1.45216997e-09  7.36678787e-01  1.45216997e-09  6.72248886e-01  1.45216997e-09  1.50095812e+00  1.45216997e-09  1.80000000e+00  1.45216997e-09 -6.67598370e-03  1.45216997e-09  6.93137926e-01  1.45216997e-09  1.54346999e+00  1.45216997e-09  1.53756901e+00                                 
 1.66769371e-09  7.36582480e-01  1.66769371e-09  6.72244995e-01  1.66769371e-09  1.50074907e+00  1.66769371e-09  1.80000000e+00  1.66769371e-09  5.62997614e-03  1.66769371e-09  6.91666965e-01  1.66769371e-09  1.54239859e+00  1.66769371e-09  1.53758897e+00                                 
 2.02691482e-09  7.36335082e-01  2.02691482e-09  6.72198673e-01  2.02691482e-09  1.50051915e+00  2.02691482e-09  1.80000000e+00  2.02691482e-09 -5.05073105e-03  2.02691482e-09  6.89192061e-01  2.02691482e-09  1.54012520e+00  2.02691482e-09  1.53769571e+00                                 
 2.49707726e-09  7.36089156e-01  2.49707726e-09  6.72201739e-01  2.49707726e-09  1.50047606e+00  2.49707726e-09  1.80000000e+00  2.49707726e-09  4.55358157e-03  2.49707726e-09  6.86475022e-01  2.49707726e-09  1.53794676e+00  2.49707726e-09  1.53782986e+00                                 
 3.18105461e-09  7.35848906e-01  3.18105461e-09  6.72156143e-01  3.18105461e-09  1.49957280e+00  3.18105461e-09  1.80000000e+00  3.18105461e-09 -4.37846985e-03  3.18105461e-09  6.82672913e-01  3.18105461e-09  1.53456210e+00  3.18105461e-09  1.53803444e+00                                 
 4.21058830e-09  7.35702398e-01  4.21058830e-09  6.72173178e-01  4.21058830e-09  1.49841040e+00  4.21058830e-09  1.80000000e+00  4.21058830e-09  4.14760410e-03  4.21058830e-09  6.78723164e-01  4.21058830e-09  1.53131986e+00  4.21058830e-09  1.53824480e+00                                 
 5.98297138e-09  7.35619948e-01  5.98297138e-09  6.72149230e-01  5.98297138e-09  1.49480736e+00  5.98297138e-09  1.80000000e+00  5.98297138e-09 -4.09275293e-03  5.98297138e-09  6.74202854e-01  5.98297138e-09  1.52734259e+00  5.98297138e-09  1.53836274e+00                                 
 7.51830318e-09  7.35652874e-01  7.51830318e-09  6.72185435e-01  7.51830318e-09  1.49063775e+00  7.51830318e-09  1.80000000e+00  7.51830318e-09  3.97054696e-03  7.51830318e-09  6.72660179e-01  7.51830318e-09  1.52615349e+00  7.51830318e-09  1.53824383e+00                                 
 8.93299052e-09  7.35680935e-01  8.93299052e-09  6.72163023e-01  8.93299052e-09  1.48507160e+00  8.93299052e-09  1.80000000e+00  8.93299052e-09 -3.87161535e-03  8.93299052e-09  6.71673674e-01  8.93299052e-09  1.52519133e+00  8.93299052e-09  1.53804281e+00                                 
 1.04662912e-08  7.35735110e-01  1.04662912e-08  6.72195812e-01  1.04662912e-08  1.47837755e+00  1.04662912e-08  1.80000000e+00  1.04662912e-08  3.76815972e-03  1.04662912e-08  6.71560300e-01  1.04662912e-08  1.52520646e+00  1.04662912e-08  1.53777116e+00                                 
 1.25426894e-08  7.35773617e-01  1.25426894e-08  6.72171202e-01  1.25426894e-08  1.46738198e+00  1.25426894e-08  1.80000000e+00  1.25426894e-08 -3.70028288e-03  1.25426894e-08  6.71258896e-01  1.25426894e-08  1.52482258e+00  1.25426894e-08  1.53739201e+00                                 
 1.50857877e-08  7.35822219e-01  1.50857877e-08  6.72201885e-01  1.50857877e-08  1.45304782e+00  1.50857877e-08  1.80000000e+00  1.50857877e-08  3.64319387e-03  1.50857877e-08  6.71659521e-01  1.50857877e-08  1.52525956e+00  1.50857877e-08  1.53694251e+00                                 
 1.85105124e-08  7.35836492e-01  1.85105124e-08  6.72174884e-01  1.85105124e-08  1.43192908e+00  1.85105124e-08  1.80000000e+00  1.85105124e-08 -3.60142046e-03  1.85105124e-08  6.71753653e-01  1.85105124e-08  1.52520536e+00  1.85105124e-08  1.53641340e+00                                 
 2.30930670e-08  7.35854693e-01  2.30930670e-08  6.72203761e-01  2.30930670e-08  1.40324129e+00  2.30930670e-08  1.80000000e+00  2.30930670e-08  3.57161533e-03  2.30930670e-08  6.72396645e-01  2.30930670e-08  1.52583976e+00  2.30930670e-08  1.53583406e+00                                 
 3.04345319e-08  7.35842530e-01  3.04345319e-08  6.72175468e-01  3.04345319e-08  1.35601865e+00  3.04345319e-08  1.80000000e+00  3.04345319e-08 -3.55194538e-03  3.04345319e-08  6.72634021e-01  3.04345319e-08  1.52590642e+00  3.04345319e-08  1.53516467e+00                                 
 4.33545428e-08  7.35846246e-01  4.33545428e-08  6.72203437e-01  4.33545428e-08  1.27336618e+00  4.33545428e-08  1.80000000e+00  4.33545428e-08  3.54180820e-03  4.33545428e-08  6.73332677e-01  4.33545428e-08  1.52659006e+00  4.33545428e-08  1.53447475e+00                                 
 6.68361833e-08  7.35832484e-01  6.68361833e-08  6.72174771e-01  6.68361833e-08  1.12335228e+00  6.68361833e-08  1.80000000e+00  6.68361833e-08 -3.53525480e-03  6.68361833e-08  6.73385454e-01  6.68361833e-08  1.52651511e+00  6.68361833e-08  1.53398791e+00                                 
 1.00264022e-07  7.35841102e-01  1.00264022e-07  6.72203022e-01  1.00264022e-07  9.14293590e-01  1.00264022e-07  1.80000000e+00  1.00264022e-07  3.53275581e-03  1.00264022e-07  6.73675235e-01  1.00264022e-07  1.52686948e+00  1.00264022e-07  1.53384678e+00                                 
 1.43736237e-07  7.35833322e-01  1.43736237e-07  6.72174742e-01  1.43736237e-07  7.18580972e-01  1.43736237e-07  1.80000000e+00  1.43736237e-07 -3.52277278e-03  1.43736237e-07  6.73436082e-01  1.43736237e-07  1.52655431e+00  1.43736237e-07  1.53382633e+00                                 
 1.78255645e-07  7.35840896e-01  1.78255645e-07  6.72203236e-01  1.78255645e-07  6.72998227e-01  1.78255645e-07  1.80000000e+00  1.78255645e-07  3.53173073e-03  1.78255645e-07  6.73683239e-01  1.78255645e-07  1.52687283e+00  1.78255645e-07  1.53382368e+00                                 
 2.11425026e-07  7.35830135e-01  2.11425026e-07  6.72174352e-01  2.11425026e-07  6.75084845e-01  2.11425026e-07  1.80000000e+00  2.11425026e-07 -3.51321128e-03  2.11425026e-07  6.73434770e-01  2.11425026e-07  1.52655094e+00  2.11425026e-07  1.53382381e+00                                 
 2.36144654e-07  7.35843420e-01  2.36144654e-07  6.72203475e-01  2.36144654e-07  6.74973679e-01  2.36144654e-07  1.80000000e+00  2.36144654e-07  3.52233403e-03  2.36144654e-07  6.73678743e-01  2.36144654e-07  1.52686686e+00  2.36144654e-07  1.53382026e+00                                 
 2.62806722e-07  7.35830039e-01  2.62806722e-07  6.72174294e-01  2.62806722e-07  6.74924334e-01  2.62806722e-07  1.80000000e+00  2.62806722e-07 -3.50295347e-03  2.62806722e-07  6.73435679e-01  2.62806722e-07  1.52655007e+00  2.62806722e-07  1.53382034e+00                                 
 3.16130859e-07  7.35843198e-01  3.16130859e-07  6.72203481e-01  3.16130859e-07  6.75004856e-01  3.16130859e-07  1.80000000e+00  3.16130859e-07  3.51488694e-03  3.16130859e-07  6.73678434e-01  3.16130859e-07  1.52686377e+00  3.16130859e-07  1.53381700e+00                                 
 3.96201468e-07  7.35830198e-01  3.96201468e-07  6.72174298e-01  3.96201468e-07  6.74905208e-01  3.96201468e-07  1.80000000e+00  3.96201468e-07 -3.49884288e-03  3.96201468e-07  6.73435810e-01  3.96201468e-07  1.52654573e+00  3.96201468e-07  1.53381556e+00                                 
 5.48759493e-07  7.35843094e-01  5.48759493e-07  6.72203477e-01  5.48759493e-07  6.75014322e-01  5.48759493e-07  1.80000000e+00  5.48759493e-07  3.51236867e-03  5.48759493e-07  6.73678368e-01  5.48759493e-07  1.52685581e+00  5.48759493e-07  1.53380916e+00                                 
 8.41743312e-07  7.35830254e-01  8.41743312e-07  6.72174301e-01  8.41743312e-07  6.74900480e-01  8.41743312e-07  1.80000000e+00  8.41743312e-07 -3.49752456e-03  8.41743312e-07  6.73435840e-01  8.41743312e-07  1.52653073e+00  8.41743312e-07  1.53380051e+00                                 
 1.37841409e-06  7.35843064e-01  1.37841409e-06  6.72203475e-01  1.37841409e-06  6.75016597e-01  1.37841409e-06  1.80000000e+00  1.37841409e-06  3.51167125e-03  1.37841409e-06  6.73678353e-01  1.37841409e-06  1.52682775e+00  1.37841409e-06  1.53378117e+00                                 
 2.45175564e-06  7.35830270e-01  2.45175564e-06  6.72174301e-01  2.45175564e-06  6.74899251e-01  2.45175564e-06  1.80000000e+00  2.45175564e-06 -3.49715528e-03  2.45175564e-06  6.73435848e-01  2.45175564e-06  1.52647630e+00  2.45175564e-06  1.53374615e+00                                 
 3.65175564e-06  7.35843054e-01  3.65175564e-06  6.72203474e-01  3.65175564e-06  6.75017329e-01  3.65175564e-06  1.80000000e+00  3.65175564e-06  3.51143859e-03  3.65175564e-06  6.73678348e-01  3.65175564e-06  1.52675091e+00  3.65175564e-06  1.53370443e+00                                 
 4.85175564e-06  7.35830280e-01  4.85175564e-06  6.72174302e-01  4.85175564e-06  6.74898539e-01  4.85175564e-06  1.80000000e+00  4.85175564e-06 -3.49695435e-03  4.85175564e-06  6.73435852e-01  4.85175564e-06  1.52639522e+00  4.85175564e-06  1.53366516e+00                                 
 6.00100000e-06  7.35843043e-01  6.00100000e-06  6.72203474e-01  6.00100000e-06  6.75018019e-01  6.00100000e-06  1.80000000e+00  6.00100000e-06  3.51121348e-03  6.00100000e-06  6.73678344e-01  6.00100000e-06  1.52667149e+00  6.00100000e-06  1.53362512e+00                                 
 6.00110000e-06  7.35791429e-01  6.00110000e-06  6.71950895e-01  6.00110000e-06  6.73135746e-01  6.00110000e-06  1.62000000e+00  6.00110000e-06  2.03410897e-04  6.00110000e-06  6.71980463e-01  6.00110000e-06  1.52517149e+00  6.00110000e-06  1.53361424e+00                                 
 6.00130000e-06  7.35823156e-01  6.00130000e-06  6.71950197e-01  6.00130000e-06  6.73291318e-01  6.00130000e-06  1.26000000e+00  6.00130000e-06 -2.37654940e-04  6.00130000e-06  6.71787586e-01  6.00130000e-06  1.52500081e+00  6.00130000e-06  1.53363113e+00                                 
 6.00165847e-06  7.35884495e-01  6.00165847e-06  6.72144688e-01  6.00165847e-06  6.75256462e-01  6.00165847e-06  6.14758587e-01  6.00165847e-06  2.82574957e-03  6.00165847e-06  6.72134305e-01  6.00165847e-06  1.52203180e+00  6.00165847e-06  1.53360731e+00                                 
 6.00200000e-06  7.35824793e-01  6.00200000e-06  6.70646477e-01  6.00200000e-06  7.08012581e-01  6.00200000e-06  0.00000000e+00  6.00200000e-06  1.59974863e+00  6.00200000e-06  6.56252195e-01  6.00200000e-06  1.33047025e+00  6.00200000e-06  1.53302294e+00                                 
 6.00204098e-06  7.35839597e-01  6.00204098e-06  6.70230741e-01  6.00204098e-06  7.14205652e-01  6.00204098e-06  0.00000000e+00  6.00204098e-06  1.72201344e+00  6.00204098e-06  6.51554477e-01  6.00204098e-06  1.27022217e+00  6.00204098e-06  1.53303466e+00                                 
 6.00212294e-06  7.35839891e-01  6.00212294e-06  6.69463971e-01  6.00212294e-06  7.18580508e-01  6.00212294e-06  0.00000000e+00  6.00212294e-06  1.81340296e+00  6.00212294e-06  6.43147642e-01  6.00212294e-06  1.14532651e+00  6.00212294e-06  1.53340031e+00                                 
 6.00228686e-06  7.35835440e-01  6.00228686e-06  6.69340344e-01  6.00228686e-06  7.09423459e-01  6.00228686e-06  0.00000000e+00  6.00228686e-06  1.78950605e+00  6.00228686e-06  6.42680122e-01  6.00228686e-06  9.46723677e-01  6.00228686e-06  1.53388478e+00                                 
 6.00243882e-06  7.35837847e-01  6.00243882e-06  6.69862445e-01  6.00243882e-06  7.02986487e-01  6.00243882e-06  0.00000000e+00  6.00243882e-06  1.80372649e+00  6.00243882e-06  6.48715009e-01  6.00243882e-06  8.28497996e-01  6.00243882e-06  1.53384108e+00                                 
 6.00262844e-06  7.35834392e-01  6.00262844e-06  6.70696063e-01  6.00262844e-06  6.91395188e-01  6.00262844e-06  0.00000000e+00  6.00262844e-06  1.79667904e+00  6.00262844e-06  6.57031923e-01  6.00262844e-06  7.38196370e-01  6.00262844e-06  1.53405182e+00                                 
 6.00285367e-06  7.35837446e-01  6.00285367e-06  6.71738062e-01  6.00285367e-06  6.81288522e-01  6.00285367e-06  0.00000000e+00  6.00285367e-06  1.80188246e+00  6.00285367e-06  6.67014371e-01  6.00285367e-06  6.96601016e-01  6.00285367e-06  1.53389321e+00                                 
 6.00306146e-06  7.35834649e-01  6.00306146e-06  6.72190171e-01  6.00306146e-06  6.78044194e-01  6.00306146e-06  0.00000000e+00  6.00306146e-06  1.79888726e+00  6.00306146e-06  6.70384141e-01  6.00306146e-06  6.82772856e-01  6.00306146e-06  1.53353991e+00                                 
 6.00332443e-06  7.35837511e-01  6.00332443e-06  6.72558594e-01  6.00332443e-06  6.75918881e-01  6.00332443e-06  0.00000000e+00  6.00332443e-06  1.80082399e+00  6.00332443e-06  6.73364801e-01  6.00332443e-06  6.77954278e-01  6.00332443e-06  1.53264620e+00                                 
 6.00363885e-06  7.35835213e-01  6.00363885e-06  6.72646097e-01  6.00363885e-06  6.76226013e-01  6.00363885e-06  0.00000000e+00  6.00363885e-06  1.79944206e+00  6.00363885e-06  6.73843306e-01  6.00363885e-06  6.75976443e-01  6.00363885e-06  1.53139489e+00                                 
 6.00416778e-06  7.35837711e-01  6.00416778e-06  6.72704366e-01  6.00416778e-06  6.76731067e-01  6.00416778e-06  0.00000000e+00  6.00416778e-06  1.80048869e+00  6.00416778e-06  6.74782668e-01  6.00416778e-06  6.76921857e-01  6.00416778e-06  1.52886897e+00                                 
 6.00495215e-06  7.35835585e-01  6.00495215e-06  6.72614776e-01  6.00495215e-06  6.79113433e-01  6.00495215e-06  0.00000000e+00  6.00495215e-06  1.79959604e+00  6.00495215e-06  6.74573887e-01  6.00495215e-06  6.78418039e-01  6.00495215e-06  1.52483568e+00                                 
 6.00646358e-06  7.35837752e-01  6.00646358e-06  6.72533464e-01  6.00646358e-06  6.82852612e-01  6.00646358e-06  0.00000000e+00  6.00646358e-06  1.80040091e+00  6.00646358e-06  6.75043014e-01  6.00646358e-06  6.82906020e-01  6.00646358e-06  1.51644252e+00                                 
 6.00948644e-06  7.35835587e-01  6.00948644e-06  6.72316660e-01  6.00948644e-06  6.91757042e-01  6.00948644e-06  0.00000000e+00  6.00948644e-06  1.79963598e+00  6.00948644e-06  6.74562359e-01  6.00948644e-06  6.90991824e-01  6.00948644e-06  1.49889512e+00                                 
 6.01553218e-06  7.35837711e-01  6.01553218e-06  6.72187059e-01  6.01553218e-06  7.08100853e-01  6.01553218e-06  0.00000000e+00  6.01553218e-06  1.80038044e+00  6.01553218e-06  6.74579343e-01  6.01553218e-06  7.08142800e-01  6.01553218e-06  1.46297181e+00                                 
 6.02762364e-06  7.35835605e-01  6.02762364e-06  6.72157083e-01  6.02762364e-06  7.40509798e-01  6.02762364e-06  0.00000000e+00  6.02762364e-06  1.79964470e+00  6.02762364e-06  6.73763815e-01  6.02762364e-06  7.39621095e-01  6.02762364e-06  1.39496817e+00                                 
 6.04384441e-06  7.35837714e-01  6.04384441e-06  6.72200837e-01  6.04384441e-06  7.80203152e-01  6.04384441e-06  0.00000000e+00  6.04384441e-06  1.80037361e+00  6.04384441e-06  6.73848495e-01  6.04384441e-06  7.80318041e-01  6.04384441e-06  1.31270214e+00                                 
 6.07628593e-06  7.35835614e-01  6.07628593e-06  6.72173034e-01  6.07628593e-06  8.51655396e-01  6.07628593e-06  0.00000000e+00  6.07628593e-06  1.79964544e+00  6.07628593e-06  6.73368360e-01  6.07628593e-06  8.50123351e-01  6.07628593e-06  1.16997444e+00                                 
 6.13047465e-06  7.35837714e-01  6.13047465e-06  6.72204705e-01  6.13047465e-06  9.46409646e-01  6.13047465e-06  0.00000000e+00  6.13047465e-06  1.80036757e+00  6.13047465e-06  6.73725825e-01  6.13047465e-06  9.47151773e-01  6.13047465e-06  1.01054635e+00                                 
 6.23885210e-06  7.35835615e-01  6.23885210e-06  6.72173141e-01  6.23885210e-06  1.07169970e+00  6.23885210e-06  0.00000000e+00  6.23885210e-06  1.79964039e+00  6.23885210e-06  6.73372935e-01  6.23885210e-06  1.06919506e+00  6.23885210e-06  1.01667762e+00                                 
 6.30689916e-06  7.35837714e-01  6.30689916e-06  6.72204637e-01  6.30689916e-06  1.11691865e+00  6.30689916e-06  0.00000000e+00  6.30689916e-06  1.80036292e+00  6.30689916e-06  6.73734474e-01  6.30689916e-06  1.11822157e+00  6.30689916e-06  1.10774038e+00                                 
