 time            v(vbep)         time            v(vben)         time            v(vout)         time            v(vphi1)        time            v(vphi2)        time            v(vref)         yes             currtemp       
 0.00000000e+00  5.49759633e-01  0.00000000e+00  4.83992755e-01  0.00000000e+00  2.91247810e-01  0.00000000e+00  0.00000000e+00  0.00000000e+00  1.79997115e+00  0.00000000e+00  4.83992755e-01  1.00000000e+00  8.80000000e+01 
 5.00000000e-12  5.49742906e-01  5.00000000e-12  4.83978857e-01  5.00000000e-12  2.91780149e-01  5.00000000e-12  1.80000000e-02  5.00000000e-12  1.80008033e+00  5.00000000e-12  4.83978857e-01                                 
 1.00000000e-11  5.49726379e-01  1.00000000e-11  4.83965239e-01  1.00000000e-11  2.92215757e-01  1.00000000e-11  3.60000000e-02  1.00000000e-11  1.80014010e+00  1.00000000e-11  4.83965239e-01                                 
 2.00000000e-11  5.49693425e-01  2.00000000e-11  4.83938072e-01  2.00000000e-11  2.92939777e-01  2.00000000e-11  7.20000000e-02  2.00000000e-11  1.80019887e+00  2.00000000e-11  4.83938072e-01                                 
 4.00000000e-11  5.49627701e-01  4.00000000e-11  4.83883870e-01  4.00000000e-11  2.93795966e-01  4.00000000e-11  1.44000000e-01  4.00000000e-11  1.80016442e+00  4.00000000e-11  4.83883870e-01                                 
 8.00000000e-11  5.49496615e-01  8.00000000e-11  4.83775723e-01  8.00000000e-11  2.94514567e-01  8.00000000e-11  2.88000000e-01  8.00000000e-11  1.80008021e+00  8.00000000e-11  4.83775723e-01                                 
 1.60000000e-10  5.49235934e-01  1.60000000e-10  4.83560448e-01  1.60000000e-10  2.95110461e-01  1.60000000e-10  5.76000000e-01  1.60000000e-10  1.80003774e+00  1.60000000e-10  4.83560448e-01                                 
 3.20000000e-10  5.48720308e-01  3.20000000e-10  4.83133864e-01  3.20000000e-10  2.96989838e-01  3.20000000e-10  1.15200000e+00  3.20000000e-10  1.80034596e+00  3.20000000e-10  4.83133864e-01                                 
 5.00000000e-10  5.48149122e-01  5.00000000e-10  4.82660102e-01  5.00000000e-10  5.27531033e-01  5.00000000e-10  1.80000000e+00  5.00000000e-10  1.95275097e-01  5.00000000e-10  4.82660102e-01                                 
 5.22812592e-10  5.48077472e-01  5.22812592e-10  4.82600573e-01  5.22812592e-10  5.83693667e-01  5.22812592e-10  1.80000000e+00  5.22812592e-10  4.92158813e-02  5.22812592e-10  4.82600573e-01                                 
 5.68437775e-10  5.47934467e-01  5.68437775e-10  4.82481721e-01  5.68437775e-10  6.87726353e-01  5.68437775e-10  1.80000000e+00  5.68437775e-10 -1.76637960e-02  5.68437775e-10  4.82481721e-01                                 
 6.59688142e-10  5.47650232e-01  6.59688142e-10  4.82245257e-01  6.59688142e-10  8.54290543e-01  6.59688142e-10  1.80000000e+00  6.59688142e-10  1.54605008e-02  6.59688142e-10  4.82245257e-01                                 
 7.77574232e-10  5.47286450e-01  7.77574232e-10  4.81942163e-01  7.77574232e-10  1.02106563e+00  7.77574232e-10  1.80000000e+00  7.77574232e-10 -1.09816440e-02  7.77574232e-10  4.81942163e-01                                 
 9.66605369e-10  5.46710901e-01  9.66605369e-10  4.81461603e-01  9.66605369e-10  1.23517068e+00  9.66605369e-10  1.80000000e+00  9.66605369e-10  1.12468478e-02  9.66605369e-10  4.81461603e-01                                 
 1.31040131e-09  5.45687665e-01  1.31040131e-09  4.80604188e-01  1.31040131e-09  1.51197033e+00  1.31040131e-09  1.80000000e+00  1.31040131e-09 -9.32311027e-03  1.31040131e-09  4.80604188e-01                                 
 1.88324402e-09  5.44046038e-01  1.88324402e-09  4.79220592e-01  1.88324402e-09  1.73046336e+00  1.88324402e-09  1.80000000e+00  1.88324402e-09  9.59176197e-03  1.88324402e-09  4.79220592e-01                                 
 2.17179490e-09  5.43247643e-01  2.17179490e-09  4.78544091e-01  2.17179490e-09  1.76637527e+00  2.17179490e-09  1.80000000e+00  2.17179490e-09 -8.57386156e-03  2.17179490e-09  4.78544091e-01                                 
 2.51582740e-09  5.42318935e-01  2.51582740e-09  4.77754321e-01  2.51582740e-09  1.78568803e+00  2.51582740e-09  1.80000000e+00  2.51582740e-09  8.17848493e-03  2.51582740e-09  4.77754321e-01                                 
 2.89920975e-09  5.41312255e-01  2.89920975e-09  4.76894833e-01  2.89920975e-09  1.79350341e+00  2.89920975e-09  1.80000000e+00  2.89920975e-09 -7.58989151e-03  2.89920975e-09  4.76894833e-01                                 
 3.57485601e-09  5.39605415e-01  3.57485601e-09  4.75429719e-01  3.57485601e-09  1.79686891e+00  3.57485601e-09  1.80000000e+00  3.57485601e-09  7.41220210e-03  3.57485601e-09  4.75429719e-01                                 
 4.32188690e-09  5.37810557e-01  4.32188690e-09  4.73878570e-01  4.32188690e-09  1.79536347e+00  4.32188690e-09  1.80000000e+00  4.32188690e-09 -7.12149767e-03  4.32188690e-09  4.73878570e-01                                 
 5.74470223e-09  5.34623426e-01  5.74470223e-09  4.71099584e-01  5.74470223e-09  1.79224733e+00  5.74470223e-09  1.80000000e+00  5.74470223e-09  7.07325950e-03  5.74470223e-09  4.71099584e-01                                 
 7.86555376e-09  5.30344611e-01  7.86555376e-09  4.67322110e-01  7.86555376e-09  1.78708365e+00  7.86555376e-09  1.80000000e+00  7.86555376e-09 -6.92915126e-03  7.86555376e-09  4.67322110e-01                                 
 9.28427853e-09  5.27750281e-01  9.28427853e-09  4.65006322e-01  9.28427853e-09  1.78419091e+00  9.28427853e-09  1.80000000e+00  9.28427853e-09  6.87584515e-03  9.28427853e-09  4.65006322e-01                                 
 1.08306483e-08  5.25123827e-01  1.08306483e-08  4.62644286e-01  1.08306483e-08  1.78061499e+00  1.08306483e-08  1.80000000e+00  1.08306483e-08 -6.71967647e-03  1.08306483e-08  4.62644286e-01                                 
 1.24204560e-08  5.22614241e-01  1.24204560e-08  4.60371628e-01  1.24204560e-08  1.77759217e+00  1.24204560e-08  1.80000000e+00  1.24204560e-08  6.67237006e-03  1.24204560e-08  4.60371628e-01                                 
 1.39363734e-08  5.20379635e-01  1.39363734e-08  4.58335567e-01  1.39363734e-08  1.77427773e+00  1.39363734e-08  1.80000000e+00  1.39363734e-08 -6.52325619e-03  1.39363734e-08  4.58335567e-01                                 
 1.55290348e-08  5.18179404e-01  1.55290348e-08  4.56319781e-01  1.55290348e-08  1.77139194e+00  1.55290348e-08  1.80000000e+00  1.55290348e-08  6.47533308e-03  1.55290348e-08  4.56319781e-01                                 
 1.74115272e-08  5.15752115e-01  1.74115272e-08  4.54083538e-01  1.74115272e-08  1.76747846e+00  1.74115272e-08  1.80000000e+00  1.74115272e-08 -6.35065989e-03  1.74115272e-08  4.54083538e-01                                 
 1.99458757e-08  5.12744782e-01  1.99458757e-08  4.51295007e-01  1.99458757e-08  1.76292400e+00  1.99458757e-08  1.80000000e+00  1.99458757e-08  6.33795277e-03  1.99458757e-08  4.51295007e-01                                 
 2.31887560e-08  5.09271833e-01  2.31887560e-08  4.48049891e-01  2.31887560e-08  1.75672514e+00  2.31887560e-08  1.80000000e+00  2.31887560e-08 -6.24795849e-03  2.31887560e-08  4.48049891e-01                                 
 2.79927877e-08  5.04756333e-01  2.79927877e-08  4.43791011e-01  2.79927877e-08  1.74860150e+00  2.79927877e-08  1.80000000e+00  2.79927877e-08  6.26315737e-03  2.79927877e-08  4.43791011e-01                                 
 3.50661579e-08  4.99135005e-01  3.50661579e-08  4.38430005e-01  3.50661579e-08  1.73671078e+00  3.50661579e-08  1.80000000e+00  3.50661579e-08 -6.19719196e-03  3.50661579e-08  4.38430005e-01                                 
 4.92128983e-08  4.90184600e-01  4.92128983e-08  4.29792247e-01  4.92128983e-08  1.71509100e+00  4.92128983e-08  1.80000000e+00  4.92128983e-08  6.23324599e-03  4.92128983e-08  4.29792247e-01                                 
 7.75063790e-08  4.77289860e-01  7.75063790e-08  4.17194765e-01  7.75063790e-08  1.67491090e+00  7.75063790e-08  1.80000000e+00  7.75063790e-08 -6.18141123e-03  7.75063790e-08  4.17194765e-01                                 
 1.22468841e-07  4.60572244e-01  1.22468841e-07  4.01289013e-01  1.22468841e-07  1.61434995e+00  1.22468841e-07  1.80000000e+00  1.22468841e-07  6.22540771e-03  1.22468841e-07  4.01289013e-01                                 
 1.69570165e-07  4.44226025e-01  1.69570165e-07  3.86365446e-01  1.69570165e-07  1.55040709e+00  1.69570165e-07  1.80000000e+00  1.69570165e-07 -6.17515453e-03  1.69570165e-07  3.86365446e-01                                 
 2.40465705e-07  4.23048462e-01  2.40465705e-07  3.67446181e-01  2.40465705e-07  1.45660465e+00  2.40465705e-07  1.80000000e+00  2.40465705e-07  6.22061474e-03  2.40465705e-07  3.67446181e-01                                 
 3.16567673e-07  4.00830209e-01  3.16567673e-07  3.48251060e-01  3.16567673e-07  1.35447687e+00  3.16567673e-07  1.80000000e+00  3.16567673e-07 -6.17127678e-03  3.16567673e-07  3.48251060e-01                                 
 4.46772802e-07  3.57267627e-01  4.46772802e-07  3.12006368e-01  4.46772802e-07  1.17605877e+00  4.46772802e-07  1.80000000e+00  4.46772802e-07  6.21759343e-03  4.46772802e-07  3.12006368e-01                                 
 4.79324084e-07  3.44946924e-01  4.79324084e-07  3.01986620e-01  4.79324084e-07  1.13124836e+00  4.79324084e-07  1.80000000e+00  4.79324084e-07  1.14932833e-05  4.79324084e-07  3.01986620e-01                                 
 5.44426648e-07  3.30643134e-01  5.44426648e-07  2.90294902e-01  5.44426648e-07  1.05587481e+00  5.44426648e-07  1.80000000e+00  5.44426648e-07  9.99647019e-06  5.44426648e-07  2.90294902e-01                                 
 6.74631777e-07  6.37669341e-01  6.74631777e-07  5.69042560e-01  6.74631777e-07  1.22089422e+00  6.74631777e-07  1.80000000e+00  6.74631777e-07  2.22481017e-05  6.74631777e-07  5.69042560e-01                                 
 7.85543571e-07  7.09061027e-01  7.85543571e-07  6.33236812e-01  7.85543571e-07  1.17429717e+00  7.85543571e-07  1.80000000e+00  7.85543571e-07  3.11952134e-06  7.85543571e-07  6.33236812e-01                                 
 8.78121139e-07  7.07240444e-01  8.78121139e-07  6.31723402e-01  8.78121139e-07  1.07915880e+00  8.78121139e-07  1.80000000e+00  8.78121139e-07  1.89831281e-05  8.78121139e-07  6.31723402e-01                                 
 9.78376777e-07  6.75349064e-01  9.78376777e-07  6.04580257e-01  9.78376777e-07  9.69886475e-01  9.78376777e-07  1.80000000e+00  9.78376777e-07  2.00482408e-06  9.78376777e-07  6.04580257e-01                                 
 1.07502355e-06  6.80708291e-01  1.07502355e-06  6.09145323e-01  1.07502355e-06  9.08182315e-01  1.07502355e-06  1.80000000e+00  1.07502355e-06  2.09181691e-05  1.07502355e-06  6.09145323e-01                                 
 1.15385543e-06  7.09822981e-01  1.15385543e-06  6.33842679e-01  1.15385543e-06  8.86754105e-01  1.15385543e-06  1.80000000e+00  1.15385543e-06  3.63892994e-06  1.15385543e-06  6.33842679e-01                                 
 1.22962105e-06  6.96023555e-01  1.22962105e-06  6.22446696e-01  1.22962105e-06  8.26372192e-01  1.22962105e-06  1.80000000e+00  1.22962105e-06  1.82762084e-05  1.22962105e-06  6.22446696e-01                                 
 1.23928806e-06  6.91431266e-01  1.23928806e-06  6.18567654e-01  1.23928806e-06  8.17203817e-01  1.23928806e-06  1.80000000e+00  1.23928806e-06  1.03823110e-05  1.23928806e-06  6.18567654e-01                                 
 1.25862208e-06  6.84489928e-01  1.25862208e-06  6.12566651e-01  1.25862208e-06  7.99576874e-01  1.25862208e-06  1.80000000e+00  1.25862208e-06  1.07902013e-05  1.25862208e-06  6.12566651e-01                                 
 1.29729011e-06  6.86577450e-01  1.29729011e-06  6.14347305e-01  1.29729011e-06  7.78957250e-01  1.29729011e-06  1.80000000e+00  1.29729011e-06  1.23332772e-05  1.29729011e-06  6.14347305e-01                                 
 1.35709429e-06  6.98365997e-01  1.35709429e-06  6.24411363e-01  1.35709429e-06  7.55549933e-01  1.35709429e-06  1.80000000e+00  1.35709429e-06  1.14866755e-05  1.35709429e-06  6.24411363e-01                                 
 1.42373313e-06  6.94158699e-01  1.42373313e-06  6.20877884e-01  1.42373313e-06  7.14660512e-01  1.42373313e-06  1.80000000e+00  1.42373313e-06  1.11659683e-05  1.42373313e-06  6.20877884e-01                                 
 1.51004895e-06  6.89493163e-01  1.51004895e-06  6.16880954e-01  1.51004895e-06  6.68960781e-01  1.51004895e-06  1.80000000e+00  1.51004895e-06  1.16344509e-05  1.51004895e-06  6.16880954e-01                                 
 1.62086057e-06  6.96131120e-01  1.62086057e-06  6.22534606e-01  1.62086057e-06  6.39519615e-01  1.62086057e-06  1.80000000e+00  1.62086057e-06  1.18532551e-05  1.62086057e-06  6.22534606e-01                                 
 1.76905205e-06  6.91688043e-01  1.76905205e-06  6.18771206e-01  1.76905205e-06  6.11838622e-01  1.76905205e-06  1.80000000e+00  1.76905205e-06  1.13808891e-05  1.76905205e-06  6.18771206e-01                                 
 1.78917417e-06  6.91382182e-01  1.78917417e-06  6.18505331e-01  1.78917417e-06  6.09961614e-01  1.78917417e-06  1.80000000e+00  1.78917417e-06  1.16843476e-05  1.78917417e-06  6.18505331e-01                                 
 1.82941839e-06  6.92350332e-01  1.82941839e-06  6.19327893e-01  1.82941839e-06  6.10564981e-01  1.82941839e-06  1.80000000e+00  1.82941839e-06  1.19263945e-05  1.82941839e-06  6.19327893e-01                                 
 1.90990684e-06  6.94511739e-01  1.90990684e-06  6.21168568e-01  1.90990684e-06  6.19924842e-01  1.90990684e-06  1.80000000e+00  1.90990684e-06  1.17780944e-05  1.90990684e-06  6.21168568e-01                                 
 2.01133326e-06  6.92503502e-01  2.01133326e-06  6.19463229e-01  2.01133326e-06  6.20393375e-01  2.01133326e-06  1.80000000e+00  2.01133326e-06  1.16533095e-05  2.01133326e-06  6.19463229e-01                                 
 2.12023534e-06  6.93126455e-01  2.12023534e-06  6.19990054e-01  2.12023534e-06  6.19665304e-01  2.12023534e-06  1.80000000e+00  2.12023534e-06  1.18678266e-05  2.12023534e-06  6.19990054e-01                                 
 2.33795931e-06  6.93629995e-01  2.33795931e-06  6.20421979e-01  2.33795931e-06  6.21065180e-01  2.33795931e-06  1.80000000e+00  2.33795931e-06  1.16498566e-05  2.33795931e-06  6.20421979e-01                                 
 2.54295462e-06  6.92591890e-01  2.54295462e-06  6.19535695e-01  2.54295462e-06  6.19363468e-01  2.54295462e-06  1.80000000e+00  2.54295462e-06  1.18287949e-05  2.54295462e-06  6.19535695e-01                                 
 2.95294523e-06  6.93884608e-01  2.95294523e-06  6.20637330e-01  2.95294523e-06  6.21184836e-01  2.95294523e-06  1.80000000e+00  2.95294523e-06  1.16906202e-05  2.95294523e-06  6.20637330e-01                                 
 3.59180226e-06  6.92529861e-01  3.59180226e-06  6.19483422e-01  3.59180226e-06  6.19361562e-01  3.59180226e-06  1.80000000e+00  3.59180226e-06  1.18032887e-05  3.59180226e-06  6.19483422e-01                                 
 4.59180226e-06  6.93896217e-01  4.59180226e-06  6.20646900e-01  4.59180226e-06  6.21164255e-01  4.59180226e-06  1.80000000e+00  4.59180226e-06  1.17073602e-05  4.59180226e-06  6.20646900e-01                                 
 5.59180226e-06  6.92535863e-01  5.59180226e-06  6.19488787e-01  5.59180226e-06  6.19391657e-01  5.59180226e-06  1.80000000e+00  5.59180226e-06  1.17902470e-05  5.59180226e-06  6.19488787e-01                                 
 6.59180226e-06  6.93879132e-01  6.59180226e-06  6.20632087e-01  6.59180226e-06  6.21124413e-01  6.59180226e-06  1.80000000e+00  6.59180226e-06  1.17202622e-05  6.59180226e-06  6.20632087e-01                                 
 7.59180226e-06  6.92563773e-01  7.59180226e-06  6.19512839e-01  7.59180226e-06  6.19440610e-01  7.59180226e-06  1.80000000e+00  7.59180226e-06  1.17775823e-05  7.59180226e-06  6.19512839e-01                                 
 8.59180226e-06  6.93842126e-01  8.59180226e-06  6.20600414e-01  8.59180226e-06  6.21067885e-01  8.59180226e-06  1.80000000e+00  8.59180226e-06  1.17326015e-05  8.59180226e-06  6.20600414e-01                                 
 9.59180226e-06  6.92610865e-01  9.59180226e-06  6.19553214e-01  9.59180226e-06  6.19505949e-01  9.59180226e-06  1.80000000e+00  9.59180226e-06  1.17656535e-05  9.59180226e-06  6.19553214e-01                                 
 1.00005000e-05  6.93739866e-01  1.00005000e-05  6.20513184e-01  1.00005000e-05  6.20937717e-01  1.00005000e-05  1.80000000e+00  1.00005000e-05  1.17515793e-05  1.00005000e-05  6.20513184e-01                                 
 1.00005500e-05  6.93740041e-01  1.00005500e-05  6.20513332e-01  1.00005500e-05  6.14179396e-01  1.00005500e-05  1.62000000e+00  1.00005500e-05 -1.22708961e-04  1.00005500e-05  6.20513332e-01                                 
 1.00006500e-05  6.93740402e-01  1.00006500e-05  6.20513644e-01  1.00006500e-05  6.02500087e-01  1.00006500e-05  1.26000000e+00  1.00006500e-05 -1.00597816e-04  1.00006500e-05  6.20513644e-01                                 
 1.00008500e-05  6.93741206e-01  1.00008500e-05  6.20514337e-01  1.00008500e-05  5.93135190e-01  1.00008500e-05  5.40000000e-01  1.00008500e-05  3.86643534e-02  1.00008500e-05  6.20514337e-01                                 
 1.00010000e-05  6.93741826e-01  1.00010000e-05  6.20514877e-01  1.00010000e-05  5.57882343e-01  1.00010000e-05  0.00000000e+00  1.00010000e-05  1.55458398e+00  1.00010000e-05  6.20514877e-01                                 
 1.00010248e-05  6.93741919e-01  1.00010248e-05  6.20514961e-01  1.00010248e-05  5.40418245e-01  1.00010248e-05  0.00000000e+00  1.00010248e-05  1.70445951e+00  1.00010248e-05  6.20514961e-01                                 
 1.00010743e-05  6.93742132e-01  1.00010743e-05  6.20515141e-01  1.00010743e-05  5.13194223e-01  1.00010743e-05  0.00000000e+00  1.00010743e-05  1.81836387e+00  1.00010743e-05  6.20515141e-01                                 
 1.00011733e-05  6.93742613e-01  1.00011733e-05  6.20515537e-01  1.00011733e-05  4.97238138e-01  1.00011733e-05  0.00000000e+00  1.00011733e-05  1.78979952e+00  1.00011733e-05  6.20515537e-01                                 
 1.00013144e-05  6.93743263e-01  1.00013144e-05  6.20516102e-01  1.00013144e-05  5.01150483e-01  1.00013144e-05  0.00000000e+00  1.00013144e-05  1.80676945e+00  1.00013144e-05  6.20516102e-01                                 
 1.00014679e-05  6.93743942e-01  1.00014679e-05  6.20516689e-01  1.00014679e-05  5.00717987e-01  1.00014679e-05  0.00000000e+00  1.00014679e-05  1.79547095e+00  1.00014679e-05  6.20516689e-01                                 
 1.00017519e-05  6.93745158e-01  1.00017519e-05  6.20517735e-01  1.00017519e-05  5.01597713e-01  1.00017519e-05  0.00000000e+00  1.00017519e-05  1.80368388e+00  1.00017519e-05  6.20517735e-01                                 
 1.00023200e-05  6.93747454e-01  1.00023200e-05  6.20519706e-01  1.00023200e-05  5.01289747e-01  1.00023200e-05  0.00000000e+00  1.00023200e-05  1.79667559e+00  1.00023200e-05  6.20519706e-01                                 
 1.00031353e-05  6.93750424e-01  1.00031353e-05  6.20522255e-01  1.00031353e-05  5.01659164e-01  1.00031353e-05  0.00000000e+00  1.00031353e-05  1.80307915e+00  1.00031353e-05  6.20522255e-01                                 
 1.00047660e-05  6.93754744e-01  1.00047660e-05  6.20525991e-01  1.00047660e-05  5.01655737e-01  1.00047660e-05  0.00000000e+00  1.00047660e-05  1.79702286e+00  1.00047660e-05  6.20525991e-01                                 
 1.00080273e-05  6.93755324e-01  1.00080273e-05  6.20526652e-01  1.00080273e-05  5.02926299e-01  1.00080273e-05  0.00000000e+00  1.00080273e-05  1.80291535e+00  1.00080273e-05  6.20526652e-01                                 
