 time            v(vbep)         time            v(vben)         time            v(vout)         time            v(vphi1)        time            v(vphi2)        time            v(vref)         yes             currtemp       
 0.00000000e+00  6.70923552e-01  0.00000000e+00  6.12705527e-01  0.00000000e+00  1.02921047e+00  0.00000000e+00  0.00000000e+00  0.00000000e+00  1.79991989e+00  0.00000000e+00  5.00000000e-01  1.00000000e+00  4.50000000e+01 
 5.00000000e-12  6.70873743e-01  5.00000000e-12  6.12664965e-01  5.00000000e-12  1.02996531e+00  5.00000000e-12  1.80000000e-02  5.00000000e-12  1.80003543e+00  5.00000000e-12  5.00000000e-01                                 
 1.00000000e-11  6.70826409e-01  1.00000000e-11  6.12625932e-01  1.00000000e-11  1.03065281e+00  1.00000000e-11  3.60000000e-02  1.00000000e-11  1.80009805e+00  1.00000000e-11  5.00000000e-01                                 
 2.00000000e-11  6.70733490e-01  2.00000000e-11  6.12548322e-01  2.00000000e-11  1.03192565e+00  2.00000000e-11  7.20000000e-02  2.00000000e-11  1.80015835e+00  2.00000000e-11  5.00000000e-01                                 
 4.00000000e-11  6.70550705e-01  4.00000000e-11  6.12394008e-01  4.00000000e-11  1.03401404e+00  4.00000000e-11  1.44000000e-01  4.00000000e-11  1.80012892e+00  4.00000000e-11  5.00000000e-01                                 
 8.00000000e-11  6.70187699e-01  8.00000000e-11  6.12087443e-01  8.00000000e-11  1.03706218e+00  8.00000000e-11  2.88000000e-01  8.00000000e-11  1.80005501e+00  8.00000000e-11  5.00000000e-01                                 
 1.60000000e-10  6.69473027e-01  1.60000000e-10  6.11482509e-01  1.60000000e-10  1.04083884e+00  1.60000000e-10  5.76000000e-01  1.60000000e-10  1.80000047e+00  1.60000000e-10  5.00000000e-01                                 
 3.20000000e-10  6.68085423e-01  3.20000000e-10  6.10303908e-01  3.20000000e-10  1.03685674e+00  3.20000000e-10  1.15200000e+00  3.20000000e-10  1.80042376e+00  3.20000000e-10  5.00000000e-01                                 
 5.00000000e-10  6.66588001e-01  5.00000000e-10  6.09025465e-01  5.00000000e-10  1.17898967e+00  5.00000000e-10  1.80000000e+00  5.00000000e-10  1.20353492e-01  5.00000000e-10  5.00000000e-01                                 
 5.21653282e-10  6.66412709e-01  5.21653282e-10  6.08875339e-01  5.21653282e-10  1.21214392e+00  5.21653282e-10  1.80000000e+00  5.21653282e-10  2.42400134e-02  5.21653282e-10  5.00000000e-01                                 
 5.64959847e-10  6.66063827e-01  5.64959847e-10  6.08576321e-01  5.64959847e-10  1.27254727e+00  5.64959847e-10  1.80000000e+00  5.64959847e-10 -1.09934538e-02  5.64959847e-10  5.00000000e-01                                 
 6.51572976e-10  6.65376458e-01  6.51572976e-10  6.07986167e-01  6.51572976e-10  1.37066816e+00  6.51572976e-10  1.80000000e+00  6.51572976e-10  9.30723131e-03  6.51572976e-10  5.00000000e-01                                 
 7.73746543e-10  6.64429729e-01  7.73746543e-10  6.07171065e-01  7.73746543e-10  1.48139784e+00  7.73746543e-10  1.80000000e+00  7.73746543e-10 -7.94249468e-03  7.73746543e-10  5.00000000e-01                                 
 9.66132076e-10  6.62990064e-01  9.66132076e-10  6.05926602e-01  9.66132076e-10  1.61044223e+00  9.66132076e-10  1.80000000e+00  9.66132076e-10  7.48915755e-03  9.66132076e-10  5.00000000e-01                                 
 1.35090314e-09  6.60280526e-01  1.35090314e-09  6.03568671e-01  1.35090314e-09  1.75527906e+00  1.35090314e-09  1.80000000e+00  1.35090314e-09 -7.06357854e-03  1.35090314e-09  5.00000000e-01                                 
 1.63489653e-09  6.58414340e-01  1.63489653e-09  6.01932204e-01  1.63489653e-09  1.79890429e+00  1.63489653e-09  1.80000000e+00  1.63489653e-09  6.77661186e-03  1.63489653e-09  5.00000000e-01                                 
 1.98666537e-09  6.56239724e-01  1.98666537e-09  6.00013060e-01  1.98666537e-09  1.82148242e+00  1.98666537e-09  1.80000000e+00  1.98666537e-09 -6.39466874e-03  1.98666537e-09  5.00000000e-01                                 
 2.31484742e-09  6.54333942e-01  2.31484742e-09  5.98320454e-01  2.31484742e-09  1.82859753e+00  2.31484742e-09  1.80000000e+00  2.31484742e-09  6.18789662e-03  2.31484742e-09  5.00000000e-01                                 
 2.68024646e-09  6.52335970e-01  2.68024646e-09  5.96535531e-01  2.68024646e-09  1.83062600e+00  2.68024646e-09  1.80000000e+00  2.68024646e-09 -5.87012479e-03  2.68024646e-09  5.00000000e-01                                 
 3.12381962e-09  6.50065923e-01  3.12381962e-09  5.94494994e-01  3.12381962e-09  1.83039693e+00  3.12381962e-09  1.80000000e+00  3.12381962e-09  5.71028348e-03  3.12381962e-09  5.00000000e-01                                 
 3.57083499e-09  6.47931174e-01  3.57083499e-09  5.92564095e-01  3.57083499e-09  1.82917053e+00  3.57083499e-09  1.80000000e+00  3.57083499e-09 -5.48960851e-03  3.57083499e-09  5.00000000e-01                                 
 4.17352877e-09  6.45262495e-01  4.17352877e-09  5.90134743e-01  4.17352877e-09  1.82744507e+00  4.17352877e-09  1.80000000e+00  4.17352877e-09  5.37513154e-03  4.17352877e-09  5.00000000e-01                                 
 4.98468681e-09  6.41993791e-01  4.98468681e-09  5.87136630e-01  4.98468681e-09  1.82515048e+00  4.98468681e-09  1.80000000e+00  4.98468681e-09 -5.25350217e-03  4.98468681e-09  5.00000000e-01                                 
 6.48486710e-09  6.36714352e-01  6.48486710e-09  5.82246413e-01  6.48486710e-09  1.82162755e+00  6.48486710e-09  1.80000000e+00  6.48486710e-09  5.22154749e-03  6.48486710e-09  5.00000000e-01                                 
 9.15619792e-09  6.29073680e-01  9.15619792e-09  5.75073638e-01  9.15619792e-09  1.81659345e+00  9.15619792e-09  1.80000000e+00  9.15619792e-09 -5.17026010e-03  9.15619792e-09  5.00000000e-01                                 
 1.44988596e-08  6.17823364e-01  1.44988596e-08  5.64336746e-01  1.44988596e-08  1.80985603e+00  1.44988596e-08  1.80000000e+00  1.44988596e-08  5.17801219e-03  1.44988596e-08  5.00000000e-01                                 
 2.51841829e-08  6.03226258e-01  2.51841829e-08  5.50142136e-01  2.51841829e-08  1.80291477e+00  2.51841829e-08  1.80000000e+00  2.51841829e-08 -5.14751067e-03  2.51841829e-08  5.00000000e-01                                 
 4.21120837e-08  5.89387008e-01  4.21120837e-08  5.36439929e-01  4.21120837e-08  1.80091385e+00  4.21120837e-08  1.80000000e+00  4.21120837e-08  5.16674525e-03  4.21120837e-08  5.00000000e-01                                 
 5.94404981e-08  5.80206521e-01  5.94404981e-08  5.27257032e-01  5.94404981e-08  1.80170109e+00  5.94404981e-08  1.80000000e+00  5.94404981e-08 -5.13814242e-03  5.94404981e-08  5.00000000e-01                                 
 8.01671163e-08  5.72029568e-01  8.01671163e-08  5.19073563e-01  8.01671163e-08  1.80383690e+00  8.01671163e-08  1.80000000e+00  8.01671163e-08  5.15867733e-03  8.01671163e-08  5.00000000e-01                                 
 1.12346053e-07  5.62288120e-01  1.12346053e-07  5.09378171e-01  1.12346053e-07  1.74339222e+00  1.12346053e-07  1.80000000e+00  1.12346053e-07 -5.13195511e-03  1.12346053e-07  5.00000000e-01                                 
 1.42540734e-07  5.50810087e-01  1.42540734e-07  4.98891268e-01  1.42540734e-07  1.62826263e+00  1.42540734e-07  1.80000000e+00  1.42540734e-07  5.15366199e-03  1.42540734e-07  5.00000000e-01                                 
 1.66009056e-07  5.40242671e-01  1.66009056e-07  4.89640190e-01  1.66009056e-07  1.56546395e+00  1.66009056e-07  1.80000000e+00  1.66009056e-07 -5.12623227e-03  1.66009056e-07  5.00000000e-01                                 
 1.92106477e-07  5.30953239e-01  1.92106477e-07  4.81455146e-01  1.92106477e-07  1.43097049e+00  1.92106477e-07  1.80000000e+00  1.92106477e-07  5.14750772e-03  1.92106477e-07  5.00000000e-01                                 
 2.15857931e-07  5.28560229e-01  2.15857931e-07  4.78897997e-01  2.15857931e-07  1.31330896e+00  2.15857931e-07  1.80000000e+00  2.15857931e-07 -5.11981754e-03  2.15857931e-07  5.00000000e-01                                 
 2.40624754e-07  5.33153807e-01  2.40624754e-07  4.81888709e-01  2.40624754e-07  1.21034360e+00  2.40624754e-07  1.80000000e+00  2.40624754e-07  5.14142967e-03  2.40624754e-07  5.00000000e-01                                 
 2.58317868e-07  5.33521037e-01  2.58317868e-07  4.81743047e-01  2.58317868e-07  1.09685400e+00  2.58317868e-07  1.80000000e+00  2.58317868e-07 -5.11261440e-03  2.58317868e-07  5.00000000e-01                                 
 2.79620615e-07  5.30533300e-01  2.79620615e-07  4.78888503e-01  2.79620615e-07  9.77052135e-01  2.79620615e-07  1.80000000e+00  2.79620615e-07  5.13334682e-03  2.79620615e-07  5.00000000e-01                                 
 3.03122190e-07  5.26253929e-01  3.03122190e-07  4.75003798e-01  3.03122190e-07  8.78764842e-01  3.03122190e-07  1.80000000e+00  3.03122190e-07 -5.10587834e-03  3.03122190e-07  5.00000000e-01                                 
 3.27492823e-07  5.20349199e-01  3.27492823e-07  4.69858189e-01  3.27492823e-07  8.05073329e-01  3.27492823e-07  1.80000000e+00  3.27492823e-07  5.12690138e-03  3.27492823e-07  5.00000000e-01                                 
 3.70891417e-07  5.10085122e-01  3.70891417e-07  4.60995404e-01  3.70891417e-07  6.95143507e-01  3.70891417e-07  1.80000000e+00  3.70891417e-07 -5.10103470e-03  3.70891417e-07  5.00000000e-01                                 
 4.24400313e-07  4.97159169e-01  4.24400313e-07  4.50010317e-01  4.24400313e-07  5.71829430e-01  4.24400313e-07  1.80000000e+00  4.24400313e-07  5.12372152e-03  4.24400313e-07  5.00000000e-01                                 
 5.01726571e-07  4.76889879e-01  5.01726571e-07  4.33127992e-01  5.01726571e-07  4.79138628e-01  5.01726571e-07  1.80000000e+00  5.01726571e-07 -5.09866933e-03  5.01726571e-07  5.00000000e-01                                 
 5.85380041e-07  4.50966492e-01  5.85380041e-07  4.11960044e-01  5.85380041e-07  4.59743841e-01  5.85380041e-07  1.80000000e+00  5.85380041e-07  5.12179667e-03  5.85380041e-07  5.00000000e-01                                 
 6.63925991e-07  4.17929561e-01  6.63925991e-07  3.85348726e-01  6.63925991e-07  4.63547888e-01  6.63925991e-07  1.80000000e+00  6.63925991e-07 -5.09691709e-03  6.63925991e-07  5.00000000e-01                                 
 7.48131247e-07  4.87712788e-01  7.48131247e-07  4.41065722e-01  7.48131247e-07  5.82059542e-01  7.48131247e-07  1.80000000e+00  7.48131247e-07  5.12108233e-03  7.48131247e-07  5.00000000e-01                                 
 7.51672022e-07  4.96805098e-01  7.51672022e-07  4.48318564e-01  7.51672022e-07  5.87458715e-01  7.51672022e-07  1.80000000e+00  7.51672022e-07  8.03687834e-06  7.51672022e-07  5.00000000e-01                                 
 7.58753573e-07  5.19085743e-01  7.58753573e-07  4.66090288e-01  7.58753573e-07  5.91254289e-01  7.58753573e-07  1.80000000e+00  7.58753573e-07 -2.39874479e-06  7.58753573e-07  5.00000000e-01                                 
 7.72916676e-07  5.94442598e-01  7.72916676e-07  5.27458121e-01  7.72916676e-07  5.97699980e-01  7.72916676e-07  1.80000000e+00  7.72916676e-07  1.04817563e-05  7.72916676e-07  5.00000000e-01                                 
 7.86329687e-07  6.68540576e-01  7.86329687e-07  6.01666225e-01  7.86329687e-07  6.00544381e-01  7.86329687e-07  1.80000000e+00  7.86329687e-07 -8.90224917e-07  7.86329687e-07  5.00000000e-01                                 
 8.01590324e-07  7.04586311e-01  8.01590324e-07  6.44716046e-01  8.01590324e-07  5.72132404e-01  8.01590324e-07  1.80000000e+00  8.01590324e-07  7.13442208e-06  8.01590324e-07  5.00000000e-01                                 
 8.17421336e-07  7.33696844e-01  8.17421336e-07  6.72427217e-01  8.17421336e-07  5.48274449e-01  8.17421336e-07  1.80000000e+00  8.17421336e-07 -1.90003836e-06  8.17421336e-07  5.00000000e-01                                 
 8.41297572e-07  7.65067630e-01  8.41297572e-07  7.00746728e-01  8.41297572e-07  5.26637434e-01  8.41297572e-07  1.80000000e+00  8.41297572e-07  6.49659710e-06  8.41297572e-07  5.00000000e-01                                 
 8.66132978e-07  7.73962062e-01  8.66132978e-07  7.08250835e-01  8.66132978e-07  5.07121153e-01  8.66132978e-07  1.80000000e+00  8.66132978e-07 -3.35796041e-06  8.66132978e-07  5.00000000e-01                                 
 9.00723473e-07  7.75409960e-01  9.00723473e-07  7.09461679e-01  9.00723473e-07  4.93320247e-01  9.00723473e-07  1.80000000e+00  9.00723473e-07  6.05799832e-06  9.00723473e-07  5.00000000e-01                                 
 9.05788156e-07  7.75409178e-01  9.05788156e-07  7.09458466e-01  9.05788156e-07  4.92500258e-01  9.05788156e-07  1.80000000e+00  9.05788156e-07  1.28522512e-06  9.05788156e-07  5.00000000e-01                                 
 9.15917524e-07  7.75433112e-01  9.15917524e-07  7.09475470e-01  9.15917524e-07  4.91271235e-01  9.15917524e-07  1.80000000e+00  9.15917524e-07  1.33328750e-06  9.15917524e-07  5.00000000e-01                                 
 9.36176259e-07  7.75452574e-01  9.36176259e-07  7.09493851e-01  9.36176259e-07  4.89755936e-01  9.36176259e-07  1.80000000e+00  9.36176259e-07  1.28755431e-06  9.36176259e-07  5.00000000e-01                                 
 9.73129459e-07  7.75328697e-01  9.73129459e-07  7.09390168e-01  9.73129459e-07  4.88123797e-01  9.73129459e-07  1.80000000e+00  9.73129459e-07  1.32401397e-06  9.73129459e-07  5.00000000e-01                                 
 1.02055906e-06  7.72733553e-01  1.02055906e-06  7.07248490e-01  1.02055906e-06  4.88947773e-01  1.02055906e-06  1.80000000e+00  1.02055906e-06  1.21467761e-06  1.02055906e-06  5.00000000e-01                                 
 1.02667598e-06  7.71243622e-01  1.02667598e-06  7.06012065e-01  1.02667598e-06  4.89453538e-01  1.02667598e-06  1.80000000e+00  1.02667598e-06  1.13392696e-06  1.02667598e-06  5.00000000e-01                                 
 1.03890984e-06  7.66050377e-01  1.03890984e-06  7.01645586e-01  1.03890984e-06  4.90874384e-01  1.03890984e-06  1.80000000e+00  1.03890984e-06  8.72835079e-07  1.03890984e-06  5.00000000e-01                                 
 1.06337755e-06  7.51448777e-01  1.06337755e-06  6.88895442e-01  1.06337755e-06  4.97731602e-01  1.06337755e-06  1.80000000e+00  1.06337755e-06  8.65453036e-07  1.06337755e-06  5.00000000e-01                                 
 1.10528289e-06  7.43929144e-01  1.10528289e-06  6.82064458e-01  1.10528289e-06  5.08365227e-01  1.10528289e-06  1.80000000e+00  1.10528289e-06  1.47566653e-06  1.10528289e-06  5.00000000e-01                                 
 1.15197503e-06  7.57514824e-01  1.15197503e-06  6.94213047e-01  1.15197503e-06  5.05548157e-01  1.15197503e-06  1.80000000e+00  1.15197503e-06  1.56675812e-06  1.15197503e-06  5.00000000e-01                                 
 1.21749923e-06  7.65451527e-01  1.21749923e-06  7.01104572e-01  1.21749923e-06  4.94956731e-01  1.21749923e-06  1.80000000e+00  1.21749923e-06  1.23325207e-06  1.21749923e-06  5.00000000e-01                                 
 1.28677410e-06  7.55230402e-01  1.28677410e-06  6.92234282e-01  1.28677410e-06  4.97044869e-01  1.28677410e-06  1.80000000e+00  1.28677410e-06  1.16763545e-06  1.28677410e-06  5.00000000e-01                                 
 1.37366114e-06  7.54680379e-01  1.37366114e-06  6.91723050e-01  1.37366114e-06  5.05883956e-01  1.37366114e-06  1.80000000e+00  1.37366114e-06  1.43760383e-06  1.37366114e-06  5.00000000e-01                                 
 1.46720875e-06  7.63055123e-01  1.46720875e-06  6.99047854e-01  1.46720875e-06  4.98479758e-01  1.46720875e-06  1.80000000e+00  1.46720875e-06  1.31178556e-06  1.46720875e-06  5.00000000e-01                                 
 1.60113672e-06  7.54584790e-01  1.60113672e-06  6.91656252e-01  1.60113672e-06  4.97702986e-01  1.60113672e-06  1.80000000e+00  1.60113672e-06  1.21324923e-06  1.60113672e-06  5.00000000e-01                                 
 1.74415151e-06  7.58789808e-01  1.74415151e-06  6.95339014e-01  1.74415151e-06  5.05276935e-01  1.74415151e-06  1.80000000e+00  1.74415151e-06  1.44556124e-06  1.74415151e-06  5.00000000e-01                                 
 1.90884581e-06  7.59529809e-01  1.90884581e-06  6.95999921e-01  1.90884581e-06  4.94769123e-01  1.90884581e-06  1.80000000e+00  1.90884581e-06  1.17933957e-06  1.90884581e-06  5.00000000e-01                                 
 2.17260884e-06  7.55803432e-01  2.17260884e-06  6.92720506e-01  2.17260884e-06  5.04843570e-01  2.17260884e-06  1.80000000e+00  2.17260884e-06  1.41642359e-06  2.17260884e-06  5.00000000e-01                                 
 2.45746812e-06  7.60784632e-01  2.45746812e-06  6.97087278e-01  2.45746812e-06  4.96831702e-01  2.45746812e-06  1.80000000e+00  2.45746812e-06  1.22662962e-06  2.45746812e-06  5.00000000e-01                                 
 2.80342939e-06  7.55217778e-01  2.80342939e-06  6.92207611e-01  2.80342939e-06  5.02282979e-01  2.80342939e-06  1.80000000e+00  2.80342939e-06  1.36671503e-06  2.80342939e-06  5.00000000e-01                                 
 3.23980393e-06  7.60778611e-01  3.23980393e-06  6.97079005e-01  3.23980393e-06  4.99229939e-01  3.23980393e-06  1.80000000e+00  3.23980393e-06  1.26904480e-06  3.23980393e-06  5.00000000e-01                                 
 3.77531611e-06  7.55480951e-01  3.77531611e-06  6.92442518e-01  3.77531611e-06  5.00242336e-01  3.77531611e-06  1.80000000e+00  3.77531611e-06  1.33357075e-06  3.77531611e-06  5.00000000e-01                                 
 4.43573877e-06  7.60452499e-01  4.43573877e-06  6.96794124e-01  4.43573877e-06  5.00884309e-01  4.43573877e-06  1.80000000e+00  4.43573877e-06  1.29446177e-06  4.43573877e-06  5.00000000e-01                                 
 5.26975572e-06  7.55862437e-01  5.26975572e-06  6.92780419e-01  5.26975572e-06  4.98949608e-01  5.26975572e-06  1.80000000e+00  5.26975572e-06  1.31461467e-06  5.26975572e-06  5.00000000e-01                                 
 6.26975572e-06  7.60133865e-01  6.26975572e-06  6.96516162e-01  6.26975572e-06  5.01882850e-01  6.26975572e-06  1.80000000e+00  6.26975572e-06  1.30864340e-06  6.26975572e-06  5.00000000e-01                                 
 7.26975572e-06  7.56215841e-01  7.26975572e-06  6.93092628e-01  7.26975572e-06  4.98096314e-01  7.26975572e-06  1.80000000e+00  7.26975572e-06  1.30276312e-06  7.26975572e-06  5.00000000e-01                                 
 8.26975572e-06  7.59792077e-01  8.26975572e-06  6.96218018e-01  8.26975572e-06  5.02676081e-01  8.26975572e-06  1.80000000e+00  8.26975572e-06  1.31946153e-06  8.26975572e-06  5.00000000e-01                                 
 9.26975572e-06  7.56609509e-01  9.26975572e-06  6.93439736e-01  9.26975572e-06  4.97355155e-01  9.26975572e-06  1.80000000e+00  9.26975572e-06  1.29303468e-06  9.26975572e-06  5.00000000e-01                                 
 1.00005000e-05  7.59343735e-01  1.00005000e-05  6.95826743e-01  1.00005000e-05  5.03457157e-01  1.00005000e-05  1.80000000e+00  1.00005000e-05  1.32938815e-06  1.00005000e-05  5.00000000e-01                                 
 1.00005500e-05  7.59347378e-01  1.00005500e-05  6.95830320e-01  1.00005500e-05  4.95680131e-01  1.00005500e-05  1.62000000e+00  1.00005500e-05 -8.76246241e-05  1.00005500e-05  5.00000000e-01                                 
 1.00006500e-05  7.59355536e-01  1.00006500e-05  6.95837509e-01  1.00006500e-05  4.81929539e-01  1.00006500e-05  1.26000000e+00  1.00006500e-05 -6.71511747e-05  1.00006500e-05  5.00000000e-01                                 
 1.00008500e-05  7.59371423e-01  1.00008500e-05  6.95851102e-01  1.00008500e-05  4.79783999e-01  1.00008500e-05  5.40000000e-01  1.00008500e-05 -3.74056619e-03  1.00008500e-05  5.00000000e-01                                 
