 time            v(vbep)         time            v(vben)         time            v(vout)         time            v(vphi1)        time            v(vphi2)        time            v(vref)         yes             currtemp       
 0.00000000e+00  6.78571252e-01  0.00000000e+00  6.24052017e-01  0.00000000e+00  8.70226237e-02  0.00000000e+00  0.00000000e+00  0.00000000e+00  1.79997320e+00  0.00000000e+00  5.00000000e-01  1.00000000e+00  2.50000000e+01 
 5.00000000e-12  6.78553409e-01  5.00000000e-12  6.24037163e-01  5.00000000e-12  8.74858945e-02  5.00000000e-12  1.80000000e-02  5.00000000e-12  1.80005440e+00  5.00000000e-12  5.00000000e-01                                 
 1.00000000e-11  6.78535841e-01  1.00000000e-11  6.24022622e-01  1.00000000e-11  8.79022429e-02  1.00000000e-11  3.60000000e-02  1.00000000e-11  1.80009448e+00  1.00000000e-11  5.00000000e-01                                 
 2.00000000e-11  6.78500850e-01  2.00000000e-11  6.23993623e-01  2.00000000e-11  8.86673564e-02  2.00000000e-11  7.20000000e-02  2.00000000e-11  1.80013066e+00  2.00000000e-11  5.00000000e-01                                 
 4.00000000e-11  6.78431121e-01  4.00000000e-11  6.23935781e-01  4.00000000e-11  8.98839848e-02  4.00000000e-11  1.44000000e-01  4.00000000e-11  1.80010958e+00  4.00000000e-11  5.00000000e-01                                 
 8.00000000e-11  6.78292109e-01  8.00000000e-11  6.23820420e-01  8.00000000e-11  9.15702010e-02  8.00000000e-11  2.88000000e-01  8.00000000e-11  1.80006759e+00  8.00000000e-11  5.00000000e-01                                 
 1.60000000e-10  6.78015992e-01  1.60000000e-10  6.23591008e-01  1.60000000e-10  9.37496233e-02  1.60000000e-10  5.76000000e-01  1.60000000e-10  1.80002893e+00  1.60000000e-10  5.00000000e-01                                 
 3.20000000e-10  6.77471157e-01  3.20000000e-10  6.23137354e-01  3.20000000e-10  1.29589407e-01  3.20000000e-10  1.15200000e+00  3.20000000e-10  1.80002293e+00  3.20000000e-10  5.00000000e-01                                 
 5.00000000e-10  6.76869865e-01  5.00000000e-10  6.22635155e-01  5.00000000e-10  4.90194415e-01  5.00000000e-10  1.80000000e+00  5.00000000e-10  1.12089484e-01  5.00000000e-10  5.00000000e-01                                 
 5.21581527e-10  6.76798678e-01  5.21581527e-10  6.22575582e-01  5.21581527e-10  5.58823994e-01  5.21581527e-10  1.80000000e+00  5.21581527e-10  2.12005730e-02  5.21581527e-10  5.00000000e-01                                 
 5.64744582e-10  6.76656640e-01  5.64744582e-10  6.22456673e-01  5.64744582e-10  6.82380619e-01  5.64744582e-10  1.80000000e+00  5.64744582e-10 -1.00361714e-02  5.64744582e-10  5.00000000e-01                                 
 6.51070691e-10  6.76374600e-01  6.51070691e-10  6.22220296e-01  6.51070691e-10  8.70884823e-01  6.51070691e-10  1.80000000e+00  6.51070691e-10  8.52518327e-03  6.51070691e-10  5.00000000e-01                                 
 7.73942725e-10  6.75977755e-01  7.73942725e-10  6.21887116e-01  7.73942725e-10  1.07301111e+00  7.73942725e-10  1.80000000e+00  7.73942725e-10 -7.41764276e-03  7.73942725e-10  5.00000000e-01                                 
 9.65896138e-10  6.75368277e-01  9.65896138e-10  6.21374092e-01  9.65896138e-10  1.32536432e+00  9.65896138e-10  1.80000000e+00  9.65896138e-10  6.99420860e-03  9.65896138e-10  5.00000000e-01                                 
 1.32152010e-09  6.74271263e-01  1.32152010e-09  6.20446729e-01  1.32152010e-09  1.64908028e+00  1.32152010e-09  1.80000000e+00  1.32152010e-09 -6.61194200e-03  1.32152010e-09  5.00000000e-01                                 
 1.96263655e-09  6.72390577e-01  1.96263655e-09  6.18845385e-01  1.96263655e-09  1.87463219e+00  1.96263655e-09  1.80000000e+00  1.96263655e-09  6.55728145e-03  1.96263655e-09  5.00000000e-01                                 
 2.22207913e-09  6.71662973e-01  2.22207913e-09  6.18221867e-01  2.22207913e-09  1.89492615e+00  2.22207913e-09  1.80000000e+00  2.22207913e-09 -6.12982530e-03  2.22207913e-09  5.00000000e-01                                 
 2.54148339e-09  6.70791261e-01  2.54148339e-09  6.17472088e-01  2.54148339e-09  1.90311773e+00  2.54148339e-09  1.80000000e+00  2.54148339e-09  5.92194189e-03  2.54148339e-09  5.00000000e-01                                 
 2.89268256e-09  6.69861742e-01  2.89268256e-09  6.16669320e-01  2.89268256e-09  1.90599561e+00  2.89268256e-09  1.80000000e+00  2.89268256e-09 -5.64008858e-03  2.89268256e-09  5.00000000e-01                                 
 3.59508090e-09  6.68085803e-01  3.59508090e-09  6.15126580e-01  3.59508090e-09  1.90871634e+00  3.59508090e-09  1.80000000e+00  3.59508090e-09  5.57343598e-03  3.59508090e-09  5.00000000e-01                                 
 4.47119147e-09  6.66010934e-01  4.47119147e-09  6.13309587e-01  4.47119147e-09  1.90952867e+00  4.47119147e-09  1.80000000e+00  4.47119147e-09 -5.44727457e-03  4.47119147e-09  5.00000000e-01                                 
 6.22341261e-09  6.62246968e-01  6.22341261e-09  6.09976974e-01  6.22341261e-09  1.90350031e+00  6.22341261e-09  1.80000000e+00  6.22341261e-09  5.44188536e-03  6.22341261e-09  5.00000000e-01                                 
 9.25171949e-09  6.56670642e-01  9.25171949e-09  6.04962108e-01  9.25171949e-09  1.89052693e+00  9.25171949e-09  1.80000000e+00  9.25171949e-09 -5.37590074e-03  9.25171949e-09  5.00000000e-01                                 
 1.07655922e-08  6.54239050e-01  1.07655922e-08  6.02746767e-01  1.07655922e-08  1.88549744e+00  1.07655922e-08  1.80000000e+00  1.07655922e-08  5.35925112e-03  1.07655922e-08  5.00000000e-01                                 
 1.25001544e-08  6.51673077e-01  1.25001544e-08  6.00393680e-01  1.25001544e-08  1.88004570e+00  1.25001544e-08  1.80000000e+00  1.25001544e-08 -5.28802786e-03  1.25001544e-08  5.00000000e-01                                 
 1.44059034e-08  6.49085104e-01  1.44059034e-08  5.98005484e-01  1.44059034e-08  1.87456898e+00  1.44059034e-08  1.80000000e+00  1.44059034e-08  5.27568995e-03  1.44059034e-08  5.00000000e-01                                 
 1.75837143e-08  6.45215897e-01  1.75837143e-08  5.94408629e-01  1.75837143e-08  1.86623478e+00  1.75837143e-08  1.80000000e+00  1.75837143e-08 -5.22782034e-03  1.75837143e-08  5.00000000e-01                                 
 2.14015219e-08  6.41189614e-01  2.14015219e-08  5.90629759e-01  2.14015219e-08  1.85732902e+00  2.14015219e-08  1.80000000e+00  2.14015219e-08  5.23300757e-03  2.14015219e-08  5.00000000e-01                                 
 2.74116224e-08  6.35955644e-01  2.74116224e-08  5.85650606e-01  2.74116224e-08  1.84523118e+00  2.74116224e-08  1.80000000e+00  2.74116224e-08 -5.19680765e-03  2.74116224e-08  5.00000000e-01                                 
 3.63669460e-08  6.29950995e-01  3.63669460e-08  5.79826273e-01  3.63669460e-08  1.83068116e+00  3.63669460e-08  1.80000000e+00  3.63669460e-08  5.21294665e-03  3.63669460e-08  5.00000000e-01                                 
 5.42775932e-08  6.20975641e-01  5.42775932e-08  5.71009356e-01  5.42775932e-08  1.80522737e+00  5.42775932e-08  1.80000000e+00  5.42775932e-08 -5.18468221e-03  5.42775932e-08  5.00000000e-01                                 
 8.10768017e-08  6.11079136e-01  8.10768017e-08  5.61278252e-01  8.10768017e-08  1.77074219e+00  8.10768017e-08  1.80000000e+00  8.10768017e-08  5.20634786e-03  8.10768017e-08  5.00000000e-01                                 
 1.25933301e-07  5.99674973e-01  1.25933301e-07  5.49997479e-01  1.25933301e-07  1.71789599e+00  1.25933301e-07  1.80000000e+00  1.25933301e-07 -5.18029440e-03  1.25933301e-07  5.00000000e-01                                 
 1.70603161e-07  5.88360155e-01  1.70603161e-07  5.39437422e-01  1.70603161e-07  1.66472675e+00  1.70603161e-07  1.80000000e+00  1.70603161e-07  5.20314102e-03  1.70603161e-07  5.00000000e-01                                 
 2.38781514e-07  5.70937761e-01  2.38781514e-07  5.23841116e-01  2.38781514e-07  1.58180528e+00  2.38781514e-07  1.80000000e+00  2.38781514e-07 -5.17765539e-03  2.38781514e-07  5.00000000e-01                                 
 3.13950440e-07  5.54038604e-01  3.13950440e-07  5.09054600e-01  3.13950440e-07  1.49041356e+00  3.13950440e-07  1.80000000e+00  3.13950440e-07  5.20117185e-03  3.13950440e-07  5.00000000e-01                                 
 4.20833359e-07  5.28495188e-01  4.20833359e-07  4.87486282e-01  4.20833359e-07  1.35739430e+00  4.20833359e-07  1.80000000e+00  4.20833359e-07 -5.17605873e-03  4.20833359e-07  5.00000000e-01                                 
 6.34599199e-07  4.71951714e-01  6.34599199e-07  4.41297817e-01  6.34599199e-07  1.08236658e+00  6.34599199e-07  1.80000000e+00  6.34599199e-07  5.20015994e-03  6.34599199e-07  5.00000000e-01                                 
 6.68684044e-07  4.65980451e-01  6.68684044e-07  4.36492344e-01  6.68684044e-07  1.04140536e+00  6.68684044e-07  1.80000000e+00  6.68684044e-07  8.35090492e-07  6.68684044e-07  5.00000000e-01                                 
 7.36853735e-07  5.60253871e-01  7.36853735e-07  5.11698302e-01  7.36853735e-07  1.06302589e+00  7.36853735e-07  1.80000000e+00  7.36853735e-07  1.09296235e-06  7.36853735e-07  5.00000000e-01                                 
 7.38803458e-07  5.66404698e-01  7.38803458e-07  5.16600476e-01  7.38803458e-07  1.06701157e+00  7.38803458e-07  1.80000000e+00  7.38803458e-07  1.78097926e-06  7.38803458e-07  5.00000000e-01                                 
 7.42702903e-07  5.79869850e-01  7.42702903e-07  5.27339109e-01  7.42702903e-07  1.07608850e+00  7.42702903e-07  1.80000000e+00  7.42702903e-07  2.07266592e-06  7.42702903e-07  5.00000000e-01                                 
 7.50501795e-07  6.15003686e-01  7.50501795e-07  5.55590271e-01  7.50501795e-07  1.10216333e+00  7.50501795e-07  1.80000000e+00  7.50501795e-07  2.84403692e-06  7.50501795e-07  5.00000000e-01                                 
 7.65304777e-07  6.92806351e-01  7.65304777e-07  6.28936773e-01  7.65304777e-07  1.16288476e+00  7.65304777e-07  1.80000000e+00  7.65304777e-07  3.58304048e-06  7.65304777e-07  5.00000000e-01                                 
 7.82003944e-07  7.34914468e-01  7.82003944e-07  6.78361849e-01  7.82003944e-07  1.18804878e+00  7.82003944e-07  1.80000000e+00  7.82003944e-07  7.96744006e-07  7.82003944e-07  5.00000000e-01                                 
 8.00984902e-07  7.58098096e-01  8.00984902e-07  7.01493655e-01  8.00984902e-07  1.18990063e+00  8.00984902e-07  1.80000000e+00  8.00984902e-07  1.59233184e-06  8.00984902e-07  5.00000000e-01                                 
 8.27976075e-07  7.78028726e-01  8.27976075e-07  7.19988202e-01  8.27976075e-07  1.18195820e+00  8.27976075e-07  1.80000000e+00  8.27976075e-07  1.82559962e-07  8.27976075e-07  5.00000000e-01                                 
 8.57367688e-07  7.87939107e-01  8.57367688e-07  7.29003608e-01  8.57367688e-07  1.16019817e+00  8.57367688e-07  1.80000000e+00  8.57367688e-07  1.02138814e-06  8.57367688e-07  5.00000000e-01                                 
 9.16150913e-07  7.98286164e-01  9.16150913e-07  7.37932472e-01  9.16150913e-07  1.10961048e+00  9.16150913e-07  1.80000000e+00  9.16150913e-07 -2.81835607e-08  9.16150913e-07  5.00000000e-01                                 
 9.87602491e-07  8.01386721e-01  9.87602491e-07  7.40620145e-01  9.87602491e-07  1.03762040e+00  9.87602491e-07  1.80000000e+00  9.87602491e-07  8.30943309e-07  9.87602491e-07  5.00000000e-01                                 
 1.06054818e-06  7.90332261e-01  1.06054818e-06  7.31067681e-01  1.06054818e-06  9.59153696e-01  1.06054818e-06  1.80000000e+00  1.06054818e-06 -2.77671001e-07  1.06054818e-06  5.00000000e-01                                 
 1.07205252e-06  7.86096824e-01  1.07205252e-06  7.27356614e-01  1.07205252e-06  9.45703680e-01  1.07205252e-06  1.80000000e+00  1.07205252e-06  1.22900871e-07  1.07205252e-06  5.00000000e-01                                 
 1.09506122e-06  7.80842667e-01  1.09506122e-06  7.22630317e-01  1.09506122e-06  9.23128620e-01  1.09506122e-06  1.80000000e+00  1.09506122e-06  3.05615764e-07  1.09506122e-06  5.00000000e-01                                 
 1.14107860e-06  7.84981322e-01  1.14107860e-06  7.26327470e-01  1.14107860e-06  8.93581785e-01  1.14107860e-06  1.80000000e+00  1.14107860e-06  5.51980552e-07  1.14107860e-06  5.00000000e-01                                 
 1.21206753e-06  7.92658717e-01  1.21206753e-06  7.33116167e-01  1.21206753e-06  8.53764638e-01  1.21206753e-06  1.80000000e+00  1.21206753e-06  3.51077362e-07  1.21206753e-06  5.00000000e-01                                 
 1.28644910e-06  7.86427902e-01  1.28644910e-06  7.27639640e-01  1.28644910e-06  8.04488070e-01  1.28644910e-06  1.80000000e+00  1.28644910e-06  2.84947282e-07  1.28644910e-06  5.00000000e-01                                 
 1.39848761e-06  7.86067522e-01  1.39848761e-06  7.27303813e-01  1.39848761e-06  7.43544589e-01  1.39848761e-06  1.80000000e+00  1.39848761e-06  4.54174057e-07  1.39848761e-06  5.00000000e-01                                 
 1.51394792e-06  7.90843216e-01  1.51394792e-06  7.31531657e-01  1.51394792e-06  6.89149807e-01  1.51394792e-06  1.80000000e+00  1.51394792e-06  3.50125757e-07  1.51394792e-06  5.00000000e-01                                 
 1.71127099e-06  7.84971970e-01  1.71127099e-06  7.26335357e-01  1.71127099e-06  5.91540275e-01  1.71127099e-06  1.80000000e+00  1.71127099e-06  3.55922235e-07  1.71127099e-06  5.00000000e-01                                 
 1.94178642e-06  7.89815227e-01  1.94178642e-06  7.30623925e-01  1.94178642e-06  5.22876033e-01  1.94178642e-06  1.80000000e+00  1.94178642e-06  4.20113829e-07  1.94178642e-06  5.00000000e-01                                 
 2.20961874e-06  7.86623886e-01  2.20961874e-06  7.27810389e-01  2.20961874e-06  4.91786361e-01  2.20961874e-06  1.80000000e+00  2.20961874e-06  3.12054027e-07  2.20961874e-06  5.00000000e-01                                 
 2.45836601e-06  7.88096929e-01  2.45836601e-06  7.29106707e-01  2.45836601e-06  5.01039472e-01  2.45836601e-06  1.80000000e+00  2.45836601e-06  4.41308920e-07  2.45836601e-06  5.00000000e-01                                 
 2.72092281e-06  7.88402753e-01  2.72092281e-06  7.29386507e-01  2.72092281e-06  5.02873494e-01  2.72092281e-06  1.80000000e+00  2.72092281e-06  3.06076965e-07  2.72092281e-06  5.00000000e-01                                 
 2.76095072e-06  7.87274849e-01  2.76095072e-06  7.28385338e-01  2.76095072e-06  5.00213906e-01  2.76095072e-06  1.80000000e+00  2.76095072e-06  3.52628291e-07  2.76095072e-06  5.00000000e-01                                 
 2.84100653e-06  7.87451523e-01  2.84100653e-06  7.28538422e-01  2.84100653e-06  4.98408248e-01  2.84100653e-06  1.80000000e+00  2.84100653e-06  3.95760731e-07  2.84100653e-06  5.00000000e-01                                 
 3.00111816e-06  7.88509888e-01  3.00111816e-06  7.29477557e-01  3.00111816e-06  5.00471742e-01  3.00111816e-06  1.80000000e+00  3.00111816e-06  3.60038666e-07  3.00111816e-06  5.00000000e-01                                 
 3.24866676e-06  7.87141330e-01  3.24866676e-06  7.28264814e-01  3.24866676e-06  5.00074366e-01  3.24866676e-06  1.80000000e+00  3.24866676e-06  3.77580558e-07  3.24866676e-06  5.00000000e-01                                 
 3.65127348e-06  7.88508639e-01  3.65127348e-06  7.29475457e-01  3.65127348e-06  5.00285454e-01  3.65127348e-06  1.80000000e+00  3.65127348e-06  3.72962246e-07  3.65127348e-06  5.00000000e-01                                 
 4.18584207e-06  7.87223563e-01  4.18584207e-06  7.28338403e-01  4.18584207e-06  4.99986628e-01  4.18584207e-06  1.80000000e+00  4.18584207e-06  3.69416045e-07  4.18584207e-06  5.00000000e-01                                 
 5.10715139e-06  7.88425829e-01  5.10715139e-06  7.29401911e-01  5.10715139e-06  5.00377348e-01  5.10715139e-06  1.80000000e+00  5.10715139e-06  3.78096467e-07  5.10715139e-06  5.00000000e-01                                 
 6.10715139e-06  7.87298199e-01  6.10715139e-06  7.28404875e-01  6.10715139e-06  4.99928055e-01  6.10715139e-06  1.80000000e+00  6.10715139e-06  3.66092818e-07  6.10715139e-06  5.00000000e-01                                 
 7.10715139e-06  7.88348067e-01  7.10715139e-06  7.29332991e-01  7.10715139e-06  5.00423461e-01  7.10715139e-06  1.80000000e+00  7.10715139e-06  3.81043237e-07  7.10715139e-06  5.00000000e-01                                 
 8.10715139e-06  7.87385105e-01  8.10715139e-06  7.28482122e-01  8.10715139e-06  4.99895948e-01  8.10715139e-06  1.80000000e+00  8.10715139e-06  3.63394208e-07  8.10715139e-06  5.00000000e-01                                 
 9.10715139e-06  7.88257316e-01  9.10715139e-06  7.29252589e-01  9.10715139e-06  5.00440279e-01  9.10715139e-06  1.80000000e+00  9.10715139e-06  3.83479352e-07  9.10715139e-06  5.00000000e-01                                 
 1.00005000e-05  7.87488727e-01  1.00005000e-05  7.28574130e-01  1.00005000e-05  4.99896249e-01  1.00005000e-05  1.80000000e+00  1.00005000e-05  3.61120924e-07  1.00005000e-05  5.00000000e-01                                 
 1.00005500e-05  7.87487930e-01  1.00005500e-05  7.28573424e-01  1.00005500e-05  4.91924206e-01  1.00005500e-05  1.62000000e+00  1.00005500e-05 -7.57767755e-05  1.00005500e-05  5.00000000e-01                                 
 1.00006500e-05  7.87486365e-01  1.00006500e-05  7.28572029e-01  1.00006500e-05  4.78128550e-01  1.00006500e-05  1.26000000e+00  1.00006500e-05 -5.66677577e-05  1.00006500e-05  5.00000000e-01                                 
 1.00008500e-05  7.87483335e-01  1.00008500e-05  7.28569325e-01  1.00008500e-05  4.76430641e-01  1.00008500e-05  5.40000000e-01  1.00008500e-05 -2.79987261e-03  1.00008500e-05  5.00000000e-01                                 
 1.00010000e-05  7.87481010e-01  1.00010000e-05  7.28567281e-01  1.00010000e-05  4.37851840e-01  1.00010000e-05  0.00000000e+00  1.00010000e-05  1.56668448e+00  1.00010000e-05  5.00000000e-01                                 
 1.00010186e-05  7.87480673e-01  1.00010186e-05  7.28567000e-01  1.00010186e-05  4.14933176e-01  1.00010186e-05  0.00000000e+00  1.00010186e-05  1.70270598e+00  1.00010186e-05  5.00000000e-01                                 
 1.00010559e-05  7.87480043e-01  1.00010559e-05  7.28566454e-01  1.00010559e-05  3.67319986e-01  1.00010559e-05  0.00000000e+00  1.00010559e-05  1.81245652e+00  1.00010559e-05  5.00000000e-01                                 
 1.00011304e-05  7.87478993e-01  1.00011304e-05  7.28565464e-01  1.00011304e-05  3.00155747e-01  1.00011304e-05  0.00000000e+00  1.00011304e-05  1.79078041e+00  1.00011304e-05  5.00000000e-01                                 
 1.00012227e-05  7.87477814e-01  1.00012227e-05  7.28564371e-01  1.00012227e-05  2.75253258e-01  1.00012227e-05  0.00000000e+00  1.00012227e-05  1.80349182e+00  1.00012227e-05  5.00000000e-01                                 
 1.00013860e-05  7.87475659e-01  1.00013860e-05  7.28562461e-01  1.00013860e-05  2.70619113e-01  1.00013860e-05  0.00000000e+00  1.00013860e-05  1.79702196e+00  1.00013860e-05  5.00000000e-01                                 
 1.00015437e-05  7.87473484e-01  1.00015437e-05  7.28560539e-01  1.00015437e-05  2.72398595e-01  1.00015437e-05  0.00000000e+00  1.00015437e-05  1.80189798e+00  1.00015437e-05  5.00000000e-01                                 
 1.00018592e-05  7.87468878e-01  1.00018592e-05  7.28556482e-01  1.00018592e-05  2.72653662e-01  1.00018592e-05  0.00000000e+00  1.00018592e-05  1.79841172e+00  1.00018592e-05  5.00000000e-01                                 
 1.00021768e-05  7.87464128e-01  1.00021768e-05  7.28552277e-01  1.00021768e-05  2.72729204e-01  1.00021768e-05  0.00000000e+00  1.00021768e-05  1.80129047e+00  1.00021768e-05  5.00000000e-01                                 
