 time            v(vbep)         time            v(vben)         time            v(vout)         time            v(vphi1)        time            v(vphi2)        time            v(vref)         yes             currtemp       
 0.00000000e+00  7.31725215e-01  0.00000000e+00  6.81033614e-01  0.00000000e+00  1.09206302e+00  0.00000000e+00  0.00000000e+00  0.00000000e+00  1.79995238e+00  0.00000000e+00  6.81033614e-01  1.00000000e+00  4.00000000e+00 
 5.00000000e-12  7.31697063e-01  5.00000000e-12  6.81010291e-01  5.00000000e-12  1.09280156e+00  5.00000000e-12  1.80000000e-02  5.00000000e-12  1.80007414e+00  5.00000000e-12  6.81010291e-01                                 
 1.00000000e-11  7.31669715e-01  1.00000000e-11  6.80987589e-01  1.00000000e-11  1.09348053e+00  1.00000000e-11  3.60000000e-02  1.00000000e-11  1.80014675e+00  1.00000000e-11  6.80987589e-01                                 
 2.00000000e-11  7.31615522e-01  2.00000000e-11  6.80942367e-01  2.00000000e-11  1.09474553e+00  2.00000000e-11  7.20000000e-02  2.00000000e-11  1.80022916e+00  2.00000000e-11  6.80942367e-01                                 
 4.00000000e-11  7.31508001e-01  4.00000000e-11  6.80852296e-01  4.00000000e-11  1.09684548e+00  4.00000000e-11  1.44000000e-01  4.00000000e-11  1.80022724e+00  4.00000000e-11  6.80852296e-01                                 
 8.00000000e-11  7.31294075e-01  8.00000000e-11  6.80673017e-01  8.00000000e-11  1.09980051e+00  8.00000000e-11  2.88000000e-01  8.00000000e-11  1.80014234e+00  8.00000000e-11  6.80673017e-01                                 
 1.60000000e-10  7.30871102e-01  1.60000000e-10  6.80317907e-01  1.60000000e-10  1.10250756e+00  1.60000000e-10  5.76000000e-01  1.60000000e-10  1.80003454e+00  1.60000000e-10  6.80317907e-01                                 
 3.20000000e-10  7.30043493e-01  3.20000000e-10  6.79620987e-01  3.20000000e-10  1.09320781e+00  3.20000000e-10  1.15200000e+00  3.20000000e-10  1.80028409e+00  3.20000000e-10  6.79620987e-01                                 
 5.00000000e-10  7.29140608e-01  5.00000000e-10  6.78857369e-01  5.00000000e-10  1.17607101e+00  5.00000000e-10  1.80000000e+00  5.00000000e-10  1.31999138e-01  5.00000000e-10  6.78857369e-01                                 
 5.20721037e-10  7.29038721e-01  5.20721037e-10  6.78770966e-01  5.20721037e-10  1.19809907e+00  5.20721037e-10  1.80000000e+00  5.20721037e-10  3.09622333e-02  5.20721037e-10  6.78770966e-01                                 
 5.62163110e-10  7.28835668e-01  5.62163110e-10  6.78598674e-01  5.62163110e-10  1.24201025e+00  5.62163110e-10  1.80000000e+00  5.62163110e-10 -1.22717202e-02  5.62163110e-10  6.78598674e-01                                 
 6.45047257e-10  7.28433918e-01  6.45047257e-10  6.78257292e-01  6.45047257e-10  1.32143821e+00  6.45047257e-10  1.80000000e+00  6.45047257e-10  1.05621179e-02  6.45047257e-10  6.78257292e-01                                 
 7.65052724e-10  7.27862276e-01  7.65052724e-10  6.77770406e-01  7.65052724e-10  1.42333634e+00  7.65052724e-10  1.80000000e+00  7.65052724e-10 -8.29355157e-03  7.65052724e-10  6.77770406e-01                                 
 9.44554924e-10  7.27028448e-01  9.44554924e-10  6.77057837e-01  9.44554924e-10  1.54889365e+00  9.44554924e-10  1.80000000e+00  9.44554924e-10  8.20467858e-03  9.44554924e-10  6.77057837e-01                                 
 1.30355932e-09  7.25431621e-01  1.30355932e-09  6.75685582e-01  1.30355932e-09  1.71176387e+00  1.30355932e-09  1.80000000e+00  1.30355932e-09 -7.28254247e-03  1.30355932e-09  6.75685582e-01                                 
 1.67807524e-09  7.23858754e-01  1.67807524e-09  6.74324065e-01  1.67807524e-09  1.79306260e+00  1.67807524e-09  1.80000000e+00  1.67807524e-09  7.21594952e-03  1.67807524e-09  6.74324065e-01                                 
 2.08328319e-09  7.22252777e-01  2.08328319e-09  6.72924049e-01  2.08328319e-09  1.82712340e+00  2.08328319e-09  1.80000000e+00  2.08328319e-09 -6.76338741e-03  2.08328319e-09  6.72924049e-01                                 
 2.45958135e-09  7.20841833e-01  2.45958135e-09  6.71686005e-01  2.45958135e-09  1.83807920e+00  2.45958135e-09  1.80000000e+00  2.45958135e-09  6.51316921e-03  2.45958135e-09  6.71686005e-01                                 
 2.99561298e-09  7.18950208e-01  2.99561298e-09  6.70014902e-01  2.99561298e-09  1.84156359e+00  2.99561298e-09  1.80000000e+00  2.99561298e-09 -6.25329251e-03  2.99561298e-09  6.70014902e-01                                 
 3.69489450e-09  7.16665941e-01  3.69489450e-09  6.67980220e-01  3.69489450e-09  1.84099150e+00  3.69489450e-09  1.80000000e+00  3.69489450e-09  6.12252729e-03  3.69489450e-09  6.67980220e-01                                 
 4.87924775e-09  7.13188234e-01  4.87924775e-09  6.64849701e-01  4.87924775e-09  1.83753386e+00  4.87924775e-09  1.80000000e+00  4.87924775e-09 -6.00362545e-03  4.87924775e-09  6.64849701e-01                                 
 6.78243457e-09  7.08399140e-01  6.78243457e-09  6.60478276e-01  6.78243457e-09  1.83324051e+00  6.78243457e-09  1.80000000e+00  6.78243457e-09  5.96985141e-03  6.78243457e-09  6.60478276e-01                                 
 1.05888082e-08  7.00796726e-01  1.05888082e-08  6.53414230e-01  1.05888082e-08  1.82593825e+00  1.05888082e-08  1.80000000e+00  1.05888082e-08 -5.91724893e-03  1.05888082e-08  6.53414230e-01                                 
 1.67573799e-08  6.91838370e-01  1.67573799e-08  6.44915372e-01  1.67573799e-08  1.81735487e+00  1.67573799e-08  1.80000000e+00  1.67573799e-08  5.92571711e-03  1.67573799e-08  6.44915372e-01                                 
 1.81651740e-08  6.90205349e-01  1.81651740e-08  6.43345277e-01  1.81651740e-08  1.81530863e+00  1.81651740e-08  1.80000000e+00  1.81651740e-08 -5.82698889e-03  1.81651740e-08  6.43345277e-01                                 
 1.93917287e-08  6.88863864e-01  1.93917287e-08  6.42052098e-01  1.93917287e-08  1.81399443e+00  1.93917287e-08  1.80000000e+00  1.93917287e-08  5.76239725e-03  1.93917287e-08  6.42052098e-01                                 
 2.11280078e-08  6.87077667e-01  2.11280078e-08  6.40325868e-01  2.11280078e-08  1.81149101e+00  2.11280078e-08  1.80000000e+00  2.11280078e-08 -5.68127110e-03  2.11280078e-08  6.40325868e-01                                 
 2.46005659e-08  6.83833694e-01  2.46005659e-08  6.37179802e-01  2.46005659e-08  1.80696820e+00  2.46005659e-08  1.80000000e+00  2.46005659e-08  5.67227701e-03  2.46005659e-08  6.37179802e-01                                 
 3.04322298e-08  6.79123866e-01  3.04322298e-08  6.32595053e-01  3.04322298e-08  1.79825224e+00  3.04322298e-08  1.80000000e+00  3.04322298e-08 -5.63402174e-03  3.04322298e-08  6.32595053e-01                                 
 3.62327971e-08  6.75054326e-01  3.62327971e-08  6.28635345e-01  3.62327971e-08  1.79045533e+00  3.62327971e-08  1.80000000e+00  3.62327971e-08  5.63732370e-03  3.62327971e-08  6.28635345e-01                                 
 4.47574923e-08  6.69591269e-01  4.47574923e-08  6.23375852e-01  4.47574923e-08  1.78079281e+00  4.47574923e-08  1.80000000e+00  4.47574923e-08 -5.60405479e-03  4.47574923e-08  6.23375852e-01                                 
 5.59802904e-08  6.63357674e-01  5.59802904e-08  6.17408917e-01  5.59802904e-08  1.77199155e+00  5.59802904e-08  1.80000000e+00  5.59802904e-08  5.61681622e-03  5.59802904e-08  6.17408917e-01                                 
 6.84237386e-08  6.57280786e-01  6.84237386e-08  6.11643154e-01  6.84237386e-08  1.76025787e+00  6.84237386e-08  1.80000000e+00  6.84237386e-08 -5.58693103e-03  6.84237386e-08  6.11643154e-01                                 
 8.12862593e-08  6.49973054e-01  8.12862593e-08  6.05026703e-01  8.12862593e-08  1.73677062e+00  8.12862593e-08  1.80000000e+00  8.12862593e-08  5.59971576e-03  8.12862593e-08  6.05026703e-01                                 
 9.80277462e-08  6.42255701e-01  9.80277462e-08  5.98005542e-01  9.80277462e-08  1.70568227e+00  9.80277462e-08  1.80000000e+00  9.80277462e-08 -5.57283046e-03  9.80277462e-08  5.98005542e-01                                 
 1.15516748e-07  6.35267676e-01  1.15516748e-07  5.91677099e-01  1.15516748e-07  1.67699069e+00  1.15516748e-07  1.80000000e+00  1.15516748e-07  5.58833407e-03  1.15516748e-07  5.91677099e-01                                 
 1.43331672e-07  6.28138554e-01  1.43331672e-07  5.84983104e-01  1.43331672e-07  1.63664878e+00  1.43331672e-07  1.80000000e+00  1.43331672e-07 -5.56301945e-03  1.43331672e-07  5.84983104e-01                                 
 1.76711421e-07  6.33322248e-01  1.76711421e-07  5.88016346e-01  1.76711421e-07  1.63351865e+00  1.76711421e-07  1.80000000e+00  1.76711421e-07  5.58404457e-03  1.76711421e-07  5.88016346e-01                                 
 2.00080151e-07  6.31473627e-01  2.00080151e-07  5.85886313e-01  2.00080151e-07  1.60982040e+00  2.00080151e-07  1.80000000e+00  2.00080151e-07 -5.55732097e-03  2.00080151e-07  5.85886313e-01                                 
 2.22446606e-07  6.22945329e-01  2.22446606e-07  5.78569086e-01  2.22446606e-07  1.58108743e+00  2.22446606e-07  1.80000000e+00  2.22446606e-07  5.57444560e-03  2.22446606e-07  5.78569086e-01                                 
 2.43339287e-07  6.18429971e-01  2.43339287e-07  5.74524583e-01  2.43339287e-07  1.55277644e+00  2.43339287e-07  1.80000000e+00  2.43339287e-07 -5.54790368e-03  2.43339287e-07  5.74524583e-01                                 
 2.65469198e-07  6.13225233e-01  2.65469198e-07  5.69955655e-01  2.65469198e-07  1.52817839e+00  2.65469198e-07  1.80000000e+00  2.65469198e-07  5.56544847e-03  2.65469198e-07  5.69955655e-01                                 
 2.99548359e-07  6.04543566e-01  2.99548359e-07  5.62480727e-01  2.99548359e-07  1.48307958e+00  2.99548359e-07  1.80000000e+00  2.99548359e-07 -5.54073717e-03  2.99548359e-07  5.62480727e-01                                 
 3.45302169e-07  5.94042330e-01  3.45302169e-07  5.53502395e-01  3.45302169e-07  1.42978157e+00  3.45302169e-07  1.80000000e+00  3.45302169e-07  5.56063537e-03  3.45302169e-07  5.53502395e-01                                 
 4.20800070e-07  5.71209044e-01  4.20800070e-07  5.34615847e-01  4.20800070e-07  1.32911354e+00  4.20800070e-07  1.80000000e+00  4.20800070e-07 -5.53773539e-03  4.20800070e-07  5.34615847e-01                                 
 5.00657321e-07  5.48491897e-01  5.00657321e-07  5.16080209e-01  5.00657321e-07  1.22949548e+00  5.00657321e-07  1.80000000e+00  5.00657321e-07  5.55827725e-03  5.00657321e-07  5.16080209e-01                                 
 5.93810030e-07  5.10948256e-01  5.93810030e-07  4.85914911e-01  5.93810030e-07  1.09244508e+00  5.93810030e-07  1.80000000e+00  5.93810030e-07 -5.53586230e-03  5.93810030e-07  4.85914911e-01                                 
 6.09060628e-07  5.04675916e-01  6.09060628e-07  4.80899724e-01  6.09060628e-07  1.07236458e+00  6.09060628e-07  1.80000000e+00  6.09060628e-07 -2.44521182e-06  6.09060628e-07  4.80899724e-01                                 
 6.39561825e-07  4.98212123e-01  6.39561825e-07  4.75738719e-01  6.39561825e-07  1.03374250e+00  6.39561825e-07  1.80000000e+00  6.39561825e-07  1.04120369e-06  6.39561825e-07  4.75738719e-01                                 
 7.00564219e-07  7.43415014e-01  7.00564219e-07  6.89978040e-01  7.00564219e-07  1.20959960e+00  7.00564219e-07  1.80000000e+00  7.00564219e-07  1.16299063e-05  7.00564219e-07  6.89978040e-01                                 
 7.56807107e-07  8.20253636e-01  7.56807107e-07  7.65631401e-01  7.56807107e-07  1.23113144e+00  7.56807107e-07  1.80000000e+00  7.56807107e-07 -6.61313545e-06  7.56807107e-07  7.65631401e-01                                 
 8.19989365e-07  8.54979763e-01  8.19989365e-07  7.94417665e-01  8.19989365e-07  1.19289091e+00  8.19989365e-07  1.80000000e+00  8.19989365e-07  7.84185502e-06  8.19989365e-07  7.94417665e-01                                 
 8.61674694e-07  8.93022551e-01  8.61674694e-07  8.20933973e-01  8.61674694e-07  1.19222865e+00  8.61674694e-07  1.80000000e+00  8.61674694e-07 -5.07126334e-06  8.61674694e-07  8.20933973e-01                                 
 9.02125302e-07  9.04898357e-01  9.02125302e-07  8.28538741e-01  9.02125302e-07  1.15552150e+00  9.02125302e-07  1.80000000e+00  9.02125302e-07  5.05307955e-06  9.02125302e-07  8.28538741e-01                                 
 9.47058137e-07  8.83616337e-01  9.47058137e-07  8.15026283e-01  9.47058137e-07  1.09777753e+00  9.47058137e-07  1.80000000e+00  9.47058137e-07 -7.21867118e-06  9.47058137e-07  8.15026283e-01                                 
 9.76023941e-07  8.75876004e-01  9.76023941e-07  8.09645968e-01  9.76023941e-07  1.05338480e+00  9.76023941e-07  1.80000000e+00  9.76023941e-07  5.11842064e-06  9.76023941e-07  8.09645968e-01                                 
 1.00844582e-06  8.49043013e-01  1.00844582e-06  7.90092634e-01  1.00844582e-06  9.99753955e-01  1.00844582e-06  1.80000000e+00  1.00844582e-06 -8.67020805e-06  1.00844582e-06  7.90092634e-01                                 
 1.04250287e-06  8.19877660e-01  1.04250287e-06  7.65044390e-01  1.04250287e-06  9.36930038e-01  1.04250287e-06  1.80000000e+00  1.04250287e-06  4.51284403e-06  1.04250287e-06  7.65044390e-01                                 
 1.07410919e-06  8.15216696e-01  1.07410919e-06  7.61454511e-01  1.07410919e-06  9.09856182e-01  1.07410919e-06  1.80000000e+00  1.07410919e-06 -5.40974625e-06  1.07410919e-06  7.61454511e-01                                 
 1.10635368e-06  8.10505665e-01  1.10635368e-06  7.56542627e-01  1.10635368e-06  8.79772495e-01  1.10635368e-06  1.80000000e+00  1.10635368e-06  4.27829352e-06  1.10635368e-06  7.56542627e-01                                 
 1.14404760e-06  8.24393445e-01  1.14404760e-06  7.69477590e-01  1.14404760e-06  8.66267301e-01  1.14404760e-06  1.80000000e+00  1.14404760e-06 -3.13803340e-06  1.14404760e-06  7.69477590e-01                                 
 1.18580384e-06  8.20270271e-01  1.18580384e-06  7.65516297e-01  1.18580384e-06  8.36185314e-01  1.18580384e-06  1.80000000e+00  1.18580384e-06  2.41665824e-06  1.18580384e-06  7.65516297e-01                                 
 1.22875989e-06  8.16760392e-01  1.22875989e-06  7.62711230e-01  1.22875989e-06  8.12728039e-01  1.22875989e-06  1.80000000e+00  1.22875989e-06 -2.84595060e-06  1.22875989e-06  7.62711230e-01                                 
 1.29003153e-06  8.16653135e-01  1.29003153e-06  7.62271338e-01  1.29003153e-06  7.89888948e-01  1.29003153e-06  1.80000000e+00  1.29003153e-06  2.72522917e-06  1.29003153e-06  7.62271338e-01                                 
 1.40272719e-06  8.21555573e-01  1.40272719e-06  7.66955311e-01  1.40272719e-06  7.72051283e-01  1.40272719e-06  1.80000000e+00  1.40272719e-06 -2.50596426e-06  1.40272719e-06  7.66955311e-01                                 
 1.52146613e-06  8.15085505e-01  1.52146613e-06  7.60869049e-01  1.52146613e-06  7.53684631e-01  1.52146613e-06  1.80000000e+00  1.52146613e-06  2.38317152e-06  1.52146613e-06  7.60869049e-01                                 
 1.54198144e-06  8.17304555e-01  1.54198144e-06  7.63015124e-01  1.54198144e-06  7.55142564e-01  1.54198144e-06  1.80000000e+00  1.54198144e-06  2.98376883e-07  1.54198144e-06  7.63015124e-01                                 
 1.58301206e-06  8.19288042e-01  1.58301206e-06  7.64805450e-01  1.58301206e-06  7.55171971e-01  1.58301206e-06  1.80000000e+00  1.58301206e-06  2.27549311e-08  1.58301206e-06  7.64805450e-01                                 
 1.66507330e-06  8.18806350e-01  1.66507330e-06  7.64367747e-01  1.66507330e-06  7.53093721e-01  1.66507330e-06  1.80000000e+00  1.66507330e-06  1.06623457e-07  1.66507330e-06  7.64367747e-01                                 
 1.79635803e-06  8.17876191e-01  1.79635803e-06  7.63542909e-01  1.79635803e-06  7.64036734e-01  1.79635803e-06  1.80000000e+00  1.79635803e-06  8.98198943e-08  1.79635803e-06  7.63542909e-01                                 
 1.91563521e-06  8.19329277e-01  1.91563521e-06  7.64832717e-01  1.91563521e-06  7.67185855e-01  1.91563521e-06  1.80000000e+00  1.91563521e-06  1.22027654e-07  1.91563521e-06  7.64832717e-01                                 
 2.05192131e-06  8.17953354e-01  2.05192131e-06  7.63614431e-01  2.05192131e-06  7.61800855e-01  2.05192131e-06  1.80000000e+00  2.05192131e-06 -1.31998496e-08  2.05192131e-06  7.63614431e-01                                 
 2.21410082e-06  8.18866905e-01  2.21410082e-06  7.64418260e-01  2.21410082e-06  7.65271324e-01  2.21410082e-06  1.80000000e+00  2.21410082e-06  2.06875032e-07  2.21410082e-06  7.64418260e-01                                 
 2.38067008e-06  8.18517897e-01  2.38067008e-06  7.64120481e-01  2.38067008e-06  7.63913643e-01  2.38067008e-06  1.80000000e+00  2.38067008e-06 -5.57108129e-08  2.38067008e-06  7.64120481e-01                                 
 2.60775340e-06  8.18389829e-01  2.60775340e-06  7.63991582e-01  2.60775340e-06  7.64171449e-01  2.60775340e-06  1.80000000e+00  2.60775340e-06  2.17651392e-07  2.60775340e-06  7.63991582e-01                                 
 2.97162698e-06  8.18805420e-01  2.97162698e-06  7.64377183e-01  2.97162698e-06  7.64383788e-01  2.97162698e-06  1.80000000e+00  2.97162698e-06 -5.07348798e-08  2.97162698e-06  7.64377183e-01                                 
 3.69937414e-06  8.18250307e-01  3.69937414e-06  7.63866964e-01  3.69937414e-06  7.63982758e-01  3.69937414e-06  1.80000000e+00  3.69937414e-06  2.10922473e-07  3.69937414e-06  7.63866964e-01                                 
 4.69937414e-06  8.18873213e-01  4.69937414e-06  7.64437551e-01  4.69937414e-06  7.64466494e-01  4.69937414e-06  1.80000000e+00  4.69937414e-06 -4.56924630e-08  4.69937414e-06  7.64437551e-01                                 
 5.69937414e-06  8.18199521e-01  5.69937414e-06  7.63821663e-01  5.69937414e-06  7.63923893e-01  5.69937414e-06  1.80000000e+00  5.69937414e-06  2.06161758e-07  5.69937414e-06  7.63821663e-01                                 
 6.69937414e-06  8.18917697e-01  6.69937414e-06  7.64477093e-01  6.69937414e-06  7.64515944e-01  6.69937414e-06  1.80000000e+00  6.69937414e-06 -4.05571661e-08  6.69937414e-06  7.64477093e-01                                 
 7.69937414e-06  8.18160652e-01  7.69937414e-06  7.63787052e-01  7.69937414e-06  7.63882323e-01  7.69937414e-06  1.80000000e+00  7.69937414e-06  2.00701142e-07  7.69937414e-06  7.63787052e-01                                 
 8.69937414e-06  8.18950047e-01  8.69937414e-06  7.64505779e-01  8.69937414e-06  7.64549087e-01  8.69937414e-06  1.80000000e+00  8.69937414e-06 -3.48205218e-08  8.69937414e-06  7.64505779e-01                                 
 9.69937414e-06  8.18133936e-01  9.69937414e-06  7.63763339e-01  9.69937414e-06  7.63856055e-01  9.69937414e-06  1.80000000e+00  9.69937414e-06  1.94737278e-07  9.69937414e-06  7.63763339e-01                                 
 1.00005000e-05  8.18979607e-01  1.00005000e-05  7.64531696e-01  1.00005000e-05  7.64574718e-01  1.00005000e-05  1.80000000e+00  1.00005000e-05 -2.13468097e-08  1.00005000e-05  7.64531696e-01                                 
 1.00005500e-05  8.18977275e-01  1.00005500e-05  7.64529408e-01  1.00005500e-05  7.57690220e-01  1.00005500e-05  1.62000000e+00  1.00005500e-05 -1.04264010e-04  1.00005500e-05  7.64529408e-01                                 
 1.00006500e-05  8.18973043e-01  1.00006500e-05  7.64525137e-01  1.00006500e-05  7.48292289e-01  1.00006500e-05  1.26000000e+00  1.00006500e-05 -4.79904277e-05  1.00006500e-05  7.64525137e-01                                 
 1.00008500e-05  8.18966022e-01  1.00008500e-05  7.64517972e-01  1.00008500e-05  7.48525684e-01  1.00008500e-05  5.40000000e-01  1.00008500e-05 -7.54409271e-04  1.00008500e-05  7.64517972e-01                                 
