 time            v(vbep)         time            v(vben)         time            v(vout)         time            v(vphi1)        time            v(vphi2)        time            v(vref)         time            v(voutc)        time            v(voutcc)       yes             currtemp       
 0.00000000e+00  6.77629034e-01  0.00000000e+00  6.05632136e-01  0.00000000e+00  1.39183691e+00  0.00000000e+00  0.00000000e+00  0.00000000e+00  1.79999998e+00  0.00000000e+00  6.04713600e-01  0.00000000e+00  1.39183690e+00  0.00000000e+00  1.40015634e+00  1.00000000e+00  9.00000000e+01 
 1.00000000e-11  6.77654324e-01  1.00000000e-11  6.05704623e-01  1.00000000e-11  1.39256567e+00  1.00000000e-11  1.80000000e-02  1.00000000e-11  1.80024740e+00  1.00000000e-11  6.05229196e-01  1.00000000e-11  1.39228991e+00  1.00000000e-11  1.40016852e+00                                 
 2.00000000e-11  6.77661023e-01  2.00000000e-11  6.05748603e-01  2.00000000e-11  1.39299411e+00  2.00000000e-11  3.60000000e-02  2.00000000e-11  1.80034196e+00  2.00000000e-11  6.05607584e-01  2.00000000e-11  1.39262622e+00  2.00000000e-11  1.40017250e+00                                 
 4.00000000e-11  6.77660751e-01  4.00000000e-11  6.05805001e-01  4.00000000e-11  1.39348394e+00  4.00000000e-11  7.20000000e-02  4.00000000e-11  1.80037196e+00  4.00000000e-11  6.06156251e-01  4.00000000e-11  1.39311898e+00  4.00000000e-11  1.40017283e+00                                 
 8.00000000e-11  6.77648993e-01  8.00000000e-11  6.05837742e-01  8.00000000e-11  1.39352086e+00  8.00000000e-11  1.44000000e-01  8.00000000e-11  1.80016739e+00  8.00000000e-11  6.06575187e-01  8.00000000e-11  1.39349978e+00  8.00000000e-11  1.40016276e+00                                 
 1.60000000e-10  6.77646258e-01  1.60000000e-10  6.05843676e-01  1.60000000e-10  1.39319407e+00  1.60000000e-10  2.88000000e-01  1.60000000e-10  1.80000391e+00  1.60000000e-10  6.06665842e-01  1.60000000e-10  1.39353302e+00  1.60000000e-10  1.40015417e+00                                 
 3.20000000e-10  6.77640880e-01  3.20000000e-10  6.05830631e-01  3.20000000e-10  1.39284405e+00  3.20000000e-10  5.76000000e-01  3.20000000e-10  1.79998328e+00  3.20000000e-10  6.06523971e-01  3.20000000e-10  1.39321488e+00  3.20000000e-10  1.40014902e+00                                 
 6.40000000e-10  6.77560017e-01  6.40000000e-10  6.05335417e-01  6.40000000e-10  1.39115702e+00  6.40000000e-10  1.15200000e+00  6.40000000e-10  1.80683925e+00  6.40000000e-10  6.02933049e-01  6.40000000e-10  1.39509364e+00  6.40000000e-10  1.40016578e+00                                 
 1.00000000e-09  6.78099623e-01  1.00000000e-09  6.05879027e-01  1.00000000e-09  1.37303528e+00  1.00000000e-09  1.80000000e+00  1.00000000e-09  1.17730035e-01  1.00000000e-09  6.18407027e-01  1.00000000e-09  1.40213312e+00  1.00000000e-09  1.40019472e+00                                 
 1.03834739e-09  6.78187181e-01  1.03834739e-09  6.05848607e-01  1.03834739e-09  1.37108918e+00  1.03834739e-09  1.80000000e+00  1.03834739e-09  2.91409647e-02  1.03834739e-09  6.20895218e-01  1.03834739e-09  1.40326107e+00  1.03834739e-09  1.40019907e+00                                 
 1.11504218e-09  6.78376184e-01  1.11504218e-09  6.05834831e-01  1.11504218e-09  1.36884517e+00  1.11504218e-09  1.80000000e+00  1.11504218e-09 -1.29431873e-02  1.11504218e-09  6.23773384e-01  1.11504218e-09  1.40539860e+00  1.11504218e-09  1.40020360e+00                                 
 1.26843176e-09  6.78486327e-01  1.26843176e-09  6.05667692e-01  1.26843176e-09  1.36577721e+00  1.26843176e-09  1.80000000e+00  1.26843176e-09  9.91895614e-03  1.26843176e-09  6.22702909e-01  1.26843176e-09  1.40478694e+00  1.26843176e-09  1.40016996e+00                                 
 1.46426770e-09  6.78421138e-01  1.46426770e-09  6.05663515e-01  1.46426770e-09  1.36474963e+00  1.46426770e-09  1.80000000e+00  1.46426770e-09 -7.60361978e-03  1.46426770e-09  6.21392450e-01  1.46426770e-09  1.40343245e+00  1.46426770e-09  1.40021944e+00                                 
 1.67709987e-09  6.78286286e-01  1.67709987e-09  6.05662178e-01  1.67709987e-09  1.36430872e+00  1.67709987e-09  1.80000000e+00  1.67709987e-09  6.14864946e-03  1.67709987e-09  6.19666898e-01  1.67709987e-09  1.40215592e+00  1.67709987e-09  1.40027064e+00                                 
 2.08319858e-09  6.77994701e-01  2.08319858e-09  6.05630886e-01  2.08319858e-09  1.36317148e+00  2.08319858e-09  1.80000000e+00  2.08319858e-09 -5.50540784e-03  2.08319858e-09  6.16690572e-01  2.08319858e-09  1.39944244e+00  2.08319858e-09  1.40043145e+00                                 
 2.71612214e-09  6.77712112e-01  2.71612214e-09  6.05643266e-01  2.71612214e-09  1.36109737e+00  2.71612214e-09  1.80000000e+00  2.71612214e-09  5.09311767e-03  2.71612214e-09  6.13120510e-01  2.71612214e-09  1.39654812e+00  2.71612214e-09  1.40065884e+00                                 
 3.93457142e-09  6.77464468e-01  3.93457142e-09  6.05603480e-01  3.93457142e-09  1.35502789e+00  3.93457142e-09  1.80000000e+00  3.93457142e-09 -4.92679109e-03  3.93457142e-09  6.08096880e-01  3.93457142e-09  1.39211482e+00  3.93457142e-09  1.40096492e+00                                 
 5.28840628e-09  6.77429180e-01  5.28840628e-09  6.05626306e-01  5.28840628e-09  1.34753543e+00  5.28840628e-09  1.80000000e+00  5.28840628e-09  4.75729878e-03  5.28840628e-09  6.05382023e-01  5.28840628e-09  1.38994934e+00  5.28840628e-09  1.40104073e+00                                 
 6.43954741e-09  6.77432618e-01  6.43954741e-09  6.05599638e-01  6.43954741e-09  1.33993763e+00  6.43954741e-09  1.80000000e+00  6.43954741e-09 -4.57336762e-03  6.43954741e-09  6.03965569e-01  6.43954741e-09  1.38860605e+00  6.43954741e-09  1.40095816e+00                                 
 7.76087270e-09  6.77482496e-01  7.76087270e-09  6.05632125e-01  7.76087270e-09  1.33064735e+00  7.76087270e-09  1.80000000e+00  7.76087270e-09  4.42612468e-03  7.76087270e-09  6.03473089e-01  7.76087270e-09  1.38831981e+00  7.76087270e-09  1.40076484e+00                                 
 9.23152223e-09  6.77515871e-01  9.23152223e-09  6.05607520e-01  9.23152223e-09  1.31875395e+00  9.23152223e-09  1.80000000e+00  9.23152223e-09 -4.28390881e-03  9.23152223e-09  6.02970052e-01  9.23152223e-09  1.38775428e+00  9.23152223e-09  1.40050789e+00                                 
 1.12678444e-08  6.77579188e-01  1.12678444e-08  6.05641672e-01  1.12678444e-08  1.30157259e+00  1.12678444e-08  1.80000000e+00  1.12678444e-08  4.20289087e-03  1.12678444e-08  6.03134946e-01  1.12678444e-08  1.38800934e+00  1.12678444e-08  1.40013311e+00                                 
 1.37102205e-08  6.77605340e-01  1.37102205e-08  6.05615168e-01  1.37102205e-08  1.27932680e+00  1.37102205e-08  1.80000000e+00  1.37102205e-08 -4.11247395e-03  1.37102205e-08  6.03060972e-01  1.37102205e-08  1.38780373e+00  1.37102205e-08  1.39971842e+00                                 
 1.72456392e-08  6.77642129e-01  1.72456392e-08  6.05646937e-01  1.72456392e-08  1.24665888e+00  1.72456392e-08  1.80000000e+00  1.72456392e-08  4.07641702e-03  1.72456392e-08  6.03555127e-01  1.72456392e-08  1.38832649e+00  1.72456392e-08  1.39920639e+00                                 
 2.21389855e-08  6.77636825e-01  2.21389855e-08  6.05617804e-01  2.21389855e-08  1.20027943e+00  2.21389855e-08  1.80000000e+00  2.21389855e-08 -4.02325142e-03  2.21389855e-08  6.03661576e-01  2.21389855e-08  1.38827310e+00  2.21389855e-08  1.39867050e+00                                 
 3.00581927e-08  6.77645175e-01  3.00581927e-08  6.05647903e-01  3.00581927e-08  1.12590702e+00  3.00581927e-08  1.80000000e+00  3.00581927e-08  4.01721621e-03  3.00581927e-08  6.04255663e-01  3.00581927e-08  1.38888116e+00  3.00581927e-08  1.39810609e+00                                 
 4.14178051e-08  6.77626635e-01  4.14178051e-08  6.05617414e-01  4.14178051e-08  1.01989878e+00  4.14178051e-08  1.80000000e+00  4.14178051e-08 -3.98460853e-03  4.14178051e-08  6.04324913e-01  4.14178051e-08  1.38880805e+00  4.14178051e-08  1.39770319e+00                                 
 6.33174251e-08  6.77634606e-01  6.33174251e-08  6.05647199e-01  6.33174251e-08  8.21746448e-01  6.33174251e-08  1.80000000e+00  6.33174251e-08  3.99524206e-03  6.33174251e-08  6.04765910e-01  6.33174251e-08  1.38930077e+00  6.33174251e-08  1.39747395e+00                                 
 8.71376833e-08  6.77628201e-01  8.71376833e-08  6.05617372e-01  8.71376833e-08  6.57725141e-01  8.71376833e-08  1.80000000e+00  8.71376833e-08 -3.96139533e-03  8.71376833e-08  6.04592844e-01  8.71376833e-08  1.38903363e+00  8.71376833e-08  1.39748386e+00                                 
 1.06649475e-07  6.77631233e-01  1.06649475e-07  6.05647394e-01  1.06649475e-07  6.13093594e-01  1.06649475e-07  1.80000000e+00  1.06649475e-07  3.98849743e-03  1.06649475e-07  6.04836871e-01  1.06649475e-07  1.38936211e+00  1.06649475e-07  1.39750531e+00                                 
 1.25326838e-07  6.77622757e-01  1.25326838e-07  6.05616534e-01  1.25326838e-07  6.06739960e-01  1.25326838e-07  1.80000000e+00  1.25326838e-07 -3.94059264e-03  1.25326838e-07  6.04598410e-01  1.25326838e-07  1.38903852e+00  1.25326838e-07  1.39751703e+00                                 
 1.44218798e-07  6.77634391e-01  1.44218798e-07  6.05647672e-01  1.44218798e-07  6.04020034e-01  1.44218798e-07  1.80000000e+00  1.44218798e-07  3.97060653e-03  1.44218798e-07  6.04830591e-01  1.44218798e-07  1.38935564e+00  1.44218798e-07  1.39751791e+00                                 
 1.62739797e-07  6.77623478e-01  1.62739797e-07  6.05616588e-01  1.62739797e-07  6.04302271e-01  1.62739797e-07  1.80000000e+00  1.62739797e-07 -3.92219791e-03  1.62739797e-07  6.04597820e-01  1.62739797e-07  1.38903711e+00  1.62739797e-07  1.39751930e+00                                 
 1.99781795e-07  6.77634452e-01  1.99781795e-07  6.05647650e-01  1.99781795e-07  6.03559708e-01  1.99781795e-07  1.80000000e+00  1.99781795e-07  3.95672059e-03  1.99781795e-07  6.04829481e-01  1.99781795e-07  1.38935271e+00  1.99781795e-07  1.39751715e+00                                 
 2.58526891e-07  6.77623672e-01  2.58526891e-07  6.05616622e-01  2.58526891e-07  6.04091229e-01  2.58526891e-07  1.80000000e+00  2.58526891e-07 -3.91470037e-03  2.58526891e-07  6.04597698e-01  2.58526891e-07  1.38903403e+00  2.58526891e-07  1.39751620e+00                                 
 3.53252512e-07  6.77634363e-01  3.53252512e-07  6.05647633e-01  3.53252512e-07  6.03595524e-01  3.53252512e-07  1.80000000e+00  3.53252512e-07  3.95199700e-03  3.53252512e-07  6.04829463e-01  3.53252512e-07  1.38934768e+00  3.53252512e-07  1.39751217e+00                                 
 5.24657745e-07  6.77623722e-01  5.24657745e-07  6.05616632e-01  5.24657745e-07  6.04066753e-01  5.24657745e-07  1.80000000e+00  5.24657745e-07 -3.91191671e-03  5.24657745e-07  6.04597701e-01  5.24657745e-07  1.38902550e+00  5.24657745e-07  1.39750763e+00                                 
 8.10650599e-07  6.77634335e-01  8.10650599e-07  6.05647628e-01  8.10650599e-07  6.03604312e-01  8.10650599e-07  1.80000000e+00  8.10650599e-07  3.95040092e-03  8.10650599e-07  6.04829464e-01  8.10650599e-07  1.38933292e+00  8.10650599e-07  1.39749746e+00                                 
 1.38263631e-06  6.77623737e-01  1.38263631e-06  6.05616634e-01  1.38263631e-06  6.04059742e-01  1.38263631e-06  1.80000000e+00  1.38263631e-06 -3.91102662e-03  1.38263631e-06  6.04597700e-01  1.38263631e-06  1.38899787e+00  1.38263631e-06  1.39748002e+00                                 
 2.52660772e-06  6.77634328e-01  2.52660772e-06  6.05647627e-01  2.52660772e-06  6.03606573e-01  2.52660772e-06  1.80000000e+00  2.52660772e-06  3.94995252e-03  2.52660772e-06  6.04829465e-01  2.52660772e-06  1.38927763e+00  2.52660772e-06  1.39744224e+00                                 
 3.72660772e-06  6.77623742e-01  3.72660772e-06  6.05616635e-01  3.72660772e-06  6.04056377e-01  3.72660772e-06  1.80000000e+00  3.72660772e-06 -3.91073230e-03  3.72660772e-06  6.04597699e-01  3.72660772e-06  1.38892237e+00  3.72660772e-06  1.39740460e+00                                 
 4.92660772e-06  6.77634323e-01  4.92660772e-06  6.05647626e-01  4.92660772e-06  6.03608216e-01  4.92660772e-06  1.80000000e+00  4.92660772e-06  3.94966758e-03  4.92660772e-06  6.04829465e-01  4.92660772e-06  1.38920037e+00  4.92660772e-06  1.39736508e+00                                 
 6.00100000e-06  6.77623747e-01  6.00100000e-06  6.05616637e-01  6.00100000e-06  6.04054397e-01  6.00100000e-06  1.80000000e+00  6.00100000e-06 -3.91043435e-03  6.00100000e-06  6.04597698e-01  6.00100000e-06  1.38884916e+00  6.00100000e-06  1.39733147e+00                                 
 6.00110000e-06  6.77578374e-01  6.00110000e-06  6.05394707e-01  6.00110000e-06  6.02423027e-01  6.00110000e-06  1.62000000e+00  6.00110000e-06 -4.66929915e-04  6.00110000e-06  6.03216178e-01  6.00110000e-06  1.38772285e+00  6.00110000e-06  1.39732232e+00                                 
 6.00130000e-06  6.77612646e-01  6.00130000e-06  6.05387024e-01  6.00130000e-06  6.02259918e-01  6.00130000e-06  1.26000000e+00  6.00130000e-06  3.05928597e-04  6.00130000e-06  6.02849280e-01  6.00130000e-06  1.38742205e+00  6.00130000e-06  1.39733427e+00                                 
 6.00164365e-06  6.77681820e-01  6.00164365e-06  6.05599586e-01  6.00164365e-06  6.04267859e-01  6.00164365e-06  6.41427823e-01  6.00164365e-06  9.37982581e-03  6.00164365e-06  6.03217934e-01  6.00164365e-06  1.38456645e+00  6.00164365e-06  1.39731406e+00                                 
 6.00200000e-06  6.77611117e-01  6.00200000e-06  6.04339821e-01  6.00200000e-06  6.35852624e-01  6.00200000e-06  0.00000000e+00  6.00200000e-06  1.61005750e+00  6.00200000e-06  5.90053197e-01  6.00200000e-06  1.17708416e+00  6.00200000e-06  1.39674146e+00                                 
 6.00204669e-06  6.77628009e-01  6.00204669e-06  6.03667060e-01  6.00204669e-06  6.44523498e-01  6.00204669e-06  0.00000000e+00  6.00204669e-06  1.73131045e+00  6.00204669e-06  5.82430746e-01  6.00204669e-06  1.10077288e+00  6.00204669e-06  1.39672896e+00                                 
 6.00214007e-06  6.77631305e-01  6.00214007e-06  6.02689587e-01  6.00214007e-06  6.50344780e-01  6.00214007e-06  0.00000000e+00  6.00214007e-06  1.81521585e+00  6.00214007e-06  5.71434871e-01  6.00214007e-06  9.49366826e-01  6.00214007e-06  1.39716429e+00                                 
 6.00232682e-06  6.77626920e-01  6.00232682e-06  6.03073712e-01  6.00232682e-06  6.34864327e-01  6.00232682e-06  0.00000000e+00  6.00232682e-06  1.78749173e+00  6.00232682e-06  5.75979650e-01  6.00232682e-06  7.40244638e-01  6.00232682e-06  1.39769157e+00                                 
 6.00251188e-06  6.77629553e-01  6.00251188e-06  6.04319637e-01  6.00251188e-06  6.19502478e-01  6.00251188e-06  0.00000000e+00  6.00251188e-06  1.80608512e+00  6.00251188e-06  5.89318937e-01  6.00251188e-06  6.54504020e-01  6.00251188e-06  1.39772361e+00                                 
 6.00265910e-06  6.77626780e-01  6.00265910e-06  6.04992350e-01  6.00265910e-06  6.11838424e-01  6.00265910e-06  0.00000000e+00  6.00265910e-06  1.79684899e+00  6.00265910e-06  5.95681898e-01  6.00265910e-06  6.26668550e-01  6.00265910e-06  1.39760387e+00                                 
 6.00286122e-06  6.77629379e-01  6.00286122e-06  6.05638568e-01  6.00286122e-06  6.07169276e-01  6.00286122e-06  0.00000000e+00  6.00286122e-06  1.80201948e+00  6.00286122e-06  6.01727295e-01  6.00286122e-06  6.12546931e-01  6.00286122e-06  1.39670739e+00                                 
 6.00306537e-06  6.77627325e-01  6.00306537e-06  6.05874416e-01  6.00306537e-06  6.05474671e-01  6.00306537e-06  0.00000000e+00  6.00306537e-06  1.79884035e+00  6.00306537e-06  6.03553688e-01  6.00306537e-06  6.07073109e-01  6.00306537e-06  1.39561724e+00                                 
 6.00338584e-06  6.77629560e-01  6.00338584e-06  6.06063748e-01  6.00338584e-06  6.05122963e-01  6.00338584e-06  0.00000000e+00  6.00338584e-06  1.80090815e+00  6.00338584e-06  6.05354134e-01  6.00338584e-06  6.05509944e-01  6.00338584e-06  1.39343250e+00                                 
 6.00380307e-06  6.77627865e-01  6.00380307e-06  6.06054559e-01  6.00380307e-06  6.05957727e-01  6.00380307e-06  0.00000000e+00  6.00380307e-06  1.79931277e+00  6.00380307e-06  6.05449843e-01  6.00380307e-06  6.05598334e-01  6.00380307e-06  1.39042364e+00                                 
 6.00455041e-06  6.77629809e-01  6.00455041e-06  6.06035694e-01  6.00455041e-06  6.08015112e-01  6.00455041e-06  0.00000000e+00  6.00455041e-06  1.80062968e+00  6.00455041e-06  6.05955272e-01  6.00455041e-06  6.07911834e-01  6.00455041e-06  1.38454158e+00                                 
 6.00572437e-06  6.77628138e-01  6.00572437e-06  6.05929889e-01  6.00572437e-06  6.11585534e-01  6.00572437e-06  0.00000000e+00  6.00572437e-06  1.79944659e+00  6.00572437e-06  6.05725949e-01  6.00572437e-06  6.11135186e-01  6.00572437e-06  1.37486228e+00                                 
 6.00807230e-06  6.77629863e-01  6.00807230e-06  6.05807138e-01  6.00807230e-06  6.18712267e-01  6.00807230e-06  0.00000000e+00  6.00807230e-06  1.80055611e+00  6.00807230e-06  6.05928736e-01  6.00807230e-06  6.18561997e-01  6.00807230e-06  1.35439067e+00                                 
 6.01276816e-06  6.77628182e-01  6.01276816e-06  6.05630775e-01  6.01276816e-06  6.32803355e-01  6.01276816e-06  0.00000000e+00  6.01276816e-06  1.79948006e+00  6.01276816e-06  6.05417570e-01  6.01276816e-06  6.32312114e-01  6.01276816e-06  1.31233172e+00                                 
 6.02029453e-06  6.77629866e-01  6.02029453e-06  6.05624633e-01  6.02029453e-06  6.54627516e-01  6.02029453e-06  0.00000000e+00  6.02029453e-06  1.80053738e+00  6.02029453e-06  6.05375801e-01  6.02029453e-06  6.54439282e-01  6.02029453e-06  1.24365712e+00                                 
 6.03534727e-06  6.77628193e-01  6.03534727e-06  6.05616253e-01  6.03534727e-06  6.96117340e-01  6.03534727e-06  0.00000000e+00  6.03534727e-06  1.79948918e+00  6.03534727e-06  6.04760811e-01  6.03534727e-06  6.95535486e-01  6.03534727e-06  1.10547063e+00                                 
 6.04944375e-06  6.77629870e-01  6.04944375e-06  6.05640242e-01  6.04944375e-06  7.32242066e-01  6.04944375e-06  0.00000000e+00  6.04944375e-06  1.80052883e+00  6.04944375e-06  6.04911791e-01  6.04944375e-06  7.32035564e-01  6.04944375e-06  9.86532897e-01                                 
 6.06852374e-06  6.77628198e-01  6.06852374e-06  6.05620886e-01  6.06852374e-06  7.77406382e-01  6.06852374e-06  0.00000000e+00  6.06852374e-06  1.79949347e+00  6.06852374e-06  6.04587006e-01  6.06852374e-06  7.76651954e-01  6.06852374e-06  8.65039272e-01                                 
 6.09795990e-06  6.77629868e-01  6.09795990e-06  6.05642968e-01  6.09795990e-06  8.39018864e-01  6.09795990e-06  0.00000000e+00  6.09795990e-06  1.80052194e+00  6.09795990e-06  6.04838945e-01  6.09795990e-06  8.38896038e-01  6.09795990e-06  8.16257216e-01                                 
 6.11565725e-06  6.77628200e-01  6.11565725e-06  6.05621113e-01  6.11565725e-06  8.71765368e-01  6.11565725e-06  0.00000000e+00  6.11565725e-06  1.79949541e+00  6.11565725e-06  6.04568544e-01  6.11565725e-06  8.70826546e-01  6.11565725e-06  8.47655390e-01                                 
 6.12769920e-06  6.77629865e-01  6.12769920e-06  6.05643466e-01  6.12769920e-06  8.92257757e-01  6.12769920e-06  0.00000000e+00  6.12769920e-06  1.80051391e+00  6.12769920e-06  6.04842078e-01  6.12769920e-06  8.92141462e-01  6.12769920e-06  8.68840115e-01                                 
 6.13874764e-06  6.77628204e-01  6.13874764e-06  6.05620530e-01  6.13874764e-06  9.10006427e-01  6.13874764e-06  0.00000000e+00  6.13874764e-06  1.79950256e+00  6.13874764e-06  6.04565463e-01  6.13874764e-06  9.08984499e-01  6.13874764e-06  8.87286858e-01                                 
