 time            v(vbep)         time            v(vben)         time            v(vout)         time            v(vphi1)        time            v(vphi2)        time            v(vref)         time            v(voutc)        time            v(voutcc)       yes             currtemp       
 0.00000000e+00  7.73624379e-01  0.00000000e+00  7.15311358e-01  0.00000000e+00  1.60359231e+00  0.00000000e+00  0.00000000e+00  0.00000000e+00  1.80000000e+00  0.00000000e+00  7.17788956e-01  0.00000000e+00  1.60359231e+00  0.00000000e+00  1.60994277e+00  1.00000000e+00  2.70000000e+01 
 1.00000000e-11  7.73649217e-01  1.00000000e-11  7.15382485e-01  1.00000000e-11  1.60437981e+00  1.00000000e-11  1.80000000e-02  1.00000000e-11  1.80025007e+00  1.00000000e-11  7.18318198e-01  1.00000000e-11  1.60406093e+00  1.00000000e-11  1.60995611e+00                                 
 2.00000000e-11  7.73656011e-01  2.00000000e-11  7.15427195e-01  2.00000000e-11  1.60487158e+00  2.00000000e-11  3.60000000e-02  2.00000000e-11  1.80035015e+00  2.00000000e-11  7.18712177e-01  2.00000000e-11  1.60441761e+00  2.00000000e-11  1.60996117e+00                                 
 4.00000000e-11  7.73655883e-01  4.00000000e-11  7.15486165e-01  4.00000000e-11  1.60547420e+00  4.00000000e-11  7.20000000e-02  4.00000000e-11  1.80038978e+00  4.00000000e-11  7.19288872e-01  4.00000000e-11  1.60495212e+00  4.00000000e-11  1.60996285e+00                                 
 8.00000000e-11  7.73643917e-01  8.00000000e-11  7.15524002e-01  8.00000000e-11  1.60562572e+00  8.00000000e-11  1.44000000e-01  8.00000000e-11  1.80018754e+00  8.00000000e-11  7.19734811e-01  8.00000000e-11  1.60539694e+00  8.00000000e-11  1.60995213e+00                                 
 1.60000000e-10  7.73640887e-01  1.60000000e-10  7.15533993e-01  1.60000000e-10  1.60530065e+00  1.60000000e-10  2.88000000e-01  1.60000000e-10  1.80000418e+00  1.60000000e-10  7.19797226e-01  1.60000000e-10  1.60546272e+00  1.60000000e-10  1.60994218e+00                                 
 3.20000000e-10  7.73637338e-01  3.20000000e-10  7.15535653e-01  3.20000000e-10  1.60494677e+00  3.20000000e-10  5.76000000e-01  3.20000000e-10  1.79999610e+00  3.20000000e-10  7.19679708e-01  3.20000000e-10  1.60520904e+00  3.20000000e-10  1.60993859e+00                                 
 6.40000000e-10  7.73556455e-01  6.40000000e-10  7.15194941e-01  6.40000000e-10  1.60213090e+00  6.40000000e-10  1.15200000e+00  6.40000000e-10  1.81225626e+00  6.40000000e-10  7.17881005e-01  6.40000000e-10  1.61018328e+00  6.40000000e-10  1.60996785e+00                                 
 1.00000000e-09  7.74183466e-01  1.00000000e-09  7.15386941e-01  1.00000000e-09  1.57548032e+00  1.00000000e-09  1.80000000e+00  1.00000000e-09  8.83209382e-02  1.00000000e-09  7.26550298e-01  1.00000000e-09  1.60762449e+00  1.00000000e-09  1.60991057e+00                                 
 1.03621227e-09  7.74193622e-01  1.03621227e-09  7.15430060e-01  1.03621227e-09  1.57490954e+00  1.03621227e-09  1.80000000e+00  1.03621227e-09  1.93094395e-02  1.03621227e-09  7.29300283e-01  1.03621227e-09  1.60910215e+00  1.03621227e-09  1.60995435e+00                                 
 1.10863681e-09  7.74261329e-01  1.10863681e-09  7.15504309e-01  1.10863681e-09  1.57490458e+00  1.10863681e-09  1.80000000e+00  1.10863681e-09 -9.27866021e-03  1.10863681e-09  7.32862171e-01  1.10863681e-09  1.61187440e+00  1.10863681e-09  1.60998612e+00                                 
 1.25348590e-09  7.74390114e-01  1.25348590e-09  7.15377771e-01  1.25348590e-09  1.57309330e+00  1.25348590e-09  1.80000000e+00  1.25348590e-09  8.00477812e-03  1.25348590e-09  7.33108124e-01  1.25348590e-09  1.61231962e+00  1.25348590e-09  1.60994074e+00                                 
 1.48366106e-09  7.74401982e-01  1.48366106e-09  7.15350727e-01  1.48366106e-09  1.57156626e+00  1.48366106e-09  1.80000000e+00  1.48366106e-09 -6.32456817e-03  1.48366106e-09  7.32784467e-01  1.48366106e-09  1.61184239e+00  1.48366106e-09  1.60997296e+00                                 
 1.72548994e-09  7.74308475e-01  1.72548994e-09  7.15344933e-01  1.72548994e-09  1.57155409e+00  1.72548994e-09  1.80000000e+00  1.72548994e-09  5.52200879e-03  1.72548994e-09  7.31605392e-01  1.72548994e-09  1.61101455e+00  1.72548994e-09  1.60996991e+00                                 
 2.07307844e-09  7.74073214e-01  2.07307844e-09  7.15305493e-01  2.07307844e-09  1.57212769e+00  2.07307844e-09  1.80000000e+00  2.07307844e-09 -4.99180331e-03  2.07307844e-09  7.29970081e-01  2.07307844e-09  1.60946571e+00  2.07307844e-09  1.61002820e+00                                 
 2.43664296e-09  7.73885186e-01  2.43664296e-09  7.15312723e-01  2.43664296e-09  1.57309143e+00  2.43664296e-09  1.80000000e+00  2.43664296e-09  4.43319833e-03  2.43664296e-09  7.28542317e-01  2.43664296e-09  1.60839047e+00  2.43664296e-09  1.61006871e+00                                 
 3.06505707e-09  7.73663430e-01  3.06505707e-09  7.15274025e-01  3.06505707e-09  1.57354479e+00  3.06505707e-09  1.80000000e+00  3.06505707e-09 -4.26387322e-03  3.06505707e-09  7.25944158e-01  3.06505707e-09  1.60604412e+00  3.06505707e-09  1.61016669e+00                                 
 4.07164379e-09  7.73544042e-01  4.07164379e-09  7.15293346e-01  4.07164379e-09  1.57374273e+00  4.07164379e-09  1.80000000e+00  4.07164379e-09  4.02973770e-03  4.07164379e-09  7.22988654e-01  4.07164379e-09  1.60365129e+00  4.07164379e-09  1.61027070e+00                                 
 6.08481724e-09  7.73491164e-01  6.08481724e-09  7.15278574e-01  6.08481724e-09  1.57155357e+00  6.08481724e-09  1.80000000e+00  6.08481724e-09 -4.02393696e-03  6.08481724e-09  7.18857886e-01  6.08481724e-09  1.60001234e+00  6.08481724e-09  1.61033686e+00                                 
 7.81441346e-09  7.73478270e-01  7.81441346e-09  7.15314564e-01  7.81441346e-09  1.57038740e+00  7.81441346e-09  1.80000000e+00  7.81441346e-09  3.90612578e-03  7.81441346e-09  7.17454267e-01  7.81441346e-09  1.59893998e+00  7.81441346e-09  1.61022868e+00                                 
 9.39804477e-09  7.73485689e-01  9.39804477e-09  7.15293386e-01  9.39804477e-09  1.56803995e+00  9.39804477e-09  1.80000000e+00  9.39804477e-09 -3.83375369e-03  9.39804477e-09  7.16549873e-01  9.39804477e-09  1.59805102e+00  9.39804477e-09  1.61006101e+00                                 
 1.11306972e-08  7.73520535e-01  1.11306972e-08  7.15321584e-01  1.11306972e-08  1.56485640e+00  1.11306972e-08  1.80000000e+00  1.11306972e-08  3.74825976e-03  1.11306972e-08  7.16425902e-01  1.11306972e-08  1.59805754e+00  1.11306972e-08  1.60982700e+00                                 
 1.34977271e-08  7.73559077e-01  1.34977271e-08  7.15297108e-01  1.34977271e-08  1.55800776e+00  1.34977271e-08  1.80000000e+00  1.34977271e-08 -3.69326682e-03  1.34977271e-08  7.16112174e-01  1.34977271e-08  1.59766671e+00  1.34977271e-08  1.60949740e+00                                 
 1.64326317e-08  7.73601503e-01  1.64326317e-08  7.15323761e-01  1.64326317e-08  1.54828234e+00  1.64326317e-08  1.80000000e+00  1.64326317e-08  3.65048805e-03  1.64326317e-08  7.16429332e-01  1.64326317e-08  1.59803430e+00  1.64326317e-08  1.60909155e+00                                 
 2.04144498e-08  7.73622586e-01  2.04144498e-08  7.15298528e-01  2.04144498e-08  1.53279587e+00  2.04144498e-08  1.80000000e+00  2.04144498e-08 -3.61440839e-03  2.04144498e-08  7.16448061e-01  2.04144498e-08  1.59791788e+00  2.04144498e-08  1.60860197e+00                                 
 2.58411749e-08  7.73635336e-01  2.58411749e-08  7.15324628e-01  2.58411749e-08  1.51122126e+00  2.58411749e-08  1.80000000e+00  2.58411749e-08  3.59472625e-03  2.58411749e-08  7.16963932e-01  2.58411749e-08  1.59844407e+00  2.58411749e-08  1.60803293e+00                                 
 3.47447964e-08  7.73629737e-01  3.47447964e-08  7.15298683e-01  3.47447964e-08  1.47437748e+00  3.47447964e-08  1.80000000e+00  3.47447964e-08 -3.57636695e-03  3.47447964e-08  7.17097981e-01  3.47447964e-08  1.59842048e+00  3.47447964e-08  1.60732338e+00                                 
 4.83560359e-08  7.73630039e-01  4.83560359e-08  7.15324357e-01  4.83560359e-08  1.41838677e+00  4.83560359e-08  1.80000000e+00  4.83560359e-08  3.57082150e-03  4.83560359e-08  7.17621277e-01  4.83560359e-08  1.59895243e+00  4.83560359e-08  1.60659674e+00                                 
 7.55785148e-08  7.73623317e-01  7.55785148e-08  7.15298435e-01  7.55785148e-08  1.30563156e+00  7.55785148e-08  1.80000000e+00  7.55785148e-08 -3.56240333e-03  7.55785148e-08  7.17632559e-01  7.55785148e-08  1.59883300e+00  7.55785148e-08  1.60586022e+00                                 
 1.20956016e-07  7.73626336e-01  1.20956016e-07  7.15324274e-01  1.20956016e-07  1.11992890e+00  1.20956016e-07  1.80000000e+00  1.20956016e-07  3.56353729e-03  1.20956016e-07  7.17902159e-01  1.20956016e-07  1.59916402e+00  1.20956016e-07  1.60546988e+00                                 
 1.82534926e-07  7.73622299e-01  1.82534926e-07  7.15298414e-01  1.82534926e-07  8.77794015e-01  1.82534926e-07  1.80000000e+00  1.82534926e-07 -3.55661204e-03  1.82534926e-07  7.17677135e-01  1.82534926e-07  1.59885828e+00  1.82534926e-07  1.60537889e+00                                 
 2.47502680e-07  7.73627162e-01  2.47502680e-07  7.15324314e-01  2.47502680e-07  7.31756435e-01  2.47502680e-07  1.80000000e+00  2.47502680e-07  3.56357670e-03  2.47502680e-07  7.17899237e-01  2.47502680e-07  1.59915403e+00  2.47502680e-07  1.60536336e+00                                 
 2.98135639e-07  7.73621157e-01  2.98135639e-07  7.15298437e-01  2.98135639e-07  7.18407116e-01  2.98135639e-07  1.80000000e+00  2.98135639e-07 -3.54942886e-03  2.98135639e-07  7.17682435e-01  2.98135639e-07  1.59885800e+00  2.98135639e-07  1.60536518e+00                                 
 3.31299770e-07  7.73626852e-01  3.31299770e-07  7.15324147e-01  3.31299770e-07  7.20524358e-01  3.31299770e-07  1.80000000e+00  3.31299770e-07  3.55779906e-03  3.31299770e-07  7.17896301e-01  3.31299770e-07  1.59914835e+00  3.31299770e-07  1.60536092e+00                                 
 3.70861212e-07  7.73622133e-01  3.70861212e-07  7.15298610e-01  3.70861212e-07  7.20064343e-01  3.70861212e-07  1.80000000e+00  3.70861212e-07 -3.54272638e-03  3.70861212e-07  7.17680990e-01  3.70861212e-07  1.59885412e+00  3.70861212e-07  1.60536114e+00                                 
 4.20073078e-07  7.73626522e-01  4.20073078e-07  7.15324075e-01  4.20073078e-07  7.20536700e-01  4.20073078e-07  1.80000000e+00  4.20073078e-07  3.55222219e-03  4.20073078e-07  7.17897160e-01  4.20073078e-07  1.59914566e+00  4.20073078e-07  1.60535690e+00                                 
 5.02121892e-07  7.73622276e-01  5.02121892e-07  7.15298639e-01  5.02121892e-07  7.20097232e-01  5.02121892e-07  1.80000000e+00  5.02121892e-07 -3.53877388e-03  5.02121892e-07  7.17680573e-01  5.02121892e-07  1.59884893e+00  5.02121892e-07  1.60535612e+00                                 
 6.53176857e-07  7.73626464e-01  6.53176857e-07  7.15324065e-01  6.53176857e-07  7.20519672e-01  6.53176857e-07  1.80000000e+00  6.53176857e-07  3.54992584e-03  6.53176857e-07  7.17897366e-01  6.53176857e-07  1.59913712e+00  6.53176857e-07  1.60534819e+00                                 
 8.94435713e-07  7.73622302e-01  8.94435713e-07  7.15298643e-01  8.94435713e-07  7.20106179e-01  8.94435713e-07  1.80000000e+00  8.94435713e-07 -3.53747222e-03  8.94435713e-07  7.17680465e-01  8.94435713e-07  1.59883424e+00  8.94435713e-07  1.60534153e+00                                 
 1.36913765e-06  7.73626450e-01  1.36913765e-06  7.15324062e-01  1.36913765e-06  7.20514703e-01  1.36913765e-06  1.80000000e+00  1.36913765e-06  3.54916300e-03  1.36913765e-06  7.17897425e-01  1.36913765e-06  1.59911047e+00  1.36913765e-06  1.60532153e+00                                 
 2.20611347e-06  7.73622309e-01  2.20611347e-06  7.15298644e-01  2.20611347e-06  7.20108728e-01  2.20611347e-06  1.80000000e+00  2.20611347e-06 -3.53706729e-03  2.20611347e-06  7.17680435e-01  2.20611347e-06  1.59878540e+00  2.20611347e-06  1.60529278e+00                                 
 3.40611347e-06  7.73626446e-01  3.40611347e-06  7.15324062e-01  3.40611347e-06  7.20513159e-01  3.40611347e-06  1.80000000e+00  3.40611347e-06  3.54891696e-03  3.40611347e-06  7.17897443e-01  3.40611347e-06  1.59903462e+00  3.40611347e-06  1.60524579e+00                                 
 4.60611347e-06  7.73622312e-01  4.60611347e-06  7.15298644e-01  4.60611347e-06  7.20109982e-01  4.60611347e-06  1.80000000e+00  4.60611347e-06 -3.53688255e-03  4.60611347e-06  7.17680420e-01  4.60611347e-06  1.59869592e+00  4.60611347e-06  1.60520346e+00                                 
 5.80611347e-06  7.73626443e-01  5.80611347e-06  7.15324061e-01  5.80611347e-06  7.20511916e-01  5.80611347e-06  1.80000000e+00  5.80611347e-06  3.54871421e-03  5.80611347e-06  7.17897458e-01  5.80611347e-06  1.59894523e+00  5.80611347e-06  1.60515652e+00                                 
 6.00100000e-06  7.73622322e-01  6.00100000e-06  7.15298646e-01  6.00100000e-06  7.20114290e-01  6.00100000e-06  1.80000000e+00  6.00100000e-06 -3.53616586e-03  6.00100000e-06  7.17680369e-01  6.00100000e-06  1.59864398e+00  6.00100000e-06  1.60515163e+00                                 
 6.00110000e-06  7.73582260e-01  6.00110000e-06  7.15069923e-01  6.00110000e-06  7.18351116e-01  6.00110000e-06  1.62000000e+00  6.00110000e-06 -3.75001037e-04  6.00110000e-06  7.16134976e-01  6.00110000e-06  1.59737733e+00  6.00110000e-06  1.60513984e+00                                 
 6.00130000e-06  7.73615098e-01  6.00130000e-06  7.15084178e-01  6.00130000e-06  7.18742929e-01  6.00130000e-06  1.26000000e+00  6.00130000e-06  2.56535381e-04  6.00130000e-06  7.16118659e-01  6.00130000e-06  1.59737327e+00  6.00130000e-06  1.60515567e+00                                 
 6.00170000e-06  7.73666711e-01  6.00170000e-06  7.14723962e-01  6.00170000e-06  7.34893876e-01  6.00170000e-06  5.40000000e-01  6.00170000e-06  1.48299551e+00  6.00170000e-06  7.10441776e-01  6.00170000e-06  1.52559983e+00  6.00170000e-06  1.60487010e+00                                 
 6.00200000e-06  7.73609876e-01  6.00200000e-06  7.12361692e-01  6.00200000e-06  7.65066975e-01  6.00200000e-06  0.00000000e+00  6.00200000e-06  1.86581019e+00  6.00200000e-06  6.85349317e-01  6.00200000e-06  1.20459098e+00  6.00200000e-06  1.60464649e+00                                 
 6.00203724e-06  7.73621801e-01  6.00203724e-06  7.12399236e-01  6.00203724e-06  7.60103922e-01  6.00203724e-06  0.00000000e+00  6.00203724e-06  1.82511049e+00  6.00203724e-06  6.86058898e-01  6.00203724e-06  1.15973502e+00  6.00203724e-06  1.60501746e+00                                 
 6.00211172e-06  7.73626811e-01  6.00211172e-06  7.12612762e-01  6.00211172e-06  7.52469267e-01  6.00211172e-06  0.00000000e+00  6.00211172e-06  1.79273795e+00  6.00211172e-06  6.89127824e-01  6.00211172e-06  1.08412369e+00  6.00211172e-06  1.60534726e+00                                 
 6.00226068e-06  7.73622768e-01  6.00226068e-06  7.12915289e-01  6.00226068e-06  7.48278285e-01  6.00226068e-06  0.00000000e+00  6.00226068e-06  1.80217587e+00  6.00226068e-06  6.93008113e-01  6.00226068e-06  9.67892898e-01  6.00226068e-06  1.60529145e+00                                 
 6.00246428e-06  7.73624298e-01  6.00246428e-06  7.13373659e-01  6.00246428e-06  7.41948434e-01  6.00246428e-06  0.00000000e+00  6.00246428e-06  1.79759091e+00  6.00246428e-06  6.97419641e-01  6.00246428e-06  8.47847846e-01  6.00246428e-06  1.60542805e+00                                 
 6.00268139e-06  7.73622588e-01  6.00268139e-06  7.14255962e-01  6.00268139e-06  7.32464694e-01  6.00268139e-06  0.00000000e+00  6.00268139e-06  1.80069548e+00  6.00268139e-06  7.05980845e-01  6.00268139e-06  7.74681968e-01  6.00268139e-06  1.60541220e+00                                 
 6.00299028e-06  7.73623984e-01  6.00299028e-06  7.15156623e-01  6.00299028e-06  7.24433047e-01  6.00299028e-06  0.00000000e+00  6.00299028e-06  1.79933421e+00  6.00299028e-06  7.13477142e-01  6.00299028e-06  7.33075996e-01  6.00299028e-06  1.60530211e+00                                 
 6.00328436e-06  7.73623102e-01  6.00328436e-06  7.15637846e-01  6.00328436e-06  7.21474058e-01  6.00328436e-06  0.00000000e+00  6.00328436e-06  1.80049232e+00  6.00328436e-06  7.17010112e-01  6.00328436e-06  7.24416855e-01  6.00328436e-06  1.60482708e+00                                 
 6.00361176e-06  7.73624305e-01  6.00361176e-06  7.15802132e-01  6.00361176e-06  7.21318716e-01  6.00361176e-06  0.00000000e+00  6.00361176e-06  1.79970037e+00  6.00361176e-06  7.17905519e-01  6.00361176e-06  7.21534955e-01  6.00361176e-06  1.60409793e+00                                 
 6.00401509e-06  7.73623650e-01  6.00401509e-06  7.15870261e-01  6.00401509e-06  7.21294506e-01  6.00401509e-06  0.00000000e+00  6.00401509e-06  1.80023543e+00  6.00401509e-06  7.18651526e-01  6.00401509e-06  7.21521150e-01  6.00401509e-06  1.60293281e+00                                 
 6.00479672e-06  7.73624673e-01  6.00479672e-06  7.15804259e-01  6.00479672e-06  7.23027772e-01  6.00479672e-06  0.00000000e+00  6.00479672e-06  1.79982574e+00  6.00479672e-06  7.18745123e-01  6.00479672e-06  7.22487489e-01  6.00479672e-06  1.60043272e+00                                 
 6.00603040e-06  7.73623981e-01  6.00603040e-06  7.15705687e-01  6.00603040e-06  7.25301229e-01  6.00603040e-06  0.00000000e+00  6.00603040e-06  1.80017202e+00  6.00603040e-06  7.19071068e-01  6.00603040e-06  7.25271008e-01  6.00603040e-06  1.59607868e+00                                 
 6.00849777e-06  7.73624751e-01  6.00849777e-06  7.15521676e-01  6.00849777e-06  7.31231160e-01  6.00849777e-06  0.00000000e+00  6.00849777e-06  1.79985811e+00  6.00849777e-06  7.18909718e-01  6.00849777e-06  7.30615048e-01  6.00849777e-06  1.58706115e+00                                 
 6.01343250e-06  7.73623993e-01  6.01343250e-06  7.15346522e-01  6.01343250e-06  7.42311769e-01  6.01343250e-06  0.00000000e+00  6.01343250e-06  1.80015590e+00  6.01343250e-06  7.18857727e-01  6.01343250e-06  7.42228190e-01  6.01343250e-06  1.56893196e+00                                 
 6.02330198e-06  7.73624753e-01  6.02330198e-06  7.15274185e-01  6.02330198e-06  7.64771658e-01  6.02330198e-06  0.00000000e+00  6.02330198e-06  1.79986503e+00  6.02330198e-06  7.18294481e-01  6.02330198e-06  7.64067575e-01  6.02330198e-06  1.53392744e+00                                 
 6.04304092e-06  7.73623999e-01  6.04304092e-06  7.15319611e-01  6.04304092e-06  8.05636810e-01  6.04304092e-06  0.00000000e+00  6.04304092e-06  1.80015101e+00  6.04304092e-06  7.18051504e-01  6.04304092e-06  8.05577175e-01  6.04304092e-06  1.46851689e+00                                 
 6.08251880e-06  7.73624755e-01  6.08251880e-06  7.15299443e-01  6.08251880e-06  8.77346411e-01  6.08251880e-06  0.00000000e+00  6.08251880e-06  1.79986422e+00  6.08251880e-06  7.17690096e-01  6.08251880e-06  8.75942567e-01  6.08251880e-06  1.35191963e+00                                 
 6.16147457e-06  7.73624002e-01  6.16147457e-06  7.15322791e-01  6.16147457e-06  9.84081234e-01  6.16147457e-06  0.00000000e+00  6.16147457e-06  1.80014572e+00  6.16147457e-06  7.17867248e-01  6.16147457e-06  9.84577367e-01  6.16147457e-06  1.14979660e+00                                 
 6.26218258e-06  7.73624755e-01  6.26218258e-06  7.15300332e-01  6.26218258e-06  1.07089201e+00  6.26218258e-06  0.00000000e+00  6.26218258e-06  1.79985996e+00  6.26218258e-06  7.17697321e-01  6.26218258e-06  1.06890815e+00  6.26218258e-06  1.05536841e+00                                 
 6.36257158e-06  7.73624002e-01  6.36257158e-06  7.15322058e-01  6.36257158e-06  1.12111394e+00  6.36257158e-06  0.00000000e+00  6.36257158e-06  1.80014260e+00  6.36257158e-06  7.17874104e-01  6.36257158e-06  1.12197504e+00  6.36257158e-06  1.10941712e+00                                 
