 time            v(vbep)         time            v(vben)         time            v(vout)         time            v(vphi1)        time            v(vphi2)        time            v(vref)         yes             currtemp       
 0.00000000e+00  7.77818424e-01  0.00000000e+00  7.28837477e-01  0.00000000e+00  9.78752340e-01  0.00000000e+00  0.00000000e+00  0.00000000e+00  1.79984478e+00  0.00000000e+00  7.28837477e-01  1.00000000e+00 -6.00000000e+00 
 5.00000000e-12  7.77738503e-01  5.00000000e-12  7.28775533e-01  5.00000000e-12  9.79486475e-01  5.00000000e-12  1.80000000e-02  5.00000000e-12  1.79998105e+00  5.00000000e-12  7.28775533e-01                                 
 1.00000000e-11  7.77666063e-01  1.00000000e-11  7.28717447e-01  1.00000000e-11  9.80163290e-01  1.00000000e-11  3.60000000e-02  1.00000000e-11  1.80007177e+00  1.00000000e-11  7.28717447e-01                                 
 2.00000000e-11  7.77527745e-01  2.00000000e-11  7.28602514e-01  2.00000000e-11  9.81422818e-01  2.00000000e-11  7.20000000e-02  2.00000000e-11  1.80018639e+00  2.00000000e-11  7.28602514e-01                                 
 4.00000000e-11  7.77264119e-01  4.00000000e-11  7.28374879e-01  4.00000000e-11  9.83514939e-01  4.00000000e-11  1.44000000e-01  4.00000000e-11  1.80021536e+00  4.00000000e-11  7.28374879e-01                                 
 8.00000000e-11  7.76743276e-01  8.00000000e-11  7.27924160e-01  8.00000000e-11  9.86437831e-01  8.00000000e-11  2.88000000e-01  8.00000000e-11  1.80013424e+00  8.00000000e-11  7.27924160e-01                                 
 1.60000000e-10  7.75725001e-01  1.60000000e-10  7.27041027e-01  1.60000000e-10  9.89389229e-01  1.60000000e-10  5.76000000e-01  1.60000000e-10  1.80002673e+00  1.60000000e-10  7.27041027e-01                                 
 3.20000000e-10  7.73773956e-01  3.20000000e-10  7.25343198e-01  3.20000000e-10  9.78671882e-01  3.20000000e-10  1.15200000e+00  3.20000000e-10  1.80023554e+00  3.20000000e-10  7.25343198e-01                                 
 5.00000000e-10  7.71707682e-01  5.00000000e-10  7.23535605e-01  5.00000000e-10  1.05543241e+00  5.00000000e-10  1.80000000e+00  5.00000000e-10  1.24456820e-01  5.00000000e-10  7.23535605e-01                                 
 5.20510272e-10  7.71481448e-01  5.20510272e-10  7.23337050e-01  5.20510272e-10  1.07678882e+00  5.20510272e-10  1.80000000e+00  5.20510272e-10  2.83243189e-02  5.20510272e-10  7.23337050e-01                                 
 5.61530817e-10  7.71031848e-01  5.61530817e-10  7.22942113e-01  5.61530817e-10  1.11961571e+00  5.61530817e-10  1.80000000e+00  5.61530817e-10 -1.14572218e-02  5.61530817e-10  7.22942113e-01                                 
 6.43571907e-10  7.70150749e-01  6.43571907e-10  7.22166893e-01  6.43571907e-10  1.19876505e+00  6.43571907e-10  1.80000000e+00  6.43571907e-10  9.91292536e-03  6.43571907e-10  7.22166893e-01                                 
 7.63579632e-10  7.68903888e-01  7.63579632e-10  7.21066764e-01  7.63579632e-10  1.30536609e+00  7.63579632e-10  1.80000000e+00  7.63579632e-10 -7.83994444e-03  7.63579632e-10  7.21066764e-01                                 
 9.44030941e-10  7.67116227e-01  9.44030941e-10  7.19483233e-01  9.44030941e-10  1.44323272e+00  9.44030941e-10  1.80000000e+00  9.44030941e-10  7.82861505e-03  9.44030941e-10  7.19483233e-01                                 
 1.30493356e-09  7.63817309e-01  1.30493356e-09  7.16541989e-01  1.30493356e-09  1.63339299e+00  1.30493356e-09  1.80000000e+00  1.30493356e-09 -6.91519981e-03  1.30493356e-09  7.16541989e-01                                 
 1.77047441e-09  7.60030075e-01  1.77047441e-09  7.13133632e-01  1.77047441e-09  1.75298985e+00  1.77047441e-09  1.80000000e+00  1.77047441e-09  6.95745502e-03  1.77047441e-09  7.13133632e-01                                 
 2.14511737e-09  7.57305604e-01  2.14511737e-09  7.10659735e-01  2.14511737e-09  1.78783313e+00  2.14511737e-09  1.80000000e+00  2.14511737e-09 -6.51137809e-03  2.14511737e-09  7.10659735e-01                                 
 2.56508667e-09  7.54529691e-01  2.56508667e-09  7.08121276e-01  2.56508667e-09  1.80198335e+00  2.56508667e-09  1.80000000e+00  2.56508667e-09  6.30957486e-03  2.56508667e-09  7.08121276e-01                                 
 3.03547916e-09  7.51713238e-01  3.03547916e-09  7.05527753e-01  3.03547916e-09  1.80507877e+00  3.03547916e-09  1.80000000e+00  3.03547916e-09 -6.04722654e-03  3.03547916e-09  7.05527753e-01                                 
 3.79318238e-09  7.47695222e-01  3.79318238e-09  7.01798534e-01  3.79318238e-09  1.80368326e+00  3.79318238e-09  1.80000000e+00  3.79318238e-09  5.93086599e-03  3.79318238e-09  7.01798534e-01                                 
 4.82247298e-09  7.43036142e-01  4.82247298e-09  6.97432669e-01  4.82247298e-09  1.79895634e+00  4.82247298e-09  1.80000000e+00  4.82247298e-09 -5.81398919e-03  4.82247298e-09  6.97432669e-01                                 
 6.76077449e-09  7.35957089e-01  6.76077449e-09  6.90724199e-01  6.76077449e-09  1.79226587e+00  6.76077449e-09  1.80000000e+00  6.76077449e-09  5.77956506e-03  6.76077449e-09  6.90724199e-01                                 
 1.03478943e-08  7.26369178e-01  1.03478943e-08  6.81511350e-01  1.03478943e-08  1.78271769e+00  1.03478943e-08  1.80000000e+00  1.03478943e-08 -5.73324990e-03  1.03478943e-08  6.81511350e-01                                 
 1.60895819e-08  7.15982531e-01  1.60895819e-08  6.71390702e-01  1.60895819e-08  1.77298057e+00  1.60895819e-08  1.80000000e+00  1.60895819e-08  5.73887976e-03  1.60895819e-08  6.71390702e-01                                 
 1.97812511e-08  7.11147442e-01  1.97812511e-08  6.66635081e-01  1.97812511e-08  1.76812724e+00  1.97812511e-08  1.80000000e+00  1.97812511e-08 -5.69020912e-03  1.97812511e-08  6.66635081e-01                                 
 2.12760025e-08  7.09439403e-01  2.12760025e-08  6.64950092e-01  2.12760025e-08  1.76673594e+00  2.12760025e-08  1.80000000e+00  2.12760025e-08  5.64525274e-03  2.12760025e-08  6.64950092e-01                                 
 2.35106583e-08  7.07085976e-01  2.35106583e-08  6.62624909e-01  2.35106583e-08  1.76425378e+00  2.35106583e-08  1.80000000e+00  2.35106583e-08 -5.58102441e-03  2.35106583e-08  6.62624909e-01                                 
 2.58985707e-08  7.04797182e-01  2.58985707e-08  6.60359826e-01  2.58985707e-08  1.76231658e+00  2.58985707e-08  1.80000000e+00  2.58985707e-08  5.56116358e-03  2.58985707e-08  6.60359826e-01                                 
 3.00523042e-08  7.01255027e-01  3.00523042e-08  6.56847866e-01  3.00523042e-08  1.75870962e+00  3.00523042e-08  1.80000000e+00  3.00523042e-08 -5.51756877e-03  3.00523042e-08  6.56847866e-01                                 
 3.44117300e-08  6.98018329e-01  3.44117300e-08  6.53632153e-01  3.44117300e-08  1.75587252e+00  3.44117300e-08  1.80000000e+00  3.44117300e-08  5.51650664e-03  3.44117300e-08  6.53632153e-01                                 
 4.31305816e-08  6.92577684e-01  4.31305816e-08  6.48214033e-01  4.31305816e-08  1.75049033e+00  4.31305816e-08  1.80000000e+00  4.31305816e-08 -5.48454988e-03  4.31305816e-08  6.48214033e-01                                 
 5.24385208e-08  6.87893289e-01  5.24385208e-08  6.43532172e-01  5.24385208e-08  1.74638643e+00  5.24385208e-08  1.80000000e+00  5.24385208e-08  5.49590583e-03  5.24385208e-08  6.43532172e-01                                 
 7.10543991e-08  6.80758364e-01  7.10543991e-08  6.36337281e-01  7.10543991e-08  1.74017675e+00  7.10543991e-08  1.80000000e+00  7.10543991e-08 -5.46925066e-03  7.10543991e-08  6.36337281e-01                                 
 9.79352884e-08  6.73622960e-01  9.79352884e-08  6.29033202e-01  9.79352884e-08  1.73566030e+00  9.79352884e-08  1.80000000e+00  9.79352884e-08  5.48781590e-03  9.79352884e-08  6.29033202e-01                                 
 1.21533860e-07  6.68944810e-01  1.21533860e-07  6.24217200e-01  1.21533860e-07  1.73254646e+00  1.21533860e-07  1.80000000e+00  1.21533860e-07 -5.46163295e-03  1.21533860e-07  6.24217200e-01                                 
 1.47962257e-07  6.64490116e-01  1.47962257e-07  6.19671273e-01  1.47962257e-07  1.73003874e+00  1.47962257e-07  1.80000000e+00  1.47962257e-07  5.48043697e-03  1.47962257e-07  6.19671273e-01                                 
 1.83512939e-07  6.58274074e-01  1.83512939e-07  6.13624336e-01  1.83512939e-07  1.70859279e+00  1.83512939e-07  1.80000000e+00  1.83512939e-07 -5.45602642e-03  1.83512939e-07  6.13624336e-01                                 
 2.16205630e-07  6.49036675e-01  2.16205630e-07  6.05450766e-01  2.16205630e-07  1.67452450e+00  2.16205630e-07  1.80000000e+00  2.16205630e-07  5.47437537e-03  2.16205630e-07  6.05450766e-01                                 
 2.47649432e-07  6.38597704e-01  2.47649432e-07  5.96486827e-01  2.47649432e-07  1.62264952e+00  2.47649432e-07  1.80000000e+00  2.47649432e-07 -5.45097099e-03  2.47649432e-07  5.96486827e-01                                 
 2.80568815e-07  6.31669154e-01  2.80568815e-07  5.90385029e-01  2.80568815e-07  1.57904936e+00  2.80568815e-07  1.80000000e+00  2.80568815e-07  5.46924305e-03  2.80568815e-07  5.90385029e-01                                 
 3.15021941e-07  6.38409264e-01  3.15021941e-07  5.95147145e-01  3.15021941e-07  1.57292476e+00  3.15021941e-07  1.80000000e+00  3.15021941e-07 -5.44362946e-03  3.15021941e-07  5.95147145e-01                                 
 3.37733903e-07  6.37646752e-01  3.37733903e-07  5.94172853e-01  3.37733903e-07  1.54933064e+00  3.37733903e-07  1.80000000e+00  3.37733903e-07  5.46120366e-03  3.37733903e-07  5.94172853e-01                                 
 3.59775017e-07  6.30183198e-01  3.59775017e-07  5.87923317e-01  3.59775017e-07  1.52264409e+00  3.59775017e-07  1.80000000e+00  3.59775017e-07 -5.43620465e-03  3.59775017e-07  5.87923317e-01                                 
 3.80414167e-07  6.26855680e-01  3.80414167e-07  5.85001691e-01  3.80414167e-07  1.49687411e+00  3.80414167e-07  1.80000000e+00  3.80414167e-07  5.45288766e-03  3.80414167e-07  5.85001691e-01                                 
 4.02195476e-07  6.22368720e-01  4.02195476e-07  5.81167157e-01  4.02195476e-07  1.47286670e+00  4.02195476e-07  1.80000000e+00  4.02195476e-07 -5.42755287e-03  4.02195476e-07  5.81167157e-01                                 
 4.35440722e-07  6.15354553e-01  4.35440722e-07  5.75226992e-01  4.35440722e-07  1.43115276e+00  4.35440722e-07  1.80000000e+00  4.35440722e-07  5.44575461e-03  4.35440722e-07  5.75226992e-01                                 
 4.81011014e-07  6.05228436e-01  4.81011014e-07  5.66757995e-01  4.81011014e-07  1.37791829e+00  4.81011014e-07  1.80000000e+00  4.81011014e-07 -5.42268099e-03  4.81011014e-07  5.66757995e-01                                 
 5.67740315e-07  5.85467305e-01  5.67740315e-07  5.50459162e-01  5.67740315e-07  1.26983646e+00  5.67740315e-07  1.80000000e+00  5.67740315e-07  5.44267178e-03  5.67740315e-07  5.50459162e-01                                 
 7.04258291e-07  5.41896905e-01  7.04258291e-07  5.15294026e-01  7.04258291e-07  1.09059972e+00  7.04258291e-07  1.80000000e+00  7.04258291e-07 -5.42126968e-03  7.04258291e-07  5.15294026e-01                                 
 8.59189362e-07  7.80166125e-01  8.59189362e-07  7.29787920e-01  8.59189362e-07  1.16006822e+00  8.59189362e-07  1.80000000e+00  8.59189362e-07  5.44719627e-03  8.59189362e-07  7.29787920e-01                                 
 8.82461887e-07  8.03198307e-01  8.82461887e-07  7.52729527e-01  8.82461887e-07  1.16133602e+00  8.82461887e-07  1.80000000e+00  8.82461887e-07  2.65984501e-06  8.82461887e-07  7.52729527e-01                                 
 9.29006936e-07  8.37090749e-01  9.29006936e-07  7.84350268e-01  9.29006936e-07  1.14680776e+00  9.29006936e-07  1.80000000e+00  9.29006936e-07 -6.48911640e-07  9.29006936e-07  7.84350268e-01                                 
 9.40643198e-07  8.44812263e-01  9.40643198e-07  7.91078677e-01  9.40643198e-07  1.14211395e+00  9.40643198e-07  1.80000000e+00  9.40643198e-07  8.37306006e-07  9.40643198e-07  7.91078677e-01                                 
 9.63915723e-07  8.61938107e-01  9.63915723e-07  8.05209708e-01  9.63915723e-07  1.13454591e+00  9.63915723e-07  1.80000000e+00  9.63915723e-07  1.06479040e-06  9.63915723e-07  8.05209708e-01                                 
 9.69454987e-07  8.67012944e-01  9.69454987e-07  8.09175129e-01  9.69454987e-07  1.13362657e+00  9.69454987e-07  1.80000000e+00  9.69454987e-07  1.23932447e-06  9.69454987e-07  8.09175129e-01                                 
 9.80533514e-07  8.78416119e-01  9.80533514e-07  8.17698727e-01  9.80533514e-07  1.13280430e+00  9.80533514e-07  1.80000000e+00  9.80533514e-07  1.55935906e-06  9.80533514e-07  8.17698727e-01                                 
 1.00269057e-06  9.07938861e-01  1.00269057e-06  8.37616511e-01  1.00269057e-06  1.13652194e+00  1.00269057e-06  1.80000000e+00  1.00269057e-06  2.05379914e-06  1.00269057e-06  8.37616511e-01                                 
 1.02295816e-06  9.21904789e-01  1.02295816e-06  8.46282108e-01  1.02295816e-06  1.12980093e+00  1.02295816e-06  1.80000000e+00  1.02295816e-06 -5.60363119e-07  1.02295816e-06  8.46282108e-01                                 
 1.04799240e-06  9.14155800e-01  1.04799240e-06  8.41788969e-01  1.04799240e-06  1.09867273e+00  1.04799240e-06  1.80000000e+00  1.04799240e-06 -1.16832644e-06  1.04799240e-06  8.41788969e-01                                 
 1.06799648e-06  9.13652019e-01  1.06799648e-06  8.41253631e-01  1.06799648e-06  1.07666830e+00  1.06799648e-06  1.80000000e+00  1.06799648e-06  1.66023817e-07  1.06799648e-06  8.41253631e-01                                 
 1.09030569e-06  9.13454711e-01  1.09030569e-06  8.41339247e-01  1.09030569e-06  1.05313214e+00  1.09030569e-06  1.80000000e+00  1.09030569e-06 -9.86717656e-07  1.09030569e-06  8.41339247e-01                                 
 1.13492410e-06  9.07298022e-01  1.13492410e-06  8.37349732e-01  1.13492410e-06  9.99908003e-01  1.13492410e-06  1.80000000e+00  1.13492410e-06 -2.91870537e-07  1.13492410e-06  8.37349732e-01                                 
 1.18113115e-06  9.03044672e-01  1.18113115e-06  8.34791563e-01  1.18113115e-06  9.53049676e-01  1.18113115e-06  1.80000000e+00  1.18113115e-06 -6.66865392e-07  1.18113115e-06  8.34791563e-01                                 
 1.23613234e-06  8.89195764e-01  1.23613234e-06  8.25432391e-01  1.23613234e-06  9.04483919e-01  1.23613234e-06  1.80000000e+00  1.23613234e-06 -5.73485482e-07  1.23613234e-06  8.25432391e-01                                 
 1.30373566e-06  8.60780330e-01  1.30373566e-06  8.04517577e-01  1.30373566e-06  8.51072909e-01  1.30373566e-06  1.80000000e+00  1.30373566e-06 -1.02812681e-06  1.30373566e-06  8.04517577e-01                                 
 1.38289184e-06  8.29216230e-01  1.38289184e-06  7.77048458e-01  1.38289184e-06  7.95653476e-01  1.38289184e-06  1.80000000e+00  1.38289184e-06 -5.52831956e-07  1.38289184e-06  7.77048458e-01                                 
 1.47276290e-06  8.34354065e-01  1.47276290e-06  7.82153903e-01  1.47276290e-06  7.82784239e-01  1.47276290e-06  1.80000000e+00  1.47276290e-06  7.31719565e-07  1.47276290e-06  7.82153903e-01                                 
 1.55167909e-06  8.32843829e-01  1.55167909e-06  7.80377327e-01  1.55167909e-06  7.79587090e-01  1.55167909e-06  1.80000000e+00  1.55167909e-06 -7.46384732e-07  1.55167909e-06  7.80377327e-01                                 
 1.63652129e-06  8.32934196e-01  1.63652129e-06  7.80874477e-01  1.63652129e-06  7.80653375e-01  1.63652129e-06  1.80000000e+00  1.63652129e-06  8.41077842e-07  1.63652129e-06  7.80874477e-01                                 
 1.77500864e-06  8.32738857e-01  1.77500864e-06  7.80292407e-01  1.77500864e-06  7.80751936e-01  1.77500864e-06  1.80000000e+00  1.77500864e-06 -7.77522251e-07  1.77500864e-06  7.80292407e-01                                 
 1.92531736e-06  8.33475615e-01  1.92531736e-06  7.81350327e-01  1.92531736e-06  7.80953693e-01  1.92531736e-06  1.80000000e+00  1.92531736e-06  8.73075626e-07  1.92531736e-06  7.81350327e-01                                 
 2.22593480e-06  8.32252573e-01  2.22593480e-06  7.79860060e-01  2.22593480e-06  7.80381733e-01  2.22593480e-06  1.80000000e+00  2.22593480e-06 -8.15354975e-07  2.22593480e-06  7.79860060e-01                                 
 2.82716967e-06  8.33732258e-01  2.82716967e-06  7.81586305e-01  2.82716967e-06  7.81172531e-01  2.82716967e-06  1.80000000e+00  2.82716967e-06  8.99057328e-07  2.82716967e-06  7.81586305e-01                                 
 3.76819583e-06  8.32137200e-01  3.76819583e-06  7.79758870e-01  3.76819583e-06  7.80287355e-01  3.76819583e-06  1.80000000e+00  3.76819583e-06 -8.31633557e-07  3.76819583e-06  7.79758870e-01                                 
 4.76819583e-06  8.33788402e-01  4.76819583e-06  7.81627774e-01  4.76819583e-06  7.81212873e-01  4.76819583e-06  1.80000000e+00  4.76819583e-06  9.12043457e-07  4.76819583e-06  7.81627774e-01                                 
 5.76819583e-06  8.32049225e-01  5.76819583e-06  7.79678625e-01  5.76819583e-06  7.80205780e-01  5.76819583e-06  1.80000000e+00  5.76819583e-06 -8.44705127e-07  5.76819583e-06  7.79678625e-01                                 
 6.76819583e-06  8.33860016e-01  6.76819583e-06  7.81690411e-01  6.76819583e-06  7.81277050e-01  6.76819583e-06  1.80000000e+00  6.76819583e-06  9.25677245e-07  6.76819583e-06  7.81690411e-01                                 
 7.76819583e-06  8.31978366e-01  7.76819583e-06  7.79616103e-01  7.76819583e-06  7.80140486e-01  7.76819583e-06  1.80000000e+00  7.76819583e-06 -8.58832915e-07  7.76819583e-06  7.79616103e-01                                 
 8.76819583e-06  8.33924620e-01  8.76819583e-06  7.81747199e-01  8.76819583e-06  7.81336996e-01  8.76819583e-06  1.80000000e+00  8.76819583e-06  9.40275661e-07  8.76819583e-06  7.81747199e-01                                 
 9.76819583e-06  8.31916913e-01  9.76819583e-06  7.79562104e-01  9.76819583e-06  7.80082382e-01  9.76819583e-06  1.80000000e+00  9.76819583e-06 -8.73869928e-07  9.76819583e-06  7.79562104e-01                                 
 1.00005000e-05  8.34033210e-01  1.00005000e-05  7.81836961e-01  1.00005000e-05  7.81442150e-01  1.00005000e-05  1.80000000e+00  1.00005000e-05  9.82280342e-07  1.00005000e-05  7.81836961e-01                                 
 1.00005500e-05  8.33990056e-01  1.00005500e-05  7.81783143e-01  1.00005500e-05  7.74685196e-01  1.00005500e-05  1.62000000e+00  1.00005500e-05 -9.96086865e-05  1.00005500e-05  7.81783143e-01                                 
 1.00006500e-05  8.33894980e-01  1.00006500e-05  7.81679042e-01  1.00006500e-05  7.65748525e-01  1.00006500e-05  1.26000000e+00  1.00006500e-05 -4.19129247e-05  1.00006500e-05  7.81679042e-01                                 
 1.00008500e-05  8.33732342e-01  1.00008500e-05  7.81507029e-01  1.00008500e-05  7.67117985e-01  1.00008500e-05  5.40000000e-01  1.00008500e-05 -3.75059131e-04  1.00008500e-05  7.81507029e-01                                 
 1.00010000e-05  8.33640231e-01  1.00010000e-05  7.81405280e-01  1.00010000e-05  7.72992404e-01  1.00010000e-05  0.00000000e+00  1.00010000e-05  1.48413290e+00  1.00010000e-05  7.81405280e-01                                 
 1.00010274e-05  8.33624931e-01  1.00010274e-05  7.81389065e-01  1.00010274e-05  7.79806015e-01  1.00010274e-05  0.00000000e+00  1.00010274e-05  1.68692430e+00  1.00010274e-05  7.81389065e-01                                 
 1.00010822e-05  8.33596085e-01  1.00010822e-05  7.81357788e-01  1.00010822e-05  7.96541247e-01  1.00010822e-05  0.00000000e+00  1.00010822e-05  1.82667489e+00  1.00010822e-05  7.81357788e-01                                 
