 time            v(vbep)         time            v(vben)         time            v(vout)         time            v(vphi1)        time            v(vphi2)        time            v(vref)         yes             currtemp       
 0.00000000e+00  6.16781086e-01  0.00000000e+00  5.55222232e-01  0.00000000e+00  8.84239074e-01  0.00000000e+00  0.00000000e+00  0.00000000e+00  1.79995226e+00  0.00000000e+00  5.55222232e-01  1.00000000e+00  6.40000000e+01 
 5.00000000e-12  6.16752118e-01  5.00000000e-12  5.55198247e-01  5.00000000e-12  8.84952541e-01  5.00000000e-12  1.80000000e-02  5.00000000e-12  1.80008033e+00  5.00000000e-12  5.55198247e-01                                 
 1.00000000e-11  6.16723857e-01  1.00000000e-11  5.55174877e-01  1.00000000e-11  8.85591486e-01  1.00000000e-11  3.60000000e-02  1.00000000e-11  1.80015632e+00  1.00000000e-11  5.55174877e-01                                 
 2.00000000e-11  6.16667753e-01  2.00000000e-11  5.55128311e-01  2.00000000e-11  8.86747838e-01  2.00000000e-11  7.20000000e-02  2.00000000e-11  1.80024029e+00  2.00000000e-11  5.55128311e-01                                 
 4.00000000e-11  6.16556264e-01  4.00000000e-11  5.55035525e-01  4.00000000e-11  8.88509292e-01  4.00000000e-11  1.44000000e-01  4.00000000e-11  1.80022425e+00  4.00000000e-11  5.55035525e-01                                 
 8.00000000e-11  6.16334314e-01  8.00000000e-11  5.54850728e-01  8.00000000e-11  8.90596993e-01  8.00000000e-11  2.88000000e-01  8.00000000e-11  1.80011450e+00  8.00000000e-11  5.54850728e-01                                 
 1.60000000e-10  6.15894799e-01  1.60000000e-10  5.54484193e-01  1.60000000e-10  8.91982244e-01  1.60000000e-10  5.76000000e-01  1.60000000e-10  1.80001034e+00  1.60000000e-10  5.54484193e-01                                 
 3.20000000e-10  6.15032306e-01  3.20000000e-10  5.53762933e-01  3.20000000e-10  8.84847548e-01  3.20000000e-10  1.15200000e+00  3.20000000e-10  1.80028282e+00  3.20000000e-10  5.53762933e-01                                 
 5.00000000e-10  6.14087498e-01  5.00000000e-10  5.52969708e-01  5.00000000e-10  1.00488970e+00  5.00000000e-10  1.80000000e+00  5.00000000e-10  1.70538007e-01  5.00000000e-10  5.52969708e-01                                 
 5.22038230e-10  6.13973825e-01  5.22038230e-10  5.52874034e-01  5.22038230e-10  1.03522741e+00  5.22038230e-10  1.80000000e+00  5.22038230e-10  4.41766919e-02  5.22038230e-10  5.52874034e-01                                 
 5.66114691e-10  6.13747224e-01  5.66114691e-10  5.52683214e-01  5.66114691e-10  1.09553152e+00  5.66114691e-10  1.80000000e+00  5.66114691e-10 -1.58374413e-02  5.66114691e-10  5.52683214e-01                                 
 6.54267613e-10  6.13298536e-01  6.54267613e-10  5.52304835e-01  6.54267613e-10  1.20499417e+00  6.54267613e-10  1.80000000e+00  6.54267613e-10  1.34431795e-02  6.54267613e-10  5.52304835e-01                                 
 7.74773794e-10  6.12694681e-01  7.74773794e-10  5.51794476e-01  7.74773794e-10  1.33748412e+00  7.74773794e-10  1.80000000e+00  7.74773794e-10 -9.85828549e-03  7.74773794e-10  5.51794476e-01                                 
 9.59979671e-10  6.11787176e-01  9.59979671e-10  5.51025074e-01  9.59979671e-10  1.50532863e+00  9.59979671e-10  1.80000000e+00  9.59979671e-10  9.87993767e-03  9.59979671e-10  5.51025074e-01                                 
 1.33039142e-09  6.10041993e-01  1.33039142e-09  5.49537548e-01  1.33039142e-09  1.71975550e+00  1.33039142e-09  1.80000000e+00  1.33039142e-09 -8.47831033e-03  1.33039142e-09  5.49537548e-01                                 
 1.71427680e-09  6.08324684e-01  1.71427680e-09  5.48063592e-01  1.71427680e-09  1.82127096e+00  1.71427680e-09  1.80000000e+00  1.71427680e-09  8.41474125e-03  1.71427680e-09  5.48063592e-01                                 
 2.04361487e-09  6.06919156e-01  2.04361487e-09  5.46849833e-01  2.04361487e-09  1.85508638e+00  2.04361487e-09  1.80000000e+00  2.04361487e-09 -7.65681414e-03  2.04361487e-09  5.46849833e-01                                 
 2.40828471e-09  6.05429359e-01  2.40828471e-09  5.45556249e-01  2.40828471e-09  1.87020852e+00  2.40828471e-09  1.80000000e+00  2.40828471e-09  7.30889257e-03  2.40828471e-09  5.45556249e-01                                 
 2.85378550e-09  6.03695943e-01  2.85378550e-09  5.44042230e-01  2.85378550e-09  1.87502864e+00  2.85378550e-09  1.80000000e+00  2.85378550e-09 -6.88391851e-03  2.85378550e-09  5.44042230e-01                                 
 3.50573893e-09  6.01312485e-01  3.50573893e-09  5.41945390e-01  3.50573893e-09  1.87542933e+00  3.50573893e-09  1.80000000e+00  3.50573893e-09  6.69516995e-03  3.50573893e-09  5.41945390e-01                                 
 4.42319306e-09  5.98226126e-01  4.42319306e-09  5.39205272e-01  4.42319306e-09  1.87238418e+00  4.42319306e-09  1.80000000e+00  4.42319306e-09 -6.49774475e-03  4.42319306e-09  5.39205272e-01                                 
 5.99755503e-09  5.93520615e-01  5.99755503e-09  5.34977570e-01  5.99755503e-09  1.86816300e+00  5.99755503e-09  1.80000000e+00  5.99755503e-09  6.44056124e-03  5.99755503e-09  5.34977570e-01                                 
 9.04718730e-09  5.85944690e-01  9.04718730e-09  5.28058502e-01  9.04718730e-09  1.85993197e+00  9.04718730e-09  1.80000000e+00  9.04718730e-09 -6.35412009e-03  9.04718730e-09  5.28058502e-01                                 
 1.08577148e-08  5.82189805e-01  1.08577148e-08  5.24577181e-01  1.08577148e-08  1.85625246e+00  1.08577148e-08  1.80000000e+00  1.08577148e-08  6.31061316e-03  1.08577148e-08  5.24577181e-01                                 
 1.23201872e-08  5.79445138e-01  1.23201872e-08  5.22015047e-01  1.23201872e-08  1.85298174e+00  1.23201872e-08  1.80000000e+00  1.23201872e-08 -6.18458278e-03  1.23201872e-08  5.22015047e-01                                 
 1.38859585e-08  5.76737459e-01  1.38859585e-08  5.19475024e-01  1.38859585e-08  1.85030342e+00  1.38859585e-08  1.80000000e+00  1.38859585e-08  6.12543586e-03  1.38859585e-08  5.19475024e-01                                 
 1.56023378e-08  5.73997578e-01  1.56023378e-08  5.16893917e-01  1.56023378e-08  1.84688453e+00  1.56023378e-08  1.80000000e+00  1.56023378e-08 -6.01922884e-03  1.56023378e-08  5.16893917e-01                                 
 1.73694474e-08  5.71384472e-01  1.73694474e-08  5.14423742e-01  1.73694474e-08  1.84414569e+00  1.73694474e-08  1.80000000e+00  1.73694474e-08  5.96991221e-03  1.73694474e-08  5.14423742e-01                                 
 1.95349516e-08  5.68417318e-01  1.95349516e-08  5.11611302e-01  1.95349516e-08  1.84029312e+00  1.95349516e-08  1.80000000e+00  1.95349516e-08 -5.88290283e-03  1.95349516e-08  5.11611302e-01                                 
 2.25877822e-08  5.64581411e-01  2.25877822e-08  5.07968470e-01  2.25877822e-08  1.83586598e+00  2.25877822e-08  1.80000000e+00  2.25877822e-08  5.86584841e-03  2.25877822e-08  5.07968470e-01                                 
 2.61924584e-08  5.60430972e-01  2.61924584e-08  5.04028974e-01  2.61924584e-08  1.83018029e+00  2.61924584e-08  1.80000000e+00  2.61924584e-08 -5.80394064e-03  2.61924584e-08  5.04028974e-01                                 
 3.26829392e-08  5.53339343e-01  3.26829392e-08  4.97374781e-01  3.26829392e-08  1.81963031e+00  3.26829392e-08  1.80000000e+00  3.26829392e-08  5.80969937e-03  3.26829392e-08  4.97374781e-01                                 
 4.09776965e-08  5.45371033e-01  4.09776965e-08  4.89935024e-01  4.09776965e-08  1.80346195e+00  4.09776965e-08  1.80000000e+00  4.09776965e-08 -5.76860888e-03  4.09776965e-08  4.89935024e-01                                 
 5.75672111e-08  5.32922092e-01  5.75672111e-08  4.78259010e-01  5.75672111e-08  1.76790848e+00  5.75672111e-08  1.80000000e+00  5.75672111e-08  5.78685113e-03  5.75672111e-08  4.78259010e-01                                 
 7.82827797e-08  5.20322628e-01  7.82827797e-08  4.66570229e-01  7.82827797e-08  1.72728110e+00  7.82827797e-08  1.80000000e+00  7.82827797e-08 -5.75401452e-03  7.82827797e-08  4.66570229e-01                                 
 1.06870313e-07  5.12668266e-01  1.06870313e-07  4.58691776e-01  1.06870313e-07  1.68956960e+00  1.06870313e-07  1.80000000e+00  1.06870313e-07  5.77804019e-03  1.06870313e-07  4.58691776e-01                                 
 1.36635843e-07  5.12280028e-01  1.36635843e-07  4.56880924e-01  1.36635843e-07  1.67416031e+00  1.36635843e-07  1.80000000e+00  1.36635843e-07 -5.74359669e-03  1.36635843e-07  4.56880924e-01                                 
 1.57415913e-07  5.09503789e-01  1.57415913e-07  4.53805646e-01  1.57415913e-07  1.65197989e+00  1.57415913e-07  1.80000000e+00  1.57415913e-07  5.76661813e-03  1.57415913e-07  4.53805646e-01                                 
 1.81326183e-07  5.04865515e-01  1.81326183e-07  4.49252614e-01  1.81326183e-07  1.62085912e+00  1.81326183e-07  1.80000000e+00  1.81326183e-07 -5.73268751e-03  1.81326183e-07  4.49252614e-01                                 
 2.04905090e-07  5.01010790e-01  2.04905090e-07  4.45433347e-01  2.04905090e-07  1.59341952e+00  2.04905090e-07  1.80000000e+00  2.04905090e-07  5.75623019e-03  2.04905090e-07  4.45433347e-01                                 
 2.30798008e-07  4.94271682e-01  2.30798008e-07  4.39350570e-01  2.30798008e-07  1.56067840e+00  2.30798008e-07  1.80000000e+00  2.30798008e-07 -5.72292224e-03  2.30798008e-07  4.39350570e-01                                 
 2.79062359e-07  4.80343186e-01  2.79062359e-07  4.27139037e-01  2.79062359e-07  1.49763026e+00  2.79062359e-07  1.80000000e+00  2.79062359e-07  5.74865761e-03  2.79062359e-07  4.27139037e-01                                 
 3.33874125e-07  4.65628794e-01  3.33874125e-07  4.14416000e-01  3.33874125e-07  1.42644559e+00  3.33874125e-07  1.80000000e+00  3.33874125e-07 -5.71798448e-03  3.33874125e-07  4.14416000e-01                                 
 4.20879040e-07  4.40178966e-01  4.20879040e-07  3.93010055e-01  4.20879040e-07  1.31083696e+00  4.20879040e-07  1.80000000e+00  4.20879040e-07  5.74488795e-03  4.20879040e-07  3.93010055e-01                                 
 5.94888870e-07  3.87545946e-01  5.94888870e-07  3.49936894e-01  5.94888870e-07  1.08118836e+00  5.94888870e-07  1.80000000e+00  5.94888870e-07 -5.71580742e-03  5.94888870e-07  3.49936894e-01                                 
 6.28760361e-07  4.15509033e-01  6.28760361e-07  3.72257377e-01  6.28760361e-07  1.07424051e+00  6.28760361e-07  1.80000000e+00  6.28760361e-07  3.75888340e-06  6.28760361e-07  3.72257377e-01                                 
 6.96503343e-07  6.80011984e-01  6.96503343e-07  6.15606218e-01  6.96503343e-07  1.25710694e+00  6.96503343e-07  1.80000000e+00  6.96503343e-07  1.96016077e-05  6.96503343e-07  6.15606218e-01                                 
 7.57883442e-07  7.48000529e-01  7.57883442e-07  6.77441592e-01  7.57883442e-07  1.26023298e+00  7.57883442e-07  1.80000000e+00  7.57883442e-07 -7.71099546e-06  7.57883442e-07  6.77441592e-01                                 
 7.64323087e-07  7.48905527e-01  7.64323087e-07  6.78149031e-01  7.64323087e-07  1.25294210e+00  7.64323087e-07  1.80000000e+00  7.64323087e-07  3.22429848e-06  7.64323087e-07  6.78149031e-01                                 
 7.77202379e-07  7.50116260e-01  7.77202379e-07  6.79123734e-01  7.77202379e-07  1.24027119e+00  7.77202379e-07  1.80000000e+00  7.77202379e-07  3.37299370e-06  7.77202379e-07  6.79123734e-01                                 
 8.02960961e-07  7.50712519e-01  8.02960961e-07  6.79615739e-01  8.02960961e-07  1.21384915e+00  8.02960961e-07  1.80000000e+00  8.02960961e-07  2.91583833e-06  8.02960961e-07  6.79615739e-01                                 
 8.43478711e-07  7.50789386e-01  8.43478711e-07  6.79669757e-01  8.43478711e-07  1.17104019e+00  8.43478711e-07  1.80000000e+00  8.43478711e-07  3.25716162e-06  8.43478711e-07  6.79669757e-01                                 
 8.95196798e-07  7.47603633e-01  8.95196798e-07  6.77105370e-01  8.95196798e-07  1.11446487e+00  8.95196798e-07  1.80000000e+00  8.95196798e-07  2.64829230e-06  8.95196798e-07  6.77105370e-01                                 
 9.03073688e-07  7.45151712e-01  9.03073688e-07  6.75106801e-01  9.03073688e-07  1.10405552e+00  9.03073688e-07  1.80000000e+00  9.03073688e-07  2.35218757e-06  9.03073688e-07  6.75106801e-01                                 
 9.18827468e-07  7.36910109e-01  9.18827468e-07  6.68262682e-01  9.18827468e-07  1.08041080e+00  9.18827468e-07  1.80000000e+00  9.18827468e-07  1.33613854e-06  9.18827468e-07  6.68262682e-01                                 
 9.50335027e-07  7.17072064e-01  9.50335027e-07  6.50965962e-01  9.50335027e-07  1.03126302e+00  9.50335027e-07  1.80000000e+00  9.50335027e-07  1.84093311e-06  9.50335027e-07  6.50965962e-01                                 
 9.91215445e-07  7.14599618e-01  9.91215445e-07  6.48693460e-01  9.91215445e-07  9.93095098e-01  9.91215445e-07  1.80000000e+00  9.91215445e-07  4.28178673e-06  9.91215445e-07  6.48693460e-01                                 
 1.04704177e-06  7.33160955e-01  1.04704177e-06  6.65020154e-01  1.04704177e-06  9.66457730e-01  1.04704177e-06  1.80000000e+00  1.04704177e-06  3.91018789e-06  1.04704177e-06  6.65020154e-01                                 
 1.11381736e-06  7.35708794e-01  1.11381736e-06  6.67218740e-01  1.11381736e-06  9.21774740e-01  1.11381736e-06  1.80000000e+00  1.11381736e-06  2.93235397e-06  1.11381736e-06  6.67218740e-01                                 
 1.18301361e-06  7.24637314e-01  1.18301361e-06  6.57655183e-01  1.18301361e-06  8.67740193e-01  1.18301361e-06  1.80000000e+00  1.18301361e-06  3.04481690e-06  1.18301361e-06  6.57655183e-01                                 
 1.27749031e-06  7.28666944e-01  1.27749031e-06  6.61158204e-01  1.27749031e-06  8.14620332e-01  1.27749031e-06  1.80000000e+00  1.27749031e-06  3.97688873e-06  1.27749031e-06  6.61158204e-01                                 
 1.37500666e-06  7.33877361e-01  1.37500666e-06  6.65651074e-01  1.37500666e-06  7.63750072e-01  1.37500666e-06  1.80000000e+00  1.37500666e-06  3.15893220e-06  1.37500666e-06  6.65651074e-01                                 
 1.53257076e-06  7.25002927e-01  1.53257076e-06  6.57974819e-01  1.53257076e-06  6.88681573e-01  1.53257076e-06  1.80000000e+00  1.53257076e-06  3.63368416e-06  1.53257076e-06  6.57974819e-01                                 
 1.68595792e-06  7.32392293e-01  1.68595792e-06  6.64370708e-01  1.68595792e-06  6.63755549e-01  1.68595792e-06  1.80000000e+00  1.68595792e-06  3.85079919e-06  1.68595792e-06  6.64370708e-01                                 
 1.83739534e-06  7.28649374e-01  1.83739534e-06  6.61162487e-01  1.83739534e-06  6.48184329e-01  1.83739534e-06  1.80000000e+00  1.83739534e-06  3.40136171e-06  1.83739534e-06  6.61162487e-01                                 
 1.99810811e-06  7.28712478e-01  1.99810811e-06  6.61195206e-01  1.99810811e-06  6.60936030e-01  1.99810811e-06  1.80000000e+00  1.99810811e-06  4.09187110e-06  1.99810811e-06  6.61195206e-01                                 
 2.16123699e-06  7.31614663e-01  2.16123699e-06  6.63720193e-01  2.16123699e-06  6.68098376e-01  2.16123699e-06  1.80000000e+00  2.16123699e-06  3.43644967e-06  2.16123699e-06  6.63720193e-01                                 
 2.32609671e-06  7.27118853e-01  2.32609671e-06  6.59814828e-01  2.32609671e-06  6.55981024e-01  2.32609671e-06  1.80000000e+00  2.32609671e-06  3.82759649e-06  2.32609671e-06  6.59814828e-01                                 
 2.50549551e-06  7.31642437e-01  2.50549551e-06  6.63738612e-01  2.50549551e-06  6.65250837e-01  2.50549551e-06  1.80000000e+00  2.50549551e-06  3.73918395e-06  2.50549551e-06  6.63738612e-01                                 
 2.69475200e-06  7.28120403e-01  2.69475200e-06  6.60691011e-01  2.69475200e-06  6.60458095e-01  2.69475200e-06  1.80000000e+00  2.69475200e-06  3.59466580e-06  2.69475200e-06  6.60691011e-01                                 
 2.92432981e-06  7.30335881e-01  2.92432981e-06  6.62610702e-01  2.92432981e-06  6.62877238e-01  2.92432981e-06  1.80000000e+00  2.92432981e-06  3.87934991e-06  2.92432981e-06  6.62610702e-01                                 
 3.30963266e-06  7.29241012e-01  3.30963266e-06  6.61664115e-01  3.30963266e-06  6.61850127e-01  3.30963266e-06  1.80000000e+00  3.30963266e-06  3.53433165e-06  3.30963266e-06  6.61664115e-01                                 
 3.81127465e-06  7.29638715e-01  3.81127465e-06  6.62008144e-01  3.81127465e-06  6.62107859e-01  3.81127465e-06  1.80000000e+00  3.81127465e-06  3.89678421e-06  3.81127465e-06  6.62008144e-01                                 
 4.70393010e-06  7.29694934e-01  4.70393010e-06  6.62056864e-01  4.70393010e-06  6.62323094e-01  4.70393010e-06  1.80000000e+00  4.70393010e-06  3.53077408e-06  4.70393010e-06  6.62056864e-01                                 
 5.70393010e-06  7.29351546e-01  5.70393010e-06  6.61759766e-01  5.70393010e-06  6.61811734e-01  5.70393010e-06  1.80000000e+00  5.70393010e-06  3.89493619e-06  5.70393010e-06  6.61759766e-01                                 
 6.70393010e-06  7.29947236e-01  6.70393010e-06  6.62274784e-01  6.70393010e-06  6.62577626e-01  6.70393010e-06  1.80000000e+00  6.70393010e-06  3.53513665e-06  6.70393010e-06  6.62274784e-01                                 
 7.70393010e-06  7.29114523e-01  7.70393010e-06  6.61554709e-01  7.70393010e-06  6.61572062e-01  7.70393010e-06  1.80000000e+00  7.70393010e-06  3.88827163e-06  7.70393010e-06  6.61554709e-01                                 
 8.70393010e-06  7.30161433e-01  8.70393010e-06  6.62459545e-01  8.70393010e-06  6.62789353e-01  8.70393010e-06  1.80000000e+00  8.70393010e-06  3.54392036e-06  8.70393010e-06  6.62459545e-01                                 
 9.70393010e-06  7.28916014e-01  9.70393010e-06  6.61382974e-01  9.70393010e-06  6.61374458e-01  9.70393010e-06  1.80000000e+00  9.70393010e-06  3.87755243e-06  9.70393010e-06  6.61382974e-01                                 
 1.00005000e-05  7.30484855e-01  1.00005000e-05  6.62737919e-01  1.00005000e-05  6.63101815e-01  1.00005000e-05  1.80000000e+00  1.00005000e-05  3.57447920e-06  1.00005000e-05  6.62737919e-01                                 
 1.00005500e-05  7.30487623e-01  1.00005500e-05  6.62740313e-01  1.00005500e-05  6.56170175e-01  1.00005500e-05  1.62000000e+00  1.00005500e-05 -1.24574997e-04  1.00005500e-05  6.62740313e-01                                 
 1.00006500e-05  7.30492542e-01  1.00006500e-05  6.62744593e-01  1.00006500e-05  6.44841444e-01  1.00006500e-05  1.26000000e+00  1.00006500e-05 -9.22962669e-05  1.00006500e-05  6.62744593e-01                                 
 1.00008500e-05  7.30499151e-01  1.00008500e-05  6.62750473e-01  1.00008500e-05  6.36726504e-01  1.00008500e-05  5.40000000e-01  1.00008500e-05  1.62988916e-03  1.00008500e-05  6.62750473e-01                                 
 1.00010000e-05  7.30501732e-01  1.00010000e-05  6.62752891e-01  1.00010000e-05  6.67255159e-01  1.00010000e-05  0.00000000e+00  1.00010000e-05  1.53245949e+00  1.00010000e-05  6.62752891e-01                                 
 1.00010251e-05  7.30501973e-01  1.00010251e-05  6.62753135e-01  1.00010251e-05  6.82772601e-01  1.00010251e-05  0.00000000e+00  1.00010251e-05  1.69876750e+00  1.00010251e-05  6.62753135e-01                                 
 1.00010754e-05  7.30502355e-01  1.00010754e-05  6.62753543e-01  1.00010754e-05  7.13377797e-01  1.00010754e-05  0.00000000e+00  1.00010754e-05  1.82212279e+00  1.00010754e-05  6.62753543e-01                                 
 1.00011760e-05  7.30502623e-01  1.00011760e-05  6.62753936e-01  1.00011760e-05  7.50716951e-01  1.00011760e-05  0.00000000e+00  1.00011760e-05  1.78809756e+00  1.00011760e-05  6.62753936e-01                                 
