 time            v(vbep)         time            v(vben)         time            v(vout)         time            v(vphi1)        time            v(vphi2)        time            v(vref)         time            v(voutc)        time            v(voutcc)       yes             currtemp       
 0.00000000e+00  8.01849384e-01  0.00000000e+00  7.47535659e-01  0.00000000e+00  1.65833654e+00  0.00000000e+00  0.00000000e+00  0.00000000e+00  1.80000000e+00  0.00000000e+00  7.50646156e-01  0.00000000e+00  1.65833653e+00  0.00000000e+00  1.66409609e+00  1.00000000e+00  8.00000000e+00 
 1.00000000e-11  8.01873266e-01  1.00000000e-11  7.47606154e-01  1.00000000e-11  1.65913706e+00  1.00000000e-11  1.80000000e-02  1.00000000e-11  1.80024723e+00  1.00000000e-11  7.51170325e-01  1.00000000e-11  1.65880122e+00  1.00000000e-11  1.66410839e+00                                 
 2.00000000e-11  8.01879827e-01  2.00000000e-11  7.47650494e-01  2.00000000e-11  1.65965240e+00  2.00000000e-11  3.60000000e-02  2.00000000e-11  1.80034783e+00  2.00000000e-11  7.51562568e-01  2.00000000e-11  1.65915868e+00  2.00000000e-11  1.66411321e+00                                 
 4.00000000e-11  8.01879640e-01  4.00000000e-11  7.47708682e-01  4.00000000e-11  1.66030475e+00  4.00000000e-11  7.20000000e-02  4.00000000e-11  1.80039012e+00  4.00000000e-11  7.52138348e-01  4.00000000e-11  1.65969982e+00  4.00000000e-11  1.66411484e+00                                 
 8.00000000e-11  8.01867771e-01  8.00000000e-11  7.47744353e-01  8.00000000e-11  1.66052474e+00  8.00000000e-11  1.44000000e-01  8.00000000e-11  1.80019149e+00  8.00000000e-11  7.52586261e-01  8.00000000e-11  1.66017010e+00  8.00000000e-11  1.66410402e+00                                 
 1.60000000e-10  8.01864499e-01  1.60000000e-10  7.47749514e-01  1.60000000e-10  1.66022698e+00  1.60000000e-10  2.88000000e-01  1.60000000e-10  1.80000649e+00  1.60000000e-10  7.52640893e-01  1.60000000e-10  1.66027609e+00  1.60000000e-10  1.66409322e+00                                 
 3.20000000e-10  8.01861469e-01  3.20000000e-10  7.47751531e-01  3.20000000e-10  1.65989716e+00  3.20000000e-10  5.76000000e-01  3.20000000e-10  1.80000704e+00  3.20000000e-10  7.52562862e-01  3.20000000e-10  1.66011007e+00  3.20000000e-10  1.66409052e+00                                 
 6.40000000e-10  8.01785177e-01  6.40000000e-10  7.47472979e-01  6.40000000e-10  1.65576430e+00  6.40000000e-10  1.15200000e+00  6.40000000e-10  1.81308267e+00  6.40000000e-10  7.51391209e-01  6.40000000e-10  1.66517594e+00  6.40000000e-10  1.66412003e+00                                 
 9.98574662e-10  8.02326102e-01  9.98574662e-10  7.47577886e-01  9.98574662e-10  1.62728990e+00  9.98574662e-10  1.79743439e+00  9.98574662e-10  8.18630879e-02  9.98574662e-10  7.56269819e-01  9.98574662e-10  1.65851215e+00  9.98574662e-10  1.66403379e+00                                 
 1.00000000e-09  8.02330669e-01  1.00000000e-09  7.47581780e-01  1.00000000e-09  1.62716878e+00  1.00000000e-09  1.80000000e+00  1.00000000e-09  7.06735652e-02  1.00000000e-09  7.56365360e-01  1.00000000e-09  1.65843663e+00  1.00000000e-09  1.66403406e+00                                 
 1.00285068e-09  8.02320262e-01  1.00285068e-09  7.47566962e-01  1.00285068e-09  1.62691099e+00  1.00285068e-09  1.80000000e+00  1.00285068e-09  5.44464233e-02  1.00285068e-09  7.56503582e-01  1.00285068e-09  1.65833215e+00  1.00285068e-09  1.66403603e+00                                 
 1.00855203e-09  8.02303528e-01  1.00855203e-09  7.47562321e-01  1.00855203e-09  1.62667869e+00  1.00855203e-09  1.80000000e+00  1.00855203e-09  2.96449997e-02  1.00855203e-09  7.56955315e-01  1.00855203e-09  1.65838729e+00  1.00855203e-09  1.66405042e+00                                 
 1.01995473e-09  8.02286939e-01  1.01995473e-09  7.47614263e-01  1.01995473e-09  1.62705186e+00  1.01995473e-09  1.80000000e+00  1.01995473e-09  8.25164941e-03  1.01995473e-09  7.58291600e-01  1.01995473e-09  1.65927756e+00  1.01995473e-09  1.66409578e+00                                 
 1.04276013e-09  8.02301801e-01  1.04276013e-09  7.47702684e-01  1.04276013e-09  1.62789951e+00  1.04276013e-09  1.80000000e+00  1.04276013e-09  7.20778658e-04  1.04276013e-09  7.60281645e-01  1.04276013e-09  1.66094945e+00  1.04276013e-09  1.66413229e+00                                 
 1.08837093e-09  8.02373749e-01  1.08837093e-09  7.47704448e-01  1.08837093e-09  1.62779348e+00  1.08837093e-09  1.80000000e+00  1.08837093e-09  1.02876425e-03  1.08837093e-09  7.61488745e-01  1.08837093e-09  1.66203799e+00  1.08837093e-09  1.66410609e+00                                 
 1.17959253e-09  8.02491750e-01  1.17959253e-09  7.47608452e-01  1.17959253e-09  1.62592040e+00  1.17959253e-09  1.80000000e+00  1.17959253e-09  3.03106070e-04  1.17959253e-09  7.61982154e-01  1.17959253e-09  1.66244845e+00  1.17959253e-09  1.66409676e+00                                 
 1.36203573e-09  8.02624023e-01  1.36203573e-09  7.47565213e-01  1.36203573e-09  1.62258073e+00  1.36203573e-09  1.80000000e+00  1.36203573e-09  3.78188341e-04  1.36203573e-09  7.62494248e-01  1.36203573e-09  1.66288002e+00  1.36203573e-09  1.66410562e+00                                 
 1.64701365e-09  8.02565463e-01  1.64701365e-09  7.47544711e-01  1.64701365e-09  1.62118066e+00  1.64701365e-09  1.80000000e+00  1.64701365e-09 -1.68830896e-04  1.64701365e-09  7.61792007e-01  1.64701365e-09  1.66227756e+00  1.64701365e-09  1.66410273e+00                                 
 1.93768315e-09  8.02376100e-01  1.93768315e-09  7.47534484e-01  1.93768315e-09  1.62247423e+00  1.93768315e-09  1.80000000e+00  1.93768315e-09  1.07305064e-04  1.93768315e-09  7.60947019e-01  1.93768315e-09  1.66156470e+00  1.93768315e-09  1.66412128e+00                                 
 2.25140004e-09  8.02181218e-01  2.25140004e-09  7.47523765e-01  2.25140004e-09  1.62387082e+00  2.25140004e-09  1.80000000e+00  2.25140004e-09 -1.73397981e-04  2.25140004e-09  7.60015522e-01  2.25140004e-09  1.66076983e+00  2.25140004e-09  1.66413262e+00                                 
 2.69769866e-09  8.01979838e-01  2.69769866e-09  7.47515287e-01  2.69769866e-09  1.62572412e+00  2.69769866e-09  1.80000000e+00  2.69769866e-09  8.16237362e-05  2.69769866e-09  7.58808252e-01  2.69769866e-09  1.65974795e+00  2.69769866e-09  1.66416323e+00                                 
 3.59029589e-09  8.01787454e-01  3.59029589e-09  7.47508001e-01  3.59029589e-09  1.62816260e+00  3.59029589e-09  1.80000000e+00  3.59029589e-09 -1.58157009e-04  3.59029589e-09  7.56609710e-01  3.59029589e-09  1.65787612e+00  3.59029589e-09  1.66420394e+00                                 
 5.37549036e-09  8.01732127e-01  5.37549036e-09  7.47514226e-01  5.37549036e-09  1.63008229e+00  5.37549036e-09  1.80000000e+00  5.37549036e-09  8.06797785e-05  5.37549036e-09  7.53432593e-01  5.37549036e-09  1.65518040e+00  5.37549036e-09  1.66423904e+00                                 
 7.58703986e-09  8.01772371e-01  7.58703986e-09  7.47526257e-01  7.58703986e-09  1.62897599e+00  7.58703986e-09  1.80000000e+00  7.58703986e-09 -1.44213687e-04  7.58703986e-09  7.51197362e-01  7.58703986e-09  1.65327866e+00  7.58703986e-09  1.66415411e+00                                 
 9.42344091e-09  8.01770807e-01  9.42344091e-09  7.47532390e-01  9.42344091e-09  1.62766248e+00  9.42344091e-09  1.80000000e+00  9.42344091e-09  9.30799624e-05  9.42344091e-09  7.50317906e-01  9.42344091e-09  1.65253458e+00  9.42344091e-09  1.66401177e+00                                 
 1.15496966e-08  8.01764795e-01  1.15496966e-08  7.47534395e-01  1.15496966e-08  1.62652133e+00  1.15496966e-08  1.80000000e+00  1.15496966e-08 -1.21379323e-04  1.15496966e-08  7.49792829e-01  1.15496966e-08  1.65208202e+00  1.15496966e-08  1.66378961e+00                                 
 1.38202157e-08  8.01780305e-01  1.38202157e-08  7.47535572e-01  1.38202157e-08  1.62456538e+00  1.38202157e-08  1.80000000e+00  1.38202157e-08  1.02671103e-04  1.38202157e-08  7.49611005e-01  1.38202157e-08  1.65192447e+00  1.38202157e-08  1.66353542e+00                                 
 1.71015245e-08  8.01812237e-01  1.71015245e-08  7.47535168e-01  1.71015245e-08  1.61946392e+00  1.71015245e-08  1.80000000e+00  1.71015245e-08 -1.11894531e-04  1.71015245e-08  7.49553763e-01  1.71015245e-08  1.65185971e+00  1.71015245e-08  1.66315504e+00                                 
 2.09763751e-08  8.01837023e-01  2.09763751e-08  7.47535918e-01  2.09763751e-08  1.61123151e+00  2.09763751e-08  1.80000000e+00  2.09763751e-08  1.04433917e-04  2.09763751e-08  7.49670830e-01  2.09763751e-08  1.65194551e+00  2.09763751e-08  1.66273669e+00                                 
 2.67917667e-08  8.01852728e-01  2.67917667e-08  7.47535569e-01  2.67917667e-08  1.59681561e+00  2.67917667e-08  1.80000000e+00  2.67917667e-08 -1.09368041e-04  2.67917667e-08  7.49835253e-01  2.67917667e-08  1.65205814e+00  2.67917667e-08  1.66216640e+00                                 
 3.47851501e-08  8.01854365e-01  3.47851501e-08  7.47536148e-01  3.47851501e-08  1.57586067e+00  3.47851501e-08  1.80000000e+00  3.47851501e-08  1.03935362e-04  3.47851501e-08  7.50069788e-01  3.47851501e-08  1.65223448e+00  3.47851501e-08  1.66151418e+00                                 
 4.82657645e-08  8.01853227e-01  4.82657645e-08  7.47535445e-01  4.82657645e-08  1.53947909e+00  4.82657645e-08  1.80000000e+00  4.82657645e-08 -1.08798181e-04  4.82657645e-08  7.50293003e-01  4.82657645e-08  1.65239064e+00  4.82657645e-08  1.66066048e+00                                 
 7.28127221e-08  8.01850392e-01  7.28127221e-08  7.47535961e-01  7.28127221e-08  1.47246146e+00  7.28127221e-08  1.80000000e+00  7.28127221e-08  1.03450024e-04  7.28127221e-08  7.50534041e-01  7.28127221e-08  1.65256919e+00  7.28127221e-08  1.65967311e+00                                 
 1.21906637e-07  8.01849977e-01  1.21906637e-07  7.47535363e-01  1.21906637e-07  1.33812996e+00  1.21906637e-07  1.80000000e+00  1.21906637e-07 -1.08689514e-04  1.21906637e-07  7.50632970e-01  1.21906637e-07  1.65262829e+00  1.21906637e-07  1.65878011e+00                                 
 1.96825393e-07  8.01848967e-01  1.96825393e-07  7.47535955e-01  1.96825393e-07  1.13580353e+00  1.96825393e-07  1.80000000e+00  1.96825393e-07  1.03498609e-04  1.96825393e-07  7.50656283e-01  1.96825393e-07  1.65264273e+00  1.96825393e-07  1.65845000e+00                                 
 3.09164317e-07  8.01849780e-01  3.09164317e-07  7.47535361e-01  3.09164317e-07  8.58158189e-01  3.09164317e-07  1.80000000e+00  3.09164317e-07 -1.07257511e-04  3.09164317e-07  7.50635210e-01  3.09164317e-07  1.65261551e+00  3.09164317e-07  1.65839301e+00                                 
 4.14772317e-07  8.01849270e-01  4.14772317e-07  7.47535973e-01  4.14772317e-07  7.47073602e-01  4.14772317e-07  1.80000000e+00  4.14772317e-07  1.06188951e-04  4.14772317e-07  7.50657362e-01  4.14772317e-07  1.65263339e+00  4.14772317e-07  1.65839703e+00                                 
 5.15238206e-07  8.01849143e-01  5.15238206e-07  7.47535339e-01  5.15238206e-07  7.55978239e-01  5.15238206e-07  1.80000000e+00  5.15238206e-07 -1.05831459e-04  5.15238206e-07  7.50636535e-01  5.15238206e-07  1.65260840e+00  5.15238206e-07  1.65838985e+00                                 
 5.55751681e-07  8.01849625e-01  5.55751681e-07  7.47535948e-01  5.55751681e-07  7.54249358e-01  5.55751681e-07  1.80000000e+00  5.55751681e-07  1.05927462e-04  5.55751681e-07  7.50654869e-01  5.55751681e-07  1.65262563e+00  5.55751681e-07  1.65839120e+00                                 
 6.16764758e-07  8.01849310e-01  6.16764758e-07  7.47535395e-01  6.16764758e-07  7.53618135e-01  6.16764758e-07  1.80000000e+00  6.16764758e-07 -1.05647875e-04  6.16764758e-07  7.50637189e-01  6.16764758e-07  1.65260490e+00  6.16764758e-07  1.65838499e+00                                 
 7.31934359e-07  8.01849395e-01  7.31934359e-07  7.47535914e-01  7.31934359e-07  7.53976443e-01  7.31934359e-07  1.80000000e+00  7.31934359e-07  1.05852258e-04  7.31934359e-07  7.50655230e-01  7.31934359e-07  1.65261892e+00  7.31934359e-07  1.65838417e+00                                 
 9.33376633e-07  8.01849402e-01  9.33376633e-07  7.47535409e-01  9.33376633e-07  7.53657483e-01  9.33376633e-07  1.80000000e+00  9.33376633e-07 -1.05605034e-04  9.33376633e-07  7.50637029e-01  9.33376633e-07  1.65259215e+00  9.33376633e-07  1.65837244e+00                                 
 1.15536702e-06  8.01849341e-01  1.15536702e-06  7.47535907e-01  1.15536702e-06  7.53948641e-01  1.15536702e-06  1.80000000e+00  1.15536702e-06  1.05836893e-04  1.15536702e-06  7.50655328e-01  1.15536702e-06  1.65260214e+00  1.15536702e-06  1.65836731e+00                                 
 1.59934778e-06  8.01849438e-01  1.59934778e-06  7.47535414e-01  1.59934778e-06  7.53652328e-01  1.59934778e-06  1.80000000e+00  1.59934778e-06 -1.06003289e-04  1.59934778e-06  7.50636972e-01  1.59934778e-06  1.65256557e+00  1.59934778e-06  1.65834597e+00                                 
 2.42233014e-06  8.01849323e-01  2.42233014e-06  7.47535904e-01  2.42233014e-06  7.53936281e-01  2.42233014e-06  1.80000000e+00  2.42233014e-06  1.05849516e-04  2.42233014e-06  7.50655360e-01  2.42233014e-06  1.65255166e+00  2.42233014e-06  1.65831690e+00                                 
 3.62233014e-06  8.01849448e-01  3.62233014e-06  7.47535415e-01  3.62233014e-06  7.53662690e-01  3.62233014e-06  1.80000000e+00  3.62233014e-06 -1.05855221e-04  3.62233014e-06  7.50636953e-01  3.62233014e-06  1.65248487e+00  3.62233014e-06  1.65826544e+00                                 
 4.82233014e-06  8.01849315e-01  4.82233014e-06  7.47535903e-01  4.82233014e-06  7.53943398e-01  4.82233014e-06  1.80000000e+00  4.82233014e-06  1.05818118e-04  4.82233014e-06  7.50655371e-01  4.82233014e-06  1.65245594e+00  4.82233014e-06  1.65822135e+00                                 
 6.00100000e-06  8.01849456e-01  6.00100000e-06  7.47535416e-01  6.00100000e-06  7.53668531e-01  6.00100000e-06  1.80000000e+00  6.00100000e-06 -1.05747785e-04  6.00100000e-06  7.50636938e-01  6.00100000e-06  1.65238999e+00  6.00100000e-06  1.65817076e+00                                 
 6.00110000e-06  8.01812103e-01  6.00110000e-06  7.47298520e-01  6.00110000e-06  7.51735719e-01  6.00110000e-06  1.62000000e+00  6.00110000e-06 -1.07460273e-04  6.00110000e-06  7.48901704e-01  6.00110000e-06  1.65091701e+00  6.00110000e-06  1.65815952e+00                                 
 6.00130000e-06  8.01843349e-01  6.00130000e-06  7.47333725e-01  6.00130000e-06  7.52297957e-01  6.00130000e-06  1.26000000e+00  6.00130000e-06  4.36397059e-05  6.00130000e-06  7.49051600e-01  6.00130000e-06  1.65104712e+00  6.00130000e-06  1.65817984e+00                                 
 6.00170000e-06  8.01883991e-01  6.00170000e-06  7.47332301e-01  6.00170000e-06  7.61161130e-01  6.00170000e-06  5.40000000e-01  6.00170000e-06  1.05292515e+00  6.00170000e-06  7.47476715e-01  6.00170000e-06  1.62258495e+00  6.00170000e-06  1.65803565e+00                                 
 6.00200000e-06  8.01838676e-01  6.00200000e-06  7.45030143e-01  6.00200000e-06  7.95884905e-01  6.00200000e-06  0.00000000e+00  6.00200000e-06  1.79328361e+00  6.00200000e-06  7.21766404e-01  6.00200000e-06  1.36196395e+00  6.00200000e-06  1.65741046e+00                                 
 6.00204266e-06  8.01848847e-01  6.00204266e-06  7.44922440e-01  6.00204266e-06  7.94256606e-01  6.00204266e-06  0.00000000e+00  6.00204266e-06  1.79653007e+00  6.00204266e-06  7.20666361e-01  6.00204266e-06  1.30902041e+00  6.00204266e-06  1.65778011e+00                                 
 6.00212798e-06  8.01850054e-01  6.00212798e-06  7.44921744e-01  6.00212798e-06  7.88637194e-01  6.00212798e-06  0.00000000e+00  6.00212798e-06  1.79872410e+00  6.00212798e-06  7.21160777e-01  6.00212798e-06  1.21636661e+00  6.00212798e-06  1.65823960e+00                                 
 6.00229861e-06  8.01847470e-01  6.00229861e-06  7.45288782e-01  6.00229861e-06  7.80644066e-01  6.00229861e-06  0.00000000e+00  6.00229861e-06  1.79908634e+00  6.00229861e-06  7.25971337e-01  6.00229861e-06  1.08169646e+00  6.00229861e-06  1.65828399e+00                                 
 6.00250665e-06  8.01848994e-01  6.00250665e-06  7.45686321e-01  6.00250665e-06  7.75887541e-01  6.00250665e-06  0.00000000e+00  6.00250665e-06  1.79977001e+00  6.00250665e-06  7.30047434e-01  6.00250665e-06  9.63062020e-01  6.00250665e-06  1.65842673e+00                                 
 6.00276033e-06  8.01847294e-01  6.00276033e-06  7.46288294e-01  6.00276033e-06  7.69656771e-01  6.00276033e-06  0.00000000e+00  6.00276033e-06  1.79937719e+00  6.00276033e-06  7.35681160e-01  6.00276033e-06  8.58604570e-01  6.00276033e-06  1.65845663e+00                                 
 6.00310873e-06  8.01849151e-01  6.00310873e-06  7.47180304e-01  6.00310873e-06  7.60860877e-01  6.00310873e-06  0.00000000e+00  6.00310873e-06  1.79997345e+00  6.00310873e-06  7.43805099e-01  6.00310873e-06  7.82966221e-01  6.00310873e-06  1.65847767e+00                                 
 6.00343774e-06  8.01847827e-01  6.00343774e-06  7.47755233e-01  6.00343774e-06  7.55820628e-01  6.00343774e-06  0.00000000e+00  6.00343774e-06  1.79994248e+00  6.00343774e-06  7.48644697e-01  6.00343774e-06  7.61826669e-01  6.00343774e-06  1.65827272e+00                                 
 6.00377503e-06  8.01849513e-01  6.00377503e-06  7.47987951e-01  6.00377503e-06  7.54976619e-01  6.00377503e-06  0.00000000e+00  6.00377503e-06  1.80008774e+00  6.00377503e-06  7.50261676e-01  6.00377503e-06  7.56162937e-01  6.00377503e-06  1.65791354e+00                                 
 6.00418248e-06  8.01848343e-01  6.00418248e-06  7.48081315e-01  6.00418248e-06  7.54419680e-01  6.00418248e-06  0.00000000e+00  6.00418248e-06  1.79993902e+00  6.00418248e-06  7.51132437e-01  6.00418248e-06  7.54903252e-01  6.00418248e-06  1.65725060e+00                                 
 6.00476991e-06  8.01849838e-01  6.00476991e-06  7.48047802e-01  6.00476991e-06  7.55393902e-01  6.00476991e-06  0.00000000e+00  6.00476991e-06  1.80007752e+00  6.00476991e-06  7.51329598e-01  6.00476991e-06  7.54978125e-01  6.00476991e-06  1.65614365e+00                                 
 6.00583104e-06  8.01848694e-01  6.00583104e-06  7.47944212e-01  6.00583104e-06  7.56532153e-01  6.00583104e-06  0.00000000e+00  6.00583104e-06  1.79993823e+00  6.00583104e-06  7.51616616e-01  6.00583104e-06  7.56537972e-01  6.00583104e-06  1.65384841e+00                                 
 6.00780134e-06  8.01849991e-01  6.00780134e-06  7.47781755e-01  6.00780134e-06  7.60035480e-01  6.00780134e-06  0.00000000e+00  6.00780134e-06  1.80007627e+00  6.00780134e-06  7.51622680e-01  6.00780134e-06  7.59519683e-01  6.00780134e-06  1.64935884e+00                                 
 6.01174193e-06  8.01848752e-01  6.01174193e-06  7.47626522e-01  6.01174193e-06  7.66416581e-01  6.01174193e-06  0.00000000e+00  6.01174193e-06  1.79993844e+00  6.01174193e-06  7.51667884e-01  6.01174193e-06  7.66343587e-01  6.01174193e-06  1.64023933e+00                                 
 6.01962312e-06  8.01850002e-01  6.01962312e-06  7.47514511e-01  6.01962312e-06  7.80360740e-01  6.01962312e-06  0.00000000e+00  6.01962312e-06  1.80007578e+00  6.01962312e-06  7.51324995e-01  6.01962312e-06  7.79762770e-01  6.01962312e-06  1.62232524e+00                                 
 6.03538550e-06  8.01848761e-01  6.03538550e-06  7.47531854e-01  6.03538550e-06  8.06031602e-01  6.03538550e-06  0.00000000e+00  6.03538550e-06  1.79993801e+00  6.03538550e-06  7.51080090e-01  6.03538550e-06  8.05961969e-01  6.03538550e-06  1.58696698e+00                                 
 6.06691025e-06  8.01850002e-01  6.06691025e-06  7.47530442e-01  6.06691025e-06  8.53733192e-01  6.06691025e-06  0.00000000e+00  6.06691025e-06  1.80007434e+00  6.06691025e-06  7.50681230e-01  6.06691025e-06  8.52750429e-01  6.06691025e-06  1.51844935e+00                                 
