 time            v(vbep)         time            v(vben)         time            v(vout)         time            v(vphi1)        time            v(vphi2)        time            v(vref)         yes             currtemp       
 0.00000000e+00  5.82267751e-01  0.00000000e+00  5.19139242e-01  0.00000000e+00  1.39704642e-01  0.00000000e+00  0.00000000e+00  0.00000000e+00  1.79997577e+00  0.00000000e+00  5.00000000e-01  1.00000000e+00  7.30000000e+01 
 5.00000000e-12  5.82250092e-01  5.00000000e-12  5.19124564e-01  5.00000000e-12  1.40263388e-01  5.00000000e-12  1.80000000e-02  5.00000000e-12  1.80006693e+00  5.00000000e-12  5.00000000e-01                                 
 1.00000000e-11  5.82232667e-01  1.00000000e-11  5.19110189e-01  1.00000000e-11  1.40765644e-01  1.00000000e-11  3.60000000e-02  1.00000000e-11  1.80011216e+00  1.00000000e-11  5.00000000e-01                                 
 2.00000000e-11  5.82197936e-01  2.00000000e-11  5.19081516e-01  2.00000000e-11  1.41685140e-01  2.00000000e-11  7.20000000e-02  2.00000000e-11  1.80015226e+00  2.00000000e-11  5.00000000e-01                                 
 4.00000000e-11  5.82128688e-01  4.00000000e-11  5.19024315e-01  4.00000000e-11  1.43136526e-01  4.00000000e-11  1.44000000e-01  4.00000000e-11  1.80012454e+00  4.00000000e-11  5.00000000e-01                                 
 8.00000000e-11  5.81990596e-01  8.00000000e-11  5.18910203e-01  8.00000000e-11  1.45116591e-01  8.00000000e-11  2.88000000e-01  8.00000000e-11  1.80007465e+00  8.00000000e-11  5.00000000e-01                                 
 1.60000000e-10  5.81716102e-01  1.60000000e-10  5.18683134e-01  1.60000000e-10  1.47569416e-01  1.60000000e-10  5.76000000e-01  1.60000000e-10  1.80003214e+00  1.60000000e-10  5.00000000e-01                                 
 3.20000000e-10  5.81173636e-01  3.20000000e-10  5.18233519e-01  3.20000000e-10  1.73976671e-01  3.20000000e-10  1.15200000e+00  3.20000000e-10  1.80021391e+00  3.20000000e-10  5.00000000e-01                                 
 5.00000000e-10  5.80573534e-01  5.00000000e-10  5.17734765e-01  5.00000000e-10  4.75956263e-01  5.00000000e-10  1.80000000e+00  5.00000000e-10  1.33705450e-01  5.00000000e-10  5.00000000e-01                                 
 5.22494895e-10  5.80499370e-01  5.22494895e-10  5.17673016e-01  5.22494895e-10  5.39173180e-01  5.22494895e-10  1.80000000e+00  5.22494895e-10  2.79026504e-02  5.22494895e-10  5.00000000e-01                                 
 5.67484685e-10  5.80351367e-01  5.67484685e-10  5.17549745e-01  5.67484685e-10  6.55646208e-01  5.67484685e-10  1.80000000e+00  5.67484685e-10 -1.28013387e-02  5.67484685e-10  5.00000000e-01                                 
 6.57464264e-10  5.80057316e-01  6.57464264e-10  5.17304575e-01  6.57464264e-10  8.39557339e-01  6.57464264e-10  1.80000000e+00  6.57464264e-10  1.04732001e-02  6.57464264e-10  5.00000000e-01                                 
 7.80320325e-10  5.79659938e-01  7.80320325e-10  5.16972716e-01  7.80320325e-10  1.02801374e+00  7.80320325e-10  1.80000000e+00  7.80320325e-10 -8.89498543e-03  7.80320325e-10  5.00000000e-01                                 
 9.76937057e-10  5.79033536e-01  9.76937057e-10  5.16448354e-01  9.76937057e-10  1.26242941e+00  9.76937057e-10  1.80000000e+00  9.76937057e-10  8.28155995e-03  9.76937057e-10  5.00000000e-01                                 
 1.29833866e-09  5.78033855e-01  1.29833866e-09  5.15608419e-01  1.29833866e-09  1.53536707e+00  1.29833866e-09  1.80000000e+00  1.29833866e-09 -7.71621280e-03  1.29833866e-09  5.00000000e-01                                 
 1.90998674e-09  5.76208782e-01  1.90998674e-09  5.14065431e-01  1.90998674e-09  1.77007674e+00  1.90998674e-09  1.80000000e+00  1.90998674e-09  7.62057814e-03  1.90998674e-09  5.00000000e-01                                 
 2.18443916e-09  5.75421226e-01  2.18443916e-09  5.13395718e-01  2.18443916e-09  1.79927440e+00  2.18443916e-09  1.80000000e+00  2.18443916e-09 -7.06214445e-03  2.18443916e-09  5.00000000e-01                                 
 2.50972748e-09  5.74510978e-01  2.50972748e-09  5.12618884e-01  2.50972748e-09  1.81412636e+00  2.50972748e-09  1.80000000e+00  2.50972748e-09  6.78105209e-03  2.50972748e-09  5.00000000e-01                                 
 2.87694743e-09  5.73512072e-01  2.87694743e-09  5.11763002e-01  2.87694743e-09  1.82043683e+00  2.87694743e-09  1.80000000e+00  2.87694743e-09 -6.40682529e-03  2.87694743e-09  5.00000000e-01                                 
 3.61138733e-09  5.71598157e-01  3.61138733e-09  5.10113619e-01  3.61138733e-09  1.82246709e+00  3.61138733e-09  1.80000000e+00  3.61138733e-09  6.32264180e-03  3.61138733e-09  5.00000000e-01                                 
 4.37550544e-09  5.69716110e-01  4.37550544e-09  5.08479651e-01  4.37550544e-09  1.82083847e+00  4.37550544e-09  1.80000000e+00  4.37550544e-09 -6.12965232e-03  4.37550544e-09  5.00000000e-01                                 
 5.90374166e-09  5.66235428e-01  5.90374166e-09  5.05428853e-01  5.90374166e-09  1.81724423e+00  5.90374166e-09  1.80000000e+00  5.90374166e-09  6.11886580e-03  5.90374166e-09  5.00000000e-01                                 
 8.26900233e-09  5.61456830e-01  8.26900233e-09  5.01183486e-01  8.26900233e-09  1.81098420e+00  8.26900233e-09  1.80000000e+00  8.26900233e-09 -6.01769131e-03  8.26900233e-09  5.00000000e-01                                 
 9.81347743e-09  5.58667988e-01  9.81347743e-09  4.98676165e-01  9.81347743e-09  1.80721883e+00  9.81347743e-09  1.80000000e+00  9.81347743e-09  6.00258435e-03  9.81347743e-09  5.00000000e-01                                 
 1.13128708e-08  5.56162537e-01  1.13128708e-08  4.96407124e-01  1.13128708e-08  1.80375648e+00  1.13128708e-08  1.80000000e+00  1.13128708e-08 -5.89055952e-03  1.13128708e-08  5.00000000e-01                                 
 1.29221357e-08  5.53664239e-01  1.29221357e-08  4.94129956e-01  1.29221357e-08  1.80032481e+00  1.29221357e-08  1.80000000e+00  1.29221357e-08  5.87096478e-03  1.29221357e-08  5.00000000e-01                                 
 1.46209126e-08  5.51214244e-01  1.46209126e-08  4.91883259e-01  1.46209126e-08  1.79683669e+00  1.46209126e-08  1.80000000e+00  1.46209126e-08 -5.77351519e-03  1.46209126e-08  5.00000000e-01                                 
 1.63535437e-08  5.48890045e-01  1.63535437e-08  4.89739836e-01  1.63535437e-08  1.79342730e+00  1.63535437e-08  1.80000000e+00  1.63535437e-08  5.75591012e-03  1.63535437e-08  5.00000000e-01                                 
 1.83160712e-08  5.46445622e-01  1.83160712e-08  4.87473006e-01  1.83160712e-08  1.78955085e+00  1.83160712e-08  1.80000000e+00  1.83160712e-08 -5.66950721e-03  1.83160712e-08  5.00000000e-01                                 
 2.10531507e-08  5.43327999e-01  2.10531507e-08  4.84563119e-01  2.10531507e-08  1.78440379e+00  2.10531507e-08  1.80000000e+00  2.10531507e-08  5.67160681e-03  2.10531507e-08  5.00000000e-01                                 
 2.45390493e-08  5.39779627e-01  2.45390493e-08  4.81224516e-01  2.45390493e-08  1.77805074e+00  2.45390493e-08  1.80000000e+00  2.45390493e-08 -5.60782567e-03  2.45390493e-08  5.00000000e-01                                 
 3.07975420e-08  5.34335180e-01  3.07975420e-08  4.76046457e-01  3.07975420e-08  1.76754983e+00  3.07975420e-08  1.80000000e+00  3.07975420e-08  5.62933187e-03  3.07975420e-08  5.00000000e-01                                 
 4.08881265e-08  5.27275517e-01  4.08881265e-08  4.69242812e-01  4.08881265e-08  1.75176448e+00  4.08881265e-08  1.80000000e+00  4.08881265e-08 -5.58335370e-03  4.08881265e-08  5.00000000e-01                                 
 6.10692953e-08  5.16592929e-01  6.10692953e-08  4.58834298e-01  6.10692953e-08  1.72236971e+00  6.10692953e-08  1.80000000e+00  6.10692953e-08  5.61554508e-03  6.10692953e-08  5.00000000e-01                                 
 9.26287105e-08  5.04828565e-01  9.26287105e-08  4.47262763e-01  9.26287105e-08  1.68019648e+00  9.26287105e-08  1.80000000e+00  9.26287105e-08 -5.57564997e-03  9.26287105e-08  5.00000000e-01                                 
 1.49177202e-07  4.86481403e-01  1.49177202e-07  4.29932794e-01  1.49177202e-07  1.60645743e+00  1.49177202e-07  1.80000000e+00  1.49177202e-07  5.61099476e-03  1.49177202e-07  5.00000000e-01                                 
 2.08983295e-07  4.68061610e-01  2.08983295e-07  4.13327319e-01  2.08983295e-07  1.52776995e+00  2.08983295e-07  1.80000000e+00  2.08983295e-07 -5.57243565e-03  2.08983295e-07  5.00000000e-01                                 
 2.94397380e-07  4.44888973e-01  2.94397380e-07  3.92971219e-01  2.94397380e-07  1.41640169e+00  2.94397380e-07  1.80000000e+00  2.94397380e-07  5.60839921e-03  2.94397380e-07  5.00000000e-01                                 
 3.83740406e-07  4.19169341e-01  3.83740406e-07  3.71210854e-01  3.83740406e-07  1.29728745e+00  3.83740406e-07  1.80000000e+00  3.83740406e-07 -5.57033838e-03  3.83740406e-07  5.00000000e-01                                 
 5.62426459e-07  3.76716427e-01  5.62426459e-07  3.36052275e-01  5.62426459e-07  1.07408472e+00  5.62426459e-07  1.80000000e+00  5.62426459e-07  5.60690756e-03  5.62426459e-07  5.00000000e-01                                 
 5.92726507e-07  3.91596053e-01  5.92726507e-07  3.47874246e-01  5.92726507e-07  1.05941427e+00  5.92726507e-07  1.80000000e+00  5.92726507e-07  6.86150267e-06  5.92726507e-07  5.00000000e-01                                 
 6.53326604e-07  6.12303293e-01  6.53326604e-07  5.45085358e-01  6.53326604e-07  1.20929422e+00  6.53326604e-07  1.80000000e+00  6.53326604e-07  9.11564009e-06  6.53326604e-07  5.00000000e-01                                 
 6.97112053e-07  6.88477581e-01  6.97112053e-07  6.21681959e-01  6.97112053e-07  1.23818822e+00  6.97112053e-07  1.80000000e+00  6.97112053e-07  5.43430311e-06  6.97112053e-07  5.00000000e-01                                 
 7.38368991e-07  7.15906034e-01  7.38368991e-07  6.46218170e-01  7.38368991e-07  1.21869269e+00  7.38368991e-07  1.80000000e+00  7.38368991e-07  7.16168429e-06  7.38368991e-07  5.00000000e-01                                 
 7.78289530e-07  7.26117179e-01  7.78289530e-07  6.54874862e-01  7.78289530e-07  1.18827216e+00  7.78289530e-07  1.80000000e+00  7.78289530e-07  5.05658641e-06  7.78289530e-07  5.00000000e-01                                 
 8.21673314e-07  7.29262773e-01  8.21673314e-07  6.57484374e-01  8.21673314e-07  1.14372447e+00  8.21673314e-07  1.80000000e+00  8.21673314e-07  6.62587539e-06  8.21673314e-07  5.00000000e-01                                 
 8.89822315e-07  7.29048727e-01  8.89822315e-07  6.57310370e-01  8.89822315e-07  1.07690936e+00  8.89822315e-07  1.80000000e+00  8.89822315e-07  5.09253517e-06  8.89822315e-07  5.00000000e-01                                 
 9.51338773e-07  7.10520511e-01  9.51338773e-07  6.41605221e-01  9.51338773e-07  1.00262933e+00  9.51338773e-07  1.80000000e+00  9.51338773e-07  6.05088798e-06  9.51338773e-07  5.00000000e-01                                 
 1.02978600e-06  7.08544890e-01  1.02978600e-06  6.39813007e-01  1.02978600e-06  9.43985710e-01  1.02978600e-06  1.80000000e+00  1.02978600e-06  5.59578431e-06  1.02978600e-06  5.00000000e-01                                 
 1.10735273e-06  7.24639468e-01  1.10735273e-06  6.53654064e-01  1.10735273e-06  9.05203936e-01  1.10735273e-06  1.80000000e+00  1.10735273e-06  6.37644554e-06  1.10735273e-06  5.00000000e-01                                 
 1.19685360e-06  7.12789602e-01  1.19685360e-06  6.43558791e-01  1.19685360e-06  8.40546035e-01  1.19685360e-06  1.80000000e+00  1.19685360e-06  5.10850333e-06  1.19685360e-06  5.00000000e-01                                 
 1.28740696e-06  7.11918361e-01  1.28740696e-06  6.42784244e-01  1.28740696e-06  7.85168125e-01  1.28740696e-06  1.80000000e+00  1.28740696e-06  6.50950087e-06  1.28740696e-06  5.00000000e-01                                 
 1.39129265e-06  7.21731478e-01  1.39129265e-06  6.51202256e-01  1.39129265e-06  7.35405094e-01  1.39129265e-06  1.80000000e+00  1.39129265e-06  5.33084478e-06  1.39129265e-06  5.00000000e-01                                 
 1.54245252e-06  7.10780908e-01  1.54245252e-06  6.41811049e-01  1.54245252e-06  6.42251048e-01  1.54245252e-06  1.80000000e+00  1.54245252e-06  6.20569177e-06  1.54245252e-06  5.00000000e-01                                 
 1.68152032e-06  7.18057248e-01  1.68152032e-06  6.48070204e-01  1.68152032e-06  5.79455966e-01  1.68152032e-06  1.80000000e+00  1.68152032e-06  5.55393573e-06  1.68152032e-06  5.00000000e-01                                 
 1.84873190e-06  7.16097297e-01  1.84873190e-06  6.46422454e-01  1.84873190e-06  5.17706690e-01  1.84873190e-06  1.80000000e+00  1.84873190e-06  6.08762481e-06  1.84873190e-06  5.00000000e-01                                 
 2.06497571e-06  7.14519539e-01  2.06497571e-06  6.45031149e-01  2.06497571e-06  4.91894451e-01  2.06497571e-06  1.80000000e+00  2.06497571e-06  5.57279510e-06  2.06497571e-06  5.00000000e-01                                 
 2.29237179e-06  7.18186092e-01  2.29237179e-06  6.48208825e-01  2.29237179e-06  5.01961815e-01  2.29237179e-06  1.80000000e+00  2.29237179e-06  6.11324472e-06  2.29237179e-06  5.00000000e-01                                 
 2.51827840e-06  7.13458340e-01  2.51827840e-06  6.44117353e-01  2.51827840e-06  5.00333419e-01  2.51827840e-06  1.80000000e+00  2.51827840e-06  5.52243865e-06  2.51827840e-06  5.00000000e-01                                 
 2.77132512e-06  7.18182876e-01  2.77132512e-06  6.48202041e-01  2.77132512e-06  4.99972413e-01  2.77132512e-06  1.80000000e+00  2.77132512e-06  6.16743295e-06  2.77132512e-06  5.00000000e-01                                 
 3.10399505e-06  7.14055851e-01  3.10399505e-06  6.44637829e-01  3.10399505e-06  5.00197941e-01  3.10399505e-06  1.80000000e+00  3.10399505e-06  5.48158255e-06  3.10399505e-06  5.00000000e-01                                 
 3.47688626e-06  7.17400139e-01  3.47688626e-06  6.47530793e-01  3.47688626e-06  5.00347411e-01  3.47688626e-06  1.80000000e+00  3.47688626e-06  6.19351147e-06  3.47688626e-06  5.00000000e-01                                 
 4.03952953e-06  7.14853889e-01  4.03952953e-06  6.45328459e-01  4.03952953e-06  5.00161679e-01  4.03952953e-06  1.80000000e+00  4.03952953e-06  5.46673979e-06  4.03952953e-06  5.00000000e-01                                 
 4.80629039e-06  7.16833140e-01  4.80629039e-06  6.47044860e-01  4.80629039e-06  5.00224830e-01  4.80629039e-06  1.80000000e+00  4.80629039e-06  6.20005749e-06  4.80629039e-06  5.00000000e-01                                 
 5.80629039e-06  7.15313457e-01  5.80629039e-06  6.45725020e-01  5.80629039e-06  5.00333974e-01  5.80629039e-06  1.80000000e+00  5.80629039e-06  5.46384128e-06  5.80629039e-06  5.00000000e-01                                 
 6.80629039e-06  7.16441966e-01  6.80629039e-06  6.46708557e-01  6.80629039e-06  5.00040819e-01  6.80629039e-06  1.80000000e+00  6.80629039e-06  6.20108596e-06  6.80629039e-06  5.00000000e-01                                 
 7.80629039e-06  7.15713110e-01  7.80629039e-06  6.46069245e-01  7.80629039e-06  5.00545674e-01  7.80629039e-06  1.80000000e+00  7.80629039e-06  5.46409494e-06  7.80629039e-06  5.00000000e-01                                 
 8.80629039e-06  7.16052173e-01  8.80629039e-06  6.46373614e-01  8.80629039e-06  4.99800206e-01  8.80629039e-06  1.80000000e+00  8.80629039e-06  6.19955977e-06  8.80629039e-06  5.00000000e-01                                 
 9.80629039e-06  7.16099203e-01  9.80629039e-06  6.46401235e-01  9.80629039e-06  5.00811378e-01  9.80629039e-06  1.80000000e+00  9.80629039e-06  5.46686556e-06  9.80629039e-06  5.00000000e-01                                 
 1.00005000e-05  7.14980306e-01  1.00005000e-05  6.45451515e-01  1.00005000e-05  4.98900914e-01  1.00005000e-05  1.80000000e+00  1.00005000e-05  6.18044220e-06  1.00005000e-05  5.00000000e-01                                 
 1.00005500e-05  7.15034276e-01  1.00005500e-05  6.45480061e-01  1.00005500e-05  4.91433801e-01  1.00005500e-05  1.62000000e+00  1.00005500e-05 -7.82151838e-05  1.00005500e-05  5.00000000e-01                                 
 1.00006500e-05  7.15099077e-01  1.00006500e-05  6.45528788e-01  1.00006500e-05  4.77784477e-01  1.00006500e-05  1.26000000e+00  1.00006500e-05 -6.58876353e-05  1.00006500e-05  5.00000000e-01                                 
 1.00008500e-05  7.15188759e-01  1.00008500e-05  6.45610622e-01  1.00008500e-05  4.75757270e-01  1.00008500e-05  5.40000000e-01  1.00008500e-05  3.18799030e-02  1.00008500e-05  5.00000000e-01                                 
 1.00010000e-05  7.15251274e-01  1.00010000e-05  6.45661281e-01  1.00010000e-05  4.40039043e-01  1.00010000e-05  0.00000000e+00  1.00010000e-05  1.60379397e+00  1.00010000e-05  5.00000000e-01                                 
 1.00010250e-05  7.15258505e-01  1.00010250e-05  6.45668700e-01  1.00010250e-05  4.17932465e-01  1.00010250e-05  0.00000000e+00  1.00010250e-05  1.73400270e+00  1.00010250e-05  5.00000000e-01                                 
 1.00010749e-05  7.15274470e-01  1.00010749e-05  6.45683317e-01  1.00010749e-05  3.78382757e-01  1.00010749e-05  0.00000000e+00  1.00010749e-05  1.81868714e+00  1.00010749e-05  5.00000000e-01                                 
 1.00011748e-05  7.15305909e-01  1.00011748e-05  6.45710543e-01  1.00011748e-05  3.37603153e-01  1.00011748e-05  0.00000000e+00  1.00011748e-05  1.78658123e+00  1.00011748e-05  5.00000000e-01                                 
 1.00013101e-05  7.15342972e-01  1.00013101e-05  6.45743398e-01  1.00013101e-05  3.29370519e-01  1.00013101e-05  0.00000000e+00  1.00013101e-05  1.80874401e+00  1.00013101e-05  5.00000000e-01                                 
 1.00015264e-05  7.15393474e-01  1.00015264e-05  6.45788006e-01  1.00015264e-05  3.29404176e-01  1.00015264e-05  0.00000000e+00  1.00015264e-05  1.79277468e+00  1.00015264e-05  5.00000000e-01                                 
 1.00017554e-05  7.15436830e-01  1.00017554e-05  6.45826801e-01  1.00017554e-05  3.29786022e-01  1.00017554e-05  0.00000000e+00  1.00017554e-05  1.80579984e+00  1.00017554e-05  5.00000000e-01                                 
 1.00021534e-05  7.15496966e-01  1.00021534e-05  6.45880505e-01  1.00021534e-05  3.29587424e-01  1.00021534e-05  0.00000000e+00  1.00021534e-05  1.79482025e+00  1.00021534e-05  5.00000000e-01                                 
 1.00026361e-05  7.15553286e-01  1.00026361e-05  6.45930948e-01  1.00026361e-05  3.29768847e-01  1.00026361e-05  0.00000000e+00  1.00026361e-05  1.80467187e+00  1.00026361e-05  5.00000000e-01                                 
 1.00036014e-05  7.15644055e-01  1.00036014e-05  6.46011059e-01  1.00036014e-05  3.29901098e-01  1.00036014e-05  0.00000000e+00  1.00036014e-05  1.79553078e+00  1.00036014e-05  5.00000000e-01                                 
 1.00055321e-05  7.15799135e-01  1.00055321e-05  6.46145737e-01  1.00055321e-05  3.31001802e-01  1.00055321e-05  0.00000000e+00  1.00055321e-05  1.80434088e+00  1.00055321e-05  5.00000000e-01                                 
 1.00093935e-05  7.16082469e-01  1.00093935e-05  6.46389544e-01  1.00093935e-05  3.33627061e-01  1.00093935e-05  0.00000000e+00  1.00093935e-05  1.79569238e+00  1.00093935e-05  5.00000000e-01                                 
 1.00171162e-05  7.16560368e-01  1.00171162e-05  6.46800850e-01  1.00171162e-05  3.42104112e-01  1.00171162e-05  0.00000000e+00  1.00171162e-05  1.80426192e+00  1.00171162e-05  5.00000000e-01                                 
 1.00325617e-05  7.17148488e-01  1.00325617e-05  6.47306582e-01  1.00325617e-05  3.86623678e-01  1.00325617e-05  0.00000000e+00  1.00325617e-05  1.79573190e+00  1.00325617e-05  5.00000000e-01                                 
