 time            v(vbep)         time            v(vben)         time            v(vout)         time            v(vphi1)        time            v(vphi2)        time            v(vref)         yes             currtemp       
 0.00000000e+00  5.68425773e-01  0.00000000e+00  5.01511884e-01  0.00000000e+00  1.09670192e+00  0.00000000e+00  0.00000000e+00  0.00000000e+00  1.79993658e+00  0.00000000e+00  5.01511884e-01  1.00000000e+00  9.40000000e+01 
 5.00000000e-12  5.68385800e-01  5.00000000e-12  5.01479017e-01  5.00000000e-12  1.09745045e+00  5.00000000e-12  1.80000000e-02  5.00000000e-12  1.80006961e+00  5.00000000e-12  5.01479017e-01                                 
 1.00000000e-11  5.68347153e-01  1.00000000e-11  5.01447143e-01  1.00000000e-11  1.09812568e+00  1.00000000e-11  3.60000000e-02  1.00000000e-11  1.80014874e+00  1.00000000e-11  5.01447143e-01                                 
 2.00000000e-11  5.68270700e-01  2.00000000e-11  5.01383679e-01  2.00000000e-11  1.09936069e+00  2.00000000e-11  7.20000000e-02  2.00000000e-11  1.80023577e+00  2.00000000e-11  5.01383679e-01                                 
 4.00000000e-11  5.68119222e-01  4.00000000e-11  5.01257325e-01  4.00000000e-11  1.10129636e+00  4.00000000e-11  1.44000000e-01  4.00000000e-11  1.80021835e+00  4.00000000e-11  5.01257325e-01                                 
 8.00000000e-11  5.67817937e-01  8.00000000e-11  5.01005906e-01  8.00000000e-11  1.10379400e+00  8.00000000e-11  2.88000000e-01  8.00000000e-11  1.80011202e+00  8.00000000e-11  5.01005906e-01                                 
 1.60000000e-10  5.67222581e-01  1.60000000e-10  5.00508137e-01  1.60000000e-10  1.10581603e+00  1.60000000e-10  5.76000000e-01  1.60000000e-10  1.80000631e+00  1.60000000e-10  5.00508137e-01                                 
 3.20000000e-10  5.66058767e-01  3.20000000e-10  4.99532059e-01  3.20000000e-10  1.09988273e+00  3.20000000e-10  1.15200000e+00  3.20000000e-10  1.80035863e+00  3.20000000e-10  4.99532059e-01                                 
 5.00000000e-10  5.64790786e-01  5.00000000e-10  4.98463796e-01  5.00000000e-10  1.21127103e+00  5.00000000e-10  1.80000000e+00  5.00000000e-10  1.92991044e-01  5.00000000e-10  4.98463796e-01                                 
 5.22715293e-10  5.64634123e-01  5.22715293e-10  4.98331435e-01  5.22715293e-10  1.23961098e+00  5.22715293e-10  1.80000000e+00  5.22715293e-10  5.32159346e-02  5.22715293e-10  4.98331435e-01                                 
 5.68145880e-10  5.64322052e-01  5.68145880e-10  4.98067605e-01  5.68145880e-10  1.29613525e+00  5.68145880e-10  1.80000000e+00  5.68145880e-10 -1.80167036e-02  5.68145880e-10  4.98067605e-01                                 
 6.59007052e-10  5.63705542e-01  6.59007052e-10  4.97545535e-01  6.59007052e-10  1.39604312e+00  6.59007052e-10  1.80000000e+00  6.59007052e-10  1.48202552e-02  6.59007052e-10  4.97545535e-01                                 
 7.80697331e-10  5.62895372e-01  7.80697331e-10  4.96857723e-01  7.80697331e-10  1.50812984e+00  7.80697331e-10  1.80000000e+00  7.80697331e-10 -1.07619408e-02  7.80697331e-10  4.96857723e-01                                 
 9.66130627e-10  5.61693432e-01  9.66130627e-10  4.95833703e-01  9.66130627e-10  1.64140117e+00  9.66130627e-10  1.80000000e+00  9.66130627e-10  1.04565887e-02  9.66130627e-10  4.95833703e-01                                 
 1.33699722e-09  5.59398712e-01  1.33699722e-09  4.93867007e-01  1.33699722e-09  1.79854156e+00  1.33699722e-09  1.80000000e+00  1.33699722e-09 -9.05068471e-03  1.33699722e-09  4.93867007e-01                                 
 1.64398249e-09  5.57601743e-01  1.64398249e-09  4.92316049e-01  1.64398249e-09  1.85611610e+00  1.64398249e-09  1.80000000e+00  1.64398249e-09  8.70842363e-03  1.64398249e-09  4.92316049e-01                                 
 2.00585324e-09  5.55590219e-01  2.00585324e-09  4.90568981e-01  2.00585324e-09  1.88372112e+00  2.00585324e-09  1.80000000e+00  2.00585324e-09 -7.92155110e-03  2.00585324e-09  4.90568981e-01                                 
 2.35901648e-09  5.53728557e-01  2.35901648e-09  4.88941927e-01  2.35901648e-09  1.89340403e+00  2.35901648e-09  1.80000000e+00  2.35901648e-09  7.49624564e-03  2.35901648e-09  4.88941927e-01                                 
 2.90219895e-09  5.51038196e-01  2.90219895e-09  4.86574122e-01  2.90219895e-09  1.89589985e+00  2.90219895e-09  1.80000000e+00  2.90219895e-09 -7.07844593e-03  2.90219895e-09  4.86574122e-01                                 
 3.56633121e-09  5.47999722e-01  3.56633121e-09  4.83876987e-01  3.56633121e-09  1.89442055e+00  3.56633121e-09  1.80000000e+00  3.56633121e-09  6.87831710e-03  3.56633121e-09  4.83876987e-01                                 
 4.72038824e-09  5.43258729e-01  4.72038824e-09  4.79623274e-01  4.72038824e-09  1.88961319e+00  4.72038824e-09  1.80000000e+00  4.72038824e-09 -6.67379331e-03  4.72038824e-09  4.79623274e-01                                 
 6.50444485e-09  5.36979424e-01  6.50444485e-09  4.73909199e-01  6.50444485e-09  1.88396092e+00  6.50444485e-09  1.80000000e+00  6.50444485e-09  6.64441039e-03  6.50444485e-09  4.73909199e-01                                 
 8.83642022e-09  5.30175681e-01  8.83642022e-09  4.67621749e-01  8.83642022e-09  1.87721247e+00  8.83642022e-09  1.80000000e+00  8.83642022e-09 -6.51054008e-03  8.83642022e-09  4.67621749e-01                                 
 1.06480787e-08  5.25704537e-01  1.06480787e-08  4.63438221e-01  1.06480787e-08  1.87338434e+00  1.06480787e-08  1.80000000e+00  1.06480787e-08  6.47665770e-03  1.06480787e-08  4.63438221e-01                                 
 1.20297516e-08  5.22654932e-01  1.20297516e-08  4.60563912e-01  1.20297516e-08  1.87024188e+00  1.20297516e-08  1.80000000e+00  1.20297516e-08 -6.30828810e-03  1.20297516e-08  4.60563912e-01                                 
 1.36991577e-08  5.19301495e-01  1.36991577e-08  4.57385745e-01  1.36991577e-08  1.86748407e+00  1.36991577e-08  1.80000000e+00  1.36991577e-08  6.26441244e-03  1.36991577e-08  4.57385745e-01                                 
 1.52457136e-08  5.16467713e-01  1.52457136e-08  4.54686487e-01  1.52457136e-08  1.86458749e+00  1.52457136e-08  1.80000000e+00  1.52457136e-08 -6.11505240e-03  1.52457136e-08  4.54686487e-01                                 
 1.70698831e-08  5.13404858e-01  1.70698831e-08  4.51756157e-01  1.70698831e-08  1.86215048e+00  1.70698831e-08  1.80000000e+00  1.70698831e-08  6.08015977e-03  1.70698831e-08  4.51756157e-01                                 
 1.93063830e-08  5.09994000e-01  1.93063830e-08  4.48478173e-01  1.93063830e-08  1.85879541e+00  1.93063830e-08  1.80000000e+00  1.93063830e-08 -5.96448036e-03  1.93063830e-08  4.48478173e-01                                 
 2.23781008e-08  5.05809999e-01  2.23781008e-08  4.44437603e-01  2.23781008e-08  1.85540935e+00  2.23781008e-08  1.80000000e+00  2.23781008e-08  5.96477598e-03  2.23781008e-08  4.44437603e-01                                 
 2.66831007e-08  5.00707033e-01  2.66831007e-08  4.39482677e-01  2.66831007e-08  1.85063432e+00  2.66831007e-08  1.80000000e+00  2.66831007e-08 -5.88133072e-03  2.66831007e-08  4.39482677e-01                                 
 3.29745843e-08  4.94422604e-01  3.29745843e-08  4.33344093e-01  3.29745843e-08  1.84532221e+00  3.29745843e-08  1.80000000e+00  3.29745843e-08  5.90793805e-03  3.29745843e-08  4.33344093e-01                                 
 4.46360846e-08  4.85150085e-01  4.46360846e-08  4.24231073e-01  4.46360846e-08  1.83384949e+00  4.46360846e-08  1.80000000e+00  4.46360846e-08 -5.84505847e-03  4.46360846e-08  4.24231073e-01                                 
 6.43463106e-08  4.72920613e-01  6.43463106e-08  4.12274284e-01  6.43463106e-08  1.81021657e+00  6.43463106e-08  1.80000000e+00  6.43463106e-08  5.88836929e-03  6.43463106e-08  4.12274284e-01                                 
 8.66364887e-08  4.57881973e-01  8.66364887e-08  3.98475748e-01  8.66364887e-08  1.78191281e+00  8.66364887e-08  1.80000000e+00  8.66364887e-08 -5.83137403e-03  8.66364887e-08  3.98475748e-01                                 
 1.04621541e-07  4.47045419e-01  1.04621541e-07  3.88689672e-01  1.04621541e-07  1.75603996e+00  1.04621541e-07  1.80000000e+00  1.04621541e-07  5.87383741e-03  1.04621541e-07  3.88689672e-01                                 
 1.25244052e-07  4.37094141e-01  1.25244052e-07  3.79660368e-01  1.25244052e-07  1.71716832e+00  1.25244052e-07  1.80000000e+00  1.25244052e-07 -5.81663932e-03  1.25244052e-07  3.79660368e-01                                 
 1.46854742e-07  4.29881693e-01  1.46854742e-07  3.72931841e-01  1.46854742e-07  1.68321426e+00  1.46854742e-07  1.80000000e+00  1.46854742e-07  5.86117307e-03  1.46854742e-07  3.72931841e-01                                 
 1.69840699e-07  4.32095957e-01  1.69840699e-07  3.73715421e-01  1.69840699e-07  1.67702962e+00  1.69840699e-07  1.80000000e+00  1.69840699e-07 -5.80064773e-03  1.69840699e-07  3.73715421e-01                                 
 1.87537486e-07  4.33144989e-01  1.87537486e-07  3.73860370e-01  1.87537486e-07  1.66144061e+00  1.87537486e-07  1.80000000e+00  1.87537486e-07  5.84579073e-03  1.87537486e-07  3.73860370e-01                                 
 2.08517366e-07  4.29160855e-01  2.08517366e-07  3.69969504e-01  2.08517366e-07  1.63405182e+00  2.08517366e-07  1.80000000e+00  2.08517366e-07 -5.78715308e-03  2.08517366e-07  3.69969504e-01                                 
 2.27208980e-07  4.26846528e-01  2.27208980e-07  3.67538483e-01  2.27208980e-07  1.61281857e+00  2.27208980e-07  1.80000000e+00  2.27208980e-07  5.83177065e-03  2.27208980e-07  3.67538483e-01                                 
 2.47109608e-07  4.24757967e-01  2.47109608e-07  3.65296663e-01  2.47109608e-07  1.59025835e+00  2.47109608e-07  1.80000000e+00  2.47109608e-07 -5.77239626e-03  2.47109608e-07  3.65296663e-01                                 
 2.86258428e-07  4.19252199e-01  2.86258428e-07  3.59901400e-01  2.86258428e-07  1.54393112e+00  2.86258428e-07  1.80000000e+00  2.86258428e-07  5.82080387e-03  2.86258428e-07  3.59901400e-01                                 
 3.36699172e-07  4.08094144e-01  3.36699172e-07  3.49927322e-01  3.36699172e-07  1.48010929e+00  3.36699172e-07  1.80000000e+00  3.36699172e-07 -5.76634307e-03  3.36699172e-07  3.49927322e-01                                 
 4.13236694e-07  3.89640628e-01  4.13236694e-07  3.33921238e-01  4.13236694e-07  1.38071341e+00  4.13236694e-07  1.80000000e+00  4.13236694e-07  5.81606414e-03  4.13236694e-07  3.33921238e-01                                 
 4.83978095e-07  3.73416034e-01  4.83978095e-07  3.20073726e-01  4.83978095e-07  1.28947571e+00  4.83978095e-07  1.80000000e+00  4.83978095e-07 -5.76245208e-03  4.83978095e-07  3.20073726e-01                                 
 6.25460897e-07  3.28408824e-01  6.25460897e-07  2.82980399e-01  6.25460897e-07  1.10208520e+00  6.25460897e-07  1.80000000e+00  6.25460897e-07  5.81282652e-03  6.25460897e-07  2.82980399e-01                                 
 6.51096784e-07  3.20642987e-01  6.51096784e-07  2.76656492e-01  6.51096784e-07  1.07156616e+00  6.51096784e-07  1.80000000e+00  6.51096784e-07  1.54641489e-05  6.51096784e-07  2.76656492e-01                                 
 7.02368556e-07  3.03184853e-01  7.02368556e-07  2.62500674e-01  7.02368556e-07  1.01253965e+00  7.02368556e-07  1.80000000e+00  7.02368556e-07  1.26571851e-05  7.02368556e-07  2.62500674e-01                                 
 8.04912102e-07  6.17839676e-01  8.04912102e-07  5.48148390e-01  8.04912102e-07  1.21634881e+00  8.04912102e-07  1.80000000e+00  8.04912102e-07  3.17068706e-05  8.04912102e-07  5.48148390e-01                                 
 8.78932038e-07  7.07919890e-01  8.78932038e-07  6.28968786e-01  8.78932038e-07  1.22609599e+00  8.78932038e-07  1.80000000e+00  8.78932038e-07  4.41217155e-06  8.78932038e-07  6.28968786e-01                                 
 9.41993733e-07  7.16549515e-01  9.41993733e-07  6.35674975e-01  9.41993733e-07  1.16581337e+00  9.41993733e-07  1.80000000e+00  9.41993733e-07  2.54709184e-05  9.41993733e-07  6.35674975e-01                                 
 9.89855327e-07  7.13122957e-01  9.89855327e-07  6.33045446e-01  9.89855327e-07  1.11665729e+00  9.89855327e-07  1.80000000e+00  9.89855327e-07  3.52842220e-06  9.89855327e-07  6.33045446e-01                                 
 1.04166842e-06  6.75156808e-01  1.04166842e-06  6.01918163e-01  1.04166842e-06  1.03237950e+00  1.04166842e-06  1.80000000e+00  1.04166842e-06  2.18662286e-05  1.04166842e-06  6.01918163e-01                                 
 1.09685213e-06  6.38044338e-01  1.09685213e-06  5.68289456e-01  1.09685213e-06  9.59041149e-01  1.09685213e-06  1.80000000e+00  1.09685213e-06  4.13547996e-06  1.09685213e-06  5.68289456e-01                                 
 1.10330443e-06  6.43388660e-01  1.10330443e-06  5.73126034e-01  1.10330443e-06  9.58540558e-01  1.10330443e-06  1.80000000e+00  1.10330443e-06  1.69873870e-05  1.10330443e-06  5.73126034e-01                                 
 1.11620903e-06  6.54328988e-01  1.11620903e-06  5.83203997e-01  1.11620903e-06  9.59607234e-01  1.11620903e-06  1.80000000e+00  1.11620903e-06  1.74551138e-05  1.11620903e-06  5.83203997e-01                                 
 1.14201823e-06  6.74939495e-01  1.14201823e-06  6.01651356e-01  1.14201823e-06  9.60962070e-01  1.14201823e-06  1.80000000e+00  1.14201823e-06  1.67164092e-05  1.14201823e-06  6.01651356e-01                                 
 1.18670592e-06  6.93258581e-01  1.18670592e-06  6.17173943e-01  1.18670592e-06  9.47431028e-01  1.18670592e-06  1.80000000e+00  1.18670592e-06  1.52735191e-05  1.18670592e-06  6.17173943e-01                                 
 1.23886303e-06  6.99550673e-01  1.23886303e-06  6.22315798e-01  1.23886303e-06  9.19114716e-01  1.23886303e-06  1.80000000e+00  1.23886303e-06  1.51766146e-05  1.23886303e-06  6.22315798e-01                                 
 1.30609666e-06  6.80055002e-01  1.30609666e-06  6.06126116e-01  1.30609666e-06  8.59491924e-01  1.30609666e-06  1.80000000e+00  1.30609666e-06  1.31402347e-05  1.30609666e-06  6.06126116e-01                                 
 1.37740153e-06  6.71301019e-01  1.37740153e-06  5.98481580e-01  1.37740153e-06  8.08639589e-01  1.37740153e-06  1.80000000e+00  1.37740153e-06  1.61101956e-05  1.37740153e-06  5.98481580e-01                                 
 1.44833036e-06  6.93230389e-01  1.44833036e-06  6.17153948e-01  1.44833036e-06  7.86875952e-01  1.44833036e-06  1.80000000e+00  1.44833036e-06  1.54827879e-05  1.44833036e-06  6.17153948e-01                                 
 1.52727963e-06  6.85945232e-01  1.52727963e-06  6.11119070e-01  1.52727963e-06  7.35005707e-01  1.52727963e-06  1.80000000e+00  1.52727963e-06  1.40313674e-05  1.52727963e-06  6.11119070e-01                                 
 1.60158914e-06  6.75779198e-01  1.60158914e-06  6.02400076e-01  1.60158914e-06  6.85376276e-01  1.60158914e-06  1.80000000e+00  1.60158914e-06  1.53120167e-05  1.60158914e-06  6.02400076e-01                                 
 1.71570560e-06  6.89395805e-01  1.71570560e-06  6.13983588e-01  1.71570560e-06  6.49392411e-01  1.71570560e-06  1.80000000e+00  1.71570560e-06  1.55113422e-05  1.71570560e-06  6.13983588e-01                                 
 1.83044666e-06  6.82737796e-01  1.83044666e-06  6.08394470e-01  1.83044666e-06  6.14543941e-01  1.83044666e-06  1.80000000e+00  1.83044666e-06  1.45787939e-05  1.83044666e-06  6.08394470e-01                                 
 1.94711990e-06  6.81329771e-01  1.94711990e-06  6.07176214e-01  1.94711990e-06  5.98047743e-01  1.94711990e-06  1.80000000e+00  1.94711990e-06  1.58554712e-05  1.94711990e-06  6.07176214e-01                                 
 2.10028431e-06  6.88349147e-01  2.10028431e-06  6.13118750e-01  2.10028431e-06  6.04851873e-01  2.10028431e-06  1.80000000e+00  2.10028431e-06  1.49912621e-05  2.10028431e-06  6.13118750e-01                                 
 2.29725781e-06  6.79456786e-01  2.29725781e-06  6.05582636e-01  2.29725781e-06  6.08651842e-01  2.29725781e-06  1.80000000e+00  2.29725781e-06  1.54405178e-05  2.29725781e-06  6.05582636e-01                                 
 2.48094726e-06  6.87541706e-01  2.48094726e-06  6.12434696e-01  2.48094726e-06  6.12055137e-01  2.48094726e-06  1.80000000e+00  2.48094726e-06  1.53723318e-05  2.48094726e-06  6.12434696e-01                                 
 2.68609788e-06  6.81718762e-01  2.68609788e-06  6.07524531e-01  2.68609788e-06  6.07512426e-01  2.68609788e-06  1.80000000e+00  2.68609788e-06  1.50977891e-05  2.68609788e-06  6.07524531e-01                                 
 2.93119616e-06  6.85174851e-01  2.93119616e-06  6.10440176e-01  2.93119616e-06  6.11061697e-01  2.93119616e-06  1.80000000e+00  2.93119616e-06  1.55829080e-05  2.93119616e-06  6.10440176e-01                                 
 3.24798331e-06  6.83905078e-01  3.24798331e-06  6.09383823e-01  3.24798331e-06  6.09187423e-01  3.24798331e-06  1.80000000e+00  3.24798331e-06  1.50051624e-05  3.24798331e-06  6.09383823e-01                                 
 3.70425822e-06  6.83705735e-01  3.70425822e-06  6.09197180e-01  3.70425822e-06  6.09779664e-01  3.70425822e-06  1.80000000e+00  3.70425822e-06  1.56024995e-05  3.70425822e-06  6.09197180e-01                                 
 4.32393800e-06  6.84856949e-01  4.32393800e-06  6.10188530e-01  4.32393800e-06  6.10071604e-01  4.32393800e-06  1.80000000e+00  4.32393800e-06  1.50156240e-05  4.32393800e-06  6.10188530e-01                                 
 5.20826941e-06  6.83072074e-01  5.20826941e-06  6.08659915e-01  5.20826941e-06  6.09169373e-01  5.20826941e-06  1.80000000e+00  5.20826941e-06  1.55836586e-05  5.20826941e-06  6.08659915e-01                                 
 6.20826941e-06  6.85284851e-01  6.20826941e-06  6.10549215e-01  6.20826941e-06  6.10499107e-01  6.20826941e-06  1.80000000e+00  6.20826941e-06  1.50364990e-05  6.20826941e-06  6.10549215e-01                                 
 7.20826941e-06  6.82691904e-01  7.20826941e-06  6.08337352e-01  7.20826941e-06  6.08787046e-01  7.20826941e-06  1.80000000e+00  7.20826941e-06  1.55597837e-05  7.20826941e-06  6.08337352e-01                                 
 8.20826941e-06  6.85608233e-01  8.20826941e-06  6.10821264e-01  8.20826941e-06  6.10829084e-01  8.20826941e-06  1.80000000e+00  8.20826941e-06  1.50639877e-05  8.20826941e-06  6.10821264e-01                                 
 9.20826941e-06  6.82388730e-01  9.20826941e-06  6.08080100e-01  9.20826941e-06  6.08474489e-01  9.20826941e-06  1.80000000e+00  9.20826941e-06  1.55290727e-05  9.20826941e-06  6.08080100e-01                                 
 1.00005000e-05  6.85879033e-01  1.00005000e-05  6.11048579e-01  1.00005000e-05  6.11112201e-01  1.00005000e-05  1.80000000e+00  1.00005000e-05  1.51022498e-05  1.00005000e-05  6.11048579e-01                                 
 1.00005500e-05  6.85877594e-01  1.00005500e-05  6.11047152e-01  1.00005500e-05  6.04416536e-01  1.00005500e-05  1.62000000e+00  1.00005500e-05 -1.19846604e-04  1.00005500e-05  6.11047152e-01                                 
 1.00006500e-05  6.85874468e-01  1.00006500e-05  6.11044093e-01  1.00006500e-05  5.92752311e-01  1.00006500e-05  1.26000000e+00  1.00006500e-05 -1.00673353e-04  1.00006500e-05  6.11044093e-01                                 
 1.00008500e-05  6.85866399e-01  1.00008500e-05  6.11036622e-01  1.00008500e-05  5.83386725e-01  1.00008500e-05  5.40000000e-01  1.00008500e-05  6.52156690e-02  1.00008500e-05  6.11036622e-01                                 
 1.00010000e-05  6.85858955e-01  1.00010000e-05  6.11030008e-01  1.00010000e-05  6.58528880e-01  1.00010000e-05  0.00000000e+00  1.00010000e-05  1.56507166e+00  1.00010000e-05  6.11030008e-01                                 
