 time            v(vbep)         time            v(vben)         time            v(vout)         time            v(vphi1)        time            v(vphi2)        time            v(vref)         yes             currtemp       
 0.00000000e+00  7.91117558e-01  0.00000000e+00  7.37637680e-01  0.00000000e+00  1.00760391e+00  0.00000000e+00  0.00000000e+00  0.00000000e+00  1.79921967e+00  0.00000000e+00  5.00000000e-01  1.00000000e+00  1.10000000e+01 
 5.00000000e-12  7.90754211e-01  5.00000000e-12  7.37433796e-01  5.00000000e-12  1.00832499e+00  5.00000000e-12  1.80000000e-02  5.00000000e-12  1.79949729e+00  5.00000000e-12  5.00000000e-01                                 
 1.00000000e-11  7.90469501e-01  1.00000000e-11  7.37277393e-01  1.00000000e-11  1.00897778e+00  1.00000000e-11  3.60000000e-02  1.00000000e-11  1.79969000e+00  1.00000000e-11  5.00000000e-01                                 
 2.00000000e-11  7.89993637e-01  2.00000000e-11  7.36982807e-01  2.00000000e-11  1.01017808e+00  2.00000000e-11  7.20000000e-02  2.00000000e-11  1.79995314e+00  2.00000000e-11  5.00000000e-01                                 
 4.00000000e-11  7.89295815e-01  4.00000000e-11  7.36415418e-01  4.00000000e-11  1.01210958e+00  4.00000000e-11  1.44000000e-01  4.00000000e-11  1.80009418e+00  4.00000000e-11  5.00000000e-01                                 
 8.00000000e-11  7.88054604e-01  8.00000000e-11  7.35291177e-01  8.00000000e-11  1.01482566e+00  8.00000000e-11  2.88000000e-01  8.00000000e-11  1.80004716e+00  8.00000000e-11  5.00000000e-01                                 
 1.60000000e-10  7.85637477e-01  1.60000000e-10  7.33099999e-01  1.60000000e-10  1.01815502e+00  1.60000000e-10  5.76000000e-01  1.60000000e-10  1.79999517e+00  1.60000000e-10  5.00000000e-01                                 
 3.20000000e-10  7.81032718e-01  3.20000000e-10  7.28922022e-01  3.20000000e-10  1.01254992e+00  3.20000000e-10  1.15200000e+00  3.20000000e-10  1.80038622e+00  3.20000000e-10  5.00000000e-01                                 
 5.00000000e-10  7.76226439e-01  5.00000000e-10  7.24555454e-01  5.00000000e-10  1.17402825e+00  5.00000000e-10  1.80000000e+00  5.00000000e-10  1.05221127e-01  5.00000000e-10  5.00000000e-01                                 
 5.21012805e-10  7.75696303e-01  5.21012805e-10  7.24073376e-01  5.21012805e-10  1.21019865e+00  5.21012805e-10  1.80000000e+00  5.21012805e-10  1.97549054e-02  5.21012805e-10  5.00000000e-01                                 
 5.63038414e-10  7.74643476e-01  5.63038414e-10  7.23114477e-01  5.63038414e-10  1.27545717e+00  5.63038414e-10  1.80000000e+00  5.63038414e-10 -9.03631534e-03  5.63038414e-10  5.00000000e-01                                 
 6.47089632e-10  7.72593566e-01  6.47089632e-10  7.21247487e-01  6.47089632e-10  1.37976000e+00  6.47089632e-10  1.80000000e+00  6.47089632e-10  7.92148519e-03  6.47089632e-10  5.00000000e-01                                 
 7.69696478e-10  7.69737412e-01  7.69696478e-10  7.18642776e-01  7.69696478e-10  1.49884915e+00  7.69696478e-10  1.80000000e+00  7.69696478e-10 -6.83283393e-03  7.69696478e-10  5.00000000e-01                                 
 9.59001894e-10  7.65616780e-01  9.59001894e-10  7.14878050e-01  9.59001894e-10  1.63267345e+00  9.59001894e-10  1.80000000e+00  9.59001894e-10  6.51682819e-03  9.59001894e-10  5.00000000e-01                                 
 1.33761273e-09  7.58287380e-01  1.33761273e-09  7.08158052e-01  1.33761273e-09  1.78285155e+00  1.33761273e-09  1.80000000e+00  1.33761273e-09 -6.17223261e-03  1.33761273e-09  5.00000000e-01                                 
 1.62420103e-09  7.53498066e-01  1.62420103e-09  7.03741074e-01  1.62420103e-09  1.82915371e+00  1.62420103e-09  1.80000000e+00  1.62420103e-09  5.96211094e-03  1.62420103e-09  5.00000000e-01                                 
 1.97093194e-09  7.48388240e-01  1.97093194e-09  6.99001857e-01  1.97093194e-09  1.85151581e+00  1.97093194e-09  1.80000000e+00  1.97093194e-09 -5.65635587e-03  1.97093194e-09  5.00000000e-01                                 
 2.29296695e-09  7.44204977e-01  2.29296695e-09  6.95101886e-01  2.29296695e-09  1.85763274e+00  2.29296695e-09  1.80000000e+00  2.29296695e-09  5.50399105e-03  2.29296695e-09  5.00000000e-01                                 
 2.63473035e-09  7.40251732e-01  2.63473035e-09  6.91396219e-01  2.63473035e-09  1.85845360e+00  2.63473035e-09  1.80000000e+00  2.63473035e-09 -5.23381840e-03  2.63473035e-09  5.00000000e-01                                 
 3.05792136e-09  7.35915522e-01  3.05792136e-09  6.87311909e-01  3.05792136e-09  1.85689057e+00  3.05792136e-09  1.80000000e+00  3.05792136e-09  5.10247755e-03  3.05792136e-09  5.00000000e-01                                 
 3.50499416e-09  7.31888199e-01  3.50499416e-09  6.83497039e-01  3.50499416e-09  1.85438602e+00  3.50499416e-09  1.80000000e+00  3.50499416e-09 -4.93227319e-03  3.50499416e-09  5.00000000e-01                                 
 4.21559317e-09  7.26370010e-01  4.21559317e-09  6.78240883e-01  4.21559317e-09  1.85060496e+00  4.21559317e-09  1.80000000e+00  4.21559317e-09  4.85372153e-03  4.21559317e-09  5.00000000e-01                                 
 5.16806564e-09  7.20253042e-01  5.16806564e-09  6.72372857e-01  5.16806564e-09  1.84625253e+00  5.16806564e-09  1.80000000e+00  5.16806564e-09 -4.77307867e-03  5.16806564e-09  5.00000000e-01                                 
 6.92401528e-09  7.11442241e-01  6.92401528e-09  6.63854358e-01  6.92401528e-09  1.84012119e+00  6.92401528e-09  1.80000000e+00  6.92401528e-09  4.75106740e-03  6.92401528e-09  5.00000000e-01                                 
 1.01560862e-08  6.99995587e-01  1.01560862e-08  6.52681180e-01  1.01560862e-08  1.83216849e+00  1.01560862e-08  1.80000000e+00  1.01560862e-08 -4.71578880e-03  1.01560862e-08  5.00000000e-01                                 
 1.66202281e-08  6.85539189e-01  1.66202281e-08  6.38431501e-01  1.66202281e-08  1.82224821e+00  1.66202281e-08  1.80000000e+00  1.66202281e-08  4.72335171e-03  1.66202281e-08  5.00000000e-01                                 
 2.76472287e-08  6.71193985e-01  2.76472287e-08  6.24171753e-01  2.76472287e-08  1.81237581e+00  2.76472287e-08  1.80000000e+00  2.76472287e-08 -4.69948001e-03  2.76472287e-08  5.00000000e-01                                 
 4.34130257e-08  6.58972343e-01  4.34130257e-08  6.11957715e-01  4.34130257e-08  1.80397948e+00  4.34130257e-08  1.80000000e+00  4.34130257e-08  4.71434354e-03  4.34130257e-08  5.00000000e-01                                 
 6.86413213e-08  6.46752215e-01  6.86413213e-08  5.99705642e-01  6.86413213e-08  1.79546671e+00  6.86413213e-08  1.80000000e+00  6.86413213e-08 -4.69283331e-03  6.86413213e-08  5.00000000e-01                                 
 1.09628347e-07  6.34607024e-01  1.09628347e-07  5.87452231e-01  1.09628347e-07  1.79002703e+00  1.09628347e-07  1.80000000e+00  1.09628347e-07  4.71058670e-03  1.09628347e-07  5.00000000e-01                                 
 1.72099753e-07  6.24288681e-01  1.72099753e-07  5.76745746e-01  1.72099753e-07  1.80362806e+00  1.72099753e-07  1.80000000e+00  1.72099753e-07 -4.69029488e-03  1.72099753e-07  5.00000000e-01                                 
 2.11302092e-07  6.19659914e-01  2.11302092e-07  5.71953631e-01  2.11302092e-07  1.76821026e+00  2.11302092e-07  1.80000000e+00  2.11302092e-07  4.70807599e-03  2.11302092e-07  5.00000000e-01                                 
 2.47587644e-07  6.12740946e-01  2.47587644e-07  5.65600605e-01  2.47587644e-07  1.66601053e+00  2.47587644e-07  1.80000000e+00  2.47587644e-07 -4.68712726e-03  2.47587644e-07  5.00000000e-01                                 
 2.74392288e-07  6.02684600e-01  2.74392288e-07  5.57073150e-01  2.74392288e-07  1.60436231e+00  2.74392288e-07  1.80000000e+00  2.74392288e-07  4.70395143e-03  2.74392288e-07  5.00000000e-01                                 
 3.03127987e-07  5.94248404e-01  3.03127987e-07  5.49862768e-01  3.03127987e-07  1.46461370e+00  3.03127987e-07  1.80000000e+00  3.03127987e-07 -4.68271197e-03  3.03127987e-07  5.00000000e-01                                 
 3.25939629e-07  5.89945766e-01  3.25939629e-07  5.46082770e-01  3.25939629e-07  1.34048653e+00  3.25939629e-07  1.80000000e+00  3.25939629e-07  4.69928031e-03  3.25939629e-07  5.00000000e-01                                 
 3.49777623e-07  5.96850123e-01  3.49777623e-07  5.51184783e-01  3.49777623e-07  1.26474493e+00  3.49777623e-07  1.80000000e+00  3.49777623e-07 -4.67713878e-03  3.49777623e-07  5.00000000e-01                                 
 3.66551527e-07  5.98373895e-01  3.66551527e-07  5.52132495e-01  3.66551527e-07  1.16126078e+00  3.66551527e-07  1.80000000e+00  3.66551527e-07  4.69290997e-03  3.66551527e-07  5.00000000e-01                                 
 3.86016470e-07  5.91929387e-01  3.86016470e-07  5.46737569e-01  3.86016470e-07  1.03993913e+00  3.86016470e-07  1.80000000e+00  3.86016470e-07 -4.67078658e-03  3.86016470e-07  5.00000000e-01                                 
 4.05203957e-07  5.88331488e-01  4.05203957e-07  5.43623712e-01  4.05203957e-07  9.32112669e-01  4.05203957e-07  1.80000000e+00  4.05203957e-07  4.68671388e-03  4.05203957e-07  5.00000000e-01                                 
 4.23179800e-07  5.84638813e-01  4.23179800e-07  5.40466683e-01  4.23179800e-07  8.53292654e-01  4.23179800e-07  1.80000000e+00  4.23179800e-07 -4.66429709e-03  4.23179800e-07  5.00000000e-01                                 
 4.49874722e-07  5.78849632e-01  4.49874722e-07  5.35563145e-01  4.49874722e-07  7.67106893e-01  4.49874722e-07  1.80000000e+00  4.49874722e-07  4.68104061e-03  4.49874722e-07  5.00000000e-01                                 
 4.77350645e-07  5.72579235e-01  4.77350645e-07  5.30301596e-01  4.77350645e-07  7.04082541e-01  4.77350645e-07  1.80000000e+00  4.77350645e-07 -4.65986808e-03  4.77350645e-07  5.00000000e-01                                 
 5.28872312e-07  5.61508896e-01  5.28872312e-07  5.21059721e-01  5.28872312e-07  5.97417267e-01  5.28872312e-07  1.80000000e+00  5.28872312e-07  4.67766769e-03  5.28872312e-07  5.00000000e-01                                 
 5.80533913e-07  5.46293201e-01  5.80533913e-07  5.08622691e-01  5.80533913e-07  5.22505383e-01  5.80533913e-07  1.80000000e+00  5.80533913e-07 -4.65760685e-03  5.80533913e-07  5.00000000e-01                                 
 6.64138264e-07  5.23634401e-01  6.64138264e-07  4.90221730e-01  6.64138264e-07  4.79317943e-01  6.64138264e-07  1.80000000e+00  6.64138264e-07  4.67579783e-03  6.64138264e-07  5.00000000e-01                                 
 7.41579627e-07  4.93713281e-01  7.41579627e-07  4.66193625e-01  7.41579627e-07  4.59632627e-01  7.41579627e-07  1.80000000e+00  7.41579627e-07 -4.65621173e-03  7.41579627e-07  5.00000000e-01                                 
 7.55419298e-07  4.87590485e-01  7.55419298e-07  4.61292742e-01  7.55419298e-07  4.55305472e-01  7.55419298e-07  1.80000000e+00  7.55419298e-07 -1.06346100e-06  7.55419298e-07  5.00000000e-01                                 
 7.83098642e-07  4.75167225e-01  7.83098642e-07  4.51353269e-01  7.83098642e-07  4.47307677e-01  7.83098642e-07  1.80000000e+00  7.83098642e-07  9.89846435e-07  7.83098642e-07  5.00000000e-01                                 
 8.26560795e-07  4.73798820e-01  8.26560795e-07  4.50286300e-01  8.26560795e-07  4.76667217e-01  8.26560795e-07  1.80000000e+00  8.26560795e-07 -7.35003700e-07  8.26560795e-07  5.00000000e-01                                 
 8.63526119e-07  5.65661848e-01  8.63526119e-07  5.23806275e-01  8.63526119e-07  6.01723802e-01  8.63526119e-07  1.80000000e+00  8.63526119e-07  3.00782144e-06  8.63526119e-07  5.00000000e-01                                 
 8.99715062e-07  7.54568632e-01  8.99715062e-07  6.99671079e-01  8.99715062e-07  6.54814907e-01  8.99715062e-07  1.80000000e+00  8.99715062e-07  2.57980433e-06  8.99715062e-07  5.00000000e-01                                 
 9.27508280e-07  7.99239924e-01  9.27508280e-07  7.44307863e-01  9.27508280e-07  5.64363314e-01  9.27508280e-07  1.80000000e+00  9.27508280e-07 -1.25229726e-07  9.27508280e-07  5.00000000e-01                                 
 9.56770380e-07  8.18750118e-01  9.56770380e-07  7.61439808e-01  9.56770380e-07  5.23344478e-01  9.56770380e-07  1.80000000e+00  9.56770380e-07  1.21000257e-06  9.56770380e-07  5.00000000e-01                                 
 9.89854664e-07  8.23358174e-01  9.89854664e-07  7.65526685e-01  9.89854664e-07  4.99700757e-01  9.89854664e-07  1.80000000e+00  9.89854664e-07 -6.66866732e-07  9.89854664e-07  5.00000000e-01                                 
 1.03040833e-06  8.26992967e-01  1.03040833e-06  7.68435954e-01  1.03040833e-06  5.00265909e-01  1.03040833e-06  1.80000000e+00  1.03040833e-06  1.00934365e-06  1.03040833e-06  5.00000000e-01                                 
 1.07350680e-06  8.34594260e-01  1.07350680e-06  7.74735911e-01  1.07350680e-06  5.04539733e-01  1.07350680e-06  1.80000000e+00  1.07350680e-06 -4.56707677e-07  1.07350680e-06  5.00000000e-01                                 
 1.08159307e-06  8.34667016e-01  1.08159307e-06  7.74768957e-01  1.08159307e-06  5.03471312e-01  1.08159307e-06  1.80000000e+00  1.08159307e-06  8.71736044e-08  1.08159307e-06  5.00000000e-01                                 
 1.09776562e-06  8.25372512e-01  1.09776562e-06  7.67230752e-01  1.09776562e-06  4.94984129e-01  1.09776562e-06  1.80000000e+00  1.09776562e-06 -5.35741366e-07  1.09776562e-06  5.00000000e-01                                 
 1.11833595e-06  8.03784925e-01  1.11833595e-06  7.48383667e-01  1.11833595e-06  4.77846833e-01  1.11833595e-06  1.80000000e+00  1.11833595e-06 -5.54209152e-07  1.11833595e-06  5.00000000e-01                                 
 1.14360122e-06  7.95286931e-01  1.14360122e-06  7.40548407e-01  1.14360122e-06  4.72041550e-01  1.14360122e-06  1.80000000e+00  1.14360122e-06  3.75461696e-07  1.14360122e-06  5.00000000e-01                                 
 1.17344011e-06  8.01833768e-01  1.17344011e-06  7.46549786e-01  1.17344011e-06  4.79456135e-01  1.17344011e-06  1.80000000e+00  1.17344011e-06  1.90059574e-07  1.17344011e-06  5.00000000e-01                                 
 1.21641792e-06  8.11990392e-01  1.21641792e-06  7.55652715e-01  1.21641792e-06  5.10117501e-01  1.21641792e-06  1.80000000e+00  1.21641792e-06  3.99250403e-07  1.21641792e-06  5.00000000e-01                                 
 1.27416119e-06  8.12710796e-01  1.27416119e-06  7.56303124e-01  1.27416119e-06  5.23103527e-01  1.27416119e-06  1.80000000e+00  1.27416119e-06 -1.10399650e-07  1.27416119e-06  5.00000000e-01                                 
 1.34947298e-06  8.03849164e-01  1.34947298e-06  7.48400573e-01  1.34947298e-06  4.87347806e-01  1.34947298e-06  1.80000000e+00  1.34947298e-06  2.32819422e-07  1.34947298e-06  5.00000000e-01                                 
 1.43084821e-06  8.08576055e-01  1.43084821e-06  7.52626839e-01  1.43084821e-06  4.92247530e-01  1.43084821e-06  1.80000000e+00  1.43084821e-06  1.22873158e-07  1.43084821e-06  5.00000000e-01                                 
 1.52874746e-06  8.11178804e-01  1.52874746e-06  7.54954574e-01  1.52874746e-06  5.12034967e-01  1.52874746e-06  1.80000000e+00  1.52874746e-06  1.87563020e-07  1.52874746e-06  5.00000000e-01                                 
 1.63639803e-06  8.04771212e-01  1.63639803e-06  7.49226792e-01  1.63639803e-06  5.00915004e-01  1.63639803e-06  1.80000000e+00  1.63639803e-06  1.18648668e-08  1.63639803e-06  5.00000000e-01                                 
 1.74877780e-06  8.10673273e-01  1.74877780e-06  7.54495670e-01  1.74877780e-06  4.90177354e-01  1.74877780e-06  1.80000000e+00  1.74877780e-06  3.32282443e-07  1.74877780e-06  5.00000000e-01                                 
 1.88874237e-06  8.07553431e-01  1.88874237e-06  7.51732902e-01  1.88874237e-06  5.07234438e-01  1.88874237e-06  1.80000000e+00  1.88874237e-06 -8.16940746e-08  1.88874237e-06  5.00000000e-01                                 
 2.05946099e-06  8.07856817e-01  2.05946099e-06  7.51989630e-01  2.05946099e-06  4.99655504e-01  2.05946099e-06  1.80000000e+00  2.05946099e-06  3.57950839e-07  2.05946099e-06  5.00000000e-01                                 
 2.25152002e-06  8.09770113e-01  2.25152002e-06  7.53705375e-01  2.25152002e-06  4.94166373e-01  2.25152002e-06  1.80000000e+00  2.25152002e-06 -6.53550191e-08  2.25152002e-06  5.00000000e-01                                 
 2.47296350e-06  8.06549739e-01  2.47296350e-06  7.50822851e-01  2.47296350e-06  5.07564572e-01  2.47296350e-06  1.80000000e+00  2.47296350e-06  3.21489936e-07  2.47296350e-06  5.00000000e-01                                 
 2.74310912e-06  8.10260166e-01  2.74310912e-06  7.54136497e-01  2.74310912e-06  4.93846375e-01  2.74310912e-06  1.80000000e+00  2.74310912e-06 -2.55553314e-08  2.74310912e-06  5.00000000e-01                                 
 3.05109172e-06  8.06546430e-01  3.05109172e-06  7.50823000e-01  3.05109172e-06  5.04455780e-01  3.05109172e-06  1.80000000e+00  3.05109172e-06  2.86132500e-07  3.05109172e-06  5.00000000e-01                                 
 3.42824017e-06  8.09980504e-01  3.42824017e-06  7.53886307e-01  3.42824017e-06  4.97967663e-01  3.42824017e-06  1.80000000e+00  3.42824017e-06  3.04351708e-09  3.42824017e-06  5.00000000e-01                                 
 3.89711472e-06  8.06942415e-01  3.89711472e-06  7.51179738e-01  3.89711472e-06  5.00560158e-01  3.89711472e-06  1.80000000e+00  3.89711472e-06  2.65241577e-07  3.89711472e-06  5.00000000e-01                                 
 4.45891639e-06  8.09583352e-01  4.45891639e-06  7.53532721e-01  4.45891639e-06  5.01127754e-01  4.45891639e-06  1.80000000e+00  4.45891639e-06  1.79815494e-08  4.45891639e-06  5.00000000e-01                                 
 5.14634680e-06  8.07329523e-01  5.14634680e-06  7.51527156e-01  5.14634680e-06  4.98135680e-01  5.14634680e-06  1.80000000e+00  5.14634680e-06  2.54578590e-07  5.14634680e-06  5.00000000e-01                                 
 6.03653522e-06  8.09263659e-01  6.03653522e-06  7.53248147e-01  6.03653522e-06  5.02904629e-01  6.03653522e-06  1.80000000e+00  6.03653522e-06  2.52876983e-08  6.03653522e-06  5.00000000e-01                                 
 7.03653522e-06  8.07612287e-01  7.03653522e-06  7.51780411e-01  7.03653522e-06  4.96836387e-01  7.03653522e-06  1.80000000e+00  7.03653522e-06  2.49425546e-07  7.03653522e-06  5.00000000e-01                                 
 8.03653522e-06  8.08997936e-01  8.03653522e-06  7.53011548e-01  8.03653522e-06  5.03974137e-01  8.03653522e-06  1.80000000e+00  8.03653522e-06  2.94140855e-08  8.03653522e-06  5.00000000e-01                                 
 9.03653522e-06  8.07886789e-01  9.03653522e-06  7.52025897e-01  9.03653522e-06  4.95914077e-01  9.03653522e-06  1.80000000e+00  9.03653522e-06  2.45990221e-07  9.03653522e-06  5.00000000e-01                                 
 1.00005000e-05  8.08721818e-01  1.00005000e-05  7.52765601e-01  1.00005000e-05  5.04728658e-01  1.00005000e-05  1.80000000e+00  1.00005000e-05  3.21934450e-08  1.00005000e-05  5.00000000e-01                                 
 1.00005500e-05  8.08723319e-01  1.00005500e-05  7.52767847e-01  1.00005500e-05  4.96758112e-01  1.00005500e-05  1.62000000e+00  1.00005500e-05 -8.09862732e-05  1.00005500e-05  5.00000000e-01                                 
 1.00006500e-05  8.08728731e-01  1.00006500e-05  7.52772809e-01  1.00006500e-05  4.83102798e-01  1.00006500e-05  1.26000000e+00  1.00006500e-05 -5.46420710e-05  1.00006500e-05  5.00000000e-01                                 
 1.00008500e-05  8.08740957e-01  1.00008500e-05  7.52782962e-01  1.00008500e-05  4.82093862e-01  1.00008500e-05  5.40000000e-01  1.00008500e-05 -1.45310073e-03  1.00008500e-05  5.00000000e-01                                 
