 time            v(vbep)         time            v(vben)         time            v(vout)         time            v(vphi1)        time            v(vphi2)        time            v(vref)         yes             currtemp       
 0.00000000e+00  6.45033561e-01  0.00000000e+00  5.84284268e-01  0.00000000e+00  9.98839610e-01  0.00000000e+00  0.00000000e+00  0.00000000e+00  1.79991268e+00  0.00000000e+00  5.84284268e-01  1.00000000e+00  5.90000000e+01 
 5.00000000e-12  6.44982514e-01  5.00000000e-12  5.84242707e-01  5.00000000e-12  9.99573727e-01  5.00000000e-12  1.80000000e-02  5.00000000e-12  1.80004503e+00  5.00000000e-12  5.84242707e-01                                 
 1.00000000e-11  6.44933971e-01  1.00000000e-11  5.84202710e-01  1.00000000e-11  1.00023960e+00  1.00000000e-11  3.60000000e-02  1.00000000e-11  1.80012709e+00  1.00000000e-11  5.84202710e-01                                 
 2.00000000e-11  6.44838640e-01  2.00000000e-11  5.84123178e-01  2.00000000e-11  1.00146251e+00  2.00000000e-11  7.20000000e-02  2.00000000e-11  1.80022163e+00  2.00000000e-11  5.84123178e-01                                 
 4.00000000e-11  6.44651035e-01  4.00000000e-11  5.83965033e-01  4.00000000e-11  1.00340585e+00  4.00000000e-11  1.44000000e-01  4.00000000e-11  1.80021845e+00  4.00000000e-11  5.83965033e-01                                 
 8.00000000e-11  6.44278424e-01  8.00000000e-11  5.83650827e-01  8.00000000e-11  1.00592429e+00  8.00000000e-11  2.88000000e-01  8.00000000e-11  1.80011654e+00  8.00000000e-11  5.83650827e-01                                 
 1.60000000e-10  6.43544678e-01  1.60000000e-10  5.83030681e-01  1.60000000e-10  1.00785066e+00  1.60000000e-10  5.76000000e-01  1.60000000e-10  1.80000124e+00  1.60000000e-10  5.83030681e-01                                 
 3.20000000e-10  6.42119438e-01  3.20000000e-10  5.81821950e-01  3.20000000e-10  1.00075796e+00  3.20000000e-10  1.15200000e+00  3.20000000e-10  1.80028169e+00  3.20000000e-10  5.81821950e-01                                 
 5.00000000e-10  6.40580501e-01  5.00000000e-10  5.80510083e-01  5.00000000e-10  1.11183458e+00  5.00000000e-10  1.80000000e+00  5.00000000e-10  1.66700551e-01  5.00000000e-10  5.80510083e-01                                 
 5.21864025e-10  6.40398536e-01  5.21864025e-10  5.80354482e-01  5.21864025e-10  1.13994533e+00  5.21864025e-10  1.80000000e+00  5.21864025e-10  4.34179921e-02  5.21864025e-10  5.80354482e-01                                 
 5.65592075e-10  6.40036369e-01  5.65592075e-10  5.80044557e-01  5.65592075e-10  1.19607687e+00  5.65592075e-10  1.80000000e+00  5.65592075e-10 -1.56036387e-02  5.65592075e-10  5.80044557e-01                                 
 6.53048175e-10  6.39322793e-01  6.53048175e-10  5.79432838e-01  6.53048175e-10  1.29759313e+00  6.53048175e-10  1.80000000e+00  6.53048175e-10  1.31482275e-02  6.53048175e-10  5.79432838e-01                                 
 7.73773562e-10  6.38360618e-01  7.73773562e-10  5.78605716e-01  7.73773562e-10  1.41962913e+00  7.73773562e-10  1.80000000e+00  7.73773562e-10 -9.74470873e-03  7.73773562e-10  5.78605716e-01                                 
 9.57352383e-10  6.36945532e-01  9.57352383e-10  5.77384546e-01  9.57352383e-10  1.56961423e+00  9.57352383e-10  1.80000000e+00  9.57352383e-10  9.64904152e-03  9.57352383e-10  5.77384546e-01                                 
 1.32451002e-09  6.34273317e-01  1.32451002e-09  5.75063650e-01  1.32451002e-09  1.75631522e+00  1.32451002e-09  1.80000000e+00  1.32451002e-09 -8.36435904e-03  1.32451002e-09  5.75063650e-01                                 
 1.67314345e-09  6.31913439e-01  1.67314345e-09  5.72997497e-01  1.67314345e-09  1.83702368e+00  1.67314345e-09  1.80000000e+00  1.67314345e-09  8.20702534e-03  1.67314345e-09  5.72997497e-01                                 
 2.01442892e-09  6.29750520e-01  2.01442892e-09  5.71090476e-01  2.01442892e-09  1.86849277e+00  2.01442892e-09  1.80000000e+00  2.01442892e-09 -7.50904518e-03  2.01442892e-09  5.71090476e-01                                 
 2.37443873e-09  6.27608585e-01  2.37443873e-09  5.69189756e-01  2.37443873e-09  1.88108901e+00  2.37443873e-09  1.80000000e+00  2.37443873e-09  7.14912278e-03  2.37443873e-09  5.69189756e-01                                 
 2.85648566e-09  6.24936989e-01  2.85648566e-09  5.66802619e-01  2.85648566e-09  1.88459934e+00  2.85648566e-09  1.80000000e+00  2.85648566e-09 -6.77329309e-03  2.85648566e-09  5.66802619e-01                                 
 3.51012617e-09  6.21622971e-01  3.51012617e-09  5.63817042e-01  3.51012617e-09  1.88354430e+00  3.51012617e-09  1.80000000e+00  3.51012617e-09  6.58011025e-03  3.51012617e-09  5.63817042e-01                                 
 4.50964151e-09  6.17115783e-01  4.50964151e-09  5.59715523e-01  4.50964151e-09  1.87904580e+00  4.50964151e-09  1.80000000e+00  4.50964151e-09 -6.40745207e-03  4.50964151e-09  5.59715523e-01                                 
 6.15471674e-09  6.10816579e-01  6.15471674e-09  5.53910018e-01  6.15471674e-09  1.87323088e+00  6.15471674e-09  1.80000000e+00  6.15471674e-09  6.34861491e-03  6.15471674e-09  5.53910018e-01                                 
 9.44486720e-09  6.00959869e-01  9.44486720e-09  5.44676414e-01  9.44486720e-09  1.86353647e+00  9.44486720e-09  1.80000000e+00  9.44486720e-09 -6.27218979e-03  9.44486720e-09  5.44676414e-01                                 
 1.14171278e-08  5.96322462e-01  1.14171278e-08  5.40265474e-01  1.14171278e-08  1.85945589e+00  1.14171278e-08  1.80000000e+00  1.14171278e-08  6.23282407e-03  1.14171278e-08  5.40265474e-01                                 
 1.29382287e-08  5.93175304e-01  1.29382287e-08  5.37252484e-01  1.29382287e-08  1.85622412e+00  1.29382287e-08  1.80000000e+00  1.29382287e-08 -6.11549348e-03  1.29382287e-08  5.37252484e-01                                 
 1.44939264e-08  5.90261026e-01  1.44939264e-08  5.34449709e-01  1.44939264e-08  1.85381868e+00  1.44939264e-08  1.80000000e+00  1.44939264e-08  6.05489351e-03  1.44939264e-08  5.34449709e-01                                 
 1.62312672e-08  5.87306515e-01  1.62312672e-08  5.31596456e-01  1.62312672e-08  1.85080730e+00  1.62312672e-08  1.80000000e+00  1.62312672e-08 -5.95345484e-03  1.62312672e-08  5.31596456e-01                                 
 1.80788103e-08  5.84453714e-01  1.80788103e-08  5.28830719e-01  1.80788103e-08  1.84849647e+00  1.80788103e-08  1.80000000e+00  1.80788103e-08  5.90689242e-03  1.80788103e-08  5.28830719e-01                                 
 2.03393919e-08  5.81296540e-01  2.03393919e-08  5.25758270e-01  2.03393919e-08  1.84535392e+00  2.03393919e-08  1.80000000e+00  2.03393919e-08 -5.82523741e-03  2.03393919e-08  5.25758270e-01                                 
 2.35667684e-08  5.77299279e-01  2.35667684e-08  5.21851728e-01  2.35667684e-08  1.84207279e+00  2.35667684e-08  1.80000000e+00  2.35667684e-08  5.80985169e-03  2.35667684e-08  5.21851728e-01                                 
 2.73242072e-08  5.73244213e-01  2.73242072e-08  5.17870309e-01  2.73242072e-08  1.83822354e+00  2.73242072e-08  1.80000000e+00  2.73242072e-08 -5.75108108e-03  2.73242072e-08  5.17870309e-01                                 
 3.45858315e-08  5.66706712e-01  3.45858315e-08  5.11414454e-01  3.45858315e-08  1.83293642e+00  3.45858315e-08  1.80000000e+00  3.45858315e-08  5.75906811e-03  3.45858315e-08  5.11414454e-01                                 
 4.32713297e-08  5.60480365e-01  4.32713297e-08  5.05223161e-01  4.32713297e-08  1.82752507e+00  4.32713297e-08  1.80000000e+00  4.32713297e-08 -5.71842001e-03  4.32713297e-08  5.05223161e-01                                 
 5.80598819e-08  5.52088851e-01  5.80598819e-08  4.96861764e-01  5.80598819e-08  1.82092976e+00  5.80598819e-08  1.80000000e+00  5.80598819e-08  5.73665898e-03  5.80598819e-08  4.96861764e-01                                 
 7.63913283e-08  5.44156305e-01  7.63913283e-08  4.88936892e-01  7.63913283e-08  1.81447606e+00  7.63913283e-08  1.80000000e+00  7.63913283e-08 -5.70252860e-03  7.63913283e-08  4.88936892e-01                                 
 1.01858232e-07  5.35735805e-01  1.01858232e-07  4.80508152e-01  1.01858232e-07  1.80021793e+00  1.01858232e-07  1.80000000e+00  1.01858232e-07  5.72494389e-03  1.01858232e-07  4.80508152e-01                                 
 1.25356702e-07  5.27839462e-01  1.25356702e-07  4.72978551e-01  1.25356702e-07  1.78084909e+00  1.25356702e-07  1.80000000e+00  1.25356702e-07 -5.69264254e-03  1.25356702e-07  4.72978551e-01                                 
 1.48539126e-07  5.16270276e-01  1.48539126e-07  4.62782961e-01  1.48539126e-07  1.75903332e+00  1.48539126e-07  1.80000000e+00  1.48539126e-07  5.71369439e-03  1.48539126e-07  4.62782961e-01                                 
 1.70375409e-07  5.07230825e-01  1.70375409e-07  4.54797230e-01  1.70375409e-07  1.71740906e+00  1.70375409e-07  1.80000000e+00  1.70375409e-07 -5.68264568e-03  1.70375409e-07  4.54797230e-01                                 
 1.93458431e-07  4.98892826e-01  1.93458431e-07  4.47444089e-01  1.93458431e-07  1.67963112e+00  1.93458431e-07  1.80000000e+00  1.93458431e-07  5.70323828e-03  1.93458431e-07  4.47444089e-01                                 
 2.14793586e-07  4.99012474e-01  2.14793586e-07  4.46911435e-01  2.14793586e-07  1.66414166e+00  2.14793586e-07  1.80000000e+00  2.14793586e-07 -5.66948173e-03  2.14793586e-07  4.46911435e-01                                 
 2.44608427e-07  5.02769314e-01  2.44608427e-07  4.49067891e-01  2.44608427e-07  1.64900167e+00  2.44608427e-07  1.80000000e+00  2.44608427e-07  5.69390983e-03  2.44608427e-07  4.49067891e-01                                 
 2.65601112e-07  5.00750849e-01  2.65601112e-07  4.46940036e-01  2.65601112e-07  1.62550691e+00  2.65601112e-07  1.80000000e+00  2.65601112e-07 -5.66092808e-03  2.65601112e-07  4.46940036e-01                                 
 2.88727532e-07  4.98219848e-01  2.88727532e-07  4.44397564e-01  2.88727532e-07  1.59950191e+00  2.88727532e-07  1.80000000e+00  2.88727532e-07  5.68270970e-03  2.88727532e-07  4.44397564e-01                                 
 3.22994777e-07  4.91435772e-01  3.22994777e-07  4.38305830e-01  3.22994777e-07  1.55791266e+00  3.22994777e-07  1.80000000e+00  3.22994777e-07 -5.65244955e-03  3.22994777e-07  4.38305830e-01                                 
 3.58795533e-07  4.82487278e-01  3.58795533e-07  4.30559056e-01  3.58795533e-07  1.51305815e+00  3.58795533e-07  1.80000000e+00  3.58795533e-07  5.67553903e-03  3.58795533e-07  4.30559056e-01                                 
 4.25486696e-07  4.66655949e-01  4.25486696e-07  4.17004461e-01  4.25486696e-07  1.42839395e+00  4.25486696e-07  1.80000000e+00  4.25486696e-07 -5.64721004e-03  4.25486696e-07  4.17004461e-01                                 
 5.02228253e-07  4.48970225e-01  5.02228253e-07  4.02104033e-01  5.02228253e-07  1.33160242e+00  5.02228253e-07  1.80000000e+00  5.02228253e-07  5.67218565e-03  5.02228253e-07  4.02104033e-01                                 
 5.21413642e-07  4.42208170e-01  5.21413642e-07  3.96570051e-01  5.21413642e-07  1.30484292e+00  5.21413642e-07  1.80000000e+00  5.21413642e-07  3.17205647e-06  5.21413642e-07  3.96570051e-01                                 
 5.59784421e-07  4.29327800e-01  5.59784421e-07  3.86039957e-01  5.59784421e-07  1.25218126e+00  5.59784421e-07  1.80000000e+00  5.59784421e-07  3.65151052e-08  5.59784421e-07  3.86039957e-01                                 
 6.35537434e-07  4.01942456e-01  6.35537434e-07  3.63832533e-01  6.35537434e-07  1.14645548e+00  6.35537434e-07  1.80000000e+00  6.35537434e-07  3.11300049e-06  6.35537434e-07  3.63832533e-01                                 
 7.38507249e-07  4.05664194e-01  7.38507249e-07  3.66670041e-01  7.38507249e-07  1.04623973e+00  7.38507249e-07  1.80000000e+00  7.38507249e-07  1.57373418e-06  7.38507249e-07  3.66670041e-01                                 
 7.55935841e-07  4.38145516e-01  7.55935841e-07  3.92646274e-01  7.55935841e-07  1.05998171e+00  7.55935841e-07  1.80000000e+00  7.55935841e-07  5.68429398e-06  7.55935841e-07  3.92646274e-01                                 
 7.90793024e-07  6.12778993e-01  7.90793024e-07  5.44101062e-01  7.90793024e-07  1.19106355e+00  7.90793024e-07  1.80000000e+00  7.90793024e-07  1.93510708e-05  7.90793024e-07  5.44101062e-01                                 
 8.35444372e-07  7.18610801e-01  8.35444372e-07  6.53941674e-01  8.35444372e-07  1.24849595e+00  8.35444372e-07  1.80000000e+00  8.35444372e-07 -2.49922261e-06  8.35444372e-07  6.53941674e-01                                 
 8.86275726e-07  7.62629750e-01  8.86275726e-07  6.91833139e-01  8.86275726e-07  1.23432753e+00  8.86275726e-07  1.80000000e+00  8.86275726e-07  1.11830789e-05  8.86275726e-07  6.91833139e-01                                 
 9.29108901e-07  7.64633135e-01  9.29108901e-07  6.93424164e-01  9.29108901e-07  1.19415478e+00  9.29108901e-07  1.80000000e+00  9.29108901e-07 -6.35517169e-06  9.29108901e-07  6.93424164e-01                                 
 9.72811844e-07  7.63037483e-01  9.72811844e-07  6.92209435e-01  9.72811844e-07  1.14380748e+00  9.72811844e-07  1.80000000e+00  9.72811844e-07  1.05571288e-05  9.72811844e-07  6.92209435e-01                                 
 1.01394772e-06  7.52147361e-01  1.01394772e-06  6.83376871e-01  1.01394772e-06  1.09407664e+00  1.01394772e-06  1.80000000e+00  1.01394772e-06 -7.18410106e-06  1.01394772e-06  6.83376871e-01                                 
 1.06800014e-06  7.11376412e-01  1.06800014e-06  6.47581795e-01  1.06800014e-06  1.00151472e+00  1.06800014e-06  1.80000000e+00  1.06800014e-06  8.02936938e-06  1.06800014e-06  6.47581795e-01                                 
 1.12323761e-06  7.15326963e-01  1.12323761e-06  6.51014978e-01  1.12323761e-06  9.62359957e-01  1.12323761e-06  1.80000000e+00  1.12323761e-06 -2.80606686e-06  1.12323761e-06  6.51014978e-01                                 
 1.17544580e-06  7.42597202e-01  1.17544580e-06  6.75337516e-01  1.17544580e-06  9.46712049e-01  1.17544580e-06  1.80000000e+00  1.17544580e-06  1.02112660e-05  1.17544580e-06  6.75337516e-01                                 
 1.23819529e-06  7.51782609e-01  1.23819529e-06  6.83039977e-01  1.23819529e-06  9.13652633e-01  1.23819529e-06  1.80000000e+00  1.23819529e-06 -4.47986190e-06  1.23819529e-06  6.83039977e-01                                 
 1.30225996e-06  7.28907144e-01  1.30225996e-06  6.63485100e-01  1.30225996e-06  8.51501882e-01  1.30225996e-06  1.80000000e+00  1.30225996e-06  7.81453993e-06  1.30225996e-06  6.63485100e-01                                 
 1.36509671e-06  7.25395906e-01  1.36509671e-06  6.60206293e-01  1.36509671e-06  8.12218516e-01  1.36509671e-06  1.80000000e+00  1.36509671e-06 -2.92301442e-06  1.36509671e-06  6.60206293e-01                                 
 1.43192825e-06  7.45853152e-01  1.43192825e-06  6.78109074e-01  1.43192825e-06  7.91192266e-01  1.43192825e-06  1.80000000e+00  1.43192825e-06  9.50885793e-06  1.43192825e-06  6.78109074e-01                                 
 1.50677115e-06  7.39305525e-01  1.50677115e-06  6.72513016e-01  1.50677115e-06  7.45671308e-01  1.50677115e-06  1.80000000e+00  1.50677115e-06 -4.66304615e-06  1.50677115e-06  6.72513016e-01                                 
 1.58034078e-06  7.28362364e-01  1.58034078e-06  6.62956950e-01  1.58034078e-06  7.02769941e-01  1.58034078e-06  1.80000000e+00  1.58034078e-06  9.29530064e-06  1.58034078e-06  6.62956950e-01                                 
 1.69190486e-06  7.42461757e-01  1.69190486e-06  6.75195857e-01  1.69190486e-06  6.87627057e-01  1.69190486e-06  1.80000000e+00  1.69190486e-06 -3.19066731e-06  1.69190486e-06  6.75195857e-01                                 
 1.81246936e-06  7.35313355e-01  1.81246936e-06  6.69095334e-01  1.81246936e-06  6.63108141e-01  1.81246936e-06  1.80000000e+00  1.81246936e-06  8.51190486e-06  1.81246936e-06  6.69095334e-01                                 
 1.92372276e-06  7.35266779e-01  1.92372276e-06  6.68976200e-01  1.92372276e-06  6.56101223e-01  1.92372276e-06  1.80000000e+00  1.92372276e-06 -2.83892727e-06  1.92372276e-06  6.68976200e-01                                 
 2.05192853e-06  7.40130609e-01  2.05192853e-06  6.73256016e-01  2.05192853e-06  6.69943303e-01  2.05192853e-06  1.80000000e+00  2.05192853e-06  8.78134948e-06  2.05192853e-06  6.73256016e-01                                 
 2.19138211e-06  7.34731637e-01  2.19138211e-06  6.68518308e-01  2.19138211e-06  6.72619805e-01  2.19138211e-06  1.80000000e+00  2.19138211e-06 -3.19836169e-06  2.19138211e-06  6.68518308e-01                                 
 2.34953035e-06  7.37785671e-01  2.34953035e-06  6.71228198e-01  2.34953035e-06  6.68338394e-01  2.34953035e-06  1.80000000e+00  2.34953035e-06  8.96241285e-06  2.34953035e-06  6.71228198e-01                                 
 2.51423652e-06  7.38048150e-01  2.51423652e-06  6.71408305e-01  2.51423652e-06  6.72839424e-01  2.51423652e-06  1.80000000e+00  2.51423652e-06 -3.21355675e-06  2.51423652e-06  6.71408305e-01                                 
 2.69074549e-06  7.34880230e-01  2.69074549e-06  6.68704957e-01  2.69074549e-06  6.68124230e-01  2.69074549e-06  1.80000000e+00  2.69074549e-06  8.83250000e-06  2.69074549e-06  6.68704957e-01                                 
 2.94625122e-06  7.39738448e-01  2.94625122e-06  6.72865015e-01  2.94625122e-06  6.73664969e-01  2.94625122e-06  1.80000000e+00  2.94625122e-06 -3.02279991e-06  2.94625122e-06  6.72865015e-01                                 
 3.33596655e-06  7.34124414e-01  3.33596655e-06  6.68047711e-01  3.33596655e-06  6.67598382e-01  3.33596655e-06  1.80000000e+00  3.33596655e-06  8.66760780e-06  3.33596655e-06  6.68047711e-01                                 
 3.74135029e-06  7.39942384e-01  3.74135029e-06  6.73038122e-01  3.74135029e-06  6.73791667e-01  3.74135029e-06  1.80000000e+00  3.74135029e-06 -2.88259286e-06  3.74135029e-06  6.73038122e-01                                 
 4.30282446e-06  7.34119858e-01  4.30282446e-06  6.68046040e-01  4.30282446e-06  6.67620232e-01  4.30282446e-06  1.80000000e+00  4.30282446e-06  8.54746633e-06  4.30282446e-06  6.68046040e-01                                 
 4.95073226e-06  7.39830770e-01  4.95073226e-06  6.72940372e-01  4.95073226e-06  6.73676202e-01  4.95073226e-06  1.80000000e+00  4.95073226e-06 -2.78945034e-06  4.95073226e-06  6.72940372e-01                                 
 5.75396006e-06  7.34300848e-01  5.75396006e-06  6.68205728e-01  5.75396006e-06  6.67794181e-01  5.75396006e-06  1.80000000e+00  5.75396006e-06  8.47121442e-06  5.75396006e-06  6.68205728e-01                                 
 6.75396006e-06  7.39664345e-01  6.75396006e-06  6.72795972e-01  6.75396006e-06  6.73517964e-01  6.75396006e-06  1.80000000e+00  6.75396006e-06 -2.72989557e-06  6.75396006e-06  6.72795972e-01                                 
 7.75396006e-06  7.34520145e-01  7.75396006e-06  6.68403642e-01  7.75396006e-06  6.68003620e-01  7.75396006e-06  1.80000000e+00  7.75396006e-06  8.42005993e-06  7.75396006e-06  6.68403642e-01                                 
 8.75396006e-06  7.39491838e-01  8.75396006e-06  6.72653626e-01  8.75396006e-06  6.73360860e-01  8.75396006e-06  1.80000000e+00  8.75396006e-06 -2.68056772e-06  8.75396006e-06  6.72653626e-01                                 
 9.75396006e-06  7.34761966e-01  9.75396006e-06  6.68614360e-01  9.75396006e-06  6.68229889e-01  9.75396006e-06  1.80000000e+00  9.75396006e-06  8.37261803e-06  9.75396006e-06  6.68614360e-01                                 
 1.00005000e-05  7.38829105e-01  1.00005000e-05  6.72073296e-01  1.00005000e-05  6.72734004e-01  1.00005000e-05  1.80000000e+00  1.00005000e-05 -2.57600343e-06  1.00005000e-05  6.72073296e-01                                 
