 time            v(vbep)         time            v(vben)         time            v(vout)         time            v(vphi1)        time            v(vphi2)        time            v(vref)         time            v(voutc)        time            v(voutcc)       yes             currtemp       
 0.00000000e+00  7.41922380e-01  0.00000000e+00  6.79134715e-01  0.00000000e+00  1.53953793e+00  0.00000000e+00  0.00000000e+00  0.00000000e+00  1.80000000e+00  0.00000000e+00  6.80706606e-01  0.00000000e+00  1.53953792e+00  0.00000000e+00  1.54652632e+00  1.00000000e+00  4.80000000e+01 
 1.00000000e-11  7.41947496e-01  1.00000000e-11  6.79206349e-01  1.00000000e-11  1.54030963e+00  1.00000000e-11  1.80000000e-02  1.00000000e-11  1.80025223e+00  1.00000000e-11  6.81239473e-01  1.00000000e-11  1.54000876e+00  1.00000000e-11  1.54653448e+00                                 
 2.00000000e-11  7.41954371e-01  2.00000000e-11  6.79251035e-01  2.00000000e-11  1.54077940e+00  2.00000000e-11  3.60000000e-02  2.00000000e-11  1.80035179e+00  2.00000000e-11  6.81634411e-01  2.00000000e-11  1.54036384e+00  2.00000000e-11  1.54653639e+00                                 
 4.00000000e-11  7.41954379e-01  4.00000000e-11  6.79309767e-01  4.00000000e-11  1.54133958e+00  4.00000000e-11  7.20000000e-02  4.00000000e-11  1.80038940e+00  4.00000000e-11  6.82211729e-01  4.00000000e-11  1.54089187e+00  4.00000000e-11  1.54653433e+00                                 
 8.00000000e-11  7.41942681e-01  8.00000000e-11  6.79347314e-01  8.00000000e-11  1.54144096e+00  8.00000000e-11  1.44000000e-01  8.00000000e-11  1.80018521e+00  8.00000000e-11  6.82659661e-01  8.00000000e-11  1.54131871e+00  8.00000000e-11  1.54652309e+00                                 
 1.60000000e-10  7.41939898e-01  1.60000000e-10  6.79357864e-01  1.60000000e-10  1.54110453e+00  1.60000000e-10  2.88000000e-01  1.60000000e-10  1.80000475e+00  1.60000000e-10  6.82740651e-01  1.60000000e-10  1.54136499e+00  1.60000000e-10  1.54651383e+00                                 
 3.20000000e-10  7.41935741e-01  3.20000000e-10  6.79353034e-01  3.20000000e-10  1.54072663e+00  3.20000000e-10  5.76000000e-01  3.20000000e-10  1.79998635e+00  3.20000000e-10  6.82589143e-01  3.20000000e-10  1.54104165e+00  3.20000000e-10  1.54650915e+00                                 
 6.40000000e-10  7.41852320e-01  6.40000000e-10  6.78957273e-01  6.40000000e-10  1.53876768e+00  6.40000000e-10  1.15200000e+00  6.40000000e-10  1.81096263e+00  6.40000000e-10  6.80170619e-01  6.40000000e-10  1.54547079e+00  6.40000000e-10  1.54653676e+00                                 
 1.00000000e-09  7.42466843e-01  1.00000000e-09  6.79261872e-01  1.00000000e-09  1.51564032e+00  1.00000000e-09  1.80000000e+00  1.00000000e-09  9.67423176e-02  1.00000000e-09  6.93004229e-01  1.00000000e-09  1.54746952e+00  1.00000000e-09  1.54651261e+00                                 
 1.03672362e-09  7.42521472e-01  1.03672362e-09  6.79290358e-01  1.03672362e-09  1.51446902e+00  1.03672362e-09  1.80000000e+00  1.03672362e-09  2.20451124e-02  1.03672362e-09  6.96072218e-01  1.03672362e-09  1.54916141e+00  1.03672362e-09  1.54654599e+00                                 
 1.11017087e-09  7.42656964e-01  1.11017087e-09  6.79349938e-01  1.11017087e-09  1.51317739e+00  1.11017087e-09  1.80000000e+00  1.11017087e-09 -1.04928573e-02  1.11017087e-09  7.00023098e-01  1.11017087e-09  1.55223560e+00  1.11017087e-09  1.54656848e+00                                 
 1.25706536e-09  7.42774896e-01  1.25706536e-09  6.79216200e-01  1.25706536e-09  1.51069189e+00  1.25706536e-09  1.80000000e+00  1.25706536e-09  8.58237376e-03  1.25706536e-09  7.00198090e-01  1.25706536e-09  1.55265225e+00  1.25706536e-09  1.54652095e+00                                 
 1.45578528e-09  7.42750381e-01  1.45578528e-09  6.79193885e-01  1.45578528e-09  1.51001650e+00  1.45578528e-09  1.80000000e+00  1.45578528e-09 -6.61411639e-03  1.45578528e-09  6.99461461e-01  1.45578528e-09  1.55181391e+00  1.45578528e-09  1.54655454e+00                                 
 1.67468806e-09  7.42655985e-01  1.67468806e-09  6.79189338e-01  1.67468806e-09  1.50984611e+00  1.67468806e-09  1.80000000e+00  1.67468806e-09  5.61462127e-03  1.67468806e-09  6.98012892e-01  1.67468806e-09  1.55076069e+00  1.67468806e-09  1.54657071e+00                                 
 2.04075910e-09  7.42407885e-01  2.04075910e-09  6.79142382e-01  2.04075910e-09  1.50973288e+00  2.04075910e-09  1.80000000e+00  2.04075910e-09 -5.05617450e-03  2.04075910e-09  6.95582327e-01  2.04075910e-09  1.54852592e+00  2.04075910e-09  1.54667088e+00                                 
 2.49138364e-09  7.42175759e-01  2.49138364e-09  6.79145700e-01  2.49138364e-09  1.50982510e+00  2.49138364e-09  1.80000000e+00  2.49138364e-09  4.54358020e-03  2.49138364e-09  6.93080774e-01  2.49138364e-09  1.54653226e+00  2.49138364e-09  1.54678592e+00                                 
 3.16193118e-09  7.41942986e-01  3.16193118e-09  6.79100839e-01  3.16193118e-09  1.50905906e+00  3.16193118e-09  1.80000000e+00  3.16193118e-09 -4.37261461e-03  3.16193118e-09  6.89473870e-01  3.16193118e-09  1.54331525e+00  3.16193118e-09  1.54696935e+00                                 
 4.15620142e-09  7.41801197e-01  4.15620142e-09  6.79118469e-01  4.15620142e-09  1.50814542e+00  4.15620142e-09  1.80000000e+00  4.15620142e-09  4.13174091e-03  4.15620142e-09  6.85783913e-01  4.15620142e-09  1.54029465e+00  4.15620142e-09  1.54715546e+00                                 
 5.92538957e-09  7.41710373e-01  5.92538957e-09  6.79095711e-01  5.92538957e-09  1.50517290e+00  5.92538957e-09  1.80000000e+00  5.92538957e-09 -4.08230441e-03  5.92538957e-09  6.81382622e-01  5.92538957e-09  1.53641893e+00  5.92538957e-09  1.54726730e+00                                 
 7.44344620e-09  7.41738655e-01  7.44344620e-09  6.79131870e-01  7.44344620e-09  1.50168450e+00  7.44344620e-09  1.80000000e+00  7.44344620e-09  3.95914947e-03  7.44344620e-09  6.79904794e-01  7.44344620e-09  1.53528470e+00  7.44344620e-09  1.54715835e+00                                 
 8.87629481e-09  7.41765320e-01  8.87629481e-09  6.79109748e-01  8.87629481e-09  1.49663031e+00  8.87629481e-09  1.80000000e+00  8.87629481e-09 -3.86406126e-03  8.87629481e-09  6.78932165e-01  8.87629481e-09  1.53433502e+00  8.87629481e-09  1.54696778e+00                                 
 1.04139171e-08  7.41818777e-01  1.04139171e-08  6.79141958e-01  1.04139171e-08  1.49049159e+00  1.04139171e-08  1.80000000e+00  1.04139171e-08  3.76226565e-03  1.04139171e-08  6.78828836e-01  1.04139171e-08  1.53435912e+00  1.04139171e-08  1.54670969e+00                                 
 1.25310881e-08  7.41858551e-01  1.25310881e-08  6.79117443e-01  1.25310881e-08  1.48001551e+00  1.25310881e-08  1.80000000e+00  1.25310881e-08 -3.69675446e-03  1.25310881e-08  6.78531681e-01  1.25310881e-08  1.53397976e+00  1.25310881e-08  1.54634282e+00                                 
 1.51060419e-08  7.41907426e-01  1.51060419e-08  6.79147609e-01  1.51060419e-08  1.46634958e+00  1.51060419e-08  1.80000000e+00  1.51060419e-08  3.64139386e-03  1.51060419e-08  6.78924925e-01  1.51060419e-08  1.53441115e+00  1.51060419e-08  1.54590928e+00                                 
 1.86342695e-08  7.41922361e-01  1.86342695e-08  6.79120888e-01  1.86342695e-08  1.44577099e+00  1.86342695e-08  1.80000000e+00  1.86342695e-08 -3.60118296e-03  1.86342695e-08  6.79010004e-01  1.86342695e-08  1.53434974e+00  1.86342695e-08  1.54538979e+00                                 
 2.33572222e-08  7.41939817e-01  2.33572222e-08  6.79149374e-01  2.33572222e-08  1.41783458e+00  2.33572222e-08  1.80000000e+00  2.33572222e-08  3.57295163e-03  2.33572222e-08  6.79632564e-01  2.33572222e-08  1.53496705e+00  2.33572222e-08  1.54481915e+00                                 
 3.11234469e-08  7.41927623e-01  3.11234469e-08  6.79121377e-01  3.11234469e-08  1.37072004e+00  3.11234469e-08  1.80000000e+00  3.11234469e-08 -3.55430587e-03  3.11234469e-08  6.79854646e-01  3.11234469e-08  1.53502033e+00  3.11234469e-08  1.54414196e+00                                 
 4.43241958e-08  7.41931395e-01  4.43241958e-08  6.79149011e-01  4.43241958e-08  1.29119564e+00  4.43241958e-08  1.80000000e+00  4.43241958e-08  3.54479811e-03  4.43241958e-08  6.80512702e-01  4.43241958e-08  1.53566966e+00  4.43241958e-08  1.54346096e+00                                 
 6.97337185e-08  7.41918239e-01  6.97337185e-08  6.79120745e-01  6.97337185e-08  1.13831559e+00  6.97337185e-08  1.80000000e+00  6.97337185e-08 -3.53851724e-03  6.97337185e-08  6.80550319e-01  6.97337185e-08  1.53558065e+00  6.97337185e-08  1.54294106e+00                                 
 1.04446538e-07  7.41926826e-01  1.04446538e-07  6.79148677e-01  1.04446538e-07  9.33580234e-01  1.04446538e-07  1.80000000e+00  1.04446538e-07  3.53635373e-03  1.04446538e-07  6.80824194e-01  1.04446538e-07  1.53592110e+00  1.04446538e-07  1.54279121e+00                                 
 1.55414165e-07  7.41918635e-01  1.55414165e-07  6.79120730e-01  1.55414165e-07  7.21695489e-01  1.55414165e-07  1.80000000e+00  1.55414165e-07 -3.52695255e-03  1.55414165e-07  6.80586646e-01  1.55414165e-07  1.53560662e+00  1.55414165e-07  1.54276035e+00                                 
 1.94832942e-07  7.41926909e-01  1.94832942e-07  6.79148855e-01  1.94832942e-07  6.78429415e-01  1.94832942e-07  1.80000000e+00  1.94832942e-07  3.53604555e-03  1.94832942e-07  6.80831191e-01  1.94832942e-07  1.53592285e+00  1.94832942e-07  1.54275751e+00                                 
 2.28572705e-07  7.41915673e-01  2.28572705e-07  6.79120379e-01  2.28572705e-07  6.82561071e-01  2.28572705e-07  1.80000000e+00  2.28572705e-07 -3.51829743e-03  2.28572705e-07  6.80585091e-01  2.28572705e-07  1.53560284e+00  2.28572705e-07  1.54275775e+00                                 
 2.53928193e-07  7.41929517e-01  2.53928193e-07  6.79149104e-01  2.53928193e-07  6.82310194e-01  2.53928193e-07  1.80000000e+00  2.53928193e-07  3.52691458e-03  2.53928193e-07  6.80827181e-01  2.53928193e-07  1.53591724e+00  2.53928193e-07  1.54275408e+00                                 
 2.82219050e-07  7.41915341e-01  2.82219050e-07  6.79120306e-01  2.82219050e-07  6.82295100e-01  2.82219050e-07  1.80000000e+00  2.82219050e-07 -3.50859738e-03  2.82219050e-07  6.80586212e-01  2.82219050e-07  1.53560205e+00  2.82219050e-07  1.54275441e+00                                 
 3.32378967e-07  7.41929314e-01  3.32378967e-07  6.79149112e-01  3.32378967e-07  6.82352728e-01  3.32378967e-07  1.80000000e+00  3.32378967e-07  3.51969977e-03  3.32378967e-07  6.80826854e-01  3.32378967e-07  1.53591416e+00  3.32378967e-07  1.54275102e+00                                 
 3.99742759e-07  7.41915541e-01  3.99742759e-07  6.79120311e-01  3.99742759e-07  6.82265887e-01  3.99742759e-07  1.80000000e+00  3.99742759e-07 -3.50408748e-03  3.99742759e-07  6.80586368e-01  3.99742759e-07  1.53559824e+00  3.99742759e-07  1.54275018e+00                                 
 5.22510083e-07  7.41929165e-01  5.22510083e-07  6.79149107e-01  5.22510083e-07  6.82368331e-01  5.22510083e-07  1.80000000e+00  5.22510083e-07  3.51670078e-03  5.22510083e-07  6.80826772e-01  5.22510083e-07  1.53590756e+00  5.22510083e-07  1.54274456e+00                                 
 7.29292839e-07  7.41915630e-01  7.29292839e-07  6.79120314e-01  7.29292839e-07  6.82257830e-01  7.29292839e-07  1.80000000e+00  7.29292839e-07 -3.50239967e-03  7.29292839e-07  6.80586407e-01  7.29292839e-07  1.53558706e+00  7.29292839e-07  1.54273894e+00                                 
 1.08625672e-06  7.41929111e-01  1.08625672e-06  6.79149104e-01  1.08625672e-06  6.82372622e-01  1.08625672e-06  1.80000000e+00  1.08625672e-06  3.51570500e-03  1.08625672e-06  6.80826751e-01  1.08625672e-06  1.53588831e+00  1.08625672e-06  1.54272537e+00                                 
 1.74285049e-06  7.41915660e-01  1.74285049e-06  6.79120315e-01  1.74285049e-06  6.82255420e-01  1.74285049e-06  1.80000000e+00  1.74285049e-06 -3.50183580e-03  1.74285049e-06  6.80586418e-01  1.74285049e-06  1.53555255e+00  1.74285049e-06  1.54270445e+00                                 
 2.94285049e-06  7.41929094e-01  2.94285049e-06  6.79149103e-01  2.94285049e-06  6.82373867e-01  2.94285049e-06  1.80000000e+00  2.94285049e-06  3.51539760e-03  2.94285049e-06  6.80826746e-01  2.94285049e-06  1.53582505e+00  2.94285049e-06  1.54266221e+00                                 
 4.14285049e-06  7.41915672e-01  4.14285049e-06  6.79120316e-01  4.14285049e-06  6.82254528e-01  4.14285049e-06  1.80000000e+00  4.14285049e-06 -3.50163417e-03  4.14285049e-06  6.80586423e-01  4.14285049e-06  1.53547075e+00  4.14285049e-06  1.54262276e+00                                 
 5.34285049e-06  7.41929082e-01  5.34285049e-06  6.79149103e-01  5.34285049e-06  6.82374730e-01  5.34285049e-06  1.80000000e+00  5.34285049e-06  3.51518107e-03  5.34285049e-06  6.80826741e-01  5.34285049e-06  1.53574324e+00  5.34285049e-06  1.54258051e+00                                 
 6.00100000e-06  7.41915689e-01  6.00100000e-06  6.79120317e-01  6.00100000e-06  6.82253296e-01  6.00100000e-06  1.80000000e+00  6.00100000e-06 -3.50133232e-03  6.00100000e-06  6.80586428e-01  6.00100000e-06  1.53540742e+00  6.00100000e-06  1.54255950e+00                                 
 6.00110000e-06  7.41874383e-01  6.00110000e-06  6.78895137e-01  6.00110000e-06  6.80541772e-01  6.00110000e-06  1.62000000e+00  6.00110000e-06 -3.92649775e-04  6.00110000e-06  6.79121473e-01  6.00110000e-06  1.53420584e+00  6.00110000e-06  1.54254915e+00                                 
 6.00130000e-06  7.41908180e-01  6.00130000e-06  6.78898095e-01  6.00130000e-06  6.80724633e-01  6.00130000e-06  1.26000000e+00  6.00130000e-06  2.56562418e-04  6.00130000e-06  6.78955147e-01  6.00130000e-06  1.53407404e+00  6.00130000e-06  1.54256318e+00                                 
 6.00165551e-06  7.41966601e-01  6.00165551e-06  6.79125121e-01  6.00165551e-06  6.82855020e-01  6.00165551e-06  6.20074782e-01  6.00165551e-06 -1.93528786e-03  6.00165551e-06  6.79720814e-01  6.00165551e-06  1.53208240e+00  6.00165551e-06  1.54254614e+00                                 
 6.00200000e-06  7.41911410e-01  6.00200000e-06  6.77540588e-01  6.00200000e-06  7.14424336e-01  6.00200000e-06  0.00000000e+00  6.00200000e-06  1.59680065e+00  6.00200000e-06  6.62807969e-01  6.00200000e-06  1.34357788e+00  6.00200000e-06  1.54195717e+00                                 
 6.00204083e-06  7.41925591e-01  6.00204083e-06  6.77158098e-01  6.00204083e-06  7.20956688e-01  6.00204083e-06  0.00000000e+00  6.00204083e-06  1.72039043e+00  6.00204083e-06  6.58508090e-01  6.00204083e-06  1.28476158e+00  6.00204083e-06  1.54196575e+00                                 
 6.00212248e-06  7.41924582e-01  6.00212248e-06  6.76434610e-01  6.00212248e-06  7.25726487e-01  6.00212248e-06  0.00000000e+00  6.00212248e-06  1.81345195e+00  6.00212248e-06  6.50658300e-01  6.00212248e-06  1.16221270e+00  6.00212248e-06  1.54231953e+00                                 
 6.00228578e-06  7.41920233e-01  6.00228578e-06  6.76304575e-01  6.00228578e-06  7.16316233e-01  6.00228578e-06  0.00000000e+00  6.00228578e-06  1.78955644e+00  6.00228578e-06  6.50188413e-01  6.00228578e-06  9.66423171e-01  6.00228578e-06  1.54281637e+00                                 
 6.00243418e-06  7.41922914e-01  6.00243418e-06  6.76763064e-01  6.00243418e-06  7.10817023e-01  6.00243418e-06  0.00000000e+00  6.00243418e-06  1.80362332e+00  6.00243418e-06  6.55543734e-01  6.00243418e-06  8.49826691e-01  6.00243418e-06  1.54276386e+00                                 
 6.00262509e-06  7.41919205e-01  6.00262509e-06  6.77543298e-01  6.00262509e-06  6.99907241e-01  6.00262509e-06  0.00000000e+00  6.00262509e-06  1.79669482e+00  6.00262509e-06  6.63333684e-01  6.00262509e-06  7.53536196e-01  6.00262509e-06  1.54297053e+00                                 
 6.00284865e-06  7.41922673e-01  6.00284865e-06  6.78593357e-01  6.00284865e-06  6.89373008e-01  6.00284865e-06  0.00000000e+00  6.00284865e-06  1.80175756e+00  6.00284865e-06  6.73432529e-01  6.00284865e-06  7.07330543e-01  6.00284865e-06  1.54286085e+00                                 
 6.00304980e-06  7.41919635e-01  6.00304980e-06  6.79068857e-01  6.00304980e-06  6.85898162e-01  6.00304980e-06  0.00000000e+00  6.00304980e-06  1.79898113e+00  6.00304980e-06  6.77036936e-01  6.00304980e-06  6.91803447e-01  6.00304980e-06  1.54259885e+00                                 
 6.00332534e-06  7.41922858e-01  6.00332534e-06  6.79487843e-01  6.00332534e-06  6.83294817e-01  6.00332534e-06  0.00000000e+00  6.00332534e-06  1.80075446e+00  6.00332534e-06  6.80364808e-01  6.00332534e-06  6.85572669e-01  6.00332534e-06  1.54177220e+00                                 
 6.00362213e-06  7.41920402e-01  6.00362213e-06  6.79588306e-01  6.00362213e-06  6.83560091e-01  6.00362213e-06  0.00000000e+00  6.00362213e-06  1.79951578e+00  6.00362213e-06  6.80908249e-01  6.00362213e-06  6.83416462e-01  6.00362213e-06  1.54069517e+00                                 
 6.00413876e-06  7.41923215e-01  6.00413876e-06  6.79657971e-01  6.00413876e-06  6.83853837e-01  6.00413876e-06  0.00000000e+00  6.00413876e-06  1.80041892e+00  6.00413876e-06  6.81875187e-01  6.00413876e-06  6.84075202e-01  6.00413876e-06  1.53840464e+00                                 
 6.00485754e-06  7.41921020e-01  6.00485754e-06  6.79576657e-01  6.00485754e-06  6.86033610e-01  6.00485754e-06  0.00000000e+00  6.00485754e-06  1.79966610e+00  6.00485754e-06  6.81708788e-01  6.00485754e-06  6.85340235e-01  6.00485754e-06  1.53495079e+00                                 
 6.00629510e-06  7.41923480e-01  6.00629510e-06  6.79496038e-01  6.00629510e-06  6.89356831e-01  6.00629510e-06  0.00000000e+00  6.00629510e-06  1.80033106e+00  6.00629510e-06  6.82167055e-01  6.00629510e-06  6.89426012e-01  6.00629510e-06  1.52745495e+00                                 
 6.00917022e-06  7.41921234e-01  6.00917022e-06  6.79284687e-01  6.00917022e-06  6.97659079e-01  6.00917022e-06  0.00000000e+00  6.00917022e-06  1.79970474e+00  6.00917022e-06  6.81752415e-01  6.00917022e-06  6.96888971e-01  6.00917022e-06  1.51175590e+00                                 
 6.01492047e-06  7.41923517e-01  6.01492047e-06  6.79139080e-01  6.01492047e-06  7.12735340e-01  6.01492047e-06  0.00000000e+00  6.01492047e-06  1.80031128e+00  6.01492047e-06  6.81749294e-01  6.01492047e-06  7.12788728e-01  6.01492047e-06  1.47975740e+00                                 
 6.02642095e-06  7.41921249e-01  6.02642095e-06  6.79100289e-01  6.02642095e-06  7.42890416e-01  6.02642095e-06  0.00000000e+00  6.02642095e-06  1.79971313e+00  6.02642095e-06  6.80974524e-01  6.02642095e-06  7.42002747e-01  6.02642095e-06  1.41901854e+00                                 
 6.04427764e-06  7.41923509e-01  6.04427764e-06  6.79147052e-01  6.04427764e-06  7.85302831e-01  6.04427764e-06  0.00000000e+00  6.04427764e-06  1.80030492e+00  6.04427764e-06  6.80976918e-01  6.04427764e-06  7.85440061e-01  6.04427764e-06  1.33378708e+00                                 
 6.07999102e-06  7.41921253e-01  6.07999102e-06  6.79119117e-01  6.07999102e-06  8.60488052e-01  6.07999102e-06  0.00000000e+00  6.07999102e-06  1.79971305e+00  6.07999102e-06  6.80531315e-01  6.07999102e-06  8.58867834e-01  6.07999102e-06  1.18678518e+00                                 
 6.14241740e-06  7.41923507e-01  6.14241740e-06  6.79150229e-01  6.14241740e-06  9.61021376e-01  6.14241740e-06  0.00000000e+00  6.14241740e-06  1.80029886e+00  6.14241740e-06  6.80858811e-01  6.14241740e-06  9.61992947e-01  6.14241740e-06  1.01921330e+00                                 
 6.26727015e-06  7.41921254e-01  6.26727015e-06  6.79119305e-01  6.26727015e-06  1.08441667e+00  6.26727015e-06  0.00000000e+00  6.26727015e-06  1.79970769e+00  6.26727015e-06  6.80540954e-01  6.26727015e-06  1.08205106e+00  6.26727015e-06  1.03226149e+00                                 
