 time            v(vbep)         time            v(vben)         time            v(vout)         time            v(vphi1)        time            v(vphi2)        time            v(vref)         time            v(voutc)        time            v(voutcc)       yes             currtemp       
 0.00000000e+00  7.85565982e-01  0.00000000e+00  7.28942200e-01  0.00000000e+00  1.62632182e+00  0.00000000e+00  0.00000000e+00  0.00000000e+00  1.80000000e+00  0.00000000e+00  7.31698286e-01  0.00000000e+00  1.62632181e+00  0.00000000e+00  1.63242780e+00  1.00000000e+00  1.90000000e+01 
 1.00000000e-11  7.85590507e-01  1.00000000e-11  7.29013194e-01  1.00000000e-11  1.62711312e+00  1.00000000e-11  1.80000000e-02  1.00000000e-11  1.80024876e+00  1.00000000e-11  7.32225342e-01  1.00000000e-11  1.62678867e+00  1.00000000e-11  1.63243868e+00                                 
 2.00000000e-11  7.85597220e-01  2.00000000e-11  7.29057848e-01  2.00000000e-11  1.62761304e+00  2.00000000e-11  3.60000000e-02  2.00000000e-11  1.80034895e+00  2.00000000e-11  7.32618422e-01  2.00000000e-11  1.62714537e+00  2.00000000e-11  1.63244243e+00                                 
 4.00000000e-11  7.85597048e-01  4.00000000e-11  7.29116652e-01  4.00000000e-11  1.62823321e+00  4.00000000e-11  7.20000000e-02  4.00000000e-11  1.80038951e+00  4.00000000e-11  7.33194247e-01  4.00000000e-11  1.62768177e+00  4.00000000e-11  1.63244262e+00                                 
 8.00000000e-11  7.85585064e-01  8.00000000e-11  7.29153827e-01  8.00000000e-11  1.62840889e+00  8.00000000e-11  1.44000000e-01  8.00000000e-11  1.80018870e+00  8.00000000e-11  7.33639828e-01  8.00000000e-11  1.62813475e+00  8.00000000e-11  1.63243143e+00                                 
 1.60000000e-10  7.85581923e-01  1.60000000e-10  7.29162243e-01  1.60000000e-10  1.62809224e+00  1.60000000e-10  2.88000000e-01  1.60000000e-10  1.80000475e+00  1.60000000e-10  7.33697544e-01  1.60000000e-10  1.62821297e+00  1.60000000e-10  1.63242127e+00                                 
 3.20000000e-10  7.85578593e-01  3.20000000e-10  7.29164876e-01  3.20000000e-10  1.62774830e+00  3.20000000e-10  5.76000000e-01  3.20000000e-10  1.80000050e+00  3.20000000e-10  7.33596571e-01  3.20000000e-10  1.62799205e+00  3.20000000e-10  1.63241803e+00                                 
 6.40000000e-10  7.85499480e-01  6.40000000e-10  7.28848696e-01  6.40000000e-10  1.62445923e+00  6.40000000e-10  1.15200000e+00  6.40000000e-10  1.81264825e+00  6.40000000e-10  7.32049992e-01  6.40000000e-10  1.63305735e+00  6.40000000e-10  1.63244759e+00                                 
 1.00000000e-09  7.86102853e-01  1.00000000e-09  7.29003436e-01  1.00000000e-09  1.59683912e+00  1.00000000e-09  1.80000000e+00  1.00000000e-09  8.53297665e-02  1.00000000e-09  7.39158493e-01  1.00000000e-09  1.62880781e+00  1.00000000e-09  1.63237827e+00                                 
 1.03605146e-09  7.86094573e-01  1.03605146e-09  7.29049617e-01  1.03605146e-09  1.59657420e+00  1.03605146e-09  1.80000000e+00  1.03605146e-09  1.83688451e-02  1.03605146e-09  7.41771727e-01  1.03605146e-09  1.63019362e+00  1.03605146e-09  1.63242557e+00                                 
 1.10815439e-09  7.86150218e-01  1.10815439e-09  7.29123643e-01  1.10815439e-09  1.59695799e+00  1.10815439e-09  1.80000000e+00  1.10815439e-09 -8.83382433e-03  1.10815439e-09  7.45138778e-01  1.10815439e-09  1.63281316e+00  1.10815439e-09  1.63246050e+00                                 
 1.25236024e-09  7.86305631e-01  1.25236024e-09  7.28997443e-01  1.25236024e-09  1.59483840e+00  1.25236024e-09  1.80000000e+00  1.25236024e-09  7.76340984e-03  1.25236024e-09  7.45377682e-01  1.25236024e-09  1.63323940e+00  1.25236024e-09  1.63241645e+00                                 
 1.51692040e-09  7.86327789e-01  1.51692040e-09  7.28968587e-01  1.51692040e-09  1.59254824e+00  1.51692040e-09  1.80000000e+00  1.51692040e-09 -6.30549881e-03  1.51692040e-09  7.45178724e-01  1.51692040e-09  1.63287118e+00  1.51692040e-09  1.63244985e+00                                 
 1.76422018e-09  7.86221296e-01  1.76422018e-09  7.28963283e-01  1.76422018e-09  1.59284933e+00  1.76422018e-09  1.80000000e+00  1.76422018e-09  5.50717325e-03  1.76422018e-09  7.44087084e-01  1.76422018e-09  1.63211703e+00  1.76422018e-09  1.63244077e+00                                 
 2.12408867e-09  7.85972831e-01  2.12408867e-09  7.28928669e-01  2.12408867e-09  1.59382657e+00  2.12408867e-09  1.80000000e+00  2.12408867e-09 -5.02006404e-03  2.12408867e-09  7.42666904e-01  2.12408867e-09  1.63075322e+00  2.12408867e-09  1.63249015e+00                                 
 2.46086971e-09  7.85806290e-01  2.46086971e-09  7.28937997e-01  2.46086971e-09  1.59507295e+00  2.46086971e-09  1.80000000e+00  2.46086971e-09  4.44234549e-03  2.46086971e-09  7.41545822e-01  2.46086971e-09  1.62994068e+00  2.46086971e-09  1.63251220e+00                                 
 3.13443178e-09  7.85579007e-01  3.13443178e-09  7.28903432e-01  3.13443178e-09  1.59617069e+00  3.13443178e-09  1.80000000e+00  3.13443178e-09 -4.28716674e-03  3.13443178e-09  7.39160010e-01  3.13443178e-09  1.62777770e+00  3.13443178e-09  1.63258995e+00                                 
 4.28614647e-09  7.85470003e-01  4.28614647e-09  7.28925068e-01  4.28614647e-09  1.59720065e+00  4.28614647e-09  1.80000000e+00  4.28614647e-09  4.08363262e-03  4.28614647e-09  7.36284361e-01  4.28614647e-09  1.62545637e+00  4.28614647e-09  1.63266632e+00                                 
 6.58957585e-09  7.85455615e-01  6.58957585e-09  7.28915151e-01  6.58957585e-09  1.59524780e+00  6.58957585e-09  1.80000000e+00  6.58957585e-09 -4.08402339e-03  6.58957585e-09  7.32444121e-01  6.58957585e-09  1.62206614e+00  6.58957585e-09  1.63268034e+00                                 
 8.38307855e-09  7.85449532e-01  8.38307855e-09  7.28948337e-01  8.38307855e-09  1.59428265e+00  8.38307855e-09  1.80000000e+00  8.38307855e-09  3.96963445e-03  8.38307855e-09  7.31350629e-01  8.38307855e-09  1.62125908e+00  8.38307855e-09  1.63254817e+00                                 
 1.01530686e-08  7.85447395e-01  1.01530686e-08  7.28927259e-01  1.01530686e-08  1.59243333e+00  1.01530686e-08  1.80000000e+00  1.01530686e-08 -3.90676796e-03  1.01530686e-08  7.30569325e-01  1.01530686e-08  1.62047285e+00  1.01530686e-08  1.63236392e+00                                 
 1.20115780e-08  7.85477560e-01  1.20115780e-08  7.28953212e-01  1.20115780e-08  1.59000340e+00  1.20115780e-08  1.80000000e+00  1.20115780e-08  3.82935972e-03  1.20115780e-08  7.30509026e-01  1.20115780e-08  1.62053480e+00  1.20115780e-08  1.63212666e+00                                 
 1.47522825e-08  7.85512087e-01  1.47522825e-08  7.28929177e-01  1.47522825e-08  1.58362210e+00  1.47522825e-08  1.80000000e+00  1.47522825e-08 -3.78008331e-03  1.47522825e-08  7.30245051e-01  1.47522825e-08  1.62018305e+00  1.47522825e-08  1.63177705e+00                                 
 1.80063898e-08  7.85549624e-01  1.80063898e-08  7.28954319e-01  1.80063898e-08  1.57467341e+00  1.80063898e-08  1.80000000e+00  1.80063898e-08  3.74438899e-03  1.80063898e-08  7.30553577e-01  1.80063898e-08  1.62054485e+00  1.80063898e-08  1.63136815e+00                                 
 2.27201560e-08  7.85565964e-01  2.27201560e-08  7.28929992e-01  2.27201560e-08  1.55919448e+00  2.27201560e-08  1.80000000e+00  2.27201560e-08 -3.71122048e-03  2.27201560e-08  7.30572241e-01  2.27201560e-08  1.62042450e+00  2.27201560e-08  1.63084754e+00                                 
 2.90280148e-08  7.85575792e-01  2.90280148e-08  7.28954864e-01  2.90280148e-08  1.53803246e+00  2.90280148e-08  1.80000000e+00  2.90280148e-08  3.69705406e-03  2.90280148e-08  7.31037464e-01  2.90280148e-08  1.62090934e+00  2.90280148e-08  1.63025346e+00                                 
 4.04253502e-08  7.85568934e-01  4.04253502e-08  7.28929941e-01  4.04253502e-08  1.49816874e+00  4.04253502e-08  1.80000000e+00  4.04253502e-08 -3.67979920e-03  4.04253502e-08  7.31154700e-01  4.04253502e-08  1.62086612e+00  4.04253502e-08  1.62944893e+00                                 
 5.64650690e-08  7.85570727e-01  5.64650690e-08  7.28954616e-01  5.64650690e-08  1.44233168e+00  5.64650690e-08  1.80000000e+00  5.64650690e-08  3.67774505e-03  5.64650690e-08  7.31600756e-01  5.64650690e-08  1.62133529e+00  5.64650690e-08  1.62870077e+00                                 
 8.85445067e-08  7.85564399e-01  8.85445067e-08  7.28929802e-01  8.85445067e-08  1.32973266e+00  8.85445067e-08  1.80000000e+00  8.85445067e-08 -3.66796067e-03  8.85445067e-08  7.31567062e-01  8.85445067e-08  1.62117466e+00  8.85445067e-08  1.62794227e+00                                 
 1.44337558e-07  7.85568128e-01  1.44337558e-07  7.28954587e-01  1.44337558e-07  1.13646659e+00  1.44337558e-07  1.80000000e+00  1.44337558e-07  3.67167026e-03  1.44337558e-07  7.31804737e-01  1.44337558e-07  1.62148007e+00  1.44337558e-07  1.62752984e+00                                 
 2.22708157e-07  7.85563771e-01  2.22708157e-07  7.28929790e-01  2.22708157e-07  8.77566464e-01  2.22708157e-07  1.80000000e+00  2.22708157e-07 -3.66322516e-03  2.22708157e-07  7.31593183e-01  2.22708157e-07  1.62118239e+00  2.22708157e-07  1.62744901e+00                                 
 2.90153418e-07  7.85568708e-01  2.90153418e-07  7.28954617e-01  2.90153418e-07  7.47795581e-01  2.90153418e-07  1.80000000e+00  2.90153418e-07  3.67143142e-03  2.90153418e-07  7.31801859e-01  2.90153418e-07  1.62146950e+00  2.90153418e-07  1.62743918e+00                                 
 3.43881251e-07  7.85563005e-01  3.43881251e-07  7.28929807e-01  3.43881251e-07  7.32803917e-01  3.43881251e-07  1.80000000e+00  3.43881251e-07 -3.65683475e-03  3.43881251e-07  7.31597866e-01  3.43881251e-07  1.62118147e+00  3.43881251e-07  1.62744203e+00                                 
 3.81504321e-07  7.85568357e-01  3.81504321e-07  7.28954497e-01  3.81504321e-07  7.34716232e-01  3.81504321e-07  1.80000000e+00  3.81504321e-07  3.66622780e-03  3.81504321e-07  7.31799607e-01  3.81504321e-07  1.62146402e+00  3.81504321e-07  1.62743662e+00                                 
 4.25145241e-07  7.85563754e-01  4.25145241e-07  7.28929928e-01  4.25145241e-07  7.34266249e-01  4.25145241e-07  1.80000000e+00  4.25145241e-07 -3.65084378e-03  4.25145241e-07  7.31596478e-01  4.25145241e-07  1.62117723e+00  4.25145241e-07  1.62743791e+00                                 
 4.76859260e-07  7.85568135e-01  4.76859260e-07  7.28954446e-01  4.76859260e-07  7.34717629e-01  4.76859260e-07  1.80000000e+00  4.76859260e-07  3.66105989e-03  4.76859260e-07  7.31800298e-01  4.76859260e-07  1.62146086e+00  4.76859260e-07  1.62743237e+00                                 
 5.72567112e-07  7.85563857e-01  5.72567112e-07  7.28929948e-01  5.72567112e-07  7.34295086e-01  5.72567112e-07  1.80000000e+00  5.72567112e-07 -3.64720987e-03  5.72567112e-07  7.31596127e-01  5.72567112e-07  1.62117133e+00  5.72567112e-07  1.62743214e+00                                 
 7.35427677e-07  7.85568095e-01  7.35427677e-07  7.28954439e-01  7.35427677e-07  7.34703803e-01  7.35427677e-07  1.80000000e+00  7.35427677e-07  3.65903369e-03  7.35427677e-07  7.31800467e-01  7.35427677e-07  1.62145105e+00  7.35427677e-07  1.62742243e+00                                 
 1.00890103e-06  7.85563876e-01  1.00890103e-06  7.28929952e-01  1.00890103e-06  7.34302548e-01  1.00890103e-06  1.80000000e+00  1.00890103e-06 -3.64603114e-03  1.00890103e-06  7.31596034e-01  1.00890103e-06  1.62115454e+00  1.00890103e-06  1.62741543e+00                                 
 1.54182069e-06  7.85568086e-01  1.54182069e-06  7.28954437e-01  1.54182069e-06  7.34699761e-01  1.54182069e-06  1.80000000e+00  1.54182069e-06  3.65835769e-03  1.54182069e-06  7.31800517e-01  1.54182069e-06  1.62142016e+00  1.54182069e-06  1.62739155e+00                                 
 2.47329932e-06  7.85563880e-01  2.47329932e-06  7.28929952e-01  2.47329932e-06  7.34304632e-01  2.47329932e-06  1.80000000e+00  2.47329932e-06 -3.64567111e-03  2.47329932e-06  7.31596008e-01  2.47329932e-06  1.62109845e+00  2.47329932e-06  1.62735945e+00                                 
 3.67329932e-06  7.85568083e-01  3.67329932e-06  7.28954436e-01  3.67329932e-06  7.34698428e-01  3.67329932e-06  1.80000000e+00  3.67329932e-06  3.65812683e-03  3.67329932e-06  7.31800534e-01  3.67329932e-06  1.62133860e+00  3.67329932e-06  1.62731012e+00                                 
 4.87329932e-06  7.85563882e-01  4.87329932e-06  7.28929953e-01  4.87329932e-06  7.34305780e-01  4.87329932e-06  1.80000000e+00  4.87329932e-06 -3.64549054e-03  4.87329932e-06  7.31595994e-01  4.87329932e-06  1.62100654e+00  4.87329932e-06  1.62726770e+00                                 
 6.00100000e-06  7.85568081e-01  6.00100000e-06  7.28954436e-01  6.00100000e-06  7.34697251e-01  6.00100000e-06  1.80000000e+00  6.00100000e-06  3.65791737e-03  6.00100000e-06  7.31800549e-01  6.00100000e-06  1.62124940e+00  6.00100000e-06  1.62722106e+00                                 
 6.00110000e-06  7.85527049e-01  6.00110000e-06  7.28701645e-01  6.00110000e-06  7.32660107e-01  6.00110000e-06  1.62000000e+00  6.00110000e-06  1.82263623e-04  6.00110000e-06  7.30000057e-01  6.00110000e-06  1.61966477e+00  6.00110000e-06  1.62720966e+00                                 
 6.00130000e-06  7.85558088e-01  6.00130000e-06  7.28722651e-01  6.00130000e-06  7.33075647e-01  6.00130000e-06  1.26000000e+00  6.00130000e-06 -2.08033303e-04  6.00130000e-06  7.30060470e-01  6.00130000e-06  1.61971100e+00  6.00130000e-06  1.62723011e+00                                 
 6.00170000e-06  7.85605785e-01  6.00170000e-06  7.28543359e-01  6.00170000e-06  7.46145368e-01  6.00170000e-06  5.40000000e-01  6.00170000e-06  1.38898251e+00  6.00170000e-06  7.26417119e-01  6.00170000e-06  1.56897094e+00  6.00170000e-06  1.62700543e+00                                 
 6.00200000e-06  7.85553041e-01  6.00200000e-06  7.26120595e-01  6.00200000e-06  7.78492385e-01  6.00200000e-06  0.00000000e+00  6.00200000e-06  1.84696174e+00  6.00200000e-06  7.00251000e-01  6.00200000e-06  1.26855493e+00  6.00200000e-06  1.62658879e+00                                 
 6.00203966e-06  7.85564473e-01  6.00203966e-06  7.26108355e-01  6.00203966e-06  7.74479464e-01  6.00203966e-06  0.00000000e+00  6.00203966e-06  1.81680261e+00  6.00203966e-06  7.00382361e-01  6.00203966e-06  1.22027545e+00  6.00203966e-06  1.62698996e+00                                 
 6.00211899e-06  7.85568025e-01  6.00211899e-06  7.26262512e-01  6.00211899e-06  7.67410162e-01  6.00211899e-06  0.00000000e+00  6.00211899e-06  1.79390495e+00  6.00211899e-06  7.02820895e-01  6.00211899e-06  1.13844565e+00  6.00211899e-06  1.62738164e+00                                 
 6.00227764e-06  7.85564309e-01  6.00227764e-06  7.26578040e-01  6.00227764e-06  7.62054108e-01  6.00227764e-06  0.00000000e+00  6.00227764e-06  1.80174266e+00  6.00227764e-06  7.07010062e-01  6.00227764e-06  1.01541430e+00  6.00227764e-06  1.62735042e+00                                 
 6.00247902e-06  7.85565985e-01  6.00247902e-06  7.26958000e-01  6.00247902e-06  7.56975764e-01  6.00247902e-06  0.00000000e+00  6.00247902e-06  1.79799446e+00  6.00247902e-06  7.10690788e-01  6.00247902e-06  8.95737877e-01  6.00247902e-06  1.62749823e+00                                 
 6.00270549e-06  7.85564130e-01  6.00270549e-06  7.27728969e-01  6.00270549e-06  7.48862694e-01  6.00270549e-06  0.00000000e+00  6.00270549e-06  1.80041699e+00  6.00270549e-06  7.18125087e-01  6.00270549e-06  8.08645961e-01  6.00270549e-06  1.62749546e+00                                 
 6.00315019e-06  7.85565850e-01  6.00315019e-06  7.28938965e-01  6.00315019e-06  7.37541230e-01  6.00315019e-06  0.00000000e+00  6.00315019e-06  1.79938981e+00  6.00315019e-06  7.28471593e-01  6.00315019e-06  7.42193432e-01  6.00315019e-06  1.62737554e+00                                 
 6.00346258e-06  7.85564673e-01  6.00346258e-06  7.29353492e-01  6.00346258e-06  7.35346200e-01  6.00346258e-06  0.00000000e+00  6.00346258e-06  1.80050898e+00  6.00346258e-06  7.31402025e-01  6.00346258e-06  7.37666850e-01  6.00346258e-06  1.62693258e+00                                 
 6.00385939e-06  7.85566187e-01  6.00385939e-06  7.29473362e-01  6.00385939e-06  7.35546667e-01  6.00385939e-06  0.00000000e+00  6.00385939e-06  1.79964635e+00  6.00385939e-06  7.31963540e-01  6.00385939e-06  7.35357984e-01  6.00385939e-06  1.62616292e+00                                 
 6.00423501e-06  7.85565189e-01  6.00423501e-06  7.29508028e-01  6.00423501e-06  7.35520107e-01  6.00423501e-06  0.00000000e+00  6.00423501e-06  1.80027278e+00  6.00423501e-06  7.32580197e-01  6.00423501e-06  7.35785927e-01  6.00423501e-06  1.62522150e+00                                 
 6.00498625e-06  7.85566435e-01  6.00498625e-06  7.29424643e-01  6.00498625e-06  7.37117413e-01  6.00498625e-06  0.00000000e+00  6.00498625e-06  1.79978836e+00  6.00498625e-06  7.32544752e-01  6.00498625e-06  7.36541304e-01  6.00498625e-06  1.62320091e+00                                 
 6.00648873e-06  7.85565477e-01  6.00648873e-06  7.29304945e-01  6.00648873e-06  7.39544037e-01  6.00648873e-06  0.00000000e+00  6.00648873e-06  1.80021034e+00  6.00648873e-06  7.32952174e-01  6.00648873e-06  7.39583812e-01  6.00648873e-06  1.61874227e+00                                 
 6.00949369e-06  7.85566493e-01  6.00949369e-06  7.29101231e-01  6.00949369e-06  7.46032232e-01  6.00949369e-06  0.00000000e+00  6.00949369e-06  1.79981610e+00  6.00949369e-06  7.32707698e-01  6.00949369e-06  7.45365703e-01  6.00949369e-06  1.60956610e+00                                 
 6.01550361e-06  7.85565477e-01  6.01550361e-06  7.28952861e-01  6.01550361e-06  7.58091385e-01  6.01550361e-06  0.00000000e+00  6.01550361e-06  1.80019644e+00  6.01550361e-06  7.32700015e-01  6.01550361e-06  7.58087890e-01  6.01550361e-06  1.59130900e+00                                 
 6.02752345e-06  7.85566489e-01  6.02752345e-06  7.28911023e-01  6.02752345e-06  7.82453217e-01  6.02752345e-06  0.00000000e+00  6.02752345e-06  1.79982206e+00  6.02752345e-06  7.32079302e-01  6.02752345e-06  7.81665438e-01  6.02752345e-06  1.55599023e+00                                 
 6.05156313e-06  7.85565478e-01  6.05156313e-06  7.28953758e-01  6.05156313e-06  8.26189997e-01  6.05156313e-06  0.00000000e+00  6.05156313e-06  1.80019194e+00  6.05156313e-06  7.31943933e-01  6.05156313e-06  8.26260036e-01  6.05156313e-06  1.48934288e+00                                 
 6.09964249e-06  7.85566488e-01  6.09964249e-06  7.28928446e-01  6.09964249e-06  9.01357565e-01  6.09964249e-06  0.00000000e+00  6.09964249e-06  1.79982091e+00  6.09964249e-06  7.31562256e-01  6.09964249e-06  8.99481729e-01  6.09964249e-06  1.36826385e+00                                 
 6.19580122e-06  7.85565478e-01  6.19580122e-06  7.28955733e-01  6.19580122e-06  1.00874123e+00  6.19580122e-06  0.00000000e+00  6.19580122e-06  1.80018699e+00  6.19580122e-06  7.31812983e-01  6.19580122e-06  1.00983986e+00  6.19580122e-06  1.15483730e+00                                 
 6.30323036e-06  7.85566487e-01  6.30323036e-06  7.28928932e-01  6.30323036e-06  1.08301802e+00  6.30323036e-06  0.00000000e+00  6.30323036e-06  1.79981732e+00  6.30323036e-06  7.31573184e-01  6.30323036e-06  1.08092007e+00  6.30323036e-06  1.06806129e+00                                 
 6.41766463e-06  7.85565478e-01  6.41766463e-06  7.28955255e-01  6.41766463e-06  1.12872239e+00  6.41766463e-06  0.00000000e+00  6.41766463e-06  1.80018456e+00  6.41766463e-06  7.31817884e-01  6.41766463e-06  1.12980346e+00  6.41766463e-06  1.11968882e+00                                 
 6.51285773e-06  7.85566487e-01  6.51285773e-06  7.28929374e-01  6.51285773e-06  1.15208691e+00  6.51285773e-06  0.00000000e+00  6.51285773e-06  1.79981668e+00  6.51285773e-06  7.31573750e-01  6.51285773e-06  1.15082829e+00  6.51285773e-06  1.14934666e+00                                 
