 time            v(vbep)         time            v(vben)         time            v(vout)         time            v(vphi1)        time            v(vphi2)        time            v(vref)         yes             currtemp       
 0.00000000e+00  6.00211116e-01  0.00000000e+00  5.39387657e-01  0.00000000e+00  1.49382368e-01  0.00000000e+00  0.00000000e+00  0.00000000e+00  1.79998137e+00  0.00000000e+00  5.00000000e-01  1.00000000e+00  6.00000000e+01 
 5.00000000e-12  6.00197602e-01  5.00000000e-12  5.39376411e-01  5.00000000e-12  1.49944139e-01  5.00000000e-12  1.80000000e-02  5.00000000e-12  1.80007031e+00  5.00000000e-12  5.00000000e-01                                 
 1.00000000e-11  6.00184225e-01  1.00000000e-11  5.39365377e-01  1.00000000e-11  1.50447912e-01  1.00000000e-11  3.60000000e-02  1.00000000e-11  1.80011363e+00  1.00000000e-11  5.00000000e-01                                 
 2.00000000e-11  6.00157536e-01  2.00000000e-11  5.39343362e-01  2.00000000e-11  1.51368422e-01  2.00000000e-11  7.20000000e-02  2.00000000e-11  1.80015125e+00  2.00000000e-11  5.00000000e-01                                 
 4.00000000e-11  6.00104279e-01  4.00000000e-11  5.39299425e-01  4.00000000e-11  1.52813545e-01  4.00000000e-11  1.44000000e-01  4.00000000e-11  1.80012265e+00  4.00000000e-11  5.00000000e-01                                 
 8.00000000e-11  5.99998013e-01  8.00000000e-11  5.39211724e-01  8.00000000e-11  1.54768736e-01  8.00000000e-11  2.88000000e-01  8.00000000e-11  1.80007271e+00  8.00000000e-11  5.00000000e-01                                 
 1.60000000e-10  5.99786510e-01  1.60000000e-10  5.39037023e-01  1.60000000e-10  1.57156892e-01  1.60000000e-10  5.76000000e-01  1.60000000e-10  1.80003037e+00  1.60000000e-10  5.00000000e-01                                 
 3.20000000e-10  5.99367535e-01  3.20000000e-10  5.38690389e-01  3.20000000e-10  1.81852564e-01  3.20000000e-10  1.15200000e+00  3.20000000e-10  1.80018532e+00  3.20000000e-10  5.00000000e-01                                 
 5.00000000e-10  5.98902537e-01  5.00000000e-10  5.38304797e-01  5.00000000e-10  4.88748262e-01  5.00000000e-10  1.80000000e+00  5.00000000e-10  1.27661503e-01  5.00000000e-10  5.00000000e-01                                 
 5.22225550e-10  5.98845638e-01  5.22225550e-10  5.38257544e-01  5.22225550e-10  5.52161695e-01  5.22225550e-10  1.80000000e+00  5.22225550e-10  2.59770627e-02  5.22225550e-10  5.00000000e-01                                 
 5.66676651e-10  5.98732043e-01  5.66676651e-10  5.38163179e-01  5.66676651e-10  6.68327738e-01  5.66676651e-10  1.80000000e+00  5.66676651e-10 -1.20532660e-02  5.66676651e-10  5.00000000e-01                                 
 6.55578852e-10  5.98506071e-01  6.55578852e-10  5.37975296e-01  6.55578852e-10  8.50489047e-01  6.55578852e-10  1.80000000e+00  6.55578852e-10  9.94924415e-03  6.55578852e-10  5.00000000e-01                                 
 7.78304989e-10  5.98196728e-01  7.78304989e-10  5.37717746e-01  7.78304989e-10  1.04016670e+00  7.78304989e-10  1.80000000e+00  7.78304989e-10 -8.51449778e-03  7.78304989e-10  5.00000000e-01                                 
 9.73553570e-10  5.97710622e-01  9.73553570e-10  5.37312217e-01  9.73553570e-10  1.27730120e+00  9.73553570e-10  1.80000000e+00  9.73553570e-10  7.95110512e-03  9.73553570e-10  5.00000000e-01                                 
 1.30541163e-09  5.96900801e-01  1.30541163e-09  5.36634466e-01  1.30541163e-09  1.56284251e+00  1.30541163e-09  1.80000000e+00  1.30541163e-09 -7.44490236e-03  1.30541163e-09  5.00000000e-01                                 
 1.92374762e-09  5.95443747e-01  1.92374762e-09  5.35408374e-01  1.92374762e-09  1.79380337e+00  1.92374762e-09  1.80000000e+00  1.92374762e-09  7.35811774e-03  1.92374762e-09  5.00000000e-01                                 
 2.19387129e-09  5.94827533e-01  2.19387129e-09  5.34887227e-01  2.19387129e-09  1.82045710e+00  2.19387129e-09  1.80000000e+00  2.19387129e-09 -6.83787859e-03  2.19387129e-09  5.00000000e-01                                 
 2.51777750e-09  5.94103840e-01  2.51777750e-09  5.34273273e-01  2.51777750e-09  1.83350742e+00  2.51777750e-09  1.80000000e+00  2.51777750e-09  6.57488164e-03  2.51777750e-09  5.00000000e-01                                 
 2.88110243e-09  5.93310984e-01  2.88110243e-09  5.33598309e-01  2.88110243e-09  1.83899900e+00  2.88110243e-09  1.80000000e+00  2.88110243e-09 -6.22826696e-03  2.88110243e-09  5.00000000e-01                                 
 3.60775230e-09  5.91781209e-01  3.60775230e-09  5.32289327e-01  3.60775230e-09  1.84122056e+00  3.60775230e-09  1.80000000e+00  3.60775230e-09  6.14671092e-03  3.60775230e-09  5.00000000e-01                                 
 4.39481434e-09  5.90202564e-01  4.39481434e-09  5.30929416e-01  4.39481434e-09  1.84057548e+00  4.39481434e-09  1.80000000e+00  4.39481434e-09 -5.97434807e-03  4.39481434e-09  5.00000000e-01                                 
 5.96893842e-09  5.87257127e-01  5.96893842e-09  5.28369058e-01  5.96893842e-09  1.83711934e+00  5.96893842e-09  1.80000000e+00  5.96893842e-09  5.96287548e-03  5.96893842e-09  5.00000000e-01                                 
 8.72617000e-09  5.82656174e-01  8.72617000e-09  5.24314073e-01  8.72617000e-09  1.82872204e+00  8.72617000e-09  1.80000000e+00  8.72617000e-09 -5.87758505e-03  8.72617000e-09  5.00000000e-01                                 
 1.03434042e-08  5.80238584e-01  1.03434042e-08  5.22156236e-01  1.03434042e-08  1.82494352e+00  1.03434042e-08  1.80000000e+00  1.03434042e-08  5.86213119e-03  1.03434042e-08  5.00000000e-01                                 
 1.15670826e-08  5.78523920e-01  1.15670826e-08  5.20615510e-01  1.15670826e-08  1.82207103e+00  1.15670826e-08  1.80000000e+00  1.15670826e-08 -5.74818778e-03  1.15670826e-08  5.00000000e-01                                 
 1.27803102e-08  5.76910939e-01  1.27803102e-08  5.19158694e-01  1.27803102e-08  1.81949219e+00  1.27803102e-08  1.80000000e+00  1.27803102e-08  5.70800983e-03  1.27803102e-08  5.00000000e-01                                 
 1.40814472e-08  5.75268911e-01  1.40814472e-08  5.17668389e-01  1.40814472e-08  1.81668175e+00  1.40814472e-08  1.80000000e+00  1.40814472e-08 -5.60506137e-03  1.40814472e-08  5.00000000e-01                                 
 1.58221123e-08  5.73200788e-01  1.58221123e-08  5.15781183e-01  1.58221123e-08  1.81319440e+00  1.58221123e-08  1.80000000e+00  1.58221123e-08  5.58554559e-03  1.58221123e-08  5.00000000e-01                                 
 1.77646944e-08  5.71049474e-01  1.77646944e-08  5.13806073e-01  1.77646944e-08  1.80931740e+00  1.77646944e-08  1.80000000e+00  1.77646944e-08 -5.50892811e-03  1.77646944e-08  5.00000000e-01                                 
 2.05740057e-08  5.68192914e-01  2.05740057e-08  5.11164914e-01  2.05740057e-08  1.80410558e+00  2.05740057e-08  1.80000000e+00  2.05740057e-08  5.50792684e-03  2.05740057e-08  5.00000000e-01                                 
 2.37384600e-08  5.65285574e-01  2.37384600e-08  5.08454955e-01  2.37384600e-08  1.79844465e+00  2.37384600e-08  1.80000000e+00  2.37384600e-08 -5.45025000e-03  2.37384600e-08  5.00000000e-01                                 
 2.88922855e-08  5.61109250e-01  2.88922855e-08  5.04525764e-01  2.88922855e-08  1.79004622e+00  2.88922855e-08  1.80000000e+00  2.88922855e-08  5.46321927e-03  2.88922855e-08  5.00000000e-01                                 
 3.58236878e-08  5.56318133e-01  3.58236878e-08  4.99969583e-01  3.58236878e-08  1.77917602e+00  3.58236878e-08  1.80000000e+00  3.58236878e-08 -5.42084421e-03  3.58236878e-08  5.00000000e-01                                 
 4.96864923e-08  5.48557361e-01  4.96864923e-08  4.92505274e-01  4.96864923e-08  1.75882631e+00  4.96864923e-08  1.80000000e+00  4.96864923e-08  5.44451778e-03  4.96864923e-08  5.00000000e-01                                 
 7.74121014e-08  5.36393744e-01  7.74121014e-08  4.80803281e-01  7.74121014e-08  1.72059589e+00  7.74121014e-08  1.80000000e+00  7.74121014e-08 -5.41141995e-03  7.74121014e-08  5.00000000e-01                                 
 1.14535609e-07  5.22245212e-01  1.14535609e-07  4.67567519e-01  1.14535609e-07  1.67118327e+00  1.14535609e-07  1.80000000e+00  1.14535609e-07  5.43914786e-03  1.14535609e-07  5.00000000e-01                                 
 1.66339286e-07  5.05782642e-01  1.66339286e-07  4.52472923e-01  1.66339286e-07  1.60421018e+00  1.66339286e-07  1.80000000e+00  1.66339286e-07 -5.40738318e-03  1.66339286e-07  5.00000000e-01                                 
 2.37205754e-07  4.86999558e-01  2.37205754e-07  4.35615237e-01  2.37205754e-07  1.51429475e+00  2.37205754e-07  1.80000000e+00  2.37205754e-07  5.43633784e-03  2.37205754e-07  5.00000000e-01                                 
 3.46506325e-07  4.59156811e-01  3.46506325e-07  4.11563336e-01  3.46506325e-07  1.37403678e+00  3.46506325e-07  1.80000000e+00  3.46506325e-07 -5.40532811e-03  3.46506325e-07  5.00000000e-01                                 
 4.61647347e-07  4.26502739e-01  4.61647347e-07  3.84439723e-01  4.61647347e-07  1.22174999e+00  4.61647347e-07  1.80000000e+00  4.61647347e-07  5.43479392e-03  4.61647347e-07  5.00000000e-01                                 
 4.90432602e-07  4.17264112e-01  4.90432602e-07  3.76918357e-01  4.90432602e-07  1.18259820e+00  4.90432602e-07  1.80000000e+00  4.90432602e-07  3.61899397e-06  4.90432602e-07  5.00000000e-01                                 
 5.48003113e-07  3.98606741e-01  5.48003113e-07  3.61777176e-01  5.48003113e-07  1.10468574e+00  5.48003113e-07  1.80000000e+00  5.48003113e-07  2.09266468e-06  5.48003113e-07  5.00000000e-01                                 
 6.21909940e-07  4.01574060e-01  6.21909940e-07  3.63989003e-01  6.21909940e-07  1.03455764e+00  6.21909940e-07  1.80000000e+00  6.21909940e-07  3.96813716e-06  6.21909940e-07  5.00000000e-01                                 
 6.35479004e-07  4.13151577e-01  6.35479004e-07  3.73227751e-01  6.35479004e-07  1.03279978e+00  6.35479004e-07  1.80000000e+00  6.35479004e-07  3.42000078e-06  6.35479004e-07  5.00000000e-01                                 
 6.62617132e-07  4.62127376e-01  6.62617132e-07  4.12288508e-01  6.62617132e-07  1.05328600e+00  6.62617132e-07  1.80000000e+00  6.62617132e-07  4.36232743e-06  6.62617132e-07  5.00000000e-01                                 
 7.16893389e-07  6.65494238e-01  7.16893389e-07  6.01612999e-01  7.16893389e-07  1.19387461e+00  7.16893389e-07  1.80000000e+00  7.16893389e-07  6.20723276e-06  7.16893389e-07  5.00000000e-01                                 
 7.49802687e-07  7.09227510e-01  7.49802687e-07  6.45286802e-01  7.49802687e-07  1.20304137e+00  7.49802687e-07  1.80000000e+00  7.49802687e-07  2.04426711e-06  7.49802687e-07  5.00000000e-01                                 
 7.82149665e-07  7.30538556e-01  7.82149665e-07  6.64346771e-01  7.82149665e-07  1.18782683e+00  7.82149665e-07  1.80000000e+00  7.82149665e-07  4.85143238e-06  7.82149665e-07  5.00000000e-01                                 
 8.19471223e-07  7.43197194e-01  8.19471223e-07  6.75436821e-01  8.19471223e-07  1.16230918e+00  8.19471223e-07  1.80000000e+00  8.19471223e-07  1.81591321e-06  8.19471223e-07  5.00000000e-01                                 
 8.60750866e-07  7.47952207e-01  8.60750866e-07  6.79335256e-01  8.60750866e-07  1.12222575e+00  8.60750866e-07  1.80000000e+00  8.60750866e-07  4.31415890e-06  8.60750866e-07  5.00000000e-01                                 
 9.29227741e-07  7.49873631e-01  9.29227741e-07  6.81016099e-01  9.29227741e-07  1.05658429e+00  9.29227741e-07  1.80000000e+00  9.29227741e-07  1.79919381e-06  9.29227741e-07  5.00000000e-01                                 
 9.96515061e-07  7.31692297e-01  9.96515061e-07  6.65442328e-01  9.96515061e-07  9.78652442e-01  9.96515061e-07  1.80000000e+00  9.96515061e-07  3.79019509e-06  9.96515061e-07  5.00000000e-01                                 
 1.07195472e-06  7.25329632e-01  1.07195472e-06  6.59890644e-01  1.07195472e-06  9.19296771e-01  1.07195472e-06  1.80000000e+00  1.07195472e-06  2.12358553e-06  1.07195472e-06  5.00000000e-01                                 
 1.15538979e-06  7.44398735e-01  1.15538979e-06  6.76363681e-01  1.15538979e-06  8.81038925e-01  1.15538979e-06  1.80000000e+00  1.15538979e-06  4.23490945e-06  1.15538979e-06  5.00000000e-01                                 
 1.24122174e-06  7.34583885e-01  1.24122174e-06  6.68069412e-01  1.24122174e-06  8.21112747e-01  1.24122174e-06  1.80000000e+00  1.24122174e-06  1.64712653e-06  1.24122174e-06  5.00000000e-01                                 
 1.32923642e-06  7.29353430e-01  1.32923642e-06  6.63346302e-01  1.32923642e-06  7.64958341e-01  1.32923642e-06  1.80000000e+00  1.32923642e-06  4.26087495e-06  1.32923642e-06  5.00000000e-01                                 
 1.44162066e-06  7.41681918e-01  1.44162066e-06  6.74143315e-01  1.44162066e-06  7.13961555e-01  1.44162066e-06  1.80000000e+00  1.44162066e-06  1.95158733e-06  1.44162066e-06  5.00000000e-01                                 
 1.57146670e-06  7.31487824e-01  1.57146670e-06  6.65254640e-01  1.57146670e-06  6.35184702e-01  1.57146670e-06  1.80000000e+00  1.57146670e-06  3.94549033e-06  1.57146670e-06  5.00000000e-01                                 
 1.70038781e-06  7.35774643e-01  1.70038781e-06  6.69065540e-01  1.70038781e-06  5.76225588e-01  1.70038781e-06  1.80000000e+00  1.70038781e-06  2.13970274e-06  1.70038781e-06  5.00000000e-01                                 
 1.85803168e-06  7.37837718e-01  1.85803168e-06  6.70788596e-01  1.85803168e-06  5.21717265e-01  1.85803168e-06  1.80000000e+00  1.85803168e-06  3.90553562e-06  1.85803168e-06  5.00000000e-01                                 
 2.09246373e-06  7.32457225e-01  2.09246373e-06  6.66182579e-01  2.09246373e-06  4.90075174e-01  2.09246373e-06  1.80000000e+00  2.09246373e-06  2.09153416e-06  2.09246373e-06  5.00000000e-01                                 
 2.12189904e-06  7.34950768e-01  2.12189904e-06  6.68316983e-01  2.12189904e-06  4.93111792e-01  2.12189904e-06  1.80000000e+00  2.12189904e-06  3.07067391e-06  2.12189904e-06  5.00000000e-01                                 
 2.18076965e-06  7.37484374e-01  2.18076965e-06  6.70511513e-01  2.18076965e-06  4.98731222e-01  2.18076965e-06  1.80000000e+00  2.18076965e-06  3.02562251e-06  2.18076965e-06  5.00000000e-01                                 
 2.29851087e-06  7.34560954e-01  2.29851087e-06  6.67985372e-01  2.29851087e-06  4.99731054e-01  2.29851087e-06  1.80000000e+00  2.29851087e-06  2.96235543e-06  2.29851087e-06  5.00000000e-01                                 
 2.48064551e-06  7.35879773e-01  2.48064551e-06  6.69121542e-01  2.48064551e-06  5.00516630e-01  2.48064551e-06  1.80000000e+00  2.48064551e-06  3.07471653e-06  2.48064551e-06  5.00000000e-01                                 
 2.68701799e-06  7.35986534e-01  2.68701799e-06  6.69223247e-01  2.68701799e-06  5.00456672e-01  2.68701799e-06  1.80000000e+00  2.68701799e-06  2.95391412e-06  2.68701799e-06  5.00000000e-01                                 
 3.09976295e-06  7.35001601e-01  3.09976295e-06  6.68360016e-01  3.09976295e-06  4.99685037e-01  3.09976295e-06  1.80000000e+00  3.09976295e-06  3.06880755e-06  3.09976295e-06  5.00000000e-01                                 
 3.68409106e-06  7.36379495e-01  3.68409106e-06  6.69562798e-01  3.68409106e-06  5.00931420e-01  3.68409106e-06  1.80000000e+00  3.68409106e-06  2.96198260e-06  3.68409106e-06  5.00000000e-01                                 
 4.61994219e-06  7.34775022e-01  4.61994219e-06  6.68163559e-01  4.61994219e-06  4.99397962e-01  4.61994219e-06  1.80000000e+00  4.61994219e-06  3.06205919e-06  4.61994219e-06  5.00000000e-01                                 
 5.61994219e-06  7.36515640e-01  5.61994219e-06  6.69680256e-01  5.61994219e-06  5.01120515e-01  5.61994219e-06  1.80000000e+00  5.61994219e-06  2.96763434e-06  5.61994219e-06  5.00000000e-01                                 
 6.61994219e-06  7.34659797e-01  6.61994219e-06  6.68063852e-01  6.61994219e-06  4.99236812e-01  6.61994219e-06  1.80000000e+00  6.61994219e-06  3.05621938e-06  6.61994219e-06  5.00000000e-01                                 
 7.61994219e-06  7.36604406e-01  7.61994219e-06  6.69756611e-01  7.61994219e-06  5.01259102e-01  7.61994219e-06  1.80000000e+00  7.61994219e-06  2.97376943e-06  7.61994219e-06  5.00000000e-01                                 
 8.61994219e-06  7.34588230e-01  8.61994219e-06  6.68002080e-01  8.61994219e-06  4.99121983e-01  8.61994219e-06  1.80000000e+00  8.61994219e-06  3.04985654e-06  8.61994219e-06  5.00000000e-01                                 
 9.61994219e-06  7.36652367e-01  9.61994219e-06  6.69797661e-01  9.61994219e-06  5.01349780e-01  9.61994219e-06  1.80000000e+00  9.61994219e-06  2.98029692e-06  9.61994219e-06  5.00000000e-01                                 
 1.00005000e-05  7.34563338e-01  1.00005000e-05  6.67981174e-01  1.00005000e-05  4.99037712e-01  1.00005000e-05  1.80000000e+00  1.00005000e-05  3.03784514e-06  1.00005000e-05  5.00000000e-01                                 
 1.00005500e-05  7.34564547e-01  1.00005500e-05  6.67982306e-01  1.00005500e-05  4.91372007e-01  1.00005500e-05  1.62000000e+00  1.00005500e-05 -7.98310034e-05  1.00005500e-05  5.00000000e-01                                 
 1.00006500e-05  7.34566955e-01  1.00006500e-05  6.67984531e-01  1.00006500e-05  4.77602230e-01  1.00006500e-05  1.26000000e+00  1.00006500e-05 -6.52319843e-05  1.00006500e-05  5.00000000e-01                                 
 1.00008500e-05  7.34571536e-01  1.00008500e-05  6.67988721e-01  1.00008500e-05  4.75293098e-01  1.00008500e-05  5.40000000e-01  1.00008500e-05  5.63087843e-03  1.00008500e-05  5.00000000e-01                                 
 1.00010000e-05  7.34574674e-01  1.00010000e-05  6.67991609e-01  1.00010000e-05  4.38007545e-01  1.00010000e-05  0.00000000e+00  1.00010000e-05  1.59089898e+00  1.00010000e-05  5.00000000e-01                                 
 1.00010252e-05  7.34575153e-01  1.00010252e-05  6.67992057e-01  1.00010252e-05  4.13139831e-01  1.00010252e-05  0.00000000e+00  1.00010252e-05  1.72948585e+00  1.00010252e-05  5.00000000e-01                                 
 1.00010756e-05  7.34576160e-01  1.00010756e-05  6.67992968e-01  1.00010756e-05  3.68299223e-01  1.00010756e-05  0.00000000e+00  1.00010756e-05  1.81968373e+00  1.00010756e-05  5.00000000e-01                                 
 1.00011764e-05  7.34578294e-01  1.00011764e-05  6.67994853e-01  1.00011764e-05  3.21781581e-01  1.00011764e-05  0.00000000e+00  1.00011764e-05  1.78572078e+00  1.00011764e-05  5.00000000e-01                                 
 1.00013015e-05  7.34580905e-01  1.00013015e-05  6.67997197e-01  1.00013015e-05  3.13515385e-01  1.00013015e-05  0.00000000e+00  1.00013015e-05  1.80887585e+00  1.00013015e-05  5.00000000e-01                                 
 1.00015082e-05  7.34584982e-01  1.00015082e-05  6.68000870e-01  1.00015082e-05  3.13474598e-01  1.00015082e-05  0.00000000e+00  1.00015082e-05  1.79273263e+00  1.00015082e-05  5.00000000e-01                                 
 1.00017264e-05  7.34589036e-01  1.00017264e-05  6.68004504e-01  1.00017264e-05  3.14000645e-01  1.00017264e-05  0.00000000e+00  1.00017264e-05  1.80572451e+00  1.00017264e-05  5.00000000e-01                                 
 1.00021170e-05  7.34595978e-01  1.00021170e-05  6.68010675e-01  1.00021170e-05  3.13834612e-01  1.00021170e-05  0.00000000e+00  1.00021170e-05  1.79491187e+00  1.00021170e-05  5.00000000e-01                                 
 1.00025703e-05  7.34603981e-01  1.00025703e-05  6.68017710e-01  1.00025703e-05  3.14015500e-01  1.00025703e-05  0.00000000e+00  1.00025703e-05  1.80454137e+00  1.00025703e-05  5.00000000e-01                                 
