 time            v(vbep)         time            v(vben)         time            v(vout)         time            v(vphi1)        time            v(vphi2)        time            v(vref)         time            v(voutc)        time            v(voutcc)       yes             currtemp       
 0.00000000e+00  8.41220403e-01  0.00000000e+00  7.92508754e-01  0.00000000e+00  1.73699052e+00  0.00000000e+00  0.00000000e+00  0.00000000e+00  1.80000000e+00  0.00000000e+00  7.96423360e-01  0.00000000e+00  1.73699051e+00  0.00000000e+00  1.74181115e+00  1.00000000e+00 -1.90000000e+01 
 1.00000000e-11  8.41241851e-01  1.00000000e-11  7.92574274e-01  1.00000000e-11  1.73781835e+00  1.00000000e-11  1.80000000e-02  1.00000000e-11  1.80024271e+00  1.00000000e-11  7.96937955e-01  1.00000000e-11  1.73744744e+00  1.00000000e-11  1.74182173e+00                                 
 2.00000000e-11  8.41247908e-01  2.00000000e-11  7.92615703e-01  2.00000000e-11  1.73838583e+00  2.00000000e-11  3.60000000e-02  2.00000000e-11  1.80034534e+00  2.00000000e-11  7.97328333e-01  2.00000000e-11  1.73780771e+00  2.00000000e-11  1.74182624e+00                                 
 4.00000000e-11  8.41247938e-01  4.00000000e-11  7.92670038e-01  4.00000000e-11  1.73915516e+00  4.00000000e-11  7.20000000e-02  4.00000000e-11  1.80039527e+00  4.00000000e-11  7.97908522e-01  4.00000000e-11  1.73836831e+00  4.00000000e-11  1.74182815e+00                                 
 8.00000000e-11  8.41237090e-01  8.00000000e-11  7.92702132e-01  8.00000000e-11  1.73956250e+00  8.00000000e-11  1.44000000e-01  8.00000000e-11  1.80020710e+00  8.00000000e-11  7.98382175e-01  8.00000000e-11  1.73891666e+00  8.00000000e-11  1.74181759e+00                                 
 1.60000000e-10  8.41233718e-01  1.60000000e-10  7.92701215e-01  1.60000000e-10  1.73938254e+00  1.60000000e-10  2.88000000e-01  1.60000000e-10  1.80001768e+00  1.60000000e-10  7.98457833e-01  1.60000000e-10  1.73916403e+00  1.60000000e-10  1.74180414e+00                                 
 3.20000000e-10  8.41231454e-01  3.20000000e-10  7.92698742e-01  3.20000000e-10  1.73909760e+00  3.20000000e-10  5.76000000e-01  3.20000000e-10  1.80002414e+00  3.20000000e-10  7.98424881e-01  3.20000000e-10  1.73919176e+00  3.20000000e-10  1.74180171e+00                                 
 6.40000000e-10  8.41162502e-01  6.40000000e-10  7.92504775e-01  6.40000000e-10  1.73176522e+00  6.40000000e-10  1.15200000e+00  6.40000000e-10  1.81355484e+00  6.40000000e-10  7.98120411e-01  6.40000000e-10  1.74349168e+00  6.40000000e-10  1.74182846e+00                                 
 9.94412238e-10  8.41541112e-01  9.94412238e-10  7.92505664e-01  9.94412238e-10  1.70019699e+00  9.94412238e-10  1.78994203e+00  9.94412238e-10  7.39115214e-02  9.94412238e-10  7.97947041e-01  9.94412238e-10  1.73101040e+00  9.94412238e-10  1.74169908e+00                                 
 1.00000000e-09  8.41559164e-01  1.00000000e-09  7.92541230e-01  1.00000000e-09  1.69987147e+00  1.00000000e-09  1.80000000e+00  1.00000000e-09  3.83764703e-02  1.00000000e-09  7.98421352e-01  1.00000000e-09  1.73092859e+00  1.00000000e-09  1.74171342e+00                                 
 1.01117552e-09  8.41543429e-01  1.01117552e-09  7.92559685e-01  1.01117552e-09  1.69986465e+00  1.01117552e-09  1.80000000e+00  1.01117552e-09  1.71413159e-02  1.01117552e-09  7.99427575e-01  1.01117552e-09  1.73153852e+00  1.01117552e-09  1.74175196e+00                                 
 1.03352657e-09  8.41551290e-01  1.03352657e-09  7.92617434e-01  1.03352657e-09  1.70013344e+00  1.03352657e-09  1.80000000e+00  1.03352657e-09 -7.29130888e-04  1.03352657e-09  8.01176265e-01  1.03352657e-09  1.73286543e+00  1.03352657e-09  1.74180814e+00                                 
 1.07822867e-09  8.41665344e-01  1.07822867e-09  7.92645747e-01  1.07822867e-09  1.69934850e+00  1.07822867e-09  1.80000000e+00  1.07822867e-09  1.92657807e-03  1.07822867e-09  8.02403662e-01  1.07822867e-09  1.73402051e+00  1.07822867e-09  1.74180881e+00                                 
 1.16763286e-09  8.41853650e-01  1.16763286e-09  7.92554442e-01  1.16763286e-09  1.69458157e+00  1.16763286e-09  1.80000000e+00  1.16763286e-09 -3.49594651e-04  1.16763286e-09  8.02449436e-01  1.16763286e-09  1.73402648e+00  1.16763286e-09  1.74178361e+00                                 
 1.34644124e-09  8.42012321e-01  1.34644124e-09  7.92520229e-01  1.34644124e-09  1.68766661e+00  1.34644124e-09  1.80000000e+00  1.34644124e-09  8.43664215e-04  1.34644124e-09  8.03263572e-01  1.34644124e-09  1.73472377e+00  1.34644124e-09  1.74181037e+00                                 
 1.55166116e-09  8.41978892e-01  1.55166116e-09  7.92502659e-01  1.55166116e-09  1.68580119e+00  1.55166116e-09  1.80000000e+00  1.55166116e-09 -6.00889957e-04  1.55166116e-09  8.03194413e-01  1.55166116e-09  1.73464086e+00  1.55166116e-09  1.74179733e+00                                 
 1.81695360e-09  8.41809994e-01  1.81695360e-09  7.92501924e-01  1.81695360e-09  1.68770092e+00  1.81695360e-09  1.80000000e+00  1.81695360e-09  5.14754105e-04  1.81695360e-09  8.02991930e-01  1.81695360e-09  1.73448569e+00  1.81695360e-09  1.74181191e+00                                 
 2.07294061e-09  8.41647287e-01  2.07294061e-09  7.92496216e-01  2.07294061e-09  1.69004918e+00  2.07294061e-09  1.80000000e+00  2.07294061e-09 -5.19368078e-04  2.07294061e-09  8.02576176e-01  2.07294061e-09  1.73411817e+00  2.07294061e-09  1.74180343e+00                                 
 2.50920536e-09  8.41413828e-01  2.50920536e-09  7.92497266e-01  2.50920536e-09  1.69409494e+00  2.50920536e-09  1.80000000e+00  2.50920536e-09  4.22343761e-04  2.50920536e-09  8.02065912e-01  2.50920536e-09  1.73370166e+00  2.50920536e-09  1.74181150e+00                                 
 3.23184791e-09  8.41195671e-01  3.23184791e-09  7.92490723e-01  3.23184791e-09  1.69952946e+00  3.23184791e-09  1.80000000e+00  3.23184791e-09 -4.67212530e-04  3.23184791e-09  8.01100199e-01  3.23184791e-09  1.73287209e+00  3.23184791e-09  1.74179900e+00                                 
 4.67713302e-09  8.41069830e-01  4.67713302e-09  7.92493817e-01  4.67713302e-09  1.70747984e+00  4.67713302e-09  1.80000000e+00  4.67713302e-09  4.01109249e-04  4.67713302e-09  7.99637239e-01  4.67713302e-09  1.73165056e+00  4.67713302e-09  1.74177833e+00                                 
 7.56770323e-09  8.41141837e-01  7.56770323e-09  7.92497060e-01  7.56770323e-09  1.71465907e+00  7.56770323e-09  1.80000000e+00  7.56770323e-09 -4.44716751e-04  7.56770323e-09  7.97576239e-01  7.56770323e-09  1.72989700e+00  7.56770323e-09  1.74165581e+00                                 
 1.05784366e-08  8.41183328e-01  1.05784366e-08  7.92506813e-01  1.05784366e-08  1.71579120e+00  1.05784366e-08  1.80000000e+00  1.05784366e-08  4.03097633e-04  1.05784366e-08  7.96644257e-01  1.05784366e-08  1.72912174e+00  1.05784366e-08  1.74147611e+00                                 
 1.33758265e-08  8.41195938e-01  1.33758265e-08  7.92505378e-01  1.33758265e-08  1.71473007e+00  1.33758265e-08  1.80000000e+00  1.33758265e-08 -4.28791407e-04  1.33758265e-08  7.96173333e-01  1.33758265e-08  1.72870711e+00  1.33758265e-08  1.74126156e+00                                 
 1.63231620e-08  8.41192241e-01  1.63231620e-08  7.92510133e-01  1.63231620e-08  1.71389685e+00  1.63231620e-08  1.80000000e+00  1.63231620e-08  4.03117560e-04  1.63231620e-08  7.96051546e-01  1.63231620e-08  1.72861103e+00  1.63231620e-08  1.74103399e+00                                 
 2.04225128e-08  8.41195873e-01  2.04225128e-08  7.92506894e-01  2.04225128e-08  1.71304019e+00  2.04225128e-08  1.80000000e+00  2.04225128e-08 -4.11847616e-04  2.04225128e-08  7.95914318e-01  2.04225128e-08  1.72847065e+00  2.04225128e-08  1.74069869e+00                                 
 2.58671558e-08  8.41208399e-01  2.58671558e-08  7.92510664e-01  2.58671558e-08  1.71004099e+00  2.58671558e-08  1.80000000e+00  2.58671558e-08  4.04659449e-04  2.58671558e-08  7.95986852e-01  2.58671558e-08  1.72852733e+00  2.58671558e-08  1.74028065e+00                                 
 3.37117549e-08  8.41222513e-01  3.37117549e-08  7.92507037e-01  3.37117549e-08  1.70233378e+00  3.37117549e-08  1.80000000e+00  3.37117549e-08 -4.05649044e-04  3.37117549e-08  7.95988500e-01  3.37117549e-08  1.72849134e+00  3.37117549e-08  1.73970224e+00                                 
 4.54439017e-08  8.41220643e-01  4.54439017e-08  7.92510698e-01  4.54439017e-08  1.68881477e+00  4.54439017e-08  1.80000000e+00  4.54439017e-08  4.02818939e-04  4.54439017e-08  7.96135482e-01  4.54439017e-08  1.72859699e+00  4.54439017e-08  1.73893819e+00                                 
 6.21815445e-08  8.41223912e-01  6.21815445e-08  7.92506993e-01  6.21815445e-08  1.66799761e+00  6.21815445e-08  1.80000000e+00  6.21815445e-08 -4.04077793e-04  6.21815445e-08  7.96168202e-01  6.21815445e-08  1.72857764e+00  6.21815445e-08  1.73799097e+00                                 
 9.33444382e-08  8.41218971e-01  9.33444382e-08  7.92510615e-01  9.33444382e-08  1.62659712e+00  9.33444382e-08  1.80000000e+00  9.33444382e-08  4.02844750e-04  9.33444382e-08  7.96336696e-01  9.33444382e-08  1.72869015e+00  9.33444382e-08  1.73664599e+00                                 
 1.55670226e-07  8.41222747e-01  1.55670226e-07  7.92506931e-01  1.55670226e-07  1.53912663e+00  1.55670226e-07  1.80000000e+00  1.55670226e-07 -4.03645351e-04  1.55670226e-07  7.96367314e-01  1.55670226e-07  1.72865965e+00  1.55670226e-07  1.73499888e+00                                 
 2.80321800e-07  8.41218232e-01  2.80321800e-07  7.92510583e-01  2.80321800e-07  1.36391384e+00  2.80321800e-07  1.80000000e+00  2.80321800e-07  4.02723665e-04  2.80321800e-07  7.96456333e-01  2.80321800e-07  1.72871707e+00  2.80321800e-07  1.73378555e+00                                 
 5.10293278e-07  8.41222575e-01  5.10293278e-07  7.92506926e-01  5.10293278e-07  1.05088165e+00  5.10293278e-07  1.80000000e+00  5.10293278e-07 -4.03327118e-04  5.10293278e-07  7.96392130e-01  5.10293278e-07  1.72863426e+00  5.10293278e-07  1.73347750e+00                                 
 7.67643514e-07  8.41218247e-01  7.67643514e-07  7.92510582e-01  7.67643514e-07  8.23810443e-01  7.67643514e-07  1.80000000e+00  7.67643514e-07  4.02303391e-04  7.67643514e-07  7.96453492e-01  7.67643514e-07  1.72868839e+00  7.67643514e-07  1.73352183e+00                                 
 1.02688201e-06  8.41222564e-01  1.02688201e-06  7.92506929e-01  1.02688201e-06  7.91422483e-01  1.02688201e-06  1.80000000e+00  1.02688201e-06 -4.02221711e-04  1.02688201e-06  7.96394262e-01  1.02688201e-06  1.72861408e+00  1.02688201e-06  1.73349616e+00                                 
 1.17710729e-06  8.41218169e-01  1.17710729e-06  7.92510570e-01  1.17710729e-06  8.02560157e-01  1.17710729e-06  1.80000000e+00  1.17710729e-06  4.02367866e-04  1.17710729e-06  7.96452123e-01  1.17710729e-06  1.72866922e+00  1.17710729e-06  1.73349630e+00                                 
 1.30063789e-06  8.41222707e-01  1.30063789e-06  7.92506948e-01  1.30063789e-06  8.00043654e-01  1.30063789e-06  1.80000000e+00  1.30063789e-06 -4.02136420e-04  1.30063789e-06  7.96394455e-01  1.30063789e-06  1.72860237e+00  1.30063789e-06  1.73348509e+00                                 
 1.41843969e-06  8.41218058e-01  1.41843969e-06  7.92510552e-01  1.41843969e-06  8.00484273e-01  1.41843969e-06  1.80000000e+00  1.41843969e-06  4.02655613e-04  1.41843969e-06  7.96452394e-01  1.41843969e-06  1.72865896e+00  1.41843969e-06  1.73348605e+00                                 
 1.54663577e-06  8.41222771e-01  1.54663577e-06  7.92506962e-01  1.54663577e-06  8.00328739e-01  1.54663577e-06  1.80000000e+00  1.54663577e-06 -4.01953289e-04  1.54663577e-06  7.96394297e-01  1.54663577e-06  1.72859154e+00  1.54663577e-06  1.73347449e+00                                 
 1.76397164e-06  8.41218024e-01  1.76397164e-06  7.92510542e-01  1.76397164e-06  8.00470706e-01  1.76397164e-06  1.80000000e+00  1.76397164e-06  4.03123316e-04  1.76397164e-06  7.96452496e-01  1.76397164e-06  1.72864404e+00  1.76397164e-06  1.73347106e+00                                 
 2.05836511e-06  8.41222787e-01  2.05836511e-06  7.92506968e-01  2.05836511e-06  8.00353515e-01  2.05836511e-06  1.80000000e+00  2.05836511e-06 -4.01863044e-04  2.05836511e-06  7.96394264e-01  2.05836511e-06  1.72856928e+00  2.05836511e-06  1.73345233e+00                                 
 2.52872375e-06  8.41218015e-01  2.52872375e-06  7.92510538e-01  2.52872375e-06  8.00460128e-01  2.52872375e-06  1.80000000e+00  2.52872375e-06  4.02969997e-04  2.52872375e-06  7.96452518e-01  2.52872375e-06  1.72861081e+00  2.52872375e-06  1.73343794e+00                                 
 3.34119033e-06  8.41222793e-01  3.34119033e-06  7.92506971e-01  3.34119033e-06  8.00357970e-01  3.34119033e-06  1.80000000e+00  3.34119033e-06 -4.01825246e-04  3.34119033e-06  7.96394250e-01  3.34119033e-06  1.72851351e+00  3.34119033e-06  1.73339675e+00                                 
 4.54119033e-06  8.41218012e-01  4.54119033e-06  7.92510537e-01  4.54119033e-06  8.00458209e-01  4.54119033e-06  1.80000000e+00  4.54119033e-06  4.02838014e-04  4.54119033e-06  7.96452522e-01  4.54119033e-06  1.72852341e+00  4.54119033e-06  1.73335083e+00                                 
 5.74119033e-06  8.41222795e-01  5.74119033e-06  7.92506972e-01  5.74119033e-06  8.00359794e-01  5.74119033e-06  1.80000000e+00  5.74119033e-06 -4.01806511e-04  5.74119033e-06  7.96394241e-01  5.74119033e-06  1.72840932e+00  5.74119033e-06  1.73329293e+00                                 
 6.00100000e-06  8.41218007e-01  6.00100000e-06  7.92510534e-01  6.00100000e-06  8.00455894e-01  6.00100000e-06  1.80000000e+00  6.00100000e-06  4.01963646e-04  6.00100000e-06  7.96452509e-01  6.00100000e-06  1.72846003e+00  6.00100000e-06  1.73328769e+00                                 
 6.00110000e-06  8.41189925e-01  6.00110000e-06  7.92290661e-01  6.00110000e-06  7.98342708e-01  6.00110000e-06  1.62000000e+00  6.00110000e-06 -6.90822666e-05  6.00110000e-06  7.94540899e-01  6.00110000e-06  1.72683977e+00  6.00110000e-06  1.73326941e+00                                 
 6.00130000e-06  8.41218896e-01  6.00130000e-06  7.92355860e-01  6.00130000e-06  7.99108837e-01  6.00130000e-06  1.26000000e+00  6.00130000e-06  2.62593557e-05  6.00130000e-06  7.94900946e-01  6.00130000e-06  1.72714599e+00  6.00130000e-06  1.73329335e+00                                 
 6.00170000e-06  8.41245607e-01  6.00170000e-06  7.92393749e-01  6.00170000e-06  8.00283017e-01  6.00170000e-06  5.40000000e-01  6.00170000e-06  1.93210421e-02  6.00170000e-06  7.94024470e-01  6.00170000e-06  1.72065228e+00  6.00170000e-06  1.73324082e+00                                 
 6.00200000e-06  8.41216782e-01  6.00200000e-06  7.90096430e-01  6.00200000e-06  8.49985254e-01  6.00200000e-06  0.00000000e+00  6.00200000e-06  1.58760943e+00  6.00200000e-06  7.64428194e-01  6.00200000e-06  1.51568949e+00  6.00200000e-06  1.73234679e+00                                 
 6.00205102e-06  8.41223298e-01  6.00205102e-06  7.90077893e-01  6.00205102e-06  8.47923719e-01  6.00205102e-06  0.00000000e+00  6.00205102e-06  1.73142509e+00  6.00205102e-06  7.63868780e-01  6.00205102e-06  1.45682841e+00  6.00205102e-06  1.73263596e+00                                 
 6.00215305e-06  8.41219240e-01  6.00215305e-06  7.90259006e-01  6.00215305e-06  8.38237983e-01  6.00215305e-06  0.00000000e+00  6.00215305e-06  1.81996748e+00  6.00215305e-06  7.65911644e-01  6.00215305e-06  1.34542277e+00  6.00215305e-06  1.73316357e+00                                 
 6.00230703e-06  8.41219190e-01  6.00230703e-06  7.90943412e-01  6.00230703e-06  8.25118320e-01  6.00230703e-06  0.00000000e+00  6.00230703e-06  1.78740333e+00  6.00230703e-06  7.74270435e-01  6.00230703e-06  1.22383440e+00  6.00230703e-06  1.73331033e+00                                 
 6.00247604e-06  8.41220161e-01  6.00247604e-06  7.91267398e-01  6.00247604e-06  8.21643493e-01  6.00247604e-06  0.00000000e+00  6.00247604e-06  1.80597383e+00  6.00247604e-06  7.77904433e-01  6.00247604e-06  1.13522017e+00  6.00247604e-06  1.73338025e+00                                 
 6.00271844e-06  8.41218524e-01  6.00271844e-06  7.91599165e-01  6.00271844e-06  8.15736566e-01  6.00271844e-06  0.00000000e+00  6.00271844e-06  1.79534828e+00  6.00271844e-06  7.81314291e-01  6.00271844e-06  1.04122276e+00  6.00271844e-06  1.73345488e+00                                 
 6.00297435e-06  8.41220509e-01  6.00297435e-06  7.91924118e-01  6.00297435e-06  8.13608162e-01  6.00297435e-06  0.00000000e+00  6.00297435e-06  1.80278630e+00  6.00297435e-06  7.84660852e-01  6.00297435e-06  9.67187484e-01  6.00297435e-06  1.73354299e+00                                 
 6.00348615e-06  8.41218805e-01  6.00348615e-06  7.92333443e-01  6.00348615e-06  8.08327586e-01  6.00348615e-06  0.00000000e+00  6.00348615e-06  1.79720802e+00  6.00348615e-06  7.88620826e-01  6.00348615e-06  8.58572837e-01  6.00348615e-06  1.73358982e+00                                 
 6.00405899e-06  8.41221035e-01  6.00405899e-06  7.92860233e-01  6.00405899e-06  8.02464981e-01  6.00405899e-06  0.00000000e+00  6.00405899e-06  1.80213447e+00  6.00405899e-06  7.94767142e-01  6.00405899e-06  8.10504203e-01  6.00405899e-06  1.73351575e+00                                 
 6.00455055e-06  8.41219172e-01  6.00455055e-06  7.92936163e-01  6.00455055e-06  8.00975842e-01  6.00455055e-06  0.00000000e+00  6.00455055e-06  1.79823135e+00  6.00455055e-06  7.95819387e-01  6.00455055e-06  8.02147320e-01  6.00455055e-06  1.73328659e+00                                 
 6.00513492e-06  8.41221276e-01  6.00513492e-06  7.92975977e-01  6.00513492e-06  8.00740568e-01  6.00513492e-06  0.00000000e+00  6.00513492e-06  1.80150823e+00  6.00513492e-06  7.96983241e-01  6.00513492e-06  8.01216548e-01  6.00513492e-06  1.73290855e+00                                 
 6.00578273e-06  8.41219380e-01  6.00578273e-06  7.92868821e-01  6.00578273e-06  8.01036492e-01  6.00578273e-06  0.00000000e+00  6.00578273e-06  1.79870075e+00  6.00578273e-06  7.96596256e-01  6.00578273e-06  8.00692307e-01  6.00578273e-06  1.73236865e+00                                 
 6.00707835e-06  8.41221368e-01  6.00707835e-06  7.92782260e-01  6.00707835e-06  8.01778329e-01  6.00707835e-06  0.00000000e+00  6.00707835e-06  1.80121179e+00  6.00707835e-06  7.97214805e-01  6.00707835e-06  8.01891611e-01  6.00707835e-06  1.73119272e+00                                 
 6.00966959e-06  8.41219447e-01  6.00966959e-06  7.92602946e-01  6.00966959e-06  8.03675187e-01  6.00966959e-06  0.00000000e+00  6.00966959e-06  1.79883633e+00  6.00966959e-06  7.96829850e-01  6.00966959e-06  8.03239882e-01  6.00966959e-06  1.72864312e+00                                 
 6.01485207e-06  8.41221362e-01  6.01485207e-06  7.92556285e-01  6.01485207e-06  8.07812589e-01  6.01485207e-06  0.00000000e+00  6.01485207e-06  1.80114747e+00  6.01485207e-06  7.97300254e-01  6.01485207e-06  8.07858137e-01  6.01485207e-06  1.72351814e+00                                 
 6.02521704e-06  8.41219448e-01  6.02521704e-06  7.92487061e-01  6.02521704e-06  8.16621857e-01  6.02521704e-06  0.00000000e+00  6.02521704e-06  1.79886803e+00  6.02521704e-06  7.96717789e-01  6.02521704e-06  8.16105349e-01  6.02521704e-06  1.71322778e+00                                 
 6.04344640e-06  8.41221359e-01  6.04344640e-06  7.92521924e-01  6.04344640e-06  8.31648871e-01  6.04344640e-06  0.00000000e+00  6.04344640e-06  1.80113105e+00  6.04344640e-06  7.97008787e-01  6.04344640e-06  8.31709501e-01  6.04344640e-06  1.69414997e+00                                 
 6.07990514e-06  8.41219448e-01  6.07990514e-06  7.92491363e-01  6.07990514e-06  8.59818911e-01  6.07990514e-06  0.00000000e+00  6.07990514e-06  1.79887631e+00  6.07990514e-06  7.96355677e-01  6.07990514e-06  8.59040946e-01  6.07990514e-06  1.65213394e+00                                 
