 time            v(vbep)         time            v(vben)         time            v(vout)         time            v(vphi1)        time            v(vphi2)        time            v(vref)         yes             currtemp       
 0.00000000e+00  6.45363859e-01  0.00000000e+00  5.86494377e-01  0.00000000e+00  9.30627628e-01  0.00000000e+00  0.00000000e+00  0.00000000e+00  1.79995778e+00  0.00000000e+00  5.00000000e-01  1.00000000e+00  4.90000000e+01 
 5.00000000e-12  6.45335735e-01  5.00000000e-12  5.86471075e-01  5.00000000e-12  9.31376517e-01  5.00000000e-12  1.80000000e-02  5.00000000e-12  1.80006137e+00  5.00000000e-12  5.00000000e-01                                 
 1.00000000e-11  6.45308302e-01  1.00000000e-11  5.86448367e-01  1.00000000e-11  9.32053359e-01  1.00000000e-11  3.60000000e-02  1.00000000e-11  1.80011506e+00  1.00000000e-11  5.00000000e-01                                 
 2.00000000e-11  6.45253850e-01  2.00000000e-11  5.86403121e-01  2.00000000e-11  9.33292337e-01  2.00000000e-11  7.20000000e-02  2.00000000e-11  1.80016539e+00  2.00000000e-11  5.00000000e-01                                 
 4.00000000e-11  6.45145656e-01  4.00000000e-11  5.86312966e-01  4.00000000e-11  9.35244554e-01  4.00000000e-11  1.44000000e-01  4.00000000e-11  1.80013823e+00  4.00000000e-11  5.00000000e-01                                 
 8.00000000e-11  6.44930276e-01  8.00000000e-11  5.86133420e-01  8.00000000e-11  9.37764972e-01  8.00000000e-11  2.88000000e-01  8.00000000e-11  1.80007358e+00  8.00000000e-11  5.00000000e-01                                 
 1.60000000e-10  6.44503835e-01  1.60000000e-10  5.85777349e-01  1.60000000e-10  9.40046577e-01  1.60000000e-10  5.76000000e-01  1.60000000e-10  1.80001602e+00  1.60000000e-10  5.00000000e-01                                 
 3.20000000e-10  6.43667242e-01  3.20000000e-10  5.85076866e-01  3.20000000e-10  9.33514506e-01  3.20000000e-10  1.15200000e+00  3.20000000e-10  1.80039477e+00  3.20000000e-10  5.00000000e-01                                 
 5.00000000e-10  6.42751198e-01  5.00000000e-10  5.84306796e-01  5.00000000e-10  1.09358231e+00  5.00000000e-10  1.80000000e+00  5.00000000e-10  1.22061051e-01  5.00000000e-10  5.00000000e-01                                 
 5.21760914e-10  6.42642397e-01  5.21760914e-10  5.84215104e-01  5.21760914e-10  1.13179495e+00  5.21760914e-10  1.80000000e+00  5.21760914e-10  2.45505903e-02  5.21760914e-10  5.00000000e-01                                 
 5.65282742e-10  6.42425506e-01  5.65282742e-10  5.84032222e-01  5.65282742e-10  1.20308636e+00  5.65282742e-10  1.80000000e+00  5.65282742e-10 -1.13938100e-02  5.65282742e-10  5.00000000e-01                                 
 6.52326399e-10  6.41996043e-01  6.52326399e-10  5.83669587e-01  6.52326399e-10  1.32506244e+00  6.52326399e-10  1.80000000e+00  6.52326399e-10  9.41126281e-03  6.52326399e-10  5.00000000e-01                                 
 7.74510082e-10  6.41402699e-01  7.74510082e-10  5.83167450e-01  7.74510082e-10  1.46834151e+00  7.74510082e-10  1.80000000e+00  7.74510082e-10 -8.14463032e-03  7.74510082e-10  5.00000000e-01                                 
 9.67499349e-10  6.40487187e-01  9.67499349e-10  5.82390149e-01  9.67499349e-10  1.64241467e+00  9.67499349e-10  1.80000000e+00  9.67499349e-10  7.62219683e-03  9.67499349e-10  5.00000000e-01                                 
 1.35347788e-09  6.38730368e-01  1.35347788e-09  5.80890201e-01  1.35347788e-09  1.84532569e+00  1.35347788e-09  1.80000000e+00  1.35347788e-09 -7.19368331e-03  1.35347788e-09  5.00000000e-01                                 
 1.65137353e-09  6.37438001e-01  1.65137353e-09  5.79779696e-01  1.65137353e-09  1.91113756e+00  1.65137353e-09  1.80000000e+00  1.65137353e-09  6.92912562e-03  1.65137353e-09  5.00000000e-01                                 
 1.99702047e-09  6.36001451e-01  1.99702047e-09  5.78538477e-01  1.99702047e-09  1.94270523e+00  1.99702047e-09  1.80000000e+00  1.99702047e-09 -6.54407406e-03  1.99702047e-09  5.00000000e-01                                 
 2.30946931e-09  6.34756848e-01  2.30946931e-09  5.77457371e-01  2.30946931e-09  1.95291231e+00  2.30946931e-09  1.80000000e+00  2.30946931e-09  6.29348804e-03  2.30946931e-09  5.00000000e-01                                 
 2.81657873e-09  6.32835239e-01  2.81657873e-09  5.75778177e-01  2.81657873e-09  1.95723070e+00  2.81657873e-09  1.80000000e+00  2.81657873e-09 -6.04908987e-03  2.81657873e-09  5.00000000e-01                                 
 3.40910422e-09  6.30729392e-01  3.40910422e-09  5.73924252e-01  3.40910422e-09  1.95644128e+00  3.40910422e-09  1.80000000e+00  3.40910422e-09  5.94252966e-03  3.40910422e-09  5.00000000e-01                                 
 4.49330377e-09  6.27204767e-01  4.49330377e-09  5.70791291e-01  4.49330377e-09  1.95318135e+00  4.49330377e-09  1.80000000e+00  4.49330377e-09 -5.81637790e-03  4.49330377e-09  5.00000000e-01                                 
 6.02870429e-09  6.22808433e-01  6.02870429e-09  5.66833173e-01  6.02870429e-09  1.94900799e+00  6.02870429e-09  1.80000000e+00  6.02870429e-09  5.80178210e-03  6.02870429e-09  5.00000000e-01                                 
 9.09950535e-09  6.15499826e-01  9.09950535e-09  5.60146207e-01  9.09950535e-09  1.94135972e+00  9.09950535e-09  1.80000000e+00  9.09950535e-09 -5.72703783e-03  9.09950535e-09  5.00000000e-01                                 
 1.06545923e-08  6.12394621e-01  1.06545923e-08  5.57263251e-01  1.06545923e-08  1.93818636e+00  1.06545923e-08  1.80000000e+00  1.06545923e-08  5.70748625e-03  1.06545923e-08  5.00000000e-01                                 
 1.18875526e-08  6.10137970e-01  1.18875526e-08  5.55155558e-01  1.18875526e-08  1.93572693e+00  1.18875526e-08  1.80000000e+00  1.18875526e-08 -5.60444257e-03  1.18875526e-08  5.00000000e-01                                 
 1.33464323e-08  6.07661738e-01  1.33464323e-08  5.52832052e-01  1.33464323e-08  1.93309322e+00  1.33464323e-08  1.80000000e+00  1.33464323e-08  5.57601978e-03  1.33464323e-08  5.00000000e-01                                 
 1.55804770e-08  6.04204585e-01  1.55804770e-08  5.49571811e-01  1.55804770e-08  1.92915514e+00  1.55804770e-08  1.80000000e+00  1.55804770e-08 -5.50925424e-03  1.55804770e-08  5.00000000e-01                                 
 1.84981025e-08  6.00176921e-01  1.84981025e-08  5.45753434e-01  1.84981025e-08  1.92449721e+00  1.84981025e-08  1.80000000e+00  1.84981025e-08  5.50804472e-03  1.84981025e-08  5.00000000e-01                                 
 2.21877368e-08  5.95687159e-01  2.21877368e-08  5.41477326e-01  2.21877368e-08  1.91896236e+00  2.21877368e-08  1.80000000e+00  2.21877368e-08 -5.45792267e-03  2.21877368e-08  5.00000000e-01                                 
 2.76258592e-08  5.89937263e-01  2.76258592e-08  5.35985166e-01  2.76258592e-08  1.91136289e+00  2.76258592e-08  1.80000000e+00  2.76258592e-08  5.46980772e-03  2.76258592e-08  5.00000000e-01                                 
 3.60718414e-08  5.81689209e-01  3.60718414e-08  5.28219446e-01  3.60718414e-08  1.89705338e+00  3.60718414e-08  1.80000000e+00  3.60718414e-08 -5.43275526e-03  3.60718414e-08  5.00000000e-01                                 
 5.29638058e-08  5.67455457e-01  5.29638058e-08  5.15014987e-01  5.29638058e-08  1.85776232e+00  5.29638058e-08  1.80000000e+00  5.29638058e-08  5.45510629e-03  5.29638058e-08  5.00000000e-01                                 
 7.07897838e-08  5.56286342e-01  7.07897838e-08  5.04639432e-01  7.07897838e-08  1.82257284e+00  7.07897838e-08  1.80000000e+00  7.07897838e-08 -5.42290393e-03  7.07897838e-08  5.00000000e-01                                 
 9.83549625e-08  5.43617038e-01  9.83549625e-08  4.92814738e-01  9.83549625e-08  1.77120264e+00  9.83549625e-08  1.80000000e+00  9.83549625e-08  5.44758367e-03  9.83549625e-08  5.00000000e-01                                 
 1.26906030e-07  5.44192033e-01  1.26906030e-07  4.91804112e-01  1.26906030e-07  1.76130388e+00  1.26906030e-07  1.80000000e+00  1.26906030e-07 -5.41649141e-03  1.26906030e-07  5.00000000e-01                                 
 1.50090044e-07  5.44321888e-01  1.50090044e-07  4.90905948e-01  1.50090044e-07  1.74142790e+00  1.50090044e-07  1.80000000e+00  1.50090044e-07  5.44101591e-03  1.50090044e-07  5.00000000e-01                                 
 1.75376752e-07  5.38226514e-01  1.75376752e-07  4.85151198e-01  1.75376752e-07  1.70811593e+00  1.75376752e-07  1.80000000e+00  1.75376752e-07 -5.40991141e-03  1.75376752e-07  5.00000000e-01                                 
 1.96464904e-07  5.34827137e-01  1.96464904e-07  4.81776205e-01  1.96464904e-07  1.68485795e+00  1.96464904e-07  1.80000000e+00  1.96464904e-07  5.43387835e-03  1.96464904e-07  5.00000000e-01                                 
 2.18389819e-07  5.29183929e-01  2.18389819e-07  4.76671699e-01  2.18389819e-07  1.65711304e+00  2.18389819e-07  1.80000000e+00  2.18389819e-07 -5.40239307e-03  2.18389819e-07  5.00000000e-01                                 
 2.54684358e-07  5.18448718e-01  2.54684358e-07  4.67254010e-01  2.54684358e-07  1.61094894e+00  2.54684358e-07  1.80000000e+00  2.54684358e-07  5.42779955e-03  2.54684358e-07  5.00000000e-01                                 
 3.03672972e-07  5.05258226e-01  3.03672972e-07  4.55792641e-01  3.03672972e-07  1.54670317e+00  3.03672972e-07  1.80000000e+00  3.03672972e-07 -5.39845405e-03  3.03672972e-07  5.00000000e-01                                 
 3.82951078e-07  4.82648081e-01  3.82951078e-07  4.36661033e-01  3.82951078e-07  1.44389022e+00  3.82951078e-07  1.80000000e+00  3.82951078e-07  5.42507610e-03  3.82951078e-07  5.00000000e-01                                 
 4.89867774e-07  4.45126513e-01  4.89867774e-07  4.05891838e-01  4.89867774e-07  1.29364440e+00  4.89867774e-07  1.80000000e+00  4.89867774e-07 -5.39668362e-03  4.89867774e-07  5.00000000e-01                                 
 5.14111405e-07  4.34213128e-01  5.14111405e-07  3.97093794e-01  5.14111405e-07  1.25797913e+00  5.14111405e-07  1.80000000e+00  5.14111405e-07  6.41421530e-07  5.14111405e-07  5.00000000e-01                                 
 5.62598667e-07  4.10627462e-01  5.62598667e-07  3.78127150e-01  5.62598667e-07  1.18365980e+00  5.62598667e-07  1.80000000e+00  5.62598667e-07  2.20579576e-06  5.62598667e-07  5.00000000e-01                                 
 6.16533160e-07  4.19994051e-01  6.16533160e-07  3.85609497e-01  6.16533160e-07  1.13492635e+00  6.16533160e-07  1.80000000e+00  6.16533160e-07  1.24300467e-06  6.16533160e-07  5.00000000e-01                                 
 6.84442993e-07  7.05461604e-01  6.84442993e-07  6.43994528e-01  6.84442993e-07  1.33585269e+00  6.84442993e-07  1.80000000e+00  6.84442993e-07  6.76989578e-06  6.84442993e-07  5.00000000e-01                                 
 7.31752917e-07  7.61849322e-01  7.31752917e-07  6.96267815e-01  7.31752917e-07  1.34225620e+00  7.31752917e-07  1.80000000e+00  7.31752917e-07 -1.43348845e-06  7.31752917e-07  5.00000000e-01                                 
 7.77120076e-07  7.72856500e-01  7.77120076e-07  7.05320665e-01  7.77120076e-07  1.30157254e+00  7.77120076e-07  1.80000000e+00  7.77120076e-07  4.85643619e-06  7.77120076e-07  5.00000000e-01                                 
 8.21271303e-07  7.73415715e-01  8.21271303e-07  7.05836794e-01  8.21271303e-07  1.25808247e+00  8.21271303e-07  1.80000000e+00  8.21271303e-07 -1.33354509e-06  8.21271303e-07  5.00000000e-01                                 
 8.67330528e-07  7.72673296e-01  8.67330528e-07  7.05180428e-01  8.67330528e-07  1.20523800e+00  8.67330528e-07  1.80000000e+00  8.67330528e-07  4.44673488e-06  8.67330528e-07  5.00000000e-01                                 
 9.21710106e-07  7.53284220e-01  9.21710106e-07  6.88983879e-01  9.21710106e-07  1.13205697e+00  9.21710106e-07  1.80000000e+00  9.21710106e-07 -1.55583581e-06  9.21710106e-07  5.00000000e-01                                 
 9.78911724e-07  7.27063142e-01  9.78911724e-07  6.65085992e-01  9.78911724e-07  1.04434975e+00  9.78911724e-07  1.80000000e+00  9.78911724e-07  4.08970868e-06  9.78911724e-07  5.00000000e-01                                 
 9.86631358e-07  7.29557259e-01  9.86631358e-07  6.67496203e-01  9.86631358e-07  1.04020500e+00  9.86631358e-07  1.80000000e+00  9.86631358e-07  1.94807659e-06  9.86631358e-07  5.00000000e-01                                 
 1.00207063e-06  7.35718367e-01  1.00207063e-06  6.73182857e-01  1.00207063e-06  1.03107121e+00  1.00207063e-06  1.80000000e+00  1.00207063e-06  1.94296949e-06  1.00207063e-06  5.00000000e-01                                 
 1.03294916e-06  7.50250602e-01  1.03294916e-06  6.86205679e-01  1.03294916e-06  1.01484280e+00  1.03294916e-06  1.80000000e+00  1.03294916e-06  2.04377212e-06  1.03294916e-06  5.00000000e-01                                 
 1.09470624e-06  7.62457378e-01  1.09470624e-06  6.96750593e-01  1.09470624e-06  9.71695802e-01  1.09470624e-06  1.80000000e+00  1.09470624e-06  1.56248621e-06  1.09470624e-06  5.00000000e-01                                 
 1.15862927e-06  7.52012015e-01  1.15862927e-06  6.87791742e-01  1.15862927e-06  9.14459010e-01  1.15862927e-06  1.80000000e+00  1.15862927e-06  1.49820488e-06  1.15862927e-06  5.00000000e-01                                 
 1.23410576e-06  7.44553791e-01  1.23410576e-06  6.81187306e-01  1.23410576e-06  8.58945504e-01  1.23410576e-06  1.80000000e+00  1.23410576e-06  1.64969586e-06  1.23410576e-06  5.00000000e-01                                 
 1.31800680e-06  7.57059277e-01  1.31800680e-06  6.92139659e-01  1.31800680e-06  8.18913822e-01  1.31800680e-06  1.80000000e+00  1.31800680e-06  1.86375554e-06  1.31800680e-06  5.00000000e-01                                 
 1.42195483e-06  7.51921173e-01  1.42195483e-06  6.87716782e-01  1.42195483e-06  7.54252910e-01  1.42195483e-06  1.80000000e+00  1.42195483e-06  1.36858192e-06  1.42195483e-06  5.00000000e-01                                 
 1.52565920e-06  7.48401034e-01  1.52565920e-06  6.84591949e-01  1.52565920e-06  6.94208380e-01  1.52565920e-06  1.80000000e+00  1.52565920e-06  1.86946907e-06  1.52565920e-06  5.00000000e-01                                 
 1.68784777e-06  7.56284255e-01  1.68784777e-06  6.91491657e-01  1.68784777e-06  6.16968100e-01  1.68784777e-06  1.80000000e+00  1.68784777e-06  1.50281750e-06  1.68784777e-06  5.00000000e-01                                 
 1.85842177e-06  7.48332876e-01  1.85842177e-06  6.84542965e-01  1.85842177e-06  5.38789675e-01  1.85842177e-06  1.80000000e+00  1.85842177e-06  1.72457193e-06  1.85842177e-06  5.00000000e-01                                 
 2.06865235e-06  7.54422886e-01  2.06865235e-06  6.89875709e-01  2.06865235e-06  5.00349126e-01  2.06865235e-06  1.80000000e+00  2.06865235e-06  1.61726969e-06  2.06865235e-06  5.00000000e-01                                 
 2.26026478e-06  7.51365083e-01  2.26026478e-06  6.87214462e-01  2.26026478e-06  4.86763954e-01  2.26026478e-06  1.80000000e+00  2.26026478e-06  1.65642660e-06  2.26026478e-06  5.00000000e-01                                 
 2.46212207e-06  7.51519327e-01  2.46212207e-06  6.87345909e-01  2.46212207e-06  5.01956378e-01  2.46212207e-06  1.80000000e+00  2.46212207e-06  1.64204488e-06  2.46212207e-06  5.00000000e-01                                 
 2.66640476e-06  7.53803992e-01  2.66640476e-06  6.89339743e-01  2.66640476e-06  5.06197310e-01  2.66640476e-06  1.80000000e+00  2.66640476e-06  1.66841354e-06  2.66640476e-06  5.00000000e-01                                 
 2.70112335e-06  7.51971201e-01  2.70112335e-06  6.87745516e-01  2.70112335e-06  5.00968096e-01  2.70112335e-06  1.80000000e+00  2.70112335e-06  1.60994875e-06  2.70112335e-06  5.00000000e-01                                 
 2.77056052e-06  7.51212559e-01  2.77056052e-06  6.87077658e-01  2.77056052e-06  4.95303345e-01  2.77056052e-06  1.80000000e+00  2.77056052e-06  1.67016853e-06  2.77056052e-06  5.00000000e-01                                 
 2.90943486e-06  7.53073929e-01  2.90943486e-06  6.88704357e-01  2.90943486e-06  4.99754671e-01  2.90943486e-06  1.80000000e+00  2.90943486e-06  1.64808710e-06  2.90943486e-06  5.00000000e-01                                 
 3.08500122e-06  7.51482049e-01  3.08500122e-06  6.87315977e-01  3.08500122e-06  5.01129513e-01  3.08500122e-06  1.80000000e+00  3.08500122e-06  1.63334670e-06  3.08500122e-06  5.00000000e-01                                 
 3.35669212e-06  7.52571677e-01  3.35669212e-06  6.88265438e-01  3.35669212e-06  4.99427072e-01  3.35669212e-06  1.80000000e+00  3.35669212e-06  1.66902049e-06  3.35669212e-06  5.00000000e-01                                 
 3.63503516e-06  7.51982242e-01  3.63503516e-06  6.87753853e-01  3.63503516e-06  5.00721631e-01  3.63503516e-06  1.80000000e+00  3.63503516e-06  1.62412914e-06  3.63503516e-06  5.00000000e-01                                 
 4.12147158e-06  7.52185326e-01  4.12147158e-06  6.87928134e-01  4.12147158e-06  4.99767505e-01  4.12147158e-06  1.80000000e+00  4.12147158e-06  1.67251308e-06  4.12147158e-06  5.00000000e-01                                 
 4.88454520e-06  7.52204777e-01  4.88454520e-06  6.87948187e-01  4.88454520e-06  5.00599470e-01  4.88454520e-06  1.80000000e+00  4.88454520e-06  1.62383199e-06  4.88454520e-06  5.00000000e-01                                 
 5.88454520e-06  7.52041553e-01  5.88454520e-06  6.87802631e-01  5.88454520e-06  4.99819601e-01  5.88454520e-06  1.80000000e+00  5.88454520e-06  1.67200760e-06  5.88454520e-06  5.00000000e-01                                 
 6.88454520e-06  7.52320885e-01  6.88454520e-06  6.88049455e-01  6.88454520e-06  5.00573976e-01  6.88454520e-06  1.80000000e+00  6.88454520e-06  1.62469539e-06  6.88454520e-06  5.00000000e-01                                 
 7.88454520e-06  7.51932460e-01  7.88454520e-06  6.87707420e-01  7.88454520e-06  4.99830967e-01  7.88454520e-06  1.80000000e+00  7.88454520e-06  1.67080452e-06  7.88454520e-06  5.00000000e-01                                 
 8.88454520e-06  7.52420977e-01  8.88454520e-06  6.88136672e-01  8.88454520e-06  5.00574690e-01  8.88454520e-06  1.80000000e+00  8.88454520e-06  1.62621103e-06  8.88454520e-06  5.00000000e-01                                 
 9.88454520e-06  7.51840086e-01  9.88454520e-06  6.87626832e-01  9.88454520e-06  4.99820578e-01  9.88454520e-06  1.80000000e+00  9.88454520e-06  1.66900402e-06  9.88454520e-06  5.00000000e-01                                 
 1.00005000e-05  7.52645477e-01  1.00005000e-05  6.88331589e-01  1.00005000e-05  5.00651145e-01  1.00005000e-05  1.80000000e+00  1.00005000e-05  1.63823367e-06  1.00005000e-05  5.00000000e-01                                 
 1.00005500e-05  7.52645043e-01  1.00005500e-05  6.88331214e-01  1.00005500e-05  4.92864516e-01  1.00005500e-05  1.62000000e+00  1.00005500e-05 -7.96341010e-05  1.00005500e-05  5.00000000e-01                                 
 1.00006500e-05  7.52644200e-01  1.00006500e-05  6.88330471e-01  1.00006500e-05  4.79072709e-01  1.00006500e-05  1.26000000e+00  1.00006500e-05 -6.32590286e-05  1.00006500e-05  5.00000000e-01                                 
 1.00008500e-05  7.52642526e-01  1.00008500e-05  6.88328989e-01  1.00008500e-05  4.76827603e-01  1.00008500e-05  5.40000000e-01  1.00008500e-05 -2.68001458e-03  1.00008500e-05  5.00000000e-01                                 
 1.00010000e-05  7.52641154e-01  1.00010000e-05  6.88327809e-01  1.00010000e-05  4.38321793e-01  1.00010000e-05  0.00000000e+00  1.00010000e-05  1.58232767e+00  1.00010000e-05  5.00000000e-01                                 
 1.00010254e-05  7.52640879e-01  1.00010254e-05  6.88327582e-01  1.00010254e-05  4.10834621e-01  1.00010254e-05  0.00000000e+00  1.00010254e-05  1.72654973e+00  1.00010254e-05  5.00000000e-01                                 
