 time            v(vbep)         time            v(vben)         time            v(vout)         time            v(vphi1)        time            v(vphi2)        time            v(vref)         yes             currtemp       
 0.00000000e+00  6.74627300e-01  0.00000000e+00  6.18280889e-01  0.00000000e+00  1.05856438e+00  0.00000000e+00  0.00000000e+00  0.00000000e+00  1.79995027e+00  0.00000000e+00  6.18280889e-01  1.00000000e+00  3.50000000e+01 
 5.00000000e-12  6.74597239e-01  5.00000000e-12  6.18256009e-01  5.00000000e-12  1.05929861e+00  5.00000000e-12  1.80000000e-02  5.00000000e-12  1.80007616e+00  5.00000000e-12  6.18256009e-01                                 
 1.00000000e-11  6.74568017e-01  1.00000000e-11  6.18231796e-01  1.00000000e-11  1.05996831e+00  1.00000000e-11  3.60000000e-02  1.00000000e-11  1.80015119e+00  1.00000000e-11  6.18231796e-01                                 
 2.00000000e-11  6.74510091e-01  2.00000000e-11  6.18183564e-01  2.00000000e-11  1.06120636e+00  2.00000000e-11  7.20000000e-02  2.00000000e-11  1.80023553e+00  2.00000000e-11  6.18183564e-01                                 
 4.00000000e-11  6.74395126e-01  4.00000000e-11  6.18087490e-01  4.00000000e-11  1.06321360e+00  4.00000000e-11  1.44000000e-01  4.00000000e-11  1.80022800e+00  4.00000000e-11  6.18087490e-01                                 
 8.00000000e-11  6.74166359e-01  8.00000000e-11  6.17896234e-01  8.00000000e-11  1.06592851e+00  8.00000000e-11  2.88000000e-01  8.00000000e-11  1.80013285e+00  8.00000000e-11  6.17896234e-01                                 
 1.60000000e-10  6.73713859e-01  1.60000000e-10  6.17517265e-01  1.60000000e-10  1.06823891e+00  1.60000000e-10  5.76000000e-01  1.60000000e-10  1.80002201e+00  1.60000000e-10  6.17517265e-01                                 
 3.20000000e-10  6.72827780e-01  3.20000000e-10  6.16772988e-01  3.20000000e-10  1.06062927e+00  3.20000000e-10  1.15200000e+00  3.20000000e-10  1.80028432e+00  3.20000000e-10  6.16772988e-01                                 
 5.00000000e-10  6.71860036e-01  5.00000000e-10  6.15956660e-01  5.00000000e-10  1.16107470e+00  5.00000000e-10  1.80000000e+00  5.00000000e-10  1.51571193e-01  5.00000000e-10  6.15956660e-01                                 
 5.21338722e-10  6.71747506e-01  5.21338722e-10  6.15861485e-01  5.21338722e-10  1.18661484e+00  5.21338722e-10  1.80000000e+00  5.21338722e-10  3.78748927e-02  5.21338722e-10  6.15861485e-01                                 
 5.64016167e-10  6.71523237e-01  5.64016167e-10  6.15671700e-01  5.64016167e-10  1.23748103e+00  5.64016167e-10  1.80000000e+00  5.64016167e-10 -1.42109851e-02  5.64016167e-10  6.15671700e-01                                 
 6.49371056e-10  6.71079483e-01  6.49371056e-10  6.15295626e-01  6.49371056e-10  1.32913177e+00  6.49371056e-10  1.80000000e+00  6.49371056e-10  1.20873786e-02  6.49371056e-10  6.15295626e-01                                 
 7.69513573e-10  6.70465417e-01  7.69513573e-10  6.14774005e-01  7.69513573e-10  1.44162536e+00  7.69513573e-10  1.80000000e+00  7.69513573e-10 -9.18948951e-03  7.69513573e-10  6.14774005e-01                                 
 9.50902474e-10  6.69560697e-01  9.50902474e-10  6.14002957e-01  9.50902474e-10  1.57907616e+00  9.50902474e-10  1.80000000e+00  9.50902474e-10  9.08276184e-03  9.50902474e-10  6.14002957e-01                                 
 1.31368028e-09  6.67826372e-01  1.31368028e-09  6.12516669e-01  1.31368028e-09  1.75155906e+00  1.31368028e-09  1.80000000e+00  1.31368028e-09 -7.96616028e-03  1.31368028e-09  6.12516669e-01                                 
 1.66270497e-09  6.66245627e-01  1.66270497e-09  6.11152533e-01  1.66270497e-09  1.82834128e+00  1.66270497e-09  1.80000000e+00  1.66270497e-09  7.83209523e-03  1.66270497e-09  6.11152533e-01                                 
 2.04682726e-09  6.64595579e-01  2.04682726e-09  6.09719230e-01  2.04682726e-09  1.86139616e+00  2.04682726e-09  1.80000000e+00  2.04682726e-09 -7.26714726e-03  2.04682726e-09  6.09719230e-01                                 
 2.40189461e-09  6.63146426e-01  2.40189461e-09  6.08452675e-01  2.40189461e-09  1.87222020e+00  2.40189461e-09  1.80000000e+00  2.40189461e-09  6.94027804e-03  2.40189461e-09  6.08452675e-01                                 
 2.92367469e-09  6.61134940e-01  2.92367469e-09  6.06683135e-01  2.92367469e-09  1.87574914e+00  2.92367469e-09  1.80000000e+00  2.92367469e-09 -6.62357921e-03  2.92367469e-09  6.06683135e-01                                 
 3.58426469e-09  6.58767106e-01  3.58426469e-09  6.04583400e-01  3.58426469e-09  1.87511970e+00  3.58426469e-09  1.80000000e+00  3.58426469e-09  6.45519475e-03  3.58426469e-09  6.04583400e-01                                 
 4.71176645e-09  6.55110364e-01  4.71176645e-09  6.01307458e-01  4.71176645e-09  1.87144721e+00  4.71176645e-09  1.80000000e+00  4.71176645e-09 -6.31070068e-03  4.71176645e-09  6.01307458e-01                                 
 6.47075982e-09  6.50171697e-01  6.47075982e-09  5.96822860e-01  6.47075982e-09  1.86705274e+00  6.47075982e-09  1.80000000e+00  6.47075982e-09  6.26366144e-03  6.47075982e-09  5.96822860e-01                                 
 9.98874656e-09  6.42210796e-01  9.98874656e-09  5.89467019e-01  9.98874656e-09  1.85915154e+00  9.98874656e-09  1.80000000e+00  9.98874656e-09 -6.19730689e-03  9.98874656e-09  5.89467019e-01                                 
 1.25716702e-08  6.37550926e-01  1.25716702e-08  5.85087428e-01  1.25716702e-08  1.85462742e+00  1.25716702e-08  1.80000000e+00  1.25716702e-08  6.17706495e-03  1.25716702e-08  5.85087428e-01                                 
 1.43308468e-08  6.34771664e-01  1.43308468e-08  5.82453676e-01  1.43308468e-08  1.85145678e+00  1.43308468e-08  1.80000000e+00  1.43308468e-08 -6.08086330e-03  1.43308468e-08  5.82453676e-01                                 
 1.57998734e-08  6.32643650e-01  1.57998734e-08  5.80427404e-01  1.57998734e-08  1.84939697e+00  1.57998734e-08  1.80000000e+00  1.57998734e-08  6.02062867e-03  1.57998734e-08  5.80427404e-01                                 
 1.75792331e-08  6.30261973e-01  1.75792331e-08  5.78150546e-01  1.75792331e-08  1.84637903e+00  1.75792331e-08  1.80000000e+00  1.75792331e-08 -5.92949129e-03  1.75792331e-08  5.78150546e-01                                 
 1.96489371e-08  6.27720145e-01  1.96489371e-08  5.75710884e-01  1.96489371e-08  1.84350657e+00  1.96489371e-08  1.80000000e+00  1.96489371e-08  5.89329945e-03  1.96489371e-08  5.75710884e-01                                 
 2.21506281e-08  6.24918976e-01  2.21506281e-08  5.73012053e-01  2.21506281e-08  1.83943910e+00  2.21506281e-08  1.80000000e+00  2.21506281e-08 -5.82398241e-03  2.21506281e-08  5.73012053e-01                                 
 2.58346131e-08  6.21218124e-01  2.58346131e-08  5.69433738e-01  2.58346131e-08  1.83418382e+00  2.58346131e-08  1.80000000e+00  2.58346131e-08  5.81333069e-03  2.58346131e-08  5.69433738e-01                                 
 2.98377172e-08  6.17631493e-01  2.98377172e-08  5.65958458e-01  2.98377172e-08  1.82800768e+00  2.98377172e-08  1.80000000e+00  2.98377172e-08 -5.76232682e-03  2.98377172e-08  5.65958458e-01                                 
 3.69554664e-08  6.11938442e-01  3.69554664e-08  5.60458299e-01  3.69554664e-08  1.81882675e+00  3.69554664e-08  1.80000000e+00  3.69554664e-08  5.76781619e-03  3.69554664e-08  5.60458299e-01                                 
 4.89791895e-08  6.03501625e-01  4.89791895e-08  5.52392616e-01  4.89791895e-08  1.80574531e+00  4.89791895e-08  1.80000000e+00  4.89791895e-08 -5.73568871e-03  4.89791895e-08  5.52392616e-01                                 
 5.90720760e-08  5.97513278e-01  5.90720760e-08  5.46694246e-01  5.90720760e-08  1.79820823e+00  5.90720760e-08  1.80000000e+00  5.90720760e-08  5.74723385e-03  5.90720760e-08  5.46694246e-01                                 
 7.08702969e-08  5.89424456e-01  7.08702969e-08  5.39343783e-01  7.08702969e-08  1.77523053e+00  7.08702969e-08  1.80000000e+00  7.08702969e-08 -5.71608915e-03  7.08702969e-08  5.39343783e-01                                 
 8.56775804e-08  5.81329745e-01  8.56775804e-08  5.31931954e-01  8.56775804e-08  1.74635556e+00  8.56775804e-08  1.80000000e+00  8.56775804e-08  5.73005076e-03  8.56775804e-08  5.31931954e-01                                 
 9.90756628e-08  5.74915052e-01  9.90756628e-08  5.26083213e-01  9.90756628e-08  1.72314079e+00  9.90756628e-08  1.80000000e+00  9.90756628e-08 -5.69931809e-03  9.90756628e-08  5.26083213e-01                                 
 1.24043266e-07  5.65328301e-01  1.24043266e-07  5.17296265e-01  1.24043266e-07  1.67959895e+00  1.24043266e-07  1.80000000e+00  1.24043266e-07  5.71707810e-03  1.24043266e-07  5.17296265e-01                                 
 1.49380986e-07  5.67650187e-01  1.49380986e-07  5.18098238e-01  1.49380986e-07  1.67476174e+00  1.49380986e-07  1.80000000e+00  1.49380986e-07 -5.68720271e-03  1.49380986e-07  5.18098238e-01                                 
 1.70904929e-07  5.69603360e-01  1.70904929e-07  5.18857918e-01  1.70904929e-07  1.65932649e+00  1.70904929e-07  1.80000000e+00  1.70904929e-07  5.70653331e-03  1.70904929e-07  5.18857918e-01                                 
 1.94188635e-07  5.64531210e-01  1.94188635e-07  5.14093833e-01  1.94188635e-07  1.62919540e+00  1.94188635e-07  1.80000000e+00  1.94188635e-07 -5.67840204e-03  1.94188635e-07  5.14093833e-01                                 
 2.16331507e-07  5.59383541e-01  2.16331507e-07  5.09386276e-01  2.16331507e-07  1.60224221e+00  2.16331507e-07  1.80000000e+00  2.16331507e-07  5.69649354e-03  2.16331507e-07  5.09386276e-01                                 
 2.36829375e-07  5.53991310e-01  2.36829375e-07  5.04590880e-01  2.36829375e-07  1.57735905e+00  2.36829375e-07  1.80000000e+00  2.36829375e-07 -5.66781623e-03  2.36829375e-07  5.04590880e-01                                 
 2.77546189e-07  5.42893688e-01  2.77546189e-07  4.94900783e-01  2.77546189e-07  1.52528279e+00  2.77546189e-07  1.80000000e+00  2.77546189e-07  5.68801708e-03  2.77546189e-07  4.94900783e-01                                 
 3.27586605e-07  5.30301868e-01  3.27586605e-07  4.84034460e-01  3.27586605e-07  1.46296969e+00  3.27586605e-07  1.80000000e+00  3.27586605e-07 -5.66263541e-03  3.27586605e-07  4.84034460e-01                                 
 4.11430329e-07  5.04402779e-01  4.11430329e-07  4.62438424e-01  4.11430329e-07  1.35169992e+00  4.11430329e-07  1.80000000e+00  4.11430329e-07  5.68423479e-03  4.11430329e-07  4.62438424e-01                                 
 4.91540056e-07  4.88945697e-01  4.91540056e-07  4.49512209e-01  4.91540056e-07  1.25477348e+00  4.91540056e-07  1.80000000e+00  4.91540056e-07 -5.65950849e-03  4.91540056e-07  4.49512209e-01                                 
 5.73514292e-07  4.53841756e-01  5.73514292e-07  4.21176923e-01  5.73514292e-07  1.13512620e+00  5.73514292e-07  1.80000000e+00  5.73514292e-07  5.68068277e-03  5.73514292e-07  4.21176923e-01                                 
 6.48635497e-07  4.51415454e-01  6.48635497e-07  4.19182449e-01  6.48635497e-07  1.05560200e+00  6.48635497e-07  1.80000000e+00  6.48635497e-07 -5.65525654e-03  6.48635497e-07  4.19182449e-01                                 
 6.61914526e-07  4.70723407e-01  6.61914526e-07  4.34621792e-01  6.61914526e-07  1.06009687e+00  6.61914526e-07  1.80000000e+00  6.61914526e-07  6.04194039e-07  6.61914526e-07  4.34621792e-01                                 
 6.88472582e-07  5.75442178e-01  6.88472582e-07  5.18407532e-01  6.88472582e-07  1.13323610e+00  6.88472582e-07  1.80000000e+00  6.88472582e-07  1.34448898e-05  6.88472582e-07  5.18407532e-01                                 
 7.41588694e-07  7.48087103e-01  7.41588694e-07  6.88637413e-01  7.41588694e-07  1.24624256e+00  7.41588694e-07  1.80000000e+00  7.41588694e-07  1.30010359e-06  7.41588694e-07  6.88637413e-01                                 
 7.48799020e-07  7.56709696e-01  7.48799020e-07  6.97052949e-01  7.48799020e-07  1.24665878e+00  7.48799020e-07  1.80000000e+00  7.48799020e-07  2.99488798e-06  7.48799020e-07  6.97052949e-01                                 
 7.63219673e-07  7.69591111e-01  7.63219673e-07  7.08820618e-01  7.63219673e-07  1.24405710e+00  7.63219673e-07  1.80000000e+00  7.63219673e-07  1.49111425e-06  7.63219673e-07  7.08820618e-01                                 
 7.92060977e-07  7.78625836e-01  7.92060977e-07  7.16749503e-01  7.92060977e-07  1.22291659e+00  7.92060977e-07  1.80000000e+00  7.92060977e-07  2.70633863e-07  7.92060977e-07  7.16749503e-01                                 
 8.37104014e-07  7.81275699e-01  8.37104014e-07  7.19046232e-01  8.37104014e-07  1.17847858e+00  8.37104014e-07  1.80000000e+00  8.37104014e-07  3.12333586e-07  8.37104014e-07  7.19046232e-01                                 
 8.92427911e-07  7.83412321e-01  8.92427911e-07  7.20854821e-01  8.92427911e-07  1.12293006e+00  8.92427911e-07  1.80000000e+00  8.92427911e-07  1.88887994e-07  8.92427911e-07  7.20854821e-01                                 
 9.03401328e-07  7.83639444e-01  9.03401328e-07  7.21054060e-01  9.03401328e-07  1.11168400e+00  9.03401328e-07  1.80000000e+00  9.03401328e-07  2.13080273e-07  9.03401328e-07  7.21054060e-01                                 
 9.25348162e-07  7.84239264e-01  9.25348162e-07  7.21562810e-01  9.25348162e-07  1.08941844e+00  9.25348162e-07  1.80000000e+00  9.25348162e-07  2.50960747e-07  9.25348162e-07  7.21562810e-01                                 
 9.69241830e-07  7.85322842e-01  9.69241830e-07  7.22478532e-01  9.69241830e-07  1.04540675e+00  9.69241830e-07  1.80000000e+00  9.69241830e-07  2.27869689e-07  9.69241830e-07  7.22478532e-01                                 
 1.04210136e-06  7.76923680e-01  1.04210136e-06  7.15303172e-01  1.04210136e-06  9.69259984e-01  1.04210136e-06  1.80000000e+00  1.04210136e-06 -2.55852270e-07  1.04210136e-06  7.15303172e-01                                 
 1.11668165e-06  7.62980169e-01  1.11668165e-06  7.02905005e-01  1.11668165e-06  9.00712720e-01  1.11668165e-06  1.80000000e+00  1.11668165e-06  1.32567553e-07  1.11668165e-06  7.02905005e-01                                 
 1.18716334e-06  7.71160352e-01  1.18716334e-06  7.10216110e-01  1.18716334e-06  8.62405448e-01  1.18716334e-06  1.80000000e+00  1.18716334e-06  1.21618858e-06  1.18716334e-06  7.10216110e-01                                 
 1.19978081e-06  7.74876507e-01  1.19978081e-06  7.13487114e-01  1.19978081e-06  8.58013698e-01  1.19978081e-06  1.80000000e+00  1.19978081e-06  1.08589559e-06  1.19978081e-06  7.13487114e-01                                 
 1.22501575e-06  7.80786685e-01  1.22501575e-06  7.18611732e-01  1.22501575e-06  8.48105604e-01  1.22501575e-06  1.80000000e+00  1.22501575e-06  8.28539615e-07  1.22501575e-06  7.18611732e-01                                 
 1.27548562e-06  7.77497484e-01  1.27548562e-06  7.15804170e-01  1.27548562e-06  8.16043596e-01  1.27548562e-06  1.80000000e+00  1.27548562e-06 -1.75995799e-07  1.27548562e-06  7.15804170e-01                                 
 1.34560037e-06  7.65735676e-01  1.34560037e-06  7.05388790e-01  1.34560037e-06  7.68908283e-01  1.34560037e-06  1.80000000e+00  1.34560037e-06  4.53269263e-07  1.34560037e-06  7.05388790e-01                                 
 1.42205815e-06  7.73914397e-01  1.42205815e-06  7.12649696e-01  1.42205815e-06  7.46948905e-01  1.42205815e-06  1.80000000e+00  1.42205815e-06  1.14079508e-06  1.42205815e-06  7.12649696e-01                                 
 1.52664812e-06  7.76221867e-01  1.52664812e-06  7.14684537e-01  1.52664812e-06  7.25196997e-01  1.52664812e-06  1.80000000e+00  1.52664812e-06  2.15480341e-07  1.52664812e-06  7.14684537e-01                                 
 1.63444311e-06  7.68820548e-01  1.63444311e-06  7.08152677e-01  1.63444311e-06  7.04842039e-01  1.63444311e-06  1.80000000e+00  1.63444311e-06  8.31085798e-07  1.63444311e-06  7.08152677e-01                                 
 1.80489073e-06  7.75874732e-01  1.80489073e-06  7.14370425e-01  1.80489073e-06  7.02238135e-01  1.80489073e-06  1.80000000e+00  1.80489073e-06  7.35990163e-07  1.80489073e-06  7.14370425e-01                                 
 1.97577246e-06  7.71674243e-01  1.97577246e-06  7.10693974e-01  1.97577246e-06  7.10991511e-01  1.97577246e-06  1.80000000e+00  1.97577246e-06  6.43279854e-07  1.97577246e-06  7.10693974e-01                                 
 2.13581442e-06  7.72564855e-01  2.13581442e-06  7.11465064e-01  2.13581442e-06  7.15226612e-01  2.13581442e-06  1.80000000e+00  2.13581442e-06  8.19960821e-07  2.13581442e-06  7.11465064e-01                                 
 2.31489433e-06  7.74702978e-01  2.31489433e-06  7.13357355e-01  2.31489433e-06  7.10084775e-01  2.31489433e-06  1.80000000e+00  2.31489433e-06  6.32448109e-07  2.31489433e-06  7.13357355e-01                                 
 2.50575148e-06  7.70822509e-01  2.50575148e-06  7.09928633e-01  2.50575148e-06  7.11059565e-01  2.50575148e-06  1.80000000e+00  2.50575148e-06  7.26493681e-07  2.50575148e-06  7.09928633e-01                                 
 2.69963183e-06  7.75080545e-01  2.69963183e-06  7.13683094e-01  2.69963183e-06  7.13784789e-01  2.69963183e-06  1.80000000e+00  2.69963183e-06  7.90011422e-07  2.69963183e-06  7.13683094e-01                                 
 2.93625669e-06  7.71334310e-01  2.93625669e-06  7.10386200e-01  2.93625669e-06  7.10255021e-01  2.93625669e-06  1.80000000e+00  2.93625669e-06  5.71617851e-07  2.93625669e-06  7.10386200e-01                                 
 3.31091057e-06  7.74316451e-01  3.31091057e-06  7.13011622e-01  3.31091057e-06  7.13433730e-01  3.31091057e-06  1.80000000e+00  3.31091057e-06  8.90892023e-07  3.31091057e-06  7.13011622e-01                                 
 3.73367207e-06  7.72109820e-01  3.73367207e-06  7.11073039e-01  3.73367207e-06  7.10908288e-01  3.73367207e-06  1.80000000e+00  3.73367207e-06  5.14859876e-07  3.73367207e-06  7.11073039e-01                                 
 4.41520048e-06  7.73719855e-01  4.41520048e-06  7.12487345e-01  4.41520048e-06  7.12872503e-01  4.41520048e-06  1.80000000e+00  4.41520048e-06  9.23785587e-07  4.41520048e-06  7.12487345e-01                                 
 5.40260815e-06  7.72524740e-01  5.40260815e-06  7.11439424e-01  5.40260815e-06  7.11313357e-01  5.40260815e-06  1.80000000e+00  5.40260815e-06  4.99249587e-07  5.40260815e-06  7.11439424e-01                                 
 6.40260815e-06  7.73397939e-01  6.40260815e-06  7.12204279e-01  6.40260815e-06  7.12545437e-01  6.40260815e-06  1.80000000e+00  6.40260815e-06  9.32957111e-07  6.40260815e-06  7.12204279e-01                                 
 7.40260815e-06  7.72850080e-01  7.40260815e-06  7.11726228e-01  7.40260815e-06  7.11636342e-01  7.40260815e-06  1.80000000e+00  7.40260815e-06  4.92923445e-07  7.40260815e-06  7.11726228e-01                                 
 8.40260815e-06  7.73080533e-01  8.40260815e-06  7.11924974e-01  8.40260815e-06  7.12222348e-01  8.40260815e-06  1.80000000e+00  8.40260815e-06  9.36523441e-07  8.40260815e-06  7.11924974e-01                                 
 9.40260815e-06  7.73159513e-01  9.40260815e-06  7.11998575e-01  9.40260815e-06  7.11953352e-01  9.40260815e-06  1.80000000e+00  9.40260815e-06  4.92054829e-07  9.40260815e-06  7.11998575e-01                                 
 1.00005000e-05  7.72688298e-01  1.00005000e-05  7.11579662e-01  1.00005000e-05  7.11819297e-01  1.00005000e-05  1.80000000e+00  1.00005000e-05  9.33078067e-07  1.00005000e-05  7.11579662e-01                                 
 1.00005500e-05  7.72689598e-01  1.00005500e-05  7.11580403e-01  1.00005500e-05  7.04792006e-01  1.00005500e-05  1.62000000e+00  1.00005500e-05 -1.17935695e-04  1.00005500e-05  7.11580403e-01                                 
