 time            v(vbep)         time            v(vben)         time            v(vout)         time            v(vphi1)        time            v(vphi2)        time            v(vref)         time            v(voutc)        time            v(voutcc)       yes             currtemp       
 0.00000000e+00  8.07399233e-01  0.00000000e+00  7.51902693e-01  0.00000000e+00  1.66178428e+00  0.00000000e+00  0.00000000e+00  0.00000000e+00  1.80000000e+00  0.00000000e+00  7.55084501e-01  0.00000000e+00  1.66178427e+00  0.00000000e+00  1.66758875e+00  1.00000000e+00  1.00000000e+01 
 5.00000000e-12  8.07420387e-01  5.00000000e-12  7.51957137e-01  5.00000000e-12  1.66242566e+00  5.00000000e-12  1.80000000e-02  5.00000000e-12  1.80018333e+00  5.00000000e-12  7.55479124e-01  5.00000000e-12  1.66213368e+00  5.00000000e-12  1.66760161e+00                                 
 1.00000000e-11  8.07429712e-01  1.00000000e-11  7.51993256e-01  1.00000000e-11  1.66290500e+00  1.00000000e-11  3.60000000e-02  1.00000000e-11  1.80026766e+00  1.00000000e-11  7.55791213e-01  1.00000000e-11  1.66241199e+00  1.00000000e-11  1.66760877e+00                                 
 2.00000000e-11  8.07435845e-01  2.00000000e-11  7.52043586e-01  2.00000000e-11  1.66362080e+00  2.00000000e-11  7.20000000e-02  2.00000000e-11  1.80032355e+00  2.00000000e-11  7.56280825e-01  2.00000000e-11  1.66285360e+00  2.00000000e-11  1.66761601e+00                                 
 4.00000000e-11  8.07423669e-01  4.00000000e-11  7.52080126e-01  4.00000000e-11  1.66417549e+00  4.00000000e-11  1.44000000e-01  4.00000000e-11  1.80019872e+00  4.00000000e-11  7.56756006e-01  4.00000000e-11  1.66330548e+00  4.00000000e-11  1.66761096e+00                                 
 8.00000000e-11  8.07409701e-01  8.00000000e-11  7.52082418e-01  8.00000000e-11  1.66412978e+00  8.00000000e-11  2.88000000e-01  8.00000000e-11  1.80003026e+00  8.00000000e-11  7.56882245e-01  8.00000000e-11  1.66348839e+00  8.00000000e-11  1.66759468e+00                                 
 1.60000000e-10  8.07410873e-01  1.60000000e-10  7.52068624e-01  1.60000000e-10  1.66368038e+00  1.60000000e-10  5.76000000e-01  1.60000000e-10  1.80001510e+00  1.60000000e-10  7.56687528e-01  1.60000000e-10  1.66340972e+00  1.60000000e-10  1.66758879e+00                                 
 3.20000000e-10  8.07349094e-01  3.20000000e-10  7.51629155e-01  3.20000000e-10  1.65918653e+00  3.20000000e-10  1.15200000e+00  3.20000000e-10  1.80066894e+00  3.20000000e-10  7.52792459e-01  3.20000000e-10  1.66018597e+00  3.20000000e-10  1.66755566e+00                                 
 5.00000000e-10  8.07470718e-01  5.00000000e-10  7.52038048e-01  5.00000000e-10  1.65262349e+00  5.00000000e-10  1.80000000e+00  5.00000000e-10  1.39962503e-01  5.00000000e-10  7.57123034e-01  5.00000000e-10  1.66353684e+00  5.00000000e-10  1.66763110e+00                                 
 5.20510886e-10  8.07459228e-01  5.20510886e-10  7.52086893e-01  5.20510886e-10  1.65208641e+00  5.20510886e-10  1.80000000e+00  5.20510886e-10  3.48148583e-02  5.20510886e-10  7.58531946e-01  5.20510886e-10  1.66436755e+00  5.20510886e-10  1.66762870e+00                                 
 5.61532659e-10  8.07492417e-01  5.61532659e-10  7.52175898e-01  5.61532659e-10  1.65191754e+00  5.61532659e-10  1.80000000e+00  5.61532659e-10 -1.31845257e-02  5.61532659e-10  7.60437723e-01  5.61532659e-10  1.66606658e+00  5.61532659e-10  1.66763031e+00                                 
 6.43576205e-10  8.07548738e-01  6.43576205e-10  7.52012192e-01  6.43576205e-10  1.64998553e+00  6.43576205e-10  1.80000000e+00  6.43576205e-10  1.07977892e-02  6.43576205e-10  7.59094545e-01  6.43576205e-10  1.66509097e+00  6.43576205e-10  1.66756875e+00                                 
 7.61610595e-10  8.07564875e-01  7.61610595e-10  7.51990231e-01  7.61610595e-10  1.64938126e+00  7.61610595e-10  1.80000000e+00  7.61610595e-10 -8.52197025e-03  7.61610595e-10  7.59761055e-01  7.61610595e-10  1.66551812e+00  7.61610595e-10  1.66760786e+00                                 
 9.37505534e-10  8.07639270e-01  9.37505534e-10  7.51958356e-01  9.37505534e-10  1.64799593e+00  9.37505534e-10  1.80000000e+00  9.37505534e-10  8.06798220e-03  9.37505534e-10  7.60349017e-01  9.37505534e-10  1.66616548e+00  9.37505534e-10  1.66758017e+00                                 
 1.28929541e-09  8.07677516e-01  1.28929541e-09  7.51896744e-01  1.28929541e-09  1.64414871e+00  1.28929541e-09  1.80000000e+00  1.28929541e-09 -7.32706512e-03  1.28929541e-09  7.60377293e-01  1.28929541e-09  1.66606913e+00  1.28929541e-09  1.66759308e+00                                 
 1.76930844e-09  8.07630458e-01  1.76930844e-09  7.51905421e-01  1.76930844e-09  1.64262445e+00  1.76930844e-09  1.80000000e+00  1.76930844e-09  7.13530870e-03  1.76930844e-09  7.60521126e-01  1.76930844e-09  1.66631314e+00  1.76930844e-09  1.66759595e+00                                 
 2.32360506e-09  8.07504257e-01  2.32360506e-09  7.51875089e-01  2.32360506e-09  1.64200184e+00  2.32360506e-09  1.80000000e+00  2.32360506e-09 -6.85529734e-03  2.32360506e-09  7.59736514e-01  2.32360506e-09  1.66551704e+00  2.32360506e-09  1.66762879e+00                                 
 2.84532997e-09  8.07442525e-01  2.84532997e-09  7.51901886e-01  2.84532997e-09  1.64220664e+00  2.84532997e-09  1.80000000e+00  2.84532997e-09  6.60622583e-03  2.84532997e-09  7.59716318e-01  2.84532997e-09  1.66560771e+00  2.84532997e-09  1.66765773e+00                                 
 3.66692471e-09  8.07378043e-01  3.66692471e-09  7.51876515e-01  3.66692471e-09  1.64139284e+00  3.66692471e-09  1.80000000e+00  3.66692471e-09 -6.44094704e-03  3.66692471e-09  7.58722432e-01  3.66692471e-09  1.66463540e+00  3.66692471e-09  1.66771187e+00                                 
 5.22358795e-09  8.07366407e-01  5.22358795e-09  7.51907098e-01  5.22358795e-09  1.64020816e+00  5.22358795e-09  1.80000000e+00  5.22358795e-09  6.36490054e-03  5.22358795e-09  7.58047139e-01  5.22358795e-09  1.66414932e+00  5.22358795e-09  1.66780878e+00                                 
 8.33691444e-09  8.07361388e-01  8.33691444e-09  7.51885713e-01  8.33691444e-09  1.63571109e+00  8.33691444e-09  1.80000000e+00  8.33691444e-09 -6.31620978e-03  8.33691444e-09  7.56055464e-01  8.33691444e-09  1.66231231e+00  8.33691444e-09  1.66793973e+00                                 
 1.31358976e-08  8.07381599e-01  1.31358976e-08  7.51916219e-01  1.31358976e-08  1.62800180e+00  1.31358976e-08  1.80000000e+00  1.31358976e-08  6.30159703e-03  1.31358976e-08  7.55117806e-01  1.31358976e-08  1.66160099e+00  1.31358976e-08  1.66798660e+00                                 
 1.68851334e-08  8.07378788e-01  1.68851334e-08  7.51889243e-01  1.68851334e-08  1.62015007e+00  1.68851334e-08  1.80000000e+00  1.68851334e-08 -6.25331019e-03  1.68851334e-08  7.54324900e-01  1.68851334e-08  1.66080920e+00  1.68851334e-08  1.66793246e+00                                 
 2.11751871e-08  8.07388589e-01  2.11751871e-08  7.51916265e-01  2.11751871e-08  1.61157997e+00  2.11751871e-08  1.80000000e+00  2.11751871e-08  6.24416566e-03  2.11751871e-08  7.54560651e-01  2.11751871e-08  1.66111297e+00  2.11751871e-08  1.66784320e+00                                 
 2.54296336e-08  8.07385240e-01  2.54296336e-08  7.51889141e-01  2.54296336e-08  1.60171271e+00  2.54296336e-08  1.80000000e+00  2.54296336e-08 -6.19225097e-03  2.54296336e-08  7.54164370e-01  2.54296336e-08  1.66066292e+00  2.54296336e-08  1.66774496e+00                                 
 3.20389062e-08  8.07400014e-01  3.20389062e-08  7.51916382e-01  3.20389062e-08  1.58598525e+00  3.20389062e-08  1.80000000e+00  3.20389062e-08  6.19905905e-03  3.20389062e-08  7.54651620e-01  3.20389062e-08  1.66118144e+00  3.20389062e-08  1.66761399e+00                                 
 3.95067133e-08  8.07396475e-01  3.95067133e-08  7.51889175e-01  3.95067133e-08  1.56602351e+00  3.95067133e-08  1.80000000e+00  3.95067133e-08 -6.15648876e-03  3.95067133e-08  7.54398544e-01  3.95067133e-08  1.66085522e+00  3.95067133e-08  1.66749288e+00                                 
 5.15784996e-08  8.07405531e-01  5.15784996e-08  7.51916361e-01  5.15784996e-08  1.53339135e+00  5.15784996e-08  1.80000000e+00  5.15784996e-08  6.17320050e-03  5.15784996e-08  7.54972286e-01  5.15784996e-08  1.66144944e+00  5.15784996e-08  1.66736974e+00                                 
 6.73143795e-08  8.07396911e-01  6.73143795e-08  7.51889089e-01  6.73143795e-08  1.48920857e+00  6.73143795e-08  1.80000000e+00  6.73143795e-08 -6.13874226e-03  6.73143795e-08  7.54726098e-01  6.73143795e-08  1.66113208e+00  6.73143795e-08  1.66728522e+00                                 
 9.38113665e-08  8.07403741e-01  9.38113665e-08  7.51916312e-01  9.38113665e-08  1.41548262e+00  9.38113665e-08  1.80000000e+00  9.38113665e-08  6.16093057e-03  9.38113665e-08  7.55229131e-01  9.38113665e-08  1.66166886e+00  9.38113665e-08  1.66724967e+00                                 
 1.42132588e-07  8.07395419e-01  1.42132588e-07  7.51889058e-01  1.42132588e-07  1.28068332e+00  1.42132588e-07  1.80000000e+00  1.42132588e-07 -6.13158031e-03  1.42132588e-07  7.54887266e-01  1.42132588e-07  1.66127094e+00  1.42132588e-07  1.66726355e+00                                 
 2.36761331e-07  8.07403122e-01  2.36761331e-07  7.51916307e-01  2.36761331e-07  1.02255997e+00  2.36761331e-07  1.80000000e+00  2.36761331e-07  6.15727449e-03  2.36761331e-07  7.55280452e-01  2.36761331e-07  1.66170994e+00  2.36761331e-07  1.66729710e+00                                 
 3.22310310e-07  8.07395269e-01  3.22310310e-07  7.51889050e-01  3.22310310e-07  8.23056833e-01  3.22310310e-07  1.80000000e+00  3.22310310e-07 -6.12851008e-03  3.22310310e-07  7.54887146e-01  3.22310310e-07  1.66126360e+00  3.22310310e-07  1.66729084e+00                                 
 4.03149580e-07  8.07403579e-01  4.03149580e-07  7.51916346e-01  4.03149580e-07  7.51837984e-01  4.03149580e-07  1.80000000e+00  4.03149580e-07  6.15593407e-03  4.03149580e-07  7.55282649e-01  4.03149580e-07  1.66170433e+00  4.03149580e-07  1.66729103e+00                                 
 4.76794639e-07  8.07394478e-01  4.76794639e-07  7.51888998e-01  4.76794639e-07  7.59702979e-01  4.76794639e-07  1.80000000e+00  4.76794639e-07 -6.12496558e-03  4.76794639e-07  7.54888154e-01  4.76794639e-07  1.66125801e+00  4.76794639e-07  1.66728544e+00                                 
 5.18433893e-07  8.07403963e-01  5.18433893e-07  7.51916370e-01  5.18433893e-07  7.58625329e-01  5.18433893e-07  1.80000000e+00  5.18433893e-07  6.15144517e-03  5.18433893e-07  7.55280048e-01  5.18433893e-07  1.66169722e+00  5.18433893e-07  1.66728610e+00                                 
 5.63308662e-07  8.07394658e-01  5.63308662e-07  7.51889004e-01  5.63308662e-07  7.58043810e-01  5.63308662e-07  1.80000000e+00  5.63308662e-07 -6.11949884e-03  5.63308662e-07  7.54888644e-01  5.63308662e-07  1.66125485e+00  5.63308662e-07  1.66728098e+00                                 
 6.53058201e-07  8.07403750e-01  6.53058201e-07  7.51916360e-01  6.53058201e-07  7.58582053e-01  6.53058201e-07  1.80000000e+00  6.53058201e-07  6.14746591e-03  6.53058201e-07  7.55280287e-01  6.53058201e-07  1.66169179e+00  6.53058201e-07  1.66728039e+00                                 
 8.32557279e-07  8.07394742e-01  8.32557279e-07  7.51889007e-01  8.32557279e-07  7.58071044e-01  8.32557279e-07  1.80000000e+00  8.32557279e-07 -6.11731046e-03  8.32557279e-07  7.54888565e-01  8.32557279e-07  1.66124359e+00  8.32557279e-07  1.66726977e+00                                 
 1.19155544e-06  8.07403712e-01  1.19155544e-06  7.51916359e-01  1.19155544e-06  7.58571028e-01  1.19155544e-06  1.80000000e+00  1.19155544e-06  6.14648687e-03  1.19155544e-06  7.55280317e-01  1.19155544e-06  1.66166940e+00  1.19155544e-06  1.66725803e+00                                 
 1.90955175e-06  8.07394761e-01  1.90955175e-06  7.51889008e-01  1.90955175e-06  7.58076076e-01  1.90955175e-06  1.80000000e+00  1.90955175e-06 -6.11682603e-03  1.90955175e-06  7.54888553e-01  1.90955175e-06  1.66119876e+00  1.90955175e-06  1.66722504e+00                                 
 2.90955175e-06  8.07403702e-01  2.90955175e-06  7.51916359e-01  2.90955175e-06  7.58568305e-01  2.90955175e-06  1.80000000e+00  2.90955175e-06  6.14624704e-03  2.90955175e-06  7.55280324e-01  2.90955175e-06  1.66159791e+00  2.90955175e-06  1.66718668e+00                                 
 3.90955175e-06  8.07394769e-01  3.90955175e-06  7.51889008e-01  3.90955175e-06  7.58078297e-01  3.90955175e-06  1.80000000e+00  3.90955175e-06 -6.11685303e-03  3.90955175e-06  7.54888548e-01  3.90955175e-06  1.66111555e+00  3.90955175e-06  1.66714201e+00                                 
 4.90955175e-06  8.07403694e-01  4.90955175e-06  7.51916359e-01  4.90955175e-06  7.58566155e-01  4.90955175e-06  1.80000000e+00  4.90955175e-06  6.14602529e-03  4.90955175e-06  7.55280328e-01  4.90955175e-06  1.66151470e+00  4.90955175e-06  1.66710365e+00                                 
 5.90955175e-06  8.07394777e-01  5.90955175e-06  7.51889008e-01  5.90955175e-06  7.58080404e-01  5.90955175e-06  1.80000000e+00  5.90955175e-06 -6.11662106e-03  5.90955175e-06  7.54888543e-01  5.90955175e-06  1.66103233e+00  5.90955175e-06  1.66705897e+00                                 
 6.90955175e-06  8.07403685e-01  6.90955175e-06  7.51916359e-01  6.90955175e-06  7.58564111e-01  6.90955175e-06  1.80000000e+00  6.90955175e-06  6.14579100e-03  6.90955175e-06  7.55280333e-01  6.90955175e-06  1.66143149e+00  6.90955175e-06  1.66702061e+00                                 
 7.90955175e-06  8.07394785e-01  7.90955175e-06  7.51889008e-01  7.90955175e-06  7.58082405e-01  7.90955175e-06  1.80000000e+00  7.90955175e-06 -6.11638909e-03  7.90955175e-06  7.54888539e-01  7.90955175e-06  1.66094909e+00  7.90955175e-06  1.66697592e+00                                 
 8.90955175e-06  8.07403677e-01  8.90955175e-06  7.51916358e-01  8.90955175e-06  7.58562168e-01  8.90955175e-06  1.80000000e+00  8.90955175e-06  6.14555673e-03  8.90955175e-06  7.55280337e-01  8.90955175e-06  1.66134824e+00  8.90955175e-06  1.66693753e+00                                 
 9.90955175e-06  8.07394793e-01  9.90955175e-06  7.51889008e-01  9.90955175e-06  7.58084309e-01  9.90955175e-06  1.80000000e+00  9.90955175e-06 -6.11615714e-03  9.90955175e-06  7.54888535e-01  9.90955175e-06  1.66086583e+00  9.90955175e-06  1.66689284e+00                                 
 1.00005000e-05  8.07403633e-01  1.00005000e-05  7.51916357e-01  1.00005000e-05  7.58552223e-01  1.00005000e-05  1.80000000e+00  1.00005000e-05  6.14415897e-03  1.00005000e-05  7.55280353e-01  1.00005000e-05  1.66130283e+00  1.00005000e-05  1.66689222e+00                                 
 1.00005500e-05  8.07369272e-01  1.00005500e-05  7.51713237e-01  1.00005500e-05  7.56569563e-01  1.00005500e-05  1.62000000e+00  1.00005500e-05  4.50773154e-04  1.00005500e-05  7.53493917e-01  1.00005500e-05  1.65970000e+00  1.00005500e-05  1.66686940e+00                                 
 1.00006500e-05  8.07394720e-01  1.00006500e-05  7.51715986e-01  1.00006500e-05  7.56807311e-01  1.00006500e-05  1.26000000e+00  1.00006500e-05 -4.07605335e-04  1.00006500e-05  7.53348408e-01  1.00006500e-05  1.65956699e+00  1.00006500e-05  1.66689481e+00                                 
 1.00008500e-05  8.07424992e-01  1.00008500e-05  7.51983092e-01  1.00008500e-05  7.59508639e-01  1.00008500e-05  5.40000000e-01  1.00008500e-05 -6.23114355e-04  1.00008500e-05  7.55534561e-01  1.00008500e-05  1.66097853e+00  1.00008500e-05  1.66689807e+00                                 
 1.00010000e-05  8.07392523e-01  1.00010000e-05  7.50630781e-01  1.00010000e-05  7.80541798e-01  1.00010000e-05  0.00000000e+00  1.00010000e-05  1.48119538e+00  1.00010000e-05  7.38989854e-01  1.00010000e-05  1.59597590e+00  1.00010000e-05  1.66626543e+00                                 
 1.00010266e-05  8.07408548e-01  1.00010266e-05  7.50347261e-01  1.00010266e-05  7.87897364e-01  1.00010266e-05  0.00000000e+00  1.00010266e-05  1.68250804e+00  1.00010266e-05  7.35297643e-01  1.00010266e-05  1.56972956e+00  1.00010266e-05  1.66614511e+00                                 
 1.00010798e-05  8.07401881e-01  1.00010798e-05  7.49861880e-01  1.00010798e-05  7.93670515e-01  1.00010798e-05  0.00000000e+00  1.00010798e-05  1.82445599e+00  1.00010798e-05  7.29461304e-01  1.00010798e-05  1.51310385e+00  1.00010798e-05  1.66607465e+00                                 
 1.00011862e-05  8.07395282e-01  1.00011862e-05  7.49884674e-01  1.00011862e-05  7.84912552e-01  1.00011862e-05  0.00000000e+00  1.00011862e-05  1.78491265e+00  1.00011862e-05  7.30384632e-01  1.00011862e-05  1.41571910e+00  1.00011862e-05  1.66658288e+00                                 
 1.00013266e-05  8.07404211e-01  1.00013266e-05  7.50328857e-01  1.00013266e-05  7.81037820e-01  1.00013266e-05  0.00000000e+00  1.00013266e-05  1.80852017e+00  1.00013266e-05  7.36253783e-01  1.00013266e-05  1.31939502e+00  1.00013266e-05  1.66692825e+00                                 
 1.00015484e-05  8.07394565e-01  1.00015484e-05  7.50590398e-01  1.00015484e-05  7.75521961e-01  1.00015484e-05  0.00000000e+00  1.00015484e-05  1.79293859e+00  1.00015484e-05  7.38868648e-01  1.00015484e-05  1.19709456e+00  1.00015484e-05  1.66707605e+00                                 
 1.00019560e-05  8.07403511e-01  1.00019560e-05  7.51222331e-01  1.00019560e-05  7.70167193e-01  1.00019560e-05  0.00000000e+00  1.00019560e-05  1.80555682e+00  1.00019560e-05  7.44595217e-01  1.00019560e-05  1.04689257e+00  1.00019560e-05  1.66718161e+00                                 
 1.00024745e-05  8.07394790e-01  1.00024745e-05  7.51557562e-01  1.00024745e-05  7.67373584e-01  1.00024745e-05  0.00000000e+00  1.00024745e-05  1.79482576e+00  1.00024745e-05  7.46514858e-01  1.00024745e-05  9.13938019e-01  1.00024745e-05  1.66693248e+00                                 
 1.00030324e-05  8.07403348e-01  1.00030324e-05  7.52033245e-01  1.00030324e-05  7.63526001e-01  1.00030324e-05  0.00000000e+00  1.00030324e-05  1.80431620e+00  1.00030324e-05  7.51173623e-01  1.00030324e-05  8.25708558e-01  1.00030324e-05  1.66643506e+00                                 
 1.00039413e-05  8.07395164e-01  1.00039413e-05  7.52288803e-01  1.00039413e-05  7.60829747e-01  1.00039413e-05  0.00000000e+00  1.00039413e-05  1.79584999e+00  1.00039413e-05  7.54155567e-01  1.00039413e-05  7.64875210e-01  1.00039413e-05  1.66515978e+00                                 
 1.00047551e-05  8.07403217e-01  1.00047551e-05  7.52397353e-01  1.00047551e-05  7.60160021e-01  1.00047551e-05  0.00000000e+00  1.00047551e-05  1.80377242e+00  1.00047551e-05  7.56459544e-01  1.00047551e-05  7.61466432e-01  1.00047551e-05  1.66367836e+00                                 
 1.00056567e-05  8.07395401e-01  1.00056567e-05  7.52196538e-01  1.00056567e-05  7.62467123e-01  1.00056567e-05  0.00000000e+00  1.00056567e-05  1.79648242e+00  1.00056567e-05  7.55450243e-01  1.00056567e-05  7.60850215e-01  1.00056567e-05  1.66171351e+00                                 
 1.00065262e-05  8.07403010e-01  1.00065262e-05  7.52206136e-01  1.00065262e-05  7.62940911e-01  1.00065262e-05  0.00000000e+00  1.00065262e-05  1.80321560e+00  1.00065262e-05  7.56636042e-01  1.00065262e-05  7.63278563e-01  1.00065262e-05  1.65977146e+00                                 
 1.00082653e-05  8.07395549e-01  1.00082653e-05  7.52010695e-01  1.00082653e-05  7.66844654e-01  1.00082653e-05  0.00000000e+00  1.00082653e-05  1.79689279e+00  1.00082653e-05  7.55625058e-01  1.00082653e-05  7.65175833e-01  1.00082653e-05  1.65576399e+00                                 
 1.00117434e-05  8.07402908e-01  1.00117434e-05  7.51986954e-01  1.00117434e-05  7.72051771e-01  1.00117434e-05  0.00000000e+00  1.00117434e-05  1.80302274e+00  1.00117434e-05  7.56544953e-01  1.00117434e-05  7.72242703e-01  1.00117434e-05  1.64780887e+00                                 
