 time            v(vbep)         time            v(vben)         time            v(vout)         time            v(vphi1)        time            v(vphi2)        time            v(vref)         time            v(voutc)        time            v(voutcc)       yes             currtemp       
 0.00000000e+00  8.46995042e-01  0.00000000e+00  7.99104163e-01  0.00000000e+00  1.74641583e+00  0.00000000e+00  0.00000000e+00  0.00000000e+00  1.80000000e+00  0.00000000e+00  8.03111287e-01  0.00000000e+00  1.74641582e+00  0.00000000e+00  1.75108791e+00  1.00000000e+00 -2.30000000e+01 
 1.00000000e-11  8.47016056e-01  1.00000000e-11  7.99168479e-01  1.00000000e-11  1.74724508e+00  1.00000000e-11  1.80000000e-02  1.00000000e-11  1.80024149e+00  1.00000000e-11  8.03623784e-01  1.00000000e-11  1.74687074e+00  1.00000000e-11  1.75109175e+00                                 
 2.00000000e-11  8.47022028e-01  2.00000000e-11  7.99209213e-01  2.00000000e-11  1.74781967e+00  2.00000000e-11  3.60000000e-02  2.00000000e-11  1.80034433e+00  2.00000000e-11  8.04013532e-01  2.00000000e-11  1.74723091e+00  2.00000000e-11  1.75109177e+00                                 
 4.00000000e-11  8.47022120e-01  4.00000000e-11  7.99262715e-01  4.00000000e-11  1.74860777e+00  4.00000000e-11  7.20000000e-02  4.00000000e-11  1.80039573e+00  4.00000000e-11  8.04594307e-01  4.00000000e-11  1.74779407e+00  4.00000000e-11  1.75108758e+00                                 
 8.00000000e-11  8.47011498e-01  8.00000000e-11  7.99294467e-01  8.00000000e-11  1.74905203e+00  8.00000000e-11  1.44000000e-01  8.00000000e-11  1.80021037e+00  8.00000000e-11  8.05073968e-01  8.00000000e-11  1.74835672e+00  8.00000000e-11  1.75107344e+00                                 
 1.60000000e-10  8.47008140e-01  1.60000000e-10  7.99293372e-01  1.60000000e-10  1.74890226e+00  1.60000000e-10  2.88000000e-01  1.60000000e-10  1.80002067e+00  1.60000000e-10  8.05157484e-01  1.60000000e-10  1.74863380e+00  1.60000000e-10  1.75105914e+00                                 
 3.20000000e-10  8.47005994e-01  3.20000000e-10  7.99290491e-01  3.20000000e-10  1.74862731e+00  3.20000000e-10  5.76000000e-01  3.20000000e-10  1.80002694e+00  3.20000000e-10  8.05130234e-01  3.20000000e-10  1.74869825e+00  3.20000000e-10  1.75105663e+00                                 
 6.40000000e-10  8.46938071e-01  6.40000000e-10  7.99103003e-01  6.40000000e-10  1.74074988e+00  6.40000000e-10  1.15200000e+00  6.40000000e-10  1.81356077e+00  6.40000000e-10  8.04889712e-01  6.40000000e-10  1.75280281e+00  6.40000000e-10  1.75108254e+00                                 
 9.92943518e-10  8.47295423e-01  9.92943518e-10  7.99090699e-01  9.92943518e-10  1.70849217e+00  9.92943518e-10  1.78729833e+00  9.92943518e-10  7.29727626e-02  9.92943518e-10  8.04015891e-01  9.92943518e-10  1.73952688e+00  9.92943518e-10  1.75094645e+00                                 
 1.00000000e-09  8.47317118e-01  1.00000000e-09  7.99140129e-01  1.00000000e-09  1.70813892e+00  1.00000000e-09  1.80000000e+00  1.00000000e-09  3.09690568e-02  1.00000000e-09  8.04667858e-01  1.00000000e-09  1.73951246e+00  1.00000000e-09  1.75096797e+00                                 
 1.01411296e-09  8.47306112e-01  1.01411296e-09  7.99166997e-01  1.01411296e-09  1.70817017e+00  1.01411296e-09  1.80000000e+00  1.01411296e-09  1.22308112e-02  1.01411296e-09  8.05907795e-01  1.01411296e-09  1.74036943e+00  1.01411296e-09  1.75101419e+00                                 
 1.04233889e-09  8.47337087e-01  1.04233889e-09  7.99223742e-01  1.04233889e-09  1.70818778e+00  1.04233889e-09  1.80000000e+00  1.04233889e-09 -1.43988902e-03  1.04233889e-09  8.07734936e-01  1.04233889e-09  1.74183137e+00  1.04233889e-09  1.75106737e+00                                 
 1.09879075e-09  8.47493726e-01  1.09879075e-09  7.99216531e-01  1.09879075e-09  1.70603859e+00  1.09879075e-09  1.80000000e+00  1.09879075e-09  2.21975581e-03  1.09879075e-09  8.08490365e-01  1.09879075e-09  1.74258130e+00  1.09879075e-09  1.75105017e+00                                 
 1.21169446e-09  8.47693110e-01  1.21169446e-09  7.99124985e-01  1.21169446e-09  1.69937779e+00  1.21169446e-09  1.80000000e+00  1.21169446e-09 -8.50774053e-04  1.21169446e-09  8.08585552e-01  1.21169446e-09  1.74260449e+00  1.21169446e-09  1.75104217e+00                                 
 1.43750188e-09  8.47798540e-01  1.43750188e-09  7.99111411e-01  1.43750188e-09  1.69271129e+00  1.43750188e-09  1.80000000e+00  1.43750188e-09  1.10865852e-03  1.43750188e-09  8.09412990e-01  1.43750188e-09  1.74332820e+00  1.43750188e-09  1.75106331e+00                                 
 1.67285738e-09  8.47683167e-01  1.67285738e-09  7.99089250e-01  1.67285738e-09  1.69304688e+00  1.67285738e-09  1.80000000e+00  1.67285738e-09 -9.60781422e-04  1.67285738e-09  8.09108610e-01  1.67285738e-09  1.74303557e+00  1.67285738e-09  1.75105240e+00                                 
 1.92216650e-09  8.47515859e-01  1.92216650e-09  7.99098129e-01  1.92216650e-09  1.69559783e+00  1.92216650e-09  1.80000000e+00  1.92216650e-09  8.07625822e-04  1.92216650e-09  8.09012459e-01  1.92216650e-09  1.74298212e+00  1.92216650e-09  1.75106629e+00                                 
 2.22042610e-09  8.47337131e-01  2.22042610e-09  7.99087848e-01  2.22042610e-09  1.69850839e+00  2.22042610e-09  1.80000000e+00  2.22042610e-09 -7.93616940e-04  2.22042610e-09  8.08538561e-01  2.22042610e-09  1.74255593e+00  2.22042610e-09  1.75105659e+00                                 
 2.79035640e-09  8.47086809e-01  2.79035640e-09  7.99093702e-01  2.79035640e-09  1.70384754e+00  2.79035640e-09  1.80000000e+00  2.79035640e-09  6.94758650e-04  2.79035640e-09  8.08022352e-01  2.79035640e-09  1.74214390e+00  2.79035640e-09  1.75106352e+00                                 
 3.93021698e-09  8.46874019e-01  3.93021698e-09  7.99084779e-01  3.93021698e-09  1.71192979e+00  3.93021698e-09  1.80000000e+00  3.93021698e-09 -7.34094643e-04  3.93021698e-09  8.06758742e-01  3.93021698e-09  1.74105484e+00  3.93021698e-09  1.75103861e+00                                 
 6.20993815e-09  8.46865823e-01  6.20993815e-09  7.99095243e-01  6.20993815e-09  1.72171592e+00  6.20993815e-09  1.80000000e+00  6.20993815e-09  6.76079952e-04  6.20993815e-09  8.05133332e-01  6.20993815e-09  1.73970677e+00  6.20993815e-09  1.75097922e+00                                 
 9.19594003e-09  8.46950220e-01  9.19594003e-09  7.99094879e-01  9.19594003e-09  1.72602110e+00  9.19594003e-09  1.80000000e+00  9.19594003e-09 -7.08368399e-04  9.19594003e-09  8.03713933e-01  9.19594003e-09  1.73848689e+00  9.19594003e-09  1.75082516e+00                                 
 1.18285127e-08  8.46962388e-01  1.18285127e-08  7.99104958e-01  1.18285127e-08  1.72638002e+00  1.18285127e-08  1.80000000e+00  1.18285127e-08  6.69961894e-04  1.18285127e-08  8.03256001e-01  1.18285127e-08  1.73812084e+00  1.18285127e-08  1.75066850e+00                                 
 1.48221818e-08  8.46976192e-01  1.48221818e-08  7.99099697e-01  1.48221818e-08  1.72528312e+00  1.48221818e-08  1.80000000e+00  1.48221818e-08 -6.88938001e-04  1.48221818e-08  8.02832694e-01  1.48221818e-08  1.73773743e+00  1.48221818e-08  1.75045131e+00                                 
 1.83607514e-08  8.46971892e-01  1.83607514e-08  7.99107299e-01  1.83607514e-08  1.72446528e+00  1.83607514e-08  1.80000000e+00  1.83607514e-08  6.65849829e-04  1.83607514e-08  8.02791794e-01  1.83607514e-08  1.73771685e+00  1.83607514e-08  1.75020140e+00                                 
 2.32828088e-08  8.46976617e-01  2.32828088e-08  7.99100824e-01  2.32828088e-08  1.72336098e+00  2.32828088e-08  1.80000000e+00  2.32828088e-08 -6.70868781e-04  2.32828088e-08  8.02638912e-01  2.32828088e-08  1.73755261e+00  2.32828088e-08  1.74983519e+00                                 
 2.96369929e-08  8.46988693e-01  2.96369929e-08  7.99107598e-01  2.96369929e-08  1.71981379e+00  2.96369929e-08  1.80000000e+00  2.96369929e-08  6.64424698e-04  2.96369929e-08  8.02768872e-01  2.96369929e-08  1.73766460e+00  2.96369929e-08  1.74939797e+00                                 
 3.91214471e-08  8.46997389e-01  3.91214471e-08  7.99100930e-01  3.91214471e-08  1.71112869e+00  3.91214471e-08  1.80000000e+00  3.91214471e-08 -6.64179457e-04  3.91214471e-08  8.02724496e-01  3.91214471e-08  1.73757912e+00  3.91214471e-08  1.74877052e+00                                 
 5.40649088e-08  8.46995663e-01  5.40649088e-08  7.99107579e-01  5.40649088e-08  1.69570818e+00  5.40649088e-08  1.80000000e+00  5.40649088e-08  6.61552995e-04  5.40649088e-08  8.02909843e-01  5.40649088e-08  1.73772234e+00  5.40649088e-08  1.74790592e+00                                 
 7.39727674e-08  8.46997300e-01  7.39727674e-08  7.99100887e-01  7.39727674e-08  1.67336883e+00  7.39727674e-08  1.80000000e+00  7.39727674e-08 -6.62170757e-04  7.39727674e-08  8.02883835e-01  7.39727674e-08  1.73764459e+00  7.39727674e-08  1.74691095e+00                                 
 1.13788485e-07  8.46994218e-01  1.13788485e-07  7.99107507e-01  1.13788485e-07  1.62524908e+00  1.13788485e-07  1.80000000e+00  1.13788485e-07  6.60009933e-04  1.13788485e-07  8.03081408e-01  1.13788485e-07  1.73778755e+00  1.13788485e-07  1.74542483e+00                                 
 1.93419919e-07  8.46996453e-01  1.93419919e-07  7.99100844e-01  1.93419919e-07  1.52374913e+00  1.93419919e-07  1.80000000e+00  1.93419919e-07 -6.61577975e-04  1.93419919e-07  8.03046382e-01  1.93419919e-07  1.73769259e+00  1.93419919e-07  1.74370166e+00                                 
 3.52682788e-07  8.46993700e-01  3.52682788e-07  7.99107485e-01  3.52682788e-07  1.32212432e+00  3.52682788e-07  1.80000000e+00  3.52682788e-07  6.59702320e-04  3.52682788e-07  8.03165544e-01  3.52682788e-07  1.73778473e+00  3.52682788e-07  1.74257400e+00                                 
 6.60422333e-07  8.46996386e-01  6.60422333e-07  7.99100841e-01  6.60422333e-07  9.52662987e-01  6.60422333e-07  1.80000000e+00  6.60422333e-07 -6.61141805e-04  6.60422333e-07  8.03058109e-01  6.60422333e-07  1.73765533e+00  6.60422333e-07  1.74239145e+00                                 
 8.97922535e-07  8.46993718e-01  8.97922535e-07  7.99107485e-01  8.97922535e-07  8.08968883e-01  8.97922535e-07  1.80000000e+00  8.97922535e-07  6.60717107e-04  8.97922535e-07  8.03163522e-01  8.97922535e-07  1.73775574e+00  8.97922535e-07  1.74241914e+00                                 
 1.05448246e-06  8.46996361e-01  1.05448246e-06  7.99100846e-01  1.05448246e-06  8.06706279e-01  1.05448246e-06  1.80000000e+00  1.05448246e-06 -6.60278910e-04  1.05448246e-06  8.03060355e-01  1.05448246e-06  1.73764040e+00  1.05448246e-06  1.74240305e+00                                 
 1.15028886e-06  8.46993626e-01  1.15028886e-06  7.99107467e-01  1.15028886e-06  8.07309726e-01  1.15028886e-06  1.80000000e+00  1.15028886e-06  6.61304710e-04  1.15028886e-06  8.03162068e-01  1.15028886e-06  1.73774340e+00  1.15028886e-06  1.74240610e+00                                 
 1.24367324e-06  8.46996548e-01  1.24367324e-06  7.99100874e-01  1.24367324e-06  8.06980400e-01  1.24367324e-06  1.80000000e+00  1.24367324e-06 -6.59893047e-04  1.24367324e-06  8.03060437e-01  1.24367324e-06  1.73763218e+00  1.24367324e-06  1.74239404e+00                                 
 1.40327733e-06  8.46993499e-01  1.40327733e-06  7.99107447e-01  1.40327733e-06  8.07344586e-01  1.40327733e-06  1.80000000e+00  1.40327733e-06  6.60111160e-04  1.40327733e-06  8.03162192e-01  1.40327733e-06  1.73773240e+00  1.40327733e-06  1.74239488e+00                                 
 1.56561036e-06  8.46996617e-01  1.56561036e-06  7.99100885e-01  1.56561036e-06  8.07056322e-01  1.56561036e-06  1.80000000e+00  1.56561036e-06 -6.59669479e-04  1.56561036e-06  8.03060321e-01  1.56561036e-06  1.73761799e+00  1.56561036e-06  1.74237995e+00                                 
 1.81885069e-06  8.46993451e-01  1.81885069e-06  7.99107439e-01  1.81885069e-06  8.07315478e-01  1.81885069e-06  1.80000000e+00  1.81885069e-06  6.59929502e-04  1.81885069e-06  8.03162261e-01  1.81885069e-06  1.73771426e+00  1.81885069e-06  1.74237673e+00                                 
 2.15480716e-06  8.46996647e-01  2.15480716e-06  7.99100891e-01  2.15480716e-06  8.07069560e-01  2.15480716e-06  1.80000000e+00  2.15480716e-06 -6.59545428e-04  2.15480716e-06  8.03060283e-01  2.15480716e-06  1.73759215e+00  2.15480716e-06  1.74235426e+00                                 
 2.62323269e-06  8.46993432e-01  2.62323269e-06  7.99107435e-01  2.62323269e-06  8.07306498e-01  2.62323269e-06  1.80000000e+00  2.62323269e-06  6.59838032e-04  2.62323269e-06  8.03162286e-01  2.62323269e-06  1.73767901e+00  2.62323269e-06  1.74234160e+00                                 
 3.32246211e-06  8.46996658e-01  3.32246211e-06  7.99100893e-01  3.32246211e-06  8.07075160e-01  3.32246211e-06  1.80000000e+00  3.32246211e-06 -6.59481747e-04  3.32246211e-06  8.03060267e-01  3.32246211e-06  1.73754096e+00  3.32246211e-06  1.74230326e+00                                 
 4.34382357e-06  8.46993425e-01  4.34382357e-06  7.99107434e-01  4.34382357e-06  8.07302735e-01  4.34382357e-06  1.80000000e+00  4.34382357e-06  6.59794998e-04  4.34382357e-06  8.03162299e-01  4.34382357e-06  1.73760364e+00  4.34382357e-06  1.74226649e+00                                 
 5.54382357e-06  8.46996663e-01  5.54382357e-06  7.99100893e-01  5.54382357e-06  8.07077812e-01  5.54382357e-06  1.80000000e+00  5.54382357e-06 -6.59449431e-04  5.54382357e-06  8.03060258e-01  5.54382357e-06  1.73744364e+00  5.54382357e-06  1.74220632e+00                                 
 6.00100000e-06  8.46993415e-01  6.00100000e-06  7.99107431e-01  6.00100000e-06  8.07297187e-01  6.00100000e-06  1.80000000e+00  6.00100000e-06  6.60229051e-04  6.00100000e-06  8.03162354e-01  6.00100000e-06  1.73753109e+00  6.00100000e-06  1.74219414e+00                                 
 6.00110000e-06  8.46965755e-01  6.00110000e-06  7.98889714e-01  6.00110000e-06  8.05146277e-01  6.00110000e-06  1.62000000e+00  6.00110000e-06 -5.20026846e-05  6.00110000e-06  8.01209691e-01  6.00110000e-06  1.73587394e+00  6.00110000e-06  1.74217449e+00                                 
 6.00130000e-06  8.46993959e-01  6.00130000e-06  7.98957242e-01  6.00130000e-06  8.05932972e-01  6.00130000e-06  1.26000000e+00  6.00130000e-06  1.33544372e-05  6.00130000e-06  8.01590870e-01  6.00130000e-06  1.73619718e+00  6.00130000e-06  1.74219913e+00                                 
 6.00170000e-06  8.47019230e-01  6.00170000e-06  7.99005418e-01  6.00170000e-06  8.07040108e-01  6.00170000e-06  5.40000000e-01  6.00170000e-06  4.79984671e-03  6.00170000e-06  8.00888711e-01  6.00170000e-06  1.73067197e+00  6.00170000e-06  1.74215063e+00                                 
 6.00200000e-06  8.46992394e-01  6.00200000e-06  7.96669003e-01  6.00200000e-06  8.57463009e-01  6.00200000e-06  0.00000000e+00  6.00200000e-06  1.58104453e+00  6.00200000e-06  7.69975488e-01  6.00200000e-06  1.52464414e+00  6.00200000e-06  1.74121469e+00                                 
 6.00205133e-06  8.46998540e-01  6.00205133e-06  7.96643291e-01  6.00205133e-06  8.55727127e-01  6.00205133e-06  0.00000000e+00  6.00205133e-06  1.72978443e+00  6.00205133e-06  7.69230658e-01  6.00205133e-06  1.46559441e+00  6.00205133e-06  1.74151593e+00                                 
 6.00215398e-06  8.46993827e-01  6.00215398e-06  7.96883395e-01  6.00215398e-06  8.45423495e-01  6.00215398e-06  0.00000000e+00  6.00215398e-06  1.82072546e+00  6.00215398e-06  7.71946632e-01  6.00215398e-06  1.35547360e+00  6.00215398e-06  1.74206259e+00                                 
 6.00230938e-06  8.46993897e-01  6.00230938e-06  7.97633586e-01  6.00230938e-06  8.31488577e-01  6.00230938e-06  0.00000000e+00  6.00230938e-06  1.78699898e+00  6.00230938e-06  7.81250879e-01  6.00230938e-06  1.23621688e+00  6.00230938e-06  1.74220138e+00                                 
 6.00248032e-06  8.46994930e-01  6.00248032e-06  7.97957729e-01  6.00248032e-06  8.28160366e-01  6.00248032e-06  0.00000000e+00  6.00248032e-06  1.80625451e+00  6.00248032e-06  7.84950988e-01  6.00248032e-06  1.14930291e+00  6.00248032e-06  1.74226728e+00                                 
 6.00275255e-06  8.46993218e-01  6.00275255e-06  7.98324541e-01  6.00275255e-06  8.21481586e-01  6.00275255e-06  0.00000000e+00  6.00275255e-06  1.79499203e+00  6.00275255e-06  7.88892274e-01  6.00275255e-06  1.04979746e+00  6.00275255e-06  1.74234404e+00                                 
 6.00300706e-06  8.46995300e-01  6.00300706e-06  7.98614573e-01  6.00300706e-06  8.19783825e-01  6.00300706e-06  0.00000000e+00  6.00300706e-06  1.80306048e+00  6.00300706e-06  7.91973244e-01  6.00300706e-06  9.82026107e-01  6.00300706e-06  1.74243006e+00                                 
 6.00351608e-06  8.46993447e-01  6.00351608e-06  7.98938263e-01  6.00351608e-06  8.15299355e-01  6.00351608e-06  0.00000000e+00  6.00351608e-06  1.79702284e+00  6.00351608e-06  7.95133917e-01  6.00351608e-06  8.76853826e-01  6.00351608e-06  1.74248733e+00                                 
 6.00406690e-06  8.46995773e-01  6.00406690e-06  7.99396657e-01  6.00406690e-06  8.10180130e-01  6.00406690e-06  0.00000000e+00  6.00406690e-06  1.80222525e+00  6.00406690e-06  8.00665316e-01  6.00406690e-06  8.23734976e-01  6.00406690e-06  1.74245549e+00                                 
 6.00465239e-06  8.46993785e-01  6.00465239e-06  7.99515920e-01  6.00465239e-06  8.07737204e-01  6.00465239e-06  0.00000000e+00  6.00465239e-06  1.79806694e+00  6.00465239e-06  8.02415218e-01  6.00465239e-06  8.09028069e-01  6.00465239e-06  1.74224584e+00                                 
 6.00526472e-06  8.46996006e-01  6.00526472e-06  7.99554476e-01  6.00526472e-06  8.07535643e-01  6.00526472e-06  0.00000000e+00  6.00526472e-06  1.80165839e+00  6.00526472e-06  8.03631254e-01  6.00526472e-06  8.07988381e-01  6.00526472e-06  1.74191837e+00                                 
 6.00596743e-06  8.46993968e-01  6.00596743e-06  7.99442968e-01  6.00596743e-06  8.07701992e-01  6.00596743e-06  0.00000000e+00  6.00596743e-06  1.79855482e+00  6.00596743e-06  8.03241874e-01  6.00596743e-06  8.07415094e-01  6.00596743e-06  1.74141785e+00                                 
 6.00709754e-06  8.46996079e-01  6.00709754e-06  7.99373141e-01  6.00709754e-06  8.08330576e-01  6.00709754e-06  0.00000000e+00  6.00709754e-06  1.80133005e+00  6.00709754e-06  8.03837661e-01  6.00709754e-06  8.08414384e-01  6.00709754e-06  1.74054397e+00                                 
 6.00935775e-06  8.46994024e-01  6.00935775e-06  7.99204983e-01  6.00935775e-06  8.09649533e-01  6.00935775e-06  0.00000000e+00  6.00935775e-06  1.79872823e+00  6.00935775e-06  8.03453704e-01  6.00935775e-06  8.09283276e-01  6.00935775e-06  1.73863378e+00                                 
 6.01387818e-06  8.46996069e-01  6.01387818e-06  7.99155797e-01  6.01387818e-06  8.12803581e-01  6.01387818e-06  0.00000000e+00  6.01387818e-06  1.80124835e+00  6.01387818e-06  8.03943443e-01  6.01387818e-06  8.12817853e-01  6.01387818e-06  1.73476388e+00                                 
 6.02291904e-06  8.46994021e-01  6.02291904e-06  7.99089020e-01  6.02291904e-06  8.19438425e-01  6.02291904e-06  0.00000000e+00  6.02291904e-06  1.79876840e+00  6.02291904e-06  8.03412171e-01  6.02291904e-06  8.19000914e-01  6.02291904e-06  1.72700342e+00                                 
 6.04100075e-06  8.46996065e-01  6.04100075e-06  7.99115394e-01  6.04100075e-06  8.32768734e-01  6.04100075e-06  0.00000000e+00  6.04100075e-06  1.80122862e+00  6.04100075e-06  8.03705535e-01  6.04100075e-06  8.32778802e-01  6.04100075e-06  1.71070852e+00                                 
 6.07274433e-06  8.46994022e-01  6.07274433e-06  7.99087793e-01  6.07274433e-06  8.54762163e-01  6.07274433e-06  0.00000000e+00  6.07274433e-06  1.79877827e+00  6.07274433e-06  8.03090979e-01  6.07274433e-06  8.54149968e-01  6.07274433e-06  1.67884269e+00                                 
