 time            v(vbep)         time            v(vben)         time            v(vout)         time            v(vphi1)        time            v(vphi2)        time            v(vref)         time            v(voutc)        time            v(voutcc)       yes             currtemp       
 0.00000000e+00  7.03732787e-01  0.00000000e+00  6.35515924e-01  0.00000000e+00  1.46308823e+00  0.00000000e+00  0.00000000e+00  0.00000000e+00  1.79999999e+00  0.00000000e+00  6.35687344e-01  0.00000000e+00  1.46308822e+00  0.00000000e+00  1.47084422e+00  1.00000000e+00  7.30000000e+01 
 1.00000000e-11  7.03757917e-01  1.00000000e-11  6.35588986e-01  1.00000000e-11  1.46384599e+00  1.00000000e-11  1.80000000e-02  1.00000000e-11  1.80025372e+00  1.00000000e-11  6.36219965e-01  1.00000000e-11  1.46355777e+00  1.00000000e-11  1.47085802e+00                                 
 2.00000000e-11  7.03764691e-01  2.00000000e-11  6.35633935e-01  2.00000000e-11  1.46429722e+00  2.00000000e-11  3.60000000e-02  2.00000000e-11  1.80035233e+00  2.00000000e-11  6.36612987e-01  2.00000000e-11  1.46390898e+00  2.00000000e-11  1.47086288e+00                                 
 4.00000000e-11  7.03764599e-01  4.00000000e-11  6.35692404e-01  4.00000000e-11  1.46482238e+00  4.00000000e-11  7.20000000e-02  4.00000000e-11  1.80038720e+00  4.00000000e-11  6.37186485e-01  4.00000000e-11  1.46442791e+00  4.00000000e-11  1.47086411e+00                                 
 8.00000000e-11  7.03752979e-01  8.00000000e-11  6.35728410e-01  8.00000000e-11  1.46488562e+00  8.00000000e-11  1.44000000e-01  8.00000000e-11  1.80018081e+00  8.00000000e-11  6.37632576e-01  8.00000000e-11  1.46483916e+00  8.00000000e-11  1.47085373e+00                                 
 1.60000000e-10  7.03750248e-01  1.60000000e-10  6.35737325e-01  1.60000000e-10  1.46454927e+00  1.60000000e-10  2.88000000e-01  1.60000000e-10  1.80000581e+00  1.60000000e-10  6.37731710e-01  1.60000000e-10  1.46488052e+00  1.60000000e-10  1.47084465e+00                                 
 3.20000000e-10  7.03745324e-01  3.20000000e-10  6.35725411e-01  3.20000000e-10  1.46416478e+00  3.20000000e-10  5.76000000e-01  3.20000000e-10  1.79997974e+00  3.20000000e-10  6.37561764e-01  3.20000000e-10  1.46452357e+00  3.20000000e-10  1.47083930e+00                                 
 6.40000000e-10  7.03663147e-01  6.40000000e-10  6.35274084e-01  6.40000000e-10  1.46255580e+00  6.40000000e-10  1.15200000e+00  6.40000000e-10  1.80872406e+00  6.40000000e-10  6.34497273e-01  6.40000000e-10  1.46766771e+00  6.40000000e-10  1.47086193e+00                                 
 1.00000000e-09  7.04198308e-01  1.00000000e-09  6.35724037e-01  1.00000000e-09  1.44357940e+00  1.00000000e-09  1.80000000e+00  1.00000000e-09  1.08366535e-01  1.00000000e-09  6.51391255e-01  1.00000000e-09  1.47449478e+00  1.00000000e-09  1.47087721e+00                                 
 1.03755556e-09  7.04277467e-01  1.03755556e-09  6.35722897e-01  1.03755556e-09  1.44200764e+00  1.03755556e-09  1.80000000e+00  1.03755556e-09  2.59557075e-02  1.03755556e-09  6.54584047e-01  1.03755556e-09  1.47624135e+00  1.03755556e-09  1.47089507e+00                                 
 1.11266669e-09  7.04458321e-01  1.11266669e-09  6.35742029e-01  1.11266669e-09  1.43993245e+00  1.11266669e-09  1.80000000e+00  1.11266669e-09 -1.19367798e-02  1.11266669e-09  6.58533768e-01  1.11266669e-09  1.47929258e+00  1.11266669e-09  1.47090477e+00                                 
 1.26288893e-09  7.04592054e-01  1.26288893e-09  6.35582096e-01  1.26288893e-09  1.43655057e+00  1.26288893e-09  1.80000000e+00  1.26288893e-09  9.32711870e-03  1.26288893e-09  6.58213717e-01  1.26288893e-09  1.47931610e+00  1.26288893e-09  1.47085845e+00                                 
 1.44387666e-09  7.04559581e-01  1.44387666e-09  6.35569691e-01  1.44387666e-09  1.43557011e+00  1.44387666e-09  1.80000000e+00  1.44387666e-09 -7.05694381e-03  1.44387666e-09  6.57004927e-01  1.44387666e-09  1.47806118e+00  1.44387666e-09  1.47089921e+00                                 
 1.64824929e-09  7.04452542e-01  1.64824929e-09  6.35568645e-01  1.64824929e-09  1.43521927e+00  1.64824929e-09  1.80000000e+00  1.64824929e-09  5.74719350e-03  1.64824929e-09  6.55192952e-01  1.64824929e-09  1.47670231e+00  1.64824929e-09  1.47094077e+00                                 
 1.99499678e-09  7.04197829e-01  1.99499678e-09  6.35527301e-01  1.99499678e-09  1.43476871e+00  1.99499678e-09  1.80000000e+00  1.99499678e-09 -5.09741952e-03  1.99499678e-09  6.52172453e-01  1.99499678e-09  1.47395767e+00  1.99499678e-09  1.47108374e+00                                 
 2.54716676e-09  7.03905048e-01  2.54716676e-09  6.35532941e-01  2.54716676e-09  1.43425993e+00  2.54716676e-09  1.80000000e+00  2.54716676e-09  4.65796637e-03  2.54716676e-09  6.48246255e-01  2.54716676e-09  1.47074392e+00  2.54716676e-09  1.47130977e+00                                 
 3.37748082e-09  7.03649490e-01  3.37748082e-09  6.35486082e-01  3.37748082e-09  1.43225002e+00  3.37748082e-09  1.80000000e+00  3.37748082e-09 -4.47232566e-03  3.37748082e-09  6.43192158e-01  3.37748082e-09  1.46628563e+00  3.37748082e-09  1.47161590e+00                                 
 4.81752342e-09  7.03529078e-01  4.81752342e-09  6.35503109e-01  4.81752342e-09  1.42780575e+00  4.81752342e-09  1.80000000e+00  4.81752342e-09  4.31027594e-03  4.81752342e-09  6.38029846e-01  4.81752342e-09  1.46201450e+00  4.81752342e-09  1.47188090e+00                                 
 6.18584896e-09  7.03520683e-01  6.18584896e-09  6.35476057e-01  6.18584896e-09  1.42174338e+00  6.18584896e-09  1.80000000e+00  6.18584896e-09 -4.19440568e-03  6.18584896e-09  6.35243754e-01  6.18584896e-09  1.45951431e+00  6.18584896e-09  1.47187213e+00                                 
 7.35946267e-09  7.03564606e-01  7.35946267e-09  6.35509517e-01  7.35946267e-09  1.41592704e+00  7.35946267e-09  1.80000000e+00  7.35946267e-09  4.03742205e-03  7.35946267e-09  6.34369091e-01  7.35946267e-09  1.45889513e+00  7.35946267e-09  1.47172107e+00                                 
 8.63695586e-09  7.03594644e-01  8.63695586e-09  6.35485580e-01  8.63695586e-09  1.40820081e+00  8.63695586e-09  1.80000000e+00  8.63695586e-09 -3.90980171e-03  8.63695586e-09  6.33564505e-01  8.63695586e-09  1.45808504e+00  8.63695586e-09  1.47149183e+00                                 
 1.02664612e-08  7.03654980e-01  1.02664612e-08  6.35521029e-01  1.02664612e-08  1.39771208e+00  1.02664612e-08  1.80000000e+00  1.02664612e-08  3.80897700e-03  1.02664612e-08  6.33549968e-01  1.02664612e-08  1.45818187e+00  1.02664612e-08  1.47115323e+00                                 
 1.23220356e-08  7.03687851e-01  1.23220356e-08  6.35496297e-01  1.23220356e-08  1.38274887e+00  1.23220356e-08  1.80000000e+00  1.23220356e-08 -3.73034904e-03  1.23220356e-08  6.33353652e-01  1.23220356e-08  1.45788343e+00  1.23220356e-08  1.47072690e+00                                 
 1.49633624e-08  7.03732078e-01  1.49633624e-08  6.35529300e-01  1.49633624e-08  1.36285812e+00  1.49633624e-08  1.80000000e+00  1.49633624e-08  3.67418556e-03  1.49633624e-08  6.33835355e-01  1.49633624e-08  1.45838669e+00  1.49633624e-08  1.47022137e+00                                 
 1.84902895e-08  7.03737161e-01  1.84902895e-08  6.35501271e-01  1.84902895e-08  1.33484154e+00  1.84902895e-08  1.80000000e+00  1.84902895e-08 -3.62715693e-03  1.84902895e-08  6.33961829e-01  1.84902895e-08  1.45835782e+00  1.84902895e-08  1.46965401e+00                                 
 2.37431546e-08  7.03752124e-01  2.37431546e-08  6.35531765e-01  2.37431546e-08  1.29296806e+00  2.37431546e-08  1.80000000e+00  2.37431546e-08  3.60198385e-03  2.37431546e-08  6.34655349e-01  2.37431546e-08  1.45903420e+00  2.37431546e-08  1.46900832e+00                                 
 3.27176657e-08  7.03735149e-01  3.27176657e-08  6.35501944e-01  3.27176657e-08  1.22057686e+00  3.27176657e-08  1.80000000e+00  3.27176657e-08 -3.58148240e-03  3.27176657e-08  6.34924052e-01  3.27176657e-08  1.45912829e+00  3.27176657e-08  1.46830757e+00                                 
 4.63936292e-08  7.03741440e-01  4.63936292e-08  6.35531263e-01  4.63936292e-08  1.11134246e+00  4.63936292e-08  1.80000000e+00  4.63936292e-08  3.57430969e-03  4.63936292e-08  6.35554931e-01  4.63936292e-08  1.45976342e+00  4.63936292e-08  1.46780276e+00                                 
 7.37455562e-08  7.03726199e-01  7.37455562e-08  6.35501005e-01  7.37455562e-08  8.95921518e-01  7.37455562e-08  1.80000000e+00  7.37455562e-08 -3.56410513e-03  7.37455562e-08  6.35546465e-01  7.37455562e-08  1.45964280e+00  7.37455562e-08  1.46754752e+00                                 
 1.06410076e-07  7.03741104e-01  1.06410076e-07  6.35530823e-01  1.06410076e-07  6.95616665e-01  1.06410076e-07  1.80000000e+00  1.06410076e-07  3.57056212e-03  1.06410076e-07  6.35804453e-01  1.06410076e-07  1.45997322e+00  1.06410076e-07  1.46756303e+00                                 
 1.37822892e-07  7.03725872e-01  1.37822892e-07  6.35501364e-01  1.37822892e-07  6.33276681e-01  1.37822892e-07  1.80000000e+00  1.37822892e-07 -3.54641515e-03  1.37822892e-07  6.35577935e-01  1.37822892e-07  1.45966955e+00  1.37822892e-07  1.46757761e+00                                 
 1.66428673e-07  7.03736569e-01  1.66428673e-07  6.35530170e-01  1.66428673e-07  6.36340744e-01  1.66428673e-07  1.80000000e+00  1.66428673e-07  3.56378034e-03  1.66428673e-07  6.35802821e-01  1.66428673e-07  1.45997007e+00  1.66428673e-07  1.46757948e+00                                 
 1.87045455e-07  7.03729055e-01  1.87045455e-07  6.35501745e-01  1.87045455e-07  6.35442955e-01  1.87045455e-07  1.80000000e+00  1.87045455e-07 -3.53454332e-03  1.87045455e-07  6.35570895e-01  1.87045455e-07  1.45966219e+00  1.87045455e-07  1.46757765e+00                                 
 2.09412520e-07  7.03736883e-01  2.09412520e-07  6.35530083e-01  2.09412520e-07  6.36261069e-01  2.09412520e-07  1.80000000e+00  2.09412520e-07  3.55041526e-03  2.09412520e-07  6.35804445e-01  2.09412520e-07  1.45996983e+00  2.09412520e-07  1.46757655e+00                                 
 2.54146650e-07  7.03728484e-01  2.54146650e-07  6.35501751e-01  2.54146650e-07  6.35554720e-01  2.54146650e-07  1.80000000e+00  2.54146650e-07 -3.52502058e-03  2.54146650e-07  6.35569951e-01  2.54146650e-07  1.45965940e+00  2.54146650e-07  1.46757493e+00                                 
 3.17434813e-07  7.03737239e-01  3.17434813e-07  6.35530095e-01  3.17434813e-07  6.36212202e-01  3.17434813e-07  1.80000000e+00  3.17434813e-07  3.54496641e-03  3.17434813e-07  6.35804850e-01  3.17434813e-07  1.45996668e+00  3.17434813e-07  1.46757283e+00                                 
 4.38822019e-07  7.03728256e-01  4.38822019e-07  6.35501741e-01  4.38822019e-07  6.35575206e-01  4.38822019e-07  1.80000000e+00  4.38822019e-07 -3.52159760e-03  4.38822019e-07  6.35569729e-01  4.38822019e-07  1.45965344e+00  4.38822019e-07  1.46756912e+00                                 
 6.75850776e-07  7.03737358e-01  6.75850776e-07  6.35530101e-01  6.75850776e-07  6.36198813e-01  6.75850776e-07  1.80000000e+00  6.75850776e-07  3.54318904e-03  6.75850776e-07  6.35804956e-01  6.75850776e-07  1.45995545e+00  6.75850776e-07  1.46756154e+00                                 
 1.10975821e-06  7.03728194e-01  1.10975821e-06  6.35501737e-01  1.10975821e-06  6.35580443e-01  1.10975821e-06  1.80000000e+00  1.10975821e-06 -3.52067540e-03  1.10975821e-06  6.35569677e-01  1.10975821e-06  1.45963227e+00  1.10975821e-06  1.46754801e+00                                 
 1.97757307e-06  7.03737390e-01  1.97757307e-06  6.35530103e-01  1.97757307e-06  6.36195161e-01  1.97757307e-06  1.80000000e+00  1.97757307e-06  3.54269601e-03  1.97757307e-06  6.35804982e-01  1.97757307e-06  1.45991443e+00  1.97757307e-06  1.46752056e+00                                 
 3.17757307e-06  7.03728175e-01  3.17757307e-06  6.35501736e-01  3.17757307e-06  6.35582372e-01  3.17757307e-06  1.80000000e+00  3.17757307e-06 -3.52040122e-03  3.17757307e-06  6.35569661e-01  3.17757307e-06  1.45956705e+00  3.17757307e-06  1.46748289e+00                                 
 4.37757307e-06  7.03737406e-01  4.37757307e-06  6.35530103e-01  4.37757307e-06  6.36193228e-01  4.37757307e-06  1.80000000e+00  4.37757307e-06  3.54245887e-03  4.37757307e-06  6.35804995e-01  4.37757307e-06  1.45983882e+00  4.37757307e-06  1.46744503e+00                                 
 5.57757307e-06  7.03728159e-01  5.57757307e-06  6.35501736e-01  5.57757307e-06  6.35583786e-01  5.57757307e-06  1.80000000e+00  5.57757307e-06 -3.52016868e-03  5.57757307e-06  6.35569648e-01  5.57757307e-06  1.45949152e+00  5.57757307e-06  1.46740745e+00                                 
 6.00100000e-06  7.03737436e-01  6.00100000e-06  6.35530105e-01  6.00100000e-06  6.36190005e-01  6.00100000e-06  1.80000000e+00  6.00100000e-06  3.54200331e-03  6.00100000e-06  6.35805020e-01  6.00100000e-06  1.45978774e+00  6.00100000e-06  1.46739399e+00                                 
 6.00110000e-06  7.03682246e-01  6.00110000e-06  6.35278072e-01  6.00110000e-06  6.34339764e-01  6.00110000e-06  1.62000000e+00  6.00110000e-06  2.28534436e-04  6.00110000e-06  6.34155472e-01  6.00110000e-06  1.45832803e+00  6.00110000e-06  1.46738341e+00                                 
 6.00130000e-06  7.03715337e-01  6.00130000e-06  6.35272073e-01  6.00130000e-06  6.34288474e-01  6.00130000e-06  1.26000000e+00  6.00130000e-06 -2.60377092e-04  6.00130000e-06  6.33853660e-01  6.00130000e-06  1.45806374e+00  6.00130000e-06  1.46739889e+00                                 
 6.00165192e-06  7.03783235e-01  6.00165192e-06  6.35467854e-01  6.00165192e-06  6.36224554e-01  6.00165192e-06  6.26549181e-01  6.00165192e-06  1.20799283e-02  6.00165192e-06  6.34088077e-01  6.00165192e-06  1.45484328e+00  6.00165192e-06  1.46737466e+00                                 
 6.00200000e-06  7.03715868e-01  6.00200000e-06  6.34126940e-01  6.00200000e-06  6.68698383e-01  6.00200000e-06  0.00000000e+00  6.00200000e-06  1.60727907e+00  6.00200000e-06  6.20047211e-01  6.00200000e-06  1.25322568e+00  6.00200000e-06  1.46680065e+00                                 
 6.00204182e-06  7.03732214e-01  6.00204182e-06  6.33572947e-01  6.00204182e-06  6.76093983e-01  6.00204182e-06  0.00000000e+00  6.00204182e-06  1.72566351e+00  6.00204182e-06  6.13759398e-01  6.00204182e-06  1.18708505e+00  6.00204182e-06  1.46679773e+00                                 
 6.00212546e-06  7.03734825e-01  6.00212546e-06  6.32664148e-01  6.00212546e-06  6.81578120e-01  6.00212546e-06  0.00000000e+00  6.00212546e-06  1.81323939e+00  6.00212546e-06  6.03615492e-01  6.00212546e-06  1.05243268e+00  6.00212546e-06  1.46718661e+00                                 
 6.00229274e-06  7.03730341e-01  6.00229274e-06  6.32628380e-01  6.00229274e-06  6.71607120e-01  6.00229274e-06  0.00000000e+00  6.00229274e-06  1.78925920e+00  6.00229274e-06  6.03814524e-01  6.00229274e-06  8.44201838e-01  6.00229274e-06  1.46767023e+00                                 
 6.00245996e-06  7.03733006e-01  6.00245996e-06  6.33557949e-01  6.00245996e-06  6.59397794e-01  6.00245996e-06  0.00000000e+00  6.00245996e-06  1.80413085e+00  6.00245996e-06  6.14094676e-01  6.00245996e-06  7.30709427e-01  6.00245996e-06  1.46770520e+00                                 
 6.00263865e-06  7.03729969e-01  6.00263865e-06  6.34494084e-01  6.00263865e-06  6.47322927e-01  6.00263865e-06  0.00000000e+00  6.00263865e-06  1.79703829e+00  6.00263865e-06  6.23317147e-01  6.00263865e-06  6.72419837e-01  6.00263865e-06  1.46785131e+00                                 
 6.00285692e-06  7.03732871e-01  6.00285692e-06  6.35359641e-01  6.00285692e-06  6.40250579e-01  6.00285692e-06  0.00000000e+00  6.00285692e-06  1.80190006e+00  6.00285692e-06  6.31423616e-01  6.00285692e-06  6.48367412e-01  6.00285692e-06  1.46731752e+00                                 
 6.00307251e-06  7.03730540e-01  6.00307251e-06  6.35699467e-01  6.00307251e-06  6.37805249e-01  6.00307251e-06  0.00000000e+00  6.00307251e-06  1.79888229e+00  6.00307251e-06  6.33977945e-01  6.00307251e-06  6.40178266e-01  6.00307251e-06  1.46651105e+00                                 
 6.00333150e-06  7.03733122e-01  6.00333150e-06  6.35930647e-01  6.00333150e-06  6.37007049e-01  6.00333150e-06  0.00000000e+00  6.00333150e-06  1.80082722e+00  6.00333150e-06  6.35979341e-01  6.00333150e-06  6.37933483e-01  6.00333150e-06  1.46512410e+00                                 
 6.00371313e-06  7.03731217e-01  6.00371313e-06  6.35968967e-01  6.00371313e-06  6.37487924e-01  6.00371313e-06  0.00000000e+00  6.00371313e-06  1.79939464e+00  6.00371313e-06  6.36326299e-01  6.00371313e-06  6.37164492e-01  6.00371313e-06  1.46291215e+00                                 
 6.00433063e-06  7.03733521e-01  6.00433063e-06  6.35974368e-01  6.00433063e-06  6.38918500e-01  6.00433063e-06  0.00000000e+00  6.00433063e-06  1.80054447e+00  6.00433063e-06  6.36952992e-01  6.00433063e-06  6.38863458e-01  6.00433063e-06  1.45888675e+00                                 
 6.00535331e-06  7.03731695e-01  6.00535331e-06  6.35875014e-01  6.00535331e-06  6.41940273e-01  6.00535331e-06  0.00000000e+00  6.00535331e-06  1.79953080e+00  6.00535331e-06  6.36768807e-01  6.00535331e-06  6.41436754e-01  6.00535331e-06  1.45189479e+00                                 
 6.00737091e-06  7.03733730e-01  6.00737091e-06  6.35761550e-01  6.00737091e-06  6.47834538e-01  6.00737091e-06  0.00000000e+00  6.00737091e-06  1.80047210e+00  6.00737091e-06  6.37048201e-01  6.00737091e-06  6.47702254e-01  6.00737091e-06  1.43728320e+00                                 
 6.01140610e-06  7.03731820e-01  6.01140610e-06  6.35552113e-01  6.01140610e-06  6.59837163e-01  6.01140610e-06  0.00000000e+00  6.01140610e-06  1.79956349e+00  6.01140610e-06  6.36537232e-01  6.01140610e-06  6.59289340e-01  6.01140610e-06  1.40694162e+00                                 
 6.01947647e-06  7.03733745e-01  6.01947647e-06  6.35498864e-01  6.01947647e-06  6.82783201e-01  6.01947647e-06  0.00000000e+00  6.01947647e-06  1.80045496e+00  6.01947647e-06  6.36434596e-01  6.01947647e-06  6.82627211e-01  6.01947647e-06  1.34427563e+00                                 
 6.03200336e-06  7.03731826e-01  6.03200336e-06  6.35499038e-01  6.03200336e-06  7.16897967e-01  6.03200336e-06  0.00000000e+00  6.03200336e-06  1.79957126e+00  6.03200336e-06  6.35795455e-01  6.03200336e-06  7.16268710e-01  6.03200336e-06  1.24859219e+00                                 
 6.04684553e-06  7.03733744e-01  6.04684553e-06  6.35522437e-01  6.04684553e-06  7.54387773e-01  6.04684553e-06  0.00000000e+00  6.04684553e-06  1.80044720e+00  6.04684553e-06  6.35910625e-01  6.04684553e-06  7.54236833e-01  6.04684553e-06  1.14665054e+00                                 
 6.06841424e-06  7.03731830e-01  6.06841424e-06  6.35504999e-01  6.06841424e-06  8.04273410e-01  6.06841424e-06  0.00000000e+00  6.06841424e-06  1.79957393e+00  6.06841424e-06  6.35550782e-01  6.06841424e-06  8.03401058e-01  6.06841424e-06  1.01710464e+00                                 
 6.10219441e-06  7.03733743e-01  6.10219441e-06  6.35526682e-01  6.10219441e-06  8.71586626e-01  6.10219441e-06  0.00000000e+00  6.10219441e-06  1.80044103e+00  6.10219441e-06  6.35818613e-01  6.10219441e-06  8.71459601e-01  6.10219441e-06  9.00405154e-01                                 
 6.14038459e-06  7.03731832e-01  6.14038459e-06  6.35504988e-01  6.14038459e-06  9.34222765e-01  6.14038459e-06  0.00000000e+00  6.14038459e-06  1.79957261e+00  6.14038459e-06  6.35535731e-01  6.14038459e-06  9.32818109e-01  6.14038459e-06  9.05988968e-01                                 
 6.16570723e-06  7.03733741e-01  6.16570723e-06  6.35527228e-01  6.16570723e-06  9.68546714e-01  6.16570723e-06  0.00000000e+00  6.16570723e-06  1.80043585e+00  6.16570723e-06  6.35824520e-01  6.16570723e-06  9.68633718e-01  6.16570723e-06  9.44098692e-01                                 
