 time            v(vbep)         time            v(vben)         time            v(vout)         time            v(vphi1)        time            v(vphi2)        time            v(vref)         time            v(voutc)        time            v(voutcc)       yes             currtemp       
 0.00000000e+00  7.22104781e-01  0.00000000e+00  6.56510626e-01  0.00000000e+00  1.50344515e+00  0.00000000e+00  0.00000000e+00  0.00000000e+00  1.79999999e+00  0.00000000e+00  6.57389811e-01  0.00000000e+00  1.50344514e+00  0.00000000e+00  1.51082491e+00  1.00000000e+00  6.10000000e+01 
 1.00000000e-11  7.22129887e-01  1.00000000e-11  6.56583039e-01  1.00000000e-11  1.50421188e+00  1.00000000e-11  1.80000000e-02  1.00000000e-11  1.80025364e+00  1.00000000e-11  6.57924140e-01  1.00000000e-11  1.50391687e+00  1.00000000e-11  1.51083783e+00                                 
 2.00000000e-11  7.22136723e-01  2.00000000e-11  6.56627912e-01  2.00000000e-11  1.50467306e+00  2.00000000e-11  3.60000000e-02  2.00000000e-11  1.80035299e+00  2.00000000e-11  6.58319328e-01  2.00000000e-11  1.50427117e+00  2.00000000e-11  1.51084228e+00                                 
 4.00000000e-11  7.22136719e-01  4.00000000e-11  6.56686618e-01  4.00000000e-11  1.50521607e+00  4.00000000e-11  7.20000000e-02  4.00000000e-11  1.80038946e+00  4.00000000e-11  6.58896733e-01  4.00000000e-11  1.50479644e+00  4.00000000e-11  1.51084307e+00                                 
 8.00000000e-11  7.22125119e-01  8.00000000e-11  6.56723557e-01  8.00000000e-11  1.50529730e+00  8.00000000e-11  1.44000000e-01  8.00000000e-11  1.80018395e+00  8.00000000e-11  6.59346140e-01  8.00000000e-11  1.50521701e+00  8.00000000e-11  1.51083248e+00                                 
 1.60000000e-10  7.22122386e-01  1.60000000e-10  6.56733501e-01  1.60000000e-10  1.50495996e+00  1.60000000e-10  2.88000000e-01  1.60000000e-10  1.80000574e+00  1.60000000e-10  6.59439101e-01  1.60000000e-10  1.50526118e+00  1.60000000e-10  1.51082326e+00                                 
 3.20000000e-10  7.22117821e-01  3.20000000e-10  6.56724630e-01  3.20000000e-10  1.50457376e+00  3.20000000e-10  5.76000000e-01  3.20000000e-10  1.79998207e+00  3.20000000e-10  6.59274321e-01  3.20000000e-10  1.50491342e+00  3.20000000e-10  1.51081817e+00                                 
 6.40000000e-10  7.22034704e-01  6.40000000e-10  6.56300705e-01  6.40000000e-10  1.50285208e+00  6.40000000e-10  1.15200000e+00  6.40000000e-10  1.80988697e+00  6.40000000e-10  6.56526352e-01  6.40000000e-10  1.50874235e+00  6.40000000e-10  1.51084350e+00                                 
 1.00000000e-09  7.22614866e-01  1.00000000e-09  6.56678932e-01  1.00000000e-09  1.48181449e+00  1.00000000e-09  1.80000000e+00  1.00000000e-09  1.02569653e-01  1.00000000e-09  6.71831843e-01  1.00000000e-09  1.51348515e+00  1.00000000e-09  1.51084073e+00                                 
 1.03712252e-09  7.22685369e-01  1.03712252e-09  6.56693424e-01  1.03712252e-09  1.48040807e+00  1.03712252e-09  1.80000000e+00  1.03712252e-09  2.39965484e-02  1.03712252e-09  6.75045135e-01  1.03712252e-09  1.51527134e+00  1.03712252e-09  1.51086666e+00                                 
 1.11136756e-09  7.22850636e-01  1.11136756e-09  6.56734010e-01  1.11136756e-09  1.47860667e+00  1.11136756e-09  1.80000000e+00  1.11136756e-09 -1.12392273e-02  1.11136756e-09  6.79129505e-01  1.11136756e-09  1.51844562e+00  1.11136756e-09  1.51088269e+00                                 
 1.25985764e-09  7.22983387e-01  1.25985764e-09  6.56587321e-01  1.25985764e-09  1.47548450e+00  1.25985764e-09  1.80000000e+00  1.25985764e-09  8.95188660e-03  1.25985764e-09  6.79178673e-01  1.25985764e-09  1.51877176e+00  1.25985764e-09  1.51083469e+00                                 
 1.44688643e-09  7.22955253e-01  1.44688643e-09  6.56569985e-01  1.44688643e-09  1.47461747e+00  1.44688643e-09  1.80000000e+00  1.44688643e-09 -6.83295887e-03  1.44688643e-09  6.78250755e-01  1.44688643e-09  1.51776382e+00  1.44688643e-09  1.51087104e+00                                 
 1.65659984e-09  7.22854361e-01  1.65659984e-09  6.56567398e-01  1.65659984e-09  1.47433033e+00  1.65659984e-09  1.80000000e+00  1.65659984e-09  5.67149062e-03  1.65659984e-09  6.76654692e-01  1.65659984e-09  1.51658741e+00  1.65659984e-09  1.51090033e+00                                 
 2.00593877e-09  7.22605320e-01  2.00593877e-09  6.56522793e-01  2.00593877e-09  1.47396662e+00  2.00593877e-09  1.80000000e+00  2.00593877e-09 -5.05738300e-03  2.00593877e-09  6.73978292e-01  2.00593877e-09  1.51413966e+00  2.00593877e-09  1.51102290e+00                                 
 2.51581211e-09  7.22331501e-01  2.51581211e-09  6.56526227e-01  2.51581211e-09  1.47374976e+00  2.51581211e-09  1.80000000e+00  2.51581211e-09  4.58940123e-03  2.51581211e-09  6.70714714e-01  2.51581211e-09  1.51149275e+00  2.51581211e-09  1.51120038e+00                                 
 3.24862536e-09  7.22077965e-01  3.24862536e-09  6.56479586e-01  3.24862536e-09  1.47257883e+00  3.24862536e-09  1.80000000e+00  3.24862536e-09 -4.40646391e-03  3.24862536e-09  6.66372899e-01  3.24862536e-09  1.50764466e+00  3.24862536e-09  1.51145292e+00                                 
 4.40807008e-09  7.21934510e-01  4.40807008e-09  6.56496209e-01  4.40807008e-09  1.47052466e+00  4.40807008e-09  1.80000000e+00  4.40807008e-09  4.20451482e-03  4.40807008e-09  6.61811159e-01  4.40807008e-09  1.50388117e+00  4.40807008e-09  1.51170686e+00                                 
 6.04231262e-09  7.21884784e-01  6.04231262e-09  6.56470234e-01  6.04231262e-09  1.46569423e+00  6.04231262e-09  1.80000000e+00  6.04231262e-09 -4.12841386e-03  6.04231262e-09  6.57719314e-01  6.04231262e-09  1.50026859e+00  6.04231262e-09  1.51179472e+00                                 
 7.47554385e-09  7.21924726e-01  7.47554385e-09  6.56505393e-01  7.47554385e-09  1.46044241e+00  7.47554385e-09  1.80000000e+00  7.47554385e-09  3.99823775e-03  7.47554385e-09  6.56307163e-01  7.47554385e-09  1.49919116e+00  7.47554385e-09  1.51165951e+00                                 
 9.04829862e-09  7.21961210e-01  9.04829862e-09  6.56483176e-01  9.04829862e-09  1.45279806e+00  9.04829862e-09  1.80000000e+00  9.04829862e-09 -3.90393657e-03  9.04829862e-09  6.55266962e-01  9.04829862e-09  1.49818097e+00  9.04829862e-09  1.51140485e+00                                 
 1.04826738e-08  7.22014325e-01  1.04826738e-08  6.56516749e-01  1.04826738e-08  1.44522866e+00  1.04826738e-08  1.80000000e+00  1.04826738e-08  3.79137766e-03  1.04826738e-08  6.55231956e-01  1.04826738e-08  1.49826240e+00  1.04826738e-08  1.51112284e+00                                 
 1.26562109e-08  7.22052307e-01  1.26562109e-08  6.56492243e-01  1.26562109e-08  1.43189473e+00  1.26562109e-08  1.80000000e+00  1.26562109e-08 -3.72291252e-03  1.26562109e-08  6.54974962e-01  1.26562109e-08  1.49791304e+00  1.26562109e-08  1.51069229e+00                                 
 1.50637054e-08  7.22096257e-01  1.50637054e-08  6.56523826e-01  1.50637054e-08  1.41642339e+00  1.50637054e-08  1.80000000e+00  1.50637054e-08  3.66118821e-03  1.50637054e-08  6.55409451e-01  1.50637054e-08  1.49837870e+00  1.50637054e-08  1.51023931e+00                                 
 1.87108833e-08  7.22107558e-01  1.87108833e-08  6.56496375e-01  1.87108833e-08  1.39123120e+00  1.87108833e-08  1.80000000e+00  1.87108833e-08 -3.61990455e-03  1.87108833e-08  6.55551921e-01  1.87108833e-08  1.49836259e+00  1.87108833e-08  1.50965047e+00                                 
 2.32149731e-08  7.22123874e-01  2.32149731e-08  6.56525977e-01  2.32149731e-08  1.35977178e+00  2.32149731e-08  1.80000000e+00  2.32149731e-08  3.58891407e-03  2.32149731e-08  6.56210598e-01  2.32149731e-08  1.49901127e+00  2.32149731e-08  1.50907106e+00                                 
 3.12875083e-08  7.22109601e-01  3.12875083e-08  6.56496967e-01  3.12875083e-08  1.30216053e+00  3.12875083e-08  1.80000000e+00  3.12875083e-08 -3.56985382e-03  3.12875083e-08  6.56498937e-01  3.12875083e-08  1.49912007e+00  3.12875083e-08  1.50835495e+00                                 
 4.40075162e-08  7.22114235e-01  4.40075162e-08  6.56525609e-01  4.40075162e-08  1.21185667e+00  4.40075162e-08  1.80000000e+00  4.40075162e-08  3.55964218e-03  4.40075162e-08  6.57182599e-01  4.40075162e-08  1.49979536e+00  4.40075162e-08  1.50774647e+00                                 
 6.94475321e-08  7.22099760e-01  6.94475321e-08  6.56496132e-01  6.94475321e-08  1.03187930e+00  6.94475321e-08  1.80000000e+00  6.94475321e-08 -3.55264002e-03  6.94475321e-08  6.57234930e-01  6.94475321e-08  1.49972260e+00  6.94475321e-08  1.50734188e+00                                 
 1.00955240e-07  7.22109126e-01  1.00955240e-07  6.56525068e-01  1.00955240e-07  8.17062857e-01  1.00955240e-07  1.80000000e+00  1.00955240e-07  3.55130760e-03  1.00955240e-07  6.57505671e-01  1.00955240e-07  1.50006298e+00  1.00955240e-07  1.50729086e+00                                 
 1.30085659e-07  7.22104381e-01  1.30085659e-07  6.56496304e-01  1.30085659e-07  6.87884207e-01  1.30085659e-07  1.80000000e+00  1.30085659e-07 -3.53651665e-03  1.30085659e-07  6.57271456e-01  1.30085659e-07  1.49975257e+00  1.30085659e-07  1.50729227e+00                                 
 1.54130186e-07  7.22104117e-01  1.54130186e-07  6.56525116e-01  1.54130186e-07  6.61418361e-01  1.54130186e-07  1.80000000e+00  1.54130186e-07  3.54622497e-03  1.54130186e-07  6.57515914e-01  1.54130186e-07  1.50006972e+00  1.54130186e-07  1.50729353e+00                                 
 1.73499095e-07  7.22102626e-01  1.73499095e-07  6.56495902e-01  1.73499095e-07  6.58897626e-01  1.73499095e-07  1.80000000e+00  1.73499095e-07 -3.52235042e-03  1.73499095e-07  6.57268705e-01  1.73499095e-07  1.49974907e+00  1.73499095e-07  1.50729452e+00                                 
 1.94171721e-07  7.22107014e-01  1.94171721e-07  6.56525329e-01  1.94171721e-07  6.58456185e-01  1.94171721e-07  1.80000000e+00  1.94171721e-07  3.53256929e-03  1.94171721e-07  6.57511774e-01  1.94171721e-07  1.50006464e+00  1.94171721e-07  1.50729202e+00                                 
 2.22715210e-07  7.22101985e-01  2.22715210e-07  6.56495906e-01  2.22715210e-07  6.58246722e-01  2.22715210e-07  1.80000000e+00  2.22715210e-07 -3.51090529e-03  2.22715210e-07  6.57268252e-01  2.22715210e-07  1.49974718e+00  2.22715210e-07  1.50729137e+00                                 
 2.79802186e-07  7.22107772e-01  2.79802186e-07  6.56525330e-01  2.79802186e-07  6.58337748e-01  2.79802186e-07  1.80000000e+00  2.79802186e-07  3.52535504e-03  2.79802186e-07  6.57511286e-01  2.79802186e-07  1.50006128e+00  2.79802186e-07  1.50728812e+00                                 
 3.93976139e-07  7.22101696e-01  3.93976139e-07  6.56495914e-01  3.93976139e-07  6.58239841e-01  3.93976139e-07  1.80000000e+00  3.93976139e-07 -3.50731113e-03  3.93976139e-07  6.57268311e-01  3.93976139e-07  1.49974169e+00  3.93976139e-07  1.50728530e+00                                 
 6.18063179e-07  7.22107915e-01  6.18063179e-07  6.56525326e-01  6.18063179e-07  6.58340129e-01  6.18063179e-07  1.80000000e+00  6.18063179e-07  3.52354177e-03  6.18063179e-07  6.57511258e-01  6.18063179e-07  1.50005019e+00  6.18063179e-07  1.50727711e+00                                 
 1.06623726e-06  7.22101625e-01  1.06623726e-06  6.56495916e-01  1.06623726e-06  6.58238696e-01  1.06623726e-06  1.80000000e+00  1.06623726e-06 -3.50639950e-03  1.06623726e-06  6.57268324e-01  1.06623726e-06  1.49971976e+00  1.06623726e-06  1.50726337e+00                                 
 1.96258542e-06  7.22107949e-01  1.96258542e-06  6.56525325e-01  1.96258542e-06  6.58340666e-01  1.96258542e-06  1.80000000e+00  1.96258542e-06  3.52308287e-03  1.96258542e-06  6.57511251e-01  1.96258542e-06  1.50000627e+00  1.96258542e-06  1.50723326e+00                                 
 3.16258542e-06  7.22101605e-01  3.16258542e-06  6.56495917e-01  3.16258542e-06  6.58238375e-01  3.16258542e-06  1.80000000e+00  3.16258542e-06 -3.50614692e-03  3.16258542e-06  6.57268328e-01  3.16258542e-06  1.49965131e+00  3.16258542e-06  1.50719500e+00                                 
 4.36258542e-06  7.22107967e-01  4.36258542e-06  6.56525324e-01  4.36258542e-06  6.58340922e-01  4.36258542e-06  1.80000000e+00  4.36258542e-06  3.52285517e-03  4.36258542e-06  6.57511249e-01  4.36258542e-06  1.49992791e+00  4.36258542e-06  1.50715501e+00                                 
 5.56258542e-06  7.22101588e-01  5.56258542e-06  6.56495917e-01  5.56258542e-06  6.58238108e-01  5.56258542e-06  1.80000000e+00  5.56258542e-06 -3.50592339e-03  5.56258542e-06  6.57268331e-01  5.56258542e-06  1.49957296e+00  5.56258542e-06  1.50711674e+00                                 
 6.00100000e-06  7.22107998e-01  6.00100000e-06  6.56525323e-01  6.00100000e-06  6.58341399e-01  6.00100000e-06  1.80000000e+00  6.00100000e-06  3.52242835e-03  6.00100000e-06  6.57511243e-01  6.00100000e-06  1.49987439e+00  6.00100000e-06  1.50710157e+00                                 
 6.00110000e-06  7.22055106e-01  6.00110000e-06  6.56273041e-01  6.00110000e-06  6.56484261e-01  6.00110000e-06  1.62000000e+00  6.00110000e-06  2.13623478e-04  6.00110000e-06  6.55834843e-01  6.00110000e-06  1.49839208e+00  6.00110000e-06  1.50709085e+00                                 
 6.00130000e-06  7.22087888e-01  6.00130000e-06  6.56269644e-01  6.00130000e-06  6.56566191e-01  6.00130000e-06  1.26000000e+00  6.00130000e-06 -2.47835899e-04  6.00130000e-06  6.55589908e-01  6.00130000e-06  1.49817665e+00  6.00130000e-06  1.50710708e+00                                 
 6.00165527e-06  7.22152851e-01  6.00165527e-06  6.56467222e-01  6.00165527e-06  6.58565599e-01  6.00165527e-06  6.20520110e-01  6.00165527e-06  5.30047334e-03  6.00165527e-06  6.55916649e-01  6.00165527e-06  1.49515101e+00  6.00165527e-06  1.50708341e+00                                 
 6.00200000e-06  7.22090068e-01  6.00200000e-06  6.55044141e-01  6.00200000e-06  6.91006116e-01  6.00200000e-06  0.00000000e+00  6.00200000e-06  1.60252469e+00  6.00200000e-06  6.40902823e-01  6.00200000e-06  1.29972651e+00  6.00200000e-06  1.50650390e+00                                 
 6.00204111e-06  7.22105592e-01  6.00204111e-06  6.54567354e-01  6.00204111e-06  6.97832572e-01  6.00204111e-06  0.00000000e+00  6.00204111e-06  1.72310478e+00  6.00204111e-06  6.35491023e-01  6.00204111e-06  1.23714938e+00  6.00204111e-06  1.50651373e+00                                 
 6.00212334e-06  7.22106850e-01  6.00212334e-06  6.53734133e-01  6.00212334e-06  7.02839981e-01  6.00212334e-06  0.00000000e+00  6.00212334e-06  1.81321904e+00  6.00212334e-06  6.26265157e-01  6.00212334e-06  1.10832712e+00  6.00212334e-06  1.50689019e+00                                 
 6.00228779e-06  7.22102430e-01  6.00228779e-06  6.53617758e-01  6.00228779e-06  6.93727010e-01  6.00228779e-06  0.00000000e+00  6.00228779e-06  1.78949712e+00  6.00228779e-06  6.25752323e-01  6.00228779e-06  9.04386609e-01  6.00228779e-06  1.50736632e+00                                 
 6.00244640e-06  7.22105011e-01  6.00244640e-06  6.54303770e-01  6.00244640e-06  6.84914733e-01  6.00244640e-06  0.00000000e+00  6.00244640e-06  1.80378445e+00  6.00244640e-06  6.33518605e-01  6.00244640e-06  7.85204872e-01  6.00244640e-06  1.50734880e+00                                 
 6.00262953e-06  7.22101798e-01  6.00262953e-06  6.55205573e-01  6.00262953e-06  6.72654233e-01  6.00262953e-06  0.00000000e+00  6.00262953e-06  1.79687760e+00  6.00262953e-06  6.42502735e-01  6.00262953e-06  7.08897689e-01  6.00262953e-06  1.50755471e+00                                 
 6.00285448e-06  7.22104867e-01  6.00285448e-06  6.56198735e-01  6.00285448e-06  6.63612289e-01  6.00285448e-06  0.00000000e+00  6.00285448e-06  1.80188976e+00  6.00285448e-06  6.51927670e-01  6.00285448e-06  6.75128715e-01  6.00285448e-06  1.50726301e+00                                 
 6.00308558e-06  7.22102319e-01  6.00308558e-06  6.56633021e-01  6.00308558e-06  6.60582960e-01  6.00308558e-06  0.00000000e+00  6.00308558e-06  1.79884731e+00  6.00308558e-06  6.55168029e-01  6.00308558e-06  6.63566980e-01  6.00308558e-06  1.50665642e+00                                 
 6.00332959e-06  7.22105133e-01  6.00332959e-06  6.56907638e-01  6.00332959e-06  6.59271723e-01  6.00332959e-06  0.00000000e+00  6.00332959e-06  1.80082960e+00  6.00332959e-06  6.57460841e-01  6.00332959e-06  6.60751786e-01  6.00332959e-06  1.50560460e+00                                 
 6.00368591e-06  7.22103035e-01  6.00368591e-06  6.56971875e-01  6.00368591e-06  6.59705624e-01  6.00368591e-06  0.00000000e+00  6.00368591e-06  1.79941083e+00  6.00368591e-06  6.57880526e-01  6.00368591e-06  6.59340548e-01  6.00368591e-06  1.50389758e+00                                 
 6.00423741e-06  7.22105539e-01  6.00423741e-06  6.57001648e-01  6.00423741e-06  6.60608222e-01  6.00423741e-06  0.00000000e+00  6.00423741e-06  1.80051890e+00  6.00423741e-06  6.58655400e-01  6.00423741e-06  6.60700559e-01  6.00423741e-06  1.50083405e+00                                 
 6.00518635e-06  7.22103578e-01  6.00518635e-06  6.56902278e-01  6.00518635e-06  6.63469512e-01  6.00518635e-06  0.00000000e+00  6.00518635e-06  1.79955879e+00  6.00518635e-06  6.58456001e-01  6.00518635e-06  6.62832809e-01  6.00518635e-06  1.49523424e+00                                 
 6.00685562e-06  7.22105783e-01  6.00685562e-06  6.56811966e-01  6.00685562e-06  6.67994991e-01  6.00685562e-06  0.00000000e+00  6.00685562e-06  1.80043970e+00  6.00685562e-06  6.58844144e-01  6.00685562e-06  6.67978025e-01  6.00685562e-06  1.48471493e+00                                 
 6.01019417e-06  7.22103735e-01  6.01019417e-06  6.56597071e-01  6.01019417e-06  6.77978279e-01  6.01019417e-06  0.00000000e+00  6.01019417e-06  1.79959739e+00  6.01019417e-06  6.58334391e-01  6.01019417e-06  6.77288161e-01  6.01019417e-06  1.46286512e+00                                 
 6.01687126e-06  7.22105814e-01  6.01687126e-06  6.56499076e-01  6.01687126e-06  6.96630873e-01  6.01687126e-06  0.00000000e+00  6.01687126e-06  1.80041985e+00  6.01687126e-06  6.58311147e-01  6.01687126e-06  6.96602361e-01  6.01687126e-06  1.41757210e+00                                 
 6.03022545e-06  7.22103746e-01  6.03022545e-06  6.56486656e-01  6.03022545e-06  7.33013749e-01  6.03022545e-06  0.00000000e+00  6.03022545e-06  1.79960577e+00  6.03022545e-06  6.57522176e-01  6.03022545e-06  7.32208683e-01  6.03022545e-06  1.33136290e+00                                 
 6.04448189e-06  7.22105812e-01  6.04448189e-06  6.56519873e-01  6.04448189e-06  7.68758220e-01  6.04448189e-06  0.00000000e+00  6.04448189e-06  1.80041255e+00  6.04448189e-06  6.57660849e-01  6.04448189e-06  7.68772691e-01  6.04448189e-06  1.24885788e+00                                 
 6.07299477e-06  7.22103751e-01  6.07299477e-06  6.56497030e-01  6.07299477e-06  8.33917725e-01  6.07299477e-06  0.00000000e+00  6.07299477e-06  1.79960757e+00  6.07299477e-06  6.57216460e-01  6.07299477e-06  8.32663182e-01  6.07299477e-06  1.10454179e+00                                 
 6.11263976e-06  7.22105811e-01  6.11263976e-06  6.56524254e-01  6.11263976e-06  9.09456617e-01  6.11263976e-06  0.00000000e+00  6.11263976e-06  1.80040664e+00  6.11263976e-06  6.57547808e-01  6.11263976e-06  9.09704335e-01  6.11263976e-06  9.70817023e-01                                 
 6.18765754e-06  7.22103753e-01  6.18765754e-06  6.56496962e-01  6.18765754e-06  1.01624466e+00  6.18765754e-06  0.00000000e+00  6.18765754e-06  1.79960401e+00  6.18765754e-06  6.57213665e-01  6.18765754e-06  1.01379312e+00  6.18765754e-06  9.67232456e-01                                 
 6.23642076e-06  7.22105810e-01  6.23642076e-06  6.56524454e-01  6.23642076e-06  1.06408597e+00  6.23642076e-06  0.00000000e+00  6.23642076e-06  1.80040160e+00  6.23642076e-06  6.57556393e-01  6.23642076e-06  1.06502886e+00  6.23642076e-06  1.04415667e+00                                 
