 time            v(vbep)         time            v(vben)         time            v(vout)         time            v(vphi1)        time            v(vphi2)        time            v(vref)         yes             currtemp       
 0.00000000e+00  7.44029214e-01  0.00000000e+00  6.94252776e-01  0.00000000e+00  1.06718904e+00  0.00000000e+00  0.00000000e+00  0.00000000e+00  1.79994568e+00  0.00000000e+00  6.94252776e-01  1.00000000e+00 -1.00000000e+00 
 5.00000000e-12  7.43997713e-01  5.00000000e-12  6.94226750e-01  5.00000000e-12  1.06792731e+00  5.00000000e-12  1.80000000e-02  5.00000000e-12  1.80006867e+00  5.00000000e-12  6.94226750e-01                                 
 1.00000000e-11  7.43967265e-01  1.00000000e-11  6.94201474e-01  1.00000000e-11  1.06860714e+00  1.00000000e-11  3.60000000e-02  1.00000000e-11  1.80014296e+00  1.00000000e-11  6.94201474e-01                                 
 2.00000000e-11  7.43907051e-01  2.00000000e-11  6.94151145e-01  2.00000000e-11  1.06987496e+00  2.00000000e-11  7.20000000e-02  2.00000000e-11  1.80022838e+00  2.00000000e-11  6.94151145e-01                                 
 4.00000000e-11  7.43787796e-01  4.00000000e-11  6.94050945e-01  4.00000000e-11  1.07198704e+00  4.00000000e-11  1.44000000e-01  4.00000000e-11  1.80023001e+00  4.00000000e-11  6.94050945e-01                                 
 8.00000000e-11  7.43550648e-01  8.00000000e-11  6.93851612e-01  8.00000000e-11  1.07496644e+00  8.00000000e-11  2.88000000e-01  8.00000000e-11  1.80014537e+00  8.00000000e-11  6.93851612e-01                                 
 1.60000000e-10  7.43082348e-01  1.60000000e-10  6.93457216e-01  1.60000000e-10  1.07776247e+00  1.60000000e-10  5.76000000e-01  1.60000000e-10  1.80003689e+00  1.60000000e-10  6.93457216e-01                                 
 3.20000000e-10  7.42168166e-01  3.20000000e-10  6.92684842e-01  3.20000000e-10  1.06814295e+00  3.20000000e-10  1.15200000e+00  3.20000000e-10  1.80027401e+00  3.20000000e-10  6.92684842e-01                                 
 5.00000000e-10  7.41174060e-01  5.00000000e-10  6.91841045e-01  5.00000000e-10  1.14880851e+00  5.00000000e-10  1.80000000e+00  5.00000000e-10  1.28621615e-01  5.00000000e-10  6.91841045e-01                                 
 5.20627990e-10  7.41062614e-01  5.20627990e-10  6.91746181e-01  5.20627990e-10  1.17052365e+00  5.20627990e-10  1.80000000e+00  5.20627990e-10  2.97870329e-02  5.20627990e-10  6.91746181e-01                                 
 5.61883971e-10  7.40840585e-01  5.61883971e-10  6.91557072e-01  5.61883971e-10  1.21387213e+00  5.61883971e-10  1.80000000e+00  5.61883971e-10 -1.19028783e-02  5.61883971e-10  6.91557072e-01                                 
 6.44395933e-10  7.40401743e-01  6.44395933e-10  6.91182724e-01  6.44395933e-10  1.29271881e+00  6.44395933e-10  1.80000000e+00  6.44395933e-10  1.02877355e-02  6.44395933e-10  6.91182724e-01                                 
 7.64451025e-10  7.39775315e-01  7.64451025e-10  6.90647034e-01  7.64451025e-10  1.39538567e+00  7.64451025e-10  1.80000000e+00  7.64451025e-10 -8.10827189e-03  7.64451025e-10  6.90647034e-01                                 
 9.43995898e-10  7.38863995e-01  9.43995898e-10  6.89864975e-01  9.43995898e-10  1.52328397e+00  9.43995898e-10  1.80000000e+00  9.43995898e-10  8.04502943e-03  9.43995898e-10  6.89864975e-01                                 
 1.30308564e-09  7.37125939e-01  1.30308564e-09  6.88364674e-01  1.30308564e-09  1.69199989e+00  1.30308564e-09  1.80000000e+00  1.30308564e-09 -7.13772803e-03  1.30308564e-09  6.88364674e-01                                 
 1.69712491e-09  7.35337435e-01  1.69712491e-09  6.86808775e-01  1.69712491e-09  1.78138061e+00  1.69712491e-09  1.80000000e+00  1.69712491e-09  7.10379830e-03  1.69712491e-09  6.86808775e-01                                 
 2.07402266e-09  7.33730441e-01  2.07402266e-09  6.85400532e-01  2.07402266e-09  1.81482157e+00  2.07402266e-09  1.80000000e+00  2.07402266e-09 -6.63948627e-03  2.07402266e-09  6.85400532e-01                                 
 2.47047123e-09  7.32137335e-01  2.47047123e-09  6.83995181e-01  2.47047123e-09  1.82780254e+00  2.47047123e-09  1.80000000e+00  2.47047123e-09  6.41815275e-03  2.47047123e-09  6.83995181e-01                                 
 2.97571716e-09  7.30234715e-01  2.97571716e-09  6.82305124e-01  2.97571716e-09  1.83159207e+00  2.97571716e-09  1.80000000e+00  2.97571716e-09 -6.15419068e-03  2.97571716e-09  6.82305124e-01                                 
 3.69630458e-09  7.27735224e-01  3.69630458e-09  6.80066374e-01  3.69630458e-09  1.83119191e+00  3.69630458e-09  1.80000000e+00  3.69630458e-09  6.03249088e-03  3.69630458e-09  6.80066374e-01                                 
 4.78800587e-09  7.24345008e-01  4.78800587e-09  6.76998023e-01  4.78800587e-09  1.82782136e+00  4.78800587e-09  1.80000000e+00  4.78800587e-09 -5.91073906e-03  4.78800587e-09  6.76998023e-01                                 
 6.68465066e-09  7.19319262e-01  6.68465066e-09  6.72387782e-01  6.68465066e-09  1.82329516e+00  6.68465066e-09  1.80000000e+00  6.68465066e-09  5.87769699e-03  6.68465066e-09  6.72387782e-01                                 
 1.04779402e-08  7.11443197e-01  1.04779402e-08  6.65033707e-01  1.04779402e-08  1.81569515e+00  1.04779402e-08  1.80000000e+00  1.04779402e-08 -5.82779920e-03  1.04779402e-08  6.65033707e-01                                 
 1.61623284e-08  7.02904566e-01  1.61623284e-08  6.56899242e-01  1.61623284e-08  1.80819542e+00  1.61623284e-08  1.80000000e+00  1.61623284e-08  5.83476718e-03  1.61623284e-08  6.56899242e-01                                 
 1.87328346e-08  6.99887088e-01  1.87328346e-08  6.53985914e-01  1.87328346e-08  1.80528163e+00  1.87328346e-08  1.80000000e+00  1.87328346e-08 -5.77161373e-03  1.87328346e-08  6.53985914e-01                                 
 1.99754376e-08  6.98554096e-01  1.99754376e-08  6.52693902e-01  1.99754376e-08  1.80436528e+00  1.99754376e-08  1.80000000e+00  1.99754376e-08  5.71088645e-03  1.99754376e-08  6.52693902e-01                                 
 2.19864521e-08  6.96538592e-01  2.19864521e-08  6.50735136e-01  2.19864521e-08  1.80238196e+00  2.19864521e-08  1.80000000e+00  2.19864521e-08 -5.63902282e-03  2.19864521e-08  6.50735136e-01                                 
 2.46242472e-08  6.94124005e-01  2.46242472e-08  6.48380525e-01  2.46242472e-08  1.80057518e+00  2.46242472e-08  1.80000000e+00  2.46242472e-08  5.62226820e-03  2.46242472e-08  6.48380525e-01                                 
 2.89412609e-08  6.90621792e-01  2.89412609e-08  6.44951024e-01  2.89412609e-08  1.79739528e+00  2.89412609e-08  1.80000000e+00  2.89412609e-08 -5.57804145e-03  2.89412609e-08  6.44951024e-01                                 
 3.36340519e-08  6.87315916e-01  3.36340519e-08  6.41699212e-01  3.36340519e-08  1.79491251e+00  3.36340519e-08  1.80000000e+00  3.36340519e-08  5.57819553e-03  3.36340519e-08  6.41699212e-01                                 
 4.01518435e-08  6.83358203e-01  4.01518435e-08  6.37790691e-01  4.01518435e-08  1.79091806e+00  4.01518435e-08  1.80000000e+00  4.01518435e-08 -5.54165644e-03  4.01518435e-08  6.37790691e-01                                 
 5.00320841e-08  6.78335543e-01  5.00320841e-08  6.32814258e-01  5.00320841e-08  1.78253121e+00  5.00320841e-08  1.80000000e+00  5.00320841e-08  5.55300129e-03  5.00320841e-08  6.32814258e-01                                 
 6.33615747e-08  6.72504626e-01  6.33615747e-08  6.27086064e-01  6.33615747e-08  1.76682249e+00  6.33615747e-08  1.80000000e+00  6.33615747e-08 -5.52451064e-03  6.33615747e-08  6.27086064e-01                                 
 8.58932691e-08  6.63429244e-01  8.58932691e-08  6.18414921e-01  8.58932691e-08  1.74682325e+00  8.58932691e-08  1.80000000e+00  8.58932691e-08  5.54171757e-03  8.58932691e-08  6.18414921e-01                                 
 1.01301131e-07  6.56010799e-01  1.01301131e-07  6.11729594e-01  1.01301131e-07  1.73477628e+00  1.01301131e-07  1.80000000e+00  1.01301131e-07 -5.51395635e-03  1.01301131e-07  6.11729594e-01                                 
 1.19064082e-07  6.48710189e-01  1.19064082e-07  6.05152897e-01  1.19064082e-07  1.70305753e+00  1.19064082e-07  1.80000000e+00  1.19064082e-07  5.52904630e-03  1.19064082e-07  6.05152897e-01                                 
 1.36280105e-07  6.42130323e-01  1.36280105e-07  5.99284867e-01  1.36280105e-07  1.67414461e+00  1.36280105e-07  1.80000000e+00  1.36280105e-07 -5.50264935e-03  1.36280105e-07  5.99284867e-01                                 
 1.54421138e-07  6.36106856e-01  1.54421138e-07  5.93916564e-01  1.54421138e-07  1.64496376e+00  1.54421138e-07  1.80000000e+00  1.54421138e-07  5.51824280e-03  1.54421138e-07  5.93916564e-01                                 
 1.80787293e-07  6.37659917e-01  1.80787293e-07  5.94370689e-01  1.80787293e-07  1.63424037e+00  1.80787293e-07  1.80000000e+00  1.80787293e-07 -5.49164597e-03  1.80787293e-07  5.94370689e-01                                 
 2.05384818e-07  6.41045681e-01  2.05384818e-07  5.96388048e-01  2.05384818e-07  1.62195240e+00  2.05384818e-07  1.80000000e+00  2.05384818e-07  5.51068617e-03  2.05384818e-07  5.96388048e-01                                 
 2.25695571e-07  6.36506233e-01  2.25695571e-07  5.92292102e-01  2.25695571e-07  1.59620446e+00  2.25695571e-07  1.80000000e+00  2.25695571e-07 -5.48456109e-03  2.25695571e-07  5.92292102e-01                                 
 2.47019550e-07  6.30762927e-01  2.47019550e-07  5.87268970e-01  2.47019550e-07  1.57117946e+00  2.47019550e-07  1.80000000e+00  2.47019550e-07  5.50143775e-03  2.47019550e-07  5.87268970e-01                                 
 2.71152628e-07  6.25628627e-01  2.71152628e-07  5.82721573e-01  2.71152628e-07  1.54175058e+00  2.71152628e-07  1.80000000e+00  2.71152628e-07 -5.47606437e-03  2.71152628e-07  5.82721573e-01                                 
 3.18377463e-07  6.14321144e-01  3.18377463e-07  5.72966696e-01  3.18377463e-07  1.48534956e+00  3.18377463e-07  1.80000000e+00  3.18377463e-07  5.49542537e-03  3.18377463e-07  5.72966696e-01                                 
 3.84282443e-07  6.01215038e-01  3.84282443e-07  5.61722107e-01  3.84282443e-07  1.40631887e+00  3.84282443e-07  1.80000000e+00  3.84282443e-07 -5.47252303e-03  3.84282443e-07  5.61722107e-01                                 
 4.65759182e-07  5.75869696e-01  4.65759182e-07  5.40895767e-01  4.65759182e-07  1.30166361e+00  4.65759182e-07  1.80000000e+00  4.65759182e-07  5.49253250e-03  4.65759182e-07  5.40895767e-01                                 
 5.47700242e-07  5.51948554e-01  5.47700242e-07  5.21478429e-01  5.47700242e-07  1.19423374e+00  5.47700242e-07  1.80000000e+00  5.47700242e-07 -5.47018385e-03  5.47700242e-07  5.21478429e-01                                 
 6.39518240e-07  5.16687863e-01  6.39518240e-07  4.93183961e-01  6.39518240e-07  1.06634070e+00  6.39518240e-07  1.80000000e+00  6.39518240e-07  5.49015786e-03  6.39518240e-07  4.93183961e-01                                 
 6.56901086e-07  5.10762070e-01  6.56901086e-07  4.88447904e-01  6.56901086e-07  1.04042572e+00  6.56901086e-07  1.80000000e+00  6.56901086e-07  4.22539233e-07  6.56901086e-07  4.88447904e-01                                 
 6.91666777e-07  5.10588359e-01  6.91666777e-07  4.88322519e-01  6.91666777e-07  1.00247795e+00  6.91666777e-07  1.80000000e+00  6.91666777e-07 -1.26138933e-06  6.91666777e-07  4.88322519e-01                                 
 7.61198160e-07  7.74302474e-01  7.61198160e-07  7.22629377e-01  7.61198160e-07  1.19096017e+00  7.61198160e-07  1.80000000e+00  7.61198160e-07  1.30837087e-05  7.61198160e-07  7.22629377e-01                                 
 8.19853134e-07  8.42366987e-01  8.19853134e-07  7.86844590e-01  8.19853134e-07  1.20218944e+00  8.19853134e-07  1.80000000e+00  8.19853134e-07 -9.09663336e-06  8.19853134e-07  7.86844590e-01                                 
 8.84959684e-07  9.05986020e-01  8.84959684e-07  8.32778409e-01  8.84959684e-07  1.18630736e+00  8.84959684e-07  1.80000000e+00  8.84959684e-07  1.16012299e-05  8.84959684e-07  8.32778409e-01                                 
 8.91463109e-07  9.15578725e-01  8.91463109e-07  8.38509696e-01  8.91463109e-07  1.19180107e+00  8.91463109e-07  1.80000000e+00  8.91463109e-07  2.44166059e-06  8.91463109e-07  8.38509696e-01                                 
 9.04469960e-07  9.34603086e-01  9.04469960e-07  8.49238471e-01  9.04469960e-07  1.19623409e+00  9.04469960e-07  1.80000000e+00  9.04469960e-07  1.48792783e-06  9.04469960e-07  8.49238471e-01                                 
 9.20796322e-07  9.39249492e-01  9.20796322e-07  8.52101932e-01  9.20796322e-07  1.18523358e+00  9.20796322e-07  1.80000000e+00  9.20796322e-07 -1.22306225e-06  9.20796322e-07  8.52101932e-01                                 
 9.38289176e-07  9.33990074e-01  9.38289176e-07  8.49133255e-01  9.38289176e-07  1.16366142e+00  9.38289176e-07  1.80000000e+00  9.38289176e-07 -5.18356400e-07  9.38289176e-07  8.49133255e-01                                 
 9.58907103e-07  9.36069382e-01  9.58907103e-07  8.50268813e-01  9.58907103e-07  1.14402847e+00  9.58907103e-07  1.80000000e+00  9.58907103e-07 -2.58866919e-08  9.58907103e-07  8.50268813e-01                                 
 9.80964166e-07  9.34171141e-01  9.80964166e-07  8.49291512e-01  9.80964166e-07  1.12074427e+00  9.80964166e-07  1.80000000e+00  9.80964166e-07 -9.92131125e-07  9.80964166e-07  8.49291512e-01                                 
 1.01262663e-06  9.34271192e-01  1.01262663e-06  8.49272703e-01  1.01262663e-06  1.08644255e+00  1.01262663e-06  1.80000000e+00  1.01262663e-06  1.07941779e-07  1.01262663e-06  8.49272703e-01                                 
 1.05935508e-06  9.33129494e-01  1.05935508e-06  8.48730946e-01  1.05935508e-06  1.03753905e+00  1.05935508e-06  1.80000000e+00  1.05935508e-06 -9.53147260e-07  1.05935508e-06  8.48730946e-01                                 
 1.12200732e-06  9.32141674e-01  1.12200732e-06  8.48111592e-01  1.12200732e-06  9.74713640e-01  1.12200732e-06  1.80000000e+00  1.12200732e-06  1.68876111e-07  1.12200732e-06  8.48111592e-01                                 
 1.22010795e-06  9.30102067e-01  1.22010795e-06  8.47070117e-01  1.22010795e-06  9.25521317e-01  1.22010795e-06  1.80000000e+00  1.22010795e-06 -4.56344279e-07  1.22010795e-06  8.47070117e-01                                 
 1.32301229e-06  9.27761035e-01  1.32301229e-06  8.45688336e-01  1.32301229e-06  8.80105731e-01  1.32301229e-06  1.80000000e+00  1.32301229e-06  1.63391463e-07  1.32301229e-06  8.45688336e-01                                 
 1.44080113e-06  9.24450382e-01  1.44080113e-06  8.43906946e-01  1.44080113e-06  8.55301095e-01  1.44080113e-06  1.80000000e+00  1.44080113e-06 -2.34769740e-07  1.44080113e-06  8.43906946e-01                                 
 1.62739129e-06  9.15749499e-01  1.62739129e-06  8.38784194e-01  1.62739129e-06  8.37829987e-01  1.62739129e-06  1.80000000e+00  1.62739129e-06  1.59680563e-07  1.62739129e-06  8.38784194e-01                                 
 1.65644951e-06  9.13716132e-01  1.65644951e-06  8.37622693e-01  1.65644951e-06  8.36417403e-01  1.65644951e-06  1.80000000e+00  1.65644951e-06 -4.04703547e-08  1.65644951e-06  8.37622693e-01                                 
 1.71456595e-06  9.08642281e-01  1.71456595e-06  8.34565632e-01  1.71456595e-06  8.33224507e-01  1.71456595e-06  1.80000000e+00  1.71456595e-06 -1.05618908e-07  1.71456595e-06  8.34565632e-01                                 
 1.72909506e-06  9.06986831e-01  1.72909506e-06  8.33551140e-01  1.72909506e-06  8.31988961e-01  1.72909506e-06  1.80000000e+00  1.72909506e-06 -1.24519435e-07  1.72909506e-06  8.33551140e-01                                 
 1.75815327e-06  9.03226661e-01  1.75815327e-06  8.31220024e-01  1.75815327e-06  8.29243479e-01  1.75815327e-06  1.80000000e+00  1.75815327e-06 -1.69444158e-07  1.75815327e-06  8.31220024e-01                                 
 1.81626971e-06  8.90648453e-01  1.81626971e-06  8.23121040e-01  1.81626971e-06  8.20037048e-01  1.81626971e-06  1.80000000e+00  1.81626971e-06 -4.02237081e-07  1.81626971e-06  8.23121040e-01                                 
 1.93250258e-06  8.38148864e-01  1.93250258e-06  7.83331361e-01  1.93250258e-06  7.78845309e-01  1.93250258e-06  1.80000000e+00  1.93250258e-06 -1.02776625e-06  1.93250258e-06  7.83331361e-01                                 
 2.00169740e-06  8.17911834e-01  2.00169740e-06  7.65288848e-01  2.00169740e-06  7.64087278e-01  2.00169740e-06  1.80000000e+00  2.00169740e-06  8.36937055e-08  2.00169740e-06  7.65288848e-01                                 
 2.07752733e-06  8.29062867e-01  2.07752733e-06  7.75369169e-01  2.07752733e-06  7.75799073e-01  2.07752733e-06  1.80000000e+00  2.07752733e-06  5.82147946e-07  2.07752733e-06  7.75369169e-01                                 
 2.15136968e-06  8.27620179e-01  2.15136968e-06  7.74092736e-01  2.15136968e-06  7.74116003e-01  2.15136968e-06  1.80000000e+00  2.15136968e-06 -5.45253246e-07  2.15136968e-06  7.74092736e-01                                 
 2.23688786e-06  8.22059835e-01  2.23688786e-06  7.69090116e-01  2.23688786e-06  7.69015105e-01  2.23688786e-06  1.80000000e+00  2.23688786e-06  4.13434977e-07  2.23688786e-06  7.69090116e-01                                 
 2.38779568e-06  8.29072048e-01  2.38779568e-06  7.75369917e-01  2.38779568e-06  7.75629237e-01  2.38779568e-06  1.80000000e+00  2.38779568e-06 -1.30348594e-07  2.38779568e-06  7.75369917e-01                                 
 2.52391428e-06  8.23527500e-01  2.52391428e-06  7.70429947e-01  2.52391428e-06  7.70288637e-01  2.52391428e-06  1.80000000e+00  2.52391428e-06  8.90866429e-08  2.52391428e-06  7.70429947e-01                                 
 2.71820808e-06  8.26846241e-01  2.71820808e-06  7.73383179e-01  2.71820808e-06  7.73621135e-01  2.71820808e-06  1.80000000e+00  2.71820808e-06  8.48214761e-08  2.71820808e-06  7.73383179e-01                                 
 2.95192788e-06  8.25530849e-01  2.95192788e-06  7.72236272e-01  2.95192788e-06  7.72163113e-01  2.95192788e-06  1.80000000e+00  2.95192788e-06  4.37952295e-09  2.95192788e-06  7.72236272e-01                                 
 3.31178296e-06  8.25521501e-01  3.31178296e-06  7.72196648e-01  3.31178296e-06  7.72368381e-01  3.31178296e-06  1.80000000e+00  3.31178296e-06  1.05795628e-07  3.31178296e-06  7.72196648e-01                                 
 3.96989976e-06  8.26337849e-01  3.96989976e-06  7.72959257e-01  3.96989976e-06  7.72930275e-01  3.96989976e-06  1.80000000e+00  3.96989976e-06  9.00769310e-09  3.96989976e-06  7.72959257e-01                                 
 4.75319548e-06  8.25074180e-01  4.75319548e-06  7.71795361e-01  4.75319548e-06  7.71937421e-01  4.75319548e-06  1.80000000e+00  4.75319548e-06  9.52301705e-08  4.75319548e-06  7.71795361e-01                                 
 5.75319548e-06  8.26697145e-01  5.75319548e-06  7.73280205e-01  5.75319548e-06  7.73275070e-01  5.75319548e-06  1.80000000e+00  5.75319548e-06  2.10079481e-08  5.75319548e-06  7.73280205e-01                                 
 6.75319548e-06  8.24794180e-01  6.75319548e-06  7.71544083e-01  6.75319548e-06  7.71665183e-01  6.75319548e-06  1.80000000e+00  6.75319548e-06  8.21461356e-08  6.75319548e-06  7.71544083e-01                                 
 7.75319548e-06  8.26968018e-01  7.75319548e-06  7.73521721e-01  7.75319548e-06  7.73537026e-01  7.75319548e-06  1.80000000e+00  7.75319548e-06  3.61425879e-08  7.75319548e-06  7.73521721e-01                                 
 8.75319548e-06  8.24553088e-01  8.75319548e-06  7.71327723e-01  8.75319548e-06  7.71428639e-01  8.75319548e-06  1.80000000e+00  8.75319548e-06  6.51055308e-08  8.75319548e-06  7.71327723e-01                                 
