 time            v(vbep)         time            v(vben)         time            v(vout)         time            v(vphi1)        time            v(vphi2)        time            v(vref)         time            v(voutc)        time            v(voutcc)       yes             currtemp       
 0.00000000e+00  7.08331180e-01  0.00000000e+00  6.40773211e-01  0.00000000e+00  1.47338293e+00  0.00000000e+00  0.00000000e+00  0.00000000e+00  1.79999999e+00  0.00000000e+00  6.41126838e-01  0.00000000e+00  1.47338293e+00  0.00000000e+00  1.48104395e+00  1.00000000e+00  7.00000000e+01 
 1.00000000e-11  7.08356297e-01  1.00000000e-11  6.40846141e-01  1.00000000e-11  1.47414352e+00  1.00000000e-11  1.80000000e-02  1.00000000e-11  1.80025389e+00  1.00000000e-11  6.41660277e-01  1.00000000e-11  1.47385340e+00  1.00000000e-11  1.48105800e+00                                 
 2.00000000e-11  7.08363087e-01  2.00000000e-11  6.40891096e-01  2.00000000e-11  1.47459752e+00  2.00000000e-11  3.60000000e-02  2.00000000e-11  1.80035277e+00  2.00000000e-11  6.42054156e-01  2.00000000e-11  1.47420568e+00  2.00000000e-11  1.48106300e+00                                 
 4.00000000e-11  7.08363022e-01  4.00000000e-11  6.40949666e-01  4.00000000e-11  1.47512743e+00  4.00000000e-11  7.20000000e-02  4.00000000e-11  1.80038811e+00  4.00000000e-11  6.42629173e-01  4.00000000e-11  1.47472668e+00  4.00000000e-11  1.48106440e+00                                 
 8.00000000e-11  7.08351415e-01  8.00000000e-11  6.40985961e-01  8.00000000e-11  1.47519516e+00  8.00000000e-11  1.44000000e-01  8.00000000e-11  1.80018184e+00  8.00000000e-11  6.43076761e-01  8.00000000e-11  1.47514077e+00  8.00000000e-11  1.48105400e+00                                 
 1.60000000e-10  7.08348685e-01  1.60000000e-10  6.40995181e-01  1.60000000e-10  1.47485858e+00  1.60000000e-10  2.88000000e-01  1.60000000e-10  1.80000581e+00  1.60000000e-10  6.43174914e-01  1.60000000e-10  1.47518303e+00  1.60000000e-10  1.48104487e+00                                 
 3.20000000e-10  7.08343847e-01  3.20000000e-10  6.40983901e-01  3.20000000e-10  1.47447286e+00  3.20000000e-10  5.76000000e-01  3.20000000e-10  1.79998006e+00  3.20000000e-10  6.43004890e-01  3.20000000e-10  1.47482680e+00  3.20000000e-10  1.48103958e+00                                 
 6.40000000e-10  7.08261416e-01  6.40000000e-10  6.40539449e-01  6.40000000e-10  1.47284838e+00  6.40000000e-10  1.15200000e+00  6.40000000e-10  1.80903381e+00  6.40000000e-10  6.40020041e-01  6.40000000e-10  1.47815845e+00  6.40000000e-10  1.48106297e+00                                 
 1.00000000e-09  7.08806167e-01  1.00000000e-09  6.40971641e-01  1.00000000e-09  1.45341662e+00  1.00000000e-09  1.80000000e+00  1.00000000e-09  1.06865855e-01  1.00000000e-09  6.56590218e-01  1.00000000e-09  1.48451593e+00  1.00000000e-09  1.48107391e+00                                 
 1.03743997e-09  7.08883461e-01  1.03743997e-09  6.40974759e-01  1.03743997e-09  1.45189094e+00  1.03743997e-09  1.80000000e+00  1.03743997e-09  2.54465100e-02  1.03743997e-09  6.59802805e-01  1.03743997e-09  1.48628442e+00  1.03743997e-09  1.48109388e+00                                 
 1.11231992e-09  7.09061146e-01  1.11231992e-09  6.40999671e-01  1.11231992e-09  1.44987729e+00  1.11231992e-09  1.80000000e+00  1.11231992e-09 -1.17624968e-02  1.11231992e-09  6.63805353e-01  1.11231992e-09  1.48938232e+00  1.11231992e-09  1.48110513e+00                                 
 1.26207982e-09  7.09195529e-01  1.26207982e-09  6.40842954e-01  1.26207982e-09  1.44653948e+00  1.26207982e-09  1.80000000e+00  1.26207982e-09  9.23097386e-03  1.26207982e-09  6.63575687e-01  1.26207982e-09  1.48948026e+00  1.26207982e-09  1.48105810e+00                                 
 1.44395232e-09  7.09164522e-01  1.44395232e-09  6.40829081e-01  1.44395232e-09  1.44558837e+00  1.44395232e-09  1.80000000e+00  1.44395232e-09 -6.99716974e-03  1.44395232e-09  6.62414628e-01  1.44395232e-09  1.48826791e+00  1.44395232e-09  1.48109763e+00                                 
 1.64923445e-09  7.09058895e-01  1.64923445e-09  6.40827548e-01  1.64923445e-09  1.44526432e+00  1.64923445e-09  1.80000000e+00  1.64923445e-09  5.72064047e-03  1.64923445e-09  6.60632493e-01  1.64923445e-09  1.48693391e+00  1.64923445e-09  1.48113620e+00                                 
 1.99536384e-09  7.08805178e-01  1.99536384e-09  6.40784990e-01  1.99536384e-09  1.44487085e+00  1.99536384e-09  1.80000000e+00  1.99536384e-09 -5.08043294e-03  1.99536384e-09  6.57662742e-01  1.99536384e-09  1.48423333e+00  1.99536384e-09  1.48127410e+00                                 
 2.53661628e-09  7.08514798e-01  2.53661628e-09  6.40789797e-01  2.53661628e-09  1.44450896e+00  2.53661628e-09  1.80000000e+00  2.53661628e-09  4.63387333e-03  2.53661628e-09  6.53853823e-01  2.53661628e-09  1.48111954e+00  2.53661628e-09  1.48148840e+00                                 
 3.33819903e-09  7.08258488e-01  3.33819903e-09  6.40742839e-01  3.33819903e-09  1.44282778e+00  3.33819903e-09  1.80000000e+00  3.33819903e-09 -4.44818054e-03  3.33819903e-09  6.48945077e-01  3.33819903e-09  1.47678567e+00  3.33819903e-09  1.48178060e+00                                 
 4.69817496e-09  7.08131586e-01  4.69817496e-09  6.40759920e-01  4.69817496e-09  1.43916982e+00  4.69817496e-09  1.80000000e+00  4.69817496e-09  4.27675794e-03  4.69817496e-09  6.43901266e-01  4.69817496e-09  1.47261389e+00  4.69817496e-09  1.48204491e+00                                 
 6.10401791e-09  7.08115537e-01  6.10401791e-09  6.40733022e-01  6.10401791e-09  1.43349597e+00  6.10401791e-09  1.80000000e+00  6.10401791e-09 -4.16945158e-03  6.10401791e-09  6.40853250e-01  6.10401791e-09  1.46989075e+00  6.10401791e-09  1.48205862e+00                                 
 7.31673130e-09  7.08158742e-01  7.31673130e-09  6.40766718e-01  7.31673130e-09  1.42790011e+00  7.31673130e-09  1.80000000e+00  7.31673130e-09  4.01764732e-03  7.31673130e-09  6.39868911e-01  7.31673130e-09  1.46917785e+00  7.31673130e-09  1.48191415e+00                                 
 8.64231353e-09  7.08190444e-01  8.64231353e-09  6.40743117e-01  8.64231353e-09  1.42030264e+00  8.64231353e-09  1.80000000e+00  8.64231353e-09 -3.89782940e-03  8.64231353e-09  6.39010496e-01  8.64231353e-09  1.46832249e+00  8.64231353e-09  1.48168311e+00                                 
 1.02107816e-08  7.08249485e-01  1.02107816e-08  6.40778206e-01  1.02107816e-08  1.41069323e+00  1.02107816e-08  1.80000000e+00  1.02107816e-08  3.79348427e-03  1.02107816e-08  6.38987125e-01  1.02107816e-08  1.46841228e+00  1.02107816e-08  1.48136180e+00                                 
 1.22738633e-08  7.08283984e-01  1.22738633e-08  6.40753635e-01  1.22738633e-08  1.39628994e+00  1.22738633e-08  1.80000000e+00  1.22738633e-08 -3.71720611e-03  1.22738633e-08  6.38774395e-01  1.22738633e-08  1.46810058e+00  1.22738633e-08  1.48093770e+00                                 
 1.48374392e-08  7.08328544e-01  1.48374392e-08  6.40786440e-01  1.48374392e-08  1.37770347e+00  1.48374392e-08  1.80000000e+00  1.48374392e-08  3.65913666e-03  1.48374392e-08  6.39244165e-01  1.48374392e-08  1.46859417e+00  1.48374392e-08  1.48044719e+00                                 
 1.83637193e-08  7.08335185e-01  1.83637193e-08  6.40758618e-01  1.83637193e-08  1.35061000e+00  1.83637193e-08  1.80000000e+00  1.83637193e-08 -3.61366265e-03  1.83637193e-08  6.39372587e-01  1.83637193e-08  1.46856710e+00  1.83637193e-08  1.47987613e+00                                 
 2.33962534e-08  7.08350517e-01  2.33962534e-08  6.40788953e-01  2.33962534e-08  1.31174398e+00  2.33962534e-08  1.80000000e+00  2.33962534e-08  3.58670060e-03  2.33962534e-08  6.40057474e-01  2.33962534e-08  1.46923618e+00  2.33962534e-08  1.47924558e+00                                 
 3.21082295e-08  7.08334083e-01  3.21082295e-08  6.40759321e-01  3.21082295e-08  1.24350996e+00  3.21082295e-08  1.80000000e+00  3.21082295e-08 -3.56691306e-03  3.21082295e-08  6.40330827e-01  3.21082295e-08  1.46933375e+00  3.21082295e-08  1.47853496e+00                                 
 4.55017459e-08  7.08340006e-01  4.55017459e-08  6.40788486e-01  4.55017459e-08  1.13951117e+00  4.55017459e-08  1.80000000e+00  4.55017459e-08  3.55862050e-03  4.55017459e-08  6.40976119e-01  4.55017459e-08  1.46997944e+00  4.55017459e-08  1.47799760e+00                                 
 7.22887787e-08  7.08325027e-01  7.22887787e-08  6.40758395e-01  7.22887787e-08  9.33699027e-01  7.22887787e-08  1.80000000e+00  7.22887787e-08 -3.54964761e-03  7.22887787e-08  6.40982842e-01  7.22887787e-08  1.46987104e+00  7.22887787e-08  1.47770056e+00                                 
 1.06141063e-07  7.08338134e-01  1.06141063e-07  6.40787975e-01  1.06141063e-07  7.17489734e-01  1.06141063e-07  1.80000000e+00  1.06141063e-07  3.55382876e-03  1.06141063e-07  6.41243463e-01  1.06141063e-07  1.47020316e+00  1.06141063e-07  1.47770060e+00                                 
 1.40487310e-07  7.08326549e-01  1.40487310e-07  6.40758757e-01  1.40487310e-07  6.36687535e-01  1.40487310e-07  1.80000000e+00  1.40487310e-07 -3.53234573e-03  1.40487310e-07  6.41016696e-01  1.40487310e-07  1.46989943e+00  1.40487310e-07  1.47771377e+00                                 
 1.71431393e-07  7.08332465e-01  1.71431393e-07  6.40787405e-01  1.71431393e-07  6.41981434e-01  1.71431393e-07  1.80000000e+00  1.71431393e-07  3.54854334e-03  1.71431393e-07  6.41243184e-01  1.71431393e-07  1.47020091e+00  1.71431393e-07  1.47771510e+00                                 
 1.89562268e-07  7.08329724e-01  1.89562268e-07  6.40759052e-01  1.89562268e-07  6.41192805e-01  1.89562268e-07  1.80000000e+00  1.89562268e-07 -3.52012826e-03  1.89562268e-07  6.41009437e-01  1.89562268e-07  1.46989189e+00  1.89562268e-07  1.47771346e+00                                 
 2.11972555e-07  7.08333412e-01  2.11972555e-07  6.40787364e-01  2.11972555e-07  6.41803201e-01  2.11972555e-07  1.80000000e+00  2.11972555e-07  3.53439541e-03  2.11972555e-07  6.41244534e-01  2.11972555e-07  1.47020048e+00  2.11972555e-07  1.47771198e+00                                 
 2.54990496e-07  7.08328581e-01  2.54990496e-07  6.40759045e-01  2.54990496e-07  6.41250108e-01  2.54990496e-07  1.80000000e+00  2.54990496e-07 -3.51058597e-03  2.54990496e-07  6.41008917e-01  2.54990496e-07  1.46988949e+00  2.54990496e-07  1.47771054e+00                                 
 3.09850513e-07  7.08334062e-01  3.09850513e-07  6.40787374e-01  3.09850513e-07  6.41755150e-01  3.09850513e-07  1.80000000e+00  3.09850513e-07  3.52854420e-03  3.09850513e-07  6.41244841e-01  3.09850513e-07  1.47019754e+00  3.09850513e-07  1.47770854e+00                                 
 4.19570548e-07  7.08328158e-01  4.19570548e-07  6.40759036e-01  4.19570548e-07  6.41266002e-01  4.19570548e-07  1.80000000e+00  4.19570548e-07 -3.50675575e-03  4.19570548e-07  6.41008743e-01  4.19570548e-07  1.46988419e+00  4.19570548e-07  1.47770533e+00                                 
 6.16461038e-07  7.08334278e-01  6.16461038e-07  6.40787379e-01  6.16461038e-07  6.41742415e-01  6.16461038e-07  1.80000000e+00  6.16461038e-07  3.52654436e-03  6.16461038e-07  6.41244922e-01  6.16461038e-07  1.47018787e+00  6.16461038e-07  1.47769884e+00                                 
 9.70783072e-07  7.08328040e-01  9.70783072e-07  6.40759034e-01  9.70783072e-07  6.41270051e-01  9.70783072e-07  1.80000000e+00  9.70783072e-07 -3.50565488e-03  9.70783072e-07  6.41008700e-01  9.70783072e-07  1.46986671e+00  9.70783072e-07  1.47768789e+00                                 
 1.67942714e-06  7.08334341e-01  1.67942714e-06  6.40787380e-01  1.67942714e-06  6.41738876e-01  1.67942714e-06  1.80000000e+00  1.67942714e-06  3.52594800e-03  1.67942714e-06  6.41244946e-01  1.67942714e-06  1.47015422e+00  1.67942714e-06  1.47766522e+00                                 
 2.87942714e-06  7.08328007e-01  2.87942714e-06  6.40759032e-01  2.87942714e-06  6.41271203e-01  2.87942714e-06  1.80000000e+00  2.87942714e-06 -3.50534295e-03  2.87942714e-06  6.41008688e-01  2.87942714e-06  1.46980625e+00  2.87942714e-06  1.47762751e+00                                 
 4.07942714e-06  7.08334365e-01  4.07942714e-06  6.40787381e-01  4.07942714e-06  6.41736951e-01  4.07942714e-06  1.80000000e+00  4.07942714e-06  3.52571389e-03  4.07942714e-06  6.41244954e-01  4.07942714e-06  1.47007817e+00  4.07942714e-06  1.47758926e+00                                 
 5.27942714e-06  7.08327982e-01  5.27942714e-06  6.40759032e-01  5.27942714e-06  6.41271855e-01  5.27942714e-06  1.80000000e+00  5.27942714e-06 -3.50511796e-03  5.27942714e-06  6.41008679e-01  5.27942714e-06  1.46973018e+00  5.27942714e-06  1.47755154e+00                                 
 6.00100000e-06  7.08334398e-01  6.00100000e-06  6.40787382e-01  6.00100000e-06  6.41735111e-01  6.00100000e-06  1.80000000e+00  6.00100000e-06  3.52540146e-03  6.00100000e-06  6.41244966e-01  6.00100000e-06  1.47001729e+00  6.00100000e-06  1.47752844e+00                                 
 6.00110000e-06  7.08279836e-01  6.00110000e-06  6.40535373e-01  6.00110000e-06  6.39883833e-01  6.00110000e-06  1.62000000e+00  6.00110000e-06  2.23533667e-04  6.00110000e-06  6.39589588e-01  6.00110000e-06  1.46855275e+00  6.00110000e-06  1.47751782e+00                                 
 6.00130000e-06  7.08313068e-01  6.00130000e-06  6.40530018e-01  6.00130000e-06  6.39862943e-01  6.00130000e-06  1.26000000e+00  6.00130000e-06 -2.56665064e-04  6.00130000e-06  6.39300912e-01  6.00130000e-06  1.46829975e+00  6.00130000e-06  1.47753346e+00                                 
 6.00165269e-06  7.08380506e-01  6.00165269e-06  6.40726594e-01  6.00165269e-06  6.41819343e-01  6.00165269e-06  6.25163737e-01  6.00165269e-06  9.95736552e-03  6.00165269e-06  6.39561878e-01  6.00165269e-06  1.46513218e+00  6.00165269e-06  1.47750942e+00                                 
 6.00200000e-06  7.08314399e-01  6.00200000e-06  6.39367765e-01  6.00200000e-06  6.74238355e-01  6.00200000e-06  0.00000000e+00  6.00200000e-06  1.60598604e+00  6.00200000e-06  6.25307762e-01  6.00200000e-06  1.26525987e+00  6.00200000e-06  1.47693514e+00                                 
 6.00204166e-06  7.08330564e-01  6.00204166e-06  6.38831289e-01  6.00204166e-06  6.81525420e-01  6.00204166e-06  0.00000000e+00  6.00204166e-06  1.72499478e+00  6.00204166e-06  6.19216724e-01  6.00204166e-06  1.19996482e+00  6.00204166e-06  1.47693382e+00                                 
 6.00212497e-06  7.08332840e-01  6.00212497e-06  6.37938262e-01  6.00212497e-06  6.86927468e-01  6.00212497e-06  0.00000000e+00  6.00212497e-06  1.81325085e+00  6.00212497e-06  6.09266532e-01  6.00212497e-06  1.06667026e+00  6.00212497e-06  1.47731981e+00                                 
 6.00229160e-06  7.08328425e-01  6.00229160e-06  6.37874921e-01  6.00229160e-06  6.77277047e-01  6.00229160e-06  0.00000000e+00  6.00229160e-06  1.78931285e+00  6.00229160e-06  6.09208518e-01  6.00229160e-06  8.58977853e-01  6.00229160e-06  1.47780050e+00                                 
 6.00245698e-06  7.08331099e-01  6.00245698e-06  6.38748337e-01  6.00245698e-06  6.65844607e-01  6.00245698e-06  0.00000000e+00  6.00245698e-06  1.80403817e+00  6.00245698e-06  6.18916665e-01  6.00245698e-06  7.43453301e-01  6.00245698e-06  1.47782221e+00                                 
 6.00263547e-06  7.08328065e-01  6.00263547e-06  6.39678576e-01  6.00263547e-06  6.53665972e-01  6.00263547e-06  0.00000000e+00  6.00263547e-06  1.79701345e+00  6.00263547e-06  6.28111334e-01  6.00263547e-06  6.81301699e-01  6.00263547e-06  1.47799227e+00                                 
 6.00285612e-06  7.08331037e-01  6.00285612e-06  6.40581164e-01  6.00285612e-06  6.46078450e-01  6.00285612e-06  0.00000000e+00  6.00285612e-06  1.80189486e+00  6.00285612e-06  6.36588391e-01  6.00285612e-06  6.54904738e-01  6.00285612e-06  1.47752335e+00                                 
 6.00307858e-06  7.08328692e-01  6.00307858e-06  6.40947684e-01  6.00307858e-06  6.43469603e-01  6.00307858e-06  0.00000000e+00  6.00307858e-06  1.79886905e+00  6.00307858e-06  6.39338759e-01  6.00307858e-06  6.45926579e-01  6.00307858e-06  1.47675128e+00                                 
 6.00333121e-06  7.08331356e-01  6.00333121e-06  6.41184890e-01  6.00333121e-06  6.42584049e-01  6.00333121e-06  0.00000000e+00  6.00333121e-06  1.80082753e+00  6.00333121e-06  6.41372452e-01  6.00333121e-06  6.43624087e-01  6.00333121e-06  1.47546128e+00                                 
 6.00370809e-06  7.08329440e-01  6.00370809e-06  6.41229211e-01  6.00370809e-06  6.43049150e-01  6.00370809e-06  0.00000000e+00  6.00370809e-06  1.79939796e+00  6.00370809e-06  6.41739150e-01  6.00370809e-06  6.42714436e-01  6.00370809e-06  1.47336917e+00                                 
 6.00430687e-06  7.08331833e-01  6.00430687e-06  6.41239616e-01  6.00430687e-06  6.44353847e-01  6.00430687e-06  0.00000000e+00  6.00430687e-06  1.80053840e+00  6.00430687e-06  6.42394158e-01  6.00430687e-06  6.44328615e-01  6.00430687e-06  1.46960614e+00                                 
 6.00532046e-06  7.08330016e-01  6.00532046e-06  6.41139808e-01  6.00532046e-06  6.47351618e-01  6.00532046e-06  0.00000000e+00  6.00532046e-06  1.79953703e+00  6.00532046e-06  6.42209680e-01  6.00532046e-06  6.46820540e-01  6.00532046e-06  1.46290843e+00                                 
 6.00724115e-06  7.08332127e-01  6.00724115e-06  6.41032360e-01  6.00724115e-06  6.52876393e-01  6.00724115e-06  0.00000000e+00  6.00724115e-06  1.80046469e+00  6.00724115e-06  6.42511858e-01  6.00724115e-06  6.52767009e-01  6.00724115e-06  1.44945573e+00                                 
 6.01108252e-06  7.08330197e-01  6.01108252e-06  6.40820987e-01  6.01108252e-06  6.64293485e-01  6.01108252e-06  0.00000000e+00  6.01108252e-06  1.79957125e+00  6.01108252e-06  6.42002785e-01  6.01108252e-06  6.63716778e-01  6.01108252e-06  1.42153825e+00                                 
 6.01876526e-06  7.08332157e-01  6.01876526e-06  6.40756272e-01  6.01876526e-06  6.86026790e-01  6.01876526e-06  0.00000000e+00  6.01876526e-06  1.80044685e+00  6.01876526e-06  6.41916057e-01  6.01876526e-06  6.85897640e-01  6.01876526e-06  1.36370326e+00                                 
 6.03186645e-06  7.08330201e-01  6.03186645e-06  6.40755473e-01  6.03186645e-06  7.21596597e-01  6.03186645e-06  0.00000000e+00  6.03186645e-06  1.79957907e+00  6.03186645e-06  6.41234310e-01  6.03186645e-06  7.20931852e-01  6.03186645e-06  1.26760321e+00                                 
 6.04663951e-06  7.08332156e-01  6.04663951e-06  6.40780144e-01  6.04663951e-06  7.58660010e-01  6.04663951e-06  0.00000000e+00  6.04663951e-06  1.80043926e+00  6.04663951e-06  6.41356723e-01  6.04663951e-06  7.58544132e-01  6.04663951e-06  1.17043359e+00                                 
 6.07088680e-06  7.08330205e-01  6.07088680e-06  6.40762034e-01  6.07088680e-06  8.14041747e-01  6.07088680e-06  0.00000000e+00  6.07088680e-06  1.79958134e+00  6.07088680e-06  6.40980120e-01  6.07088680e-06  8.13089163e-01  6.07088680e-06  1.03132029e+00                                 
 6.10490288e-06  7.08332154e-01  6.10490288e-06  6.40784396e-01  6.10490288e-06  8.80276702e-01  6.10490288e-06  0.00000000e+00  6.10490288e-06  1.80043320e+00  6.10490288e-06  6.41263485e-01  6.10490288e-06  8.80216894e-01  6.10490288e-06  9.15499389e-01                                 
 6.14653816e-06  7.08330206e-01  6.14653816e-06  6.40761847e-01  6.14653816e-06  9.46307130e-01  6.14653816e-06  0.00000000e+00  6.14653816e-06  1.79957978e+00  6.14653816e-06  6.40970124e-01  6.14653816e-06  9.44711151e-01  6.14653816e-06  9.16790168e-01                                 
 6.17609253e-06  7.08332153e-01  6.17609253e-06  6.40784923e-01  6.17609253e-06  9.84058167e-01  6.17609253e-06  0.00000000e+00  6.17609253e-06  1.80042820e+00  6.17609253e-06  6.41269988e-01  6.17609253e-06  9.84311402e-01  6.17609253e-06  9.60010163e-01                                 
