 time            v(vbep)         time            v(vben)         time            v(vout)         time            v(vphi1)        time            v(vphi2)        time            v(vref)         yes             currtemp       
 0.00000000e+00  7.08994843e-01  0.00000000e+00  6.57922157e-01  0.00000000e+00  8.52083699e-02  0.00000000e+00  0.00000000e+00  0.00000000e+00  1.79997865e+00  0.00000000e+00  5.00000000e-01  1.00000000e+00  6.00000000e+00 
 5.00000000e-12  7.08980871e-01  5.00000000e-12  6.57910509e-01  5.00000000e-12  8.56718187e-02  5.00000000e-12  1.80000000e-02  5.00000000e-12  1.80005737e+00  5.00000000e-12  5.00000000e-01                                 
 1.00000000e-11  7.08967071e-01  1.00000000e-11  6.57899087e-01  1.00000000e-11  8.60870085e-02  1.00000000e-11  3.60000000e-02  1.00000000e-11  1.80009535e+00  1.00000000e-11  5.00000000e-01                                 
 2.00000000e-11  7.08939556e-01  2.00000000e-11  6.57876301e-01  2.00000000e-11  8.68480330e-02  2.00000000e-11  7.20000000e-02  2.00000000e-11  1.80012889e+00  2.00000000e-11  5.00000000e-01                                 
 4.00000000e-11  7.08884680e-01  4.00000000e-11  6.57830834e-01  4.00000000e-11  8.80478654e-02  4.00000000e-11  1.44000000e-01  4.00000000e-11  1.80010695e+00  4.00000000e-11  5.00000000e-01                                 
 8.00000000e-11  7.08775222e-01  8.00000000e-11  6.57740107e-01  8.00000000e-11  8.96873661e-02  8.00000000e-11  2.88000000e-01  8.00000000e-11  1.80006438e+00  8.00000000e-11  5.00000000e-01                                 
 1.60000000e-10  7.08557555e-01  1.60000000e-10  6.57559505e-01  1.60000000e-10  9.17672838e-02  1.60000000e-10  5.76000000e-01  1.60000000e-10  1.80002590e+00  1.60000000e-10  5.00000000e-01                                 
 3.20000000e-10  7.08127124e-01  3.20000000e-10  6.57201694e-01  3.20000000e-10  1.27505694e-01  3.20000000e-10  1.15200000e+00  3.20000000e-10  1.79996680e+00  3.20000000e-10  5.00000000e-01                                 
 5.00000000e-10  7.07650697e-01  5.00000000e-10  6.56804581e-01  5.00000000e-10  4.95615483e-01  5.00000000e-10  1.80000000e+00  5.00000000e-10  1.03796593e-01  5.00000000e-10  5.00000000e-01                                 
 5.21264517e-10  7.07595015e-01  5.21264517e-10  6.56758089e-01  5.21264517e-10  5.64282227e-01  5.21264517e-10  1.80000000e+00  5.21264517e-10  1.87919123e-02  5.21264517e-10  5.00000000e-01                                 
 5.63793550e-10  7.07483871e-01  5.63793550e-10  6.56665257e-01  5.63793550e-10  6.87146040e-01  5.63793550e-10  1.80000000e+00  5.63793550e-10 -8.97704796e-03  5.63793550e-10  5.00000000e-01                                 
 6.48851616e-10  7.07262925e-01  6.48851616e-10  6.56480536e-01  6.48851616e-10  8.72853044e-01  6.48851616e-10  1.80000000e+00  6.48851616e-10  7.73223047e-03  6.48851616e-10  5.00000000e-01                                 
 7.72187172e-10  7.06945681e-01  7.72187172e-10  6.56214893e-01  7.72187172e-10  1.07545471e+00  7.72187172e-10  1.80000000e+00  7.72187172e-10 -6.78934522e-03  7.72187172e-10  5.00000000e-01                                 
 9.62498162e-10  7.06463255e-01  9.62498162e-10  6.55810010e-01  9.62498162e-10  1.32697533e+00  9.62498162e-10  1.80000000e+00  9.62498162e-10  6.43557781e-03  9.62498162e-10  5.00000000e-01                                 
 1.32670417e-09  7.05563006e-01  1.32670417e-09  6.55051532e-01  1.32670417e-09  1.66067406e+00  1.32670417e-09  1.80000000e+00  1.32670417e-09 -6.10942475e-03  1.32670417e-09  5.00000000e-01                                 
 1.97866949e-09  7.04021556e-01  1.97866949e-09  6.53744194e-01  1.97866949e-09  1.88471673e+00  1.97866949e-09  1.80000000e+00  1.97866949e-09  6.06929952e-03  1.97866949e-09  5.00000000e-01                                 
 2.23242213e-09  7.03444706e-01  2.23242213e-09  6.53252099e-01  2.23242213e-09  1.90245410e+00  2.23242213e-09  1.80000000e+00  2.23242213e-09 -5.69270395e-03  2.23242213e-09  5.00000000e-01                                 
 2.54612906e-09  7.02748016e-01  2.54612906e-09  6.52655798e-01  2.54612906e-09  1.90971370e+00  2.54612906e-09  1.80000000e+00  2.54612906e-09  5.51387181e-03  2.54612906e-09  5.00000000e-01                                 
 2.89522183e-09  7.01993113e-01  2.89522183e-09  6.52007271e-01  2.89522183e-09  1.91367778e+00  2.89522183e-09  1.80000000e+00  2.89522183e-09 -5.26661351e-03  2.89522183e-09  5.00000000e-01                                 
 3.59340737e-09  7.00542783e-01  3.59340737e-09  6.50754574e-01  3.59340737e-09  1.91788036e+00  3.59340737e-09  1.80000000e+00  3.59340737e-09  5.21088195e-03  3.59340737e-09  5.00000000e-01                                 
 4.62276149e-09  6.98535370e-01  4.62276149e-09  6.49006515e-01  4.62276149e-09  1.91619020e+00  4.62276149e-09  1.80000000e+00  4.62276149e-09 -5.11276774e-03  4.62276149e-09  5.00000000e-01                                 
 6.68146975e-09  6.94908543e-01  6.68146975e-09  6.45809953e-01  6.68146975e-09  1.90512455e+00  6.68146975e-09  1.80000000e+00  6.68146975e-09  5.11675963e-03  6.68146975e-09  5.00000000e-01                                 
 9.04753275e-09  6.91257423e-01  9.04753275e-09  6.42544515e-01  9.04753275e-09  1.89368093e+00  9.04753275e-09  1.80000000e+00  9.04753275e-09 -5.05112917e-03  9.04753275e-09  5.00000000e-01                                 
 1.03568916e-08  6.89430874e-01  1.03568916e-08  6.40894006e-01  1.03568916e-08  1.88864848e+00  1.03568916e-08  1.80000000e+00  1.03568916e-08  5.03198175e-03  1.03568916e-08  5.00000000e-01                                 
 1.25608629e-08  6.86606253e-01  1.25608629e-08  6.38322253e-01  1.25608629e-08  1.88122182e+00  1.25608629e-08  1.80000000e+00  1.25608629e-08 -4.97612517e-03  1.25608629e-08  5.00000000e-01                                 
 1.45510504e-08  6.84292258e-01  1.45510504e-08  6.36197801e-01  1.45510504e-08  1.87533677e+00  1.45510504e-08  1.80000000e+00  1.45510504e-08  4.96752913e-03  1.45510504e-08  5.00000000e-01                                 
 1.83480206e-08  6.80383904e-01  1.83480206e-08  6.32575129e-01  1.83480206e-08  1.86563636e+00  1.83480206e-08  1.80000000e+00  1.83480206e-08 -4.92828516e-03  1.83480206e-08  5.00000000e-01                                 
 2.22769180e-08  6.76924389e-01  2.22769180e-08  6.29329369e-01  2.22769180e-08  1.85705702e+00  2.22769180e-08  1.80000000e+00  2.22769180e-08  4.93389425e-03  2.22769180e-08  5.00000000e-01                                 
 3.01230991e-08  6.71258482e-01  3.01230991e-08  6.23938186e-01  3.01230991e-08  1.84267605e+00  3.01230991e-08  1.80000000e+00  3.01230991e-08 -4.90403386e-03  3.01230991e-08  5.00000000e-01                                 
 4.09806012e-08  6.65150205e-01  4.09806012e-08  6.18039655e-01  4.09806012e-08  1.82595151e+00  4.09806012e-08  1.80000000e+00  4.09806012e-08  4.92002276e-03  4.09806012e-08  5.00000000e-01                                 
 6.26956056e-08  6.55945511e-01  6.26956056e-08  6.09068575e-01  6.26956056e-08  1.79612478e+00  6.26956056e-08  1.80000000e+00  6.26956056e-08 -4.89537178e-03  6.26956056e-08  5.00000000e-01                                 
 1.02622762e-07  6.44492043e-01  1.02622762e-07  5.97788983e-01  1.02622762e-07  1.74810243e+00  1.02622762e-07  1.80000000e+00  1.02622762e-07  4.91565637e-03  1.02622762e-07  5.00000000e-01                                 
 1.53086967e-07  6.32360049e-01  1.53086967e-07  5.86259253e-01  1.53086967e-07  1.68934301e+00  1.53086967e-07  1.80000000e+00  1.53086967e-07 -4.89251194e-03  1.53086967e-07  5.00000000e-01                                 
 2.05031508e-07  6.20621075e-01  2.05031508e-07  5.75516619e-01  2.05031508e-07  1.62826676e+00  2.05031508e-07  1.80000000e+00  2.05031508e-07  4.91321299e-03  2.05031508e-07  5.00000000e-01                                 
 3.08920591e-07  6.01167755e-01  3.08920591e-07  5.58060689e-01  3.08920591e-07  1.50685293e+00  3.08920591e-07  1.80000000e+00  3.08920591e-07 -4.89067492e-03  3.08920591e-07  5.00000000e-01                                 
 4.03847256e-07  5.84563309e-01  4.03847256e-07  5.43669100e-01  4.03847256e-07  1.39469259e+00  4.03847256e-07  1.80000000e+00  4.03847256e-07  4.91196609e-03  4.03847256e-07  5.00000000e-01                                 
 5.93700587e-07  5.51068080e-01  5.93700587e-07  5.15604315e-01  5.93700587e-07  1.16706924e+00  5.93700587e-07  1.80000000e+00  5.93700587e-07 -4.88969361e-03  5.93700587e-07  5.00000000e-01                                 
 6.40045172e-07  5.42405905e-01  6.40045172e-07  5.08531245e-01  6.40045172e-07  1.10984157e+00  6.40045172e-07  1.80000000e+00  6.40045172e-07 -2.97754173e-07  6.40045172e-07  5.00000000e-01                                 
 7.32734343e-07  5.24199706e-01  7.32734343e-07  4.93737340e-01  7.32734343e-07  9.93362949e-01  7.32734343e-07  1.80000000e+00  7.32734343e-07  3.34076131e-07  7.32734343e-07  5.00000000e-01                                 
 8.51210710e-07  5.03980673e-01  8.51210710e-07  4.77400711e-01  8.51210710e-07  8.78349556e-01  8.51210710e-07  1.80000000e+00  8.51210710e-07 -2.74716542e-07  8.51210710e-07  5.00000000e-01                                 
 9.71535272e-07  7.31497204e-01  9.71535272e-07  6.78222034e-01  9.71535272e-07  9.75792752e-01  9.71535272e-07  1.80000000e+00  9.71535272e-07  2.16654421e-06  9.71535272e-07  5.00000000e-01                                 
 1.06963604e-06  8.17031490e-01  1.06963604e-06  7.62019839e-01  1.06963604e-06  9.61874800e-01  1.06963604e-06  1.80000000e+00  1.06963604e-06 -8.56096052e-07  1.06963604e-06  5.00000000e-01                                 
 1.16613094e-06  8.54389259e-01  1.16613094e-06  7.92841960e-01  1.16613094e-06  9.12193611e-01  1.16613094e-06  1.80000000e+00  1.16613094e-06  1.45610541e-06  1.16613094e-06  5.00000000e-01                                 
 1.17513824e-06  8.53650411e-01  1.17513824e-06  7.92316116e-01  1.17513824e-06  9.05479336e-01  1.17513824e-06  1.80000000e+00  1.17513824e-06  2.31020418e-07  1.17513824e-06  5.00000000e-01                                 
 1.19315282e-06  8.41314814e-01  1.19315282e-06  7.82765533e-01  1.19315282e-06  8.82581422e-01  1.19315282e-06  1.80000000e+00  1.19315282e-06 -6.88950265e-07  1.19315282e-06  5.00000000e-01                                 
 1.21119627e-06  8.20527793e-01  1.21119627e-06  7.65167304e-01  1.21119627e-06  8.52581742e-01  1.21119627e-06  1.80000000e+00  1.21119627e-06 -5.55473594e-07  1.21119627e-06  5.00000000e-01                                 
 1.23573902e-06  8.07190497e-01  1.23573902e-06  7.53181839e-01  1.23573902e-06  8.25083174e-01  1.23573902e-06  1.80000000e+00  1.23573902e-06  6.64195183e-09  1.23573902e-06  5.00000000e-01                                 
 1.26167758e-06  8.07514723e-01  1.26167758e-06  7.53419379e-01  1.26167758e-06  8.09856968e-01  1.26167758e-06  1.80000000e+00  1.26167758e-06  1.79696776e-07  1.26167758e-06  5.00000000e-01                                 
 1.29848840e-06  8.15934462e-01  1.29848840e-06  7.61065070e-01  1.29848840e-06  7.96160604e-01  1.29848840e-06  1.80000000e+00  1.29848840e-06  2.93098230e-07  1.29848840e-06  5.00000000e-01                                 
 1.35691643e-06  8.20709360e-01  1.35691643e-06  7.65285540e-01  1.35691643e-06  7.68845827e-01  1.35691643e-06  1.80000000e+00  1.35691643e-06  1.33097817e-08  1.35691643e-06  5.00000000e-01                                 
 1.42645366e-06  8.12942755e-01  1.42645366e-06  7.58404669e-01  1.42645366e-06  7.26999536e-01  1.42645366e-06  1.80000000e+00  1.42645366e-06  3.88011724e-08  1.42645366e-06  5.00000000e-01                                 
 1.52304876e-06  8.14781770e-01  1.52304876e-06  7.60011355e-01  1.52304876e-06  6.83128028e-01  1.52304876e-06  1.80000000e+00  1.52304876e-06  1.70810491e-07  1.52304876e-06  5.00000000e-01                                 
 1.62424356e-06  8.18624400e-01  1.62424356e-06  7.63473841e-01  1.62424356e-06  6.41274079e-01  1.62424356e-06  1.80000000e+00  1.62424356e-06  7.15700053e-08  1.62424356e-06  5.00000000e-01                                 
 1.79957790e-06  8.12299056e-01  1.79957790e-06  7.57786304e-01  1.79957790e-06  5.64207876e-01  1.79957790e-06  1.80000000e+00  1.79957790e-06  7.32718707e-08  1.79957790e-06  5.00000000e-01                                 
 1.97766752e-06  8.18486570e-01  1.97766752e-06  7.63343998e-01  1.97766752e-06  5.21961001e-01  1.97766752e-06  1.80000000e+00  1.97766752e-06  1.63192474e-07  1.97766752e-06  5.00000000e-01                                 
 2.21321183e-06  8.13288253e-01  2.21321183e-06  7.58685694e-01  2.21321183e-06  4.95791329e-01  2.21321183e-06  1.80000000e+00  2.21321183e-06  2.00094704e-09  2.21321183e-06  5.00000000e-01                                 
 2.24780169e-06  8.14346970e-01  2.24780169e-06  7.59643225e-01  2.24780169e-06  4.96301627e-01  2.24780169e-06  1.80000000e+00  2.24780169e-06  1.11367638e-07  2.24780169e-06  5.00000000e-01                                 
 2.31698142e-06  8.16362919e-01  2.31698142e-06  7.61446615e-01  2.31698142e-06  4.97154270e-01  2.31698142e-06  1.80000000e+00  2.31698142e-06  1.15263341e-07  2.31698142e-06  5.00000000e-01                                 
 2.45534086e-06  8.15517336e-01  2.45534086e-06  7.60695569e-01  2.45534086e-06  4.96320898e-01  2.45534086e-06  1.80000000e+00  2.45534086e-06  6.86225354e-08  2.45534086e-06  5.00000000e-01                                 
 2.65882973e-06  8.15408591e-01  2.65882973e-06  7.60593913e-01  2.65882973e-06  5.01567246e-01  2.65882973e-06  1.80000000e+00  2.65882973e-06  1.20335532e-07  2.65882973e-06  5.00000000e-01                                 
 2.91855840e-06  8.16118539e-01  2.91855840e-06  7.61232049e-01  2.91855840e-06  5.00967128e-01  2.91855840e-06  1.80000000e+00  2.91855840e-06  7.28084053e-08  2.91855840e-06  5.00000000e-01                                 
 3.24943596e-06  8.15051928e-01  3.24943596e-06  7.60275474e-01  3.24943596e-06  4.98353652e-01  3.24943596e-06  1.80000000e+00  3.24943596e-06  1.13456277e-07  3.24943596e-06  5.00000000e-01                                 
 3.73231828e-06  8.16304077e-01  3.73231828e-06  7.61396847e-01  3.73231828e-06  5.01988004e-01  3.73231828e-06  1.80000000e+00  3.73231828e-06  7.97539920e-08  3.73231828e-06  5.00000000e-01                                 
 4.31900279e-06  8.14960420e-01  4.31900279e-06  7.60194105e-01  4.31900279e-06  4.98420126e-01  4.31900279e-06  1.80000000e+00  4.31900279e-06  1.07420757e-07  4.31900279e-06  5.00000000e-01                                 
 5.29092253e-06  8.16345502e-01  5.29092253e-06  7.61433351e-01  5.29092253e-06  5.01708096e-01  5.29092253e-06  1.80000000e+00  5.29092253e-06  8.44308399e-08  5.29092253e-06  5.00000000e-01                                 
 6.29092253e-06  8.14943428e-01  6.29092253e-06  7.60179218e-01  6.29092253e-06  4.98718492e-01  6.29092253e-06  1.80000000e+00  6.29092253e-06  1.03821239e-07  6.29092253e-06  5.00000000e-01                                 
 7.29092253e-06  8.16350896e-01  7.29092253e-06  7.61437839e-01  7.29092253e-06  5.01391438e-01  7.29092253e-06  1.80000000e+00  7.29092253e-06  8.80271517e-08  7.29092253e-06  5.00000000e-01                                 
 8.29092253e-06  8.14947642e-01  8.29092253e-06  7.60183322e-01  8.29092253e-06  4.99037215e-01  8.29092253e-06  1.80000000e+00  8.29092253e-06  1.00212214e-07  8.29092253e-06  5.00000000e-01                                 
 9.29092253e-06  8.16336485e-01  9.29092253e-06  7.61424674e-01  9.29092253e-06  5.01089683e-01  9.29092253e-06  1.80000000e+00  9.29092253e-06  9.16163737e-08  9.29092253e-06  5.00000000e-01                                 
 1.00005000e-05  8.14978223e-01  1.00005000e-05  7.60211103e-01  1.00005000e-05  4.99359544e-01  1.00005000e-05  1.80000000e+00  1.00005000e-05  9.59705748e-08  1.00005000e-05  5.00000000e-01                                 
 1.00005500e-05  8.14978223e-01  1.00005500e-05  7.60211095e-01  1.00005500e-05  4.91327385e-01  1.00005500e-05  1.62000000e+00  1.00005500e-05 -7.10094160e-05  1.00005500e-05  5.00000000e-01                                 
 1.00006500e-05  8.14978267e-01  1.00006500e-05  7.60211107e-01  1.00006500e-05  4.77626984e-01  1.00006500e-05  1.26000000e+00  1.00006500e-05 -5.05879552e-05  1.00006500e-05  5.00000000e-01                                 
 1.00008500e-05  8.14978490e-01  1.00008500e-05  7.60211245e-01  1.00008500e-05  4.76806885e-01  1.00008500e-05  5.40000000e-01  1.00008500e-05 -1.09192338e-03  1.00008500e-05  5.00000000e-01                                 
 1.00010000e-05  8.14978608e-01  1.00010000e-05  7.60211347e-01  1.00010000e-05  4.39860069e-01  1.00010000e-05  0.00000000e+00  1.00010000e-05  1.55497888e+00  1.00010000e-05  5.00000000e-01                                 
 1.00010158e-05  8.14978565e-01  1.00010158e-05  7.60211329e-01  1.00010158e-05  4.19568415e-01  1.00010158e-05  0.00000000e+00  1.00010158e-05  1.68666272e+00  1.00010158e-05  5.00000000e-01                                 
 1.00010475e-05  8.14978506e-01  1.00010475e-05  7.60211298e-01  1.00010475e-05  3.73229860e-01  1.00010475e-05  0.00000000e+00  1.00010475e-05  1.80527339e+00  1.00010475e-05  5.00000000e-01                                 
 1.00011109e-05  8.14978609e-01  1.00011109e-05  7.60211330e-01  1.00011109e-05  2.96143281e-01  1.00011109e-05  0.00000000e+00  1.00011109e-05  1.79467367e+00  1.00011109e-05  5.00000000e-01                                 
 1.00011900e-05  8.14978930e-01  1.00011900e-05  7.60211531e-01  1.00011900e-05  2.58190047e-01  1.00011900e-05  0.00000000e+00  1.00011900e-05  1.80007708e+00  1.00011900e-05  5.00000000e-01                                 
 1.00013097e-05  8.14979404e-01  1.00013097e-05  7.60211927e-01  1.00013097e-05  2.47907738e-01  1.00013097e-05  0.00000000e+00  1.00013097e-05  1.79935934e+00  1.00013097e-05  5.00000000e-01                                 
 1.00014640e-05  8.14979953e-01  1.00014640e-05  7.60212403e-01  1.00014640e-05  2.49771108e-01  1.00014640e-05  0.00000000e+00  1.00014640e-05  1.79997233e+00  1.00014640e-05  5.00000000e-01                                 
 1.00016893e-05  8.14980545e-01  1.00016893e-05  7.60212939e-01  1.00016893e-05  2.50802421e-01  1.00016893e-05  0.00000000e+00  1.00016893e-05  1.80009680e+00  1.00016893e-05  5.00000000e-01                                 
 1.00019930e-05  8.14981174e-01  1.00019930e-05  7.60213497e-01  1.00019930e-05  2.51449915e-01  1.00019930e-05  0.00000000e+00  1.00019930e-05  1.79981892e+00  1.00019930e-05  5.00000000e-01                                 
 1.00024528e-05  8.14982189e-01  1.00024528e-05  7.60214384e-01  1.00024528e-05  2.51168153e-01  1.00024528e-05  0.00000000e+00  1.00024528e-05  1.80022940e+00  1.00024528e-05  5.00000000e-01                                 
 1.00033237e-05  8.14985475e-01  1.00033237e-05  7.60217219e-01  1.00033237e-05  2.51516070e-01  1.00033237e-05  0.00000000e+00  1.00033237e-05  1.79975185e+00  1.00033237e-05  5.00000000e-01                                 
 1.00050656e-05  8.14997550e-01  1.00050656e-05  7.60227806e-01  1.00050656e-05  2.51789002e-01  1.00050656e-05  0.00000000e+00  1.00050656e-05  1.80025896e+00  1.00050656e-05  5.00000000e-01                                 
 1.00085492e-05  8.15035064e-01  1.00085492e-05  7.60261132e-01  1.00085492e-05  2.52911594e-01  1.00085492e-05  0.00000000e+00  1.00085492e-05  1.79973731e+00  1.00085492e-05  5.00000000e-01                                 
 1.00155166e-05  8.15148069e-01  1.00155166e-05  7.60361909e-01  1.00155166e-05  2.55028816e-01  1.00155166e-05  0.00000000e+00  1.00155166e-05  1.80026592e+00  1.00155166e-05  5.00000000e-01                                 
