 time            v(vbep)         time            v(vben)         time            v(vout)         time            v(vphi1)        time            v(vphi2)        time            v(vref)         yes             currtemp       
 0.00000000e+00  6.58572099e-01  0.00000000e+00  6.00965054e-01  0.00000000e+00  9.46856473e-01  0.00000000e+00  0.00000000e+00  0.00000000e+00  1.79995790e+00  0.00000000e+00  5.00000000e-01  1.00000000e+00  4.20000000e+01 
 5.00000000e-12  6.58544391e-01  5.00000000e-12  6.00942090e-01  5.00000000e-12  9.47602203e-01  5.00000000e-12  1.80000000e-02  5.00000000e-12  1.80006065e+00  5.00000000e-12  5.00000000e-01                                 
 1.00000000e-11  6.58517367e-01  1.00000000e-11  6.00919709e-01  1.00000000e-11  9.48275964e-01  1.00000000e-11  3.60000000e-02  1.00000000e-11  1.80011382e+00  1.00000000e-11  5.00000000e-01                                 
 2.00000000e-11  6.58463728e-01  2.00000000e-11  6.00875116e-01  2.00000000e-11  9.49509276e-01  2.00000000e-11  7.20000000e-02  2.00000000e-11  1.80016369e+00  2.00000000e-11  5.00000000e-01                                 
 4.00000000e-11  6.58357153e-01  4.00000000e-11  6.00786263e-01  4.00000000e-11  9.51451430e-01  4.00000000e-11  1.44000000e-01  4.00000000e-11  1.80013693e+00  4.00000000e-11  5.00000000e-01                                 
 8.00000000e-11  6.58145002e-01  8.00000000e-11  6.00609312e-01  8.00000000e-11  9.53954245e-01  8.00000000e-11  2.88000000e-01  8.00000000e-11  1.80007258e+00  8.00000000e-11  5.00000000e-01                                 
 1.60000000e-10  6.57724982e-01  1.60000000e-10  6.00258410e-01  1.60000000e-10  9.56201885e-01  1.60000000e-10  5.76000000e-01  1.60000000e-10  1.80001519e+00  1.60000000e-10  5.00000000e-01                                 
 3.20000000e-10  6.56901093e-01  3.20000000e-10  5.99568178e-01  3.20000000e-10  9.49446118e-01  3.20000000e-10  1.15200000e+00  3.20000000e-10  1.80038499e+00  3.20000000e-10  5.00000000e-01                                 
 5.00000000e-10  6.55999125e-01  5.00000000e-10  5.98809505e-01  5.00000000e-10  1.11229487e+00  5.00000000e-10  1.80000000e+00  5.00000000e-10  1.18832867e-01  5.00000000e-10  5.00000000e-01                                 
 5.21617680e-10  6.55892710e-01  5.21617680e-10  5.98719772e-01  5.21617680e-10  1.15082832e+00  5.21617680e-10  1.80000000e+00  5.21617680e-10  2.35583031e-02  5.21617680e-10  5.00000000e-01                                 
 5.64853039e-10  6.55680577e-01  5.64853039e-10  5.98540799e-01  5.64853039e-10  1.22241406e+00  5.64853039e-10  1.80000000e+00  5.64853039e-10 -1.09873305e-02  5.64853039e-10  5.00000000e-01                                 
 6.51323757e-10  6.55260532e-01  6.51323757e-10  5.98185912e-01  6.51323757e-10  1.34394790e+00  6.51323757e-10  1.80000000e+00  6.51323757e-10  9.12583514e-03  6.51323757e-10  5.00000000e-01                                 
 7.73509254e-10  6.54676377e-01  7.73509254e-10  5.97691268e-01  7.73509254e-10  1.48657197e+00  7.73509254e-10  1.80000000e+00  7.73509254e-10 -7.92471965e-03  7.73509254e-10  5.00000000e-01                                 
 9.65799084e-10  6.53778410e-01  9.65799084e-10  5.96928421e-01  9.65799084e-10  1.65818008e+00  9.65799084e-10  1.80000000e+00  9.65799084e-10  7.43061451e-03  9.65799084e-10  5.00000000e-01                                 
 1.35037874e-09  6.52055440e-01  1.35037874e-09  5.95456527e-01  1.35037874e-09  1.85736135e+00  1.35037874e-09  1.80000000e+00  1.35037874e-09 -7.02070632e-03  1.35037874e-09  5.00000000e-01                                 
 1.64354834e-09  6.50803397e-01  1.64354834e-09  5.94380089e-01  1.64354834e-09  1.92115060e+00  1.64354834e-09  1.80000000e+00  1.64354834e-09  6.76590842e-03  1.64354834e-09  5.00000000e-01                                 
 1.98504240e-09  6.49405779e-01  1.98504240e-09  5.93171922e-01  1.98504240e-09  1.95215235e+00  1.98504240e-09  1.80000000e+00  1.98504240e-09 -6.39541422e-03  1.98504240e-09  5.00000000e-01                                 
 2.29835366e-09  6.48176863e-01  2.29835366e-09  5.92103935e-01  2.29835366e-09  1.96236546e+00  2.29835366e-09  1.80000000e+00  2.29835366e-09  6.15856333e-03  2.29835366e-09  5.00000000e-01                                 
 2.80665843e-09  6.46281078e-01  2.80665843e-09  5.90446461e-01  2.80665843e-09  1.96665983e+00  2.80665843e-09  1.80000000e+00  2.80665843e-09 -5.92598738e-03  2.80665843e-09  5.00000000e-01                                 
 3.40192004e-09  6.44200107e-01  3.40192004e-09  5.88613417e-01  3.40192004e-09  1.96585328e+00  3.40192004e-09  1.80000000e+00  3.40192004e-09  5.82511095e-03  3.40192004e-09  5.00000000e-01                                 
 4.48820762e-09  6.40728990e-01  4.48820762e-09  5.85526167e-01  4.48820762e-09  1.96261990e+00  4.48820762e-09  1.80000000e+00  4.48820762e-09 -5.70522764e-03  4.48820762e-09  5.00000000e-01                                 
 6.03959825e-09  6.36368695e-01  6.03959825e-09  5.81597845e-01  6.03959825e-09  1.95850593e+00  6.03959825e-09  1.80000000e+00  6.03959825e-09  5.69106486e-03  6.03959825e-09  5.00000000e-01                                 
 9.14237951e-09  6.29137541e-01  9.14237951e-09  5.74976481e-01  9.14237951e-09  1.95099521e+00  9.14237951e-09  1.80000000e+00  9.14237951e-09 -5.61995125e-03  9.14237951e-09  5.00000000e-01                                 
 1.06752818e-08  6.26143446e-01  1.06752818e-08  5.72194412e-01  1.06752818e-08  1.94792583e+00  1.06752818e-08  1.80000000e+00  1.06752818e-08  5.60072448e-03  1.06752818e-08  5.00000000e-01                                 
 1.20852830e-08  6.23629572e-01  1.20852830e-08  5.69844104e-01  1.20852830e-08  1.94520730e+00  1.20852830e-08  1.80000000e+00  1.20852830e-08 -5.51105616e-03  1.20852830e-08  5.00000000e-01                                 
 1.37241293e-08  6.20945053e-01  1.37241293e-08  5.67321373e-01  1.37241293e-08  1.94233534e+00  1.37241293e-08  1.80000000e+00  1.37241293e-08  5.48969872e-03  1.37241293e-08  5.00000000e-01                                 
 1.62420852e-08  6.17219826e-01  1.62420852e-08  5.63801891e-01  1.62420852e-08  1.93807634e+00  1.62420852e-08  1.80000000e+00  1.62420852e-08 -5.43035228e-03  1.62420852e-08  5.00000000e-01                                 
 1.94739544e-08  6.12995001e-01  1.94739544e-08  5.59788560e-01  1.94739544e-08  1.93314082e+00  1.94739544e-08  1.80000000e+00  1.94739544e-08  5.43151633e-03  1.94739544e-08  5.00000000e-01                                 
 2.37845761e-08  6.08091629e-01  2.37845761e-08  5.55107773e-01  2.37845761e-08  1.92703922e+00  2.37845761e-08  1.80000000e+00  2.37845761e-08 -5.38692373e-03  2.37845761e-08  5.00000000e-01                                 
 3.03002938e-08  6.01752637e-01  3.03002938e-08  5.49040629e-01  3.03002938e-08  1.91800056e+00  3.03002938e-08  1.80000000e+00  3.03002938e-08  5.40050302e-03  3.03002938e-08  5.00000000e-01                                 
 4.14871190e-08  5.91184381e-01  4.14871190e-08  5.39199161e-01  4.14871190e-08  1.89685967e+00  4.14871190e-08  1.80000000e+00  4.14871190e-08 -5.36757561e-03  4.14871190e-08  5.00000000e-01                                 
 6.16128500e-08  5.76659381e-01  6.16128500e-08  5.25686983e-01  6.16128500e-08  1.85118819e+00  6.16128500e-08  1.80000000e+00  6.16128500e-08  5.38961052e-03  6.16128500e-08  5.00000000e-01                                 
 7.99694786e-08  5.66401301e-01  7.99694786e-08  5.16199916e-01  7.99694786e-08  1.81682152e+00  7.99694786e-08  1.80000000e+00  7.99694786e-08 -5.35906951e-03  7.99694786e-08  5.00000000e-01                                 
 1.07994800e-07  5.56672530e-01  1.07994800e-07  5.06874254e-01  1.07994800e-07  1.77157470e+00  1.07994800e-07  1.80000000e+00  1.07994800e-07  5.38259970e-03  1.07994800e-07  5.00000000e-01                                 
 1.43738389e-07  5.58027326e-01  1.43738389e-07  5.06310535e-01  1.43738389e-07  1.75880747e+00  1.43738389e-07  1.80000000e+00  1.43738389e-07 -5.35361104e-03  1.43738389e-07  5.00000000e-01                                 
 1.68098520e-07  5.56931265e-01  1.68098520e-07  5.04521023e-01  1.68098520e-07  1.73534610e+00  1.68098520e-07  1.80000000e+00  1.68098520e-07  5.37695382e-03  1.68098520e-07  5.00000000e-01                                 
 1.93508807e-07  5.50284574e-01  1.93508807e-07  4.98431238e-01  1.93508807e-07  1.70125269e+00  1.93508807e-07  1.80000000e+00  1.93508807e-07 -5.34743766e-03  1.93508807e-07  5.00000000e-01                                 
 2.14633977e-07  5.44841697e-01  2.14633977e-07  4.93511101e-01  2.14633977e-07  1.67605867e+00  2.14633977e-07  1.80000000e+00  2.14633977e-07  5.37004300e-03  2.14633977e-07  5.00000000e-01                                 
 2.38063591e-07  5.38242647e-01  2.38063591e-07  4.87678595e-01  2.38063591e-07  1.64663119e+00  2.38063591e-07  1.80000000e+00  2.38063591e-07 -5.34038447e-03  2.38063591e-07  5.00000000e-01                                 
 2.72283414e-07  5.28586603e-01  2.72283414e-07  4.79259533e-01  2.72283414e-07  1.60341315e+00  2.72283414e-07  1.80000000e+00  2.72283414e-07  5.36433986e-03  2.72283414e-07  5.00000000e-01                                 
 3.27673538e-07  5.13906427e-01  3.27673538e-07  4.66618264e-01  3.27673538e-07  1.53318929e+00  3.27673538e-07  1.80000000e+00  3.27673538e-07 -5.33666169e-03  3.27673538e-07  5.00000000e-01                                 
 4.25065923e-07  4.81628748e-01  4.25065923e-07  4.39823058e-01  4.25065923e-07  1.40261299e+00  4.25065923e-07  1.80000000e+00  4.25065923e-07  5.36205364e-03  4.25065923e-07  5.00000000e-01                                 
 5.28045653e-07  4.55140615e-01  5.28045653e-07  4.18074666e-01  5.28045653e-07  1.26976260e+00  5.28045653e-07  1.80000000e+00  5.28045653e-07 -5.33502968e-03  5.28045653e-07  5.00000000e-01                                 
 6.21222492e-07  4.32803327e-01  6.21222492e-07  4.00043221e-01  6.21222492e-07  1.15103365e+00  6.21222492e-07  1.80000000e+00  6.21222492e-07  5.36047430e-03  6.21222492e-07  5.00000000e-01                                 
 6.33128938e-07  4.38747375e-01  6.33128938e-07  4.04798788e-01  6.33128938e-07  1.14396352e+00  6.33128938e-07  1.80000000e+00  6.33128938e-07  3.00205470e-06  6.33128938e-07  5.00000000e-01                                 
 6.56941830e-07  4.79968100e-01  6.56941830e-07  4.37747021e-01  6.56941830e-07  1.15837633e+00  6.56941830e-07  1.80000000e+00  6.56941830e-07  7.33903822e-07  6.56941830e-07  5.00000000e-01                                 
 6.59714249e-07  4.89636579e-01  6.59714249e-07  4.45465886e-01  6.59714249e-07  1.16474363e+00  6.59714249e-07  1.80000000e+00  6.59714249e-07  2.68026782e-06  6.59714249e-07  5.00000000e-01                                 
 6.65259087e-07  5.12159702e-01  6.65259087e-07  4.63435229e-01  6.65259087e-07  1.18050816e+00  6.65259087e-07  1.80000000e+00  6.65259087e-07  3.25916693e-06  6.65259087e-07  5.00000000e-01                                 
 6.76348764e-07  5.81136838e-01  6.76348764e-07  5.18769179e-01  6.76348764e-07  1.23482676e+00  6.76348764e-07  1.80000000e+00  6.76348764e-07  4.95695998e-06  6.76348764e-07  5.00000000e-01                                 
 6.90628503e-07  6.75740719e-01  6.90628503e-07  6.09781173e-01  6.90628503e-07  1.31109563e+00  6.90628503e-07  1.80000000e+00  6.90628503e-07  5.08606869e-06  6.90628503e-07  5.00000000e-01                                 
 7.05191028e-07  7.13206335e-01  7.05191028e-07  6.53784672e-01  7.05191028e-07  1.33304768e+00  7.05191028e-07  1.80000000e+00  7.05191028e-07  1.25648018e-06  7.05191028e-07  5.00000000e-01                                 
 7.20922447e-07  7.40375197e-01  7.20922447e-07  6.79622458e-01  7.20922447e-07  1.34156117e+00  7.20922447e-07  1.80000000e+00  7.20922447e-07  3.29776703e-06  7.20922447e-07  5.00000000e-01                                 
 7.43873384e-07  7.66789168e-01  7.43873384e-07  7.03532295e-01  7.43873384e-07  1.34380764e+00  7.43873384e-07  1.80000000e+00  7.43873384e-07  6.49304191e-07  7.43873384e-07  5.00000000e-01                                 
 7.67810696e-07  7.72832922e-01  7.67810696e-07  7.08724152e-01  7.67810696e-07  1.32392369e+00  7.67810696e-07  1.80000000e+00  7.67810696e-07  1.92174499e-06  7.67810696e-07  5.00000000e-01                                 
 8.04824233e-07  7.74589212e-01  8.04824233e-07  7.10206524e-01  8.04824233e-07  1.28765172e+00  8.04824233e-07  1.80000000e+00  8.04824233e-07  3.51183831e-07  8.04824233e-07  5.00000000e-01                                 
 8.46121721e-07  7.74756284e-01  8.46121721e-07  7.10353939e-01  8.46121721e-07  1.24389966e+00  8.46121721e-07  1.80000000e+00  8.46121721e-07  1.83784214e-06  8.46121721e-07  5.00000000e-01                                 
 8.97361762e-07  7.74986067e-01  8.97361762e-07  7.10539220e-01  8.97361762e-07  1.19109294e+00  8.97361762e-07  1.80000000e+00  8.97361762e-07  3.68509091e-07  8.97361762e-07  5.00000000e-01                                 
 9.09126245e-07  7.74979531e-01  9.09126245e-07  7.10538500e-01  9.09126245e-07  1.17841233e+00  9.09126245e-07  1.80000000e+00  9.09126245e-07  1.08693201e-06  9.09126245e-07  5.00000000e-01                                 
 9.32655209e-07  7.75084974e-01  9.32655209e-07  7.10625876e-01  9.32655209e-07  1.15377413e+00  9.32655209e-07  1.80000000e+00  9.32655209e-07  1.11186036e-06  9.32655209e-07  5.00000000e-01                                 
 9.79713137e-07  7.74207148e-01  9.79713137e-07  7.09891145e-01  9.79713137e-07  1.10372766e+00  9.79713137e-07  1.80000000e+00  9.79713137e-07  1.05512871e-06  9.79713137e-07  5.00000000e-01                                 
 9.88159744e-07  7.71850912e-01  9.88159744e-07  7.07909875e-01  9.88159744e-07  1.09275639e+00  9.88159744e-07  1.80000000e+00  9.88159744e-07  9.10792373e-07  9.88159744e-07  5.00000000e-01                                 
 1.00505296e-06  7.63759024e-01  1.00505296e-06  7.00958997e-01  1.00505296e-06  1.06767750e+00  1.00505296e-06  1.80000000e+00  1.00505296e-06  6.23144141e-07  1.00505296e-06  5.00000000e-01                                 
 1.03883939e-06  7.51477714e-01  1.03883939e-06  6.89992607e-01  1.03883939e-06  1.02188428e+00  1.03883939e-06  1.80000000e+00  1.03883939e-06  1.02787785e-06  1.03883939e-06  5.00000000e-01                                 
 1.07777773e-06  7.58112718e-01  1.07777773e-06  6.95927733e-01  1.07777773e-06  9.91499739e-01  1.07777773e-06  1.80000000e+00  1.07777773e-06  1.38980421e-06  1.07777773e-06  5.00000000e-01                                 
 1.13614575e-06  7.67686187e-01  1.13614575e-06  7.04327291e-01  1.13614575e-06  9.51400364e-01  1.13614575e-06  1.80000000e+00  1.13614575e-06  1.05497366e-06  1.13614575e-06  5.00000000e-01                                 
 1.19860673e-06  7.63573968e-01  1.19860673e-06  7.00769214e-01  1.19860673e-06  9.02793314e-01  1.19860673e-06  1.80000000e+00  1.19860673e-06  1.04557272e-06  1.19860673e-06  5.00000000e-01                                 
 1.30922801e-06  7.59180869e-01  1.30922801e-06  6.96888699e-01  1.30922801e-06  8.29437452e-01  1.30922801e-06  1.80000000e+00  1.30922801e-06  1.09058363e-06  1.30922801e-06  5.00000000e-01                                 
 1.41135537e-06  7.65492549e-01  1.41135537e-06  7.02430073e-01  1.41135537e-06  7.76327640e-01  1.41135537e-06  1.80000000e+00  1.41135537e-06  1.18940239e-06  1.41135537e-06  5.00000000e-01                                 
 1.58935661e-06  7.60897662e-01  1.58935661e-06  6.98415551e-01  1.58935661e-06  6.76621357e-01  1.58935661e-06  1.80000000e+00  1.58935661e-06  9.68437951e-07  1.58935661e-06  5.00000000e-01                                 
 1.76130014e-06  7.62695286e-01  1.76130014e-06  6.99985454e-01  1.76130014e-06  5.93467146e-01  1.76130014e-06  1.80000000e+00  1.76130014e-06  1.23606414e-06  1.76130014e-06  5.00000000e-01                                 
 2.01900322e-06  7.63482334e-01  2.01900322e-06  7.00684590e-01  2.01900322e-06  5.12803397e-01  2.01900322e-06  1.80000000e+00  2.01900322e-06  9.65084003e-07  2.01900322e-06  5.00000000e-01                                 
 2.30763387e-06  7.61098456e-01  2.30763387e-06  6.98583532e-01  2.30763387e-06  4.88343877e-01  2.30763387e-06  1.80000000e+00  2.30763387e-06  1.21448702e-06  2.30763387e-06  5.00000000e-01                                 
 2.57057132e-06  7.64508219e-01  2.57057132e-06  7.01577419e-01  2.57057132e-06  5.04633140e-01  2.57057132e-06  1.80000000e+00  2.57057132e-06  9.98682922e-07  2.57057132e-06  5.00000000e-01                                 
 2.85483712e-06  7.60520362e-01  2.85483712e-06  6.98076914e-01  2.85483712e-06  5.00431713e-01  2.85483712e-06  1.80000000e+00  2.85483712e-06  1.17037507e-06  2.85483712e-06  5.00000000e-01                                 
 3.15360926e-06  7.64517657e-01  3.15360926e-06  7.01582679e-01  3.15360926e-06  4.98377276e-01  3.15360926e-06  1.80000000e+00  3.15360926e-06  1.04286848e-06  3.15360926e-06  5.00000000e-01                                 
 3.45686384e-06  7.60914104e-01  3.45686384e-06  6.98427064e-01  3.45686384e-06  5.00777472e-01  3.45686384e-06  1.80000000e+00  3.45686384e-06  1.13093687e-06  3.45686384e-06  5.00000000e-01                                 
 3.79292845e-06  7.63906843e-01  3.79292845e-06  7.01047765e-01  3.79292845e-06  5.00254314e-01  3.79292845e-06  1.80000000e+00  3.79292845e-06  1.07424266e-06  3.79292845e-06  5.00000000e-01                                 
 4.25460690e-06  7.61600460e-01  4.25460690e-06  6.99032921e-01  4.25460690e-06  4.99831547e-01  4.25460690e-06  1.80000000e+00  4.25460690e-06  1.11055035e-06  4.25460690e-06  5.00000000e-01                                 
 4.96260139e-06  7.63410380e-01  4.96260139e-06  7.00613208e-01  4.96260139e-06  5.00652414e-01  4.96260139e-06  1.80000000e+00  4.96260139e-06  1.08506450e-06  4.96260139e-06  5.00000000e-01                                 
 5.95092955e-06  7.61969537e-01  5.95092955e-06  6.99357775e-01  5.95092955e-06  4.99719387e-01  5.95092955e-06  1.80000000e+00  5.95092955e-06  1.10490877e-06  5.95092955e-06  5.00000000e-01                                 
 6.95092955e-06  7.63114016e-01  6.95092955e-06  7.00353671e-01  6.95092955e-06  5.00660426e-01  6.95092955e-06  1.80000000e+00  6.95092955e-06  1.08865249e-06  6.95092955e-06  5.00000000e-01                                 
 7.95092955e-06  7.62272994e-01  7.95092955e-06  6.99624438e-01  7.95092955e-06  4.99766474e-01  7.95092955e-06  1.80000000e+00  7.95092955e-06  1.10223363e-06  7.95092955e-06  5.00000000e-01                                 
 8.95092955e-06  7.62822130e-01  8.95092955e-06  7.00097942e-01  8.95092955e-06  5.00560782e-01  8.95092955e-06  1.80000000e+00  8.95092955e-06  1.09045273e-06  8.95092955e-06  5.00000000e-01                                 
 9.95092955e-06  7.62563859e-01  9.95092955e-06  6.99879673e-01  9.95092955e-06  4.99905544e-01  9.95092955e-06  1.80000000e+00  9.95092955e-06  1.10128336e-06  9.95092955e-06  5.00000000e-01                                 
 1.00005000e-05  7.61438028e-01  1.00005000e-05  6.98885216e-01  1.00005000e-05  4.99143735e-01  1.00005000e-05  1.80000000e+00  1.00005000e-05  1.05720126e-06  1.00005000e-05  5.00000000e-01                                 
 1.00005500e-05  7.61441329e-01  1.00005500e-05  6.98888748e-01  1.00005500e-05  4.91291588e-01  1.00005500e-05  1.62000000e+00  1.00005500e-05 -7.86281996e-05  1.00005500e-05  5.00000000e-01                                 
 1.00006500e-05  7.61449287e-01  1.00006500e-05  6.98895763e-01  1.00006500e-05  4.77459674e-01  1.00006500e-05  1.26000000e+00  1.00006500e-05 -6.16317999e-05  1.00006500e-05  5.00000000e-01                                 
