 time            v(vbep)         time            v(vben)         time            v(vout)         time            v(vphi1)        time            v(vphi2)        time            v(vref)         yes             currtemp       
 0.00000000e+00  7.85122964e-01  0.00000000e+00  7.41564627e-01  0.00000000e+00  6.57466370e-02  0.00000000e+00  0.00000000e+00  0.00000000e+00  1.79997878e+00  0.00000000e+00  5.00000000e-01  1.00000000e+00 -3.50000000e+01 
 5.00000000e-12  7.85110058e-01  5.00000000e-12  7.41553856e-01  5.00000000e-12  6.61798244e-02  5.00000000e-12  1.80000000e-02  5.00000000e-12  1.80005724e+00  5.00000000e-12  5.00000000e-01                                 
 1.00000000e-11  7.85097315e-01  1.00000000e-11  7.41543289e-01  1.00000000e-11  6.65666519e-02  1.00000000e-11  3.60000000e-02  1.00000000e-11  1.80009312e+00  1.00000000e-11  5.00000000e-01                                 
 2.00000000e-11  7.85071914e-01  2.00000000e-11  7.41522210e-01  2.00000000e-11  6.72762804e-02  2.00000000e-11  7.20000000e-02  2.00000000e-11  1.80012160e+00  2.00000000e-11  5.00000000e-01                                 
 4.00000000e-11  7.85021265e-01  4.00000000e-11  7.41480154e-01  4.00000000e-11  6.84111470e-02  4.00000000e-11  1.44000000e-01  4.00000000e-11  1.80008964e+00  4.00000000e-11  5.00000000e-01                                 
 8.00000000e-11  7.84920268e-01  8.00000000e-11  7.41396254e-01  8.00000000e-11  7.01025421e-02  8.00000000e-11  2.88000000e-01  8.00000000e-11  1.80003763e+00  8.00000000e-11  5.00000000e-01                                 
 1.60000000e-10  7.84719540e-01  1.60000000e-10  7.41229325e-01  1.60000000e-10  7.28488031e-02  1.60000000e-10  5.76000000e-01  1.60000000e-10  1.80000712e+00  1.60000000e-10  5.00000000e-01                                 
 3.20000000e-10  7.84322979e-01  3.20000000e-10  7.40898866e-01  3.20000000e-10  1.09352471e-01  3.20000000e-10  1.15200000e+00  3.20000000e-10  1.79983468e+00  3.20000000e-10  5.00000000e-01                                 
 5.00000000e-10  7.83884536e-01  5.00000000e-10  7.40532455e-01  5.00000000e-10  4.62383120e-01  5.00000000e-10  1.80000000e+00  5.00000000e-10  8.65546477e-02  5.00000000e-10  5.00000000e-01                                 
 5.20632329e-10  7.83834845e-01  5.20632329e-10  7.40490852e-01  5.20632329e-10  5.24344309e-01  5.20632329e-10  1.80000000e+00  5.20632329e-10  1.43124438e-02  5.20632329e-10  5.00000000e-01                                 
 5.61896987e-10  7.83735665e-01  5.61896987e-10  7.40407786e-01  5.61896987e-10  6.32929370e-01  5.61896987e-10  1.80000000e+00  5.61896987e-10 -6.70719877e-03  5.61896987e-10  5.00000000e-01                                 
 6.44426303e-10  7.83538538e-01  6.44426303e-10  7.40242524e-01  6.44426303e-10  7.87544512e-01  6.44426303e-10  1.80000000e+00  6.44426303e-10  6.08938543e-03  6.44426303e-10  5.00000000e-01                                 
 7.69791347e-10  7.83242219e-01  7.69791347e-10  7.39993691e-01  7.69791347e-10  9.47005840e-01  7.69791347e-10  1.80000000e+00  7.69791347e-10 -5.35534043e-03  7.69791347e-10  5.00000000e-01                                 
 9.56441484e-10  7.82807835e-01  9.56441484e-10  7.39628035e-01  9.56441484e-10  1.12388453e+00  9.56441484e-10  1.80000000e+00  9.56441484e-10  5.17113915e-03  9.56441484e-10  5.00000000e-01                                 
 1.25759982e-09  7.82123335e-01  1.25759982e-09  7.39049739e-01  1.25759982e-09  1.34084554e+00  1.25759982e-09  1.80000000e+00  1.25759982e-09 -4.90770829e-03  1.25759982e-09  5.00000000e-01                                 
 1.83296854e-09  7.80868230e-01  1.83296854e-09  7.37982884e-01  1.83296854e-09  1.57304059e+00  1.83296854e-09  1.80000000e+00  1.83296854e-09  4.88513848e-03  1.83296854e-09  5.00000000e-01                                 
 2.26807265e-09  7.79963135e-01  2.26807265e-09  7.37208257e-01  2.26807265e-09  1.63785869e+00  2.26807265e-09  1.80000000e+00  2.26807265e-09 -4.68337219e-03  2.26807265e-09  5.00000000e-01                                 
 2.65076012e-09  7.79194999e-01  2.65076012e-09  7.36547528e-01  2.65076012e-09  1.65835277e+00  2.65076012e-09  1.80000000e+00  2.65076012e-09  4.61674551e-03  2.65076012e-09  5.00000000e-01                                 
 3.01363583e-09  7.78488925e-01  3.01363583e-09  7.35937579e-01  3.01363583e-09  1.66501555e+00  3.01363583e-09  1.80000000e+00  3.01363583e-09 -4.44436570e-03  3.01363583e-09  5.00000000e-01                                 
 3.39787435e-09  7.77763400e-01  3.39787435e-09  7.35308299e-01  3.39787435e-09  1.66678272e+00  3.39787435e-09  1.80000000e+00  3.39787435e-09  4.34620599e-03  3.39787435e-09  5.00000000e-01                                 
 4.16635141e-09  7.76374719e-01  4.16635141e-09  7.34097034e-01  4.16635141e-09  1.66556387e+00  4.16635141e-09  1.80000000e+00  4.16635141e-09 -4.26595729e-03  4.16635141e-09  5.00000000e-01                                 
 5.08040721e-09  7.74821272e-01  5.08040721e-09  7.32731731e-01  5.08040721e-09  1.66236130e+00  5.08040721e-09  1.80000000e+00  5.08040721e-09  4.23235158e-03  5.08040721e-09  5.00000000e-01                                 
 6.90851882e-09  7.71982024e-01  6.90851882e-09  7.30210848e-01  6.90851882e-09  1.65727765e+00  6.90851882e-09  1.80000000e+00  6.90851882e-09 -4.19123011e-03  6.90851882e-09  5.00000000e-01                                 
 9.99356540e-09  7.67828816e-01  9.99356540e-09  7.26469451e-01  9.99356540e-09  1.65118880e+00  9.99356540e-09  1.80000000e+00  9.99356540e-09  4.19260361e-03  9.99356540e-09  5.00000000e-01                                 
 1.61636586e-08  7.61158889e-01  1.61636586e-08  7.20349051e-01  1.61636586e-08  1.63642111e+00  1.61636586e-08  1.80000000e+00  1.61636586e-08 -4.16937992e-03  1.61636586e-08  5.00000000e-01                                 
 2.85038449e-08  7.51507986e-01  2.85038449e-08  7.11308477e-01  2.85038449e-08  1.58458451e+00  2.85038449e-08  1.80000000e+00  2.85038449e-08  4.18186499e-03  2.85038449e-08  5.00000000e-01                                 
 4.75555734e-08  7.40956919e-01  4.75555734e-08  7.01331252e-01  4.75555734e-08  1.47637334e+00  4.75555734e-08  1.80000000e+00  4.75555734e-08 -4.16319279e-03  4.75555734e-08  5.00000000e-01                                 
 7.55140128e-08  7.29680368e-01  7.55140128e-08  6.90703289e-01  7.55140128e-08  1.31456233e+00  7.55140128e-08  1.80000000e+00  7.55140128e-08  4.17803554e-03  7.55140128e-08  5.00000000e-01                                 
 1.17318768e-07  7.17970565e-01  1.17318768e-07  6.79670162e-01  1.17318768e-07  1.07005645e+00  1.17318768e-07  1.80000000e+00  1.17318768e-07 -4.16044493e-03  1.17318768e-07  5.00000000e-01                                 
 1.58507891e-07  7.09470856e-01  1.58507891e-07  6.71702827e-01  1.58507891e-07  8.53300828e-01  1.58507891e-07  1.80000000e+00  1.58507891e-07  4.17594536e-03  1.58507891e-07  5.00000000e-01                                 
 2.08742349e-07  7.01188894e-01  2.08742349e-07  6.63995486e-01  2.08742349e-07  6.91351553e-01  2.08742349e-07  1.80000000e+00  2.08742349e-07 -4.15845718e-03  2.08742349e-07  5.00000000e-01                                 
 2.57998458e-07  6.94511185e-01  2.57998458e-07  6.57823018e-01  2.57998458e-07  6.20516907e-01  2.57998458e-07  1.80000000e+00  2.57998458e-07  4.17417371e-03  2.57998458e-07  5.00000000e-01                                 
 3.21162573e-07  6.87312901e-01  3.21162573e-07  6.51210544e-01  3.21162573e-07  5.48655929e-01  3.21162573e-07  1.80000000e+00  3.21162573e-07 -4.15685254e-03  3.21162573e-07  5.00000000e-01                                 
 3.79864146e-07  6.81624992e-01  3.79864146e-07  6.46014837e-01  3.79864146e-07  5.12245638e-01  3.79864146e-07  1.80000000e+00  3.79864146e-07  4.17272998e-03  3.79864146e-07  5.00000000e-01                                 
 4.97267290e-07  6.72123647e-01  4.97267290e-07  6.37389220e-01  4.97267290e-07  5.01370795e-01  4.97267290e-07  1.80000000e+00  4.97267290e-07 -4.15572143e-03  4.97267290e-07  5.00000000e-01                                 
 6.70009253e-07  6.61279563e-01  6.70009253e-07  6.27611564e-01  6.70009253e-07  4.97259416e-01  6.70009253e-07  1.80000000e+00  6.70009253e-07  4.17211086e-03  6.70009253e-07  5.00000000e-01                                 
 6.93554342e-07  6.60058126e-01  6.93554342e-07  6.26513820e-01  6.93554342e-07  4.97350433e-01  6.93554342e-07  1.80000000e+00  6.93554342e-07  4.69834328e-07  6.93554342e-07  5.00000000e-01                                 
 7.40644520e-07  6.57686453e-01  7.40644520e-07  6.24383660e-01  7.40644520e-07  4.96650554e-01  7.40644520e-07  1.80000000e+00  7.40644520e-07 -4.95669897e-07  7.40644520e-07  5.00000000e-01                                 
 8.34824876e-07  6.53363119e-01  8.34824876e-07  6.20504095e-01  8.34824876e-07  4.95317573e-01  8.34824876e-07  1.80000000e+00  8.34824876e-07  4.72685389e-07  8.34824876e-07  5.00000000e-01                                 
 1.02318559e-06  6.46040496e-01  1.02318559e-06  6.13938389e-01  1.02318559e-06  4.93198093e-01  1.02318559e-06  1.80000000e+00  1.02318559e-06 -4.90107444e-07  1.02318559e-06  5.00000000e-01                                 
 1.39990701e-06  6.34953625e-01  1.39990701e-06  6.03989743e-01  1.39990701e-06  4.91171941e-01  1.39990701e-06  1.80000000e+00  1.39990701e-06  4.79501715e-07  1.39990701e-06  5.00000000e-01                                 
 2.15334987e-06  6.20580943e-01  2.15334987e-06  5.91005931e-01  2.15334987e-06  5.01855697e-01  2.15334987e-06  1.80000000e+00  2.15334987e-06 -4.82733118e-07  2.15334987e-06  5.00000000e-01                                 
 3.08933509e-06  6.11020824e-01  3.08933509e-06  5.82093343e-01  3.08933509e-06  5.06173670e-01  3.08933509e-06  1.80000000e+00  3.08933509e-06  4.85591479e-07  3.08933509e-06  5.00000000e-01                                 
 3.95179589e-06  6.10033248e-01  3.95179589e-06  5.80372255e-01  3.95179589e-06  4.97629981e-01  3.95179589e-06  1.80000000e+00  3.95179589e-06 -4.76737135e-07  3.95179589e-06  5.00000000e-01                                 
 4.07679589e-06  6.11004523e-01  4.07679589e-06  5.81023637e-01  4.07679589e-06  4.98622866e-01  4.07679589e-06  1.80000000e+00  4.07679589e-06  7.30576353e-09  4.07679589e-06  5.00000000e-01                                 
 4.32679589e-06  6.14496093e-01  4.32679589e-06  5.83566695e-01  4.32679589e-06  5.01651235e-01  4.32679589e-06  1.80000000e+00  4.32679589e-06  1.13349640e-08  4.32679589e-06  5.00000000e-01                                 
 4.38929589e-06  6.16121027e-01  4.38929589e-06  5.84804273e-01  4.38929589e-06  5.02932475e-01  4.38929589e-06  1.80000000e+00  4.38929589e-06  1.32242779e-08  4.38929589e-06  5.00000000e-01                                 
 4.51429589e-06  6.20462074e-01  4.51429589e-06  5.88152612e-01  4.51429589e-06  5.06057787e-01  4.51429589e-06  1.80000000e+00  4.51429589e-06  1.89287401e-08  4.51429589e-06  5.00000000e-01                                 
 4.54554589e-06  6.22048528e-01  4.54554589e-06  5.89390765e-01  4.54554589e-06  5.06940053e-01  4.54554589e-06  1.80000000e+00  4.54554589e-06  2.13154222e-08  4.54554589e-06  5.00000000e-01                                 
 4.60804589e-06  6.25803101e-01  4.60804589e-06  5.92332854e-01  4.60804589e-06  5.08281197e-01  4.60804589e-06  1.80000000e+00  4.60804589e-06  2.74450564e-08  4.60804589e-06  5.00000000e-01                                 
 4.73304589e-06  6.40701198e-01  4.73304589e-06  6.04138725e-01  4.73304589e-06  5.09998523e-01  4.73304589e-06  1.80000000e+00  4.73304589e-06  6.04984255e-08  4.73304589e-06  5.00000000e-01                                 
 4.76429589e-06  6.47940196e-01  4.76429589e-06  6.09909507e-01  4.76429589e-06  5.11075452e-01  4.76429589e-06  1.80000000e+00  4.76429589e-06  8.17410463e-08  4.76429589e-06  5.00000000e-01                                 
 4.82679589e-06  6.71087447e-01  4.82679589e-06  6.28437489e-01  4.82679589e-06  5.15179608e-01  4.82679589e-06  1.80000000e+00  4.82679589e-06  1.77833047e-07  4.82679589e-06  5.00000000e-01                                 
 4.84242089e-06  6.81562792e-01  4.84242089e-06  6.36862934e-01  4.84242089e-06  5.17132461e-01  4.84242089e-06  1.80000000e+00  4.84242089e-06  2.35527350e-07  4.84242089e-06  5.00000000e-01                                 
 4.87367089e-06  7.11375980e-01  4.87367089e-06  6.61109354e-01  4.87367089e-06  5.22863103e-01  4.87367089e-06  1.80000000e+00  4.87367089e-06  4.50316765e-07  4.87367089e-06  5.00000000e-01                                 
 4.93617089e-06  8.25372516e-01  4.93617089e-06  7.79813349e-01  4.93617089e-06  5.37356153e-01  4.93617089e-06  1.80000000e+00  4.93617089e-06  1.19733078e-06  4.93617089e-06  5.00000000e-01                                 
 4.94583938e-06  8.39204554e-01  4.94583938e-06  7.94433083e-01  4.94583938e-06  5.34010999e-01  4.94583938e-06  1.80000000e+00  4.94583938e-06  7.61417632e-07  4.94583938e-06  5.00000000e-01                                 
 4.96517638e-06  8.63482534e-01  4.96517638e-06  8.18076282e-01  4.96517638e-06  5.27791034e-01  4.96517638e-06  1.80000000e+00  4.96517638e-06  5.61875535e-07  4.96517638e-06  5.00000000e-01                                 
 4.99643044e-06  9.04935697e-01  4.99643044e-06  8.53993296e-01  4.99643044e-06  5.27316762e-01  4.99643044e-06  1.80000000e+00  4.99643044e-06  8.12080351e-07  4.99643044e-06  5.00000000e-01                                 
 5.02849116e-06  9.35089702e-01  5.02849116e-06  8.75457796e-01  5.02849116e-06  5.24140845e-01  5.02849116e-06  1.80000000e+00  5.02849116e-06  1.91944881e-07  5.02849116e-06  5.00000000e-01                                 
 5.03322376e-06  9.34785571e-01  5.03322376e-06  8.75371016e-01  5.03322376e-06  5.21307020e-01  5.03322376e-06  1.80000000e+00  5.03322376e-06  3.01389288e-08  5.03322376e-06  5.00000000e-01                                 
 5.04268895e-06  9.33118637e-01  5.04268895e-06  8.74331075e-01  5.04268895e-06  5.15548178e-01  5.04268895e-06  1.80000000e+00  5.04268895e-06 -1.11634035e-07  5.04268895e-06  5.00000000e-01                                 
 5.06161934e-06  9.32032339e-01  5.06161934e-06  8.73545124e-01  5.06161934e-06  5.09050624e-01  5.06161934e-06  1.80000000e+00  5.06161934e-06  7.15747786e-08  5.06161934e-06  5.00000000e-01                                 
 5.08131243e-06  9.32335193e-01  5.08131243e-06  8.73793006e-01  5.08131243e-06  5.07447422e-01  5.08131243e-06  1.80000000e+00  5.08131243e-06 -1.87323423e-08  5.08131243e-06  5.00000000e-01                                 
 5.12069861e-06  9.30694193e-01  5.12069861e-06  8.72677721e-01  5.12069861e-06  5.04966043e-01  5.12069861e-06  1.80000000e+00  5.12069861e-06 -1.23277115e-08  5.12069861e-06  5.00000000e-01                                 
 5.16520061e-06  9.30039851e-01  5.16520061e-06  8.72265015e-01  5.16520061e-06  5.04220225e-01  5.16520061e-06  1.80000000e+00  5.16520061e-06  6.81992179e-09  5.16520061e-06  5.00000000e-01                                 
 5.23689491e-06  9.27525816e-01  5.23689491e-06  8.70557215e-01  5.23689491e-06  5.02472410e-01  5.23689491e-06  1.80000000e+00  5.23689491e-06 -3.18015517e-08  5.23689491e-06  5.00000000e-01                                 
 5.34910903e-06  9.24169213e-01  5.34910903e-06  8.68273891e-01  5.34910903e-06  5.00250650e-01  5.34910903e-06  1.80000000e+00  5.34910903e-06  9.96606016e-09  5.34910903e-06  5.00000000e-01                                 
 5.51361322e-06  9.16642043e-01  5.51361322e-06  8.62922512e-01  5.51361322e-06  4.95621692e-01  5.51361322e-06  1.80000000e+00  5.51361322e-06 -4.69235378e-08  5.51361322e-06  5.00000000e-01                                 
 5.78052848e-06  8.99594607e-01  5.78052848e-06  8.49887832e-01  5.78052848e-06  4.85740512e-01  5.78052848e-06  1.80000000e+00  5.78052848e-06 -1.05620774e-08  5.78052848e-06  5.00000000e-01                                 
 6.14680620e-06  8.78066700e-01  6.14680620e-06  8.31508185e-01  6.14680620e-06  4.92497918e-01  6.14680620e-06  1.80000000e+00  6.14680620e-06 -4.17459542e-08  6.14680620e-06  5.00000000e-01                                 
 6.54759558e-06  8.73394659e-01  6.54759558e-06  8.27318923e-01  6.54759558e-06  5.12342837e-01  6.54759558e-06  1.80000000e+00  6.54759558e-06  3.89035141e-08  6.54759558e-06  5.00000000e-01                                 
 6.63733360e-06  8.73486312e-01  6.63733360e-06  8.27385049e-01  6.63733360e-06  5.09253466e-01  6.63733360e-06  1.80000000e+00  6.63733360e-06  5.49919194e-09  6.63733360e-06  5.00000000e-01                                 
 6.81680964e-06  8.73850502e-01  6.81680964e-06  8.27716268e-01  6.81680964e-06  5.05665938e-01  6.81680964e-06  1.80000000e+00  6.81680964e-06  6.73399738e-09  6.81680964e-06  5.00000000e-01                                 
 7.17576173e-06  8.73921609e-01  7.17576173e-06  8.27781480e-01  7.17576173e-06  5.05562580e-01  7.17576173e-06  1.80000000e+00  7.17576173e-06  3.49082149e-09  7.17576173e-06  5.00000000e-01                                 
 7.64828074e-06  8.73898840e-01  7.64828074e-06  8.27760272e-01  7.64828074e-06  5.04948626e-01  7.64828074e-06  1.80000000e+00  7.64828074e-06  6.39206900e-09  7.64828074e-06  5.00000000e-01                                 
 8.59331876e-06  8.73912762e-01  8.59331876e-06  8.27773424e-01  8.59331876e-06  5.03354146e-01  8.59331876e-06  1.80000000e+00  8.59331876e-06  3.60988897e-09  8.59331876e-06  5.00000000e-01                                 
 9.59331876e-06  8.73901195e-01  9.59331876e-06  8.27762418e-01  9.59331876e-06  5.03957779e-01  9.59331876e-06  1.80000000e+00  9.59331876e-06  6.33521747e-09  9.59331876e-06  5.00000000e-01                                 
 1.00005000e-05  8.73910869e-01  1.00005000e-05  8.27771695e-01  1.00005000e-05  5.03584306e-01  1.00005000e-05  1.80000000e+00  1.00005000e-05  3.68317804e-09  1.00005000e-05  5.00000000e-01                                 
 1.00005500e-05  8.73910734e-01  1.00005500e-05  8.27771570e-01  1.00005500e-05  4.95727741e-01  1.00005500e-05  1.62000000e+00  1.00005500e-05 -6.47001333e-05  1.00005500e-05  5.00000000e-01                                 
 1.00006500e-05  8.73910504e-01  1.00006500e-05  8.27771342e-01  1.00006500e-05  4.82483636e-01  1.00006500e-05  1.26000000e+00  1.00006500e-05 -3.88500316e-05  1.00006500e-05  5.00000000e-01                                 
 1.00008500e-05  8.73910145e-01  1.00008500e-05  8.27770976e-01  1.00008500e-05  4.82368494e-01  1.00008500e-05  5.40000000e-01  1.00008500e-05  1.07168675e-04  1.00008500e-05  5.00000000e-01                                 
 1.00010000e-05  8.73909798e-01  1.00010000e-05  8.27770672e-01  1.00010000e-05  4.51907971e-01  1.00010000e-05  0.00000000e+00  1.00010000e-05  1.53998873e+00  1.00010000e-05  5.00000000e-01                                 
 1.00010134e-05  8.73909710e-01  1.00010134e-05  8.27770616e-01  1.00010134e-05  4.35965771e-01  1.00010134e-05  0.00000000e+00  1.00010134e-05  1.66700794e+00  1.00010134e-05  5.00000000e-01                                 
 1.00010402e-05  8.73909534e-01  1.00010402e-05  8.27770496e-01  1.00010402e-05  3.94643480e-01  1.00010402e-05  0.00000000e+00  1.00010402e-05  1.79439852e+00  1.00010402e-05  5.00000000e-01                                 
 1.00010939e-05  8.73909414e-01  1.00010939e-05  8.27770341e-01  1.00010939e-05  3.19144479e-01  1.00010939e-05  0.00000000e+00  1.00010939e-05  1.79759608e+00  1.00010939e-05  5.00000000e-01                                 
 1.00011532e-05  8.73909493e-01  1.00011532e-05  8.27770312e-01  1.00011532e-05  2.86229006e-01  1.00011532e-05  0.00000000e+00  1.00011532e-05  1.79694422e+00  1.00011532e-05  5.00000000e-01                                 
