 time            v(vbep)         time            v(vben)         time            v(vout)         time            v(vphi1)        time            v(vphi2)        time            v(vref)         time            v(voutc)        time            v(voutcc)       yes             currtemp       
 0.00000000e+00  7.54884784e-01  0.00000000e+00  6.91455937e-01  0.00000000e+00  1.56003276e+00  0.00000000e+00  0.00000000e+00  0.00000000e+00  1.80000000e+00  0.00000000e+00  6.93318168e-01  0.00000000e+00  1.56003274e+00  0.00000000e+00  1.56694003e+00  1.00000000e+00  4.60000000e+01 
 5.00000000e-12  7.54906615e-01  5.00000000e-12  6.91509943e-01  5.00000000e-12  1.56065679e+00  5.00000000e-12  1.80000000e-02  5.00000000e-12  1.80018514e+00  5.00000000e-12  6.93710339e-01  5.00000000e-12  1.56038104e+00  5.00000000e-12  1.56695317e+00                                 
 1.00000000e-11  7.54916210e-01  1.00000000e-11  6.91545596e-01  1.00000000e-11  1.56110763e+00  1.00000000e-11  3.60000000e-02  1.00000000e-11  1.80026907e+00  1.00000000e-11  6.94018633e-01  1.00000000e-11  1.56065629e+00  1.00000000e-11  1.56696008e+00                                 
 2.00000000e-11  7.54922588e-01  2.00000000e-11  6.91595244e-01  2.00000000e-11  1.56175820e+00  2.00000000e-11  7.20000000e-02  2.00000000e-11  1.80032248e+00  2.00000000e-11  6.94501059e-01  2.00000000e-11  1.56109056e+00  2.00000000e-11  1.56696652e+00                                 
 4.00000000e-11  7.54910421e-01  4.00000000e-11  6.91631512e-01  4.00000000e-11  1.56219217e+00  4.00000000e-11  1.44000000e-01  4.00000000e-11  1.80019225e+00  4.00000000e-11  6.94964638e-01  4.00000000e-11  1.56152349e+00  4.00000000e-11  1.56696040e+00                                 
 8.00000000e-11  7.54896869e-01  8.00000000e-11  6.91637076e-01  8.00000000e-11  1.56206076e+00  8.00000000e-11  2.88000000e-01  8.00000000e-11  1.80003004e+00  8.00000000e-11  6.95098355e-01  8.00000000e-11  1.56168542e+00  8.00000000e-11  1.56694566e+00                                 
 1.60000000e-10  7.54897472e-01  1.60000000e-10  6.91624795e-01  1.60000000e-10  1.56157396e+00  1.60000000e-10  5.76000000e-01  1.60000000e-10  1.80000967e+00  1.60000000e-10  6.94897205e-01  1.60000000e-10  1.56154650e+00  1.60000000e-10  1.56694019e+00                                 
 3.20000000e-10  7.54830494e-01  3.20000000e-10  6.91182134e-01  3.20000000e-10  1.55779954e+00  3.20000000e-10  1.15200000e+00  3.20000000e-10  1.80073076e+00  3.20000000e-10  6.91062275e-01  3.20000000e-10  1.55841261e+00  3.20000000e-10  1.56691016e+00                                 
 5.00000000e-10  7.54918640e-01  5.00000000e-10  6.91651714e-01  5.00000000e-10  1.55401406e+00  5.00000000e-10  1.80000000e+00  5.00000000e-10  1.61298696e-01  5.00000000e-10  6.97346824e-01  5.00000000e-10  1.56375960e+00  5.00000000e-10  1.56699897e+00                                 
 5.21116467e-10  7.54919459e-01  5.21116467e-10  6.91687058e-01  5.21116467e-10  1.55336940e+00  5.21116467e-10  1.80000000e+00  5.21116467e-10  4.29931868e-02  5.21116467e-10  6.98936321e-01  5.21116467e-10  1.56465479e+00  5.21116467e-10  1.56698935e+00                                 
 5.63349402e-10  7.54994900e-01  5.63349402e-10  6.91756180e-01  5.63349402e-10  1.55277330e+00  5.63349402e-10  1.80000000e+00  5.63349402e-10 -1.53606361e-02  5.63349402e-10  7.01095942e-01  5.63349402e-10  1.56651171e+00  5.63349402e-10  1.56698566e+00                                 
 6.47815272e-10  7.55101354e-01  6.47815272e-10  6.91594171e-01  6.47815272e-10  1.54986334e+00  6.47815272e-10  1.80000000e+00  6.47815272e-10  1.20639719e-02  6.47815272e-10  7.00601456e-01  6.47815272e-10  1.56629978e+00  6.47815272e-10  1.56693365e+00                                 
 7.66966278e-10  7.55142114e-01  7.66966278e-10  6.91558389e-01  7.66966278e-10  1.54830222e+00  7.66966278e-10  1.80000000e+00  7.66966278e-10 -9.49134188e-03  7.66966278e-10  7.01816005e-01  7.66966278e-10  1.56719482e+00  7.66966278e-10  1.56695904e+00                                 
 9.44468580e-10  7.55198098e-01  9.44468580e-10  6.91525661e-01  9.44468580e-10  1.54733562e+00  9.44468580e-10  1.80000000e+00  9.44468580e-10  8.69163881e-03  9.44468580e-10  7.02597325e-01  9.44468580e-10  1.56803012e+00  9.44468580e-10  1.56693156e+00                                 
 1.29947319e-09  7.55170686e-01  1.29947319e-09  6.91450247e-01  1.29947319e-09  1.54540930e+00  1.29947319e-09  1.80000000e+00  1.29947319e-09 -7.90608642e-03  1.29947319e-09  7.02266264e-01  1.29947319e-09  1.56761270e+00  1.29947319e-09  1.56695769e+00                                 
 1.71802739e-09  7.55115680e-01  1.71802739e-09  6.91465327e-01  1.71802739e-09  1.54411504e+00  1.71802739e-09  1.80000000e+00  1.71802739e-09  7.59809484e-03  1.71802739e-09  7.01965475e-01  1.71802739e-09  1.56747583e+00  1.71802739e-09  1.56700044e+00                                 
 2.36626885e-09  7.54981233e-01  2.36626885e-09  6.91426354e-01  2.36626885e-09  1.54172297e+00  2.36626885e-09  1.80000000e+00  2.36626885e-09 -7.29697008e-03  2.36626885e-09  7.00467471e-01  2.36626885e-09  1.56604304e+00  2.36626885e-09  1.56711513e+00                                 
 3.03509955e-09  7.54918636e-01  3.03509955e-09  6.91456307e-01  3.03509955e-09  1.53985987e+00  3.03509955e-09  1.80000000e+00  3.03509955e-09  7.06003830e-03  3.03509955e-09  6.99734453e-01  3.03509955e-09  1.56551577e+00  3.03509955e-09  1.56723627e+00                                 
 4.03386447e-09  7.54853311e-01  4.03386447e-09  6.91423271e-01  4.03386447e-09  1.53598874e+00  4.03386447e-09  1.80000000e+00  4.03386447e-09 -6.89724704e-03  4.03386447e-09  6.97800751e-01  4.03386447e-09  1.56370940e+00  4.03386447e-09  1.56740963e+00                                 
 5.50703338e-09  7.54846245e-01  5.50703338e-09  6.91458419e-01  5.50703338e-09  1.53084571e+00  5.50703338e-09  1.80000000e+00  5.50703338e-09  6.79516136e-03  5.50703338e-09  6.96325647e-01  5.50703338e-09  1.56253093e+00  5.50703338e-09  1.56760414e+00                                 
 8.45337121e-09  7.54824510e-01  8.45337121e-09  6.91433718e-01  8.45337121e-09  1.51900350e+00  8.45337121e-09  1.80000000e+00  8.45337121e-09 -6.73363284e-03  8.45337121e-09  6.93468788e-01  8.45337121e-09  1.55992834e+00  8.45337121e-09  1.56777216e+00                                 
 1.18079522e-08  7.54845482e-01  1.18079522e-08  6.91471094e-01  1.18079522e-08  1.50510953e+00  1.18079522e-08  1.80000000e+00  1.18079522e-08  6.70649135e-03  1.18079522e-08  6.92602757e-01  1.18079522e-08  1.55928242e+00  1.18079522e-08  1.56771318e+00                                 
 1.43949191e-08  7.54846009e-01  1.43949191e-08  6.91439528e-01  1.43949191e-08  1.49266502e+00  1.43949191e-08  1.80000000e+00  1.43949191e-08 -6.62558170e-03  1.43949191e-08  6.91844205e-01  1.43949191e-08  1.55850748e+00  1.43949191e-08  1.56757812e+00                                 
 1.74114228e-08  7.54871639e-01  1.74114228e-08  6.91472415e-01  1.74114228e-08  1.47795970e+00  1.74114228e-08  1.80000000e+00  1.74114228e-08  6.60108581e-03  1.74114228e-08  6.92157144e-01  1.74114228e-08  1.55888162e+00  1.74114228e-08  1.56740171e+00                                 
 2.07852601e-08  7.54870031e-01  2.07852601e-08  6.91439947e-01  2.07852601e-08  1.45986883e+00  2.07852601e-08  1.80000000e+00  2.07852601e-08 -6.53110546e-03  2.07852601e-08  6.91833645e-01  2.07852601e-08  1.55848343e+00  2.07852601e-08  1.56720913e+00                                 
 2.55939973e-08  7.54891820e-01  2.55939973e-08  6.91472555e-01  2.55939973e-08  1.43389721e+00  2.55939973e-08  1.80000000e+00  2.55939973e-08  6.52768488e-03  2.55939973e-08  6.92470874e-01  2.55939973e-08  1.55913656e+00  2.55939973e-08  1.56698520e+00                                 
 3.11980841e-08  7.54882894e-01  3.11980841e-08  6.91439926e-01  3.11980841e-08  1.40209669e+00  3.11980841e-08  1.80000000e+00  3.11980841e-08 -6.47414628e-03  3.11980841e-08  6.92336877e-01  3.11980841e-08  1.55890516e+00  3.11980841e-08  1.56679430e+00                                 
 3.96422626e-08  7.54895941e-01  3.96422626e-08  6.91472448e-01  3.96422626e-08  1.35444403e+00  3.96422626e-08  1.80000000e+00  3.96422626e-08  6.48461801e-03  3.96422626e-08  6.93054609e-01  3.96422626e-08  1.55963194e+00  3.96422626e-08  1.56663351e+00                                 
 5.11115848e-08  7.54881301e-01  5.11115848e-08  6.91439720e-01  5.11115848e-08  1.28870903e+00  5.11115848e-08  1.80000000e+00  5.11115848e-08 -6.44429617e-03  5.11115848e-08  6.92890307e-01  5.11115848e-08  1.55938086e+00  5.11115848e-08  1.56655204e+00                                 
 7.17223837e-08  7.54891978e-01  7.17223837e-08  6.91472264e-01  7.17223837e-08  1.17187641e+00  7.17223837e-08  1.80000000e+00  7.17223837e-08  6.46496007e-03  7.17223837e-08  6.93471885e-01  7.17223837e-08  1.55999647e+00  7.17223837e-08  1.56657022e+00                                 
 1.04727729e-07  7.54878418e-01  1.04727729e-07  6.91439604e-01  1.04727729e-07  9.85941330e-01  1.04727729e-07  1.80000000e+00  1.04727729e-07 -6.43270103e-03  1.04727729e-07  6.93114237e-01  1.04727729e-07  1.55958119e+00  1.04727729e-07  1.56665615e+00                                 
 1.35084512e-07  7.54890277e-01  1.35084512e-07  6.91472197e-01  1.35084512e-07  8.24679289e-01  1.35084512e-07  1.80000000e+00  1.35084512e-07  6.45658151e-03  1.35084512e-07  6.93518296e-01  1.35084512e-07  1.56003924e+00  1.35084512e-07  1.56669950e+00                                 
 1.66271630e-07  7.54881470e-01  1.66271630e-07  6.91439734e-01  1.66271630e-07  7.17187682e-01  1.66271630e-07  1.80000000e+00  1.66271630e-07 -6.42087162e-03  1.66271630e-07  6.93115119e-01  1.66271630e-07  1.55958063e+00  1.66271630e-07  1.56671006e+00                                 
 1.89372717e-07  7.54888445e-01  1.89372717e-07  6.91472265e-01  1.89372717e-07  6.96833834e-01  1.89372717e-07  1.80000000e+00  1.89372717e-07  6.44808642e-03  1.89372717e-07  6.93527155e-01  1.89372717e-07  1.56004509e+00  1.89372717e-07  1.56671781e+00                                 
 2.11330276e-07  7.54879231e-01  2.11330276e-07  6.91439449e-01  2.11330276e-07  6.95239148e-01  2.11330276e-07  1.80000000e+00  2.11330276e-07 -6.40802719e-03  2.11330276e-07  6.93114330e-01  2.11330276e-07  1.55957857e+00  2.11330276e-07  1.56671686e+00                                 
 2.34925475e-07  7.54890094e-01  2.34925475e-07  6.91472408e-01  2.34925475e-07  6.95330850e-01  2.34925475e-07  1.80000000e+00  2.34925475e-07  6.43576481e-03  2.34925475e-07  6.93522858e-01  2.34925475e-07  1.56003962e+00  2.34925475e-07  1.56671897e+00                                 
 2.59511280e-07  7.54879174e-01  2.59511280e-07  6.91439441e-01  2.59511280e-07  6.95129643e-01  2.59511280e-07  1.80000000e+00  2.59511280e-07 -6.39647897e-03  2.59511280e-07  6.93113648e-01  2.59511280e-07  1.55957628e+00  2.59511280e-07  1.56671506e+00                                 
 3.08682889e-07  7.54890472e-01  3.08682889e-07  6.91472415e-01  3.08682889e-07  6.95317566e-01  3.08682889e-07  1.80000000e+00  3.08682889e-07  6.42718304e-03  3.08682889e-07  6.93522546e-01  3.08682889e-07  1.56003656e+00  3.08682889e-07  1.56671596e+00                                 
 4.07026107e-07  7.54879057e-01  4.07026107e-07  6.91439443e-01  4.07026107e-07  6.95120657e-01  4.07026107e-07  1.80000000e+00  4.07026107e-07 -6.39206338e-03  4.07026107e-07  6.93113677e-01  4.07026107e-07  1.55957095e+00  4.07026107e-07  1.56670942e+00                                 
 6.03712542e-07  7.54890531e-01  6.03712542e-07  6.91472413e-01  6.03712542e-07  6.95320610e-01  6.03712542e-07  1.80000000e+00  6.03712542e-07  6.42504717e-03  6.03712542e-07  6.93522527e-01  6.03712542e-07  1.56002578e+00  6.03712542e-07  1.56670520e+00                                 
 9.97085414e-07  7.54879028e-01  9.97085414e-07  6.91439445e-01  9.97085414e-07  6.95119235e-01  9.97085414e-07  1.80000000e+00  9.97085414e-07 -6.39100679e-03  9.97085414e-07  6.93113686e-01  9.97085414e-07  1.55954946e+00  9.97085414e-07  1.56668794e+00                                 
 1.78383116e-06  7.54890546e-01  1.78383116e-06  6.91472413e-01  1.78383116e-06  6.95321304e-01  1.78383116e-06  1.80000000e+00  1.78383116e-06  6.42451333e-03  1.78383116e-06  6.93522522e-01  1.78383116e-06  1.55998274e+00  1.78383116e-06  1.56666223e+00                                 
 2.78383116e-06  7.54879020e-01  2.78383116e-06  6.91439445e-01  2.78383116e-06  6.95118827e-01  2.78383116e-06  1.80000000e+00  2.78383116e-06 -6.39085161e-03  2.78383116e-06  6.93113689e-01  2.78383116e-06  1.55948431e+00  2.78383116e-06  1.56662289e+00                                 
 3.78383116e-06  7.54890553e-01  3.78383116e-06  6.91472413e-01  3.78383116e-06  6.95321661e-01  3.78383116e-06  1.80000000e+00  3.78383116e-06  6.42426478e-03  3.78383116e-06  6.93522520e-01  3.78383116e-06  1.55990981e+00  3.78383116e-06  1.56658941e+00                                 
 4.78383116e-06  7.54879012e-01  4.78383116e-06  6.91439445e-01  4.78383116e-06  6.95118472e-01  4.78383116e-06  1.80000000e+00  4.78383116e-06 -6.39060426e-03  4.78383116e-06  6.93113691e-01  4.78383116e-06  1.55941141e+00  4.78383116e-06  1.56655009e+00                                 
 5.78383116e-06  7.54890560e-01  5.78383116e-06  6.91472412e-01  5.78383116e-06  6.95322014e-01  5.78383116e-06  1.80000000e+00  5.78383116e-06  6.42398480e-03  5.78383116e-06  6.93522517e-01  5.78383116e-06  1.55983692e+00  5.78383116e-06  1.56651664e+00                                 
 6.78383116e-06  7.54879005e-01  6.78383116e-06  6.91439445e-01  6.78383116e-06  6.95118120e-01  6.78383116e-06  1.80000000e+00  6.78383116e-06 -6.39032714e-03  6.78383116e-06  6.93113694e-01  6.78383116e-06  1.55933853e+00  6.78383116e-06  1.56647731e+00                                 
 7.78383116e-06  7.54890568e-01  7.78383116e-06  6.91472412e-01  7.78383116e-06  6.95322362e-01  7.78383116e-06  1.80000000e+00  7.78383116e-06  6.42370484e-03  7.78383116e-06  6.93522515e-01  7.78383116e-06  1.55976404e+00  7.78383116e-06  1.56644387e+00                                 
 8.78383116e-06  7.54878998e-01  8.78383116e-06  6.91439446e-01  8.78383116e-06  6.95117773e-01  8.78383116e-06  1.80000000e+00  8.78383116e-06 -6.39005004e-03  8.78383116e-06  6.93113696e-01  8.78383116e-06  1.55926564e+00  8.78383116e-06  1.56640453e+00                                 
 9.78383116e-06  7.54890575e-01  9.78383116e-06  6.91472412e-01  9.78383116e-06  6.95322708e-01  9.78383116e-06  1.80000000e+00  9.78383116e-06  6.42342489e-03  9.78383116e-06  6.93522513e-01  9.78383116e-06  1.55969111e+00  9.78383116e-06  1.56637105e+00                                 
 1.00005000e-05  7.54878978e-01  1.00005000e-05  6.91439447e-01  1.00005000e-05  6.95116814e-01  1.00005000e-05  1.80000000e+00  1.00005000e-05 -6.38930850e-03  1.00005000e-05  6.93113702e-01  1.00005000e-05  1.55922129e+00  1.00005000e-05  1.56636023e+00                                 
 1.00005500e-05  7.54848859e-01  1.00005500e-05  6.91264917e-01  1.00005500e-05  6.93502656e-01  1.00005500e-05  1.62000000e+00  1.00005500e-05 -7.06019419e-04  1.00005500e-05  6.91785738e-01  1.00005500e-05  1.55810514e+00  1.00005500e-05  1.56634616e+00                                 
 1.00006500e-05  7.54876271e-01  1.00006500e-05  6.91244538e-01  1.00006500e-05  6.93539052e-01  1.00006500e-05  1.26000000e+00  1.00006500e-05  5.17527764e-04  1.00006500e-05  6.91483336e-01  1.00006500e-05  1.55785067e+00  1.00006500e-05  1.56636266e+00                                 
 1.00008500e-05  7.54919426e-01  1.00008500e-05  6.91441818e-01  1.00008500e-05  6.95798192e-01  1.00008500e-05  5.40000000e-01  1.00008500e-05 -4.58559481e-03  1.00008500e-05  6.92506367e-01  1.00008500e-05  1.55736573e+00  1.00008500e-05  1.56635652e+00                                 
 1.00010000e-05  7.54873132e-01  1.00010000e-05  6.90530228e-01  1.00010000e-05  7.16459827e-01  1.00010000e-05  0.00000000e+00  1.00010000e-05  1.51165409e+00  1.00010000e-05  6.81940635e-01  1.00010000e-05  1.50005753e+00  1.00010000e-05  1.56585489e+00                                 
 1.00010256e-05  7.54890364e-01  1.00010256e-05  6.90204728e-01  1.00010256e-05  7.22434105e-01  1.00010256e-05  0.00000000e+00  1.00010256e-05  1.69053032e+00  1.00010256e-05  6.77938170e-01  1.00010256e-05  1.47352273e+00  1.00010256e-05  1.56568368e+00                                 
 1.00010768e-05  7.54889120e-01  1.00010768e-05  6.89571472e-01  1.00010768e-05  7.28224075e-01  1.00010768e-05  0.00000000e+00  1.00010768e-05  1.82149240e+00  1.00010768e-05  6.70398085e-01  1.00010768e-05  1.41406486e+00  1.00010768e-05  1.56554200e+00                                 
 1.00011791e-05  7.54882266e-01  1.00011791e-05  6.89443846e-01  1.00011791e-05  7.22247883e-01  1.00011791e-05  0.00000000e+00  1.00011791e-05  1.78662357e+00  1.00011791e-05  6.69543938e-01  1.00011791e-05  1.30980504e+00  1.00011791e-05  1.56607462e+00                                 
 1.00013073e-05  7.54888938e-01  1.00013073e-05  6.89761229e-01  1.00013073e-05  7.18727669e-01  1.00013073e-05  0.00000000e+00  1.00013073e-05  1.80711399e+00  1.00013073e-05  6.74092313e-01  1.00013073e-05  1.20973810e+00  1.00013073e-05  1.56643685e+00                                 
 1.00015244e-05  7.54881440e-01  1.00015244e-05  6.89930419e-01  1.00015244e-05  7.14703960e-01  1.00015244e-05  0.00000000e+00  1.00015244e-05  1.79386473e+00  1.00015244e-05  6.75336891e-01  1.00015244e-05  1.06919732e+00  1.00015244e-05  1.56663402e+00                                 
 1.00018385e-05  7.54887823e-01  1.00018385e-05  6.90480322e-01  1.00018385e-05  7.09977343e-01  1.00018385e-05  0.00000000e+00  1.00018385e-05  1.80451203e+00  1.00018385e-05  6.80294738e-01  1.00018385e-05  9.23360430e-01  1.00018385e-05  1.56659610e+00                                 
 1.00022779e-05  7.54881638e-01  1.00022779e-05  6.91012785e-01  1.00022779e-05  7.04993840e-01  1.00022779e-05  0.00000000e+00  1.00022779e-05  1.79567244e+00  1.00022779e-05  6.84353732e-01  1.00022779e-05  7.86522457e-01  1.00022779e-05  1.56609909e+00                                 
 1.00027536e-05  7.54887600e-01  1.00027536e-05  6.91702622e-01  1.00027536e-05  6.98652302e-01  1.00027536e-05  0.00000000e+00  1.00027536e-05  1.80355175e+00  1.00027536e-05  6.91234930e-01  1.00027536e-05  7.21957321e-01  1.00027536e-05  1.56508194e+00                                 
 1.00031566e-05  7.54882043e-01  1.00031566e-05  6.91838148e-01  1.00031566e-05  6.98186881e-01  1.00031566e-05  0.00000000e+00  1.00031566e-05  1.79691179e+00  1.00031566e-05  6.92343939e-01  1.00031566e-05  7.03467534e-01  1.00031566e-05  1.56377828e+00                                 
 1.00036616e-05  7.54887340e-01  1.00036616e-05  6.91990436e-01  1.00036616e-05  6.97443924e-01  1.00036616e-05  0.00000000e+00  1.00036616e-05  1.80270365e+00  1.00036616e-05  6.94555678e-01  1.00036616e-05  6.99220885e-01  1.00036616e-05  1.56178055e+00                                 
 1.00042115e-05  7.54882360e-01  1.00042115e-05  6.91882463e-01  1.00042115e-05  6.99488564e-01  1.00042115e-05  0.00000000e+00  1.00042115e-05  1.79760105e+00  1.00042115e-05  6.94019185e-01  1.00042115e-05  6.98218026e-01  1.00042115e-05  1.55931948e+00                                 
 1.00051008e-05  7.54887156e-01  1.00051008e-05  6.91859441e-01  1.00051008e-05  7.00973413e-01  1.00051008e-05  0.00000000e+00  1.00051008e-05  1.80222778e+00  1.00051008e-05  6.95040445e-01  1.00051008e-05  7.01022363e-01  1.00051008e-05  1.55509267e+00                                 
 1.00065032e-05  7.54882490e-01  1.00065032e-05  6.91668568e-01  1.00065032e-05  7.05659633e-01  1.00065032e-05  0.00000000e+00  1.00065032e-05  1.79787779e+00  1.00065032e-05  6.94275906e-01  1.00065032e-05  7.04049184e-01  1.00065032e-05  1.54806592e+00                                 
