 time            v(vbep)         time            v(vben)         time            v(vout)         time            v(vphi1)        time            v(vphi2)        time            v(vref)         yes             currtemp       
 0.00000000e+00  5.96027805e-01  0.00000000e+00  5.28406943e-01  0.00000000e+00  1.03786597e+00  0.00000000e+00  0.00000000e+00  0.00000000e+00  1.79985010e+00  0.00000000e+00  5.00000000e-01  1.00000000e+00  9.60000000e+01 
 5.00000000e-12  5.95933090e-01  5.00000000e-12  5.28333028e-01  5.00000000e-12  1.03866536e+00  5.00000000e-12  1.80000000e-02  5.00000000e-12  1.79998318e+00  5.00000000e-12  5.00000000e-01                                 
 1.00000000e-11  5.95846405e-01  1.00000000e-11  5.28263452e-01  1.00000000e-11  1.03939497e+00  1.00000000e-11  3.60000000e-02  1.00000000e-11  1.80006298e+00  1.00000000e-11  5.00000000e-01                                 
 2.00000000e-11  5.95679718e-01  2.00000000e-11  5.28125637e-01  2.00000000e-11  1.04074532e+00  2.00000000e-11  7.20000000e-02  2.00000000e-11  1.80015268e+00  2.00000000e-11  5.00000000e-01                                 
 4.00000000e-11  5.95359059e-01  4.00000000e-11  5.27852435e-01  4.00000000e-11  1.04294154e+00  4.00000000e-11  1.44000000e-01  4.00000000e-11  1.80015036e+00  4.00000000e-11  5.00000000e-01                                 
 8.00000000e-11  5.94724499e-01  8.00000000e-11  5.27311012e-01  8.00000000e-11  1.04600306e+00  8.00000000e-11  2.88000000e-01  8.00000000e-11  1.80008828e+00  8.00000000e-11  5.00000000e-01                                 
 1.60000000e-10  5.93481595e-01  1.60000000e-10  5.26247874e-01  1.60000000e-10  1.04912005e+00  1.60000000e-10  5.76000000e-01  1.60000000e-10  1.80002137e+00  1.60000000e-10  5.00000000e-01                                 
 3.20000000e-10  5.91090797e-01  3.20000000e-10  5.24195754e-01  3.20000000e-10  1.04472734e+00  3.20000000e-10  1.15200000e+00  3.20000000e-10  1.80047138e+00  3.20000000e-10  5.00000000e-01                                 
 5.00000000e-10  5.88545017e-01  5.00000000e-10  5.21998625e-01  5.00000000e-10  1.18001507e+00  5.00000000e-10  1.80000000e+00  5.00000000e-10  1.44151096e-01  5.00000000e-10  5.00000000e-01                                 
 5.22779875e-10  5.88234493e-01  5.22779875e-10  5.21729736e-01  5.22779875e-10  1.21451758e+00  5.22779875e-10  1.80000000e+00  5.22779875e-10  3.17105000e-02  5.22779875e-10  5.00000000e-01                                 
 5.68339625e-10  5.87617446e-01  5.68339625e-10  5.21194921e-01  5.68339625e-10  1.27987045e+00  5.68339625e-10  1.80000000e+00  5.68339625e-10 -1.40788951e-02  5.68339625e-10  5.00000000e-01                                 
 6.59459126e-10  5.86408503e-01  6.59459126e-10  5.20145119e-01  6.59459126e-10  1.39333204e+00  6.59459126e-10  1.80000000e+00  6.59459126e-10  1.12526828e-02  6.59459126e-10  5.00000000e-01                                 
 7.82347149e-10  5.84829356e-01  7.82347149e-10  5.18769661e-01  7.82347149e-10  1.52089619e+00  7.82347149e-10  1.80000000e+00  7.82347149e-10 -9.47746007e-03  7.82347149e-10  5.00000000e-01                                 
 9.80418821e-10  5.82399002e-01  9.80418821e-10  5.16643705e-01  9.80418821e-10  1.67570074e+00  9.80418821e-10  1.80000000e+00  9.80418821e-10  8.77304244e-03  9.80418821e-10  5.00000000e-01                                 
 1.36172434e-09  5.78073692e-01  1.36172434e-09  5.12833250e-01  1.36172434e-09  1.84312831e+00  1.36172434e-09  1.80000000e+00  1.36172434e-09 -8.18261142e-03  1.36172434e-09  5.00000000e-01                                 
 1.64028670e-09  5.75180487e-01  1.64028670e-09  5.10263733e-01  1.64028670e-09  1.89351672e+00  1.64028670e-09  1.80000000e+00  1.64028670e-09  7.79016623e-03  1.64028670e-09  5.00000000e-01                                 
 1.99274525e-09  5.71791037e-01  1.99274525e-09  5.07233306e-01  1.99274525e-09  1.91957305e+00  1.99274525e-09  1.80000000e+00  1.99274525e-09 -7.27513919e-03  1.99274525e-09  5.00000000e-01                                 
 2.31829484e-09  5.68897692e-01  2.31829484e-09  5.04629187e-01  2.31829484e-09  1.92700022e+00  2.31829484e-09  1.80000000e+00  2.31829484e-09  6.97174895e-03  2.31829484e-09  5.00000000e-01                                 
 2.86705333e-09  5.64449772e-01  2.86705333e-09  5.00596567e-01  2.86705333e-09  1.92806813e+00  2.86705333e-09  1.80000000e+00  2.86705333e-09 -6.65314004e-03  2.86705333e-09  5.00000000e-01                                 
 3.48893913e-09  5.59959282e-01  3.48893913e-09  4.96489296e-01  3.48893913e-09  1.92461691e+00  3.48893913e-09  1.80000000e+00  3.48893913e-09  6.54016819e-03  3.48893913e-09  5.00000000e-01                                 
 4.67037983e-09  5.52634230e-01  4.67037983e-09  4.89719020e-01  4.67037983e-09  1.91745482e+00  4.67037983e-09  1.80000000e+00  4.67037983e-09 -6.36322349e-03  4.67037983e-09  5.00000000e-01                                 
 6.34138397e-09  5.44240599e-01  6.34138397e-09  4.81857445e-01  6.34138397e-09  1.90933825e+00  6.34138397e-09  1.80000000e+00  6.34138397e-09  6.37276194e-03  6.34138397e-09  5.00000000e-01                                 
 9.68339225e-09  5.31575869e-01  9.68339225e-09  4.69820701e-01  9.68339225e-09  1.89705646e+00  9.68339225e-09  1.80000000e+00  9.68339225e-09 -6.26059553e-03  9.68339225e-09  5.00000000e-01                                 
 1.15546339e-08  5.26164023e-01  1.15546339e-08  4.64609385e-01  1.15546339e-08  1.89193276e+00  1.15546339e-08  1.80000000e+00  1.15546339e-08  6.26663047e-03  1.15546339e-08  5.00000000e-01                                 
 1.31623631e-08  5.22109513e-01  1.31623631e-08  4.60685172e-01  1.31623631e-08  1.88798915e+00  1.31623631e-08  1.80000000e+00  1.31623631e-08 -6.13155179e-03  1.31623631e-08  5.00000000e-01                                 
 1.50579596e-08  5.17866726e-01  1.50579596e-08  4.56562737e-01  1.50579596e-08  1.88401154e+00  1.50579596e-08  1.80000000e+00  1.50579596e-08  6.13448059e-03  1.50579596e-08  5.00000000e-01                                 
 1.77396708e-08  5.12629175e-01  1.77396708e-08  4.51453334e-01  1.77396708e-08  1.87895237e+00  1.77396708e-08  1.80000000e+00  1.77396708e-08 -6.03155531e-03  1.77396708e-08  5.00000000e-01                                 
 2.12322921e-08  5.06817706e-01  2.12322921e-08  4.45760308e-01  2.12322921e-08  1.87349530e+00  2.12322921e-08  1.80000000e+00  2.12322921e-08  6.06078150e-03  2.12322921e-08  5.00000000e-01                                 
 2.64828202e-08  4.99586124e-01  2.64828202e-08  4.38645758e-01  2.64828202e-08  1.86655955e+00  2.64828202e-08  1.80000000e+00  2.64828202e-08 -5.97886183e-03  2.64828202e-08  5.00000000e-01                                 
 3.52140832e-08  4.90148831e-01  3.52140832e-08  4.29317173e-01  3.52140832e-08  1.85770336e+00  3.52140832e-08  1.80000000e+00  3.52140832e-08  6.02750831e-03  3.52140832e-08  5.00000000e-01                                 
 5.26766092e-08  4.76726125e-01  5.26766092e-08  4.15954102e-01  5.26766092e-08  1.84534586e+00  5.26766092e-08  1.80000000e+00  5.26766092e-08 -5.95974500e-03  5.26766092e-08  5.00000000e-01                                 
 8.76016613e-08  4.60264382e-01  8.76016613e-08  3.99334941e-01  8.76016613e-08  1.83228478e+00  8.76016613e-08  1.80000000e+00  8.76016613e-08  6.01852122e-03  8.76016613e-08  5.00000000e-01                                 
 1.17151183e-07  4.51474540e-01  1.17151183e-07  3.90363287e-01  1.17151183e-07  1.82618360e+00  1.17151183e-07  1.80000000e+00  1.17151183e-07 -5.95275125e-03  1.17151183e-07  5.00000000e-01                                 
 1.48444935e-07  4.43657241e-01  1.48444935e-07  3.82528398e-01  1.48444935e-07  1.81324818e+00  1.48444935e-07  1.80000000e+00  1.48444935e-07  6.01141726e-03  1.48444935e-07  5.00000000e-01                                 
 1.81275039e-07  4.31447474e-01  1.81275039e-07  3.71476577e-01  1.81275039e-07  1.78323220e+00  1.81275039e-07  1.80000000e+00  1.81275039e-07 -5.94617880e-03  1.81275039e-07  5.00000000e-01                                 
 2.07546334e-07  4.18914837e-01  2.07546334e-07  3.60628940e-01  2.07546334e-07  1.75168972e+00  2.07546334e-07  1.80000000e+00  2.07546334e-07  6.00387436e-03  2.07546334e-07  5.00000000e-01                                 
 2.35214667e-07  4.09411023e-01  2.35214667e-07  3.52266957e-01  2.35214667e-07  1.70848579e+00  2.35214667e-07  1.80000000e+00  2.35214667e-07 -5.93809447e-03  2.35214667e-07  5.00000000e-01                                 
 2.61519882e-07  4.10706741e-01  2.61519882e-07  3.52582274e-01  2.61519882e-07  1.69394043e+00  2.61519882e-07  1.80000000e+00  2.61519882e-07  5.99636790e-03  2.61519882e-07  5.00000000e-01                                 
 2.85744591e-07  4.12934326e-01  2.85744591e-07  3.53730750e-01  2.85744591e-07  1.67492993e+00  2.85744591e-07  1.80000000e+00  2.85744591e-07 -5.92963522e-03  2.85744591e-07  5.00000000e-01                                 
 3.11556080e-07  4.09286163e-01  3.11556080e-07  3.50229068e-01  3.11556080e-07  1.64309077e+00  3.11556080e-07  1.80000000e+00  3.11556080e-07  5.98749975e-03  3.11556080e-07  5.00000000e-01                                 
 3.37622682e-07  4.07435502e-01  3.37622682e-07  3.48194211e-01  3.37622682e-07  1.61509826e+00  3.37622682e-07  1.80000000e+00  3.37622682e-07 -5.92135213e-03  3.37622682e-07  5.00000000e-01                                 
 3.61874555e-07  4.05952295e-01  3.61874555e-07  3.46525867e-01  3.61874555e-07  1.58815926e+00  3.61874555e-07  1.80000000e+00  3.61874555e-07  5.97894535e-03  3.61874555e-07  5.00000000e-01                                 
 3.99242012e-07  4.01267672e-01  3.99242012e-07  3.42111855e-01  3.99242012e-07  1.54440062e+00  3.99242012e-07  1.80000000e+00  3.99242012e-07 -5.91419561e-03  3.99242012e-07  5.00000000e-01                                 
 4.38635432e-07  3.93375342e-01  4.38635432e-07  3.35188369e-01  4.38635432e-07  1.49501401e+00  4.38635432e-07  1.80000000e+00  4.38635432e-07  5.97325623e-03  4.38635432e-07  5.00000000e-01                                 
 5.13024384e-07  3.77683662e-01  5.13024384e-07  3.21672566e-01  5.13024384e-07  1.40031940e+00  5.13024384e-07  1.80000000e+00  5.13024384e-07 -5.91008552e-03  5.13024384e-07  5.00000000e-01                                 
 5.87413644e-07  3.61778825e-01  5.87413644e-07  3.08194491e-01  5.87413644e-07  1.30482975e+00  5.87413644e-07  1.80000000e+00  5.87413644e-07  5.97037775e-03  5.87413644e-07  5.00000000e-01                                 
 7.36192163e-07  3.23427640e-01  7.36192163e-07  2.76497113e-01  7.36192163e-07  1.11484850e+00  7.36192163e-07  1.80000000e+00  7.36192163e-07 -5.90799633e-03  7.36192163e-07  5.00000000e-01                                 
 8.84455579e-07  3.36197111e-01  8.84455579e-07  2.86326858e-01  8.84455579e-07  9.99718825e-01  8.84455579e-07  1.80000000e+00  8.84455579e-07  5.96931957e-03  8.84455579e-07  5.00000000e-01                                 
 8.96912985e-07  3.49419566e-01  8.96912985e-07  2.96915122e-01  8.96912985e-07  1.00258743e+00  8.96912985e-07  1.80000000e+00  8.96912985e-07  1.94624275e-05  8.96912985e-07  5.00000000e-01                                 
 9.21827798e-07  4.02964600e-01  9.21827798e-07  3.39799032e-01  9.21827798e-07  1.03222734e+00  9.21827798e-07  1.80000000e+00  9.21827798e-07  1.62954541e-05  9.21827798e-07  5.00000000e-01                                 
 9.71657424e-07  6.14751329e-01  9.71657424e-07  5.43850012e-01  9.71657424e-07  1.18609324e+00  9.71657424e-07  1.80000000e+00  9.71657424e-07  2.30633474e-05  9.71657424e-07  5.00000000e-01                                 
 1.00635738e-06  6.82654133e-01  1.00635738e-06  6.07433512e-01  1.00635738e-06  1.21599627e+00  1.00635738e-06  1.80000000e+00  1.00635738e-06  1.38763481e-05  1.00635738e-06  5.00000000e-01                                 
 1.03787011e-06  7.08835126e-01  1.03787011e-06  6.28438717e-01  1.03787011e-06  1.20637132e+00  1.03787011e-06  1.80000000e+00  1.03787011e-06  2.07707253e-05  1.03787011e-06  5.00000000e-01                                 
 1.07137229e-06  7.09838010e-01  1.07137229e-06  6.29381142e-01  1.07137229e-06  1.17349586e+00  1.07137229e-06  1.80000000e+00  1.07137229e-06  1.28059203e-05  1.07137229e-06  5.00000000e-01                                 
 1.10749764e-06  7.09007598e-01  1.10749764e-06  6.28590332e-01  1.10749764e-06  1.13425351e+00  1.10749764e-06  1.80000000e+00  1.10749764e-06  2.04098530e-05  1.10749764e-06  5.00000000e-01                                 
 1.14594069e-06  7.04931439e-01  1.14594069e-06  6.25565535e-01  1.14594069e-06  1.09440645e+00  1.14594069e-06  1.80000000e+00  1.14594069e-06  1.28628756e-05  1.14594069e-06  5.00000000e-01                                 
 1.19129250e-06  6.74454891e-01  1.19129250e-06  6.00322058e-01  1.19129250e-06  1.02580692e+00  1.19129250e-06  1.80000000e+00  1.19129250e-06  1.93216824e-05  1.19129250e-06  5.00000000e-01                                 
 1.23811096e-06  6.50740900e-01  1.23811096e-06  5.79513952e-01  1.23811096e-06  9.70875413e-01  1.23811096e-06  1.80000000e+00  1.23811096e-06  1.31965047e-05  1.23811096e-06  5.00000000e-01                                 
 1.24380786e-06  6.52472264e-01  1.24380786e-06  5.80901436e-01  1.24380786e-06  9.68079522e-01  1.24380786e-06  1.80000000e+00  1.24380786e-06  1.68419943e-05  1.24380786e-06  5.00000000e-01                                 
 1.25520166e-06  6.58890853e-01  1.25520166e-06  5.86626946e-01  1.25520166e-06  9.65897020e-01  1.25520166e-06  1.80000000e+00  1.25520166e-06  1.74004529e-05  1.25520166e-06  5.00000000e-01                                 
 1.27798924e-06  6.73900142e-01  1.27798924e-06  5.99893024e-01  1.27798924e-06  9.63732956e-01  1.27798924e-06  1.80000000e+00  1.27798924e-06  1.71023126e-05  1.27798924e-06  5.00000000e-01                                 
 1.31315278e-06  6.87019288e-01  1.31315278e-06  6.11000595e-01  1.31315278e-06  9.51349450e-01  1.31315278e-06  1.80000000e+00  1.31315278e-06  1.69176927e-05  1.31315278e-06  5.00000000e-01                                 
 1.35281513e-06  6.90934820e-01  1.35281513e-06  6.14256536e-01  1.35281513e-06  9.28657346e-01  1.35281513e-06  1.80000000e+00  1.35281513e-06  1.66248876e-05  1.35281513e-06  5.00000000e-01                                 
 1.42571165e-06  6.77110288e-01  1.42571165e-06  6.02679161e-01  1.42571165e-06  8.70356398e-01  1.42571165e-06  1.80000000e+00  1.42571165e-06  1.64206305e-05  1.42571165e-06  5.00000000e-01                                 
 1.49663727e-06  6.74912196e-01  1.49663727e-06  6.00774248e-01  1.49663727e-06  8.25391286e-01  1.49663727e-06  1.80000000e+00  1.49663727e-06  1.68791368e-05  1.49663727e-06  5.00000000e-01                                 
 1.57782847e-06  6.88006468e-01  1.57782847e-06  6.11830360e-01  1.57782847e-06  7.88623845e-01  1.57782847e-06  1.80000000e+00  1.57782847e-06  1.67648893e-05  1.57782847e-06  5.00000000e-01                                 
 1.68318586e-06  6.77557028e-01  1.68318586e-06  6.03068223e-01  1.68318586e-06  7.18490559e-01  1.68318586e-06  1.80000000e+00  1.68318586e-06  1.64337867e-05  1.68318586e-06  5.00000000e-01                                 
 1.78086209e-06  6.79133804e-01  1.78086209e-06  6.04374201e-01  1.78086209e-06  6.66059038e-01  1.78086209e-06  1.80000000e+00  1.78086209e-06  1.69506782e-05  1.78086209e-06  5.00000000e-01                                 
 1.90657246e-06  6.85073761e-01  1.90657246e-06  6.09411250e-01  1.90657246e-06  6.04587881e-01  1.90657246e-06  1.80000000e+00  1.90657246e-06  1.64996925e-05  1.90657246e-06  5.00000000e-01                                 
 2.10090877e-06  6.76589415e-01  2.10090877e-06  6.02212180e-01  2.10090877e-06  5.22470620e-01  2.10090877e-06  1.80000000e+00  2.10090877e-06  1.67900674e-05  2.10090877e-06  5.00000000e-01                                 
 2.30387952e-06  6.84465988e-01  2.30387952e-06  6.08895350e-01  2.30387952e-06  4.94448462e-01  2.30387952e-06  1.80000000e+00  2.30387952e-06  1.66425949e-05  2.30387952e-06  5.00000000e-01                                 
 2.53140393e-06  6.78483974e-01  2.53140393e-06  6.03837467e-01  2.53140393e-06  4.92075034e-01  2.53140393e-06  1.80000000e+00  2.53140393e-06  1.66782626e-05  2.53140393e-06  5.00000000e-01                                 
 2.55878192e-06  6.79001045e-01  2.55878192e-06  6.04279355e-01  2.55878192e-06  4.95736336e-01  2.55878192e-06  1.80000000e+00  2.55878192e-06  1.66962993e-05  2.55878192e-06  5.00000000e-01                                 
 2.61353790e-06  6.81218413e-01  2.61353790e-06  6.06157112e-01  2.61353790e-06  5.01485160e-01  2.61353790e-06  1.80000000e+00  2.61353790e-06  1.67332139e-05  2.61353790e-06  5.00000000e-01                                 
 2.72304985e-06  6.81886847e-01  2.72304985e-06  6.06726445e-01  2.72304985e-06  5.01308755e-01  2.72304985e-06  1.80000000e+00  2.72304985e-06  1.66414867e-05  2.72304985e-06  5.00000000e-01                                 
 2.91408091e-06  6.79954994e-01  2.91408091e-06  6.05089271e-01  2.91408091e-06  4.98771541e-01  2.91408091e-06  1.80000000e+00  2.91408091e-06  1.67051749e-05  2.91408091e-06  5.00000000e-01                                 
 3.16046732e-06  6.82132861e-01  3.16046732e-06  6.06931951e-01  3.16046732e-06  5.01772557e-01  3.16046732e-06  1.80000000e+00  3.16046732e-06  1.66738320e-05  3.16046732e-06  5.00000000e-01                                 
 3.61589604e-06  6.80007482e-01  3.61589604e-06  6.05135581e-01  3.61589604e-06  4.98821697e-01  3.61589604e-06  1.80000000e+00  3.61589604e-06  1.66821992e-05  3.61589604e-06  5.00000000e-01                                 
 4.17615693e-06  6.82003272e-01  4.17615693e-06  6.06822126e-01  4.17615693e-06  5.01611610e-01  4.17615693e-06  1.80000000e+00  4.17615693e-06  1.66877812e-05  4.17615693e-06  5.00000000e-01                                 
 5.10283379e-06  6.80139252e-01  5.10283379e-06  6.05247636e-01  5.10283379e-06  4.98983399e-01  5.10283379e-06  1.80000000e+00  5.10283379e-06  1.66727753e-05  5.10283379e-06  5.00000000e-01                                 
 6.10283379e-06  6.81893306e-01  6.10283379e-06  6.06728958e-01  6.10283379e-06  5.01469160e-01  6.10283379e-06  1.80000000e+00  6.10283379e-06  1.66941309e-05  6.10283379e-06  5.00000000e-01                                 
 7.10283379e-06  6.80259138e-01  7.10283379e-06  6.05349366e-01  7.10283379e-06  4.99133888e-01  7.10283379e-06  1.80000000e+00  7.10283379e-06  1.66670757e-05  7.10283379e-06  5.00000000e-01                                 
 8.10283379e-06  6.81767826e-01  8.10283379e-06  6.06622786e-01  8.10283379e-06  5.01306688e-01  8.10283379e-06  1.80000000e+00  8.10283379e-06  1.66994036e-05  8.10283379e-06  5.00000000e-01                                 
 9.10283379e-06  6.80395964e-01  9.10283379e-06  6.05465534e-01  9.10283379e-06  4.99306496e-01  9.10283379e-06  1.80000000e+00  9.10283379e-06  1.66622588e-05  9.10283379e-06  5.00000000e-01                                 
 1.00005000e-05  6.81620350e-01  1.00005000e-05  6.06498070e-01  1.00005000e-05  5.01115621e-01  1.00005000e-05  1.80000000e+00  1.00005000e-05  1.67039596e-05  1.00005000e-05  5.00000000e-01                                 
 1.00005500e-05  6.81621544e-01  1.00005500e-05  6.06499091e-01  1.00005500e-05  4.93844536e-01  1.00005500e-05  1.62000000e+00  1.00005500e-05 -7.13674053e-05  1.00005500e-05  5.00000000e-01                                 
 1.00006500e-05  6.81623940e-01  1.00006500e-05  6.06501132e-01  1.00006500e-05  4.80337618e-01  1.00006500e-05  1.26000000e+00  1.00006500e-05 -6.00416601e-05  1.00006500e-05  5.00000000e-01                                 
