 time            v(vbep)         time            v(vben)         time            v(vout)         time            v(vphi1)        time            v(vphi2)        time            v(vref)         yes             currtemp       
 0.00000000e+00  7.85035833e-01  0.00000000e+00  7.37396757e-01  0.00000000e+00  1.00616141e+00  0.00000000e+00  0.00000000e+00  0.00000000e+00  1.79987676e+00  0.00000000e+00  5.00000000e-01  1.00000000e+00 -1.30000000e+01 
 5.00000000e-12  7.84969845e-01  5.00000000e-12  7.37344619e-01  5.00000000e-12  1.00687581e+00  5.00000000e-12  1.80000000e-02  5.00000000e-12  1.79999055e+00  5.00000000e-12  5.00000000e-01                                 
 1.00000000e-11  7.84909125e-01  1.00000000e-11  7.37295253e-01  1.00000000e-11  1.00751580e+00  1.00000000e-11  3.60000000e-02  1.00000000e-11  1.80005700e+00  1.00000000e-11  5.00000000e-01                                 
 2.00000000e-11  7.84792064e-01  2.00000000e-11  7.37197399e-01  2.00000000e-11  1.00867800e+00  2.00000000e-11  7.20000000e-02  2.00000000e-11  1.80012955e+00  2.00000000e-11  5.00000000e-01                                 
 4.00000000e-11  7.84566289e-01  4.00000000e-11  7.37003346e-01  4.00000000e-11  1.01046024e+00  4.00000000e-11  1.44000000e-01  4.00000000e-11  1.80012222e+00  4.00000000e-11  5.00000000e-01                                 
 8.00000000e-11  7.84119360e-01  8.00000000e-11  7.36618817e-01  8.00000000e-11  1.01262127e+00  8.00000000e-11  2.88000000e-01  8.00000000e-11  1.80005949e+00  8.00000000e-11  5.00000000e-01                                 
 1.60000000e-10  7.83244275e-01  1.60000000e-10  7.35864093e-01  1.60000000e-10  1.01443510e+00  1.60000000e-10  5.76000000e-01  1.60000000e-10  1.80000853e+00  1.60000000e-10  5.00000000e-01                                 
 3.20000000e-10  7.81562504e-01  3.20000000e-10  7.34408492e-01  3.20000000e-10  1.00567334e+00  3.20000000e-10  1.15200000e+00  3.20000000e-10  1.80027801e+00  3.20000000e-10  5.00000000e-01                                 
 5.00000000e-10  7.79773612e-01  5.00000000e-10  7.32851715e-01  5.00000000e-10  1.18664209e+00  5.00000000e-10  1.80000000e+00  5.00000000e-10  9.47452135e-02  5.00000000e-10  5.00000000e-01                                 
 5.20648492e-10  7.79575812e-01  5.20648492e-10  7.32679009e-01  5.20648492e-10  1.22693947e+00  5.20648492e-10  1.80000000e+00  5.20648492e-10  1.65796406e-02  5.20648492e-10  5.00000000e-01                                 
 5.61945475e-10  7.79182590e-01  5.61945475e-10  7.32335383e-01  5.61945475e-10  1.30026324e+00  5.61945475e-10  1.80000000e+00  5.61945475e-10 -7.91678333e-03  5.61945475e-10  5.00000000e-01                                 
 6.44539442e-10  7.78410975e-01  6.44539442e-10  7.31659940e-01  6.44539442e-10  1.42100957e+00  6.44539442e-10  1.80000000e+00  6.44539442e-10  6.87960156e-03  6.44539442e-10  5.00000000e-01                                 
 7.68054505e-10  7.77292641e-01  7.68054505e-10  7.30678131e-01  7.68054505e-10  1.56605179e+00  7.68054505e-10  1.80000000e+00  7.68054505e-10 -6.11052894e-03  7.68054505e-10  5.00000000e-01                                 
 9.55523956e-10  7.75671095e-01  9.55523956e-10  7.29248611e-01  9.55523956e-10  1.72950564e+00  9.55523956e-10  1.80000000e+00  9.55523956e-10  5.83043217e-03  9.55523956e-10  5.00000000e-01                                 
 1.33046286e-09  7.72670021e-01  1.33046286e-09  7.26584828e-01  1.33046286e-09  1.91771422e+00  1.33046286e-09  1.80000000e+00  1.33046286e-09 -5.54509047e-03  1.33046286e-09  5.00000000e-01                                 
 1.61333687e-09  7.70599214e-01  1.61333687e-09  7.24732019e-01  1.61333687e-09  1.97871307e+00  1.61333687e-09  1.80000000e+00  1.61333687e-09  5.39832309e-03  1.61333687e-09  5.00000000e-01                                 
 1.92272590e-09  7.68495770e-01  1.92272590e-09  7.22838141e-01  1.92272590e-09  2.00866433e+00  1.92272590e-09  1.80000000e+00  1.92272590e-09 -5.12783667e-03  1.92272590e-09  5.00000000e-01                                 
 2.24848892e-09  7.66440545e-01  2.24848892e-09  7.20976378e-01  2.24848892e-09  2.02087268e+00  2.24848892e-09  1.80000000e+00  2.24848892e-09  4.99426903e-03  2.24848892e-09  5.00000000e-01                                 
 2.74155589e-09  7.63593589e-01  2.74155589e-09  7.18379684e-01  2.74155589e-09  2.02550165e+00  2.74155589e-09  1.80000000e+00  2.74155589e-09 -4.83448573e-03  2.74155589e-09  5.00000000e-01                                 
 3.36838931e-09  7.60358468e-01  3.36838931e-09  7.15404504e-01  3.36838931e-09  2.02405165e+00  3.36838931e-09  1.80000000e+00  3.36838931e-09  4.77660717e-03  3.36838931e-09  5.00000000e-01                                 
 4.43084349e-09  7.55628568e-01  4.43084349e-09  7.11011397e-01  4.43084349e-09  2.01953278e+00  4.43084349e-09  1.80000000e+00  4.43084349e-09 -4.69669705e-03  4.43084349e-09  5.00000000e-01                                 
 6.09141914e-09  7.49602288e-01  6.09141914e-09  7.05344717e-01  6.09141914e-09  2.01357255e+00  6.09141914e-09  1.80000000e+00  6.09141914e-09  4.69171214e-03  6.09141914e-09  5.00000000e-01                                 
 8.88563458e-09  7.41835964e-01  8.88563458e-09  6.97940960e-01  8.88563458e-09  2.00616254e+00  8.88563458e-09  1.80000000e+00  8.88563458e-09 -4.63793448e-03  8.88563458e-09  5.00000000e-01                                 
 1.02832577e-08  7.38747599e-01  1.02832577e-08  6.94964407e-01  1.02832577e-08  2.00321426e+00  1.02832577e-08  1.80000000e+00  1.02832577e-08  4.62592501e-03  1.02832577e-08  5.00000000e-01                                 
 1.21387311e-08  7.35164016e-01  1.21387311e-08  6.91493487e-01  1.21387311e-08  1.99982327e+00  1.21387311e-08  1.80000000e+00  1.21387311e-08 -4.57410600e-03  1.21387311e-08  5.00000000e-01                                 
 1.40741773e-08  7.31914518e-01  1.40741773e-08  6.88331449e-01  1.40741773e-08  1.99676330e+00  1.40741773e-08  1.80000000e+00  1.40741773e-08  4.56632693e-03  1.40741773e-08  5.00000000e-01                                 
 1.75468540e-08  7.26972049e-01  1.75468540e-08  6.83499274e-01  1.75468540e-08  1.99211000e+00  1.75468540e-08  1.80000000e+00  1.75468540e-08 -4.53234178e-03  1.75468540e-08  5.00000000e-01                                 
 2.11079846e-08  7.22782316e-01  2.11079846e-08  6.79382767e-01  2.11079846e-08  1.98818959e+00  2.11079846e-08  1.80000000e+00  2.11079846e-08  4.53522952e-03  2.11079846e-08  5.00000000e-01                                 
 2.82302457e-08  7.16063259e-01  2.82302457e-08  6.72750353e-01  2.82302457e-08  1.98190505e+00  2.82302457e-08  1.80000000e+00  2.82302457e-08 -4.50983611e-03  2.82302457e-08  5.00000000e-01                                 
 3.62344459e-08  7.10277627e-01  3.62344459e-08  6.67009080e-01  3.62344459e-08  1.97656369e+00  3.62344459e-08  1.80000000e+00  3.62344459e-08  4.52124616e-03  3.62344459e-08  5.00000000e-01                                 
 5.22428462e-08  7.01793289e-01  5.22428462e-08  6.58525978e-01  5.22428462e-08  1.96914950e+00  5.22428462e-08  1.80000000e+00  5.22428462e-08 -4.49988590e-03  5.22428462e-08  5.00000000e-01                                 
 7.63431369e-08  6.93335666e-01  7.63431369e-08  6.49955171e-01  7.63431369e-08  1.96295643e+00  7.63431369e-08  1.80000000e+00  7.63431369e-08  4.51589143e-03  7.63431369e-08  5.00000000e-01                                 
 9.78682401e-08  6.88077604e-01  9.78682401e-08  6.44563019e-01  9.78682401e-08  1.95963834e+00  9.78682401e-08  1.80000000e+00  9.78682401e-08 -4.49516320e-03  9.78682401e-08  5.00000000e-01                                 
 1.21179909e-07  6.83431228e-01  1.21179909e-07  6.39818886e-01  1.21179909e-07  1.95681473e+00  1.21179909e-07  1.80000000e+00  1.21179909e-07  4.51120064e-03  1.21179909e-07  5.00000000e-01                                 
 1.50383311e-07  6.78588033e-01  1.50383311e-07  6.34897864e-01  1.50383311e-07  1.94710494e+00  1.50383311e-07  1.80000000e+00  1.50383311e-07 -4.49109984e-03  1.50383311e-07  5.00000000e-01                                 
 1.76103462e-07  6.73520209e-01  1.76103462e-07  6.30085813e-01  1.76103462e-07  1.92941519e+00  1.76103462e-07  1.80000000e+00  1.76103462e-07  4.50731448e-03  1.76103462e-07  5.00000000e-01                                 
 2.02383522e-07  6.65601689e-01  2.02383522e-07  6.23106904e-01  2.02383522e-07  1.89841720e+00  2.02383522e-07  1.80000000e+00  2.02383522e-07 -4.48716207e-03  2.02383522e-07  5.00000000e-01                                 
 2.27017169e-07  6.57670475e-01  2.27017169e-07  6.16248530e-01  2.27017169e-07  1.85478574e+00  2.27017169e-07  1.80000000e+00  2.27017169e-07  4.50314239e-03  2.27017169e-07  5.00000000e-01                                 
 2.53304131e-07  6.49816838e-01  2.53304131e-07  6.09497309e-01  2.53304131e-07  1.81137111e+00  2.53304131e-07  1.80000000e+00  2.53304131e-07 -4.48300824e-03  2.53304131e-07  5.00000000e-01                                 
 2.78038046e-07  6.48831256e-01  2.78038046e-07  6.08276664e-01  2.78038046e-07  1.79021432e+00  2.78038046e-07  1.80000000e+00  2.78038046e-07  4.49920737e-03  2.78038046e-07  5.00000000e-01                                 
 3.16556145e-07  6.53960973e-01  3.16556145e-07  6.11700035e-01  3.16556145e-07  1.77767670e+00  3.16556145e-07  1.80000000e+00  3.16556145e-07 -4.47941486e-03  3.16556145e-07  5.00000000e-01                                 
 3.38531724e-07  6.50687120e-01  3.38531724e-07  6.08756580e-01  3.38531724e-07  1.75420731e+00  3.38531724e-07  1.80000000e+00  3.38531724e-07  4.49520634e-03  3.38531724e-07  5.00000000e-01                                 
 3.64841526e-07  6.44065041e-01  3.64841526e-07  6.03125535e-01  3.64841526e-07  1.72249466e+00  3.64841526e-07  1.80000000e+00  3.64841526e-07 -4.47512790e-03  3.64841526e-07  5.00000000e-01                                 
 3.92117150e-07  6.39100830e-01  3.92117150e-07  5.98836419e-01  3.92117150e-07  1.69235844e+00  3.92117150e-07  1.80000000e+00  3.92117150e-07  4.49132997e-03  3.92117150e-07  5.00000000e-01                                 
 4.22212986e-07  6.32898014e-01  4.22212986e-07  5.93569676e-01  4.22212986e-07  1.65801789e+00  4.22212986e-07  1.80000000e+00  4.22212986e-07 -4.47151273e-03  4.22212986e-07  5.00000000e-01                                 
 4.70550719e-07  6.22549678e-01  4.70550719e-07  5.84888851e-01  4.70550719e-07  1.60063738e+00  4.70550719e-07  1.80000000e+00  4.70550719e-07  4.48849781e-03  4.70550719e-07  5.00000000e-01                                 
 5.59242865e-07  6.03529369e-01  5.59242865e-07  5.69154503e-01  5.59242865e-07  1.49680949e+00  5.59242865e-07  1.80000000e+00  5.59242865e-07 -4.46985326e-03  5.59242865e-07  5.00000000e-01                                 
 6.69563293e-07  5.71716818e-01  6.69563293e-07  5.43406695e-01  6.69563293e-07  1.35444348e+00  6.69563293e-07  1.80000000e+00  6.69563293e-07  4.48738380e-03  6.69563293e-07  5.00000000e-01                                 
 8.17922218e-07  5.54136448e-01  8.17922218e-07  5.29246515e-01  8.17922218e-07  1.18691276e+00  8.17922218e-07  1.80000000e+00  8.17922218e-07 -4.46886047e-03  8.17922218e-07  5.00000000e-01                                 
 8.23867768e-07  5.55129571e-01  8.23867768e-07  5.30043030e-01  8.23867768e-07  1.18123921e+00  8.23867768e-07  1.80000000e+00  8.23867768e-07 -1.98637617e-06  8.23867768e-07  5.00000000e-01                                 
 8.35758869e-07  5.59929530e-01  8.35758869e-07  5.33887230e-01  8.35758869e-07  1.17332611e+00  8.35758869e-07  1.80000000e+00  8.35758869e-07  2.30588553e-06  8.35758869e-07  5.00000000e-01                                 
 8.59541070e-07  5.99316661e-01  8.59541070e-07  5.65388820e-01  8.59541070e-07  1.18686648e+00  8.59541070e-07  1.80000000e+00  8.59541070e-07 -1.08683520e-06  8.59541070e-07  5.00000000e-01                                 
 8.82520009e-07  7.11031058e-01  8.82520009e-07  6.56361800e-01  8.82520009e-07  1.27043340e+00  8.82520009e-07  1.80000000e+00  8.82520009e-07  4.88013035e-06  8.82520009e-07  5.00000000e-01                                 
 9.11995957e-07  8.04450555e-01  9.11995957e-07  7.54538144e-01  9.11995957e-07  1.33124068e+00  9.11995957e-07  1.80000000e+00  9.11995957e-07 -1.44520833e-06  9.11995957e-07  5.00000000e-01                                 
 9.44005459e-07  8.41666339e-01  9.44005459e-07  7.91149416e-01  9.44005459e-07  1.33188310e+00  9.44005459e-07  1.80000000e+00  9.44005459e-07  2.83692924e-06  9.44005459e-07  5.00000000e-01                                 
 9.86277063e-07  8.84749448e-01  9.86277063e-07  8.26500463e-01  9.86277063e-07  1.32871413e+00  9.86277063e-07  1.80000000e+00  9.86277063e-07 -1.67936890e-06  9.86277063e-07  5.00000000e-01                                 
 1.01767840e-06  9.25702649e-01  1.01767840e-06  8.53699787e-01  1.01767840e-06  1.32719171e+00  1.01767840e-06  1.80000000e+00  1.01767840e-06  2.97352890e-06  1.01767840e-06  5.00000000e-01                                 
 1.05271626e-06  9.64708335e-01  1.05271626e-06  8.74831583e-01  1.05271626e-06  1.32564180e+00  1.05271626e-06  1.80000000e+00  1.05271626e-06 -1.77299171e-06  1.05271626e-06  5.00000000e-01                                 
 1.08453578e-06  9.65243783e-01  1.08453578e-06  8.75385567e-01  1.08453578e-06  1.29187147e+00  1.08453578e-06  1.80000000e+00  1.08453578e-06  1.89724376e-06  1.08453578e-06  5.00000000e-01                                 
 1.11795714e-06  9.64147375e-01  1.11795714e-06  8.74589337e-01  1.11795714e-06  1.25858334e+00  1.11795714e-06  1.80000000e+00  1.11795714e-06 -1.86987744e-06  1.11795714e-06  5.00000000e-01                                 
 1.15605269e-06  9.65389370e-01  1.15605269e-06  8.75422478e-01  1.15605269e-06  1.21903439e+00  1.15605269e-06  1.80000000e+00  1.15605269e-06  1.90976502e-06  1.15605269e-06  5.00000000e-01                                 
 1.22576561e-06  9.63188607e-01  1.22576561e-06  8.74147429e-01  1.22576561e-06  1.14652211e+00  1.22576561e-06  1.80000000e+00  1.22576561e-06 -1.87518365e-06  1.22576561e-06  5.00000000e-01                                 
 1.29844797e-06  9.64090892e-01  1.29844797e-06  8.74771741e-01  1.29844797e-06  1.06794491e+00  1.29844797e-06  1.80000000e+00  1.29844797e-06  1.90840600e-06  1.29844797e-06  5.00000000e-01                                 
 1.40784493e-06  9.61409810e-01  1.40784493e-06  8.73283278e-01  1.40784493e-06  9.51513501e-01  1.40784493e-06  1.80000000e+00  1.40784493e-06 -1.87172582e-06  1.40784493e-06  5.00000000e-01                                 
 1.55053264e-06  9.61503000e-01  1.55053264e-06  8.73488784e-01  1.55053264e-06  8.45256316e-01  1.55053264e-06  1.80000000e+00  1.55053264e-06  1.92075835e-06  1.55053264e-06  5.00000000e-01                                 
 1.69963272e-06  9.58445145e-01  1.69963272e-06  8.71807633e-01  1.69963272e-06  7.56590254e-01  1.69963272e-06  1.80000000e+00  1.69963272e-06 -1.85485414e-06  1.69963272e-06  5.00000000e-01                                 
 1.83669362e-06  9.58495774e-01  1.83669362e-06  8.71979488e-01  1.83669362e-06  6.93171786e-01  1.83669362e-06  1.80000000e+00  1.83669362e-06  1.89444203e-06  1.83669362e-06  5.00000000e-01                                 
 1.87095885e-06  9.57333043e-01  1.87095885e-06  8.71325926e-01  1.87095885e-06  6.79278852e-01  1.87095885e-06  1.80000000e+00  1.87095885e-06  2.00353366e-08  1.87095885e-06  5.00000000e-01                                 
 1.93948930e-06  9.56438189e-01  1.93948930e-06  8.70862878e-01  1.93948930e-06  6.51617076e-01  1.93948930e-06  1.80000000e+00  1.93948930e-06  1.41151773e-08  1.93948930e-06  5.00000000e-01                                 
 2.07655020e-06  9.54879948e-01  2.07655020e-06  8.70074171e-01  2.07655020e-06  5.99953952e-01  2.07655020e-06  1.80000000e+00  2.07655020e-06  2.01418610e-08  2.07655020e-06  5.00000000e-01                                 
 2.27646434e-06  9.52442927e-01  2.27646434e-06  8.68807554e-01  2.27646434e-06  5.38571964e-01  2.27646434e-06  1.80000000e+00  2.27646434e-06  1.73384086e-08  2.27646434e-06  5.00000000e-01                                 
 2.67629262e-06  9.47736024e-01  2.67629262e-06  8.66338278e-01  2.67629262e-06  4.88011208e-01  2.67629262e-06  1.80000000e+00  2.67629262e-06  2.27166171e-08  2.67629262e-06  5.00000000e-01                                 
 2.94085262e-06  9.44364939e-01  2.94085262e-06  8.64518746e-01  2.94085262e-06  4.85165789e-01  2.94085262e-06  1.80000000e+00  2.94085262e-06  5.76795928e-09  2.94085262e-06  5.00000000e-01                                 
 2.97794760e-06  9.43918223e-01  2.97794760e-06  8.64280101e-01  2.97794760e-06  4.84781869e-01  2.97794760e-06  1.80000000e+00  2.97794760e-06  1.39754229e-08  2.97794760e-06  5.00000000e-01                                 
 3.05213756e-06  9.42943841e-01  3.05213756e-06  8.63749729e-01  3.05213756e-06  4.88408139e-01  3.05213756e-06  1.80000000e+00  3.05213756e-06  2.96398918e-08  3.05213756e-06  5.00000000e-01                                 
 3.07068505e-06  9.42693291e-01  3.07068505e-06  8.63612654e-01  3.07068505e-06  4.90392609e-01  3.07068505e-06  1.80000000e+00  3.07068505e-06  2.21332349e-08  3.07068505e-06  5.00000000e-01                                 
 3.10778003e-06  9.42190712e-01  3.10778003e-06  8.63337461e-01  3.10778003e-06  4.93373638e-01  3.10778003e-06  1.80000000e+00  3.10778003e-06  3.77267430e-09  3.10778003e-06  5.00000000e-01                                 
 3.18196998e-06  9.41158719e-01  3.18196998e-06  8.62770249e-01  3.18196998e-06  4.96468329e-01  3.18196998e-06  1.80000000e+00  3.18196998e-06  1.24504752e-08  3.18196998e-06  5.00000000e-01                                 
 3.33034990e-06  9.38952824e-01  3.33034990e-06  8.61547574e-01  3.33034990e-06  4.99013890e-01  3.33034990e-06  1.80000000e+00  3.33034990e-06  1.08763728e-08  3.33034990e-06  5.00000000e-01                                 
 3.60435666e-06  9.34016625e-01  3.60435666e-06  8.58760983e-01  3.60435666e-06  4.98290323e-01  3.60435666e-06  1.80000000e+00  3.60435666e-06  1.03228762e-08  3.60435666e-06  5.00000000e-01                                 
 3.98032368e-06  9.20917187e-01  3.98032368e-06  8.51015450e-01  3.98032368e-06  4.93920323e-01  3.98032368e-06  1.80000000e+00  3.98032368e-06 -6.46016024e-09  3.98032368e-06  5.00000000e-01                                 
 4.04440730e-06  9.16783925e-01  4.04440730e-06  8.48461347e-01  4.04440730e-06  4.92740360e-01  4.04440730e-06  1.80000000e+00  4.04440730e-06 -1.46631798e-08  4.04440730e-06  5.00000000e-01                                 
 4.17257455e-06  9.03927208e-01  4.17257455e-06  8.40158467e-01  4.17257455e-06  4.87952157e-01  4.17257455e-06  1.80000000e+00  4.17257455e-06 -5.48949692e-08  4.17257455e-06  5.00000000e-01                                 
 4.42890904e-06  8.52269969e-01  4.42890904e-06  8.00452831e-01  4.42890904e-06  4.73198581e-01  4.42890904e-06  1.80000000e+00  4.42890904e-06 -1.36660238e-07  4.42890904e-06  5.00000000e-01                                 
 4.44810726e-06  8.48211698e-01  4.44810726e-06  7.96887873e-01  4.44810726e-06  4.73189312e-01  4.44810726e-06  1.80000000e+00  4.44810726e-06 -1.06447257e-07  4.44810726e-06  5.00000000e-01                                 
 4.48650369e-06  8.42900013e-01  4.48650369e-06  7.92133268e-01  4.48650369e-06  4.75753235e-01  4.48650369e-06  1.80000000e+00  4.48650369e-06 -2.33571112e-08  4.48650369e-06  5.00000000e-01                                 
 4.56329654e-06  8.42344237e-01  4.56329654e-06  7.91626834e-01  4.56329654e-06  4.87429174e-01  4.56329654e-06  1.80000000e+00  4.56329654e-06  4.99213035e-08  4.56329654e-06  5.00000000e-01                                 
