 time            v(vbep)         time            v(vben)         time            v(vout)         time            v(vphi1)        time            v(vphi2)        time            v(vref)         yes             currtemp       
 0.00000000e+00  7.44815324e-01  0.00000000e+00  6.91479724e-01  0.00000000e+00  1.00737155e+00  0.00000000e+00  0.00000000e+00  0.00000000e+00  1.79980513e+00  0.00000000e+00  5.00000000e-01  1.00000000e+00  1.70000000e+01 
 5.00000000e-12  7.44710851e-01  5.00000000e-12  6.91401021e-01  5.00000000e-12  1.00810395e+00  5.00000000e-12  1.80000000e-02  5.00000000e-12  1.79994263e+00  5.00000000e-12  5.00000000e-01                                 
 1.00000000e-11  7.44617960e-01  1.00000000e-11  6.91328272e-01  1.00000000e-11  1.00876761e+00  1.00000000e-11  3.60000000e-02  1.00000000e-11  1.80002348e+00  1.00000000e-11  5.00000000e-01                                 
 2.00000000e-11  7.44442927e-01  2.00000000e-11  6.91184711e-01  2.00000000e-11  1.00998980e+00  2.00000000e-11  7.20000000e-02  2.00000000e-11  1.80011895e+00  2.00000000e-11  5.00000000e-01                                 
 4.00000000e-11  7.44115199e-01  4.00000000e-11  6.90900867e-01  4.00000000e-11  1.01196468e+00  4.00000000e-11  1.44000000e-01  4.00000000e-11  1.80011702e+00  4.00000000e-11  5.00000000e-01                                 
 8.00000000e-11  7.43469862e-01  8.00000000e-11  6.90339264e-01  8.00000000e-11  1.01475772e+00  8.00000000e-11  2.88000000e-01  8.00000000e-11  1.80004728e+00  8.00000000e-11  5.00000000e-01                                 
 1.60000000e-10  7.42209747e-01  1.60000000e-10  6.89240642e-01  1.60000000e-10  1.01816494e+00  1.60000000e-10  5.76000000e-01  1.60000000e-10  1.79999836e+00  1.60000000e-10  5.00000000e-01                                 
 3.20000000e-10  7.39801916e-01  3.20000000e-10  6.87134901e-01  3.20000000e-10  1.01279685e+00  3.20000000e-10  1.15200000e+00  3.20000000e-10  1.80038083e+00  3.20000000e-10  5.00000000e-01                                 
 5.00000000e-10  7.37262265e-01  5.00000000e-10  6.84903016e-01  5.00000000e-10  1.16840661e+00  5.00000000e-10  1.80000000e+00  5.00000000e-10  1.07840018e-01  5.00000000e-10  5.00000000e-01                                 
 5.21126951e-10  7.36976831e-01  5.21126951e-10  6.84651382e-01  5.21126951e-10  1.20357135e+00  5.21126951e-10  1.80000000e+00  5.21126951e-10  2.04886860e-02  5.21126951e-10  5.00000000e-01                                 
 5.63380853e-10  7.36409838e-01  5.63380853e-10  6.84151089e-01  5.63380853e-10  1.26708153e+00  5.63380853e-10  1.80000000e+00  5.63380853e-10 -9.39417915e-03  5.63380853e-10  5.00000000e-01                                 
 6.47888658e-10  7.35300898e-01  6.47888658e-10  6.83171122e-01  6.47888658e-10  1.36883044e+00  6.47888658e-10  1.80000000e+00  6.47888658e-10  8.16010607e-03  6.47888658e-10  5.00000000e-01                                 
 7.70365558e-10  7.33751020e-01  7.70365558e-10  6.81797691e-01  7.70365558e-10  1.48510992e+00  7.70365558e-10  1.80000000e+00  7.70365558e-10 -7.04161248e-03  7.70365558e-10  5.00000000e-01                                 
 9.60191445e-10  7.31472455e-01  9.60191445e-10  6.79770606e-01  9.60191445e-10  1.61755224e+00  9.60191445e-10  1.80000000e+00  9.60191445e-10  6.69619728e-03  9.60191445e-10  5.00000000e-01                                 
 1.33984322e-09  7.27307542e-01  1.33984322e-09  6.76041026e-01  1.33984322e-09  1.76762304e+00  1.33984322e-09  1.80000000e+00  1.33984322e-09 -6.33991628e-03  1.33984322e-09  5.00000000e-01                                 
 1.62947999e-09  7.24446427e-01  1.62947999e-09  6.73458452e-01  1.62947999e-09  1.81484261e+00  1.62947999e-09  1.80000000e+00  1.62947999e-09  6.12208508e-03  1.62947999e-09  5.00000000e-01                                 
 1.97671108e-09  7.21312951e-01  1.97671108e-09  6.70611418e-01  1.97671108e-09  1.83803678e+00  1.97671108e-09  1.80000000e+00  1.97671108e-09 -5.80160578e-03  1.97671108e-09  5.00000000e-01                                 
 2.30245068e-09  7.18627291e-01  2.30245068e-09  6.68155800e-01  2.30245068e-09  1.84515048e+00  2.30245068e-09  1.80000000e+00  2.30245068e-09  5.64279069e-03  2.30245068e-09  5.00000000e-01                                 
 2.64894723e-09  7.16000334e-01  2.64894723e-09  6.65740085e-01  2.64894723e-09  1.84688142e+00  2.64894723e-09  1.80000000e+00  2.64894723e-09 -5.36439397e-03  2.64894723e-09  5.00000000e-01                                 
 3.07390136e-09  7.13052981e-01  3.07390136e-09  6.63014300e-01  3.07390136e-09  1.84629123e+00  3.07390136e-09  1.80000000e+00  3.07390136e-09  5.22846165e-03  3.07390136e-09  5.00000000e-01                                 
 3.53303289e-09  7.10158306e-01  3.53303289e-09  6.60321291e-01  3.53303289e-09  1.84460548e+00  3.53303289e-09  1.80000000e+00  3.53303289e-09 -5.05202670e-03  3.53303289e-09  5.00000000e-01                                 
 4.24123632e-09  7.06169645e-01  4.24123632e-09  6.56586599e-01  4.24123632e-09  1.84192091e+00  4.24123632e-09  1.80000000e+00  4.24123632e-09  4.97221088e-03  4.24123632e-09  5.00000000e-01                                 
 5.16837983e-09  7.01643878e-01  5.16837983e-09  6.52316240e-01  5.16837983e-09  1.83869756e+00  5.16837983e-09  1.80000000e+00  5.16837983e-09 -4.88351696e-03  5.16837983e-09  5.00000000e-01                                 
 6.92177040e-09  6.94596523e-01  6.92177040e-09  6.45605827e-01  6.92177040e-09  1.83379892e+00  6.92177040e-09  1.80000000e+00  6.92177040e-09  4.86193257e-03  6.92177040e-09  5.00000000e-01                                 
 1.01725493e-08  6.84809092e-01  1.01725493e-08  6.36177121e-01  1.01725493e-08  1.82697414e+00  1.01725493e-08  1.80000000e+00  1.01725493e-08 -4.82428938e-03  1.01725493e-08  5.00000000e-01                                 
 1.66741071e-08  6.71694692e-01  1.66741071e-08  6.23381201e-01  1.66741071e-08  1.81794277e+00  1.66741071e-08  1.80000000e+00  1.66741071e-08  4.83260970e-03  1.66741071e-08  5.00000000e-01                                 
 2.96772227e-08  6.56068476e-01  2.96772227e-08  6.07950116e-01  2.96772227e-08  1.80712390e+00  2.96772227e-08  1.80000000e+00  2.96772227e-08 -4.80829123e-03  2.96772227e-08  5.00000000e-01                                 
 4.66088192e-08  6.44142216e-01  4.66088192e-08  5.96071313e-01  4.66088192e-08  1.79885008e+00  4.66088192e-08  1.80000000e+00  4.66088192e-08  4.82429696e-03  4.66088192e-08  5.00000000e-01                                 
 7.45550384e-08  6.31868692e-01  7.45550384e-08  5.83753627e-01  7.45550384e-08  1.79290494e+00  7.45550384e-08  1.80000000e+00  7.45550384e-08 -4.80200154e-03  7.45550384e-08  5.00000000e-01                                 
 1.21559405e-07  6.20029209e-01  1.21559405e-07  5.71627051e-01  1.21559405e-07  1.80111124e+00  1.21559405e-07  1.80000000e+00  1.21559405e-07  4.82079787e-03  1.21559405e-07  5.00000000e-01                                 
 1.54315098e-07  6.14542225e-01  1.54315098e-07  5.65967510e-01  1.54315098e-07  1.80980452e+00  1.54315098e-07  1.80000000e+00  1.54315098e-07 -4.79859424e-03  1.54315098e-07  5.00000000e-01                                 
 1.89577132e-07  6.08458555e-01  1.89577132e-07  5.60008669e-01  1.89577132e-07  1.74004318e+00  1.89577132e-07  1.80000000e+00  1.89577132e-07  4.81698603e-03  1.89577132e-07  5.00000000e-01                                 
 2.29697132e-07  5.96369337e-01  2.29697132e-07  5.49370256e-01  2.29697132e-07  1.56017153e+00  2.29697132e-07  1.80000000e+00  2.29697132e-07 -4.79529967e-03  2.29697132e-07  5.00000000e-01                                 
 2.58919181e-07  5.85969337e-01  2.58919181e-07  5.40486959e-01  2.58919181e-07  1.42137730e+00  2.58919181e-07  1.80000000e+00  2.58919181e-07  4.81314270e-03  2.58919181e-07  5.00000000e-01                                 
 2.92154599e-07  5.82021599e-01  2.92154599e-07  5.36722948e-01  2.92154599e-07  1.27119152e+00  2.92154599e-07  1.80000000e+00  2.92154599e-07 -4.79099982e-03  2.92154599e-07  5.00000000e-01                                 
 3.29096078e-07  5.87112495e-01  3.29096078e-07  5.40106329e-01  3.29096078e-07  1.08822205e+00  3.29096078e-07  1.80000000e+00  3.29096078e-07  4.80970398e-03  3.29096078e-07  5.00000000e-01                                 
 3.55050472e-07  5.84418850e-01  3.55050472e-07  5.37541611e-01  3.55050472e-07  9.38368687e-01  3.55050472e-07  1.80000000e+00  3.55050472e-07 -4.78705341e-03  3.55050472e-07  5.00000000e-01                                 
 3.84279606e-07  5.76120962e-01  3.84279606e-07  5.30525590e-01  3.84279606e-07  8.16505626e-01  3.84279606e-07  1.80000000e+00  3.84279606e-07  4.80489505e-03  3.84279606e-07  5.00000000e-01                                 
 4.15376830e-07  5.70369556e-01  4.15376830e-07  5.25551091e-01  4.15376830e-07  7.38392742e-01  4.15376830e-07  1.80000000e+00  4.15376830e-07 -4.78276759e-03  4.15376830e-07  5.00000000e-01                                 
 4.48105719e-07  5.62607531e-01  4.48105719e-07  5.19009918e-01  4.48105719e-07  6.62750362e-01  4.48105719e-07  1.80000000e+00  4.48105719e-07  4.80084460e-03  4.48105719e-07  5.00000000e-01                                 
 4.90365538e-07  5.53272139e-01  4.90365538e-07  5.11179521e-01  4.90365538e-07  5.76787622e-01  4.90365538e-07  1.80000000e+00  4.90365538e-07 -4.77932784e-03  4.90365538e-07  5.00000000e-01                                 
 5.65554847e-07  5.33149465e-01  5.65554847e-07  4.94630190e-01  5.65554847e-07  4.91827332e-01  5.65554847e-07  1.80000000e+00  5.65554847e-07  4.79845593e-03  5.65554847e-07  5.00000000e-01                                 
 6.43474192e-07  5.10953062e-01  6.43474192e-07  4.76601808e-01  6.43474192e-07  4.74412544e-01  6.43474192e-07  1.80000000e+00  6.43474192e-07 -4.77769575e-03  6.43474192e-07  5.00000000e-01                                 
 7.31065337e-07  4.76339705e-01  7.31065337e-07  4.48799910e-01  7.31065337e-07  4.52892789e-01  7.31065337e-07  1.80000000e+00  7.31065337e-07  4.79683640e-03  7.31065337e-07  5.00000000e-01                                 
 7.43825029e-07  4.70700440e-01  7.43825029e-07  4.44286277e-01  7.43825029e-07  4.48294259e-01  7.43825029e-07  1.80000000e+00  7.43825029e-07  1.31165034e-06  7.43825029e-07  5.00000000e-01                                 
 7.69344413e-07  4.60056696e-01  7.69344413e-07  4.35771308e-01  7.69344413e-07  4.61975443e-01  7.69344413e-07  1.80000000e+00  7.69344413e-07 -1.21362343e-06  7.69344413e-07  5.00000000e-01                                 
 8.11412791e-07  4.71109812e-01  8.11412791e-07  4.44652826e-01  8.11412791e-07  5.47536306e-01  8.11412791e-07  1.80000000e+00  8.11412791e-07  1.85132898e-06  8.11412791e-07  5.00000000e-01                                 
 8.35938929e-07  5.28181495e-01  8.35938929e-07  4.90332557e-01  8.35938929e-07  5.96915935e-01  8.35938929e-07  1.80000000e+00  8.35938929e-07  4.72853863e-07  8.35938929e-07  5.00000000e-01                                 
 8.63076269e-07  7.02594935e-01  8.63076269e-07  6.42337833e-01  8.63076269e-07  6.17254935e-01  8.63076269e-07  1.80000000e+00  8.63076269e-07  6.12716250e-06  8.63076269e-07  5.00000000e-01                                 
 8.84647257e-07  7.63200881e-01  8.84647257e-07  7.07968636e-01  8.84647257e-07  5.71210060e-01  8.84647257e-07  1.80000000e+00  8.84647257e-07 -1.94735628e-06  8.84647257e-07  5.00000000e-01                                 
 9.06697816e-07  7.92042968e-01  9.06697816e-07  7.35625567e-01  9.06697816e-07  5.39154190e-01  9.06697816e-07  1.80000000e+00  9.06697816e-07  4.01345071e-06  9.06697816e-07  5.00000000e-01                                 
 9.38620169e-07  8.13682114e-01  9.38620169e-07  7.54524913e-01  9.38620169e-07  5.11452316e-01  9.38620169e-07  1.80000000e+00  9.38620169e-07 -2.58143381e-06  9.38620169e-07  5.00000000e-01                                 
 9.71183898e-07  8.14608465e-01  9.71183898e-07  7.55434411e-01  9.71183898e-07  5.01334528e-01  9.71183898e-07  1.80000000e+00  9.71183898e-07  2.97985184e-06  9.71183898e-07  5.00000000e-01                                 
 1.01292153e-06  8.15558071e-01  1.01292153e-06  7.56112438e-01  1.01292153e-06  4.98020347e-01  1.01292153e-06  1.80000000e+00  1.01292153e-06 -2.46612392e-06  1.01292153e-06  5.00000000e-01                                 
 1.05671842e-06  8.15822670e-01  1.05671842e-06  7.56448286e-01  1.05671842e-06  4.94930270e-01  1.05671842e-06  1.80000000e+00  1.05671842e-06  2.85291430e-06  1.05671842e-06  5.00000000e-01                                 
 1.06531151e-06  8.16339654e-01  1.06531151e-06  7.56824269e-01  1.06531151e-06  4.95453748e-01  1.06531151e-06  1.80000000e+00  1.06531151e-06  3.13477438e-07  1.06531151e-06  5.00000000e-01                                 
 1.08249769e-06  8.16467775e-01  1.08249769e-06  7.56932190e-01  1.08249769e-06  4.94816569e-01  1.08249769e-06  1.80000000e+00  1.08249769e-06  1.31050998e-07  1.08249769e-06  5.00000000e-01                                 
 1.11059271e-06  8.01362923e-01  1.11059271e-06  7.44017398e-01  1.11059271e-06  4.83240426e-01  1.11059271e-06  1.80000000e+00  1.11059271e-06 -4.09663281e-07  1.11059271e-06  5.00000000e-01                                 
 1.14029137e-06  7.83454137e-01  1.14029137e-06  7.27682639e-01  1.14029137e-06  4.71006283e-01  1.14029137e-06  1.80000000e+00  1.14029137e-06  2.84376523e-08  1.14029137e-06  5.00000000e-01                                 
 1.17766379e-06  7.92754641e-01  1.17766379e-06  7.36215944e-01  1.17766379e-06  4.95285435e-01  1.17766379e-06  1.80000000e+00  1.17766379e-06  7.27940171e-07  1.17766379e-06  5.00000000e-01                                 
 1.22268695e-06  8.04128979e-01  1.22268695e-06  7.46367413e-01  1.22268695e-06  5.33783446e-01  1.22268695e-06  1.80000000e+00  1.22268695e-06  4.28206503e-08  1.22268695e-06  5.00000000e-01                                 
 1.27409575e-06  8.04307233e-01  1.27409575e-06  7.46548163e-01  1.27409575e-06  5.07904642e-01  1.27409575e-06  1.80000000e+00  1.27409575e-06  3.73639116e-07  1.27409575e-06  5.00000000e-01                                 
 1.33125472e-06  7.96216191e-01  1.33125472e-06  7.39367299e-01  1.33125472e-06  4.63221167e-01  1.33125472e-06  1.80000000e+00  1.33125472e-06 -1.20312348e-07  1.33125472e-06  5.00000000e-01                                 
 1.38645316e-06  7.96345604e-01  1.38645316e-06  7.39473400e-01  1.38645316e-06  4.91124190e-01  1.38645316e-06  1.80000000e+00  1.38645316e-06  5.50720169e-07  1.38645316e-06  5.00000000e-01                                 
 1.45036668e-06  8.03210875e-01  1.45036668e-06  7.45566619e-01  1.45036668e-06  5.38523541e-01  1.45036668e-06  1.80000000e+00  1.45036668e-06  2.26427763e-08  1.45036668e-06  5.00000000e-01                                 
 1.51226017e-06  8.00142178e-01  1.51226017e-06  7.42881316e-01  1.51226017e-06  5.06901873e-01  1.51226017e-06  1.80000000e+00  1.51226017e-06  3.27684530e-07  1.51226017e-06  5.00000000e-01                                 
 1.57939226e-06  7.96634610e-01  1.57939226e-06  7.39729737e-01  1.57939226e-06  4.60150734e-01  1.57939226e-06  1.80000000e+00  1.57939226e-06  3.97245670e-08  1.57939226e-06  5.00000000e-01                                 
 1.59168660e-06  7.97641016e-01  1.59168660e-06  7.40634783e-01  1.59168660e-06  4.63363156e-01  1.59168660e-06  1.80000000e+00  1.59168660e-06  2.66996232e-07  1.59168660e-06  5.00000000e-01                                 
 1.61627527e-06  7.99514075e-01  1.61627527e-06  7.42305147e-01  1.61627527e-06  4.77357746e-01  1.61627527e-06  1.80000000e+00  1.61627527e-06  2.71161222e-07  1.61627527e-06  5.00000000e-01                                 
 1.66545262e-06  8.01351216e-01  1.66545262e-06  7.43937336e-01  1.66545262e-06  5.33807005e-01  1.66545262e-06  1.80000000e+00  1.66545262e-06  2.12079300e-07  1.66545262e-06  5.00000000e-01                                 
 1.71562920e-06  7.99621172e-01  1.71562920e-06  7.42408603e-01  1.71562920e-06  5.22692544e-01  1.71562920e-06  1.80000000e+00  1.71562920e-06  1.49610231e-07  1.71562920e-06  5.00000000e-01                                 
 1.76780064e-06  7.98321496e-01  1.76780064e-06  7.41245943e-01  1.76780064e-06  4.70466942e-01  1.76780064e-06  1.80000000e+00  1.76780064e-06  2.54405824e-07  1.76780064e-06  5.00000000e-01                                 
 1.81916160e-06  7.99801993e-01  1.81916160e-06  7.42563148e-01  1.81916160e-06  4.80998996e-01  1.81916160e-06  1.80000000e+00  1.81916160e-06  2.17990758e-07  1.81916160e-06  5.00000000e-01                                 
 1.87806320e-06  8.00415510e-01  1.87806320e-06  7.43110264e-01  1.87806320e-06  5.21349746e-01  1.87806320e-06  1.80000000e+00  1.87806320e-06  2.25392132e-07  1.87806320e-06  5.00000000e-01                                 
 1.94021944e-06  7.99163174e-01  1.94021944e-06  7.41998740e-01  1.94021944e-06  5.18010367e-01  1.94021944e-06  1.80000000e+00  1.94021944e-06  1.67976157e-07  1.94021944e-06  5.00000000e-01                                 
 2.00962989e-06  7.99269573e-01  2.00962989e-06  7.42090273e-01  2.00962989e-06  4.73869976e-01  2.00962989e-06  1.80000000e+00  2.00962989e-06  2.63613482e-07  2.00962989e-06  5.00000000e-01                                 
 2.02022215e-06  7.99516579e-01  2.02022215e-06  7.42310251e-01  2.02022215e-06  4.74438875e-01  2.02022215e-06  1.80000000e+00  2.02022215e-06  2.37700754e-07  2.02022215e-06  5.00000000e-01                                 
 2.04140667e-06  7.99901103e-01  2.04140667e-06  7.42652418e-01  2.04140667e-06  4.75636205e-01  2.04140667e-06  1.80000000e+00  2.04140667e-06  2.16125228e-07  2.04140667e-06  5.00000000e-01                                 
 2.08377570e-06  7.99954384e-01  2.08377570e-06  7.42701065e-01  2.08377570e-06  4.93949920e-01  2.08377570e-06  1.80000000e+00  2.08377570e-06  2.19641421e-07  2.08377570e-06  5.00000000e-01                                 
 2.14554806e-06  7.99364820e-01  2.14554806e-06  7.42177131e-01  2.14554806e-06  5.28215368e-01  2.14554806e-06  1.80000000e+00  2.14554806e-06  1.93823725e-07  2.14554806e-06  5.00000000e-01                                 
 2.22380872e-06  7.99523545e-01  2.22380872e-06  7.42317057e-01  2.22380872e-06  4.98755311e-01  2.22380872e-06  1.80000000e+00  2.22380872e-06  2.30984992e-07  2.22380872e-06  5.00000000e-01                                 
 2.29547732e-06  7.99855601e-01  2.29547732e-06  7.42612948e-01  2.29547732e-06  4.66648154e-01  2.29547732e-06  1.80000000e+00  2.29547732e-06  2.09568281e-07  2.29547732e-06  5.00000000e-01                                 
 2.31010941e-06  7.99769726e-01  2.31010941e-06  7.42536841e-01  2.31010941e-06  4.73596143e-01  2.31010941e-06  1.80000000e+00  2.31010941e-06  2.13699356e-07  2.31010941e-06  5.00000000e-01                                 
 2.33937361e-06  7.99585614e-01  2.33937361e-06  7.42373320e-01  2.33937361e-06  4.99054211e-01  2.33937361e-06  1.80000000e+00  2.33937361e-06  2.15259997e-07  2.33937361e-06  5.00000000e-01                                 
 2.39790199e-06  7.99474432e-01  2.39790199e-06  7.42273945e-01  2.39790199e-06  5.31381070e-01  2.39790199e-06  1.80000000e+00  2.39790199e-06  2.02788289e-07  2.39790199e-06  5.00000000e-01                                 
 2.45808043e-06  7.99673241e-01  2.45808043e-06  7.42450588e-01  2.45808043e-06  4.98291278e-01  2.45808043e-06  1.80000000e+00  2.45808043e-06  2.25239630e-07  2.45808043e-06  5.00000000e-01                                 
 2.52230931e-06  7.99674498e-01  2.52230931e-06  7.42452124e-01  2.52230931e-06  4.73693408e-01  2.52230931e-06  1.80000000e+00  2.52230931e-06  2.09261100e-07  2.52230931e-06  5.00000000e-01                                 
