 time            v(vbep)         time            v(vben)         time            v(vout)         time            v(vphi1)        time            v(vphi2)        time            v(vref)         yes             currtemp       
 0.00000000e+00  7.83698948e-01  0.00000000e+00  7.40136284e-01  0.00000000e+00  6.88752768e-02  0.00000000e+00  0.00000000e+00  0.00000000e+00  1.79998010e+00  0.00000000e+00  5.00000000e-01  1.00000000e+00 -3.50000000e+01 
 5.00000000e-12  7.83686790e-01  5.00000000e-12  7.40126136e-01  5.00000000e-12  6.93153459e-02  5.00000000e-12  1.80000000e-02  5.00000000e-12  1.80005435e+00  5.00000000e-12  5.00000000e-01                                 
 1.00000000e-11  7.83674773e-01  1.00000000e-11  7.40116175e-01  1.00000000e-11  6.97067739e-02  1.00000000e-11  3.60000000e-02  1.00000000e-11  1.80008944e+00  1.00000000e-11  5.00000000e-01                                 
 2.00000000e-11  7.83650811e-01  2.00000000e-11  7.40096301e-01  2.00000000e-11  7.04202264e-02  2.00000000e-11  7.20000000e-02  2.00000000e-11  1.80012016e+00  2.00000000e-11  5.00000000e-01                                 
 4.00000000e-11  7.83603023e-01  4.00000000e-11  7.40056648e-01  4.00000000e-11  7.15241806e-02  4.00000000e-11  1.44000000e-01  4.00000000e-11  1.80009912e+00  4.00000000e-11  5.00000000e-01                                 
 8.00000000e-11  7.83507721e-01  8.00000000e-11  7.39977536e-01  8.00000000e-11  7.29877946e-02  8.00000000e-11  2.88000000e-01  8.00000000e-11  1.80005639e+00  8.00000000e-11  5.00000000e-01                                 
 1.60000000e-10  7.83318265e-01  1.60000000e-10  7.39820100e-01  1.60000000e-10  7.47880095e-02  1.60000000e-10  5.76000000e-01  1.60000000e-10  1.80001956e+00  1.60000000e-10  5.00000000e-01                                 
 3.20000000e-10  7.82943779e-01  3.20000000e-10  7.39508303e-01  3.20000000e-10  1.12617519e-01  3.20000000e-10  1.15200000e+00  3.20000000e-10  1.79979562e+00  3.20000000e-10  5.00000000e-01                                 
 5.00000000e-10  7.82529468e-01  5.00000000e-10  7.39162397e-01  5.00000000e-10  4.97668442e-01  5.00000000e-10  1.80000000e+00  5.00000000e-10  8.64532429e-02  5.00000000e-10  5.00000000e-01                                 
 5.20635487e-10  7.82482485e-01  5.20635487e-10  7.39123102e-01  5.20635487e-10  5.66020088e-01  5.20635487e-10  1.80000000e+00  5.20635487e-10  1.41518990e-02  5.20635487e-10  5.00000000e-01                                 
 5.61906461e-10  7.82388697e-01  5.61906461e-10  7.39044636e-01  5.61906461e-10  6.87026816e-01  5.61906461e-10  1.80000000e+00  5.61906461e-10 -6.81380729e-03  5.61906461e-10  5.00000000e-01                                 
 6.44448408e-10  7.82202217e-01  6.44448408e-10  7.38888473e-01  6.44448408e-10  8.66645415e-01  6.44448408e-10  1.80000000e+00  6.44448408e-10  6.04696728e-03  6.44448408e-10  5.00000000e-01                                 
 7.69815840e-10  7.81921751e-01  7.69815840e-10  7.38653234e-01  7.69815840e-10  1.07030996e+00  7.69815840e-10  1.80000000e+00  7.69815840e-10 -5.40397568e-03  7.69815840e-10  5.00000000e-01                                 
 9.56514242e-10  7.81510118e-01  9.56514242e-10  7.38307181e-01  9.56514242e-10  1.31731086e+00  9.56514242e-10  1.80000000e+00  9.56514242e-10  5.18240339e-03  9.56514242e-10  5.00000000e-01                                 
 1.32612171e-09  7.80715617e-01  1.32612171e-09  7.37636627e-01  1.32612171e-09  1.66304728e+00  1.32612171e-09  1.80000000e+00  1.32612171e-09 -4.95447643e-03  1.32612171e-09  5.00000000e-01                                 
 2.01731063e-09  7.79297227e-01  2.01731063e-09  7.36431154e-01  2.01731063e-09  1.89991209e+00  2.01731063e-09  1.80000000e+00  2.01731063e-09  4.94036560e-03  2.01731063e-09  5.00000000e-01                                 
 2.25042778e-09  7.78837684e-01  2.25042778e-09  7.36038242e-01  2.25042778e-09  1.91406089e+00  2.25042778e-09  1.80000000e+00  2.25042778e-09 -4.65780674e-03  2.25042778e-09  5.00000000e-01                                 
 2.54407610e-09  7.78271210e-01  2.54407610e-09  7.35552408e-01  2.54407610e-09  1.92156525e+00  2.54407610e-09  1.80000000e+00  2.54407610e-09  4.53365111e-03  2.54407610e-09  5.00000000e-01                                 
 2.88926133e-09  7.77622175e-01  2.88926133e-09  7.34993769e-01  2.88926133e-09  1.92767298e+00  2.88926133e-09  1.80000000e+00  2.88926133e-09 -4.35684160e-03  2.88926133e-09  5.00000000e-01                                 
 3.57963179e-09  7.76374626e-01  3.57963179e-09  7.33914220e-01  3.57963179e-09  1.93343581e+00  3.57963179e-09  1.80000000e+00  3.57963179e-09  4.32172069e-03  3.57963179e-09  5.00000000e-01                                 
 4.96037272e-09  7.74057546e-01  4.96037272e-09  7.31890199e-01  4.96037272e-09  1.92817449e+00  4.96037272e-09  1.80000000e+00  4.96037272e-09 -4.26355420e-03  4.96037272e-09  5.00000000e-01                                 
 7.02965828e-09  7.70953786e-01  7.02965828e-09  7.29142789e-01  7.02965828e-09  1.91409918e+00  7.02965828e-09  1.80000000e+00  7.02965828e-09  4.27138912e-03  7.02965828e-09  5.00000000e-01                                 
 9.02722581e-09  7.68293456e-01  9.02722581e-09  7.26757289e-01  9.02722581e-09  1.90335671e+00  9.02722581e-09  1.80000000e+00  9.02722581e-09 -4.21789303e-03  9.02722581e-09  5.00000000e-01                                 
 1.03893657e-08  7.66631117e-01  1.03893657e-08  7.25253889e-01  1.03893657e-08  1.89721056e+00  1.03893657e-08  1.80000000e+00  1.03893657e-08  4.20919722e-03  1.03893657e-08  5.00000000e-01                                 
 1.22991672e-08  7.64470819e-01  1.22991672e-08  7.23287305e-01  1.22991672e-08  1.89027311e+00  1.22991672e-08  1.80000000e+00  1.22991672e-08 -4.16433014e-03  1.22991672e-08  5.00000000e-01                                 
 1.49040773e-08  7.61795481e-01  1.49040773e-08  7.20833284e-01  1.49040773e-08  1.88217355e+00  1.49040773e-08  1.80000000e+00  1.49040773e-08  4.16552287e-03  1.49040773e-08  5.00000000e-01                                 
 1.85190449e-08  7.58502035e-01  1.85190449e-08  7.17786767e-01  1.85190449e-08  1.87317683e+00  1.85190449e-08  1.80000000e+00  1.85190449e-08 -4.13627239e-03  1.85190449e-08  5.00000000e-01                                 
 2.39432228e-08  7.54242912e-01  2.39432228e-08  7.13812299e-01  2.39432228e-08  1.86194782e+00  2.39432228e-08  1.80000000e+00  2.39432228e-08  4.14419134e-03  2.39432228e-08  5.00000000e-01                                 
 3.19670783e-08  7.48917331e-01  3.19670783e-08  7.08811605e-01  3.19670783e-08  1.84820873e+00  3.19670783e-08  1.80000000e+00  3.19670783e-08 -4.12264476e-03  3.19670783e-08  5.00000000e-01                                 
 4.64538401e-08  7.41011896e-01  4.64538401e-08  7.01379274e-01  4.64538401e-08  1.82628472e+00  4.64538401e-08  1.80000000e+00  4.64538401e-08  4.13557580e-03  4.64538401e-08  5.00000000e-01                                 
 7.54273636e-08  7.29150251e-01  7.54273636e-08  6.90233505e-01  7.54273636e-08  1.78876749e+00  7.54273636e-08  1.80000000e+00  7.54273636e-08 -4.11802938e-03  7.54273636e-08  5.00000000e-01                                 
 1.13748457e-07  7.18227667e-01  1.13748457e-07  6.79969540e-01  1.13748457e-07  1.74512928e+00  1.13748457e-07  1.80000000e+00  1.13748457e-07  4.13299638e-03  1.13748457e-07  5.00000000e-01                                 
 1.53219923e-07  7.09861269e-01  1.53219923e-07  6.72135131e-01  1.53219923e-07  1.70214116e+00  1.53219923e-07  1.80000000e+00  1.53219923e-07 -4.11571184e-03  1.53219923e-07  5.00000000e-01                                 
 2.30568819e-07  6.97305102e-01  2.30568819e-07  6.60480439e-01  2.30568819e-07  1.61914012e+00  2.30568819e-07  1.80000000e+00  2.30568819e-07  4.13134470e-03  2.30568819e-07  5.00000000e-01                                 
 3.06338685e-07  6.88067965e-01  3.06338685e-07  6.51990697e-01  3.06338685e-07  1.53908705e+00  3.06338685e-07  1.80000000e+00  3.06338685e-07 -4.11451282e-03  3.06338685e-07  5.00000000e-01                                 
 4.57878417e-07  6.74111904e-01  4.57878417e-07  6.39280268e-01  4.57878417e-07  1.37913996e+00  4.57878417e-07  1.80000000e+00  4.57878417e-07  4.13049647e-03  4.57878417e-07  5.00000000e-01                                 
 7.60957881e-07  6.55633596e-01  7.60957881e-07  6.22602189e-01  7.60957881e-07  1.05227801e+00  7.60957881e-07  1.80000000e+00  7.60957881e-07 -4.11393478e-03  7.60957881e-07  5.00000000e-01                                 
 1.27543756e-06  6.37370230e-01  1.27543756e-06  6.06168404e-01  1.27543756e-06  7.08995028e-01  1.27543756e-06  1.80000000e+00  1.27543756e-06  4.13028596e-03  1.27543756e-06  5.00000000e-01                                 
 1.77886740e-06  6.26713408e-01  1.77886740e-06  5.96525916e-01  1.77886740e-06  5.42547177e-01  1.77886740e-06  1.80000000e+00  1.77886740e-06 -4.11390366e-03  1.77886740e-06  5.00000000e-01                                 
 1.81440067e-06  6.26142223e-01  1.81440067e-06  5.96003965e-01  1.81440067e-06  5.35563073e-01  1.81440067e-06  1.80000000e+00  1.81440067e-06 -2.90658888e-07  1.81440067e-06  5.00000000e-01                                 
 1.88546722e-06  6.25020514e-01  1.88546722e-06  5.94978818e-01  1.88546722e-06  5.24586249e-01  1.88546722e-06  1.80000000e+00  1.88546722e-06  2.92027078e-07  1.88546722e-06  5.00000000e-01                                 
 2.02760031e-06  6.22921884e-01  2.02760031e-06  5.93056502e-01  2.02760031e-06  5.13687694e-01  2.02760031e-06  1.80000000e+00  2.02760031e-06 -2.90173297e-07  2.02760031e-06  5.00000000e-01                                 
 2.27464291e-06  6.19747618e-01  2.27464291e-06  5.90126762e-01  2.27464291e-06  5.06887419e-01  2.27464291e-06  1.80000000e+00  2.27464291e-06  2.91232805e-07  2.27464291e-06  5.00000000e-01                                 
 2.53493457e-06  6.17026581e-01  2.53493457e-06  5.87575743e-01  2.53493457e-06  5.03690545e-01  2.53493457e-06  1.80000000e+00  2.53493457e-06 -2.88554046e-07  2.53493457e-06  5.00000000e-01                                 
 3.02680472e-06  6.13748889e-01  3.02680472e-06  5.84318013e-01  3.02680472e-06  5.00723947e-01  3.02680472e-06  1.80000000e+00  3.02680472e-06  2.93737921e-07  3.02680472e-06  5.00000000e-01                                 
 3.51197365e-06  6.14011081e-01  3.51197365e-06  5.83960247e-01  3.51197365e-06  5.01252069e-01  3.51197365e-06  1.80000000e+00  3.51197365e-06 -2.83834341e-07  3.51197365e-06  5.00000000e-01                                 
 3.63326588e-06  6.15157402e-01  3.63326588e-06  5.84740930e-01  3.63326588e-06  5.02390446e-01  3.63326588e-06  1.80000000e+00  3.63326588e-06  7.83451228e-09  3.63326588e-06  5.00000000e-01                                 
 3.87585035e-06  6.19383598e-01  3.87585035e-06  5.87849265e-01  3.87585035e-06  5.06313271e-01  3.87585035e-06  1.80000000e+00  3.87585035e-06  1.30162910e-08  3.87585035e-06  5.00000000e-01                                 
 3.93649647e-06  6.21410422e-01  3.93649647e-06  5.89402225e-01  3.93649647e-06  5.07966688e-01  3.93649647e-06  1.80000000e+00  3.93649647e-06  1.56205028e-08  3.93649647e-06  5.00000000e-01                                 
 4.05778870e-06  6.27033780e-01  4.05778870e-06  5.93764096e-01  4.05778870e-06  5.11535626e-01  4.05778870e-06  1.80000000e+00  4.05778870e-06  2.40571484e-08  4.05778870e-06  5.00000000e-01                                 
 4.08811176e-06  6.29183866e-01  4.08811176e-06  5.95450132e-01  4.08811176e-06  5.12589779e-01  4.08811176e-06  1.80000000e+00  4.08811176e-06  2.78716140e-08  4.08811176e-06  5.00000000e-01                                 
 4.14875788e-06  6.34441500e-01  4.14875788e-06  5.99588994e-01  4.14875788e-06  5.15022714e-01  4.14875788e-06  1.80000000e+00  4.14875788e-06  3.83152136e-08  4.14875788e-06  5.00000000e-01                                 
 4.27005011e-06  6.61688197e-01  4.27005011e-06  6.21297866e-01  4.27005011e-06  5.27934131e-01  4.27005011e-06  1.80000000e+00  4.27005011e-06  1.20009267e-07  4.27005011e-06  5.00000000e-01                                 
 4.29464192e-06  6.74136780e-01  4.29464192e-06  6.31277977e-01  4.29464192e-06  5.34293755e-01  4.29464192e-06  1.80000000e+00  4.29464192e-06  1.75473749e-07  4.29464192e-06  5.00000000e-01                                 
 4.34382555e-06  7.20062280e-01  4.34382555e-06  6.68888751e-01  4.34382555e-06  5.61011349e-01  4.34382555e-06  1.80000000e+00  4.34382555e-06  4.88032659e-07  4.34382555e-06  5.00000000e-01                                 
 4.35612146e-06  7.42897570e-01  4.35612146e-06  6.88663649e-01  4.35612146e-06  5.75511895e-01  4.35612146e-06  1.80000000e+00  4.35612146e-06  6.97434464e-07  4.35612146e-06  5.00000000e-01                                 
 4.38071327e-06  7.93036433e-01  4.38071327e-06  7.41676236e-01  4.38071327e-06  6.08214492e-01  4.38071327e-06  1.80000000e+00  4.38071327e-06  1.07923049e-06  4.38071327e-06  5.00000000e-01                                 
 4.42989690e-06  8.61029975e-01  4.42989690e-06  8.15813961e-01  4.42989690e-06  6.49994167e-01  4.42989690e-06  1.80000000e+00  4.42989690e-06  3.84397494e-07  4.42989690e-06  5.00000000e-01                                 
 4.47439831e-06  9.20043621e-01  4.47439831e-06  8.65235116e-01  4.47439831e-06  6.81901801e-01  4.47439831e-06  1.80000000e+00  4.47439831e-06  8.24591501e-07  4.47439831e-06  5.00000000e-01                                 
 4.52119041e-06  9.43048236e-01  4.52119041e-06  8.80560692e-01  4.52119041e-06  6.85375317e-01  4.52119041e-06  1.80000000e+00  4.52119041e-06 -1.79790612e-07  4.52119041e-06  5.00000000e-01                                 
 4.56335236e-06  9.32365038e-01  4.56335236e-06  8.73880300e-01  4.56335236e-06  6.62855423e-01  4.56335236e-06  1.80000000e+00  4.56335236e-06 -1.66661994e-08  4.56335236e-06  5.00000000e-01                                 
 4.59344665e-06  9.37407351e-01  4.59344665e-06  8.76930260e-01  4.59344665e-06  6.57395569e-01  4.59344665e-06  1.80000000e+00  4.59344665e-06  1.09728957e-07  4.59344665e-06  5.00000000e-01                                 
 4.62564030e-06  9.35540640e-01  4.62564030e-06  8.75994348e-01  4.62564030e-06  6.45800108e-01  4.62564030e-06  1.80000000e+00  4.62564030e-06 -1.06087538e-07  4.62564030e-06  5.00000000e-01                                 
 4.66180418e-06  9.34757435e-01  4.66180418e-06  8.75225455e-01  4.66180418e-06  6.35046287e-01  4.66180418e-06  1.80000000e+00  4.66180418e-06  9.78824015e-08  4.66180418e-06  5.00000000e-01                                 
 4.71397041e-06  9.34969220e-01  4.71397041e-06  8.75610280e-01  4.71397041e-06  6.19704985e-01  4.71397041e-06  1.80000000e+00  4.71397041e-06 -8.93273830e-08  4.71397041e-06  5.00000000e-01                                 
 4.79692912e-06  9.31626530e-01  4.79692912e-06  8.73191386e-01  4.79692912e-06  5.95421211e-01  4.79692912e-06  1.80000000e+00  4.79692912e-06  7.45922376e-08  4.79692912e-06  5.00000000e-01                                 
 4.89506399e-06  9.30980171e-01  4.89506399e-06  8.72991226e-01  4.89506399e-06  5.69731941e-01  4.89506399e-06  1.80000000e+00  4.89506399e-06 -7.69026323e-08  4.89506399e-06  5.00000000e-01                                 
 5.02852150e-06  9.25212727e-01  5.02852150e-06  8.68871250e-01  5.02852150e-06  5.37323606e-01  5.02852150e-06  1.80000000e+00  5.02852150e-06  5.77260232e-08  5.02852150e-06  5.00000000e-01                                 
 5.22730355e-06  9.19411334e-01  5.22730355e-06  8.65044770e-01  5.22730355e-06  5.13621533e-01  5.22730355e-06  1.80000000e+00  5.22730355e-06 -6.95362097e-08  5.22730355e-06  5.00000000e-01                                 
 5.48879200e-06  9.01449064e-01  5.48879200e-06  8.51200235e-01  5.48879200e-06  4.94472240e-01  5.48879200e-06  1.80000000e+00  5.48879200e-06  1.20668479e-08  5.48879200e-06  5.00000000e-01                                 
 5.52886106e-06  8.99497952e-01  5.52886106e-06  8.49796070e-01  5.52886106e-06  4.92445573e-01  5.52886106e-06  1.80000000e+00  5.52886106e-06 -2.55194897e-08  5.52886106e-06  5.00000000e-01                                 
 5.60899917e-06  8.93012672e-01  5.60899917e-06  8.44482366e-01  5.60899917e-06  4.86498922e-01  5.60899917e-06  1.80000000e+00  5.60899917e-06 -4.89616389e-08  5.60899917e-06  5.00000000e-01                                 
 5.74967014e-06  8.83164546e-01  5.74967014e-06  8.36037001e-01  5.74967014e-06  4.77611570e-01  5.74967014e-06  1.80000000e+00  5.74967014e-06 -1.68050181e-08  5.74967014e-06  5.00000000e-01                                 
 5.89470039e-06  8.77135363e-01  5.89470039e-06  8.30695476e-01  5.89470039e-06  4.81434595e-01  5.89470039e-06  1.80000000e+00  5.89470039e-06 -1.32746321e-08  5.89470039e-06  5.00000000e-01                                 
 6.11537186e-06  8.74085178e-01  6.11537186e-06  8.27922568e-01  6.11537186e-06  4.95184012e-01  6.11537186e-06  1.80000000e+00  6.11537186e-06  6.09719402e-09  6.11537186e-06  5.00000000e-01                                 
 6.35273312e-06  8.73984974e-01  6.35273312e-06  8.27846236e-01  6.35273312e-06  4.99724164e-01  6.35273312e-06  1.80000000e+00  6.35273312e-06  2.26087938e-09  6.35273312e-06  5.00000000e-01                                 
 6.59808208e-06  8.73830809e-01  6.59808208e-06  8.27691353e-01  6.59808208e-06  4.99637567e-01  6.59808208e-06  1.80000000e+00  6.59808208e-06  7.11082991e-09  6.59808208e-06  5.00000000e-01                                 
 7.00905438e-06  8.73985788e-01  7.00905438e-06  8.27846751e-01  7.00905438e-06  4.99733625e-01  7.00905438e-06  1.80000000e+00  7.00905438e-06  3.20272263e-09  7.00905438e-06  5.00000000e-01                                 
 7.43125002e-06  8.73832754e-01  7.43125002e-06  8.27693290e-01  7.43125002e-06  4.99693444e-01  7.43125002e-06  1.80000000e+00  7.43125002e-06  6.44950795e-09  7.43125002e-06  5.00000000e-01                                 
 8.27564131e-06  8.73983725e-01  8.27564131e-06  8.27844756e-01  8.27564131e-06  5.00014443e-01  8.27564131e-06  1.80000000e+00  8.27564131e-06  3.67492578e-09  8.27564131e-06  5.00000000e-01                                 
 9.27564131e-06  8.73833596e-01  9.27564131e-06  8.27694131e-01  9.27564131e-06  5.00441359e-01  9.27564131e-06  1.80000000e+00  9.27564131e-06  6.16920725e-09  9.27564131e-06  5.00000000e-01                                 
 1.00005000e-05  8.73982546e-01  1.00005000e-05  8.27843601e-01  1.00005000e-05  5.00911999e-01  1.00005000e-05  1.80000000e+00  1.00005000e-05  3.96957334e-09  1.00005000e-05  5.00000000e-01                                 
 1.00005500e-05  8.73979827e-01  1.00005500e-05  8.27840681e-01  1.00005500e-05  4.92982208e-01  1.00005500e-05  1.62000000e+00  1.00005500e-05 -5.79181491e-05  1.00005500e-05  5.00000000e-01                                 
 1.00006500e-05  8.73974265e-01  1.00006500e-05  8.27835039e-01  1.00006500e-05  4.79645805e-01  1.00006500e-05  1.26000000e+00  1.00006500e-05 -3.84161801e-05  1.00006500e-05  5.00000000e-01                                 
 1.00008500e-05  8.73964384e-01  1.00008500e-05  8.27825195e-01  1.00008500e-05  4.79567121e-01  1.00008500e-05  5.40000000e-01  1.00008500e-05  1.04458689e-04  1.00008500e-05  5.00000000e-01                                 
 1.00010000e-05  8.73958021e-01  1.00010000e-05  8.27818818e-01  1.00010000e-05  4.46345950e-01  1.00010000e-05  0.00000000e+00  1.00010000e-05  1.54028571e+00  1.00010000e-05  5.00000000e-01                                 
 1.00010121e-05  8.73957475e-01  1.00010121e-05  8.27818310e-01  1.00010121e-05  4.31473764e-01  1.00010121e-05  0.00000000e+00  1.00010121e-05  1.66038324e+00  1.00010121e-05  5.00000000e-01                                 
