 time            v(vbep)         time            v(vben)         time            v(vout)         time            v(vphi1)        time            v(vphi2)        time            v(vref)         time            v(voutc)        time            v(voutcc)       yes             currtemp       
 0.00000000e+00  6.89921091e-01  0.00000000e+00  6.19713387e-01  0.00000000e+00  1.42815561e+00  0.00000000e+00  0.00000000e+00  0.00000000e+00  1.79999999e+00  0.00000000e+00  6.19319428e-01  0.00000000e+00  1.42815560e+00  0.00000000e+00  1.43620447e+00  1.00000000e+00  8.20000000e+01 
 1.00000000e-11  6.89946289e-01  1.00000000e-11  6.19786531e-01  1.00000000e-11  1.42890222e+00  1.00000000e-11  1.80000000e-02  1.00000000e-11  1.80025198e+00  1.00000000e-11  6.19846614e-01  1.00000000e-11  1.42861966e+00  1.00000000e-11  1.43621824e+00                                 
 2.00000000e-11  6.89953020e-01  2.00000000e-11  6.19831240e-01  2.00000000e-11  1.42934373e+00  2.00000000e-11  3.60000000e-02  2.00000000e-11  1.80034917e+00  2.00000000e-11  6.20234684e-01  2.00000000e-11  1.42896553e+00  2.00000000e-11  1.43622304e+00                                 
 4.00000000e-11  6.89952835e-01  4.00000000e-11  6.19889034e-01  4.00000000e-11  1.42985292e+00  4.00000000e-11  7.20000000e-02  4.00000000e-11  1.80038203e+00  4.00000000e-11  6.20799589e-01  4.00000000e-11  1.42947468e+00  4.00000000e-11  1.43622422e+00                                 
 8.00000000e-11  6.89941153e-01  8.00000000e-11  6.19923745e-01  8.00000000e-11  1.42990234e+00  8.00000000e-11  1.44000000e-01  8.00000000e-11  1.80017570e+00  8.00000000e-11  6.21236226e-01  8.00000000e-11  1.42987373e+00  8.00000000e-11  1.43621400e+00                                 
 1.60000000e-10  6.89938419e-01  1.60000000e-10  6.19931337e-01  1.60000000e-10  1.42956804e+00  1.60000000e-10  2.88000000e-01  1.60000000e-10  1.80000510e+00  1.60000000e-10  6.21333650e-01  1.60000000e-10  1.42991113e+00  1.60000000e-10  1.43620510e+00                                 
 3.20000000e-10  6.89933248e-01  3.20000000e-10  6.19918123e-01  3.20000000e-10  1.42919488e+00  3.20000000e-10  5.76000000e-01  3.20000000e-10  1.79998023e+00  3.20000000e-10  6.21170687e-01  3.20000000e-10  1.42956361e+00  3.20000000e-10  1.43619975e+00                                 
 6.40000000e-10  6.89851811e-01  6.40000000e-10  6.19444822e-01  6.40000000e-10  1.42758751e+00  6.40000000e-10  1.15200000e+00  6.40000000e-10  1.80770923e+00  6.40000000e-10  6.17847605e-01  6.40000000e-10  1.43207239e+00  6.40000000e-10  1.43621957e+00                                 
 1.00000000e-09  6.90369333e-01  1.00000000e-09  6.19947381e-01  1.00000000e-09  1.40964962e+00  1.00000000e-09  1.80000000e+00  1.00000000e-09  1.13104282e-01  1.00000000e-09  6.34920249e-01  1.00000000e-09  1.43971215e+00  1.00000000e-09  1.43624534e+00                                 
 1.03794046e-09  6.90453118e-01  1.03794046e-09  6.19931806e-01  1.03794046e-09  1.40791523e+00  1.03794046e-09  1.80000000e+00  1.03794046e-09  2.75657489e-02  1.03794046e-09  6.37901625e-01  1.03794046e-09  1.44126632e+00  1.03794046e-09  1.43625630e+00                                 
 1.11382137e-09  6.90640537e-01  1.11382137e-09  6.19932721e-01  1.11382137e-09  1.40570094e+00  1.11382137e-09  1.80000000e+00  1.11382137e-09 -1.24651608e-02  1.11382137e-09  6.41484725e-01  1.11382137e-09  1.44400253e+00  1.11382137e-09  1.43626202e+00                                 
 1.26558319e-09  6.90767494e-01  1.26558319e-09  6.19765367e-01  1.26558319e-09  1.40231984e+00  1.26558319e-09  1.80000000e+00  1.26558319e-09  9.62993296e-03  1.26558319e-09  6.40804543e-01  1.26558319e-09  1.44372410e+00  1.26558319e-09  1.43622006e+00                                 
 1.44831124e-09  6.90726063e-01  1.44831124e-09  6.19757545e-01  1.44831124e-09  1.40127141e+00  1.44831124e-09  1.80000000e+00  1.44831124e-09 -7.27968088e-03  1.44831124e-09  6.39483701e-01  1.44831124e-09  1.44236737e+00  1.44831124e-09  1.43626513e+00                                 
 1.65294668e-09  6.90611597e-01  1.65294668e-09  6.19757284e-01  1.65294668e-09  1.40083924e+00  1.65294668e-09  1.80000000e+00  1.65294668e-09  5.88160226e-03  1.65294668e-09  6.37639419e-01  1.65294668e-09  1.44098373e+00  1.65294668e-09  1.43631409e+00                                 
 2.01367982e-09  6.90348538e-01  2.01367982e-09  6.19720435e-01  2.01367982e-09  1.40011244e+00  2.01367982e-09  1.80000000e+00  2.01367982e-09 -5.21634482e-03  2.01367982e-09  6.34538692e-01  2.01367982e-09  1.43816797e+00  2.01367982e-09  1.43646995e+00                                 
 2.60348142e-09  6.90054951e-01  2.60348142e-09  6.19729396e-01  2.60348142e-09  1.39894074e+00  2.60348142e-09  1.80000000e+00  2.60348142e-09  4.79528985e-03  2.60348142e-09  6.30494609e-01  2.60348142e-09  1.43485759e+00  2.60348142e-09  1.43671693e+00                                 
 3.55990332e-09  6.89803477e-01  3.55990332e-09  6.19684505e-01  3.55990332e-09  1.39546679e+00  3.55990332e-09  1.80000000e+00  3.55990332e-09 -4.61385564e-03  3.55990332e-09  6.25222639e-01  3.55990332e-09  1.43021301e+00  3.55990332e-09  1.43704667e+00                                 
 5.05031436e-09  6.89717942e-01  5.05031436e-09  6.19703288e-01  5.05031436e-09  1.38902872e+00  5.05031436e-09  1.80000000e+00  5.05031436e-09  4.45931891e-03  5.05031436e-09  6.20746181e-01  5.05031436e-09  1.42653457e+00  5.05031436e-09  1.43725078e+00                                 
 6.33345508e-09  6.89718642e-01  6.33345508e-09  6.19675735e-01  6.33345508e-09  1.38191121e+00  6.33345508e-09  1.80000000e+00  6.33345508e-09 -4.31757646e-03  6.33345508e-09  6.18601322e-01  6.33345508e-09  1.42457804e+00  6.33345508e-09  1.43719321e+00                                 
 7.54295875e-09  6.89765744e-01  7.54295875e-09  6.19709008e-01  7.54295875e-09  1.37463156e+00  7.54295875e-09  1.80000000e+00  7.54295875e-09  4.16228478e-03  7.54295875e-09  6.17919264e-01  7.54295875e-09  1.42412500e+00  7.54295875e-09  1.43701409e+00                                 
 8.85020455e-09  6.89795536e-01  8.85020455e-09  6.19684602e-01  8.85020455e-09  1.36535735e+00  8.85020455e-09  1.80000000e+00  8.85020455e-09 -4.02422828e-03  8.85020455e-09  6.17262178e-01  8.85020455e-09  1.42343623e+00  8.85020455e-09  1.43676716e+00                                 
 1.06337788e-08  6.89857079e-01  1.06337788e-08  6.19720139e-01  1.06337788e-08  1.35203856e+00  1.06337788e-08  1.80000000e+00  1.06337788e-08  3.93141485e-03  1.06337788e-08  6.17334577e-01  1.06337788e-08  1.42360757e+00  1.06337788e-08  1.43639589e+00                                 
 1.27979560e-08  6.89885992e-01  1.27979560e-08  6.19694593e-01  1.27979560e-08  1.33423878e+00  1.27979560e-08  1.80000000e+00  1.27979560e-08 -3.84699925e-03  1.27979560e-08  6.17203612e-01  1.27979560e-08  1.42336035e+00  1.27979560e-08  1.43596096e+00                                 
 1.57506523e-08  6.89927203e-01  1.57506523e-08  6.19727492e-01  1.57506523e-08  1.30939365e+00  1.57506523e-08  1.80000000e+00  1.57506523e-08  3.79851108e-03  1.57506523e-08  6.17710626e-01  1.57506523e-08  1.42388660e+00  1.57506523e-08  1.43543157e+00                                 
 1.96659115e-08  6.89927362e-01  1.96659115e-08  6.19698780e-01  1.96659115e-08  1.27512930e+00  1.96659115e-08  1.80000000e+00  1.96659115e-08 -3.74839490e-03  1.96659115e-08  6.17837570e-01  1.96659115e-08  1.42385542e+00  1.96659115e-08  1.43486371e+00                                 
 2.60446441e-08  6.89939594e-01  2.60446441e-08  6.19729394e-01  2.60446441e-08  1.21941887e+00  2.60446441e-08  1.80000000e+00  2.60446441e-08  3.73156048e-03  2.60446441e-08  6.18526372e-01  2.60446441e-08  1.42453153e+00  2.60446441e-08  1.43420064e+00                                 
 3.63817612e-08  6.89921134e-01  3.63817612e-08  6.19699050e-01  3.63817612e-08  1.12885511e+00  3.63817612e-08  1.80000000e+00  3.63817612e-08 -3.70731457e-03  3.63817612e-08  6.18735811e-01  3.63817612e-08  1.42457700e+00  3.63817612e-08  1.43359093e+00                                 
 5.18235212e-08  6.89928380e-01  5.18235212e-08  6.19728738e-01  5.18235212e-08  9.95660310e-01  5.18235212e-08  1.80000000e+00  5.18235212e-08  3.70611187e-03  5.18235212e-08  6.19276395e-01  5.18235212e-08  1.42514375e+00  5.18235212e-08  1.43323257e+00                                 
 8.27070410e-08  6.89914850e-01  8.27070410e-08  6.19698185e-01  8.27070410e-08  7.44931348e-01  8.27070410e-08  1.80000000e+00  8.27070410e-08 -3.68881391e-03  8.27070410e-08  6.19190280e-01  8.27070410e-08  1.42495659e+00  8.27070410e-08  1.43312186e+00                                 
 1.09735306e-07  6.89932190e-01  1.09735306e-07  6.19729023e-01  1.09735306e-07  6.29569062e-01  1.09735306e-07  1.80000000e+00  1.09735306e-07  3.70571748e-03  1.09735306e-07  6.19449467e-01  1.09735306e-07  1.42529133e+00  1.09735306e-07  1.43316183e+00                                 
 1.36636704e-07  6.89906884e-01  1.36636704e-07  6.19697614e-01  1.36636704e-07  6.19241647e-01  1.36636704e-07  1.80000000e+00  1.36636704e-07 -3.67116579e-03  1.36636704e-07  6.19199317e-01  1.36636704e-07  1.42496453e+00  1.36636704e-07  1.43317643e+00                                 
 1.51029687e-07  6.89932298e-01  1.51029687e-07  6.19729008e-01  1.51029687e-07  6.19232770e-01  1.51029687e-07  1.80000000e+00  1.51029687e-07  3.68986458e-03  1.51029687e-07  6.19442295e-01  1.51029687e-07  1.42528401e+00  1.51029687e-07  1.43317628e+00                                 
 1.70353024e-07  6.89910904e-01  1.70353024e-07  6.19697740e-01  1.70353024e-07  6.18843708e-01  1.70353024e-07  1.80000000e+00  1.70353024e-07 -3.65262603e-03  1.70353024e-07  6.19197186e-01  1.70353024e-07  1.42496189e+00  1.70353024e-07  1.43317624e+00                                 
 2.08999699e-07  6.89930750e-01  2.08999699e-07  6.19729018e-01  2.08999699e-07  6.19004925e-01  2.08999699e-07  1.80000000e+00  2.08999699e-07  3.67795710e-03  2.08999699e-07  6.19441798e-01  2.08999699e-07  1.42528156e+00  2.08999699e-07  1.43317426e+00                                 
 2.86293047e-07  6.89911661e-01  2.86293047e-07  6.19697746e-01  2.86293047e-07  6.18792911e-01  2.86293047e-07  1.80000000e+00  2.86293047e-07 -3.64670047e-03  2.86293047e-07  6.19196997e-01  2.86293047e-07  1.42495818e+00  2.86293047e-07  1.43317220e+00                                 
 4.40879744e-07  6.89930412e-01  4.40879744e-07  6.19729017e-01  4.40879744e-07  6.19001922e-01  4.40879744e-07  1.80000000e+00  4.40879744e-07  3.67498222e-03  4.40879744e-07  6.19441824e-01  4.40879744e-07  1.42527428e+00  4.40879744e-07  1.43316694e+00                                 
 7.50053137e-07  6.89911823e-01  7.50053137e-07  6.19697747e-01  7.50053137e-07  6.18792605e-01  7.50053137e-07  1.80000000e+00  7.50053137e-07 -3.64522398e-03  7.50053137e-07  6.19196988e-01  7.50053137e-07  1.42494367e+00  7.50053137e-07  1.43315772e+00                                 
 1.36839992e-06  6.89930333e-01  1.36839992e-06  6.19729017e-01  1.36839992e-06  6.19001427e-01  1.36839992e-06  1.80000000e+00  1.36839992e-06  3.67423884e-03  1.36839992e-06  6.19441828e-01  1.36839992e-06  1.42524522e+00  1.36839992e-06  1.43313792e+00                                 
 2.56839992e-06  6.89911863e-01  2.56839992e-06  6.19697747e-01  2.56839992e-06  6.18792800e-01  2.56839992e-06  1.80000000e+00  2.56839992e-06 -3.64485264e-03  2.56839992e-06  6.19196986e-01  2.56839992e-06  1.42488674e+00  2.56839992e-06  1.43310085e+00                                 
 3.76839992e-06  6.89930306e-01  3.76839992e-06  6.19729016e-01  3.76839992e-06  6.19002105e-01  3.76839992e-06  1.80000000e+00  3.76839992e-06  3.67398385e-03  3.76839992e-06  6.19441829e-01  3.76839992e-06  1.42517011e+00  3.76839992e-06  1.43306290e+00                                 
 4.96839992e-06  6.89911889e-01  4.96839992e-06  6.19697747e-01  4.96839992e-06  6.18793387e-01  4.96839992e-06  1.80000000e+00  4.96839992e-06 -3.64461270e-03  4.96839992e-06  6.19196985e-01  4.96839992e-06  1.42481164e+00  4.96839992e-06  1.43302584e+00                                 
 6.00100000e-06  6.89930277e-01  6.00100000e-06  6.19729016e-01  6.00100000e-06  6.19001835e-01  6.00100000e-06  1.80000000e+00  6.00100000e-06  3.67370783e-03  6.00100000e-06  6.19441831e-01  6.00100000e-06  1.42510020e+00  6.00100000e-06  1.43299307e+00                                 
 6.00110000e-06  6.89874154e-01  6.00110000e-06  6.19476324e-01  6.00110000e-06  6.17197187e-01  6.00110000e-06  1.62000000e+00  6.00110000e-06  2.52599913e-04  6.00110000e-06  6.17804803e-01  6.00110000e-06  1.42365007e+00  6.00110000e-06  1.43298270e+00                                 
 6.00130000e-06  6.89907252e-01  6.00130000e-06  6.19468132e-01  6.00130000e-06  6.17168447e-01  6.00130000e-06  1.26000000e+00  6.00130000e-06 -2.75836206e-04  6.00130000e-06  6.17466727e-01  6.00130000e-06  1.42335457e+00  6.00130000e-06  1.43299782e+00                                 
 6.00164981e-06  6.89976017e-01  6.00164981e-06  6.19661007e-01  6.00164981e-06  6.19152877e-01  6.00164981e-06  6.30342833e-01  6.00164981e-06  2.05071430e-02  6.00164981e-06  6.17617875e-01  6.00164981e-06  1.41998940e+00  6.00164981e-06  1.43297305e+00                                 
 6.00200000e-06  6.89904724e-01  6.00200000e-06  6.18372464e-01  6.00200000e-06  6.51869113e-01  6.00200000e-06  0.00000000e+00  6.00200000e-06  1.61163960e+00  6.00200000e-06  6.04189408e-01  6.00200000e-06  1.21334004e+00  6.00200000e-06  1.43239770e+00                                 
 6.00204673e-06  6.89921703e-01  6.00204673e-06  6.17729126e-01  6.00204673e-06  6.59736285e-01  6.00204673e-06  0.00000000e+00  6.00204673e-06  1.73221618e+00  6.00204673e-06  5.96899267e-01  6.00204673e-06  1.13783857e+00  6.00204673e-06  1.43240554e+00                                 
 6.00214019e-06  6.89924860e-01  6.00214019e-06  6.16767922e-01  6.00214019e-06  6.64830466e-01  6.00214019e-06  0.00000000e+00  6.00214019e-06  1.81520361e+00  6.00214019e-06  5.86142689e-01  6.00214019e-06  9.87642566e-01  6.00214019e-06  1.43285397e+00                                 
 6.00232712e-06  6.89920257e-01  6.00232712e-06  6.17048096e-01  6.00232712e-06  6.51201484e-01  6.00232712e-06  0.00000000e+00  6.00232712e-06  1.78760504e+00  6.00232712e-06  5.89684502e-01  6.00232712e-06  7.73822143e-01  6.00232712e-06  1.43332035e+00                                 
 6.00251329e-06  6.89922641e-01  6.00251329e-06  6.18243887e-01  6.00251329e-06  6.36295715e-01  6.00251329e-06  0.00000000e+00  6.00251329e-06  1.80590923e+00  6.00251329e-06  6.02530419e-01  6.00251329e-06  6.78292240e-01  6.00251329e-06  1.43337446e+00                                 
 6.00267484e-06  6.89919794e-01  6.00267484e-06  6.19014256e-01  6.00267484e-06  6.27265001e-01  6.00267484e-06  0.00000000e+00  6.00267484e-06  1.79662086e+00  6.00267484e-06  6.09858799e-01  6.00267484e-06  6.43773284e-01  6.00267484e-06  1.43332908e+00                                 
 6.00288535e-06  6.89922229e-01  6.00288535e-06  6.19705669e-01  6.00288535e-06  6.22335292e-01  6.00288535e-06  0.00000000e+00  6.00288535e-06  1.80220069e+00  6.00288535e-06  6.16245029e-01  6.00288535e-06  6.27983844e-01  6.00288535e-06  1.43253702e+00                                 
 6.00309312e-06  6.89920068e-01  6.00309312e-06  6.19956809e-01  6.00309312e-06  6.20465396e-01  6.00309312e-06  0.00000000e+00  6.00309312e-06  1.79870375e+00  6.00309312e-06  6.18122953e-01  6.00309312e-06  6.22207325e-01  6.00309312e-06  1.43154821e+00                                 
 6.00339975e-06  6.89922176e-01  6.00339975e-06  6.20152751e-01  6.00339975e-06  6.20158294e-01  6.00339975e-06  0.00000000e+00  6.00339975e-06  1.80100218e+00  6.00339975e-06  6.19924289e-01  6.00339975e-06  6.20584214e-01  6.00339975e-06  1.42964104e+00                                 
 6.00381737e-06  6.89920331e-01  6.00381737e-06  6.20152478e-01  6.00381737e-06  6.20850920e-01  6.00381737e-06  0.00000000e+00  6.00381737e-06  1.79923411e+00  6.00381737e-06  6.20063865e-01  6.00381737e-06  6.20528859e-01  6.00381737e-06  1.42687163e+00                                 
 6.00454784e-06  6.89922141e-01  6.00454784e-06  6.20136822e-01  6.00454784e-06  6.22890662e-01  6.00454784e-06  0.00000000e+00  6.00454784e-06  1.80069938e+00  6.00454784e-06  6.20600583e-01  6.00454784e-06  6.22749330e-01  6.00454784e-06  1.42155345e+00                                 
 6.00571115e-06  6.89920304e-01  6.00571115e-06  6.20029699e-01  6.00571115e-06  6.26317295e-01  6.00571115e-06  0.00000000e+00  6.00571115e-06  1.79938589e+00  6.00571115e-06  6.20376497e-01  6.00571115e-06  6.25891584e-01  6.00571115e-06  1.41270377e+00                                 
 6.00803776e-06  6.89921951e-01  6.00803776e-06  6.19903860e-01  6.00803776e-06  6.33399486e-01  6.00803776e-06  0.00000000e+00  6.00803776e-06  1.80061959e+00  6.00803776e-06  6.20594157e-01  6.00803776e-06  6.33206040e-01  6.00803776e-06  1.39399184e+00                                 
 6.01269099e-06  6.89920218e-01  6.01269099e-06  6.19715957e-01  6.01269099e-06  6.47221642e-01  6.01269099e-06  0.00000000e+00  6.01269099e-06  1.79941739e+00  6.01269099e-06  6.20063292e-01  6.01269099e-06  6.46751699e-01  6.01269099e-06  1.35535622e+00                                 
 6.02048356e-06  6.89921941e-01  6.02048356e-06  6.19703780e-01  6.02048356e-06  6.69733264e-01  6.02048356e-06  0.00000000e+00  6.02048356e-06  1.80059950e+00  6.02048356e-06  6.20002039e-01  6.02048356e-06  6.69503740e-01  6.02048356e-06  1.28924185e+00                                 
 6.03402914e-06  6.89920234e-01  6.03402914e-06  6.19696500e-01  6.03402914e-06  7.06829109e-01  6.03402914e-06  0.00000000e+00  6.03402914e-06  1.79942757e+00  6.03402914e-06  6.19389061e-01  6.03402914e-06  7.06286889e-01  6.03402914e-06  1.17446936e+00                                 
 6.04835510e-06  6.89921944e-01  6.04835510e-06  6.19721112e-01  6.04835510e-06  7.43498230e-01  6.04835510e-06  0.00000000e+00  6.04835510e-06  1.80059009e+00  6.04835510e-06  6.19529272e-01  6.04835510e-06  7.43248655e-01  6.04835510e-06  1.06422516e+00                                 
 6.06964960e-06  6.89920240e-01  6.06964960e-06  6.19702154e-01  6.06964960e-06  7.93300890e-01  6.06964960e-06  0.00000000e+00  6.06964960e-06  1.79943186e+00  6.06964960e-06  6.19185352e-01  6.06964960e-06  7.92563726e-01  6.06964960e-06  9.28557653e-01                                 
 6.10227736e-06  6.89921942e-01  6.10227736e-06  6.19724327e-01  6.10227736e-06  8.59818923e-01  6.10227736e-06  0.00000000e+00  6.10227736e-06  1.80058298e+00  6.10227736e-06  6.19447866e-01  6.10227736e-06  8.59581681e-01  6.10227736e-06  8.48845484e-01                                 
 6.12898444e-06  6.89920241e-01  6.12898444e-06  6.19702331e-01  6.12898444e-06  9.06125399e-01  6.12898444e-06  0.00000000e+00  6.12898444e-06  1.79943244e+00  6.12898444e-06  6.19170835e-01  6.12898444e-06  9.05121020e-01  6.12898444e-06  8.81751584e-01                                 
 6.14588171e-06  6.89921940e-01  6.14588171e-06  6.19724733e-01  6.14588171e-06  9.32076375e-01  6.14588171e-06  0.00000000e+00  6.14588171e-06  1.80057887e+00  6.14588171e-06  6.19451890e-01  6.14588171e-06  9.31897220e-01  6.14588171e-06  9.08286197e-01                                 
 6.16357069e-06  6.89920244e-01  6.16357069e-06  6.19701846e-01  6.16357069e-06  9.56683771e-01  6.16357069e-06  0.00000000e+00  6.16357069e-06  1.79943699e+00  6.16357069e-06  6.19169200e-01  6.16357069e-06  9.55564717e-01  6.16357069e-06  9.34172808e-01                                 
 6.19894865e-06  6.89921938e-01  6.19894865e-06  6.19725080e-01  6.19894865e-06  9.99096048e-01  6.19894865e-06  0.00000000e+00  6.19894865e-06  1.80056996e+00  6.19894865e-06  6.19456247e-01  6.19894865e-06  9.98965727e-01  6.19894865e-06  9.80244296e-01                                 
