 time            v(vbep)         time            v(vben)         time            v(vout)         time            v(vphi1)        time            v(vphi2)        time            v(vref)         time            v(voutc)        time            v(voutcc)       yes             currtemp       
 0.00000000e+00  7.49511168e-01  0.00000000e+00  6.87794797e-01  0.00000000e+00  1.55460936e+00  0.00000000e+00  0.00000000e+00  0.00000000e+00  1.80000000e+00  0.00000000e+00  6.89607942e-01  0.00000000e+00  1.55460935e+00  0.00000000e+00  1.56144647e+00  1.00000000e+00  4.30000000e+01 
 1.00000000e-11  7.49536272e-01  1.00000000e-11  6.87866258e-01  1.00000000e-11  1.55538745e+00  1.00000000e-11  1.80000000e-02  1.00000000e-11  1.80025206e+00  1.00000000e-11  6.90140440e-01  1.00000000e-11  1.55508030e+00  1.00000000e-11  1.56146043e+00                                 
 2.00000000e-11  7.49543145e-01  2.00000000e-11  6.87910945e-01  2.00000000e-11  1.55586374e+00  2.00000000e-11  3.60000000e-02  2.00000000e-11  1.80035183e+00  2.00000000e-11  6.90535509e-01  2.00000000e-11  1.55543624e+00  2.00000000e-11  1.56146562e+00                                 
 4.00000000e-11  7.49543130e-01  4.00000000e-11  6.87969772e-01  4.00000000e-11  1.55643514e+00  4.00000000e-11  7.20000000e-02  4.00000000e-11  1.80038986e+00  4.00000000e-11  6.91113181e-01  4.00000000e-11  1.55596653e+00  4.00000000e-11  1.56146732e+00                                 
 8.00000000e-11  7.49531364e-01  8.00000000e-11  6.88007550e-01  8.00000000e-11  1.55654769e+00  8.00000000e-11  1.44000000e-01  8.00000000e-11  1.80018579e+00  8.00000000e-11  6.91560788e-01  8.00000000e-11  1.55639804e+00  8.00000000e-11  1.56145672e+00                                 
 1.60000000e-10  7.49528539e-01  1.60000000e-10  6.88018236e-01  1.60000000e-10  1.55621296e+00  1.60000000e-10  2.88000000e-01  1.60000000e-10  1.80000448e+00  1.60000000e-10  6.91636813e-01  1.60000000e-10  1.55644863e+00  1.60000000e-10  1.56144720e+00                                 
 3.20000000e-10  7.49524532e-01  3.20000000e-10  6.88015135e-01  3.20000000e-10  1.55584015e+00  3.20000000e-10  5.76000000e-01  3.20000000e-10  1.79998852e+00  3.20000000e-10  6.91492330e-01  3.20000000e-10  1.55614128e+00  3.20000000e-10  1.56144285e+00                                 
 6.40000000e-10  7.49441372e-01  6.40000000e-10  6.87631032e-01  6.40000000e-10  1.55373414e+00  6.40000000e-10  1.15200000e+00  6.40000000e-10  1.81130759e+00  6.40000000e-10  6.89210154e-01  6.40000000e-10  1.56074372e+00  6.40000000e-10  1.56147093e+00                                 
 1.00000000e-09  7.50067296e-01  1.00000000e-09  6.87907371e-01  1.00000000e-09  1.52969521e+00  1.00000000e-09  1.80000000e+00  1.00000000e-09  9.46441848e-02  1.00000000e-09  7.01081186e-01  1.00000000e-09  1.56167799e+00  1.00000000e-09  1.56143887e+00                                 
 1.03658841e-09  7.50113496e-01  1.03658841e-09  6.87940205e-01  1.03658841e-09  1.52862709e+00  1.03658841e-09  1.80000000e+00  1.03658841e-09  2.13533574e-02  1.03658841e-09  7.04086246e-01  1.03658841e-09  1.56332872e+00  1.03658841e-09  1.56147488e+00                                 
 1.10976524e-09  7.50233338e-01  1.10976524e-09  6.88005182e-01  1.10976524e-09  1.52759429e+00  1.10976524e-09  1.80000000e+00  1.10976524e-09 -1.02018576e-02  1.10976524e-09  7.07974428e-01  1.10976524e-09  1.56635572e+00  1.10976524e-09  1.56149974e+00                                 
 1.25611889e-09  7.50346294e-01  1.25611889e-09  6.87874982e-01  1.25611889e-09  1.52537856e+00  1.25611889e-09  1.80000000e+00  1.25611889e-09  8.45044051e-03  1.25611889e-09  7.08210479e-01  1.25611889e-09  1.56681737e+00  1.25611889e-09  1.56145260e+00                                 
 1.46068485e-09  7.50328233e-01  1.46068485e-09  6.87851413e-01  1.46068485e-09  1.52464145e+00  1.46068485e-09  1.80000000e+00  1.46068485e-09 -6.53476591e-03  1.46068485e-09  7.07600395e-01  1.46068485e-09  1.56608925e+00  1.46068485e-09  1.56148542e+00                                 
 1.68401200e-09  7.50237246e-01  1.68401200e-09  6.87846779e-01  1.68401200e-09  1.52445472e+00  1.68401200e-09  1.80000000e+00  1.68401200e-09  5.59593183e-03  1.68401200e-09  7.06254153e-01  1.68401200e-09  1.56512237e+00  1.68401200e-09  1.56149668e+00                                 
 2.05824746e-09  7.49987858e-01  2.05824746e-09  6.87800275e-01  2.05824746e-09  1.52444401e+00  2.05824746e-09  1.80000000e+00  2.05824746e-09 -5.05737700e-03  2.05824746e-09  7.03991998e-01  2.05824746e-09  1.56303288e+00  2.05824746e-09  1.56158853e+00                                 
 2.48075800e-09  7.49772508e-01  2.48075800e-09  6.87804621e-01  2.48075800e-09  1.52467302e+00  2.48075800e-09  1.80000000e+00  2.48075800e-09  4.52679215e-03  2.48075800e-09  7.01850777e-01  2.48075800e-09  1.56134793e+00  2.48075800e-09  1.56168180e+00                                 
 3.13921287e-09  7.49546932e-01  3.13921287e-09  6.87760533e-01  3.13921287e-09  1.52401749e+00  3.13921287e-09  1.80000000e+00  3.13921287e-09 -4.35731994e-03  3.13921287e-09  6.98522594e-01  3.13921287e-09  1.55837074e+00  3.13921287e-09  1.56184493e+00                                 
 4.10843214e-09  7.49415894e-01  4.10843214e-09  6.87777995e-01  4.10843214e-09  1.52310982e+00  4.10843214e-09  1.80000000e+00  4.10843214e-09  4.10752676e-03  4.10843214e-09  6.95072310e-01  4.10843214e-09  1.55555477e+00  4.10843214e-09  1.56201331e+00                                 
 6.04687067e-09  7.49312527e-01  6.04687067e-09  6.87757073e-01  6.04687067e-09  1.52029149e+00  6.04687067e-09  1.80000000e+00  6.04687067e-09 -4.07438844e-03  6.04687067e-09  6.90384692e-01  6.04687067e-09  1.55143607e+00  6.04687067e-09  1.56213158e+00                                 
 7.67068301e-09  7.49333843e-01  7.67068301e-09  6.87793907e-01  7.67068301e-09  1.51725317e+00  7.67068301e-09  1.80000000e+00  7.67068301e-09  3.95789673e-03  7.67068301e-09  6.88865642e-01  7.67068301e-09  1.55026672e+00  7.67068301e-09  1.56201779e+00                                 
 9.12060090e-09  7.49356250e-01  9.12060090e-09  6.87771858e-01  9.12060090e-09  1.51283686e+00  9.12060090e-09  1.80000000e+00  9.12060090e-09 -3.86656485e-03  9.12060090e-09  6.87920669e-01  9.12060090e-09  1.54934079e+00  9.12060090e-09  1.56183251e+00                                 
 1.07155945e-08  7.49406662e-01  1.07155945e-08  6.87803171e-01  1.07155945e-08  1.50726759e+00  1.07155945e-08  1.80000000e+00  1.07155945e-08  3.76959391e-03  1.07155945e-08  6.87804263e-01  1.07155945e-08  1.54935392e+00  1.07155945e-08  1.56157604e+00                                 
 1.28846419e-08  7.49445421e-01  1.28846419e-08  6.87778455e-01  1.28846419e-08  1.49760200e+00  1.28846419e-08  1.80000000e+00  1.28846419e-08 -3.70657441e-03  1.28846419e-08  6.87499393e-01  1.28846419e-08  1.54896810e+00  1.28846419e-08  1.56121633e+00                                 
 1.55599884e-08  7.49494039e-01  1.55599884e-08  6.87807724e-01  1.55599884e-08  1.48469425e+00  1.55599884e-08  1.80000000e+00  1.55599884e-08  3.65445265e-03  1.55599884e-08  6.87877351e-01  1.55599884e-08  1.54938680e+00  1.55599884e-08  1.56078325e+00                                 
 1.91414970e-08  7.49510014e-01  1.91414970e-08  6.87781189e-01  1.91414970e-08  1.46551043e+00  1.91414970e-08  1.80000000e+00  1.91414970e-08 -3.61486286e-03  1.91414970e-08  6.87951032e-01  1.91414970e-08  1.54931582e+00  1.91414970e-08  1.56027439e+00                                 
 2.39637599e-08  7.49527605e-01  2.39637599e-08  6.87809124e-01  2.39637599e-08  1.43930158e+00  2.39637599e-08  1.80000000e+00  2.39637599e-08  3.58822872e-03  2.39637599e-08  6.88558416e-01  2.39637599e-08  1.54992059e+00  2.39637599e-08  1.55970679e+00                                 
 3.16825032e-08  7.49516662e-01  3.16825032e-08  6.87781566e-01  3.16825032e-08  1.39616578e+00  3.16825032e-08  1.80000000e+00  3.16825032e-08 -3.56908996e-03  3.16825032e-08  6.88763581e-01  3.16825032e-08  1.54995933e+00  3.16825032e-08  1.55904115e+00                                 
 4.51551888e-08  7.49519950e-01  4.51551888e-08  6.87808794e-01  4.51551888e-08  1.32139720e+00  4.51551888e-08  1.80000000e+00  4.51551888e-08  3.56054765e-03  4.51551888e-08  6.89413898e-01  4.51551888e-08  1.55060119e+00  4.51551888e-08  1.55833364e+00                                 
 7.01733477e-08  7.49507513e-01  7.01733477e-08  6.87781052e-01  7.01733477e-08  1.18249391e+00  7.01733477e-08  1.80000000e+00  7.01733477e-08 -3.55370643e-03  7.01733477e-08  6.89447724e-01  7.01733477e-08  1.55050734e+00  7.01733477e-08  1.55778171e+00                                 
 1.06023682e-07  7.49515532e-01  1.06023682e-07  6.87808543e-01  1.06023682e-07  9.86500914e-01  1.06023682e-07  1.80000000e+00  1.06023682e-07  3.55199757e-03  1.06023682e-07  6.89724766e-01  1.06023682e-07  1.55084983e+00  1.06023682e-07  1.55758569e+00                                 
 1.56390559e-07  7.49506797e-01  1.56390559e-07  6.87781007e-01  1.56390559e-07  7.60952091e-01  1.56390559e-07  1.80000000e+00  1.56390559e-07 -3.54405646e-03  1.56390559e-07  6.89488768e-01  1.56390559e-07  1.55053603e+00  1.56390559e-07  1.55754136e+00                                 
 2.02020717e-07  7.49517270e-01  2.02020717e-07  6.87808717e-01  2.02020717e-07  6.85623716e-01  2.02020717e-07  1.80000000e+00  2.02020717e-07  3.55228166e-03  2.02020717e-07  6.89729710e-01  2.02020717e-07  1.55084918e+00  2.02020717e-07  1.55753488e+00                                 
 2.44883304e-07  7.49502820e-01  2.44883304e-07  6.87780764e-01  2.44883304e-07  6.92297972e-01  2.44883304e-07  1.80000000e+00  2.44883304e-07 -3.53597190e-03  2.44883304e-07  6.89489853e-01  2.44883304e-07  1.55053377e+00  2.44883304e-07  1.55753540e+00                                 
 2.66698886e-07  7.49519839e-01  2.66698886e-07  6.87808814e-01  2.66698886e-07  6.91723599e-01  2.66698886e-07  1.80000000e+00  2.66698886e-07  3.54321371e-03  2.66698886e-07  6.89724926e-01  2.66698886e-07  1.55084271e+00  2.66698886e-07  1.55753171e+00                                 
 2.95929177e-07  7.49502996e-01  2.95929177e-07  6.87780795e-01  2.95929177e-07  6.91337597e-01  2.95929177e-07  1.80000000e+00  2.95929177e-07 -3.52572756e-03  2.95929177e-07  6.89490627e-01  2.95929177e-07  1.55053274e+00  2.95929177e-07  1.55753196e+00                                 
 3.41599303e-07  7.49519055e-01  3.41599303e-07  6.87808782e-01  3.41599303e-07  6.91594904e-01  3.41599303e-07  1.80000000e+00  3.41599303e-07  3.53600968e-03  3.41599303e-07  6.89725279e-01  3.41599303e-07  1.55084028e+00  3.41599303e-07  1.55752857e+00                                 
 4.02414163e-07  7.49503496e-01  4.02414163e-07  6.87780807e-01  4.02414163e-07  6.91320282e-01  4.02414163e-07  1.80000000e+00  4.02414163e-07 -3.52083624e-03  4.02414163e-07  6.89490520e-01  4.02414163e-07  1.55052901e+00  4.02414163e-07  1.55752808e+00                                 
 5.24043884e-07  7.49518735e-01  5.24043884e-07  6.87808776e-01  5.24043884e-07  6.91600818e-01  5.24043884e-07  1.80000000e+00  5.24043884e-07  3.53284049e-03  5.24043884e-07  6.89725338e-01  5.24043884e-07  1.55083392e+00  5.24043884e-07  1.55752221e+00                                 
 7.17580677e-07  7.49503668e-01  7.17580677e-07  6.87780810e-01  7.17580677e-07  6.91317778e-01  7.17580677e-07  1.80000000e+00  7.17580677e-07 -3.51912364e-03  7.17580677e-07  6.89490491e-01  7.17580677e-07  1.55051804e+00  7.17580677e-07  1.55751712e+00                                 
 1.07386155e-06  7.49518633e-01  1.07386155e-06  6.87808774e-01  1.07386155e-06  6.91601950e-01  1.07386155e-06  1.80000000e+00  1.07386155e-06  3.53181677e-03  1.07386155e-06  6.89725355e-01  1.07386155e-06  1.55081478e+00  1.07386155e-06  1.55750310e+00                                 
 1.72794490e-06  7.49503723e-01  1.72794490e-06  6.87780811e-01  1.72794490e-06  6.91317167e-01  1.72794490e-06  1.80000000e+00  1.72794490e-06 -3.51856444e-03  1.72794490e-06  6.89490482e-01  1.72794490e-06  1.55048284e+00  1.72794490e-06  1.55748197e+00                                 
 2.88377952e-06  7.49518603e-01  2.88377952e-06  6.87808774e-01  2.88377952e-06  6.91602234e-01  2.88377952e-06  1.80000000e+00  2.88377952e-06  3.53150947e-03  2.88377952e-06  6.89725360e-01  2.88377952e-06  1.55075167e+00  2.88377952e-06  1.55744008e+00                                 
 4.08377952e-06  7.49503744e-01  4.08377952e-06  6.87780811e-01  4.08377952e-06  6.91316949e-01  4.08377952e-06  1.80000000e+00  4.08377952e-06 -3.51836283e-03  4.08377952e-06  6.89490479e-01  4.08377952e-06  1.55040068e+00  4.08377952e-06  1.55739992e+00                                 
 5.28377952e-06  7.49518582e-01  5.28377952e-06  6.87808774e-01  5.28377952e-06  6.91602418e-01  5.28377952e-06  1.80000000e+00  5.28377952e-06  3.53129621e-03  5.28377952e-06  6.89725363e-01  5.28377952e-06  1.55066799e+00  5.28377952e-06  1.55735651e+00                                 
 6.00100000e-06  7.49503772e-01  6.00100000e-06  6.87780812e-01  6.00100000e-06  6.91316683e-01  6.00100000e-06  1.80000000e+00  6.00100000e-06 -3.51808198e-03  6.00100000e-06  6.89490475e-01  6.00100000e-06  1.55033386e+00  6.00100000e-06  1.55733318e+00                                 
 6.00110000e-06  7.49463157e-01  6.00110000e-06  6.87554712e-01  6.00110000e-06  6.89595682e-01  6.00110000e-06  1.62000000e+00  6.00110000e-06 -3.89276078e-04  6.00110000e-06  6.88008283e-01  6.00110000e-06  1.54911838e+00  6.00110000e-06  1.55732250e+00                                 
 6.00130000e-06  7.49497019e-01  6.00130000e-06  6.87559582e-01  6.00130000e-06  6.89831949e-01  6.00130000e-06  1.26000000e+00  6.00130000e-06  2.57143070e-04  6.00130000e-06  6.87874766e-01  6.00130000e-06  1.54901457e+00  6.00130000e-06  1.55733690e+00                                 
 6.00165802e-06  7.49553495e-01  6.00165802e-06  6.87778545e-01  6.00165802e-06  6.91922448e-01  6.00165802e-06  6.15572751e-01  6.00165802e-06 -2.02647204e-03  6.00165802e-06  6.88580691e-01  6.00165802e-06  1.54691725e+00  6.00165802e-06  1.55731909e+00                                 
 6.00200000e-06  7.49500400e-01  6.00200000e-06  6.86142276e-01  6.00200000e-06  7.24130963e-01  6.00200000e-06  0.00000000e+00  6.00200000e-06  1.59582517e+00  6.00200000e-06  6.71093655e-01  6.00200000e-06  1.35926819e+00  6.00200000e-06  1.55672207e+00                                 
 6.00204092e-06  7.49514177e-01  6.00204092e-06  6.85794745e-01  6.00204092e-06  7.30125070e-01  6.00204092e-06  0.00000000e+00  6.00204092e-06  1.72029346e+00  6.00204092e-06  6.67217167e-01  6.00204092e-06  1.30149280e+00  6.00204092e-06  1.55674124e+00                                 
 6.00212277e-06  7.49512832e-01  6.00212277e-06  6.85115144e-01  6.00212277e-06  7.34289697e-01  6.00212277e-06  0.00000000e+00  6.00212277e-06  1.81365243e+00  6.00212277e-06  6.59918062e-01  6.00212277e-06  1.18081338e+00  6.00212277e-06  1.55709383e+00                                 
 6.00226772e-06  7.49508810e-01  6.00226772e-06  6.84997037e-01  6.00226772e-06  7.25374052e-01  6.00226772e-06  0.00000000e+00  6.00226772e-06  1.79009876e+00  6.00226772e-06  6.59564029e-01  6.00226772e-06  1.00752742e+00  6.00226772e-06  1.55755662e+00                                 
 6.00241468e-06  7.49511444e-01  6.00241468e-06  6.85354187e-01  6.00241468e-06  7.20723940e-01  6.00241468e-06  0.00000000e+00  6.00241468e-06  1.80331219e+00  6.00241468e-06  6.63898426e-01  6.00241468e-06  8.87125551e-01  6.00241468e-06  1.55753038e+00                                 
 6.00260459e-06  7.49507731e-01  6.00260459e-06  6.86012712e-01  6.00260459e-06  7.11300334e-01  6.00260459e-06  0.00000000e+00  6.00260459e-06  1.79678292e+00  6.00260459e-06  6.70471775e-01  6.00260459e-06  7.80459429e-01  6.00260459e-06  1.55770600e+00                                 
 6.00282580e-06  7.49511200e-01  6.00282580e-06  6.87069870e-01  6.00282580e-06  7.00125419e-01  6.00282580e-06  0.00000000e+00  6.00282580e-06  1.80151859e+00  6.00282580e-06  6.80769867e-01  6.00282580e-06  7.23998272e-01  6.00282580e-06  1.55767299e+00                                 
 6.00303492e-06  7.49508199e-01  6.00303492e-06  6.87632231e-01  6.00303492e-06  6.95698892e-01  6.00303492e-06  0.00000000e+00  6.00303492e-06  1.79905435e+00  6.00303492e-06  6.85202737e-01  6.00303492e-06  7.03458763e-01  6.00303492e-06  1.55748954e+00                                 
 6.00332676e-06  7.49511450e-01  6.00332676e-06  6.88126014e-01  6.00332676e-06  6.92488555e-01  6.00332676e-06  0.00000000e+00  6.00332676e-06  1.80071405e+00  6.00332676e-06  6.89072744e-01  6.00332676e-06  6.95082227e-01  6.00332676e-06  1.55676935e+00                                 
 6.00360463e-06  7.49509032e-01  6.00360463e-06  6.88242237e-01  6.00360463e-06  6.92647278e-01  6.00360463e-06  0.00000000e+00  6.00360463e-06  1.79955801e+00  6.00360463e-06  6.89678012e-01  6.00360463e-06  6.92678662e-01  6.00360463e-06  1.55587510e+00                                 
 6.00408995e-06  7.49511841e-01  6.00408995e-06  6.88330119e-01  6.00408995e-06  6.92726622e-01  6.00408995e-06  0.00000000e+00  6.00408995e-06  1.80037989e+00  6.00408995e-06  6.90703194e-01  6.00408995e-06  6.92984634e-01  6.00408995e-06  1.55394563e+00                                 
 6.00474618e-06  7.49509732e-01  6.00474618e-06  6.88258252e-01  6.00474618e-06  6.94661190e-01  6.00474618e-06  0.00000000e+00  6.00474618e-06  1.79970458e+00  6.00474618e-06  6.90575634e-01  6.00474618e-06  6.93983145e-01  6.00474618e-06  1.55107420e+00                                 
 6.00605865e-06  7.49512190e-01  6.00605865e-06  6.88181820e-01  6.00605865e-06  6.97496707e-01  6.00605865e-06  0.00000000e+00  6.00605865e-06  1.80029250e+00  6.00605865e-06  6.91044276e-01  6.00605865e-06  6.97568227e-01  6.00605865e-06  1.54481969e+00                                 
 6.00858190e-06  7.49510039e-01  6.00858190e-06  6.87984733e-01  6.00858190e-06  7.04634969e-01  6.00858190e-06  0.00000000e+00  6.00858190e-06  1.79974316e+00  6.00858190e-06  6.90698528e-01  6.00858190e-06  7.03874471e-01  6.00858190e-06  1.53218875e+00                                 
 6.01362841e-06  7.49512275e-01  6.01362841e-06  6.87821759e-01  6.01362841e-06  7.17551767e-01  6.01362841e-06  0.00000000e+00  6.01362841e-06  1.80027239e+00  6.01362841e-06  6.90722687e-01  6.01362841e-06  7.17593825e-01  6.01362841e-06  1.50647237e+00                                 
 6.02372143e-06  7.49510069e-01  6.02372143e-06  6.87753154e-01  6.02372143e-06  7.43761194e-01  6.02372143e-06  0.00000000e+00  6.02372143e-06  1.79975180e+00  6.02372143e-06  6.89985590e-01  6.02372143e-06  7.42896441e-01  6.02372143e-06  1.45717790e+00                                 
 6.04293885e-06  7.49512265e-01  6.04293885e-06  6.87808799e-01  6.04293885e-06  7.89001598e-01  6.04293885e-06  0.00000000e+00  6.04293885e-06  1.80026639e+00  6.04293885e-06  6.89886612e-01  6.04293885e-06  7.89122529e-01  6.04293885e-06  1.37189830e+00                                 
 6.08137369e-06  7.49510073e-01  6.08137369e-06  6.87777830e-01  6.08137369e-06  8.68689059e-01  6.08137369e-06  0.00000000e+00  6.08137369e-06  1.79975115e+00  6.08137369e-06  6.89437668e-01  6.08137369e-06  8.66990844e-01  6.08137369e-06  1.22539727e+00                                 
 6.15023830e-06  7.49512263e-01  6.15023830e-06  6.87811490e-01  6.15023830e-06  9.76459587e-01  6.15023830e-06  0.00000000e+00  6.15023830e-06  1.80026041e+00  6.15023830e-06  6.89753102e-01  6.15023830e-06  9.77513045e-01  6.15023830e-06  1.04534898e+00                                 
 6.26048569e-06  7.49510074e-01  6.26048569e-06  6.87778355e-01  6.26048569e-06  1.08535031e+00  6.26048569e-06  0.00000000e+00  6.26048569e-06  1.79974608e+00  6.26048569e-06  6.89450062e-01  6.26048569e-06  1.08295848e+00  6.26048569e-06  1.03706707e+00                                 
