 time            v(vbep)         time            v(vben)         time            v(vout)         time            v(vphi1)        time            v(vphi2)        time            v(vref)         yes             currtemp       
 0.00000000e+00  5.97087469e-01  0.00000000e+00  5.35732253e-01  0.00000000e+00  1.40304173e-01  0.00000000e+00  0.00000000e+00  0.00000000e+00  1.79997949e+00  0.00000000e+00  5.00000000e-01  1.00000000e+00  6.30000000e+01 
 5.00000000e-12  5.97072603e-01  5.00000000e-12  5.35719886e-01  5.00000000e-12  1.40859568e-01  5.00000000e-12  1.80000000e-02  5.00000000e-12  1.80006870e+00  5.00000000e-12  5.00000000e-01                                 
 1.00000000e-11  5.97057904e-01  1.00000000e-11  5.35707760e-01  1.00000000e-11  1.41358153e-01  1.00000000e-11  3.60000000e-02  1.00000000e-11  1.80011243e+00  1.00000000e-11  5.00000000e-01                                 
 2.00000000e-11  5.97028586e-01  2.00000000e-11  5.35683567e-01  2.00000000e-11  1.42270164e-01  2.00000000e-11  7.20000000e-02  2.00000000e-11  1.80015069e+00  2.00000000e-11  5.00000000e-01                                 
 4.00000000e-11  5.96970101e-01  4.00000000e-11  5.35635291e-01  4.00000000e-11  1.43706088e-01  4.00000000e-11  1.44000000e-01  4.00000000e-11  1.80012267e+00  4.00000000e-11  5.00000000e-01                                 
 8.00000000e-11  5.96853426e-01  8.00000000e-11  5.35538949e-01  8.00000000e-11  1.45658550e-01  8.00000000e-11  2.88000000e-01  8.00000000e-11  1.80007317e+00  8.00000000e-11  5.00000000e-01                                 
 1.60000000e-10  5.96621309e-01  1.60000000e-10  5.35347105e-01  1.60000000e-10  1.48068929e-01  1.60000000e-10  5.76000000e-01  1.60000000e-10  1.80003101e+00  1.60000000e-10  5.00000000e-01                                 
 3.20000000e-10  5.96161880e-01  3.20000000e-10  5.34966729e-01  3.20000000e-10  1.74413010e-01  3.20000000e-10  1.15200000e+00  3.20000000e-10  1.80018641e+00  3.20000000e-10  5.00000000e-01                                 
 5.00000000e-10  5.95652566e-01  5.00000000e-10  5.34544015e-01  5.00000000e-10  4.83198098e-01  5.00000000e-10  1.80000000e+00  5.00000000e-10  1.29065395e-01  5.00000000e-10  5.00000000e-01                                 
 5.22287275e-10  5.95590118e-01  5.22287275e-10  5.34492102e-01  5.22287275e-10  5.46920127e-01  5.22287275e-10  1.80000000e+00  5.22287275e-10  2.64205627e-02  5.22287275e-10  5.00000000e-01                                 
 5.66861825e-10  5.95465461e-01  5.66861825e-10  5.34388443e-01  5.66861825e-10  6.63758443e-01  5.66861825e-10  1.80000000e+00  5.66861825e-10 -1.22132251e-02  5.66861825e-10  5.00000000e-01                                 
 6.56010924e-10  5.95217589e-01  6.56010924e-10  5.34182131e-01  6.56010924e-10  8.47049657e-01  6.56010924e-10  1.80000000e+00  6.56010924e-10  1.00757198e-02  6.56010924e-10  5.00000000e-01                                 
 7.78750162e-10  5.94879397e-01  7.78750162e-10  5.33900234e-01  7.78750162e-10  1.03689046e+00  7.78750162e-10  1.80000000e+00  7.78750162e-10 -8.60595062e-03  7.78750162e-10  5.00000000e-01                                 
 9.74315206e-10  5.94347674e-01  9.74315206e-10  5.33456076e-01  9.74315206e-10  1.27379605e+00  9.74315206e-10  1.80000000e+00  9.74315206e-10  8.03151985e-03  9.74315206e-10  5.00000000e-01                                 
 1.30260060e-09  5.93474059e-01  1.30260060e-09  5.32723852e-01  1.30260060e-09  1.55605488e+00  1.30260060e-09  1.80000000e+00  1.30260060e-09 -7.51025234e-03  1.30260060e-09  5.00000000e-01                                 
 1.92087653e-09  5.91889202e-01  1.92087653e-09  5.31387840e-01  1.92087653e-09  1.78918726e+00  1.92087653e-09  1.80000000e+00  1.92087653e-09  7.42209702e-03  1.92087653e-09  5.00000000e-01                                 
 2.19169018e-09  5.91218799e-01  2.19169018e-09  5.30819683e-01  2.19169018e-09  1.81637056e+00  2.19169018e-09  1.80000000e+00  2.19169018e-09 -6.89238231e-03  2.19169018e-09  5.00000000e-01                                 
 2.51522183e-09  5.90435547e-01  2.51522183e-09  5.30153708e-01  2.51522183e-09  1.82980932e+00  2.51522183e-09  1.80000000e+00  2.51522183e-09  6.62429023e-03  2.51522183e-09  5.00000000e-01                                 
 2.87903462e-09  5.89576699e-01  2.87903462e-09  5.29420793e-01  2.87903462e-09  1.83544821e+00  2.87903462e-09  1.80000000e+00  2.87903462e-09 -6.27116079e-03  2.87903462e-09  5.00000000e-01                                 
 3.60666019e-09  5.87923613e-01  3.60666019e-09  5.28002534e-01  3.60666019e-09  1.83745506e+00  3.60666019e-09  1.80000000e+00  3.60666019e-09  6.18850004e-03  3.60666019e-09  5.00000000e-01                                 
 4.38796867e-09  5.86237438e-01  4.38796867e-09  5.26545746e-01  4.38796867e-09  1.83644722e+00  4.38796867e-09  1.80000000e+00  4.38796867e-09 -6.01166109e-03  4.38796867e-09  5.00000000e-01                                 
 5.95058562e-09  5.83102519e-01  5.95058562e-09  5.23812083e-01  5.95058562e-09  1.83319219e+00  5.95058562e-09  1.80000000e+00  5.95058562e-09  6.00045456e-03  5.95058562e-09  5.00000000e-01                                 
 8.56969532e-09  5.78428802e-01  8.56969532e-09  5.19680133e-01  8.56969532e-09  1.82527872e+00  8.56969532e-09  1.80000000e+00  8.56969532e-09 -5.91127783e-03  8.56969532e-09  5.00000000e-01                                 
 1.01414158e-08  5.75918716e-01  1.01414158e-08  5.17433342e-01  1.01414158e-08  1.82154601e+00  1.01414158e-08  1.80000000e+00  1.01414158e-08  5.89448171e-03  1.01414158e-08  5.00000000e-01                                 
 1.13807382e-08  5.74067807e-01  1.13807382e-08  5.15765413e-01  1.13807382e-08  1.81857931e+00  1.13807382e-08  1.80000000e+00  1.13807382e-08 -5.77881951e-03  1.13807382e-08  5.00000000e-01                                 
 1.27322716e-08  5.72163169e-01  1.27322716e-08  5.14039678e-01  1.27322716e-08  1.81567273e+00  1.27322716e-08  1.80000000e+00  1.27322716e-08  5.74629342e-03  1.27322716e-08  5.00000000e-01                                 
 1.40344472e-08  5.70429934e-01  1.40344472e-08  5.12461151e-01  1.40344472e-08  1.81281762e+00  1.40344472e-08  1.80000000e+00  1.40344472e-08 -5.64097091e-03  1.40344472e-08  5.00000000e-01                                 
 1.57617638e-08  5.68269009e-01  1.57617638e-08  5.10482624e-01  1.57617638e-08  1.80932184e+00  1.57617638e-08  1.80000000e+00  1.57617638e-08  5.62122622e-03  1.57617638e-08  5.00000000e-01                                 
 1.76227419e-08  5.66099802e-01  1.76227419e-08  5.08484838e-01  1.76227419e-08  1.80553808e+00  1.76227419e-08  1.80000000e+00  1.76227419e-08 -5.54060919e-03  1.76227419e-08  5.00000000e-01                                 
 2.03696644e-08  5.63160269e-01  2.03696644e-08  5.05759204e-01  2.03696644e-08  1.80035849e+00  2.03696644e-08  1.80000000e+00  2.03696644e-08  5.53946087e-03  2.03696644e-08  5.00000000e-01                                 
 2.34327720e-08  5.60201512e-01  2.34327720e-08  5.02994007e-01  2.34327720e-08  1.79483404e+00  2.34327720e-08  1.80000000e+00  2.34327720e-08 -5.47923968e-03  2.34327720e-08  5.00000000e-01                                 
 2.87037147e-08  5.55734153e-01  2.87037147e-08  4.98779402e-01  2.87037147e-08  1.78598593e+00  2.87037147e-08  1.80000000e+00  2.87037147e-08  5.49343212e-03  2.87037147e-08  5.00000000e-01                                 
 3.55978483e-08  5.50789002e-01  3.55978483e-08  4.94062452e-01  3.55978483e-08  1.77502041e+00  3.55978483e-08  1.80000000e+00  3.55978483e-08 -5.44961981e-03  3.55978483e-08  5.00000000e-01                                 
 4.93861154e-08  5.42804419e-01  4.93861154e-08  4.86363388e-01  4.93861154e-08  1.75441318e+00  4.93861154e-08  1.80000000e+00  4.93861154e-08  5.47431341e-03  4.93861154e-08  5.00000000e-01                                 
 7.69626495e-08  5.31040574e-01  7.69626495e-08  4.74905154e-01  7.69626495e-08  1.71628264e+00  7.69626495e-08  1.80000000e+00  7.69626495e-08 -5.43994326e-03  7.69626495e-08  5.00000000e-01                                 
 1.15054314e-07  5.17126591e-01  1.15054314e-07  4.61743186e-01  1.15054314e-07  1.66553051e+00  1.15054314e-07  1.80000000e+00  1.15054314e-07  5.46889983e-03  1.15054314e-07  5.00000000e-01                                 
 1.64488764e-07  5.00922230e-01  1.64488764e-07  4.46897599e-01  1.64488764e-07  1.60029779e+00  1.64488764e-07  1.80000000e+00  1.64488764e-07 -5.43584555e-03  1.64488764e-07  5.00000000e-01                                 
 2.43852374e-07  4.79407668e-01  2.43852374e-07  4.27604089e-01  2.43852374e-07  1.49785009e+00  2.43852374e-07  1.80000000e+00  2.43852374e-07  5.46609715e-03  2.43852374e-07  5.00000000e-01                                 
 3.27215809e-07  4.57682105e-01  3.27215809e-07  4.08818974e-01  3.27215809e-07  1.38878934e+00  3.27215809e-07  1.80000000e+00  3.27215809e-07 -5.43367543e-03  3.27215809e-07  5.00000000e-01                                 
 4.57532295e-07  4.20152643e-01  4.57532295e-07  3.77551595e-01  4.57532295e-07  1.21402706e+00  4.57532295e-07  1.80000000e+00  4.57532295e-07  5.46436788e-03  4.57532295e-07  5.00000000e-01                                 
 4.90111416e-07  4.09255498e-01  4.90111416e-07  3.68687270e-01  4.90111416e-07  1.16883546e+00  4.90111416e-07  1.80000000e+00  4.90111416e-07  4.04632191e-06  4.90111416e-07  5.00000000e-01                                 
 5.55269658e-07  3.87908461e-01  5.55269658e-07  3.51374119e-01  5.55269658e-07  1.08037018e+00  5.55269658e-07  1.80000000e+00  5.55269658e-07  2.68504480e-06  5.55269658e-07  5.00000000e-01                                 
 5.71559219e-07  3.84345288e-01  5.71559219e-07  3.48487712e-01  5.71559219e-07  1.06077104e+00  5.71559219e-07  1.80000000e+00  5.71559219e-07  3.41876206e-06  5.71559219e-07  5.00000000e-01                                 
 6.04138340e-07  3.82553123e-01  6.04138340e-07  3.46997927e-01  6.04138340e-07  1.02776452e+00  6.04138340e-07  1.80000000e+00  6.04138340e-07  3.57684679e-06  6.04138340e-07  5.00000000e-01                                 
 6.48809156e-07  4.31564687e-01  6.48809156e-07  3.86132337e-01  6.48809156e-07  1.03215613e+00  6.48809156e-07  1.80000000e+00  6.48809156e-07  4.53645660e-06  6.48809156e-07  5.00000000e-01                                 
 7.04463617e-07  6.52334652e-01  7.04463617e-07  5.87746032e-01  7.04463617e-07  1.18748456e+00  7.04463617e-07  1.80000000e+00  7.04463617e-07  7.23182418e-06  7.04463617e-07  5.00000000e-01                                 
 7.45585185e-07  7.08996284e-01  7.45585185e-07  6.44041774e-01  7.45585185e-07  1.20024477e+00  7.45585185e-07  1.80000000e+00  7.45585185e-07  2.12420610e-06  7.45585185e-07  5.00000000e-01                                 
 7.83867424e-07  7.31278080e-01  7.83867424e-07  6.63774413e-01  7.83867424e-07  1.17862950e+00  7.83867424e-07  1.80000000e+00  7.83867424e-07  5.67284090e-06  7.83867424e-07  5.00000000e-01                                 
 8.23796597e-07  7.41325786e-01  8.23796597e-07  6.72442933e-01  8.23796597e-07  1.14789131e+00  8.23796597e-07  1.80000000e+00  8.23796597e-07  1.91816916e-06  8.23796597e-07  5.00000000e-01                                 
 8.68078862e-07  7.44302871e-01  8.68078862e-07  6.74850335e-01  8.68078862e-07  1.10218898e+00  8.68078862e-07  1.80000000e+00  8.68078862e-07  5.14057833e-06  8.68078862e-07  5.00000000e-01                                 
 9.33706116e-07  7.43017256e-01  9.33706116e-07  6.73857810e-01  9.33706116e-07  1.03790469e+00  9.33706116e-07  1.80000000e+00  9.33706116e-07  1.94447121e-06  9.33706116e-07  5.00000000e-01                                 
 9.41806062e-07  7.40939783e-01  9.41806062e-07  6.72101516e-01  9.41806062e-07  1.02752966e+00  9.41806062e-07  1.80000000e+00  9.41806062e-07  3.25140797e-06  9.41806062e-07  5.00000000e-01                                 
 9.58005955e-07  7.35107800e-01  9.58005955e-07  6.67170216e-01  9.58005955e-07  1.00739301e+00  9.58005955e-07  1.80000000e+00  9.58005955e-07  3.23442355e-06  9.58005955e-07  5.00000000e-01                                 
 9.90405741e-07  7.23292127e-01  9.90405741e-07  6.56883598e-01  9.90405741e-07  9.70116503e-01  9.90405741e-07  1.80000000e+00  9.90405741e-07  3.25915294e-06  9.90405741e-07  5.00000000e-01                                 
 1.04927144e-06  7.27417628e-01  1.04927144e-06  6.60474927e-01  1.04927144e-06  9.30601009e-01  1.04927144e-06  1.80000000e+00  1.04927144e-06  3.88597869e-06  1.04927144e-06  5.00000000e-01                                 
 1.11719343e-06  7.37168193e-01  1.11719343e-06  6.68908291e-01  1.11719343e-06  8.94076902e-01  1.11719343e-06  1.80000000e+00  1.11719343e-06  3.40369732e-06  1.11719343e-06  5.00000000e-01                                 
 1.19846408e-06  7.28608197e-01  1.19846408e-06  6.61543733e-01  1.19846408e-06  8.35741243e-01  1.19846408e-06  1.80000000e+00  1.19846408e-06  3.48563207e-06  1.19846408e-06  5.00000000e-01                                 
 1.30486361e-06  7.29478281e-01  1.30486361e-06  6.62289115e-01  1.30486361e-06  7.73625579e-01  1.30486361e-06  1.80000000e+00  1.30486361e-06  3.57814797e-06  1.30486361e-06  5.00000000e-01                                 
 1.40932664e-06  7.34518678e-01  1.40932664e-06  6.66646665e-01  1.40932664e-06  7.18466420e-01  1.40932664e-06  1.80000000e+00  1.40932664e-06  3.55133248e-06  1.40932664e-06  5.00000000e-01                                 
 1.60396243e-06  7.27720085e-01  1.60396243e-06  6.60765027e-01  1.60396243e-06  6.08557721e-01  1.60396243e-06  1.80000000e+00  1.60396243e-06  3.44825873e-06  1.60396243e-06  5.00000000e-01                                 
 1.81296151e-06  7.33428996e-01  1.81296151e-06  6.65705926e-01  1.81296151e-06  5.30854375e-01  1.81296151e-06  1.80000000e+00  1.81296151e-06  3.64778539e-06  1.81296151e-06  5.00000000e-01                                 
 2.05778845e-06  7.29628978e-01  2.05778845e-06  6.62433469e-01  2.05778845e-06  4.88858861e-01  2.05778845e-06  1.80000000e+00  2.05778845e-06  3.38453977e-06  2.05778845e-06  5.00000000e-01                                 
 2.10016770e-06  7.29874476e-01  2.10016770e-06  6.62639787e-01  2.10016770e-06  4.90620589e-01  2.10016770e-06  1.80000000e+00  2.10016770e-06  3.52984465e-06  2.10016770e-06  5.00000000e-01                                 
 2.18492619e-06  7.31516224e-01  2.18492619e-06  6.64060650e-01  2.18492619e-06  4.98238971e-01  2.18492619e-06  1.80000000e+00  2.18492619e-06  3.55433753e-06  2.18492619e-06  5.00000000e-01                                 
 2.35444317e-06  7.31186045e-01  2.35444317e-06  6.63778960e-01  2.35444317e-06  5.02134360e-01  2.35444317e-06  1.80000000e+00  2.35444317e-06  3.49425490e-06  2.35444317e-06  5.00000000e-01                                 
 2.54547617e-06  7.30663295e-01  2.54547617e-06  6.63322637e-01  2.54547617e-06  4.98652533e-01  2.54547617e-06  1.80000000e+00  2.54547617e-06  3.55442686e-06  2.54547617e-06  5.00000000e-01                                 
 2.80034524e-06  7.31687916e-01  2.80034524e-06  6.64212056e-01  2.80034524e-06  5.01428275e-01  2.80034524e-06  1.80000000e+00  2.80034524e-06  3.50485286e-06  2.80034524e-06  5.00000000e-01                                 
 3.19904676e-06  7.30451106e-01  3.19904676e-06  6.63139476e-01  3.19904676e-06  4.99181668e-01  3.19904676e-06  1.80000000e+00  3.19904676e-06  3.54294918e-06  3.19904676e-06  5.00000000e-01                                 
 3.91010002e-06  7.31747878e-01  3.91010002e-06  6.64263414e-01  3.91010002e-06  5.01178247e-01  3.91010002e-06  1.80000000e+00  3.91010002e-06  3.51280698e-06  3.91010002e-06  5.00000000e-01                                 
 4.91010002e-06  7.30439832e-01  4.91010002e-06  6.63130084e-01  4.91010002e-06  4.99317462e-01  4.91010002e-06  1.80000000e+00  4.91010002e-06  3.53789908e-06  4.91010002e-06  5.00000000e-01                                 
 5.91010002e-06  7.31742319e-01  5.91010002e-06  6.64258273e-01  5.91010002e-06  5.01071607e-01  5.91010002e-06  1.80000000e+00  5.91010002e-06  3.51700987e-06  5.91010002e-06  5.00000000e-01                                 
 6.91010002e-06  7.30456371e-01  6.91010002e-06  6.63144677e-01  6.91010002e-06  4.99420082e-01  6.91010002e-06  1.80000000e+00  6.91010002e-06  3.53373799e-06  6.91010002e-06  5.00000000e-01                                 
 7.91010002e-06  7.31715603e-01  7.91010002e-06  6.64234930e-01  7.91010002e-06  5.00971805e-01  7.91010002e-06  1.80000000e+00  7.91010002e-06  3.52109499e-06  7.91010002e-06  5.00000000e-01                                 
 8.91010002e-06  7.30493798e-01  8.91010002e-06  6.63177389e-01  8.91010002e-06  4.99518268e-01  8.91010002e-06  1.80000000e+00  8.91010002e-06  3.52976237e-06  8.91010002e-06  5.00000000e-01                                 
 9.91010002e-06  7.31670025e-01  9.91010002e-06  6.64195306e-01  9.91010002e-06  5.00874296e-01  9.91010002e-06  1.80000000e+00  9.91010002e-06  3.52493104e-06  9.91010002e-06  5.00000000e-01                                 
 1.00005000e-05  7.30929713e-01  1.00005000e-05  6.63556028e-01  1.00005000e-05  5.00103209e-01  1.00005000e-05  1.80000000e+00  1.00005000e-05  3.51489213e-06  1.00005000e-05  5.00000000e-01                                 
 1.00005500e-05  7.30928795e-01  1.00005500e-05  6.63555236e-01  1.00005500e-05  4.92460111e-01  1.00005500e-05  1.62000000e+00  1.00005500e-05 -8.00007533e-05  1.00005500e-05  5.00000000e-01                                 
 1.00006500e-05  7.30926980e-01  1.00006500e-05  6.63553665e-01  1.00006500e-05  4.78696238e-01  1.00006500e-05  1.26000000e+00  1.00006500e-05 -6.56380151e-05  1.00006500e-05  5.00000000e-01                                 
 1.00008500e-05  7.30923423e-01  1.00008500e-05  6.63550580e-01  1.00008500e-05  4.76418434e-01  1.00008500e-05  5.40000000e-01  1.00008500e-05  9.75014505e-03  1.00008500e-05  5.00000000e-01                                 
 1.00010000e-05  7.30920706e-01  1.00010000e-05  6.63548246e-01  1.00010000e-05  4.39271732e-01  1.00010000e-05  0.00000000e+00  1.00010000e-05  1.59354286e+00  1.00010000e-05  5.00000000e-01                                 
 1.00010251e-05  7.30920222e-01  1.00010251e-05  6.63547837e-01  1.00010251e-05  4.14966535e-01  1.00010251e-05  0.00000000e+00  1.00010251e-05  1.73040838e+00  1.00010251e-05  5.00000000e-01                                 
 1.00010754e-05  7.30919308e-01  1.00010754e-05  6.63547041e-01  1.00010754e-05  3.71219256e-01  1.00010754e-05  0.00000000e+00  1.00010754e-05  1.81947312e+00  1.00010754e-05  5.00000000e-01                                 
 1.00011760e-05  7.30917640e-01  1.00011760e-05  6.63545552e-01  1.00011760e-05  3.25885539e-01  1.00011760e-05  0.00000000e+00  1.00011760e-05  1.78589983e+00  1.00011760e-05  5.00000000e-01                                 
 1.00013019e-05  7.30915577e-01  1.00013019e-05  6.63543758e-01  1.00013019e-05  3.17619847e-01  1.00013019e-05  0.00000000e+00  1.00013019e-05  1.80881428e+00  1.00013019e-05  5.00000000e-01                                 
 1.00015115e-05  7.30912041e-01  1.00015115e-05  6.63540709e-01  1.00015115e-05  3.17513186e-01  1.00015115e-05  0.00000000e+00  1.00015115e-05  1.79275802e+00  1.00015115e-05  5.00000000e-01                                 
 1.00017322e-05  7.30908198e-01  1.00017322e-05  6.63537393e-01  1.00017322e-05  3.18010107e-01  1.00017322e-05  0.00000000e+00  1.00017322e-05  1.80573110e+00  1.00017322e-05  5.00000000e-01                                 
 1.00021244e-05  7.30901254e-01  1.00021244e-05  6.63531394e-01  1.00021244e-05  3.17813083e-01  1.00021244e-05  0.00000000e+00  1.00021244e-05  1.79490044e+00  1.00021244e-05  5.00000000e-01                                 
