 time            v(vbep)         time            v(vben)         time            v(vout)         time            v(vphi1)        time            v(vphi2)        time            v(vref)         time            v(voutc)        time            v(voutcc)       yes             currtemp       
 0.00000000e+00  7.34313409e-01  0.00000000e+00  6.70450158e-01  0.00000000e+00  1.52742589e+00  0.00000000e+00  0.00000000e+00  0.00000000e+00  1.80000000e+00  0.00000000e+00  6.71766081e-01  0.00000000e+00  1.52742588e+00  0.00000000e+00  1.53456180e+00  1.00000000e+00  5.30000000e+01 
 1.00000000e-11  7.34338524e-01  1.00000000e-11  6.70522095e-01  1.00000000e-11  1.52819802e+00  1.00000000e-11  1.80000000e-02  1.00000000e-11  1.80025314e+00  1.00000000e-11  6.72300022e-01  1.00000000e-11  1.52789768e+00  1.00000000e-11  1.53457552e+00                                 
 2.00000000e-11  7.34345390e-01  2.00000000e-11  6.70566868e-01  2.00000000e-11  1.52866590e+00  2.00000000e-11  3.60000000e-02  2.00000000e-11  1.80035276e+00  2.00000000e-11  6.72695498e-01  2.00000000e-11  1.52825302e+00  2.00000000e-11  1.53458047e+00                                 
 4.00000000e-11  7.34345406e-01  4.00000000e-11  6.70625628e-01  4.00000000e-11  1.52922123e+00  4.00000000e-11  7.20000000e-02  4.00000000e-11  1.80038998e+00  4.00000000e-11  6.73273593e-01  4.00000000e-11  1.52878098e+00  4.00000000e-11  1.53458185e+00                                 
 8.00000000e-11  7.34333761e-01  8.00000000e-11  6.70663004e-01  8.00000000e-11  1.52931565e+00  8.00000000e-11  1.44000000e-01  8.00000000e-11  1.80018497e+00  8.00000000e-11  6.73722817e-01  8.00000000e-11  1.52920661e+00  8.00000000e-11  1.53457127e+00                                 
 1.60000000e-10  7.34331008e-01  1.60000000e-10  6.70673347e-01  1.60000000e-10  1.52897917e+00  1.60000000e-10  2.88000000e-01  1.60000000e-10  1.80000502e+00  1.60000000e-10  6.73808426e-01  1.60000000e-10  1.52925281e+00  1.60000000e-10  1.53456191e+00                                 
 3.20000000e-10  7.34326694e-01  3.20000000e-10  6.70666805e-01  3.20000000e-10  1.52859809e+00  3.20000000e-10  5.76000000e-01  3.20000000e-10  1.79998446e+00  3.20000000e-10  6.73650015e-01  3.20000000e-10  1.52891970e+00  3.20000000e-10  1.53455712e+00                                 
 6.40000000e-10  7.34243245e-01  6.40000000e-10  6.70260737e-01  6.40000000e-10  1.52673499e+00  6.40000000e-10  1.15200000e+00  6.40000000e-10  1.81058381e+00  6.40000000e-10  6.71110056e-01  6.40000000e-10  1.53313889e+00  6.40000000e-10  1.53458389e+00                                 
 1.00000000e-09  7.34848641e-01  1.00000000e-09  6.70593330e-01  1.00000000e-09  1.50433277e+00  1.00000000e-09  1.80000000e+00  1.00000000e-09  9.89502002e-02  1.00000000e-09  6.84918404e-01  1.00000000e-09  1.53619675e+00  1.00000000e-09  1.53456788e+00                                 
 1.03687035e-09  7.34910226e-01  1.03687035e-09  6.70616741e-01  1.03687035e-09  1.50306156e+00  1.03687035e-09  1.80000000e+00  1.03687035e-09  2.27809431e-02  1.03687035e-09  6.88048599e-01  1.03687035e-09  1.53792953e+00  1.03687035e-09  1.53459850e+00                                 
 1.11061106e-09  7.35058681e-01  1.11061106e-09  6.70669482e-01  1.11061106e-09  1.50155136e+00  1.11061106e-09  1.80000000e+00  1.11061106e-09 -1.07802991e-02  1.11061106e-09  6.92060762e-01  1.11061106e-09  1.54105003e+00  1.11061106e-09  1.53461857e+00                                 
 1.25809248e-09  7.35182899e-01  1.25809248e-09  6.70530973e-01  1.25809248e-09  1.49880562e+00  1.25809248e-09  1.80000000e+00  1.25809248e-09  8.72344335e-03  1.25809248e-09  6.92188998e-01  1.25809248e-09  1.54143352e+00  1.25809248e-09  1.53457068e+00                                 
 1.45159371e-09  7.35155423e-01  1.45159371e-09  6.70510349e-01  1.45159371e-09  1.49809147e+00  1.45159371e-09  1.80000000e+00  1.45159371e-09 -6.69596855e-03  1.45159371e-09  6.91364433e-01  1.45159371e-09  1.54051775e+00  1.45159371e-09  1.53460506e+00                                 
 1.66647841e-09  7.35057772e-01  1.66647841e-09  6.70506295e-01  1.66647841e-09  1.49790048e+00  1.66647841e-09  1.80000000e+00  1.66647841e-09  5.63410088e-03  1.66647841e-09  6.89844195e-01  1.66647841e-09  1.53940443e+00  1.66647841e-09  1.53462602e+00                                 
 2.02496204e-09  7.34809177e-01  2.02496204e-09  6.70459750e-01  2.02496204e-09  1.49768973e+00  2.02496204e-09  1.80000000e+00  2.02496204e-09 -5.05460391e-03  2.02496204e-09  6.87295131e-01  2.02496204e-09  1.53706730e+00  2.02496204e-09  1.53473431e+00                                 
 2.49947451e-09  7.34559475e-01  2.49947451e-09  6.70462668e-01  2.49947451e-09  1.49767266e+00  2.49947451e-09  1.80000000e+00  2.49947451e-09  4.55815642e-03  2.49947451e-09  6.84475932e-01  2.49947451e-09  1.53480144e+00  2.49947451e-09  1.53487191e+00                                 
 3.18770036e-09  7.34316549e-01  3.18770036e-09  6.70417078e-01  3.18770036e-09  1.49682630e+00  3.18770036e-09  1.80000000e+00  3.18770036e-09 -4.38298072e-03  3.18770036e-09  6.80592926e-01  3.18770036e-09  1.53134736e+00  3.18770036e-09  1.53507850e+00                                 
 4.22402670e-09  7.34169832e-01  4.22402670e-09  6.70434507e-01  4.22402670e-09  1.49570725e+00  4.22402670e-09  1.80000000e+00  4.22402670e-09  4.15455820e-03  4.22402670e-09  6.76615114e-01  4.22402670e-09  1.52808130e+00  4.22402670e-09  1.53528661e+00                                 
 5.88514250e-09  7.34094490e-01  5.88514250e-09  6.70410190e-01  5.88514250e-09  1.49227294e+00  5.88514250e-09  1.80000000e+00  5.88514250e-09 -4.09210090e-03  5.88514250e-09  6.72385846e-01  5.88514250e-09  1.52435187e+00  5.88514250e-09  1.53539275e+00                                 
 7.35676811e-09  7.34126802e-01  7.35676811e-09  6.70445926e-01  7.35676811e-09  1.48821621e+00  7.35676811e-09  1.80000000e+00  7.35676811e-09  3.96509091e-03  7.35676811e-09  6.70894140e-01  7.35676811e-09  1.52320602e+00  7.35676811e-09  1.53528064e+00                                 
 8.77676654e-09  7.34156425e-01  8.77676654e-09  6.70423596e-01  8.77676654e-09  1.48253326e+00  8.77676654e-09  1.80000000e+00  8.77676654e-09 -3.86635398e-03  8.77676654e-09  6.69894090e-01  8.77676654e-09  1.52223257e+00  8.77676654e-09  1.53508012e+00                                 
 1.02853951e-08  7.34211448e-01  1.02853951e-08  6.70456567e-01  1.02853951e-08  1.47581480e+00  1.02853951e-08  1.80000000e+00  1.02853951e-08  3.76114928e-03  1.02853951e-08  6.69791359e-01  1.02853951e-08  1.52225679e+00  1.02853951e-08  1.53481270e+00                                 
 1.23525676e-08  7.34251015e-01  1.23525676e-08  6.70432116e-01  1.23525676e-08  1.46466764e+00  1.23525676e-08  1.80000000e+00  1.23525676e-08 -3.69281546e-03  1.23525676e-08  6.69495759e-01  1.23525676e-08  1.52187820e+00  1.23525676e-08  1.53443465e+00                                 
 1.48585630e-08  7.34299678e-01  1.48585630e-08  6.70463041e-01  1.48585630e-08  1.45030051e+00  1.48585630e-08  1.80000000e+00  1.48585630e-08  3.63481918e-03  1.48585630e-08  6.69899436e-01  1.48585630e-08  1.52231783e+00  1.48585630e-08  1.53399134e+00                                 
 1.83047213e-08  7.34313879e-01  1.83047213e-08  6.70436101e-01  1.83047213e-08  1.42873145e+00  1.83047213e-08  1.80000000e+00  1.83047213e-08 -3.59327926e-03  1.83047213e-08  6.69994177e-01  1.83047213e-08  1.52226427e+00  1.83047213e-08  1.53345915e+00                                 
 2.29050930e-08  7.34331561e-01  2.29050930e-08  6.70465096e-01  2.29050930e-08  1.39951849e+00  2.29050930e-08  1.80000000e+00  2.29050930e-08  3.56349892e-03  2.29050930e-08  6.70634125e-01  2.29050930e-08  1.52289584e+00  2.29050930e-08  1.53287967e+00                                 
 3.04710284e-08  7.34318862e-01  3.04710284e-08  6.70436720e-01  3.04710284e-08  1.35020110e+00  3.04710284e-08  1.80000000e+00  3.04710284e-08 -3.54444787e-03  3.04710284e-08  6.70872629e-01  3.04710284e-08  1.52296329e+00  3.04710284e-08  1.53219702e+00                                 
 4.33246752e-08  7.34322784e-01  4.33246752e-08  6.70464748e-01  4.33246752e-08  1.26684954e+00  4.33246752e-08  1.80000000e+00  4.33246752e-08  3.53415269e-03  4.33246752e-08  6.71553701e-01  4.33246752e-08  1.52363242e+00  4.33246752e-08  1.53152350e+00                                 
 6.79943014e-08  7.34309054e-01  6.79943014e-08  6.70435989e-01  6.79943014e-08  1.10715164e+00  6.79943014e-08  1.80000000e+00  6.79943014e-08 -3.52792738e-03  6.79943014e-08  6.71604097e-01  6.79943014e-08  1.52355558e+00  6.79943014e-08  1.53103098e+00                                 
 1.01467615e-07  7.34317778e-01  1.01467615e-07  6.70464318e-01  1.01467615e-07  8.95597004e-01  1.01467615e-07  1.80000000e+00  1.01467615e-07  3.52551686e-03  1.01467615e-07  6.71884035e-01  1.01467615e-07  1.52390160e+00  1.01467615e-07  1.53090702e+00                                 
 1.40612373e-07  7.34310504e-01  1.40612373e-07  6.70435986e-01  1.40612373e-07  7.17271719e-01  1.40612373e-07  1.80000000e+00  1.40612373e-07 -3.51503190e-03  1.40612373e-07  6.71645007e-01  1.40612373e-07  1.52358693e+00  1.40612373e-07  1.53088967e+00                                 
 1.72283745e-07  7.34316967e-01  1.72283745e-07  6.70464536e-01  1.72283745e-07  6.73021739e-01  1.72283745e-07  1.80000000e+00  1.72283745e-07  3.52365759e-03  1.72283745e-07  6.71892531e-01  1.72283745e-07  1.52390565e+00  1.72283745e-07  1.53088688e+00                                 
 2.02497539e-07  7.34307682e-01  2.02497539e-07  6.70435580e-01  2.02497539e-07  6.73102271e-01  2.02497539e-07  1.80000000e+00  2.02497539e-07 -3.50464358e-03  2.02497539e-07  6.71643813e-01  2.02497539e-07  1.52358389e+00  2.02497539e-07  1.53088699e+00                                 
 2.27030734e-07  7.34319116e-01  2.27030734e-07  6.70464761e-01  2.27030734e-07  6.73150670e-01  2.27030734e-07  1.80000000e+00  2.27030734e-07  3.51386711e-03  2.27030734e-07  6.71888028e-01  2.27030734e-07  1.52389977e+00  2.27030734e-07  1.53088354e+00                                 
 2.52937822e-07  7.34307755e-01  2.52937822e-07  6.70435538e-01  2.52937822e-07  6.73064468e-01  2.52937822e-07  1.80000000e+00  2.52937822e-07 -3.49417475e-03  2.52937822e-07  6.71644333e-01  2.52937822e-07  1.52358273e+00  2.52937822e-07  1.53088343e+00                                 
 3.04752000e-07  7.34319020e-01  3.04752000e-07  6.70464766e-01  3.04752000e-07  6.73170605e-01  3.04752000e-07  1.80000000e+00  3.04752000e-07  3.50618667e-03  3.04752000e-07  6.71887703e-01  3.04752000e-07  1.52389674e+00  3.04752000e-07  1.53088017e+00                                 
 4.08380355e-07  7.34307822e-01  4.08380355e-07  6.70435542e-01  4.08380355e-07  6.73054166e-01  4.08380355e-07  1.80000000e+00  4.08380355e-07 -3.49034674e-03  4.08380355e-07  6.71644447e-01  4.08380355e-07  1.52357764e+00  4.08380355e-07  1.53087783e+00                                 
 6.15637065e-07  7.34318985e-01  6.15637065e-07  6.70464763e-01  6.15637065e-07  6.73174854e-01  6.15637065e-07  1.80000000e+00  6.15637065e-07  3.50426913e-03  6.15637065e-07  6.71887655e-01  6.15637065e-07  1.52388621e+00  6.15637065e-07  1.53086972e+00                                 
 1.03015049e-06  7.34307840e-01  1.03015049e-06  6.70435544e-01  1.03015049e-06  6.73052050e-01  1.03015049e-06  1.80000000e+00  1.03015049e-06 -3.48939467e-03  1.03015049e-06  6.71644469e-01  1.03015049e-06  1.52355672e+00  1.03015049e-06  1.53085691e+00                                 
 1.85917733e-06  7.34318976e-01  1.85917733e-06  6.70464762e-01  1.85917733e-06  6.73175828e-01  1.85917733e-06  1.80000000e+00  1.85917733e-06  3.50378990e-03  1.85917733e-06  6.71887644e-01  1.85917733e-06  1.52384429e+00  1.85917733e-06  1.53082788e+00                                 
 3.05917733e-06  7.34307845e-01  3.05917733e-06  6.70435545e-01  3.05917733e-06  6.73051480e-01  3.05917733e-06  1.80000000e+00  3.05917733e-06 -3.48913865e-03  3.05917733e-06  6.71644475e-01  3.05917733e-06  1.52348840e+00  3.05917733e-06  1.53078866e+00                                 
 4.25917733e-06  7.34318972e-01  4.25917733e-06  6.70464761e-01  4.25917733e-06  6.73176266e-01  4.25917733e-06  1.80000000e+00  4.25917733e-06  3.50357015e-03  4.25917733e-06  6.71887640e-01  4.25917733e-06  1.52376347e+00  4.25917733e-06  1.53074717e+00                                 
 5.45917733e-06  7.34307849e-01  5.45917733e-06  6.70435545e-01  5.45917733e-06  6.73051024e-01  5.45917733e-06  1.80000000e+00  5.45917733e-06 -3.48892468e-03  5.45917733e-06  6.71644480e-01  5.45917733e-06  1.52340754e+00  5.45917733e-06  1.53070791e+00                                 
 6.00100000e-06  7.34318965e-01  6.00100000e-06  6.70464760e-01  6.00100000e-06  6.73176955e-01  6.00100000e-06  1.80000000e+00  6.00100000e-06  3.50321549e-03  6.00100000e-06  6.71887632e-01  6.00100000e-06  1.52370476e+00  6.00100000e-06  1.53068855e+00                                 
 6.00110000e-06  7.34267309e-01  6.00110000e-06  6.70212236e-01  6.00110000e-06  6.71296816e-01  6.00110000e-06  1.62000000e+00  6.00110000e-06  2.03636200e-04  6.00110000e-06  6.70192463e-01  6.00110000e-06  1.52220711e+00  6.00110000e-06  1.53067766e+00                                 
 6.00130000e-06  7.34299276e-01  6.00130000e-06  6.70211216e-01  6.00130000e-06  6.71442864e-01  6.00130000e-06  1.26000000e+00  6.00130000e-06 -2.38237191e-04  6.00130000e-06  6.69993225e-01  6.00130000e-06  1.52203098e+00  6.00130000e-06  1.53069446e+00                                 
 6.00165806e-06  7.34361116e-01  6.00165806e-06  6.70406427e-01  6.00165806e-06  6.73414627e-01  6.00165806e-06  6.15490799e-01  6.00165806e-06  2.98940191e-03  6.00165806e-06  6.70341816e-01  6.00165806e-06  1.51906498e+00  6.00165806e-06  1.53067072e+00                                 
 6.00200000e-06  7.34301119e-01  6.00200000e-06  6.68916933e-01  6.00200000e-06  7.06111382e-01  6.00200000e-06  0.00000000e+00  6.00200000e-06  1.60001502e+00  6.00200000e-06  6.54559075e-01  6.00200000e-06  1.32716106e+00  6.00200000e-06  1.53008739e+00                                 
 6.00204106e-06  7.34316008e-01  6.00204106e-06  6.68493000e-01  6.00204106e-06  7.12398521e-01  6.00204106e-06  0.00000000e+00  6.00204106e-06  1.72218760e+00  6.00204106e-06  6.49765040e-01  6.00204106e-06  1.26655166e+00  6.00204106e-06  1.53009789e+00                                 
 6.00212318e-06  7.34316397e-01  6.00212318e-06  6.67716545e-01  6.00212318e-06  7.16863230e-01  6.00212318e-06  0.00000000e+00  6.00212318e-06  1.81342290e+00  6.00212318e-06  6.41240946e-01  6.00212318e-06  1.14103328e+00  6.00212318e-06  1.53046538e+00                                 
 6.00228743e-06  7.34311962e-01  6.00228743e-06  6.67593201e-01  6.00228743e-06  7.07709619e-01  6.00228743e-06  0.00000000e+00  6.00228743e-06  1.78947876e+00  6.00228743e-06  6.40764971e-01  6.00228743e-06  9.41600741e-01  6.00228743e-06  1.53094908e+00                                 
 6.00244032e-06  7.34314393e-01  6.00244032e-06  6.68135597e-01  6.00244032e-06  7.01001444e-01  6.00244032e-06  0.00000000e+00  6.00244032e-06  1.80375401e+00  6.00244032e-06  6.47015507e-01  6.00244032e-06  8.23158056e-01  6.00244032e-06  1.53090762e+00                                 
 6.00262904e-06  7.34310978e-01  6.00262904e-06  6.68980325e-01  6.00262904e-06  6.89295013e-01  6.00262904e-06  0.00000000e+00  6.00262904e-06  1.79669127e+00  6.00262904e-06  6.55443340e-01  6.00262904e-06  7.34666171e-01  6.00262904e-06  1.53111910e+00                                 
 6.00285421e-06  7.34314045e-01  6.00285421e-06  6.70018118e-01  6.00285421e-06  6.79303378e-01  6.00285421e-06  0.00000000e+00  6.00285421e-06  1.80189252e+00  6.00285421e-06  6.65372657e-01  6.00285421e-06  6.94104960e-01  6.00285421e-06  1.53094725e+00                                 
 6.00306489e-06  7.34311282e-01  6.00306489e-06  6.70468698e-01  6.00306489e-06  6.76084896e-01  6.00306489e-06  0.00000000e+00  6.00306489e-06  1.79887674e+00  6.00306489e-06  6.68727205e-01  6.00306489e-06  6.80554986e-01  6.00306489e-06  1.53056755e+00                                 
 6.00332477e-06  7.34314149e-01  6.00332477e-06  6.70823908e-01  6.00332477e-06  6.74068376e-01  6.00332477e-06  0.00000000e+00  6.00332477e-06  1.80082762e+00  6.00332477e-06  6.71609684e-01  6.00332477e-06  6.76038723e-01  6.00332477e-06  1.52965736e+00                                 
 6.00364422e-06  7.34311880e-01  6.00364422e-06  6.70908590e-01  6.00364422e-06  6.74388991e-01  6.00364422e-06  0.00000000e+00  6.00364422e-06  1.79943577e+00  6.00364422e-06  6.72079581e-01  6.00364422e-06  6.74118519e-01  6.00364422e-06  1.52835720e+00                                 
 6.00417483e-06  7.34314392e-01  6.00417483e-06  6.70963018e-01  6.00417483e-06  6.74933096e-01  6.00417483e-06  0.00000000e+00  6.00417483e-06  1.80049401e+00  6.00417483e-06  6.72997648e-01  6.00417483e-06  6.75115307e-01  6.00417483e-06  1.52577652e+00                                 
 6.00497780e-06  7.34312293e-01  6.00497780e-06  6.70872106e-01  6.00497780e-06  6.77361203e-01  6.00497780e-06  0.00000000e+00  6.00497780e-06  1.79958993e+00  6.00497780e-06  6.72788926e-01  6.00497780e-06  6.76671540e-01  6.00497780e-06  1.52157872e+00                                 
 6.00650245e-06  7.34314480e-01  6.00650245e-06  6.70790254e-01  6.00650245e-06  6.81157402e-01  6.00650245e-06  0.00000000e+00  6.00650245e-06  1.80040689e+00  6.00650245e-06  6.73250146e-01  6.00650245e-06  6.81205877e-01  6.00650245e-06  1.51298146e+00                                 
 6.00955175e-06  7.34312336e-01  6.00955175e-06  6.70573549e-01  6.00955175e-06  6.90124255e-01  6.00955175e-06  0.00000000e+00  6.00955175e-06  1.79963001e+00  6.00955175e-06  6.72764654e-01  6.00955175e-06  6.89367295e-01  6.00955175e-06  1.49502021e+00                                 
 6.01565034e-06  7.34314458e-01  6.01565034e-06  6.70447142e-01  6.01565034e-06  7.06594828e-01  6.01565034e-06  0.00000000e+00  6.01565034e-06  1.80038633e+00  6.01565034e-06  6.72778644e-01  6.01565034e-06  7.06632845e-01  6.01565034e-06  1.45819070e+00                                 
 6.02784753e-06  7.34312352e-01  6.02784753e-06  6.70419139e-01  6.02784753e-06  7.39165700e-01  6.02784753e-06  0.00000000e+00  6.02784753e-06  1.79963875e+00  6.02784753e-06  6.71964279e-01  6.02784753e-06  7.38288581e-01  6.02784753e-06  1.38841790e+00                                 
 6.04371784e-06  7.34314459e-01  6.04371784e-06  6.70461751e-01  6.04371784e-06  7.77814758e-01  6.04371784e-06  0.00000000e+00  6.04371784e-06  1.80037938e+00  6.04371784e-06  6.72057331e-01  6.04371784e-06  7.77924258e-01  6.04371784e-06  1.30652277e+00                                 
 6.07545845e-06  7.34312359e-01  6.07545845e-06  6.70434518e-01  6.07545845e-06  8.47330881e-01  6.07545845e-06  0.00000000e+00  6.07545845e-06  1.79963963e+00  6.07545845e-06  6.71578663e-01  6.07545845e-06  8.45861344e-01  6.07545845e-06  1.16405887e+00                                 
 6.12750618e-06  7.34314458e-01  6.12750618e-06  6.70465749e-01  6.12750618e-06  9.37898745e-01  6.12750618e-06  0.00000000e+00  6.12750618e-06  1.80037335e+00  6.12750618e-06  6.71933856e-01  6.12750618e-06  9.38578409e-01  6.12750618e-06  1.00547066e+00                                 
 6.23160164e-06  7.34312360e-01  6.23160164e-06  6.70434622e-01  6.23160164e-06  1.05824593e+00  6.23160164e-06  0.00000000e+00  6.23160164e-06  1.79963476e+00  6.23160164e-06  6.71582326e-01  6.23160164e-06  1.05568627e+00  6.23160164e-06  1.00435880e+00                                 
 6.29699042e-06  7.34314458e-01  6.29699042e-06  6.70465703e-01  6.29699042e-06  1.10200420e+00  6.29699042e-06  0.00000000e+00  6.29699042e-06  1.80036866e+00  6.29699042e-06  6.71942915e-01  6.29699042e-06  1.10334281e+00  6.29699042e-06  1.09238521e+00                                 
