 time            v(vbep)         time            v(vben)         time            v(vout)         time            v(vphi1)        time            v(vphi2)        time            v(vref)         yes             currtemp       
 0.00000000e+00  6.89033494e-01  0.00000000e+00  6.34141125e-01  0.00000000e+00  1.08830410e+00  0.00000000e+00  0.00000000e+00  0.00000000e+00  1.79995427e+00  0.00000000e+00  5.00000000e-01  1.00000000e+00  2.70000000e+01 
 5.00000000e-12  6.89004405e-01  5.00000000e-12  6.34117034e-01  5.00000000e-12  1.08905223e+00  5.00000000e-12  1.80000000e-02  5.00000000e-12  1.80006069e+00  5.00000000e-12  5.00000000e-01                                 
 1.00000000e-11  6.88976116e-01  1.00000000e-11  6.34093582e-01  1.00000000e-11  1.08973382e+00  1.00000000e-11  3.60000000e-02  1.00000000e-11  1.80011449e+00  1.00000000e-11  5.00000000e-01                                 
 2.00000000e-11  6.88920030e-01  2.00000000e-11  6.34046864e-01  2.00000000e-11  1.09099767e+00  2.00000000e-11  7.20000000e-02  2.00000000e-11  1.80016238e+00  2.00000000e-11  5.00000000e-01                                 
 4.00000000e-11  6.88808706e-01  4.00000000e-11  6.33953803e-01  4.00000000e-11  1.09307958e+00  4.00000000e-11  1.44000000e-01  4.00000000e-11  1.80012602e+00  4.00000000e-11  5.00000000e-01                                 
 8.00000000e-11  6.88587178e-01  8.00000000e-11  6.33768538e-01  8.00000000e-11  1.09615528e+00  8.00000000e-11  2.88000000e-01  8.00000000e-11  1.80005285e+00  8.00000000e-11  5.00000000e-01                                 
 1.60000000e-10  6.88148974e-01  1.60000000e-10  6.33401427e-01  1.60000000e-10  1.10000940e+00  1.60000000e-10  5.76000000e-01  1.60000000e-10  1.79999934e+00  1.60000000e-10  5.00000000e-01                                 
 3.20000000e-10  6.87290820e-01  3.20000000e-10  6.32680383e-01  3.20000000e-10  1.09551139e+00  3.20000000e-10  1.15200000e+00  3.20000000e-10  1.80039036e+00  3.20000000e-10  5.00000000e-01                                 
 5.00000000e-10  6.86353472e-01  5.00000000e-10  6.31889462e-01  5.00000000e-10  1.23684258e+00  5.00000000e-10  1.80000000e+00  5.00000000e-10  1.12282230e-01  5.00000000e-10  5.00000000e-01                                 
 5.21313022e-10  6.86244595e-01  5.21313022e-10  6.31797352e-01  5.21313022e-10  1.26928301e+00  5.21313022e-10  1.80000000e+00  5.21313022e-10  2.17511734e-02  5.21313022e-10  5.00000000e-01                                 
 5.63939067e-10  6.86027600e-01  5.63939067e-10  6.31613670e-01  5.63939067e-10  1.32777469e+00  5.63939067e-10  1.80000000e+00  5.63939067e-10 -9.99517263e-03  5.63939067e-10  5.00000000e-01                                 
 6.49191155e-10  6.85598203e-01  6.49191155e-10  6.31249665e-01  6.49191155e-10  1.42105121e+00  6.49191155e-10  1.80000000e+00  6.49191155e-10  8.57063770e-03  6.49191155e-10  5.00000000e-01                                 
 7.71474560e-10  6.84992735e-01  7.71474560e-10  6.30735200e-01  7.71474560e-10  1.52629330e+00  7.71474560e-10  1.80000000e+00  7.71474560e-10 -7.38240062e-03  7.71474560e-10  5.00000000e-01                                 
 9.62209104e-10  6.84071873e-01  9.62209104e-10  6.29950087e-01  9.62209104e-10  1.64604072e+00  9.62209104e-10  1.80000000e+00  9.62209104e-10  6.99496574e-03  9.62209104e-10  5.00000000e-01                                 
 1.34367819e-09  6.82309927e-01  1.34367819e-09  6.28439172e-01  1.34367819e-09  1.77906124e+00  1.34367819e-09  1.80000000e+00  1.34367819e-09 -6.61798313e-03  1.34367819e-09  5.00000000e-01                                 
 1.63413676e-09  6.81035321e-01  1.63413676e-09  6.27338905e-01  1.63413676e-09  1.81960960e+00  1.63413676e-09  1.80000000e+00  1.63413676e-09  6.37862235e-03  1.63413676e-09  5.00000000e-01                                 
 1.98438894e-09  6.79567806e-01  1.98438894e-09  6.26064842e-01  1.98438894e-09  1.83994430e+00  1.98438894e-09  1.80000000e+00  1.98438894e-09 -6.03937831e-03  1.98438894e-09  5.00000000e-01                                 
 2.32295794e-09  6.78215535e-01  2.32295794e-09  6.24884036e-01  2.32295794e-09  1.84680303e+00  2.32295794e-09  1.80000000e+00  2.32295794e-09  5.87213217e-03  2.32295794e-09  5.00000000e-01                                 
 2.67381109e-09  6.76876948e-01  2.67381109e-09  6.23708914e-01  2.67381109e-09  1.84873661e+00  2.67381109e-09  1.80000000e+00  2.67381109e-09 -5.57834015e-03  2.67381109e-09  5.00000000e-01                                 
 3.11488797e-09  6.75276383e-01  3.11488797e-09  6.22295876e-01  3.11488797e-09  1.84878968e+00  3.11488797e-09  1.80000000e+00  3.11488797e-09  5.43839402e-03  3.11488797e-09  5.00000000e-01                                 
 3.57335758e-09  6.73701036e-01  3.57335758e-09  6.20896813e-01  3.57335758e-09  1.84791742e+00  3.57335758e-09  1.80000000e+00  3.57335758e-09 -5.24582816e-03  3.57335758e-09  5.00000000e-01                                 
 4.21736941e-09  6.71622731e-01  4.21736941e-09  6.19039047e-01  4.21736941e-09  1.84656169e+00  4.21736941e-09  1.80000000e+00  4.21736941e-09  5.15275036e-03  4.21736941e-09  5.00000000e-01                                 
 5.09062825e-09  6.69023348e-01  5.09062825e-09  6.16696952e-01  5.09062825e-09  1.84470326e+00  5.09062825e-09  1.80000000e+00  5.09062825e-09 -5.04981067e-03  5.09062825e-09  5.00000000e-01                                 
 6.75642014e-09  6.64626608e-01  6.75642014e-09  6.12692421e-01  6.75642014e-09  1.84159156e+00  6.75642014e-09  1.80000000e+00  6.75642014e-09  5.02659214e-03  6.75642014e-09  5.00000000e-01                                 
 9.88581634e-09  6.57819198e-01  9.88581634e-09  6.06395898e-01  9.88581634e-09  1.83621163e+00  9.88581634e-09  1.80000000e+00  9.88581634e-09 -4.98407803e-03  9.88581634e-09  5.00000000e-01                                 
 1.61446087e-08  6.47666132e-01  1.61446087e-08  5.96820655e-01  1.61446087e-08  1.82455768e+00  1.61446087e-08  1.80000000e+00  1.61446087e-08  4.99318712e-03  1.61446087e-08  5.00000000e-01                                 
 2.86621935e-08  6.34066118e-01  2.86621935e-08  5.83749333e-01  2.86621935e-08  1.78863044e+00  2.86621935e-08  1.80000000e+00  2.86621935e-08 -4.96679509e-03  2.86621935e-08  5.00000000e-01                                 
 4.43667846e-08  6.22149133e-01  4.43667846e-08  5.72294758e-01  4.43667846e-08  1.73959849e+00  4.43667846e-08  1.80000000e+00  4.43667846e-08  4.98351257e-03  4.43667846e-08  5.00000000e-01                                 
 5.82865333e-08  6.13792515e-01  5.82865333e-08  5.64339000e-01  5.82865333e-08  1.71178947e+00  5.82865333e-08  1.80000000e+00  5.82865333e-08 -4.95720708e-03  5.82865333e-08  5.00000000e-01                                 
 7.28159151e-08  6.04497231e-01  7.28159151e-08  5.55857727e-01  7.28159151e-08  1.63091510e+00  7.28159151e-08  1.80000000e+00  7.28159151e-08  4.97360768e-03  7.28159151e-08  5.00000000e-01                                 
 8.91648345e-08  5.96055097e-01  8.91648345e-08  5.48136226e-01  8.91648345e-08  1.52462997e+00  8.91648345e-08  1.80000000e+00  8.91648345e-08 -4.94803321e-03  8.91648345e-08  5.00000000e-01                                 
 1.04707707e-07  5.89116049e-01  1.04707707e-07  5.41817956e-01  1.04707707e-07  1.43410233e+00  1.04707707e-07  1.80000000e+00  1.04707707e-07  4.96492408e-03  1.04707707e-07  5.00000000e-01                                 
 1.30203866e-07  5.81387060e-01  1.30203866e-07  5.34569619e-01  1.30203866e-07  1.28289152e+00  1.30203866e-07  1.80000000e+00  1.30203866e-07 -4.94075805e-03  1.30203866e-07  5.00000000e-01                                 
 1.57192808e-07  5.85582355e-01  1.57192808e-07  5.36860481e-01  1.57192808e-07  1.16417289e+00  1.57192808e-07  1.80000000e+00  1.57192808e-07  4.96007242e-03  1.57192808e-07  5.00000000e-01                                 
 1.76489830e-07  5.86911587e-01  1.76489830e-07  5.37251101e-01  1.76489830e-07  1.04196956e+00  1.76489830e-07  1.80000000e+00  1.76489830e-07 -4.93476482e-03  1.76489830e-07  5.00000000e-01                                 
 1.97695824e-07  5.80767298e-01  1.97695824e-07  5.31740085e-01  1.97695824e-07  9.27288557e-01  1.97695824e-07  1.80000000e+00  1.97695824e-07  4.95292015e-03  1.97695824e-07  5.00000000e-01                                 
 2.18954849e-07  5.75182105e-01  2.18954849e-07  5.26737735e-01  2.18954849e-07  8.43004819e-01  2.18954849e-07  1.80000000e+00  2.18954849e-07 -4.92832057e-03  2.18954849e-07  5.00000000e-01                                 
 2.39211758e-07  5.70123511e-01  2.39211758e-07  5.22234104e-01  2.39211758e-07  7.84664059e-01  2.39211758e-07  1.80000000e+00  2.39211758e-07  4.94630705e-03  2.39211758e-07  5.00000000e-01                                 
 2.71178813e-07  5.61342496e-01  2.71178813e-07  5.14589311e-01  2.71178813e-07  7.04019317e-01  2.71178813e-07  1.80000000e+00  2.71178813e-07 -4.92286648e-03  2.71178813e-07  5.00000000e-01                                 
 3.12597020e-07  5.50964895e-01  3.12597020e-07  5.05621334e-01  3.12597020e-07  6.13227855e-01  3.12597020e-07  1.80000000e+00  3.12597020e-07  4.94253384e-03  3.12597020e-07  5.00000000e-01                                 
 3.80577915e-07  5.31222783e-01  3.80577915e-07  4.89044646e-01  3.80577915e-07  5.00728069e-01  3.80577915e-07  1.80000000e+00  3.80577915e-07 -4.92026732e-03  3.80577915e-07  5.00000000e-01                                 
 4.66262549e-07  5.11850603e-01  4.66262549e-07  4.72887715e-01  4.66262549e-07  4.49153749e-01  4.66262549e-07  1.80000000e+00  4.66262549e-07  4.94079985e-03  4.66262549e-07  5.00000000e-01                                 
 5.29283884e-07  4.86959467e-01  5.29283884e-07  4.52739863e-01  5.29283884e-07  4.32679764e-01  5.29283884e-07  1.80000000e+00  5.29283884e-07 -4.91855768e-03  5.29283884e-07  5.00000000e-01                                 
 5.97777031e-07  4.56209386e-01  5.97777031e-07  4.28050780e-01  5.97777031e-07  5.16726607e-01  5.97777031e-07  1.80000000e+00  5.97777031e-07  4.93869700e-03  5.97777031e-07  5.00000000e-01                                 
 6.68542569e-07  6.24823475e-01  6.68542569e-07  5.65400175e-01  6.68542569e-07  6.42602310e-01  6.68542569e-07  1.80000000e+00  6.68542569e-07 -4.91403000e-03  6.68542569e-07  5.00000000e-01                                 
 6.70771420e-07  6.36859845e-01  6.70771420e-07  5.75374320e-01  6.70771420e-07  6.43427212e-01  6.70771420e-07  1.80000000e+00  6.70771420e-07 -4.17309249e-06  6.70771420e-07  5.00000000e-01                                 
 6.75229124e-07  6.61420493e-01  6.75229124e-07  5.96668856e-01  6.75229124e-07  6.42263524e-01  6.75229124e-07  1.80000000e+00  6.75229124e-07  1.08653755e-05  6.75229124e-07  5.00000000e-01                                 
 6.84144530e-07  7.00412474e-01  6.84144530e-07  6.38057318e-01  6.84144530e-07  6.28348698e-01  6.84144530e-07  1.80000000e+00  6.84144530e-07 -4.54446000e-06  6.84144530e-07  5.00000000e-01                                 
 6.98553921e-07  7.31015111e-01  6.98553921e-07  6.74589485e-01  6.98553921e-07  5.88820699e-01  6.98553921e-07  1.80000000e+00  6.98553921e-07  8.42687058e-06  6.98553921e-07  5.00000000e-01                                 
 7.16964860e-07  7.61144473e-01  7.16964860e-07  7.03611728e-01  7.16964860e-07  5.51360539e-01  7.16964860e-07  1.80000000e+00  7.16964860e-07 -5.37417804e-06  7.16964860e-07  5.00000000e-01                                 
 7.43391425e-07  7.86514685e-01  7.43391425e-07  7.26920902e-01  7.43391425e-07  5.21810023e-01  7.43391425e-07  1.80000000e+00  7.43391425e-07  7.58720224e-06  7.43391425e-07  5.00000000e-01                                 
 7.73189937e-07  7.92412991e-01  7.73189937e-07  7.32053658e-01  7.73189937e-07  5.02913123e-01  7.73189937e-07  1.80000000e+00  7.73189937e-07 -6.45972629e-06  7.73189937e-07  5.00000000e-01                                 
 8.18406643e-07  7.94372123e-01  8.18406643e-07  7.33749719e-01  8.18406643e-07  4.93474499e-01  8.18406643e-07  1.80000000e+00  8.18406643e-07  7.38140671e-06  8.18406643e-07  5.00000000e-01                                 
 8.65999247e-07  7.95407717e-01  8.65999247e-07  7.34624734e-01  8.65999247e-07  4.91189529e-01  8.65999247e-07  1.80000000e+00  8.65999247e-07 -6.50434644e-06  8.65999247e-07  5.00000000e-01                                 
 8.74638234e-07  7.95563531e-01  8.74638234e-07  7.34760965e-01  8.74638234e-07  4.91099797e-01  8.74638234e-07  1.80000000e+00  8.74638234e-07  4.46553062e-07  8.74638234e-07  5.00000000e-01                                 
 8.91916208e-07  7.95973043e-01  8.91916208e-07  7.35110172e-01  8.91916208e-07  4.90803304e-01  8.91916208e-07  1.80000000e+00  8.91916208e-07  4.39260255e-07  8.91916208e-07  5.00000000e-01                                 
 9.26472157e-07  7.96906156e-01  9.26472157e-07  7.35901237e-01  9.26472157e-07  4.90038782e-01  9.26472157e-07  1.80000000e+00  9.26472157e-07  4.50114049e-07  9.26472157e-07  5.00000000e-01                                 
 9.93841766e-07  7.93070201e-01  9.93841766e-07  7.32638436e-01  9.93841766e-07  4.84813836e-01  9.93841766e-07  1.80000000e+00  9.93841766e-07  3.24526547e-07  9.93841766e-07  5.00000000e-01                                 
 1.00269682e-06  7.89933631e-01  1.00269682e-06  7.29938622e-01  1.00269682e-06  4.82528785e-01  1.00269682e-06  1.80000000e+00  1.00269682e-06  1.84761490e-07  1.00269682e-06  5.00000000e-01                                 
 1.02040692e-06  7.82296515e-01  1.02040692e-06  7.23223131e-01  1.02040692e-06  4.78214398e-01  1.02040692e-06  1.80000000e+00  1.02040692e-06  7.54033689e-08  1.02040692e-06  5.00000000e-01                                 
 1.05582714e-06  7.75967853e-01  1.05582714e-06  7.17491208e-01  1.05582714e-06  4.98499620e-01  1.05582714e-06  1.80000000e+00  1.05582714e-06  5.32887414e-07  1.05582714e-06  5.00000000e-01                                 
 1.10388097e-06  7.85030888e-01  1.10388097e-06  7.25609629e-01  1.10388097e-06  5.27814081e-01  1.10388097e-06  1.80000000e+00  1.10388097e-06  5.70666180e-07  1.10388097e-06  5.00000000e-01                                 
 1.16308920e-06  7.89189809e-01  1.16308920e-06  7.29274343e-01  1.16308920e-06  4.98258690e-01  1.16308920e-06  1.80000000e+00  1.16308920e-06  3.77796760e-07  1.16308920e-06  5.00000000e-01                                 
 1.23383007e-06  7.83323892e-01  1.23383007e-06  7.24115094e-01  1.23383007e-06  4.77109499e-01  1.23383007e-06  1.80000000e+00  1.23383007e-06  3.64839897e-07  1.23383007e-06  5.00000000e-01                                 
 1.30740797e-06  7.82488239e-01  1.30740797e-06  7.23360875e-01  1.30740797e-06  5.14922526e-01  1.30740797e-06  1.80000000e+00  1.30740797e-06  4.72831180e-07  1.30740797e-06  5.00000000e-01                                 
 1.39227856e-06  7.87635390e-01  1.39227856e-06  7.27911152e-01  1.39227856e-06  5.07994601e-01  1.39227856e-06  1.80000000e+00  1.39227856e-06  4.57501444e-07  1.39227856e-06  5.00000000e-01                                 
 1.47474020e-06  7.84269511e-01  1.47474020e-06  7.24954671e-01  1.47474020e-06  4.70986030e-01  1.47474020e-06  1.80000000e+00  1.47474020e-06  3.43146633e-07  1.47474020e-06  5.00000000e-01                                 
 1.55520262e-06  7.83302587e-01  1.55520262e-06  7.24084753e-01  1.55520262e-06  5.16634762e-01  1.55520262e-06  1.80000000e+00  1.55520262e-06  4.95207111e-07  1.55520262e-06  5.00000000e-01                                 
 1.63965922e-06  7.86566114e-01  1.63965922e-06  7.26975354e-01  1.63965922e-06  5.09374752e-01  1.63965922e-06  1.80000000e+00  1.63965922e-06  4.02929921e-07  1.63965922e-06  5.00000000e-01                                 
 1.72131409e-06  7.84597886e-01  1.72131409e-06  7.25240656e-01  1.72131409e-06  4.67384034e-01  1.72131409e-06  1.80000000e+00  1.72131409e-06  4.21629218e-07  1.72131409e-06  5.00000000e-01                                 
 1.79490266e-06  7.83879087e-01  1.79490266e-06  7.24600976e-01  1.79490266e-06  5.14692150e-01  1.79490266e-06  1.80000000e+00  1.79490266e-06  4.20691464e-07  1.79490266e-06  5.00000000e-01                                 
 1.87495423e-06  7.85765985e-01  1.87495423e-06  7.26268687e-01  1.87495423e-06  5.14002758e-01  1.87495423e-06  1.80000000e+00  1.87495423e-06  4.55881187e-07  1.87495423e-06  5.00000000e-01                                 
 1.95058281e-06  7.84983544e-01  1.95058281e-06  7.25582439e-01  1.95058281e-06  4.71417008e-01  1.95058281e-06  1.80000000e+00  1.95058281e-06  3.86989700e-07  1.95058281e-06  5.00000000e-01                                 
 1.96373178e-06  7.84665988e-01  1.96373178e-06  7.25300350e-01  1.96373178e-06  4.74246655e-01  1.96373178e-06  1.80000000e+00  1.96373178e-06  4.12062377e-07  1.96373178e-06  5.00000000e-01                                 
 1.99002971e-06  7.84325043e-01  1.99002971e-06  7.24997172e-01  1.99002971e-06  4.87648650e-01  1.99002971e-06  1.80000000e+00  1.99002971e-06  4.28767305e-07  1.99002971e-06  5.00000000e-01                                 
 2.04262558e-06  7.84799100e-01  2.04262558e-06  7.25415602e-01  2.04262558e-06  5.26998093e-01  2.04262558e-06  1.80000000e+00  2.04262558e-06  4.35446632e-07  2.04262558e-06  5.00000000e-01                                 
 2.09949697e-06  7.85287582e-01  2.09949697e-06  7.25848320e-01  2.09949697e-06  5.07257658e-01  2.09949697e-06  1.80000000e+00  2.09949697e-06  4.17837313e-07  2.09949697e-06  5.00000000e-01                                 
 2.16138182e-06  7.84843047e-01  2.16138182e-06  7.25456237e-01  2.16138182e-06  4.68374392e-01  2.16138182e-06  1.80000000e+00  2.16138182e-06  4.31893519e-07  2.16138182e-06  5.00000000e-01                                 
 2.17384034e-06  7.84747280e-01  2.17384034e-06  7.25371256e-01  2.17384034e-06  4.72334015e-01  2.17384034e-06  1.80000000e+00  2.17384034e-06  4.23667668e-07  2.17384034e-06  5.00000000e-01                                 
 2.19875737e-06  7.84667052e-01  2.19875737e-06  7.25299785e-01  2.19875737e-06  4.88167642e-01  2.19875737e-06  1.80000000e+00  2.19875737e-06  4.31860845e-07  2.19875737e-06  5.00000000e-01                                 
 2.24859143e-06  7.84883786e-01  2.24859143e-06  7.25491104e-01  2.24859143e-06  5.29383043e-01  2.24859143e-06  1.80000000e+00  2.24859143e-06  4.25214254e-07  2.24859143e-06  5.00000000e-01                                 
 2.30073582e-06  7.85047787e-01  2.30073582e-06  7.25636520e-01  2.30073582e-06  5.08744457e-01  2.30073582e-06  1.80000000e+00  2.30073582e-06  4.18678067e-07  2.30073582e-06  5.00000000e-01                                 
 2.35861457e-06  7.84878088e-01  2.35861457e-06  7.25486751e-01  2.35861457e-06  4.68333300e-01  2.35861457e-06  1.80000000e+00  2.35861457e-06  4.37739650e-07  2.35861457e-06  5.00000000e-01                                 
 2.41468425e-06  7.84797166e-01  2.41468425e-06  7.25414830e-01  2.41468425e-06  4.96855441e-01  2.41468425e-06  1.80000000e+00  2.41468425e-06  4.17696412e-07  2.41468425e-06  5.00000000e-01                                 
 2.47905571e-06  7.84937075e-01  2.47905571e-06  7.25538484e-01  2.47905571e-06  5.26118470e-01  2.47905571e-06  1.80000000e+00  2.47905571e-06  4.32952822e-07  2.47905571e-06  5.00000000e-01                                 
 2.55731014e-06  7.84934652e-01  2.55731014e-06  7.25536623e-01  2.55731014e-06  4.97993452e-01  2.55731014e-06  1.80000000e+00  2.55731014e-06  4.16925171e-07  2.55731014e-06  5.00000000e-01                                 
 2.63221226e-06  7.84839885e-01  2.63221226e-06  7.25452708e-01  2.63221226e-06  4.77592666e-01  2.63221226e-06  1.80000000e+00  2.63221226e-06  4.36994498e-07  2.63221226e-06  5.00000000e-01                                 
