 time            v(vbep)         time            v(vben)         time            v(vout)         time            v(vphi1)        time            v(vphi2)        time            v(vref)         yes             currtemp       
 0.00000000e+00  7.20633062e-01  0.00000000e+00  6.62410748e-01  0.00000000e+00  1.00835511e+00  0.00000000e+00  0.00000000e+00  0.00000000e+00  1.79963848e+00  0.00000000e+00  5.00000000e-01  1.00000000e+00  4.10000000e+01 
 5.00000000e-12  7.20443987e-01  5.00000000e-12  6.62282089e-01  5.00000000e-12  1.00910046e+00  5.00000000e-12  1.80000000e-02  5.00000000e-12  1.79981829e+00  5.00000000e-12  5.00000000e-01                                 
 1.00000000e-11  7.20284855e-01  1.00000000e-11  6.62169471e-01  1.00000000e-11  1.00977838e+00  1.00000000e-11  3.60000000e-02  1.00000000e-11  1.79993163e+00  1.00000000e-11  5.00000000e-01                                 
 2.00000000e-11  7.19998122e-01  2.00000000e-11  6.61949761e-01  2.00000000e-11  1.01103130e+00  2.00000000e-11  7.20000000e-02  2.00000000e-11  1.80007829e+00  2.00000000e-11  5.00000000e-01                                 
 4.00000000e-11  7.19498932e-01  4.00000000e-11  6.61518231e-01  4.00000000e-11  1.01307673e+00  4.00000000e-11  1.44000000e-01  4.00000000e-11  1.80011881e+00  4.00000000e-11  5.00000000e-01                                 
 8.00000000e-11  7.18535234e-01  8.00000000e-11  6.60665349e-01  8.00000000e-11  1.01603116e+00  8.00000000e-11  2.88000000e-01  8.00000000e-11  1.80005346e+00  8.00000000e-11  5.00000000e-01                                 
 1.60000000e-10  7.16656620e-01  1.60000000e-10  6.59002438e-01  1.60000000e-10  1.01966998e+00  1.60000000e-10  5.76000000e-01  1.60000000e-10  1.79999901e+00  1.60000000e-10  5.00000000e-01                                 
 3.20000000e-10  7.13085338e-01  3.20000000e-10  6.55834272e-01  3.20000000e-10  1.01551781e+00  3.20000000e-10  1.15200000e+00  3.20000000e-10  1.80042901e+00  3.20000000e-10  5.00000000e-01                                 
 5.00000000e-10  7.09350404e-01  5.00000000e-10  6.52509748e-01  5.00000000e-10  1.16961915e+00  5.00000000e-10  1.80000000e+00  5.00000000e-10  1.18484711e-01  5.00000000e-10  5.00000000e-01                                 
 5.21559138e-10  7.08925495e-01  5.21559138e-10  6.52130552e-01  5.21559138e-10  1.20500754e+00  5.21559138e-10  1.80000000e+00  5.21559138e-10  2.37507696e-02  5.21559138e-10  5.00000000e-01                                 
 5.64677415e-10  7.08081916e-01  5.64677415e-10  6.51377009e-01  5.64677415e-10  1.26932936e+00  5.64677415e-10  1.80000000e+00  5.64677415e-10 -1.07196122e-02  5.64677415e-10  5.00000000e-01                                 
 6.50913968e-10  7.06437971e-01  6.50913968e-10  6.49907117e-01  6.50913968e-10  1.37304077e+00  6.50913968e-10  1.80000000e+00  6.50913968e-10  9.13791999e-03  6.50913968e-10  5.00000000e-01                                 
 7.73121017e-10  7.04204838e-01  7.73121017e-10  6.47905734e-01  7.73121017e-10  1.48912524e+00  7.73121017e-10  1.80000000e+00  7.73121017e-10 -7.79167817e-03  7.73121017e-10  5.00000000e-01                                 
 9.65039657e-10  7.00906885e-01  9.65039657e-10  6.44940419e-01  9.65039657e-10  1.62268875e+00  9.65039657e-10  1.80000000e+00  9.65039657e-10  7.35816804e-03  9.65039657e-10  5.00000000e-01                                 
 1.34887694e-09  6.94970398e-01  1.34887694e-09  6.39572222e-01  1.34887694e-09  1.77126910e+00  1.34887694e-09  1.80000000e+00  1.34887694e-09 -6.94148722e-03  1.34887694e-09  5.00000000e-01                                 
 1.62986060e-09  6.91129755e-01  1.62986060e-09  6.36073325e-01  1.62986060e-09  1.81493949e+00  1.62986060e-09  1.80000000e+00  1.62986060e-09  6.65714045e-03  1.62986060e-09  5.00000000e-01                                 
 1.97568682e-09  6.86871154e-01  1.97568682e-09  6.32169572e-01  1.97568682e-09  1.83669219e+00  1.97568682e-09  1.80000000e+00  1.97568682e-09 -6.28346697e-03  1.97568682e-09  5.00000000e-01                                 
 2.29737521e-09  6.83305369e-01  2.29737521e-09  6.28881339e-01  2.29737521e-09  1.84289960e+00  2.29737521e-09  1.80000000e+00  2.29737521e-09  6.07665677e-03  2.29737521e-09  5.00000000e-01                                 
 2.66187592e-09  6.79648269e-01  2.66187592e-09  6.25489575e-01  2.66187592e-09  1.84393064e+00  2.66187592e-09  1.80000000e+00  2.66187592e-09 -5.76767968e-03  2.66187592e-09  5.00000000e-01                                 
 3.10262844e-09  6.75676799e-01  3.10262844e-09  6.21785332e-01  3.10262844e-09  1.84252132e+00  3.10262844e-09  1.80000000e+00  3.10262844e-09  5.60824542e-03  3.10262844e-09  5.00000000e-01                                 
 3.57133594e-09  6.71903951e-01  3.57133594e-09  6.18245307e-01  3.57133594e-09  1.84012136e+00  3.57133594e-09  1.80000000e+00  3.57133594e-09 -5.40646387e-03  3.57133594e-09  5.00000000e-01                                 
 4.19492041e-09  6.67457463e-01  4.19492041e-09  6.14048945e-01  4.19492041e-09  1.83707965e+00  4.19492041e-09  1.80000000e+00  4.19492041e-09  5.29518195e-03  4.19492041e-09  5.00000000e-01                                 
 5.04344333e-09  6.62229524e-01  5.04344333e-09  6.09082057e-01  5.04344333e-09  1.83332745e+00  5.04344333e-09  1.80000000e+00  5.04344333e-09 -5.18453112e-03  5.04344333e-09  5.00000000e-01                                 
 6.56339244e-09  6.54536881e-01  6.56339244e-09  6.01715779e-01  6.56339244e-09  1.82795356e+00  6.56339244e-09  1.80000000e+00  6.56339244e-09  5.15138041e-03  6.56339244e-09  5.00000000e-01                                 
 9.38364786e-09  6.43823466e-01  9.38364786e-09  5.91353775e-01  9.38364786e-09  1.82041802e+00  9.38364786e-09  1.80000000e+00  9.38364786e-09 -5.10468265e-03  9.38364786e-09  5.00000000e-01                                 
 1.50241587e-08  6.29464860e-01  1.50241587e-08  5.77310155e-01  1.50241587e-08  1.81047666e+00  1.50241587e-08  1.80000000e+00  1.50241587e-08  5.11199859e-03  1.50241587e-08  5.00000000e-01                                 
 2.46504765e-08  6.14508686e-01  2.46504765e-08  5.62528723e-01  2.46504765e-08  1.80005868e+00  2.46504765e-08  1.80000000e+00  2.46504765e-08 -5.08207692e-03  2.46504765e-08  5.00000000e-01                                 
 3.78260865e-08  6.01897949e-01  3.78260865e-08  5.49978307e-01  3.78260865e-08  1.79133526e+00  3.78260865e-08  1.80000000e+00  3.78260865e-08  5.09905745e-03  3.78260865e-08  5.00000000e-01                                 
 5.94373720e-08  5.88660837e-01  5.94373720e-08  5.36750130e-01  5.94373720e-08  1.78201641e+00  5.94373720e-08  1.80000000e+00  5.94373720e-08 -5.07247733e-03  5.94373720e-08  5.00000000e-01                                 
 9.33691571e-08  5.75747574e-01  9.33691571e-08  5.23762920e-01  9.33691571e-08  1.77575920e+00  9.33691571e-08  1.80000000e+00  9.33691571e-08  5.09361216e-03  9.33691571e-08  5.00000000e-01                                 
 1.56284527e-07  5.62281788e-01  1.56284527e-07  5.09906701e-01  1.56284527e-07  1.78801301e+00  1.56284527e-07  1.80000000e+00  1.56284527e-07 -5.06895988e-03  1.56284527e-07  5.00000000e-01                                 
 1.94021208e-07  5.56748318e-01  1.94021208e-07  5.04230902e-01  1.94021208e-07  1.75342550e+00  1.94021208e-07  1.80000000e+00  1.94021208e-07  5.09049956e-03  1.94021208e-07  5.00000000e-01                                 
 2.29516941e-07  5.48341089e-01  2.29516941e-07  4.96567763e-01  2.29516941e-07  1.64993185e+00  2.29516941e-07  1.80000000e+00  2.29516941e-07 -5.06498416e-03  2.29516941e-07  5.00000000e-01                                 
 2.56127629e-07  5.37345863e-01  2.56127629e-07  4.87213302e-01  2.56127629e-07  1.58321282e+00  2.56127629e-07  1.80000000e+00  2.56127629e-07  5.08541902e-03  2.56127629e-07  5.00000000e-01                                 
 2.84783332e-07  5.28313914e-01  2.84783332e-07  4.79452374e-01  2.84783332e-07  1.43629562e+00  2.84783332e-07  1.80000000e+00  2.84783332e-07 -5.05955111e-03  2.84783332e-07  5.00000000e-01                                 
 3.08480450e-07  5.26869294e-01  3.08480450e-07  4.77856497e-01  3.08480450e-07  1.32555522e+00  3.08480450e-07  1.80000000e+00  3.08480450e-07  5.07996000e-03  3.08480450e-07  5.00000000e-01                                 
 3.33196090e-07  5.32149828e-01  3.33196090e-07  4.81587149e-01  3.33196090e-07  1.23047078e+00  3.33196090e-07  1.80000000e+00  3.33196090e-07 -5.05322683e-03  3.33196090e-07  5.00000000e-01                                 
 3.52088337e-07  5.32777003e-01  3.52088337e-07  4.81748003e-01  3.52088337e-07  1.11129573e+00  3.52088337e-07  1.80000000e+00  3.52088337e-07  5.07285152e-03  3.52088337e-07  5.00000000e-01                                 
 3.73443571e-07  5.28099613e-01  3.73443571e-07  4.77683687e-01  3.73443571e-07  9.86644883e-01  3.73443571e-07  1.80000000e+00  3.73443571e-07 -5.04612831e-03  3.73443571e-07  5.00000000e-01                                 
 3.98273510e-07  5.22672206e-01  3.98273510e-07  4.72997598e-01  3.98273510e-07  8.79188075e-01  3.98273510e-07  1.80000000e+00  3.98273510e-07  5.06638222e-03  3.98273510e-07  5.00000000e-01                                 
 4.24520686e-07  5.16872403e-01  4.24520686e-07  4.68028638e-01  4.24520686e-07  7.98281090e-01  4.24520686e-07  1.80000000e+00  4.24520686e-07 -5.04037542e-03  4.24520686e-07  5.00000000e-01                                 
 4.71084136e-07  5.06176539e-01  4.71084136e-07  4.58970948e-01  4.71084136e-07  6.82892958e-01  4.71084136e-07  1.80000000e+00  4.71084136e-07  5.06195861e-03  4.71084136e-07  5.00000000e-01                                 
 5.28173000e-07  4.92183663e-01  5.28173000e-07  4.47295758e-01  5.28173000e-07  5.57585989e-01  5.28173000e-07  1.80000000e+00  5.28173000e-07 -5.03753206e-03  5.28173000e-07  5.00000000e-01                                 
 6.22325895e-07  4.71233476e-01  6.22325895e-07  4.29966514e-01  6.22325895e-07  4.58697883e-01  6.22325895e-07  1.80000000e+00  6.22325895e-07  5.05990760e-03  6.22325895e-07  5.00000000e-01                                 
 7.12315161e-07  4.36633705e-01  7.12315161e-07  4.02029787e-01  7.12315161e-07  4.36223969e-01  7.12315161e-07  1.80000000e+00  7.12315161e-07 -5.03609277e-03  7.12315161e-07  5.00000000e-01                                 
 7.85456100e-07  4.08198858e-01  7.85456100e-07  3.79213667e-01  7.85456100e-07  5.11309850e-01  7.85456100e-07  1.80000000e+00  7.85456100e-07  5.05809417e-03  7.85456100e-07  5.00000000e-01                                 
 8.71794147e-07  7.10458090e-01  8.71794147e-07  6.50775949e-01  8.71794147e-07  6.60138386e-01  8.71794147e-07  1.80000000e+00  8.71794147e-07 -5.03004690e-03  8.71794147e-07  5.00000000e-01                                 
 9.42725140e-07  7.88146438e-01  9.42725140e-07  7.21844842e-01  9.42725140e-07  5.10021617e-01  9.42725140e-07  1.80000000e+00  9.42725140e-07  5.05397695e-03  9.42725140e-07  5.00000000e-01                                 
 1.00336064e-06  7.99266300e-01  1.00336064e-06  7.30604724e-01  1.00336064e-06  4.67112605e-01  1.00336064e-06  1.80000000e+00  1.00336064e-06 -5.02909680e-03  1.00336064e-06  5.00000000e-01                                 
 1.04652246e-06  7.98383419e-01  1.04652246e-06  7.29934738e-01  1.04652246e-06  4.67383620e-01  1.04652246e-06  1.80000000e+00  1.04652246e-06  5.05067661e-03  1.04652246e-06  5.00000000e-01                                 
 1.09367735e-06  7.61428393e-01  1.09367735e-06  6.99349467e-01  1.09367735e-06  4.41889991e-01  1.09367735e-06  1.80000000e+00  1.09367735e-06 -5.02689533e-03  1.09367735e-06  5.00000000e-01                                 
 1.13596448e-06  7.19494518e-01  1.13596448e-06  6.60484928e-01  1.13596448e-06  4.67439158e-01  1.13596448e-06  1.80000000e+00  1.13596448e-06  5.04700197e-03  1.13596448e-06  5.00000000e-01                                 
 1.17756431e-06  7.37169757e-01  1.17756431e-06  6.76955790e-01  1.17756431e-06  5.71908564e-01  1.17756431e-06  1.80000000e+00  1.17756431e-06 -5.02131008e-03  1.17756431e-06  5.00000000e-01                                 
 1.21171694e-06  7.58590803e-01  1.21171694e-06  6.96734052e-01  1.21171694e-06  5.54957631e-01  1.21171694e-06  1.80000000e+00  1.21171694e-06  5.04326732e-03  1.21171694e-06  5.00000000e-01                                 
 1.24625814e-06  7.68693093e-01  1.24625814e-06  7.05631623e-01  1.24625814e-06  4.88845649e-01  1.24625814e-06  1.80000000e+00  1.24625814e-06 -5.01739085e-03  1.24625814e-06  5.00000000e-01                                 
 1.28361278e-06  7.74402472e-01  1.28361278e-06  7.10481777e-01  1.28361278e-06  4.91062828e-01  1.28361278e-06  1.80000000e+00  1.28361278e-06  5.03883749e-03  1.28361278e-06  5.00000000e-01                                 
 1.32241392e-06  7.74621255e-01  1.32241392e-06  7.10727138e-01  1.32241392e-06  4.90189372e-01  1.32241392e-06  1.80000000e+00  1.32241392e-06 -5.01369064e-03  1.32241392e-06  5.00000000e-01                                 
 1.37327948e-06  7.59264753e-01  1.37327948e-06  6.97375115e-01  1.37327948e-06  4.85867792e-01  1.37327948e-06  1.80000000e+00  1.37327948e-06  5.03496403e-03  1.37327948e-06  5.00000000e-01                                 
 1.43650614e-06  7.55822796e-01  1.43650614e-06  6.94255825e-01  1.43650614e-06  5.09106250e-01  1.43650614e-06  1.80000000e+00  1.43650614e-06 -5.01068604e-03  1.43650614e-06  5.00000000e-01                                 
 1.50039505e-06  7.70333391e-01  1.50039505e-06  7.07012768e-01  1.50039505e-06  5.11426335e-01  1.50039505e-06  1.80000000e+00  1.50039505e-06  5.03299672e-03  1.50039505e-06  5.00000000e-01                                 
 1.59313701e-06  7.64071729e-01  1.59313701e-06  7.01633007e-01  1.59313701e-06  4.81566691e-01  1.59313701e-06  1.80000000e+00  1.59313701e-06 -5.00913482e-03  1.59313701e-06  5.00000000e-01                                 
 1.69363284e-06  7.59282317e-01  1.69363284e-06  6.97349776e-01  1.69363284e-06  5.13634941e-01  1.69363284e-06  1.80000000e+00  1.69363284e-06  5.03145359e-03  1.69363284e-06  5.00000000e-01                                 
 1.81268547e-06  7.68228861e-01  1.81268547e-06  7.05247202e-01  1.81268547e-06  4.99646163e-01  1.81268547e-06  1.80000000e+00  1.81268547e-06 -5.00758429e-03  1.81268547e-06  5.00000000e-01                                 
 1.96646692e-06  7.60876832e-01  1.96646692e-06  6.98777115e-01  1.96646692e-06  4.89700581e-01  1.96646692e-06  1.80000000e+00  1.96646692e-06  5.03015318e-03  1.96646692e-06  5.00000000e-01                                 
 1.98734173e-06  7.61313444e-01  1.98734173e-06  6.99172693e-01  1.98734173e-06  5.02160295e-01  1.98734173e-06  1.80000000e+00  1.98734173e-06  1.97843539e-06  1.98734173e-06  5.00000000e-01                                 
 2.02909134e-06  7.63253729e-01  2.02909134e-06  7.00879688e-01  2.02909134e-06  5.10556785e-01  2.02909134e-06  1.80000000e+00  2.02909134e-06  1.47188622e-07  2.02909134e-06  5.00000000e-01                                 
 2.11259056e-06  7.65925421e-01  2.11259056e-06  7.03225317e-01  2.11259056e-06  4.94591473e-01  2.11259056e-06  1.80000000e+00  2.11259056e-06  1.96468347e-06  2.11259056e-06  5.00000000e-01                                 
 2.21100828e-06  7.63026847e-01  2.21100828e-06  7.00687009e-01  2.21100828e-06  4.98744018e-01  2.21100828e-06  1.80000000e+00  2.21100828e-06  5.83401606e-08  2.21100828e-06  5.00000000e-01                                 
 2.31573477e-06  7.63933402e-01  2.31573477e-06  7.01478552e-01  2.31573477e-06  5.05453247e-01  2.31573477e-06  1.80000000e+00  2.31573477e-06  2.01729961e-06  2.31573477e-06  5.00000000e-01                                 
 2.50668879e-06  7.64829207e-01  2.50668879e-06  7.02269161e-01  2.50668879e-06  4.94798329e-01  2.50668879e-06  1.80000000e+00  2.50668879e-06  5.45652293e-08  2.50668879e-06  5.00000000e-01                                 
 2.73345520e-06  7.63128580e-01  2.73345520e-06  7.00772682e-01  2.73345520e-06  5.04689626e-01  2.73345520e-06  1.80000000e+00  2.73345520e-06  1.99895868e-06  2.73345520e-06  5.00000000e-01                                 
 3.01248620e-06  7.65133650e-01  3.01248620e-06  7.02533850e-01  3.01248620e-06  4.97016922e-01  3.01248620e-06  1.80000000e+00  3.01248620e-06  7.59344738e-08  3.01248620e-06  5.00000000e-01                                 
 3.37071064e-06  7.63106564e-01  3.37071064e-06  7.00754741e-01  3.37071064e-06  5.02188357e-01  3.37071064e-06  1.80000000e+00  3.37071064e-06  1.98056599e-06  3.37071064e-06  5.00000000e-01                                 
 3.83294469e-06  7.65019961e-01  3.83294469e-06  7.02433384e-01  3.83294469e-06  4.99167225e-01  3.83294469e-06  1.80000000e+00  3.83294469e-06  8.98112774e-08  3.83294469e-06  5.00000000e-01                                 
 4.49375244e-06  7.63258584e-01  4.49375244e-06  7.00889221e-01  4.49375244e-06  5.00540905e-01  4.49375244e-06  1.80000000e+00  4.49375244e-06  1.97100954e-06  4.49375244e-06  5.00000000e-01                                 
 5.35345570e-06  7.64885108e-01  5.35345570e-06  7.02314929e-01  5.35345570e-06  5.00348475e-01  5.35345570e-06  1.80000000e+00  5.35345570e-06  9.61661032e-08  5.35345570e-06  5.00000000e-01                                 
 6.35345570e-06  7.63387602e-01  6.35345570e-06  7.01003037e-01  6.35345570e-06  4.99613989e-01  6.35345570e-06  1.80000000e+00  6.35345570e-06  1.96631147e-06  6.35345570e-06  5.00000000e-01                                 
 7.35345570e-06  7.64760687e-01  7.35345570e-06  7.02205735e-01  7.35345570e-06  5.01167449e-01  7.35345570e-06  1.80000000e+00  7.35345570e-06  1.00121920e-07  7.35345570e-06  5.00000000e-01                                 
 8.35345570e-06  7.63524176e-01  8.35345570e-06  7.01123356e-01  8.35345570e-06  4.98822956e-01  8.35345570e-06  1.80000000e+00  8.35345570e-06  1.96273737e-06  8.35345570e-06  5.00000000e-01                                 
 9.35345570e-06  7.64622725e-01  9.35345570e-06  7.02084697e-01  9.35345570e-06  5.01913332e-01  9.35345570e-06  1.80000000e+00  9.35345570e-06  1.03296944e-07  9.35345570e-06  5.00000000e-01                                 
 1.00005000e-05  7.63711318e-01  1.00005000e-05  7.01288023e-01  1.00005000e-05  4.97954047e-01  1.00005000e-05  1.80000000e+00  1.00005000e-05  1.95936752e-06  1.00005000e-05  5.00000000e-01                                 
 1.00005500e-05  7.63710829e-01  1.00005500e-05  7.01287585e-01  1.00005500e-05  4.90190242e-01  1.00005500e-05  1.62000000e+00  1.00005500e-05 -8.65846981e-05  1.00005500e-05  5.00000000e-01                                 
 1.00006500e-05  7.63709825e-01  1.00006500e-05  7.01286646e-01  1.00006500e-05  4.76500755e-01  1.00006500e-05  1.26000000e+00  1.00006500e-05 -6.57747407e-05  1.00006500e-05  5.00000000e-01                                 
 1.00008500e-05  7.63707374e-01  1.00008500e-05  7.01284388e-01  1.00008500e-05  4.74558133e-01  1.00008500e-05  5.40000000e-01  1.00008500e-05 -4.10091793e-03  1.00008500e-05  5.00000000e-01                                 
 1.00010000e-05  7.63705072e-01  1.00010000e-05  7.01282351e-01  1.00010000e-05  4.40629160e-01  1.00010000e-05  0.00000000e+00  1.00010000e-05  1.57660637e+00  1.00010000e-05  5.00000000e-01                                 
 1.00010256e-05  7.63704616e-01  1.00010256e-05  7.01281957e-01  1.00010256e-05  4.16026730e-01  1.00010256e-05  0.00000000e+00  1.00010256e-05  1.72404133e+00  1.00010256e-05  5.00000000e-01                                 
 1.00010769e-05  7.63703760e-01  1.00010769e-05  7.01281187e-01  1.00010769e-05  3.74569253e-01  1.00010769e-05  0.00000000e+00  1.00010769e-05  1.82035205e+00  1.00010769e-05  5.00000000e-01                                 
