 time            v(vbep)         time            v(vben)         time            v(vout)         time            v(vphi1)        time            v(vphi2)        time            v(vref)         time            v(voutc)        time            v(voutcc)       yes             currtemp       
 0.00000000e+00  8.06263259e-01  0.00000000e+00  7.52576962e-01  0.00000000e+00  1.66879476e+00  0.00000000e+00  0.00000000e+00  0.00000000e+00  1.80000000e+00  0.00000000e+00  7.55781872e-01  0.00000000e+00  1.66879475e+00  0.00000000e+00  1.67445358e+00  1.00000000e+00  5.00000000e+00 
 1.00000000e-11  8.06286927e-01  1.00000000e-11  7.52647209e-01  1.00000000e-11  1.66959900e+00  1.00000000e-11  1.80000000e-02  1.00000000e-11  1.80024704e+00  1.00000000e-11  7.56305393e-01  1.00000000e-11  1.66925903e+00  1.00000000e-11  1.67446763e+00                                 
 2.00000000e-11  8.06293441e-01  2.00000000e-11  7.52691404e-01  2.00000000e-11  1.67011989e+00  2.00000000e-11  3.60000000e-02  2.00000000e-11  1.80034793e+00  2.00000000e-11  7.56697679e-01  2.00000000e-11  1.66961705e+00  2.00000000e-11  1.67447360e+00                                 
 4.00000000e-11  8.06293259e-01  4.00000000e-11  7.52749366e-01  4.00000000e-11  1.67078371e+00  4.00000000e-11  7.20000000e-02  4.00000000e-11  1.80039093e+00  4.00000000e-11  7.57274132e-01  4.00000000e-11  1.67016044e+00  4.00000000e-11  1.67447673e+00                                 
 8.00000000e-11  8.06281453e-01  8.00000000e-11  7.52784628e-01  8.00000000e-11  1.67101968e+00  8.00000000e-11  1.44000000e-01  8.00000000e-11  1.80019284e+00  8.00000000e-11  7.57724078e-01  8.00000000e-11  1.67063783e+00  8.00000000e-11  1.67446645e+00                                 
 1.60000000e-10  8.06278152e-01  1.60000000e-10  7.52788846e-01  1.60000000e-10  1.67072969e+00  1.60000000e-10  2.88000000e-01  1.60000000e-10  1.80000699e+00  1.60000000e-10  7.57778778e-01  1.60000000e-10  1.67075460e+00  1.60000000e-10  1.67445535e+00                                 
 3.20000000e-10  8.06275203e-01  3.20000000e-10  7.52790299e-01  3.20000000e-10  1.67040458e+00  3.20000000e-10  5.76000000e-01  3.20000000e-10  1.80000858e+00  3.20000000e-10  7.57705015e-01  3.20000000e-10  1.67060547e+00  3.20000000e-10  1.67445279e+00                                 
 6.40000000e-10  8.06199727e-01  6.40000000e-10  7.52523635e-01  6.40000000e-10  1.66596054e+00  6.40000000e-10  1.15200000e+00  6.40000000e-10  1.81317468e+00  6.40000000e-10  7.56653746e-01  6.40000000e-10  1.67562965e+00  6.40000000e-10  1.67448212e+00                                 
 9.98106422e-10  8.06720777e-01  9.98106422e-10  7.52615452e-01  9.98106422e-10  1.63726026e+00  9.98106422e-10  1.79659156e+00  9.98106422e-10  8.09841026e-02  9.98106422e-10  7.60907114e-01  9.98106422e-10  1.66825667e+00  9.98106422e-10  1.67439101e+00                                 
 1.00000000e-09  8.06727152e-01  1.00000000e-09  7.52621852e-01  1.00000000e-09  1.63710672e+00  1.00000000e-09  1.80000000e+00  1.00000000e-09  6.64559222e-02  1.00000000e-09  7.61039281e-01  1.00000000e-09  1.66816595e+00  1.00000000e-09  1.67439207e+00                                 
 1.00378716e-09  8.06714618e-01  1.00378716e-09  7.52608859e-01  1.00378716e-09  1.63684628e+00  1.00378716e-09  1.80000000e+00  1.00378716e-09  4.74525947e-02  1.00378716e-09  7.61273287e-01  1.00378716e-09  1.66810837e+00  1.00378716e-09  1.67439801e+00                                 
 1.01136147e-09  8.06695316e-01  1.01136147e-09  7.52614999e-01  1.01136147e-09  1.63671579e+00  1.01136147e-09  1.80000000e+00  1.01136147e-09  2.06997328e-02  1.01136147e-09  7.61962590e-01  1.01136147e-09  1.66834873e+00  1.01136147e-09  1.67442179e+00                                 
 1.02651009e-09  8.06683982e-01  1.02651009e-09  7.52688558e-01  1.02651009e-09  1.63735576e+00  1.02651009e-09  1.80000000e+00  1.02651009e-09  3.41100120e-03  1.02651009e-09  7.63654906e-01  1.02651009e-09  1.66961570e+00  1.02651009e-09  1.67447398e+00                                 
 1.05680734e-09  8.06722133e-01  1.05680734e-09  7.52758417e-01  1.05680734e-09  1.63803066e+00  1.05680734e-09  1.80000000e+00  1.05680734e-09  7.36675635e-04  1.05680734e-09  7.65491126e-01  1.05680734e-09  1.67122326e+00  1.05680734e-09  1.67448798e+00                                 
 1.11740184e-09  8.06821394e-01  1.11740184e-09  7.52705996e-01  1.11740184e-09  1.63711748e+00  1.11740184e-09  1.80000000e+00  1.11740184e-09  7.93463213e-04  1.11740184e-09  7.66200766e-01  1.11740184e-09  1.67185954e+00  1.11740184e-09  1.67445474e+00                                 
 1.23859084e-09  8.06963160e-01  1.23859084e-09  7.52619283e-01  1.23859084e-09  1.63425858e+00  1.23859084e-09  1.80000000e+00  1.23859084e-09  2.79113190e-04  1.23859084e-09  7.66754869e-01  1.23859084e-09  1.67231458e+00  1.23859084e-09  1.67446484e+00                                 
 1.48096884e-09  8.07043875e-01  1.48096884e-09  7.52597026e-01  1.48096884e-09  1.63086372e+00  1.48096884e-09  1.80000000e+00  1.48096884e-09  1.64085737e-04  1.48096884e-09  7.66866705e-01  1.48096884e-09  1.67240750e+00  1.48096884e-09  1.67446193e+00                                 
 1.75406709e-09  8.06903057e-01  1.75406709e-09  7.52577562e-01  1.75406709e-09  1.63123829e+00  1.75406709e-09  1.80000000e+00  1.75406709e-09 -1.17316143e-04  1.75406709e-09  7.65999159e-01  1.75406709e-09  1.67166729e+00  1.75406709e-09  1.67447010e+00                                 
 2.04240814e-09  8.06711727e-01  2.04240814e-09  7.52573772e-01  2.04240814e-09  1.63284288e+00  2.04240814e-09  1.80000000e+00  2.04240814e-09  3.95650131e-05  2.04240814e-09  7.65230338e-01  2.04240814e-09  1.67101839e+00  2.04240814e-09  1.67448003e+00                                 
 2.37937862e-09  8.06515930e-01  2.37937862e-09  7.52560435e-01  2.37937862e-09  1.63459282e+00  2.37937862e-09  1.80000000e+00  2.37937862e-09 -1.17102402e-04  2.37937862e-09  7.64254349e-01  2.37937862e-09  1.67018720e+00  2.37937862e-09  1.67449551e+00                                 
 2.98507361e-09  8.06297596e-01  2.98507361e-09  7.52555221e-01  2.98507361e-09  1.63719352e+00  2.98507361e-09  1.80000000e+00  2.98507361e-09  3.01843139e-05  2.98507361e-09  7.62730755e-01  2.98507361e-09  1.66889621e+00  2.98507361e-09  1.67452221e+00                                 
 4.19646360e-09  8.06146405e-01  4.19646360e-09  7.52549016e-01  4.19646360e-09  1.64036121e+00  4.19646360e-09  1.80000000e+00  4.19646360e-09 -1.07611279e-04  4.19646360e-09  7.60130011e-01  4.19646360e-09  1.66668521e+00  4.19646360e-09  1.67455685e+00                                 
 6.61924357e-09  8.06169649e-01  6.61924357e-09  7.52564080e-01  6.61924357e-09  1.64162777e+00  6.61924357e-09  1.80000000e+00  6.61924357e-09  3.59230439e-05  6.61924357e-09  7.56966731e-01  6.61924357e-09  1.66400208e+00  6.61924357e-09  1.67451751e+00                                 
 8.58123581e-09  8.06193792e-01  8.58123581e-09  7.52569596e-01  8.58123581e-09  1.64028585e+00  8.58123581e-09  1.80000000e+00  8.58123581e-09 -9.22737429e-05  8.58123581e-09  7.55734844e-01  8.58123581e-09  1.66295366e+00  8.58123581e-09  1.67438845e+00                                 
 1.05245992e-08  8.06185626e-01  1.05245992e-08  7.52576028e-01  1.05245992e-08  1.63943662e+00  1.05245992e-08  1.80000000e+00  1.05245992e-08  5.29056687e-05  1.05245992e-08  7.55187576e-01  1.05245992e-08  1.66248956e+00  1.05245992e-08  1.67420664e+00                                 
 1.25795559e-08  8.06187471e-01  1.25795559e-08  7.52574772e-01  1.25795559e-08  1.63845816e+00  1.25795559e-08  1.80000000e+00  1.25795559e-08 -7.40086188e-05  1.25795559e-08  7.54894436e-01  1.25795559e-08  1.66223387e+00  1.25795559e-08  1.67398585e+00                                 
 1.55769497e-08  8.06215668e-01  1.55769497e-08  7.52577978e-01  1.55769497e-08  1.63532052e+00  1.55769497e-08  1.80000000e+00  1.55769497e-08  6.09602364e-05  1.55769497e-08  7.54815645e-01  1.55769497e-08  1.66215920e+00  1.55769497e-08  1.67365066e+00                                 
 1.91902520e-08  8.06243177e-01  1.91902520e-08  7.52575563e-01  1.91902520e-08  1.62902451e+00  1.91902520e-08  1.80000000e+00  1.91902520e-08 -6.76267514e-05  1.91902520e-08  7.54839123e-01  1.91902520e-08  1.66216187e+00  1.91902520e-08  1.67325652e+00                                 
 2.44455210e-08  8.06263138e-01  2.44455210e-08  7.52578405e-01  2.44455210e-08  1.61760177e+00  2.44455210e-08  1.80000000e+00  2.44455210e-08  6.22022128e-05  2.44455210e-08  7.55005334e-01  2.44455210e-08  1.66228334e+00  2.44455210e-08  1.67273108e+00                                 
 3.15921203e-08  8.06267816e-01  3.15921203e-08  7.52575924e-01  3.15921203e-08  1.60052362e+00  3.15921203e-08  1.80000000e+00  3.15921203e-08 -6.64054013e-05  3.15921203e-08  7.55161460e-01  3.15921203e-08  1.66238807e+00  3.15921203e-08  1.67210952e+00                                 
 4.33887199e-08  8.06267213e-01  4.33887199e-08  7.52578368e-01  4.33887199e-08  1.57136419e+00  4.33887199e-08  1.80000000e+00  4.33887199e-08  6.18320011e-05  4.33887199e-08  7.55401084e-01  4.33887199e-08  1.66256289e+00  4.33887199e-08  1.67128171e+00                                 
 6.25138756e-08  8.06264738e-01  6.25138756e-08  7.52575735e-01  6.25138756e-08  1.52300270e+00  6.25138756e-08  1.80000000e+00  6.25138756e-08 -6.62847038e-05  6.25138756e-08  7.55580089e-01  6.25138756e-08  1.66268197e+00  6.25138756e-08  1.67032752e+00                                 
 1.00764187e-07  8.06264172e-01  1.00764187e-07  7.52578233e-01  1.00764187e-07  1.42541700e+00  1.00764187e-07  1.80000000e+00  1.00764187e-07  6.16287845e-05  1.00764187e-07  7.55759740e-01  1.00764187e-07  1.66280874e+00  1.00764187e-07  1.66927261e+00                                 
 1.77264810e-07  8.06262813e-01  1.77264810e-07  7.52575697e-01  1.77264810e-07  1.23151046e+00  1.77264810e-07  1.80000000e+00  1.77264810e-07 -6.61548999e-05  1.77264810e-07  7.55775270e-01  1.77264810e-07  1.66280317e+00  1.77264810e-07  1.66858264e+00                                 
 2.67811012e-07  8.06263706e-01  2.67811012e-07  7.52578230e-01  2.67811012e-07  1.00709206e+00  2.67811012e-07  1.80000000e+00  2.67811012e-07  6.18876128e-05  2.67811012e-07  7.55792028e-01  2.67811012e-07  1.66281416e+00  2.67811012e-07  1.66848269e+00                                 
 4.04453715e-07  8.06262855e-01  4.04453715e-07  7.52575697e-01  4.04453715e-07  7.83495260e-01  4.04453715e-07  1.80000000e+00  4.04453715e-07 -6.39991390e-05  4.04453715e-07  7.55770038e-01  4.04453715e-07  1.66278713e+00  4.04453715e-07  1.66847003e+00                                 
 5.02515404e-07  8.06263798e-01  5.02515404e-07  7.52578249e-01  5.02515404e-07  7.53332586e-01  5.02515404e-07  1.80000000e+00  5.02515404e-07  6.38439691e-05  5.02515404e-07  7.55795873e-01  5.02515404e-07  1.66280744e+00  5.02515404e-07  1.66846887e+00                                 
 5.72556826e-07  8.06262270e-01  5.72556826e-07  7.52575635e-01  5.72556826e-07  7.59981065e-01  5.72556826e-07  1.80000000e+00  5.72556826e-07 -6.35661338e-05  5.72556826e-07  7.55768147e-01  5.72556826e-07  1.66277877e+00  5.72556826e-07  1.66846528e+00                                 
 6.29072995e-07  8.06264529e-01  6.29072995e-07  7.52578322e-01  6.29072995e-07  7.58856735e-01  6.29072995e-07  1.80000000e+00  6.29072995e-07  6.37113983e-05  6.29072995e-07  7.55795091e-01  6.29072995e-07  1.66280162e+00  6.29072995e-07  1.66846279e+00                                 
 6.91399575e-07  8.06261879e-01  6.91399575e-07  7.52575587e-01  6.91399575e-07  7.59125283e-01  6.91399575e-07  1.80000000e+00  6.91399575e-07 -6.35636361e-05  6.91399575e-07  7.55768866e-01  6.91399575e-07  1.66277458e+00  6.91399575e-07  1.66846022e+00                                 
 7.70287636e-07  8.06264686e-01  7.70287636e-07  7.52578347e-01  7.70287636e-07  7.58960639e-01  7.70287636e-07  1.80000000e+00  7.70287636e-07  6.37093068e-05  7.70287636e-07  7.55794775e-01  7.70287636e-07  1.66279565e+00  7.70287636e-07  1.66845715e+00                                 
 8.78813449e-07  8.06261815e-01  8.78813449e-07  7.52575575e-01  8.78813449e-07  7.59092006e-01  8.78813449e-07  1.80000000e+00  8.78813449e-07 -6.35490310e-05  8.78813449e-07  7.55769046e-01  8.78813449e-07  1.66276716e+00  8.78813449e-07  1.66845263e+00                                 
 1.03456888e-06  8.06264711e-01  1.03456888e-06  7.52578354e-01  1.03456888e-06  7.58986550e-01  1.03456888e-06  1.80000000e+00  1.03456888e-06  6.36927646e-05  1.03456888e-06  7.55794667e-01  1.03456888e-06  1.66278488e+00  1.03456888e-06  1.66844651e+00                                 
 1.26095085e-06  8.06261807e-01  1.26095085e-06  7.52575572e-01  1.26095085e-06  7.59079515e-01  1.26095085e-06  1.80000000e+00  1.26095085e-06 -6.35378681e-05  1.26095085e-06  7.55769116e-01  1.26095085e-06  1.66275179e+00  1.26095085e-06  1.66843723e+00                                 
 1.60175929e-06  8.06264713e-01  1.60175929e-06  7.52578356e-01  1.60175929e-06  7.58995450e-01  1.60175929e-06  1.80000000e+00  1.60175929e-06  6.36842630e-05  1.60175929e-06  7.55794624e-01  1.60175929e-06  1.66276195e+00  1.60175929e-06  1.66842366e+00                                 
 2.11688105e-06  8.06261807e-01  2.11688105e-06  7.52575571e-01  2.11688105e-06  7.59075068e-01  2.11688105e-06  1.80000000e+00  2.11688105e-06 -6.35341111e-05  2.11688105e-06  7.55769144e-01  2.11688105e-06  1.66271728e+00  2.11688105e-06  1.66840276e+00                                 
 2.90546730e-06  8.06264712e-01  2.90546730e-06  7.52578356e-01  2.90546730e-06  7.58998885e-01  2.90546730e-06  1.80000000e+00  2.90546730e-06  6.36802777e-05  2.90546730e-06  7.55794606e-01  2.90546730e-06  1.66270931e+00  2.90546730e-06  1.66837114e+00                                 
 4.10546730e-06  8.06261808e-01  4.10546730e-06  7.52575570e-01  4.10546730e-06  7.59073385e-01  4.10546730e-06  1.80000000e+00  4.10546730e-06 -6.35315619e-05  4.10546730e-06  7.55769156e-01  4.10546730e-06  1.66263702e+00  4.10546730e-06  1.66832265e+00                                 
 5.30546730e-06  8.06264711e-01  5.30546730e-06  7.52578356e-01  5.30546730e-06  7.59003123e-01  5.30546730e-06  1.80000000e+00  5.30546730e-06  6.36594765e-05  5.30546730e-06  7.55794594e-01  5.30546730e-06  1.66261247e+00  5.30546730e-06  1.66827451e+00                                 
 6.00100000e-06  8.06261808e-01  6.00100000e-06  7.52575569e-01  6.00100000e-06  7.59075879e-01  6.00100000e-06  1.80000000e+00  6.00100000e-06 -6.34804587e-05  6.00100000e-06  7.55769164e-01  6.00100000e-06  1.66256053e+00  6.00100000e-06  1.66824632e+00                                 
 6.00110000e-06  8.06227035e-01  6.00110000e-06  7.52341070e-01  6.00110000e-06  7.57093438e-01  6.00110000e-06  1.62000000e+00  6.00110000e-06 -1.04356474e-04  6.00110000e-06  7.54021440e-01  6.00110000e-06  1.66107737e+00  6.00110000e-06  1.66823340e+00                                 
 6.00130000e-06  8.06258393e-01  6.00130000e-06  7.52380627e-01  6.00130000e-06  7.57658133e-01  6.00130000e-06  1.26000000e+00  6.00130000e-06  4.25145795e-05  6.00130000e-06  7.54199328e-01  6.00130000e-06  1.66123119e+00  6.00130000e-06  1.66825375e+00                                 
 6.00170000e-06  8.06297000e-01  6.00170000e-06  7.52412537e-01  6.00170000e-06  7.65375706e-01  6.00170000e-06  5.40000000e-01  6.00170000e-06  9.30165293e-01  6.00170000e-06  7.53032508e-01  6.00170000e-06  1.63776116e+00  6.00170000e-06  1.66812962e+00                                 
 6.00200000e-06  8.06253670e-01  6.00200000e-06  7.50143025e-01  6.00200000e-06  8.01008442e-01  6.00200000e-06  0.00000000e+00  6.00200000e-06  1.77351638e+00  6.00200000e-06  7.27387825e-01  6.00200000e-06  1.38833922e+00  6.00200000e-06  1.66745700e+00                                 
 6.00204342e-06  8.06263361e-01  6.00204342e-06  7.50016507e-01  6.00204342e-06  8.00032793e-01  6.00204342e-06  0.00000000e+00  6.00204342e-06  1.78936658e+00  6.00204342e-06  7.26017667e-01  6.00204342e-06  1.33415105e+00  6.00204342e-06  1.66780699e+00                                 
 6.00213026e-06  8.06263908e-01  6.00213026e-06  7.49977280e-01  6.00213026e-06  7.94742629e-01  6.00213026e-06  0.00000000e+00  6.00213026e-06  1.80061260e+00  6.00213026e-06  7.25989453e-01  6.00213026e-06  1.23815824e+00  6.00213026e-06  1.66828154e+00                                 
 6.00230395e-06  8.06261621e-01  6.00230395e-06  7.50370121e-01  6.00230395e-06  7.85830821e-01  6.00230395e-06  0.00000000e+00  6.00230395e-06  1.79796642e+00  6.00230395e-06  7.31059050e-01  6.00230395e-06  1.09979171e+00  6.00230395e-06  1.66835385e+00                                 
 6.00251884e-06  8.06262986e-01  6.00251884e-06  7.50795556e-01  6.00251884e-06  7.80922546e-01  6.00251884e-06  0.00000000e+00  6.00251884e-06  1.80050884e+00  6.00251884e-06  7.35480117e-01  6.00251884e-06  9.79432670e-01  6.00251884e-06  1.66849039e+00                                 
 6.00278305e-06  8.06261312e-01  6.00278305e-06  7.51365517e-01  6.00278305e-06  7.74950152e-01  6.00278305e-06  0.00000000e+00  6.00278305e-06  1.79891110e+00  6.00278305e-06  7.40763088e-01  6.00278305e-06  8.71311246e-01  6.00278305e-06  1.66853344e+00                                 
 6.00311282e-06  8.06263122e-01  6.00311282e-06  7.52167465e-01  6.00311282e-06  7.67112309e-01  6.00311282e-06  0.00000000e+00  6.00311282e-06  1.80028000e+00  6.00311282e-06  7.48169598e-01  6.00311282e-06  7.95401248e-01  6.00311282e-06  1.66856513e+00                                 
 6.00349087e-06  8.06261768e-01  6.00349087e-06  7.52807434e-01  6.00349087e-06  7.61068171e-01  6.00349087e-06  0.00000000e+00  6.00349087e-06  1.79966043e+00  6.00349087e-06  7.53728737e-01  6.00349087e-06  7.66908850e-01  6.00349087e-06  1.66837342e+00                                 
 6.00384372e-06  8.06263488e-01  6.00384372e-06  7.53042195e-01  6.00384372e-06  7.60173040e-01  6.00384372e-06  0.00000000e+00  6.00384372e-06  1.80030393e+00  6.00384372e-06  7.55478390e-01  6.00384372e-06  7.61420530e-01  6.00384372e-06  1.66803341e+00                                 
 6.00427698e-06  8.06262230e-01  6.00427698e-06  7.53116981e-01  6.00427698e-06  7.59656318e-01  6.00427698e-06  0.00000000e+00  6.00427698e-06  1.79976324e+00  6.00427698e-06  7.56221305e-01  6.00427698e-06  7.60041406e-01  6.00427698e-06  1.66738816e+00                                 
 6.00482444e-06  8.06263776e-01  6.00482444e-06  7.53085453e-01  6.00482444e-06  7.60501850e-01  6.00482444e-06  0.00000000e+00  6.00482444e-06  1.80022309e+00  6.00482444e-06  7.56460927e-01  6.00482444e-06  7.60178994e-01  6.00482444e-06  1.66644210e+00                                 
 6.00591938e-06  8.06262541e-01  6.00591938e-06  7.52971447e-01  6.00591938e-06  7.61576258e-01  6.00591938e-06  0.00000000e+00  6.00591938e-06  1.79980394e+00  6.00591938e-06  7.56671290e-01  6.00591938e-06  7.61532524e-01  6.00591938e-06  1.66427522e+00                                 
 6.00790104e-06  8.06263922e-01  6.00790104e-06  7.52815657e-01  6.00790104e-06  7.64784296e-01  6.00790104e-06  0.00000000e+00  6.00790104e-06  1.80020291e+00  6.00790104e-06  7.56754789e-01  6.00790104e-06  7.64348013e-01  6.00790104e-06  1.66012961e+00                                 
 6.01186435e-06  8.06262593e-01  6.01186435e-06  7.52661966e-01  6.01186435e-06  7.70687663e-01  6.01186435e-06  0.00000000e+00  6.01186435e-06  1.79981378e+00  6.01186435e-06  7.56737074e-01  6.01186435e-06  7.70567971e-01  6.01186435e-06  1.65171162e+00                                 
 6.01979098e-06  8.06263928e-01  6.01979098e-06  7.52561266e-01  6.01979098e-06  7.83594468e-01  6.01979098e-06  0.00000000e+00  6.01979098e-06  1.80019779e+00  6.01979098e-06  7.56487205e-01  6.01979098e-06  7.83084313e-01  6.01979098e-06  1.63513267e+00                                 
