 time            v(vbep)         time            v(vben)         time            v(vout)         time            v(vphi1)        time            v(vphi2)        time            v(vref)         yes             currtemp       
 0.00000000e+00  6.56176037e-01  0.00000000e+00  6.00022038e-01  0.00000000e+00  1.01084112e-01  0.00000000e+00  0.00000000e+00  0.00000000e+00  1.79997784e+00  0.00000000e+00  5.00000000e-01  1.00000000e+00  3.40000000e+01 
 5.00000000e-12  6.56160843e-01  5.00000000e-12  6.00009385e-01  5.00000000e-12  1.01572343e-01  5.00000000e-12  1.80000000e-02  5.00000000e-12  1.80006588e+00  5.00000000e-12  5.00000000e-01                                 
 1.00000000e-11  6.56145839e-01  1.00000000e-11  5.99996983e-01  1.00000000e-11  1.02011908e-01  1.00000000e-11  3.60000000e-02  1.00000000e-11  1.80010767e+00  1.00000000e-11  5.00000000e-01                                 
 2.00000000e-11  6.56115925e-01  2.00000000e-11  5.99972243e-01  2.00000000e-11  1.02821886e-01  2.00000000e-11  7.20000000e-02  2.00000000e-11  1.80014176e+00  2.00000000e-11  5.00000000e-01                                 
 4.00000000e-11  6.56056265e-01  4.00000000e-11  5.99922879e-01  4.00000000e-11  1.04134491e-01  4.00000000e-11  1.44000000e-01  4.00000000e-11  1.80010664e+00  4.00000000e-11  5.00000000e-01                                 
 8.00000000e-11  6.55937270e-01  8.00000000e-11  5.99824380e-01  8.00000000e-11  1.06102951e-01  8.00000000e-11  2.88000000e-01  8.00000000e-11  1.80005042e+00  8.00000000e-11  5.00000000e-01                                 
 1.60000000e-10  6.55700644e-01  1.60000000e-10  5.99628315e-01  1.60000000e-10  1.09248520e-01  1.60000000e-10  5.76000000e-01  1.60000000e-10  1.80001369e+00  1.60000000e-10  5.00000000e-01                                 
 3.20000000e-10  6.55232729e-01  3.20000000e-10  5.99239878e-01  3.20000000e-10  1.41582085e-01  3.20000000e-10  1.15200000e+00  3.20000000e-10  1.80010940e+00  3.20000000e-10  5.00000000e-01                                 
 5.00000000e-10  6.54714741e-01  5.00000000e-10  5.98808728e-01  5.00000000e-10  4.59595013e-01  5.00000000e-10  1.80000000e+00  5.00000000e-10  1.16064556e-01  5.00000000e-10  5.00000000e-01                                 
 5.21739822e-10  6.54652843e-01  5.21739822e-10  5.98757118e-01  5.21739822e-10  5.20417804e-01  5.21739822e-10  1.80000000e+00  5.21739822e-10  2.25571005e-02  5.21739822e-10  5.00000000e-01                                 
 5.65219467e-10  6.54529299e-01  5.65219467e-10  5.98654073e-01  5.65219467e-10  6.29210022e-01  5.65219467e-10  1.80000000e+00  5.65219467e-10 -1.04201547e-02  5.65219467e-10  5.00000000e-01                                 
 6.52178757e-10  6.54283734e-01  6.52178757e-10  5.98449055e-01  6.52178757e-10  7.90755494e-01  6.52178757e-10  1.80000000e+00  6.52178757e-10  8.93753930e-03  6.52178757e-10  5.00000000e-01                                 
 7.75025848e-10  6.53940231e-01  7.75025848e-10  5.98161823e-01  7.75025848e-10  9.50904967e-01  7.75025848e-10  1.80000000e+00  7.75025848e-10 -7.63558498e-03  7.75025848e-10  5.00000000e-01                                 
 9.67747162e-10  6.53409145e-01  9.67747162e-10  5.97716722e-01  9.67747162e-10  1.13657728e+00  9.67747162e-10  1.80000000e+00  9.67747162e-10  7.22659620e-03  9.67747162e-10  5.00000000e-01                                 
 1.26825829e-09  6.52599323e-01  1.26825829e-09  5.97035671e-01  1.26825829e-09  1.34718051e+00  1.26825829e-09  1.80000000e+00  1.26825829e-09 -6.76104878e-03  1.26825829e-09  5.00000000e-01                                 
 1.76680246e-09  6.51302611e-01  1.76680246e-09  5.95939359e-01  1.76680246e-09  1.54090228e+00  1.76680246e-09  1.80000000e+00  1.76680246e-09  6.65755156e-03  1.76680246e-09  5.00000000e-01                                 
 2.16659476e-09  6.50302487e-01  2.16659476e-09  5.95088932e-01  2.16659476e-09  1.60174614e+00  2.16659476e-09  1.80000000e+00  2.16659476e-09 -6.32109721e-03  2.16659476e-09  5.00000000e-01                                 
 2.54649811e-09  6.49382040e-01  2.54649811e-09  5.94302639e-01  2.54649811e-09  1.62377369e+00  2.54649811e-09  1.80000000e+00  2.54649811e-09  6.16133235e-03  2.54649811e-09  5.00000000e-01                                 
 2.95543345e-09  6.48421633e-01  2.95543345e-09  5.93478610e-01  2.95543345e-09  1.63138537e+00  2.95543345e-09  1.80000000e+00  2.95543345e-09 -5.89249150e-03  2.95543345e-09  5.00000000e-01                                 
 3.36092501e-09  6.47498509e-01  3.36092501e-09  5.92683175e-01  3.36092501e-09  1.63266704e+00  3.36092501e-09  1.80000000e+00  3.36092501e-09  5.71954365e-03  3.36092501e-09  5.00000000e-01                                 
 3.86908134e-09  6.46379927e-01  3.86908134e-09  5.91714988e-01  3.86908134e-09  1.63146873e+00  3.86908134e-09  1.80000000e+00  3.86908134e-09 -5.52778022e-03  3.86908134e-09  5.00000000e-01                                 
 4.61693970e-09  6.44804914e-01  4.61693970e-09  5.90343971e-01  4.61693970e-09  1.62860263e+00  4.61693970e-09  1.80000000e+00  4.61693970e-09  5.44695490e-03  4.61693970e-09  5.00000000e-01                                 
 5.74893401e-09  6.42565270e-01  5.74893401e-09  5.88379444e-01  5.74893401e-09  1.62439212e+00  5.74893401e-09  1.80000000e+00  5.74893401e-09 -5.35235175e-03  5.74893401e-09  5.00000000e-01                                 
 8.01292262e-09  6.38519798e-01  8.01292262e-09  5.84790187e-01  8.01292262e-09  1.61802205e+00  8.01292262e-09  1.80000000e+00  8.01292262e-09  5.34246181e-03  8.01292262e-09  5.00000000e-01                                 
 1.25408999e-08  6.31731923e-01  1.25408999e-08  5.78662889e-01  1.25408999e-08  1.60739576e+00  1.25408999e-08  1.80000000e+00  1.25408999e-08 -5.30081091e-03  1.25408999e-08  5.00000000e-01                                 
 2.15968543e-08  6.21544859e-01  2.15968543e-08  5.69245665e-01  2.15968543e-08  1.57756408e+00  2.15968543e-08  1.80000000e+00  2.15968543e-08  5.31711195e-03  2.15968543e-08  5.00000000e-01                                 
 3.97087633e-08  6.08334148e-01  3.97087633e-08  5.56653109e-01  3.97087633e-08  1.48250682e+00  3.97087633e-08  1.80000000e+00  3.97087633e-08 -5.28781825e-03  3.97087633e-08  5.00000000e-01                                 
 6.28918512e-08  5.97677247e-01  6.28918512e-08  5.46240263e-01  6.28918512e-08  1.33866684e+00  6.28918512e-08  1.80000000e+00  6.28918512e-08  5.30985119e-03  6.28918512e-08  5.00000000e-01                                 
 1.05491784e-07  5.84142315e-01  1.05491784e-07  5.32987193e-01  1.05491784e-07  1.07735770e+00  1.05491784e-07  1.80000000e+00  1.05491784e-07 -5.28259091e-03  1.05491784e-07  5.00000000e-01                                 
 1.59615311e-07  5.68816734e-01  1.59615311e-07  5.18682400e-01  1.59615311e-07  8.39349247e-01  1.59615311e-07  1.80000000e+00  1.59615311e-07  5.30669213e-03  1.59615311e-07  5.00000000e-01                                 
 2.18092844e-07  5.53712646e-01  2.18092844e-07  5.05055709e-01  2.18092844e-07  6.86781604e-01  2.18092844e-07  1.80000000e+00  2.18092844e-07 -5.27987336e-03  2.18092844e-07  5.00000000e-01                                 
 3.06106746e-07  5.34176894e-01  3.06106746e-07  4.87812276e-01  3.06106746e-07  5.31258439e-01  3.06106746e-07  1.80000000e+00  3.06106746e-07  5.30456678e-03  3.06106746e-07  5.00000000e-01                                 
 3.98859236e-07  5.13160969e-01  3.98859236e-07  4.69915706e-01  3.98859236e-07  4.52276680e-01  3.98859236e-07  1.80000000e+00  3.98859236e-07 -5.27820797e-03  3.98859236e-07  5.00000000e-01                                 
 4.76070821e-07  4.94820327e-01  4.76070821e-07  4.54672385e-01  4.76070821e-07  4.75633809e-01  4.76070821e-07  1.80000000e+00  4.76070821e-07  5.30276633e-03  4.76070821e-07  5.00000000e-01                                 
 4.87226978e-07  4.91831107e-01  4.87226978e-07  4.52222244e-01  4.87226978e-07  4.87727552e-01  4.87226978e-07  1.80000000e+00  4.87226978e-07  2.29225104e-06  4.87226978e-07  5.00000000e-01                                 
 5.09539292e-07  4.85847295e-01  5.09539292e-07  4.47325108e-01  5.09539292e-07  5.13753711e-01  5.09539292e-07  1.80000000e+00  5.09539292e-07 -1.19237503e-06  5.09539292e-07  5.00000000e-01                                 
 5.40880242e-07  4.77281816e-01  5.40880242e-07  4.40343702e-01  5.40880242e-07  5.33465545e-01  5.40880242e-07  1.80000000e+00  5.40880242e-07  2.28455246e-06  5.40880242e-07  5.00000000e-01                                 
 5.78427206e-07  4.66458296e-01  5.78427206e-07  4.31565804e-01  5.78427206e-07  5.03629784e-01  5.78427206e-07  1.80000000e+00  5.78427206e-07 -1.20182795e-06  5.78427206e-07  5.00000000e-01                                 
 6.11508424e-07  4.56698072e-01  6.11508424e-07  4.23679403e-01  6.11508424e-07  4.75328855e-01  6.11508424e-07  1.80000000e+00  6.11508424e-07  2.28473254e-06  6.11508424e-07  5.00000000e-01                                 
 6.48129122e-07  4.46636581e-01  6.48129122e-07  4.15566964e-01  6.48129122e-07  4.76525702e-01  6.48129122e-07  1.80000000e+00  6.48129122e-07 -1.18271815e-06  6.48129122e-07  5.00000000e-01                                 
 6.90473568e-07  4.40692883e-01  6.90473568e-07  4.10763645e-01  6.90473568e-07  5.07433275e-01  6.90473568e-07  1.80000000e+00  6.90473568e-07  2.40186243e-06  6.90473568e-07  5.00000000e-01                                 
 7.27883538e-07  4.51984836e-01  7.27883538e-07  4.19772697e-01  7.27883538e-07  5.30078659e-01  7.27883538e-07  1.80000000e+00  7.27883538e-07 -8.01758584e-07  7.27883538e-07  5.00000000e-01                                 
 7.71173400e-07  5.51143350e-01  7.71173400e-07  4.98947779e-01  7.71173400e-07  5.39706398e-01  7.71173400e-07  1.80000000e+00  7.71173400e-07  4.21156584e-06  7.71173400e-07  5.00000000e-01                                 
 8.11164707e-07  7.07754023e-01  8.11164707e-07  6.48285535e-01  8.11164707e-07  5.57105614e-01  8.11164707e-07  1.80000000e+00  8.11164707e-07  1.64671625e-06  8.11164707e-07  5.00000000e-01                                 
 8.42743911e-07  7.48557273e-01  8.42743911e-07  6.90101406e-01  8.42743911e-07  5.21457854e-01  8.42743911e-07  1.80000000e+00  8.42743911e-07  1.55233487e-06  8.42743911e-07  5.00000000e-01                                 
 8.75177739e-07  7.68467268e-01  8.75177739e-07  7.08063861e-01  8.75177739e-07  5.01197068e-01  8.75177739e-07  1.80000000e+00  8.75177739e-07  6.24269063e-07  8.75177739e-07  5.00000000e-01                                 
 9.29884221e-07  7.83115301e-01  9.29884221e-07  7.21119040e-01  9.29884221e-07  4.96039491e-01  9.29884221e-07  1.80000000e+00  9.29884221e-07  1.12553398e-06  9.29884221e-07  5.00000000e-01                                 
 9.89918584e-07  7.87182023e-01  9.89918584e-07  7.24444051e-01  9.89918584e-07  4.90066976e-01  9.89918584e-07  1.80000000e+00  9.89918584e-07  2.89750411e-07  9.89918584e-07  5.00000000e-01                                 
 9.98906983e-07  7.87510616e-01  9.98906983e-07  7.24776141e-01  9.98906983e-07  4.89911183e-01  9.98906983e-07  1.80000000e+00  9.98906983e-07  7.33830200e-07  9.98906983e-07  5.00000000e-01                                 
 1.01688378e-06  7.87829702e-01  1.01688378e-06  7.25054869e-01  1.01688378e-06  4.89962536e-01  1.01688378e-06  1.80000000e+00  1.01688378e-06  6.38259363e-07  1.01688378e-06  5.00000000e-01                                 
 1.05283738e-06  7.87177537e-01  1.05283738e-06  7.24500848e-01  1.05283738e-06  4.99487114e-01  1.05283738e-06  1.80000000e+00  1.05283738e-06  6.80408155e-07  1.05283738e-06  5.00000000e-01                                 
 1.06036577e-06  7.85531345e-01  1.06036577e-06  7.23123043e-01  1.06036577e-06  5.01995243e-01  1.06036577e-06  1.80000000e+00  1.06036577e-06  5.20243820e-07  1.06036577e-06  5.00000000e-01                                 
 1.07542257e-06  7.78966516e-01  1.07542257e-06  7.17516535e-01  1.07542257e-06  5.03269802e-01  1.07542257e-06  1.80000000e+00  1.07542257e-06  2.06654454e-07  1.07542257e-06  5.00000000e-01                                 
 1.10553617e-06  7.64073773e-01  1.10553617e-06  7.04262393e-01  1.10553617e-06  4.97986590e-01  1.10553617e-06  1.80000000e+00  1.10553617e-06  4.26393612e-07  1.10553617e-06  5.00000000e-01                                 
 1.14456222e-06  7.66081991e-01  1.14456222e-06  7.06042482e-01  1.14456222e-06  5.00890463e-01  1.14456222e-06  1.80000000e+00  1.14456222e-06  9.81210764e-07  1.14456222e-06  5.00000000e-01                                 
 1.19961422e-06  7.79070052e-01  1.19961422e-06  7.17561585e-01  1.19961422e-06  5.05133020e-01  1.19961422e-06  1.80000000e+00  1.19961422e-06  6.96057839e-07  1.19961422e-06  5.00000000e-01                                 
 1.26670096e-06  7.77102915e-01  1.26670096e-06  7.15868084e-01  1.26670096e-06  4.96225008e-01  1.26670096e-06  1.80000000e+00  1.26670096e-06  6.04999220e-07  1.26670096e-06  5.00000000e-01                                 
 1.34596432e-06  7.70567626e-01  1.34596432e-06  7.10087764e-01  1.34596432e-06  4.98494468e-01  1.34596432e-06  1.80000000e+00  1.34596432e-06  6.19803460e-07  1.34596432e-06  5.00000000e-01                                 
 1.46982794e-06  7.76162093e-01  1.46982794e-06  7.15031694e-01  1.46982794e-06  5.04749548e-01  1.46982794e-06  1.80000000e+00  1.46982794e-06  7.84172946e-07  1.46982794e-06  5.00000000e-01                                 
 1.62497968e-06  7.74899072e-01  1.62497968e-06  7.13929301e-01  1.62497968e-06  4.95373580e-01  1.62497968e-06  1.80000000e+00  1.62497968e-06  5.46589040e-07  1.62497968e-06  5.00000000e-01                                 
 1.79925496e-06  7.72708294e-01  1.79925496e-06  7.11989538e-01  1.79925496e-06  5.03596447e-01  1.79925496e-06  1.80000000e+00  1.79925496e-06  7.76244753e-07  1.79925496e-06  5.00000000e-01                                 
 2.07582321e-06  7.76815662e-01  2.07582321e-06  7.15606589e-01  2.07582321e-06  4.98284107e-01  2.07582321e-06  1.80000000e+00  2.07582321e-06  5.86200528e-07  2.07582321e-06  5.00000000e-01                                 
 2.37706488e-06  7.71912778e-01  2.37706488e-06  7.11287598e-01  2.37706488e-06  5.00501076e-01  2.37706488e-06  1.80000000e+00  2.37706488e-06  7.31994346e-07  2.37706488e-06  5.00000000e-01                                 
 2.81339626e-06  7.76957380e-01  2.81339626e-06  7.15727443e-01  2.81339626e-06  5.00961784e-01  2.81339626e-06  1.80000000e+00  2.81339626e-06  6.25551845e-07  2.81339626e-06  5.00000000e-01                                 
 3.33362223e-06  7.72063471e-01  3.33362223e-06  7.11423792e-01  3.33362223e-06  4.98509281e-01  3.33362223e-06  1.80000000e+00  3.33362223e-06  7.02471423e-07  3.33362223e-06  5.00000000e-01                                 
 3.99179462e-06  7.76707613e-01  3.99179462e-06  7.15507393e-01  3.99179462e-06  5.02483304e-01  3.99179462e-06  1.80000000e+00  3.99179462e-06  6.48671682e-07  3.99179462e-06  5.00000000e-01                                 
 4.84629554e-06  7.72364963e-01  4.84629554e-06  7.11692627e-01  4.84629554e-06  4.97418479e-01  4.84629554e-06  1.80000000e+00  4.84629554e-06  6.85460658e-07  4.84629554e-06  5.00000000e-01                                 
 5.84629554e-06  7.76445412e-01  5.84629554e-06  7.15277056e-01  5.84629554e-06  5.03284597e-01  5.84629554e-06  1.80000000e+00  5.84629554e-06  6.61490642e-07  5.84629554e-06  5.00000000e-01                                 
 6.84629554e-06  7.72665436e-01  6.84629554e-06  7.11959808e-01  6.84629554e-06  4.96750717e-01  6.84629554e-06  1.80000000e+00  6.84629554e-06  6.74479763e-07  6.84629554e-06  5.00000000e-01                                 
 7.84629554e-06  7.76148379e-01  7.84629554e-06  7.15016206e-01  7.84629554e-06  5.03878575e-01  7.84629554e-06  1.80000000e+00  7.84629554e-06  6.71622328e-07  7.84629554e-06  5.00000000e-01                                 
 8.84629554e-06  7.73012077e-01  8.84629554e-06  7.12267440e-01  8.84629554e-06  4.96231387e-01  8.84629554e-06  1.80000000e+00  8.84629554e-06  6.65260190e-07  8.84629554e-06  5.00000000e-01                                 
 9.84629554e-06  7.75812264e-01  9.84629554e-06  7.14720970e-01  9.84629554e-06  5.04315834e-01  9.84629554e-06  1.80000000e+00  9.84629554e-06  6.79876926e-07  9.84629554e-06  5.00000000e-01                                 
 1.00005000e-05  7.74386732e-01  1.00005000e-05  7.13482442e-01  1.00005000e-05  4.95809557e-01  1.00005000e-05  1.80000000e+00  1.00005000e-05  6.48646728e-07  1.00005000e-05  5.00000000e-01                                 
 1.00005500e-05  7.74378712e-01  1.00005500e-05  7.13474781e-01  1.00005500e-05  4.87973160e-01  1.00005500e-05  1.62000000e+00  1.00005500e-05 -8.58512885e-05  1.00005500e-05  5.00000000e-01                                 
 1.00006500e-05  7.74361946e-01  1.00006500e-05  7.13459788e-01  1.00006500e-05  4.74230501e-01  1.00006500e-05  1.26000000e+00  1.00006500e-05 -6.35511932e-05  1.00006500e-05  5.00000000e-01                                 
 1.00008500e-05  7.74331310e-01  1.00008500e-05  7.13432857e-01  1.00008500e-05  4.72308093e-01  1.00008500e-05  5.40000000e-01  1.00008500e-05 -3.78612761e-03  1.00008500e-05  5.00000000e-01                                 
 1.00010000e-05  7.74311244e-01  1.00010000e-05  7.13414900e-01  1.00010000e-05  4.37995036e-01  1.00010000e-05  0.00000000e+00  1.00010000e-05  1.57208438e+00  1.00010000e-05  5.00000000e-01                                 
 1.00010258e-05  7.74307893e-01  1.00010258e-05  7.13411967e-01  1.00010258e-05  4.11823941e-01  1.00010258e-05  0.00000000e+00  1.00010258e-05  1.72255723e+00  1.00010258e-05  5.00000000e-01                                 
 1.00010774e-05  7.74301439e-01  1.00010774e-05  7.13406225e-01  1.00010774e-05  3.67618487e-01  1.00010774e-05  0.00000000e+00  1.00010774e-05  1.82066488e+00  1.00010774e-05  5.00000000e-01                                 
 1.00011807e-05  7.74289322e-01  1.00011807e-05  7.13395334e-01  1.00011807e-05  3.30981976e-01  1.00011807e-05  0.00000000e+00  1.00011807e-05  1.78479417e+00  1.00011807e-05  5.00000000e-01                                 
 1.00013031e-05  7.74275747e-01  1.00013031e-05  7.13383195e-01  1.00013031e-05  3.30425391e-01  1.00013031e-05  0.00000000e+00  1.00013031e-05  1.80954089e+00  1.00013031e-05  5.00000000e-01                                 
 1.00014477e-05  7.74260642e-01  1.00014477e-05  7.13369666e-01  1.00014477e-05  3.29072025e-01  1.00014477e-05  0.00000000e+00  1.00014477e-05  1.79318049e+00  1.00014477e-05  5.00000000e-01                                 
 1.00016102e-05  7.74244629e-01  1.00016102e-05  7.13355319e-01  1.00016102e-05  3.28204199e-01  1.00016102e-05  0.00000000e+00  1.00016102e-05  1.80489026e+00  1.00016102e-05  5.00000000e-01                                 
 1.00019353e-05  7.74214952e-01  1.00019353e-05  7.13328721e-01  1.00019353e-05  3.26674377e-01  1.00019353e-05  0.00000000e+00  1.00019353e-05  1.79580822e+00  1.00019353e-05  5.00000000e-01                                 
 1.00025750e-05  7.74162580e-01  1.00025750e-05  7.13281867e-01  1.00025750e-05  3.25326252e-01  1.00025750e-05  0.00000000e+00  1.00025750e-05  1.80383224e+00  1.00025750e-05  5.00000000e-01                                 
 1.00038544e-05  7.74070089e-01  1.00038544e-05  7.13199522e-01  1.00038544e-05  3.24564509e-01  1.00038544e-05  0.00000000e+00  1.00038544e-05  1.79629852e+00  1.00038544e-05  5.00000000e-01                                 
 1.00064131e-05  7.73905373e-01  1.00064131e-05  7.13053659e-01  1.00064131e-05  3.26240667e-01  1.00064131e-05  0.00000000e+00  1.00064131e-05  1.80360107e+00  1.00064131e-05  5.00000000e-01                                 
