 time            v(vbep)         time            v(vben)         time            v(vout)         time            v(vphi1)        time            v(vphi2)        time            v(vref)         yes             currtemp       
 0.00000000e+00  6.48131350e-01  0.00000000e+00  5.89625401e-01  0.00000000e+00  7.92428753e-01  0.00000000e+00  0.00000000e+00  0.00000000e+00  1.79995925e+00  0.00000000e+00  5.00000000e-01  1.00000000e+00  4.70000000e+01 
 5.00000000e-12  6.48104204e-01  5.00000000e-12  5.89602896e-01  5.00000000e-12  7.93134356e-01  5.00000000e-12  1.80000000e-02  5.00000000e-12  1.80005972e+00  5.00000000e-12  5.00000000e-01                                 
 1.00000000e-11  6.48077701e-01  1.00000000e-11  5.89580956e-01  1.00000000e-11  7.93766776e-01  1.00000000e-11  3.60000000e-02  1.00000000e-11  1.80011132e+00  1.00000000e-11  5.00000000e-01                                 
 2.00000000e-11  6.48025074e-01  2.00000000e-11  5.89537236e-01  2.00000000e-11  7.94912257e-01  2.00000000e-11  7.20000000e-02  2.00000000e-11  1.80015878e+00  2.00000000e-11  5.00000000e-01                                 
 4.00000000e-11  6.47920477e-01  4.00000000e-11  5.89450115e-01  4.00000000e-11  7.96672431e-01  4.00000000e-11  1.44000000e-01  4.00000000e-11  1.80013071e+00  4.00000000e-11  5.00000000e-01                                 
 8.00000000e-11  6.47712235e-01  8.00000000e-11  5.89276591e-01  8.00000000e-11  7.98867884e-01  8.00000000e-11  2.88000000e-01  8.00000000e-11  1.80006919e+00  8.00000000e-11  5.00000000e-01                                 
 1.60000000e-10  6.47299819e-01  1.60000000e-10  5.88932387e-01  1.60000000e-10  8.00984314e-01  1.60000000e-10  5.76000000e-01  1.60000000e-10  1.80001989e+00  1.60000000e-10  5.00000000e-01                                 
 3.20000000e-10  6.46490353e-01  3.20000000e-10  5.88254959e-01  3.20000000e-10  7.93886544e-01  3.20000000e-10  1.15200000e+00  3.20000000e-10  1.80035671e+00  3.20000000e-10  5.00000000e-01                                 
 5.00000000e-10  6.45603414e-01  5.00000000e-10  5.87509786e-01  5.00000000e-10  9.65139755e-01  5.00000000e-10  1.80000000e+00  5.00000000e-10  1.21286809e-01  5.00000000e-10  5.00000000e-01                                 
 5.21771387e-10  6.45497972e-01  5.21771387e-10  5.87420980e-01  5.21771387e-10  1.00545486e+00  5.21771387e-10  1.80000000e+00  5.21771387e-10  2.42474993e-02  5.21771387e-10  5.00000000e-01                                 
 5.65314162e-10  6.45287762e-01  5.65314162e-10  5.87243844e-01  5.65314162e-10  1.08104383e+00  5.65314162e-10  1.80000000e+00  5.65314162e-10 -1.12923378e-02  5.65314162e-10  5.00000000e-01                                 
 6.52399710e-10  6.44871430e-01  6.52399710e-10  5.86892527e-01  6.52399710e-10  1.21247948e+00  6.52399710e-10  1.80000000e+00  6.52399710e-10  9.33950828e-03  6.52399710e-10  5.00000000e-01                                 
 7.74677670e-10  6.44295846e-01  7.74677670e-10  5.86405758e-01  7.74677670e-10  1.37079231e+00  7.74677670e-10  1.80000000e+00  7.74677670e-10 -8.09418827e-03  7.74677670e-10  5.00000000e-01                                 
 9.67715394e-10  6.43407713e-01  9.67715394e-10  5.85652267e-01  9.67715394e-10  1.56885476e+00  9.67715394e-10  1.80000000e+00  9.67715394e-10  7.57711088e-03  9.67715394e-10  5.00000000e-01                                 
 1.35379084e-09  6.41701809e-01  1.35379084e-09  5.84197003e-01  1.35379084e-09  1.80907667e+00  1.35379084e-09  1.80000000e+00  1.35379084e-09 -7.15299880e-03  1.35379084e-09  5.00000000e-01                                 
 1.68833373e-09  6.40294589e-01  1.68833373e-09  5.82988582e-01  1.68833373e-09  1.89799234e+00  1.68833373e-09  1.80000000e+00  1.68833373e-09  6.93392138e-03  1.68833373e-09  5.00000000e-01                                 
 1.98541319e-09  6.39095555e-01  1.98541319e-09  5.81953389e-01  1.98541319e-09  1.93054947e+00  1.98541319e-09  1.80000000e+00  1.98541319e-09 -6.50169052e-03  1.98541319e-09  5.00000000e-01                                 
 2.31500205e-09  6.37816609e-01  2.31500205e-09  5.80843730e-01  2.31500205e-09  1.94524483e+00  2.31500205e-09  1.80000000e+00  2.31500205e-09  6.27201457e-03  2.31500205e-09  5.00000000e-01                                 
 2.74621644e-09  6.36218094e-01  2.74621644e-09  5.79449065e-01  2.74621644e-09  1.95095382e+00  2.74621644e-09  1.80000000e+00  2.74621644e-09 -5.99752391e-03  2.74621644e-09  5.00000000e-01                                 
 3.34346056e-09  6.34130324e-01  3.34346056e-09  5.77614992e-01  3.34346056e-09  1.95125451e+00  3.34346056e-09  1.80000000e+00  3.34346056e-09  5.89445247e-03  3.34346056e-09  5.00000000e-01                                 
 4.22721734e-09  6.31275270e-01  4.22721734e-09  5.75084846e-01  4.22721734e-09  1.94871297e+00  4.22721734e-09  1.80000000e+00  4.22721734e-09 -5.75155735e-03  4.22721734e-09  5.00000000e-01                                 
 5.64640553e-09  6.27172507e-01  5.64640553e-09  5.71407245e-01  5.64640553e-09  1.94478916e+00  5.64640553e-09  1.80000000e+00  5.64640553e-09  5.73058563e-03  5.64640553e-09  5.00000000e-01                                 
 8.48478189e-09  6.20273180e-01  8.48478189e-09  5.65125288e-01  8.48478189e-09  1.93740798e+00  8.48478189e-09  1.80000000e+00  8.48478189e-09 -5.65471025e-03  8.48478189e-09  5.00000000e-01                                 
 1.00799864e-08  6.16999942e-01  1.00799864e-08  5.62101271e-01  1.00799864e-08  1.93386274e+00  1.00799864e-08  1.80000000e+00  1.00799864e-08  5.63959377e-03  1.00799864e-08  5.00000000e-01                                 
 1.13980084e-08  6.14533076e-01  1.13980084e-08  5.59807329e-01  1.13980084e-08  1.93113682e+00  1.13980084e-08  1.80000000e+00  1.13980084e-08 -5.54227661e-03  1.13980084e-08  5.00000000e-01                                 
 1.27512787e-08  6.12184373e-01  1.27512787e-08  5.57612863e-01  1.27512787e-08  1.92856146e+00  1.27512787e-08  1.80000000e+00  1.27512787e-08  5.51073967e-03  1.27512787e-08  5.00000000e-01                                 
 1.47382010e-08  6.09013059e-01  1.47382010e-08  5.54636199e-01  1.47382010e-08  1.92487857e+00  1.47382010e-08  1.80000000e+00  1.47382010e-08 -5.44071881e-03  1.47382010e-08  5.00000000e-01                                 
 1.74009835e-08  6.05176512e-01  1.74009835e-08  5.51018531e-01  1.74009835e-08  1.92037129e+00  1.74009835e-08  1.80000000e+00  1.74009835e-08  5.43666403e-03  1.74009835e-08  5.00000000e-01                                 
 2.06491204e-08  6.00979948e-01  2.06491204e-08  5.47048535e-01  2.06491204e-08  1.91510790e+00  2.06491204e-08  1.80000000e+00  2.06491204e-08 -5.38510518e-03  2.06491204e-08  5.00000000e-01                                 
 2.54389331e-08  5.95432216e-01  2.54389331e-08  5.41802143e-01  2.54389331e-08  1.90752290e+00  2.54389331e-08  1.80000000e+00  2.54389331e-08  5.39414141e-03  2.54389331e-08  5.00000000e-01                                 
 3.21276245e-08  5.88556910e-01  3.21276245e-08  5.35325392e-01  3.21276245e-08  1.89515367e+00  3.21276245e-08  1.80000000e+00  3.21276245e-08 -5.35596390e-03  3.21276245e-08  5.00000000e-01                                 
 4.55050072e-08  5.77260270e-01  4.55050072e-08  5.24700419e-01  4.55050072e-08  1.86304131e+00  4.55050072e-08  1.80000000e+00  4.55050072e-08  5.37603893e-03  4.55050072e-08  5.00000000e-01                                 
 6.56111636e-08  5.63625541e-01  6.56111636e-08  5.12011629e-01  6.56111636e-08  1.82301634e+00  6.56111636e-08  1.80000000e+00  6.56111636e-08 -5.34563770e-03  6.56111636e-08  5.00000000e-01                                 
 8.54819501e-08  5.53343953e-01  8.54819501e-08  5.02462634e-01  8.54819501e-08  1.78327086e+00  8.54819501e-08  1.80000000e+00  8.54819501e-08  5.36806606e-03  8.54819501e-08  5.00000000e-01                                 
 1.10918351e-07  5.51425972e-01  1.10918351e-07  4.99480710e-01  1.10918351e-07  1.76715594e+00  1.10918351e-07  1.80000000e+00  1.10918351e-07 -5.33792678e-03  1.10918351e-07  5.00000000e-01                                 
 1.37587769e-07  5.51455042e-01  1.37587769e-07  4.98243937e-01  1.37587769e-07  1.74923152e+00  1.37587769e-07  1.80000000e+00  1.37587769e-07  5.36188064e-03  1.37587769e-07  5.00000000e-01                                 
 1.58951512e-07  5.46648887e-01  1.58951512e-07  4.93593276e-01  1.58951512e-07  1.72392027e+00  1.58951512e-07  1.80000000e+00  1.58951512e-07 -5.33139086e-03  1.58951512e-07  5.00000000e-01                                 
 1.81454202e-07  5.42905596e-01  1.81454202e-07  4.89845097e-01  1.81454202e-07  1.69805264e+00  1.81454202e-07  1.80000000e+00  1.81454202e-07  5.35456313e-03  1.81454202e-07  5.00000000e-01                                 
 2.08634742e-07  5.36256109e-01  2.08634742e-07  4.83749888e-01  2.08634742e-07  1.66460407e+00  2.08634742e-07  1.80000000e+00  2.08634742e-07 -5.32497990e-03  2.08634742e-07  5.00000000e-01                                 
 2.51692589e-07  5.23254650e-01  2.51692589e-07  4.72344742e-01  2.51692589e-07  1.61098426e+00  2.51692589e-07  1.80000000e+00  2.51692589e-07  5.34967405e-03  2.51692589e-07  5.00000000e-01                                 
 3.13944205e-07  5.06278099e-01  3.13944205e-07  4.57644414e-01  3.13944205e-07  1.52884126e+00  3.13944205e-07  1.80000000e+00  3.13944205e-07 -5.32182348e-03  3.13944205e-07  5.00000000e-01                                 
 3.81460765e-07  4.86356675e-01  3.81460765e-07  4.40869644e-01  3.81460765e-07  1.44271704e+00  3.81460765e-07  1.80000000e+00  3.81460765e-07  5.34719146e-03  3.81460765e-07  5.00000000e-01                                 
 4.72878542e-07  4.55705817e-01  4.72878542e-07  4.15683433e-01  4.72878542e-07  1.31638087e+00  4.72878542e-07  1.80000000e+00  4.72878542e-07 -5.31982283e-03  4.72878542e-07  5.00000000e-01                                 
 5.56445127e-07  4.17167913e-01  5.56445127e-07  3.84620230e-01  5.56445127e-07  1.19373139e+00  5.56445127e-07  1.80000000e+00  5.56445127e-07  5.34526694e-03  5.56445127e-07  5.00000000e-01                                 
 5.77336773e-07  4.10739446e-01  5.77336773e-07  3.79466490e-01  5.77336773e-07  1.16446711e+00  5.77336773e-07  1.80000000e+00  5.77336773e-07  2.30503029e-06  5.77336773e-07  5.00000000e-01                                 
 6.19120065e-07  4.41524912e-01  6.19120065e-07  4.04106441e-01  6.19120065e-07  1.14982125e+00  6.19120065e-07  1.80000000e+00  6.19120065e-07  1.29291794e-06  6.19120065e-07  5.00000000e-01                                 
 6.74736152e-07  7.03597024e-01  6.74736152e-07  6.42411431e-01  6.74736152e-07  1.34235241e+00  6.74736152e-07  1.80000000e+00  6.74736152e-07  6.92262573e-06  6.74736152e-07  5.00000000e-01                                 
 7.13199781e-07  7.59055993e-01  7.13199781e-07  6.94777405e-01  7.13199781e-07  1.35775735e+00  7.13199781e-07  1.80000000e+00  7.13199781e-07 -1.54534509e-06  7.13199781e-07  5.00000000e-01                                 
 7.49906993e-07  7.75117436e-01  7.49906993e-07  7.08163009e-01  7.49906993e-07  1.33190882e+00  7.49906993e-07  1.80000000e+00  7.49906993e-07  4.87363473e-06  7.49906993e-07  5.00000000e-01                                 
 7.87492126e-07  7.76192516e-01  7.87492126e-07  7.09134667e-01  7.87492126e-07  1.29638033e+00  7.87492126e-07  1.80000000e+00  7.87492126e-07 -1.66813186e-06  7.87492126e-07  5.00000000e-01                                 
 8.27570652e-07  7.75395414e-01  8.27570652e-07  7.08403225e-01  8.27570652e-07  1.25078297e+00  8.27570652e-07  1.80000000e+00  8.27570652e-07  4.41728492e-06  8.27570652e-07  5.00000000e-01                                 
 8.76011102e-07  7.72312240e-01  8.76011102e-07  7.05966436e-01  8.76011102e-07  1.19971975e+00  8.76011102e-07  1.80000000e+00  8.76011102e-07 -1.46218333e-06  8.76011102e-07  5.00000000e-01                                 
 9.35190788e-07  7.45316287e-01  9.35190788e-07  6.82575760e-01  9.35190788e-07  1.10930601e+00  9.35190788e-07  1.80000000e+00  9.35190788e-07  3.67601321e-06  9.35190788e-07  5.00000000e-01                                 
 9.92892590e-07  7.38138984e-01  9.92892590e-07  6.76174863e-01  9.92892590e-07  1.04583438e+00  9.92892590e-07  1.80000000e+00  9.92892590e-07 -8.86357989e-07  9.92892590e-07  5.00000000e-01                                 
 1.05104781e-06  7.60365601e-01  1.05104781e-06  6.95806869e-01  1.05104781e-06  1.00826129e+00  1.05104781e-06  1.80000000e+00  1.05104781e-06  4.33639613e-06  1.05104781e-06  5.00000000e-01                                 
 1.11626844e-06  7.61769562e-01  1.11626844e-06  6.97117446e-01  1.11626844e-06  9.56928223e-01  1.11626844e-06  1.80000000e+00  1.11626844e-06 -1.30305429e-06  1.11626844e-06  5.00000000e-01                                 
 1.18581378e-06  7.48750316e-01  1.18581378e-06  6.85643352e-01  1.18581378e-06  8.94176218e-01  1.18581378e-06  1.80000000e+00  1.18581378e-06  3.92998054e-06  1.18581378e-06  5.00000000e-01                                 
 1.27590908e-06  7.53717753e-01  1.27590908e-06  6.90123245e-01  1.27590908e-06  8.44029767e-01  1.27590908e-06  1.80000000e+00  1.27590908e-06 -8.86620778e-07  1.27590908e-06  5.00000000e-01                                 
 1.36929640e-06  7.60521397e-01  1.36929640e-06  6.95968270e-01  1.36929640e-06  7.93575029e-01  1.36929640e-06  1.80000000e+00  1.36929640e-06  3.91373817e-06  1.36929640e-06  5.00000000e-01                                 
 1.49757120e-06  7.50675481e-01  1.49757120e-06  6.87459312e-01  1.49757120e-06  7.15238702e-01  1.49757120e-06  1.80000000e+00  1.49757120e-06 -1.06933833e-06  1.49757120e-06  5.00000000e-01                                 
 1.63033341e-06  7.56295007e-01  1.63033341e-06  6.92296667e-01  1.63033341e-06  6.49559444e-01  1.63033341e-06  1.80000000e+00  1.63033341e-06  4.05277406e-06  1.63033341e-06  5.00000000e-01                                 
 1.78737760e-06  7.56521901e-01  1.78737760e-06  6.92584961e-01  1.78737760e-06  5.74616975e-01  1.78737760e-06  1.80000000e+00  1.78737760e-06 -1.09433675e-06  1.78737760e-06  5.00000000e-01                                 
 2.00650112e-06  7.52295261e-01  2.00650112e-06  6.88788523e-01  2.00650112e-06  5.06326654e-01  2.00650112e-06  1.80000000e+00  2.00650112e-06  3.99745706e-06  2.00650112e-06  5.00000000e-01                                 
 2.03241965e-06  7.55198061e-01  2.03241965e-06  6.91378545e-01  2.03241965e-06  5.06645653e-01  2.03241965e-06  1.80000000e+00  2.03241965e-06  1.57122251e-06  2.03241965e-06  5.00000000e-01                                 
 2.08425671e-06  7.57125243e-01  2.08425671e-06  6.93068179e-01  2.08425671e-06  5.02662659e-01  2.08425671e-06  1.80000000e+00  2.08425671e-06  1.42885885e-06  2.08425671e-06  5.00000000e-01                                 
 2.18793083e-06  7.53960515e-01  2.18793083e-06  6.90302537e-01  2.18793083e-06  4.91356288e-01  2.18793083e-06  1.80000000e+00  2.18793083e-06  1.46584767e-06  2.18793083e-06  5.00000000e-01                                 
 2.33706101e-06  7.55318391e-01  2.33706101e-06  6.91489895e-01  2.33706101e-06  4.92615546e-01  2.33706101e-06  1.80000000e+00  2.33706101e-06  1.48809675e-06  2.33706101e-06  5.00000000e-01                                 
 2.35827161e-06  7.55859262e-01  2.35827161e-06  6.91961813e-01  2.35827161e-06  4.95105479e-01  2.35827161e-06  1.80000000e+00  2.35827161e-06  1.49071592e-06  2.35827161e-06  5.00000000e-01                                 
 2.40069281e-06  7.55873390e-01  2.40069281e-06  6.91976744e-01  2.40069281e-06  4.98550267e-01  2.40069281e-06  1.80000000e+00  2.40069281e-06  1.45017032e-06  2.40069281e-06  5.00000000e-01                                 
 2.48553522e-06  7.54487273e-01  2.48553522e-06  6.90764609e-01  2.48553522e-06  4.99839735e-01  2.48553522e-06  1.80000000e+00  2.48553522e-06  1.46269646e-06  2.48553522e-06  5.00000000e-01                                 
 2.64707653e-06  7.55484032e-01  2.64707653e-06  6.91634590e-01  2.64707653e-06  5.00658787e-01  2.64707653e-06  1.80000000e+00  2.64707653e-06  1.48569645e-06  2.64707653e-06  5.00000000e-01                                 
 2.91516351e-06  7.55030471e-01  2.91516351e-06  6.91240809e-01  2.91516351e-06  4.99948640e-01  2.91516351e-06  1.80000000e+00  2.91516351e-06  1.45133182e-06  2.91516351e-06  5.00000000e-01                                 
 3.34793597e-06  7.55136766e-01  3.34793597e-06  6.91331024e-01  3.34793597e-06  5.00285301e-01  3.34793597e-06  1.80000000e+00  3.34793597e-06  1.48831289e-06  3.34793597e-06  5.00000000e-01                                 
 4.21348088e-06  7.55221655e-01  4.21348088e-06  6.91407909e-01  4.21348088e-06  5.00194169e-01  4.21348088e-06  1.80000000e+00  4.21348088e-06  1.45125409e-06  4.21348088e-06  5.00000000e-01                                 
 5.21348088e-06  7.55025439e-01  5.21348088e-06  6.91233734e-01  5.21348088e-06  5.00132933e-01  5.21348088e-06  1.80000000e+00  5.21348088e-06  1.48779494e-06  5.21348088e-06  5.00000000e-01                                 
 6.21348088e-06  7.55318057e-01  6.21348088e-06  6.91492075e-01  6.21348088e-06  5.00330746e-01  6.21348088e-06  1.80000000e+00  6.21348088e-06  1.45205007e-06  6.21348088e-06  5.00000000e-01                                 
 7.21348088e-06  7.54935283e-01  7.21348088e-06  6.91154969e-01  7.21348088e-06  5.00002750e-01  7.21348088e-06  1.80000000e+00  7.21348088e-06  1.48672690e-06  7.21348088e-06  5.00000000e-01                                 
 8.21348088e-06  7.55400382e-01  8.21348088e-06  6.91563884e-01  8.21348088e-06  5.00452681e-01  8.21348088e-06  1.80000000e+00  8.21348088e-06  1.45336906e-06  8.21348088e-06  5.00000000e-01                                 
 9.21348088e-06  7.54859699e-01  9.21348088e-06  6.91088967e-01  9.21348088e-06  4.99890156e-01  9.21348088e-06  1.80000000e+00  9.21348088e-06  1.48517877e-06  9.21348088e-06  5.00000000e-01                                 
 1.00005000e-05  7.55474846e-01  1.00005000e-05  6.91628761e-01  1.00005000e-05  5.00566851e-01  1.00005000e-05  1.80000000e+00  1.00005000e-05  1.45538755e-06  1.00005000e-05  5.00000000e-01                                 
 1.00005500e-05  7.55473922e-01  1.00005500e-05  6.91627956e-01  1.00005500e-05  4.92754423e-01  1.00005500e-05  1.62000000e+00  1.00005500e-05 -7.94535037e-05  1.00005500e-05  5.00000000e-01                                 
 1.00006500e-05  7.55472095e-01  1.00006500e-05  6.91626354e-01  1.00006500e-05  4.78938462e-01  1.00006500e-05  1.26000000e+00  1.00006500e-05 -6.28703855e-05  1.00006500e-05  5.00000000e-01                                 
 1.00008500e-05  7.55468473e-01  1.00008500e-05  6.91623175e-01  1.00008500e-05  4.76659092e-01  1.00008500e-05  5.40000000e-01  1.00008500e-05 -3.30300543e-03  1.00008500e-05  5.00000000e-01                                 
 1.00010000e-05  7.55465663e-01  1.00010000e-05  6.91620738e-01  1.00010000e-05  4.38026755e-01  1.00010000e-05  0.00000000e+00  1.00010000e-05  1.58092831e+00  1.00010000e-05  5.00000000e-01                                 
 1.00010255e-05  7.55465142e-01  1.00010255e-05  6.91620298e-01  1.00010255e-05  4.10096489e-01  1.00010255e-05  0.00000000e+00  1.00010255e-05  1.72608047e+00  1.00010255e-05  5.00000000e-01                                 
 1.00010764e-05  7.55464169e-01  1.00010764e-05  6.91619443e-01  1.00010764e-05  3.59332172e-01  1.00010764e-05  0.00000000e+00  1.00010764e-05  1.82043495e+00  1.00010764e-05  5.00000000e-01                                 
 1.00011784e-05  7.55462409e-01  1.00011784e-05  6.91617850e-01  1.00011784e-05  3.06390508e-01  1.00011784e-05  0.00000000e+00  1.00011784e-05  1.78498478e+00  1.00011784e-05  5.00000000e-01                                 
