 time            v(vbep)         time            v(vben)         time            v(vout)         time            v(vphi1)        time            v(vphi2)        time            v(vref)         time            v(voutc)        time            v(voutcc)       yes             currtemp       
 0.00000000e+00  7.19047125e-01  0.00000000e+00  6.53018157e-01  0.00000000e+00  1.49404614e+00  0.00000000e+00  0.00000000e+00  0.00000000e+00  1.79999999e+00  0.00000000e+00  6.53783464e-01  0.00000000e+00  1.49404613e+00  0.00000000e+00  1.50149155e+00  1.00000000e+00  6.30000000e+01 
 1.00000000e-11  7.19072230e-01  1.00000000e-11  6.53090695e-01  1.00000000e-11  1.49481179e+00  1.00000000e-11  1.80000000e-02  1.00000000e-11  1.80025382e+00  1.00000000e-11  6.54317762e-01  1.00000000e-11  1.49451772e+00  1.00000000e-11  1.50150502e+00                                 
 2.00000000e-11  7.19079056e-01  2.00000000e-11  6.53135592e-01  2.00000000e-11  1.49527142e+00  2.00000000e-11  3.60000000e-02  2.00000000e-11  1.80035310e+00  2.00000000e-11  6.54712777e-01  2.00000000e-11  1.49487164e+00  2.00000000e-11  1.50150975e+00                                 
 4.00000000e-11  7.19079041e-01  4.00000000e-11  6.53194281e-01  4.00000000e-11  1.49581138e+00  4.00000000e-11  7.20000000e-02  4.00000000e-11  1.80038932e+00  4.00000000e-11  6.55289848e-01  4.00000000e-11  1.49539603e+00  4.00000000e-11  1.50151085e+00                                 
 8.00000000e-11  7.19067445e-01  8.00000000e-11  6.53231098e-01  8.00000000e-11  1.49588912e+00  8.00000000e-11  1.44000000e-01  8.00000000e-11  1.80018355e+00  8.00000000e-11  6.55739120e-01  8.00000000e-11  1.49581519e+00  8.00000000e-11  1.50150033e+00                                 
 1.60000000e-10  7.19064714e-01  1.60000000e-10  6.53240906e-01  1.60000000e-10  1.49555171e+00  1.60000000e-10  2.88000000e-01  1.60000000e-10  1.80000575e+00  1.60000000e-10  6.55833534e-01  1.60000000e-10  1.49585904e+00  1.60000000e-10  1.50149114e+00                                 
 3.20000000e-10  7.19060087e-01  3.20000000e-10  6.53231418e-01  3.20000000e-10  1.49516470e+00  3.20000000e-10  5.76000000e-01  3.20000000e-10  1.79998144e+00  3.20000000e-10  6.55666701e-01  3.20000000e-10  1.49550870e+00  3.20000000e-10  1.50148600e+00                                 
 6.40000000e-10  7.18977098e-01  6.40000000e-10  6.52802431e-01  6.40000000e-10  1.49348631e+00  6.40000000e-10  1.15200000e+00  6.40000000e-10  1.80971613e+00  6.40000000e-10  6.52860607e-01  6.40000000e-10  1.49925039e+00  6.40000000e-10  1.50151101e+00                                 
 1.00000000e-09  7.19543762e-01  1.00000000e-09  6.53192698e-01  1.00000000e-09  1.47300385e+00  1.00000000e-09  1.80000000e+00  1.00000000e-09  1.03443333e-01  1.00000000e-09  6.68470238e-01  1.00000000e-09  1.50438446e+00  1.00000000e-09  1.50151131e+00                                 
 1.03718704e-09  7.19615842e-01  1.03718704e-09  6.53204998e-01  1.03718704e-09  1.47158559e+00  1.03718704e-09  1.80000000e+00  1.03718704e-09  2.42910713e-02  1.03718704e-09  6.71689139e-01  1.03718704e-09  1.50617188e+00  1.03718704e-09  1.50153596e+00                                 
 1.11156112e-09  7.19784323e-01  1.11156112e-09  6.53242670e-01  1.11156112e-09  1.46973928e+00  1.11156112e-09  1.80000000e+00  1.11156112e-09 -1.13548745e-02  1.11156112e-09  6.75762080e-01  1.11156112e-09  1.50933503e+00  1.11156112e-09  1.50155091e+00                                 
 1.26030928e-09  7.19918000e-01  1.26030928e-09  6.53094067e-01  1.26030928e-09  1.46655341e+00  1.26030928e-09  1.80000000e+00  1.26030928e-09  9.00243679e-03  1.26030928e-09  6.75740964e-01  1.26030928e-09  1.50960346e+00  1.26030928e-09  1.50150305e+00                                 
 1.44574750e-09  7.19889750e-01  1.44574750e-09  6.53077316e-01  1.44574750e-09  1.46567003e+00  1.44574750e-09  1.80000000e+00  1.44574750e-09 -6.86656266e-03  1.44574750e-09  6.74740019e-01  1.44574750e-09  1.50853214e+00  1.44574750e-09  1.50154013e+00                                 
 1.65418261e-09  7.19788201e-01  1.65418261e-09  6.53074840e-01  1.65418261e-09  1.46538084e+00  1.65418261e-09  1.80000000e+00  1.65418261e-09  5.67592647e-03  1.65418261e-09  6.73081968e-01  1.65418261e-09  1.50730291e+00  1.65418261e-09  1.50157168e+00                                 
 2.00229885e-09  7.19538658e-01  2.00229885e-09  6.53030320e-01  2.00229885e-09  1.46503290e+00  2.00229885e-09  1.80000000e+00  2.00229885e-09 -5.05733537e-03  2.00229885e-09  6.70307991e-01  2.00229885e-09  1.50477123e+00  2.00229885e-09  1.50169801e+00                                 
 2.52079012e-09  7.19260006e-01  2.52079012e-09  6.53033773e-01  2.52079012e-09  1.46482388e+00  2.52079012e-09  1.80000000e+00  2.52079012e-09  4.59617963e-03  2.52079012e-09  6.66876091e-01  2.52079012e-09  1.50197991e+00  2.52079012e-09  1.50188478e+00                                 
 3.26936491e-09  7.19005693e-01  3.26936491e-09  6.52986967e-01  3.26936491e-09  1.46360273e+00  3.26936491e-09  1.80000000e+00  3.26936491e-09 -4.41211062e-03  3.26936491e-09  6.62374913e-01  3.26936491e-09  1.49799510e+00  3.26936491e-09  1.50214655e+00                                 
 4.47401193e-09  7.18866931e-01  4.47401193e-09  6.53003918e-01  4.47401193e-09  1.46125647e+00  4.47401193e-09  1.80000000e+00  4.47401193e-09  4.21886208e-03  4.47401193e-09  6.57689147e-01  4.47401193e-09  1.49412606e+00  4.47401193e-09  1.50240312e+00                                 
 6.02367189e-09  7.18828158e-01  6.02367189e-09  6.52977773e-01  6.02367189e-09  1.45629214e+00  6.02367189e-09  1.80000000e+00  6.02367189e-09 -4.13352256e-03  6.02367189e-09  6.53936543e-01  6.02367189e-09  1.49080248e+00  6.02367189e-09  1.50247078e+00                                 
 7.37571486e-09  7.18868824e-01  7.37571486e-09  6.53012397e-01  7.37571486e-09  1.45103647e+00  7.37571486e-09  1.80000000e+00  7.37571486e-09  3.99666260e-03  7.37571486e-09  6.52663090e-01  7.37571486e-09  1.48984307e+00  7.37571486e-09  1.50233734e+00                                 
 8.86002491e-09  7.18903760e-01  8.86002491e-09  6.52989763e-01  8.86002491e-09  1.44352541e+00  8.86002491e-09  1.80000000e+00  8.86002491e-09 -3.89521101e-03  8.86002491e-09  6.51677646e-01  8.86002491e-09  1.48887988e+00  8.86002491e-09  1.50209562e+00                                 
 1.03248489e-08  7.18958660e-01  1.03248489e-08  6.53023769e-01  1.03248489e-08  1.43551454e+00  1.03248489e-08  1.80000000e+00  1.03248489e-08  3.78472156e-03  1.03248489e-08  6.51643301e-01  1.03248489e-08  1.48896156e+00  1.03248489e-08  1.50180710e+00                                 
 1.24538287e-08  7.18995850e-01  1.24538287e-08  6.52999323e-01  1.24538287e-08  1.42204832e+00  1.24538287e-08  1.80000000e+00  1.24538287e-08 -3.71415995e-03  1.24538287e-08  6.51397259e-01  1.24538287e-08  1.48862203e+00  1.24538287e-08  1.50138396e+00                                 
 1.48952270e-08  7.19040180e-01  1.48952270e-08  6.53031291e-01  1.48952270e-08  1.40590373e+00  1.48952270e-08  1.80000000e+00  1.48952270e-08  3.65325090e-03  1.48952270e-08  6.51840653e-01  1.48952270e-08  1.48909478e+00  1.48952270e-08  1.50092490e+00                                 
 1.84926139e-08  7.19050191e-01  1.84926139e-08  6.53003808e-01  1.84926139e-08  1.38042745e+00  1.84926139e-08  1.80000000e+00  1.84926139e-08 -3.61102223e-03  1.84926139e-08  6.51976746e-01  1.84926139e-08  1.48907391e+00  1.84926139e-08  1.50034610e+00                                 
 2.31328615e-08  7.19066233e-01  2.31328615e-08  6.53033612e-01  2.31328615e-08  1.34725206e+00  2.31328615e-08  1.80000000e+00  2.31328615e-08  3.58101284e-03  2.31328615e-08  6.52641221e-01  2.31328615e-08  1.48972689e+00  2.31328615e-08  1.49975538e+00                                 
 3.13843219e-08  7.19051299e-01  3.13843219e-08  6.53004451e-01  3.13843219e-08  1.28710287e+00  3.13843219e-08  1.80000000e+00  3.13843219e-08 -3.56208279e-03  3.13843219e-08  6.52923408e-01  3.13843219e-08  1.48983101e+00  3.13843219e-08  1.49904123e+00                                 
 4.42820900e-08  7.19056338e-01  4.42820900e-08  6.53033213e-01  4.42820900e-08  1.19365581e+00  4.42820900e-08  1.80000000e+00  4.42820900e-08  3.55217786e-03  4.42820900e-08  6.53594344e-01  4.42820900e-08  1.49049612e+00  4.42820900e-08  1.49845242e+00                                 
 7.00776261e-08  7.19041854e-01  7.00776261e-08  6.53003587e-01  7.00776261e-08  1.00768114e+00  7.00776261e-08  1.80000000e+00  7.00776261e-08 -3.54493878e-03  7.00776261e-08  6.53632109e-01  7.00776261e-08  1.49041200e+00  7.00776261e-08  1.49807642e+00                                 
 1.02432408e-07  7.19051854e-01  1.02432408e-07  6.53032662e-01  1.02432408e-07  7.87448189e-01  1.02432408e-07  1.80000000e+00  1.02432408e-07  3.54456580e-03  1.02432408e-07  6.53899395e-01  1.02432408e-07  1.49074935e+00  1.02432408e-07  1.49803890e+00                                 
 1.31951593e-07  7.19046564e-01  1.31951593e-07  6.53003854e-01  1.31951593e-07  6.71564588e-01  1.31951593e-07  1.80000000e+00  1.31951593e-07 -3.52815041e-03  1.31951593e-07  6.53667680e-01  1.31951593e-07  1.49044139e+00  1.31951593e-07  1.49804384e+00                                 
 1.65198830e-07  7.19045530e-01  1.65198830e-07  6.53032478e-01  1.65198830e-07  6.53649256e-01  1.65198830e-07  1.80000000e+00  1.65198830e-07  3.54082113e-03  1.65198830e-07  6.53906731e-01  1.65198830e-07  1.49075347e+00  1.65198830e-07  1.49804606e+00                                 
 1.83167090e-07  7.19046594e-01  1.83167090e-07  6.53003619e-01  1.83167090e-07  6.54251429e-01  1.83167090e-07  1.80000000e+00  1.83167090e-07 -3.51547599e-03  1.83167090e-07  6.53662439e-01  1.83167090e-07  1.49043553e+00  1.83167090e-07  1.49804590e+00                                 
 2.05247365e-07  7.19048458e-01  2.05247365e-07  6.53032707e-01  2.05247365e-07  6.54600194e-01  2.05247365e-07  1.80000000e+00  2.05247365e-07  3.52678276e-03  2.05247365e-07  6.53904387e-01  2.05247365e-07  1.49074990e+00  2.05247365e-07  1.49804336e+00                                 
 2.46570524e-07  7.19045343e-01  2.46570524e-07  6.53003594e-01  2.46570524e-07  6.54508008e-01  2.46570524e-07  1.80000000e+00  2.46570524e-07 -3.50592035e-03  2.46570524e-07  6.53662622e-01  2.46570524e-07  1.49043373e+00  2.46570524e-07  1.49804227e+00                                 
 3.29216842e-07  7.19049116e-01  3.29216842e-07  6.53032709e-01  3.29216842e-07  6.54630525e-01  3.29216842e-07  1.80000000e+00  3.29216842e-07  3.52176702e-03  3.29216842e-07  6.53904220e-01  3.29216842e-07  1.49074567e+00  3.29216842e-07  1.49803867e+00                                 
 4.51291915e-07  7.19044996e-01  4.51291915e-07  6.53003596e-01  4.51291915e-07  6.54501939e-01  4.51291915e-07  1.80000000e+00  4.51291915e-07 -3.50314629e-03  4.51291915e-07  6.53662689e-01  4.51291915e-07  1.49042723e+00  4.51291915e-07  1.49803558e+00                                 
 6.95442060e-07  7.19049319e-01  6.95442060e-07  6.53032708e-01  6.95442060e-07  6.54632179e-01  6.95442060e-07  1.80000000e+00  6.95442060e-07  3.52007214e-03  6.95442060e-07  6.53904186e-01  6.95442060e-07  1.49073381e+00  6.95442060e-07  1.49802691e+00                                 
 1.18374235e-06  7.19044897e-01  1.18374235e-06  6.53003597e-01  1.18374235e-06  6.54500796e-01  1.18374235e-06  1.80000000e+00  1.18374235e-06 -3.50229418e-03  1.18374235e-06  6.53662704e-01  1.18374235e-06  1.49040360e+00  1.18374235e-06  1.49801194e+00                                 
 2.16034293e-06  7.19049369e-01  2.16034293e-06  6.53032707e-01  2.16034293e-06  6.54632494e-01  2.16034293e-06  1.80000000e+00  2.16034293e-06  3.51964860e-03  2.16034293e-06  6.53904179e-01  2.16034293e-06  1.49068649e+00  2.16034293e-06  1.49797966e+00                                 
 3.36034293e-06  7.19044867e-01  3.36034293e-06  6.53003597e-01  3.36034293e-06  6.54500482e-01  3.36034293e-06  1.80000000e+00  3.36034293e-06 -3.50205352e-03  3.36034293e-06  6.53662709e-01  3.36034293e-06  1.49033335e+00  3.36034293e-06  1.49794177e+00                                 
 4.56034293e-06  7.19049395e-01  4.56034293e-06  6.53032707e-01  4.56034293e-06  6.54632651e-01  4.56034293e-06  1.80000000e+00  4.56034293e-06  3.51941955e-03  4.56034293e-06  6.53904175e-01  4.56034293e-06  1.49060905e+00  4.56034293e-06  1.49790233e+00                                 
 5.76034293e-06  7.19044841e-01  5.76034293e-06  6.53003597e-01  5.76034293e-06  6.54500212e-01  5.76034293e-06  1.80000000e+00  5.76034293e-06 -3.50182734e-03  5.76034293e-06  6.53662712e-01  5.76034293e-06  1.49025599e+00  5.76034293e-06  1.49786449e+00                                 
 6.00100000e-06  7.19049473e-01  6.00100000e-06  6.53032706e-01  6.00100000e-06  6.54633112e-01  6.00100000e-06  1.80000000e+00  6.00100000e-06  3.51873196e-03  6.00100000e-06  6.53904165e-01  6.00100000e-06  1.49056260e+00  6.00100000e-06  1.49785597e+00                                 
 6.00110000e-06  7.18996263e-01  6.00110000e-06  6.52780524e-01  6.00110000e-06  6.52779158e-01  6.00110000e-06  1.62000000e+00  6.00110000e-06  2.15346015e-04  6.00110000e-06  6.52232886e-01  6.00110000e-06  1.48908458e+00  6.00110000e-06  1.49784528e+00                                 
 6.00130000e-06  7.19029314e-01  6.00130000e-06  6.52776681e-01  6.00130000e-06  6.52839269e-01  6.00130000e-06  1.26000000e+00  6.00130000e-06 -2.49624232e-04  6.00130000e-06  6.51977643e-01  6.00130000e-06  1.48886029e+00  6.00130000e-06  1.49786135e+00                                 
 6.00165466e-06  7.19095036e-01  6.00165466e-06  6.52974292e-01  6.00165466e-06  6.54836182e-01  6.00165466e-06  6.21617275e-01  6.00165466e-06  6.14740592e-03  6.00165466e-06  6.52292409e-01  6.00165466e-06  1.48581075e+00  6.00165466e-06  1.49783766e+00                                 
 6.00200000e-06  7.19031613e-01  6.00200000e-06  6.51577669e-01  6.00200000e-06  6.87096336e-01  6.00200000e-06  0.00000000e+00  6.00200000e-06  1.60328182e+00  6.00200000e-06  6.37583232e-01  6.00200000e-06  1.29048991e+00  6.00200000e-06  1.49726188e+00                                 
 6.00204129e-06  7.19047298e-01  6.00204129e-06  6.51085935e-01  6.00204129e-06  6.94060333e-01  6.00204129e-06  0.00000000e+00  6.00204129e-06  1.72358198e+00  6.00204129e-06  6.31999018e-01  6.00204129e-06  1.22739516e+00  6.00204129e-06  1.49726681e+00                                 
 6.00212386e-06  7.19048782e-01  6.00212386e-06  6.50236077e-01  6.00212386e-06  6.99207530e-01  6.00212386e-06  0.00000000e+00  6.00212386e-06  1.81326463e+00  6.00212386e-06  6.22571808e-01  6.00212386e-06  1.09770767e+00  6.00212386e-06  1.49764306e+00                                 
 6.00228901e-06  7.19044407e-01  6.00228901e-06  6.50126150e-01  6.00228901e-06  6.90050753e-01  6.00228901e-06  0.00000000e+00  6.00228901e-06  1.78943372e+00  6.00228901e-06  6.22103172e-01  6.00228901e-06  8.92943634e-01  6.00228901e-06  1.49812214e+00                                 
 6.00244929e-06  7.19047031e-01  6.00244929e-06  6.50856458e-01  6.00244929e-06  6.80613207e-01  6.00244929e-06  0.00000000e+00  6.00244929e-06  1.80385059e+00  6.00244929e-06  6.30335921e-01  6.00244929e-06  7.74696972e-01  6.00244929e-06  1.49811308e+00                                 
 6.00263045e-06  7.19043896e-01  6.00263045e-06  6.51763530e-01  6.00263045e-06  6.68373529e-01  6.00263045e-06  0.00000000e+00  6.00263045e-06  1.79691460e+00  6.00263045e-06  6.39359900e-01  6.00263045e-06  7.02367941e-01  6.00263045e-06  1.49831453e+00                                 
 6.00285481e-06  7.19046968e-01  6.00285481e-06  6.52736582e-01  6.00285481e-06  6.59675393e-01  6.00285481e-06  0.00000000e+00  6.00285481e-06  1.80189195e+00  6.00285481e-06  6.48569232e-01  6.00285481e-06  6.70450915e-01  6.00285481e-06  1.49798401e+00                                 
 6.00310420e-06  7.19044511e-01  6.00310420e-06  6.53182391e-01  6.00310420e-06  6.56584033e-01  6.00310420e-06  0.00000000e+00  6.00310420e-06  1.79880770e+00  6.00310420e-06  6.51906368e-01  6.00310420e-06  6.59023901e-01  6.00310420e-06  1.49726307e+00                                 
 6.00334100e-06  7.19047313e-01  6.00334100e-06  6.53424844e-01  6.00334100e-06  6.55542393e-01  6.00334100e-06  0.00000000e+00  6.00334100e-06  1.80084402e+00  6.00334100e-06  6.53954342e-01  6.00334100e-06  6.56843232e-01  6.00334100e-06  1.49618039e+00                                 
 6.00371845e-06  7.19045280e-01  6.00371845e-06  6.53479611e-01  6.00371845e-06  6.56042642e-01  6.00371845e-06  0.00000000e+00  6.00371845e-06  1.79938777e+00  6.00371845e-06  6.54336992e-01  6.00371845e-06  6.55642302e-01  6.00371845e-06  1.49429084e+00                                 
 6.00427167e-06  7.19047792e-01  6.00427167e-06  6.53500620e-01  6.00427167e-06  6.57048800e-01  6.00427167e-06  0.00000000e+00  6.00427167e-06  1.80053822e+00  6.00427167e-06  6.55053851e-01  6.00427167e-06  6.57116191e-01  6.00427167e-06  1.49110784e+00                                 
 6.00531569e-06  7.19045890e-01  6.00531569e-06  6.53395416e-01  6.00531569e-06  6.60163240e-01  6.00531569e-06  0.00000000e+00  6.00531569e-06  1.79953642e+00  6.00531569e-06  6.54857612e-01  6.00531569e-06  6.59543791e-01  6.00531569e-06  1.48474998e+00                                 
 6.00705339e-06  7.19048111e-01  6.00705339e-06  6.53301553e-01  6.00705339e-06  6.64955196e-01  6.00705339e-06  0.00000000e+00  6.00705339e-06  1.80046194e+00  6.00705339e-06  6.55218438e-01  6.00705339e-06  6.64919393e-01  6.00705339e-06  1.47348169e+00                                 
 6.01052878e-06  7.19046084e-01  6.01052878e-06  6.53089387e-01  6.01052878e-06  6.75304906e-01  6.01052878e-06  0.00000000e+00  6.01052878e-06  1.79957513e+00  6.01052878e-06  6.54698073e-01  6.01052878e-06  6.74637853e-01  6.01052878e-06  1.45013810e+00                                 
 6.01747956e-06  7.19048154e-01  6.01747956e-06  6.53004876e-01  6.01747956e-06  6.94733619e-01  6.01747956e-06  0.00000000e+00  6.01747956e-06  1.80044205e+00  6.01747956e-06  6.54666254e-01  6.01747956e-06  6.94686027e-01  6.01747956e-06  1.40172921e+00                                 
 6.03138113e-06  7.19046092e-01  6.03138113e-06  6.52996426e-01  6.03138113e-06  7.32378047e-01  6.03138113e-06  0.00000000e+00  6.03138113e-06  1.79958348e+00  6.03138113e-06  6.53887699e-01  6.03138113e-06  7.31599156e-01  6.03138113e-06  1.30960580e+00                                 
 6.04582777e-06  7.19048153e-01  6.04582777e-06  6.53027189e-01  6.04582777e-06  7.68322500e-01  6.04582777e-06  0.00000000e+00  6.04582777e-06  1.80043456e+00  6.04582777e-06  6.54040371e-01  6.04582777e-06  7.68313562e-01  6.04582777e-06  1.22400805e+00                                 
 6.07472106e-06  7.19046097e-01  6.07472106e-06  6.53005136e-01  6.07472106e-06  8.33464945e-01  6.07472106e-06  0.00000000e+00  6.07472106e-06  1.79958535e+00  6.07472106e-06  6.53609971e-01  6.07472106e-06  8.32258039e-01  6.07472106e-06  1.07482258e+00                                 
 6.11305876e-06  7.19048152e-01  6.11305876e-06  6.53031327e-01  6.11305876e-06  9.05385158e-01  6.11305876e-06  0.00000000e+00  6.11305876e-06  1.80042853e+00  6.11305876e-06  6.53940146e-01  6.11305876e-06  9.05583229e-01  6.11305876e-06  9.51841371e-01                                 
 6.17136089e-06  7.19046098e-01  6.17136089e-06  6.53004891e-01  6.17136089e-06  9.90112075e-01  6.17136089e-06  0.00000000e+00  6.17136089e-06  1.79958268e+00  6.17136089e-06  6.53607862e-01  6.17136089e-06  9.87834978e-01  6.17136089e-06  9.51836537e-01                                 
 6.21203933e-06  7.19048151e-01  6.21203933e-06  6.53031673e-01  6.21203933e-06  1.03382091e+00  6.21203933e-06  0.00000000e+00  6.21203933e-06  1.80042368e+00  6.21203933e-06  6.53948429e-01  6.21203933e-06  1.03461902e+00  6.21203933e-06  1.01137601e+00                                 
