 time            v(vbep)         time            v(vben)         time            v(vout)         time            v(vphi1)        time            v(vphi2)        time            v(vref)         yes             currtemp       
 0.00000000e+00  6.54773881e-01  0.00000000e+00  5.95875905e-01  0.00000000e+00  1.05275056e+00  0.00000000e+00  0.00000000e+00  0.00000000e+00  1.79993677e+00  0.00000000e+00  5.95875905e-01  1.00000000e+00  4.90000000e+01 
 5.00000000e-12  6.54735918e-01  5.00000000e-12  5.95844657e-01  5.00000000e-12  1.05348639e+00  5.00000000e-12  1.80000000e-02  5.00000000e-12  1.80006541e+00  5.00000000e-12  5.95844657e-01                                 
 1.00000000e-11  6.54699306e-01  1.00000000e-11  5.95814367e-01  1.00000000e-11  1.05415573e+00  1.00000000e-11  3.60000000e-02  1.00000000e-11  1.80014305e+00  1.00000000e-11  5.95814367e-01                                 
 2.00000000e-11  6.54626958e-01  2.00000000e-11  5.95754070e-01  2.00000000e-11  1.05538972e+00  2.00000000e-11  7.20000000e-02  2.00000000e-11  1.80023083e+00  2.00000000e-11  5.95754070e-01                                 
 4.00000000e-11  6.54483763e-01  4.00000000e-11  5.95634041e-01  4.00000000e-11  1.05737313e+00  4.00000000e-11  1.44000000e-01  4.00000000e-11  1.80022360e+00  4.00000000e-11  5.95634041e-01                                 
 8.00000000e-11  6.54199030e-01  8.00000000e-11  5.95395283e-01  8.00000000e-11  1.06001658e+00  8.00000000e-11  2.88000000e-01  8.00000000e-11  1.80012548e+00  8.00000000e-11  5.95395283e-01                                 
 1.60000000e-10  6.53636828e-01  1.60000000e-10  5.94922922e-01  1.60000000e-10  1.06218781e+00  1.60000000e-10  5.76000000e-01  1.60000000e-10  1.80001346e+00  1.60000000e-10  5.94922922e-01                                 
 3.20000000e-10  6.52539471e-01  3.20000000e-10  5.93997980e-01  3.20000000e-10  1.05503165e+00  3.20000000e-10  1.15200000e+00  3.20000000e-10  1.80029308e+00  3.20000000e-10  5.93997980e-01                                 
 5.00000000e-10  6.51346378e-01  5.00000000e-10  5.92987653e-01  5.00000000e-10  1.16044119e+00  5.00000000e-10  1.80000000e+00  5.00000000e-10  1.60682463e-01  5.00000000e-10  5.92987653e-01                                 
 5.21634834e-10  6.51206139e-01  5.21634834e-10  5.92868556e-01  5.21634834e-10  1.18708165e+00  5.21634834e-10  1.80000000e+00  5.21634834e-10  4.12300332e-02  5.21634834e-10  5.92868556e-01                                 
 5.64904503e-10  6.50926801e-01  5.64904503e-10  5.92631177e-01  5.64904503e-10  1.24018539e+00  5.64904503e-10  1.80000000e+00  5.64904503e-10 -1.50853431e-02  5.64904503e-10  5.92631177e-01                                 
 6.51443841e-10  6.50375028e-01  6.51443841e-10  5.92161531e-01  6.51443841e-10  1.33571527e+00  6.51443841e-10  1.80000000e+00  6.51443841e-10  1.27368138e-02  6.51443841e-10  5.92161531e-01                                 
 7.71851854e-10  6.49622211e-01  7.71851854e-10  5.91519138e-01  7.71851854e-10  1.45085314e+00  7.71851854e-10  1.80000000e+00  7.71851854e-10 -9.55943505e-03  7.71851854e-10  5.91519138e-01                                 
 9.54156695e-10  6.48513859e-01  9.54156695e-10  5.90569988e-01  9.54156695e-10  1.59097078e+00  9.54156695e-10  1.80000000e+00  9.54156695e-10  9.42721105e-03  9.54156695e-10  5.90569988e-01                                 
 1.31876638e-09  6.46401870e-01  1.31876638e-09  5.88750546e-01  1.31876638e-09  1.76456992e+00  1.31876638e-09  1.80000000e+00  1.31876638e-09 -8.23157586e-03  1.31876638e-09  5.88750546e-01                                 
 1.65867494e-09  6.44549002e-01  1.65867494e-09  5.87142493e-01  1.65867494e-09  1.83857982e+00  1.65867494e-09  1.80000000e+00  1.65867494e-09  8.05908109e-03  1.65867494e-09  5.87142493e-01                                 
 2.03562176e-09  6.42610732e-01  2.03562176e-09  5.85448831e-01  2.03562176e-09  1.87085864e+00  2.03562176e-09  1.80000000e+00  2.03562176e-09 -7.44498964e-03  2.03562176e-09  5.85448831e-01                                 
 2.38627536e-09  6.40906949e-01  2.38627536e-09  5.83950515e-01  2.38627536e-09  1.88150526e+00  2.38627536e-09  1.80000000e+00  2.38627536e-09  7.08482654e-03  2.38627536e-09  5.83950515e-01                                 
 2.90650615e-09  6.38534330e-01  2.90650615e-09  5.81849816e-01  2.90650615e-09  1.88477746e+00  2.90650615e-09  1.80000000e+00  2.90650615e-09 -6.74620073e-03  2.90650615e-09  5.81849816e-01                                 
 3.55920470e-09  6.35787524e-01  3.55920470e-09  5.79397664e-01  3.55920470e-09  1.88381385e+00  3.55920470e-09  1.80000000e+00  3.55920470e-09  6.56131169e-03  3.55920470e-09  5.79397664e-01                                 
 4.67402337e-09  6.31581367e-01  4.67402337e-09  5.75603611e-01  4.67402337e-09  1.87962262e+00  4.67402337e-09  1.80000000e+00  4.67402337e-09 -6.40711539e-03  4.67402337e-09  5.75603611e-01                                 
 6.39952878e-09  6.26010200e-01  6.39952878e-09  5.70509729e-01  6.39952878e-09  1.87457974e+00  6.39952878e-09  1.80000000e+00  6.39952878e-09  6.35499605e-03  6.39952878e-09  5.70509729e-01                                 
 9.85053961e-09  6.17154183e-01  9.85053961e-09  5.62272811e-01  9.85053961e-09  1.86597814e+00  9.85053961e-09  1.80000000e+00  9.85053961e-09 -6.28281526e-03  9.85053961e-09  5.62272811e-01                                 
 1.19605545e-08  6.12844402e-01  1.19605545e-08  5.58199484e-01  1.19605545e-08  1.86226949e+00  1.19605545e-08  1.80000000e+00  1.19605545e-08  6.24898797e-03  1.19605545e-08  5.58199484e-01                                 
 1.34766508e-08  6.10098506e-01  1.34766508e-08  5.55586289e-01  1.34766508e-08  1.85946510e+00  1.34766508e-08  1.80000000e+00  1.34766508e-08 -6.13498443e-03  1.34766508e-08  5.55586289e-01                                 
 1.50288925e-08  6.07528406e-01  1.50288925e-08  5.53129136e-01  1.50288925e-08  1.85742045e+00  1.50288925e-08  1.80000000e+00  1.50288925e-08  6.07581658e-03  1.50288925e-08  5.53129136e-01                                 
 1.67733261e-08  6.04883425e-01  1.67733261e-08  5.50589840e-01  1.67733261e-08  1.85474281e+00  1.67733261e-08  1.80000000e+00  1.67733261e-08 -5.97774785e-03  1.67733261e-08  5.50589840e-01                                 
 1.87846819e-08  6.02101066e-01  1.87846819e-08  5.47907913e-01  1.87846819e-08  1.85253925e+00  1.87846819e-08  1.80000000e+00  1.87846819e-08  5.93781595e-03  1.87846819e-08  5.47907913e-01                                 
 2.11028497e-08  5.99189691e-01  2.11028497e-08  5.45090578e-01  2.11028497e-08  1.84966160e+00  2.11028497e-08  1.80000000e+00  2.11028497e-08 -5.86001915e-03  2.11028497e-08  5.45090578e-01                                 
 2.47245931e-08  5.95146501e-01  2.47245931e-08  5.41160800e-01  2.47245931e-08  1.84643119e+00  2.47245931e-08  1.80000000e+00  2.47245931e-08  5.84882862e-03  2.47245931e-08  5.41160800e-01                                 
 2.84483538e-08  5.91507458e-01  2.84483538e-08  5.37607195e-01  2.84483538e-08  1.84305453e+00  2.84483538e-08  1.80000000e+00  2.84483538e-08 -5.79175840e-03  2.84483538e-08  5.37607195e-01                                 
 3.54481996e-08  5.85689253e-01  3.54481996e-08  5.31896629e-01  3.54481996e-08  1.83849569e+00  3.54481996e-08  1.80000000e+00  3.54481996e-08  5.79818372e-03  3.54481996e-08  5.31896629e-01                                 
 4.58927923e-08  5.78734352e-01  4.58927923e-08  5.25028362e-01  4.58927923e-08  1.83213184e+00  4.58927923e-08  1.80000000e+00  4.58927923e-08 -5.76177726e-03  4.58927923e-08  5.25028362e-01                                 
 6.52245344e-08  5.68863318e-01  6.52245344e-08  5.15258155e-01  6.52245344e-08  1.81468063e+00  6.52245344e-08  1.80000000e+00  6.52245344e-08  5.78012732e-03  6.52245344e-08  5.15258155e-01                                 
 8.56478984e-08  5.59540346e-01  8.56478984e-08  5.06321882e-01  8.56478984e-08  1.79494282e+00  8.56478984e-08  1.80000000e+00  8.56478984e-08 -5.74928964e-03  8.56478984e-08  5.06321882e-01                                 
 1.03153470e-07  5.49964710e-01  1.03153470e-07  4.97673721e-01  1.03153470e-07  1.78082413e+00  1.03153470e-07  1.80000000e+00  1.03153470e-07  5.76711909e-03  1.03153470e-07  4.97673721e-01                                 
 1.21293699e-07  5.41386335e-01  1.21293699e-07  4.89950437e-01  1.21293699e-07  1.74440476e+00  1.21293699e-07  1.80000000e+00  1.21293699e-07 -5.73695442e-03  1.21293699e-07  4.89950437e-01                                 
 1.39872987e-07  5.33353879e-01  1.39872987e-07  4.82779971e-01  1.39872987e-07  1.71226395e+00  1.39872987e-07  1.80000000e+00  1.39872987e-07  5.75444242e-03  1.39872987e-07  4.82779971e-01                                 
 1.57569296e-07  5.26947288e-01  1.57569296e-07  4.77039233e-01  1.57569296e-07  1.68250003e+00  1.57569296e-07  1.80000000e+00  1.57569296e-07 -5.72346405e-03  1.57569296e-07  4.77039233e-01                                 
 1.80425163e-07  5.28761918e-01  1.80425163e-07  4.77686271e-01  1.80425163e-07  1.67427084e+00  1.80425163e-07  1.80000000e+00  1.80425163e-07  5.74511739e-03  1.80425163e-07  4.77686271e-01                                 
 2.04528552e-07  5.31735185e-01  2.04528552e-07  4.79271369e-01  2.04528552e-07  1.65947953e+00  2.04528552e-07  1.80000000e+00  2.04528552e-07 -5.71349299e-03  2.04528552e-07  4.79271369e-01                                 
 2.27383219e-07  5.28414817e-01  2.27383219e-07  4.75985727e-01  2.27383219e-07  1.63236247e+00  2.27383219e-07  1.80000000e+00  2.27383219e-07  5.73347161e-03  2.27383219e-07  4.75985727e-01                                 
 2.48496845e-07  5.25239350e-01  2.48496845e-07  4.72920665e-01  2.48496845e-07  1.60859035e+00  2.48496845e-07  1.80000000e+00  2.48496845e-07 -5.70253273e-03  2.48496845e-07  4.72920665e-01                                 
 2.72707188e-07  5.19753032e-01  2.72707188e-07  4.68003068e-01  2.72707188e-07  1.57881631e+00  2.72707188e-07  1.80000000e+00  2.72707188e-07  5.72248247e-03  2.72707188e-07  4.68003068e-01                                 
 3.15951366e-07  5.08592437e-01  3.15951366e-07  4.58275827e-01  3.15951366e-07  1.52458455e+00  3.15951366e-07  1.80000000e+00  3.15951366e-07 -5.69495332e-03  3.15951366e-07  4.58275827e-01                                 
 3.66258947e-07  4.96521172e-01  3.66258947e-07  4.47866055e-01  3.66258947e-07  1.46111260e+00  3.66258947e-07  1.80000000e+00  3.66258947e-07  5.71738923e-03  3.66258947e-07  4.47866055e-01                                 
 4.66874109e-07  4.68354167e-01  4.66874109e-07  4.24315513e-01  4.66874109e-07  1.33023123e+00  4.66874109e-07  1.80000000e+00  4.66874109e-07 -5.69154171e-03  4.66874109e-07  4.24315513e-01                                 
 5.80304778e-07  4.42082119e-01  5.80304778e-07  4.02629653e-01  5.80304778e-07  1.18600610e+00  5.80304778e-07  1.80000000e+00  5.80304778e-07  5.71537242e-03  5.80304778e-07  4.02629653e-01                                 
 6.95818773e-07  4.11335666e-01  6.95818773e-07  3.77787298e-01  6.95818773e-07  1.03974446e+00  6.95818773e-07  1.80000000e+00  6.95818773e-07 -5.68952641e-03  6.95818773e-07  3.77787298e-01                                 
 7.09250549e-07  4.14792144e-01  7.09250549e-07  3.80555128e-01  7.09250549e-07  1.02937346e+00  7.09250549e-07  1.80000000e+00  7.09250549e-07 -5.34872914e-07  7.09250549e-07  3.80555128e-01                                 
 7.36114099e-07  4.48593035e-01  7.36114099e-07  4.07609190e-01  7.36114099e-07  1.03511144e+00  7.36114099e-07  1.80000000e+00  7.36114099e-07  7.19084534e-06  7.36114099e-07  4.07609190e-01                                 
 7.89841199e-07  7.00945923e-01  7.89841199e-07  6.39304391e-01  7.89841199e-07  1.22283052e+00  7.89841199e-07  1.80000000e+00  7.89841199e-07  1.49150385e-05  7.89841199e-07  6.39304391e-01                                 
 8.41809946e-07  7.67071730e-01  8.41809946e-07  7.00640607e-01  8.41809946e-07  1.23501536e+00  8.41809946e-07  1.80000000e+00  8.41809946e-07 -6.44037711e-06  8.41809946e-07  7.00640607e-01                                 
 8.89284245e-07  7.80669310e-01  8.89284245e-07  7.11561359e-01  8.89284245e-07  1.19491281e+00  8.89284245e-07  1.80000000e+00  8.89284245e-07  9.77287619e-06  8.89284245e-07  7.11561359e-01                                 
 9.32138182e-07  7.81186848e-01  9.32138182e-07  7.12052357e-01  9.32138182e-07  1.15401705e+00  9.32138182e-07  1.80000000e+00  9.32138182e-07 -7.45404605e-06  9.32138182e-07  7.12052357e-01                                 
 9.77234022e-07  7.80914704e-01  9.77234022e-07  7.11763632e-01  9.77234022e-07  1.10332861e+00  9.77234022e-07  1.80000000e+00  9.77234022e-07  9.42937725e-06  9.77234022e-07  7.11763632e-01                                 
 1.01946275e-06  7.55546515e-01  1.01946275e-06  6.91006985e-01  1.01946275e-06  1.04040574e+00  1.01946275e-06  1.80000000e+00  1.01946275e-06 -9.89607253e-06  1.01946275e-06  6.91006985e-01                                 
 1.06653342e-06  7.17228263e-01  1.06653342e-06  6.55707021e-01  1.06653342e-06  9.59885604e-01  1.06653342e-06  1.80000000e+00  1.06653342e-06  8.22074873e-06  1.06653342e-06  6.55707021e-01                                 
 1.11391926e-06  7.36673500e-01  1.11391926e-06  6.74155244e-01  1.11391926e-06  9.43446531e-01  1.11391926e-06  1.80000000e+00  1.11391926e-06 -3.66717453e-06  1.11391926e-06  6.74155244e-01                                 
 1.16141141e-06  7.57115284e-01  1.16141141e-06  6.92123201e-01  1.16141141e-06  9.25758296e-01  1.16141141e-06  1.80000000e+00  1.16141141e-06  8.16807318e-06  1.16141141e-06  6.92123201e-01                                 
 1.21852659e-06  7.60156585e-01  1.21852659e-06  6.94859614e-01  1.21852659e-06  8.92143956e-01  1.21852659e-06  1.80000000e+00  1.21852659e-06 -5.23204365e-06  1.21852659e-06  6.94859614e-01                                 
 1.28482541e-06  7.48743555e-01  1.28482541e-06  6.84850001e-01  1.28482541e-06  8.39664036e-01  1.28482541e-06  1.80000000e+00  1.28482541e-06  7.09563833e-06  1.28482541e-06  6.84850001e-01                                 
 1.37997024e-06  7.48439419e-01  1.37997024e-06  6.84699514e-01  1.37997024e-06  7.86020241e-01  1.37997024e-06  1.80000000e+00  1.37997024e-06 -4.30898764e-06  1.37997024e-06  6.84699514e-01                                 
 1.46891588e-06  7.57875857e-01  1.46891588e-06  6.92798761e-01  1.46891588e-06  7.49146961e-01  1.46891588e-06  1.80000000e+00  1.46891588e-06  7.63163063e-06  1.46891588e-06  6.92798761e-01                                 
 1.58488891e-06  7.49040003e-01  1.58488891e-06  6.85244511e-01  1.58488891e-06  7.04080334e-01  1.58488891e-06  1.80000000e+00  1.58488891e-06 -4.91508519e-06  1.58488891e-06  6.85244511e-01                                 
 1.71973204e-06  7.51313972e-01  1.71973204e-06  6.87097936e-01  1.71973204e-06  6.84013722e-01  1.71973204e-06  1.80000000e+00  1.71973204e-06  8.15014558e-06  1.71973204e-06  6.87097936e-01                                 
 1.86420202e-06  7.55558340e-01  1.86420202e-06  6.90916772e-01  1.86420202e-06  6.78577832e-01  1.86420202e-06  1.80000000e+00  1.86420202e-06 -4.75954939e-06  1.86420202e-06  6.90916772e-01                                 
 2.02153293e-06  7.47502607e-01  2.02153293e-06  6.83747167e-01  2.02153293e-06  6.81369228e-01  2.02153293e-06  1.80000000e+00  2.02153293e-06  7.86893541e-06  2.02153293e-06  6.83747167e-01                                 
 2.17826119e-06  7.55866457e-01  2.17826119e-06  6.91169663e-01  2.17826119e-06  6.96439303e-01  2.17826119e-06  1.80000000e+00  2.17826119e-06 -4.29333407e-06  2.17826119e-06  6.91169663e-01                                 
 2.19931426e-06  7.54280541e-01  2.19931426e-06  6.89758188e-01  2.19931426e-06  6.92205136e-01  2.19931426e-06  1.80000000e+00  2.19931426e-06  1.41292835e-06  2.19931426e-06  6.89758188e-01                                 
 2.24142040e-06  7.51741715e-01  2.24142040e-06  6.87543037e-01  2.24142040e-06  6.86322778e-01  2.24142040e-06  1.80000000e+00  2.24142040e-06  1.55230844e-06  2.24142040e-06  6.87543037e-01                                 
 2.32563268e-06  7.51053571e-01  2.32563268e-06  6.86940035e-01  2.32563268e-06  6.85237126e-01  2.32563268e-06  1.80000000e+00  2.32563268e-06  1.70624704e-06  2.32563268e-06  6.86940035e-01                                 
 2.47947499e-06  7.53456112e-01  2.47947499e-06  6.89035091e-01  2.47947499e-06  6.90067521e-01  2.47947499e-06  1.80000000e+00  2.47947499e-06  1.67143382e-06  2.47947499e-06  6.89035091e-01                                 
 2.62913393e-06  7.51082591e-01  2.62913393e-06  6.86968845e-01  2.62913393e-06  6.86764339e-01  2.62913393e-06  1.80000000e+00  2.62913393e-06  1.54877197e-06  2.62913393e-06  6.86968845e-01                                 
 2.89548591e-06  7.52898512e-01  2.89548591e-06  6.88548124e-01  2.89548591e-06  6.88839992e-01  2.89548591e-06  1.80000000e+00  2.89548591e-06  1.77882050e-06  2.89548591e-06  6.88548124e-01                                 
 3.24113422e-06  7.51671509e-01  3.24113422e-06  6.87485336e-01  3.24113422e-06  6.87558905e-01  3.24113422e-06  1.80000000e+00  3.24113422e-06  1.50127091e-06  3.24113422e-06  6.87485336e-01                                 
 3.81582860e-06  7.52464134e-01  3.81582860e-06  6.88168477e-01  3.81582860e-06  6.88325159e-01  3.81582860e-06  1.80000000e+00  3.81582860e-06  1.80104170e-06  3.81582860e-06  6.88168477e-01                                 
 4.81301773e-06  7.51937752e-01  4.81301773e-06  6.87718095e-01  4.81301773e-06  6.87852795e-01  4.81301773e-06  1.80000000e+00  4.81301773e-06  1.49281110e-06  4.81301773e-06  6.87718095e-01                                 
 5.81301773e-06  7.52273235e-01  5.81301773e-06  6.88001804e-01  5.81301773e-06  6.88121309e-01  5.81301773e-06  1.80000000e+00  5.81301773e-06  1.80479201e-06  5.81301773e-06  6.88001804e-01                                 
 6.81301773e-06  7.52124462e-01  6.81301773e-06  6.87881157e-01  6.81301773e-06  6.88048255e-01  6.81301773e-06  1.80000000e+00  6.81301773e-06  1.49078973e-06  6.81301773e-06  6.87881157e-01                                 
 7.81301773e-06  7.52094064e-01  7.81301773e-06  6.87845397e-01  7.81301773e-06  6.87936621e-01  7.81301773e-06  1.80000000e+00  7.81301773e-06  1.80514981e-06  7.81301773e-06  6.87845397e-01                                 
 8.81301773e-06  7.52296060e-01  8.81301773e-06  6.88030873e-01  8.81301773e-06  6.88222456e-01  8.81301773e-06  1.80000000e+00  8.81301773e-06  1.49202238e-06  8.81301773e-06  6.88030873e-01                                 
 9.81301773e-06  7.51930284e-01  9.81301773e-06  6.87702424e-01  9.81301773e-06  6.87772509e-01  9.81301773e-06  1.80000000e+00  9.81301773e-06  1.80240030e-06  9.81301773e-06  6.87702424e-01                                 
 1.00005000e-05  7.52696222e-01  1.00005000e-05  6.88379258e-01  1.00005000e-05  6.88612129e-01  1.00005000e-05  1.80000000e+00  1.00005000e-05  1.51266004e-06  1.00005000e-05  6.88379258e-01                                 
 1.00005500e-05  7.52693754e-01  1.00005500e-05  6.88377000e-01  1.00005500e-05  6.81623953e-01  1.00005500e-05  1.62000000e+00  1.00005500e-05 -1.22064429e-04  1.00005500e-05  6.88377000e-01                                 
 1.00006500e-05  7.52688987e-01  1.00006500e-05  6.88372626e-01  1.00006500e-05  6.70674936e-01  1.00006500e-05  1.26000000e+00  1.00006500e-05 -8.23593093e-05  1.00006500e-05  6.88372626e-01                                 
 1.00008500e-05  7.52680231e-01  1.00008500e-05  6.88364602e-01  1.00008500e-05  6.64305202e-01  1.00008500e-05  5.40000000e-01  1.00008500e-05 -3.78576192e-03  1.00008500e-05  6.88364602e-01                                 
