 time            v(vbep)         time            v(vben)         time            v(vout)         time            v(vphi1)        time            v(vphi2)        time            v(vref)         yes             currtemp       
 0.00000000e+00  6.42944019e-01  0.00000000e+00  5.82016205e-01  0.00000000e+00  1.00040340e+00  0.00000000e+00  0.00000000e+00  0.00000000e+00  1.79991330e+00  0.00000000e+00  5.82016205e-01  1.00000000e+00  6.00000000e+01 
 5.00000000e-12  6.42893242e-01  5.00000000e-12  5.81974851e-01  5.00000000e-12  1.00113782e+00  5.00000000e-12  1.80000000e-02  5.00000000e-12  1.80004569e+00  5.00000000e-12  5.81974851e-01                                 
 1.00000000e-11  6.42844932e-01  1.00000000e-11  5.81935043e-01  1.00000000e-11  1.00180387e+00  1.00000000e-11  3.60000000e-02  1.00000000e-11  1.80012768e+00  1.00000000e-11  5.81935043e-01                                 
 2.00000000e-11  6.42750039e-01  2.00000000e-11  5.81855885e-01  2.00000000e-11  1.00302698e+00  2.00000000e-11  7.20000000e-02  2.00000000e-11  1.80022205e+00  2.00000000e-11  5.81855885e-01                                 
 4.00000000e-11  6.42563255e-01  4.00000000e-11  5.81698478e-01  4.00000000e-11  1.00496996e+00  4.00000000e-11  1.44000000e-01  4.00000000e-11  1.80021850e+00  4.00000000e-11  5.81698478e-01                                 
 8.00000000e-11  6.42192262e-01  8.00000000e-11  5.81385726e-01  8.00000000e-11  1.00748751e+00  8.00000000e-11  2.88000000e-01  8.00000000e-11  1.80011643e+00  8.00000000e-11  5.81385726e-01                                 
 1.60000000e-10  6.41461633e-01  1.60000000e-10  5.80768399e-01  1.60000000e-10  1.00941228e+00  1.60000000e-10  5.76000000e-01  1.60000000e-10  1.80000120e+00  1.60000000e-10  5.80768399e-01                                 
 3.20000000e-10  6.40042220e-01  3.20000000e-10  5.79564973e-01  3.20000000e-10  1.00236768e+00  3.20000000e-10  1.15200000e+00  3.20000000e-10  1.80028297e+00  3.20000000e-10  5.79564973e-01                                 
 5.00000000e-10  6.38509220e-01  5.00000000e-10  5.78258580e-01  5.00000000e-10  1.11371242e+00  5.00000000e-10  1.80000000e+00  5.00000000e-10  1.67429960e-01  5.00000000e-10  5.78258580e-01                                 
 5.21887589e-10  6.38327736e-01  5.21887589e-10  5.78103439e-01  5.21887589e-10  1.14188179e+00  5.21887589e-10  1.80000000e+00  5.21887589e-10  4.36844489e-02  5.21887589e-10  5.78103439e-01                                 
 5.65662766e-10  6.37966517e-01  5.65662766e-10  5.77794425e-01  5.65662766e-10  1.19812970e+00  5.65662766e-10  1.80000000e+00  5.65662766e-10 -1.56719792e-02  5.65662766e-10  5.77794425e-01                                 
 6.53213122e-10  6.37254764e-01  6.53213122e-10  5.77184466e-01  6.53213122e-10  1.29981079e+00  6.53213122e-10  1.80000000e+00  6.53213122e-10  1.31985802e-02  6.53213122e-10  5.77184466e-01                                 
 7.73957556e-10  6.36295823e-01  7.73957556e-10  5.76360393e-01  7.73957556e-10  1.42182084e+00  7.73957556e-10  1.80000000e+00  7.73957556e-10 -9.77431648e-03  7.73957556e-10  5.76360393e-01                                 
 9.57591732e-10  6.34885054e-01  9.57591732e-10  5.75143354e-01  9.57591732e-10  1.57165689e+00  9.57591732e-10  1.80000000e+00  9.57591732e-10  9.67499238e-03  9.57591732e-10  5.75143354e-01                                 
 1.32486008e-09  6.32220268e-01  1.32486008e-09  5.72829697e-01  1.32486008e-09  1.75789162e+00  1.32486008e-09  1.80000000e+00  1.32486008e-09 -8.38557106e-03  1.32486008e-09  5.72829697e-01                                 
 1.67217547e-09  6.29875453e-01  1.67217547e-09  5.70777479e-01  1.67217547e-09  1.83799233e+00  1.67217547e-09  1.80000000e+00  1.67217547e-09  8.22375680e-03  1.67217547e-09  5.70777479e-01                                 
 2.01343955e-09  6.27717372e-01  2.01343955e-09  5.68875458e-01  2.01343955e-09  1.86937726e+00  2.01343955e-09  1.80000000e+00  2.01343955e-09 -7.52224067e-03  2.01343955e-09  5.68875458e-01                                 
 2.37299200e-09  6.25582143e-01  2.37299200e-09  5.66981435e-01  2.37299200e-09  1.88192274e+00  2.37299200e-09  1.80000000e+00  2.37299200e-09  7.15996768e-03  2.37299200e-09  5.66981435e-01                                 
 2.85591094e-09  6.22910002e-01  2.85591094e-09  5.64594750e-01  2.85591094e-09  1.88542269e+00  2.85591094e-09  1.80000000e+00  2.85591094e-09 -6.78266469e-03  2.85591094e-09  5.64594750e-01                                 
 3.50912621e-09  6.19602469e-01  3.50912621e-09  5.61616167e-01  3.50912621e-09  1.88436154e+00  3.50912621e-09  1.80000000e+00  3.50912621e-09  6.58864615e-03  3.50912621e-09  5.61616167e-01                                 
 4.51035741e-09  6.15091904e-01  4.51035741e-09  5.57513113e-01  4.51035741e-09  1.87985834e+00  4.51035741e-09  1.80000000e+00  4.51035741e-09 -6.41517357e-03  4.51035741e-09  5.57513113e-01                                 
 6.15548476e-09  6.08796112e-01  6.15548476e-09  5.51712767e-01  6.15548476e-09  1.87404927e+00  6.15548476e-09  1.80000000e+00  6.15548476e-09  6.35643117e-03  6.15548476e-09  5.51712767e-01                                 
 9.44573947e-09  5.98938327e-01  9.44573947e-09  5.42481049e-01  9.44573947e-09  1.86435781e+00  9.44573947e-09  1.80000000e+00  9.44573947e-09 -6.27934072e-03  9.44573947e-09  5.42481049e-01                                 
 1.13822139e-08  5.94376664e-01  1.13822139e-08  5.38143586e-01  1.13822139e-08  1.86035154e+00  1.13822139e-08  1.80000000e+00  1.13822139e-08  6.23863093e-03  1.13822139e-08  5.38143586e-01                                 
 1.28862105e-08  5.91252782e-01  1.28862105e-08  5.35154060e-01  1.28862105e-08  1.85714216e+00  1.28862105e-08  1.80000000e+00  1.28862105e-08 -6.11959083e-03  1.28862105e-08  5.35154060e-01                                 
 1.44494273e-08  5.88312193e-01  1.44494273e-08  5.32327042e-01  1.44494273e-08  1.85471441e+00  1.44494273e-08  1.80000000e+00  1.44494273e-08  6.05932007e-03  1.44494273e-08  5.32327042e-01                                 
 1.61846974e-08  5.85349767e-01  1.61846974e-08  5.29467083e-01  1.61846974e-08  1.85169653e+00  1.61846974e-08  1.80000000e+00  1.61846974e-08 -5.95719226e-03  1.61846974e-08  5.29467083e-01                                 
 1.80308304e-08  5.82488091e-01  1.80308304e-08  5.26693574e-01  1.80308304e-08  1.84937963e+00  1.80308304e-08  1.80000000e+00  1.80308304e-08  5.91055181e-03  1.80308304e-08  5.26693574e-01                                 
 2.02833540e-08  5.79329612e-01  2.02833540e-08  5.23620706e-01  2.02833540e-08  1.84623673e+00  2.02833540e-08  1.80000000e+00  2.02833540e-08 -5.82818306e-03  2.02833540e-08  5.23620706e-01                                 
 2.35070641e-08  5.75320345e-01  2.35070641e-08  5.19703430e-01  2.35070641e-08  1.84294678e+00  2.35070641e-08  1.80000000e+00  2.35070641e-08  5.81286386e-03  2.35070641e-08  5.19703430e-01                                 
 2.72588098e-08  5.71254469e-01  2.72588098e-08  5.15712316e-01  2.72588098e-08  1.83908763e+00  2.72588098e-08  1.80000000e+00  2.72588098e-08 -5.75362473e-03  2.72588098e-08  5.15712316e-01                                 
 3.46099472e-08  5.64622914e-01  3.46099472e-08  5.09163440e-01  3.46099472e-08  1.83372449e+00  3.46099472e-08  1.80000000e+00  3.46099472e-08  5.76204269e-03  3.46099472e-08  5.09163440e-01                                 
 4.28766856e-08  5.58652002e-01  4.28766856e-08  5.03229356e-01  4.28766856e-08  1.82851200e+00  4.28766856e-08  1.80000000e+00  4.28766856e-08 -5.72031954e-03  4.28766856e-08  5.03229356e-01                                 
 5.88729240e-08  5.49547511e-01  5.88729240e-08  4.94161499e-01  5.88729240e-08  1.82133231e+00  5.88729240e-08  1.80000000e+00  5.88729240e-08  5.73946255e-03  5.88729240e-08  4.94161499e-01                                 
 7.68637760e-08  5.41828658e-01  7.68637760e-08  4.86448957e-01  7.68637760e-08  1.81504374e+00  7.68637760e-08  1.80000000e+00  7.68637760e-08 -5.70485091e-03  7.68637760e-08  4.86448957e-01                                 
 1.03560352e-07  5.32996075e-01  1.03560352e-07  4.77623696e-01  1.03560352e-07  1.79850372e+00  1.03560352e-07  1.80000000e+00  1.03560352e-07  5.72770557e-03  1.03560352e-07  4.77623696e-01                                 
 1.28260560e-07  5.24405046e-01  1.28260560e-07  4.69501631e-01  1.28260560e-07  1.77745433e+00  1.28260560e-07  1.80000000e+00  1.28260560e-07 -5.69539424e-03  1.28260560e-07  4.69501631e-01                                 
 1.49277466e-07  5.13310642e-01  1.49277466e-07  4.59792467e-01  1.49277466e-07  1.75971143e+00  1.49277466e-07  1.80000000e+00  1.49277466e-07  5.71622335e-03  1.49277466e-07  4.59792467e-01                                 
 1.71119737e-07  5.04473619e-01  1.71119737e-07  4.51970383e-01  1.71119737e-07  1.72014317e+00  1.71119737e-07  1.80000000e+00  1.71119737e-07 -5.68471397e-03  1.71119737e-07  4.51970383e-01                                 
 1.91665458e-07  4.96987555e-01  1.91665458e-07  4.45372316e-01  1.91665458e-07  1.68598570e+00  1.91665458e-07  1.80000000e+00  1.91665458e-07  5.70488040e-03  1.91665458e-07  4.45372316e-01                                 
 2.10668482e-07  4.95541101e-01  2.10668482e-07  4.43664564e-01  2.10668482e-07  1.66877186e+00  2.10668482e-07  1.80000000e+00  2.10668482e-07 -5.67053830e-03  2.10668482e-07  4.43664564e-01                                 
 2.36607654e-07  5.00171013e-01  2.36607654e-07  4.46605076e-01  2.36607654e-07  1.66224903e+00  2.36607654e-07  1.80000000e+00  2.36607654e-07  5.69509622e-03  2.36607654e-07  4.46605076e-01                                 
 2.53915435e-07  5.00090257e-01  2.53915435e-07  4.46086210e-01  2.53915435e-07  1.64482429e+00  2.53915435e-07  1.80000000e+00  2.53915435e-07 -5.66019672e-03  2.53915435e-07  4.46086210e-01                                 
 2.73917126e-07  4.97653091e-01  2.73917126e-07  4.43666380e-01  2.73917126e-07  1.62129429e+00  2.73917126e-07  1.80000000e+00  2.73917126e-07  5.68130036e-03  2.73917126e-07  4.43666380e-01                                 
 2.94237309e-07  4.95211561e-01  2.94237309e-07  4.41270316e-01  2.94237309e-07  1.59793980e+00  2.94237309e-07  1.80000000e+00  2.94237309e-07 -5.64802504e-03  2.94237309e-07  4.41270316e-01                                 
 3.16573034e-07  4.90600514e-01  3.16573034e-07  4.37147897e-01  3.16573034e-07  1.57156819e+00  3.16573034e-07  1.80000000e+00  3.16573034e-07  5.66946784e-03  3.16573034e-07  4.37147897e-01                                 
 3.61244484e-07  4.79676518e-01  3.61244484e-07  4.27663573e-01  3.61244484e-07  1.51465520e+00  3.61244484e-07  1.80000000e+00  3.61244484e-07 -5.64004776e-03  3.61244484e-07  4.27663573e-01                                 
 4.11333248e-07  4.68084063e-01  4.11333248e-07  4.17700732e-01  4.11333248e-07  1.45233719e+00  4.11333248e-07  1.80000000e+00  4.11333248e-07  5.66437271e-03  4.11333248e-07  4.17700732e-01                                 
 5.10836325e-07  4.41262192e-01  5.10836325e-07  3.95283543e-01  5.10836325e-07  1.32200489e+00  5.10836325e-07  1.80000000e+00  5.10836325e-07 -5.63656589e-03  5.10836325e-07  3.95283543e-01                                 
 6.17286744e-07  4.23605334e-01  6.17286744e-07  3.80459812e-01  6.17286744e-07  1.19386553e+00  6.17286744e-07  1.80000000e+00  6.17286744e-07  5.66245400e-03  6.17286744e-07  3.80459812e-01                                 
 7.04791356e-07  3.86966234e-01  7.04791356e-07  3.50862344e-01  7.04791356e-07  1.06825033e+00  7.04791356e-07  1.80000000e+00  7.04791356e-07 -5.63495624e-03  7.04791356e-07  3.50862344e-01                                 
 7.95076780e-07  4.45428461e-01  7.95076780e-07  3.97545958e-01  7.95076780e-07  1.03715882e+00  7.95076780e-07  1.80000000e+00  7.95076780e-07  5.66375570e-03  7.95076780e-07  3.97545958e-01                                 
 9.07846856e-07  7.20934887e-01  9.07846856e-07  6.55685588e-01  9.07846856e-07  1.18807685e+00  9.07846856e-07  1.80000000e+00  9.07846856e-07 -5.62374796e-03  9.07846856e-07  6.55685588e-01                                 
 9.21551265e-07  7.30751723e-01  9.21551265e-07  6.64604113e-01  9.21551265e-07  1.18430691e+00  9.21551265e-07  1.80000000e+00  9.21551265e-07  1.96913611e-06  9.21551265e-07  6.64604113e-01                                 
 9.48960085e-07  7.42612399e-01  9.48960085e-07  6.74888771e-01  9.48960085e-07  1.16708716e+00  9.48960085e-07  1.80000000e+00  9.48960085e-07  4.99583252e-06  9.48960085e-07  6.74888771e-01                                 
 1.00377772e-06  7.48012869e-01  1.00377772e-06  6.79430406e-01  1.00377772e-06  1.11511508e+00  1.00377772e-06  1.80000000e+00  1.00377772e-06  3.04577259e-07  1.00377772e-06  6.79430406e-01                                 
 1.07866298e-06  7.49332917e-01  1.07866298e-06  6.80529169e-01  1.07866298e-06  1.04208880e+00  1.07866298e-06  1.80000000e+00  1.07866298e-06  4.67254635e-06  1.07866298e-06  6.80529169e-01                                 
 1.14607362e-06  7.48068737e-01  1.14607362e-06  6.79481275e-01  1.14607362e-06  9.81744946e-01  1.14607362e-06  1.80000000e+00  1.14607362e-06  2.84325814e-07  1.14607362e-06  6.79481275e-01                                 
 1.20529944e-06  7.25251442e-01  1.20529944e-06  6.59818383e-01  1.20529944e-06  9.18371861e-01  1.20529944e-06  1.80000000e+00  1.20529944e-06  3.10216422e-06  1.20529944e-06  6.59818383e-01                                 
 1.26975951e-06  7.20443272e-01  1.26975951e-06  6.55404389e-01  1.26975951e-06  8.72456574e-01  1.26975951e-06  1.80000000e+00  1.26975951e-06  1.88155307e-06  1.26975951e-06  6.55404389e-01                                 
 1.32244132e-06  7.45102378e-01  1.32244132e-06  6.76983243e-01  1.32244132e-06  8.62302254e-01  1.32244132e-06  1.80000000e+00  1.32244132e-06  5.76435120e-06  1.32244132e-06  6.76983243e-01                                 
 1.38035969e-06  7.44483314e-01  1.38035969e-06  6.76493632e-01  1.38035969e-06  8.26968396e-01  1.38035969e-06  1.80000000e+00  1.38035969e-06 -3.82479601e-07  1.38035969e-06  6.76493632e-01                                 
 1.44220768e-06  7.27263567e-01  1.44220768e-06  6.61578032e-01  1.44220768e-06  7.75807585e-01  1.44220768e-06  1.80000000e+00  1.44220768e-06  4.54498250e-06  1.44220768e-06  6.61578032e-01                                 
 1.51583588e-06  7.31358430e-01  1.51583588e-06  6.65163528e-01  1.51583588e-06  7.39851468e-01  1.51583588e-06  1.80000000e+00  1.51583588e-06  1.25750374e-06  1.51583588e-06  6.65163528e-01                                 
 1.59348756e-06  7.44224342e-01  1.59348756e-06  6.76257798e-01  1.59348756e-06  7.17860748e-01  1.59348756e-06  1.80000000e+00  1.59348756e-06  5.16904190e-06  1.59348756e-06  6.76257798e-01                                 
 1.69323312e-06  7.30059214e-01  1.69323312e-06  6.64056099e-01  1.69323312e-06  6.77376610e-01  1.69323312e-06  1.80000000e+00  1.69323312e-06 -1.91513461e-08  1.69323312e-06  6.64056099e-01                                 
 1.79292182e-06  7.34027816e-01  1.79292182e-06  6.67496510e-01  1.79292182e-06  6.65905288e-01  1.79292182e-06  1.80000000e+00  1.79292182e-06  6.10895713e-06  1.79292182e-06  6.67496510e-01                                 
 1.89649203e-06  7.40671573e-01  1.89649203e-06  6.73258527e-01  1.89649203e-06  6.62514704e-01  1.89649203e-06  1.80000000e+00  1.89649203e-06  1.43576643e-07  1.89649203e-06  6.73258527e-01                                 
 2.05120097e-06  7.30301739e-01  2.05120097e-06  6.64246248e-01  2.05120097e-06  6.57534628e-01  2.05120097e-06  1.80000000e+00  2.05120097e-06  5.60030681e-06  2.05120097e-06  6.64246248e-01                                 
 2.19490270e-06  7.38518236e-01  2.19490270e-06  6.71402585e-01  2.19490270e-06  6.74772907e-01  2.19490270e-06  1.80000000e+00  2.19490270e-06  7.40945139e-07  2.19490270e-06  6.71402585e-01                                 
 2.37450694e-06  7.34596830e-01  2.37450694e-06  6.68015034e-01  2.37450694e-06  6.66426292e-01  2.37450694e-06  1.80000000e+00  2.37450694e-06  5.16398848e-06  2.37450694e-06  6.68015034e-01                                 
 2.54447847e-06  7.34713071e-01  2.54447847e-06  6.68111094e-01  2.54447847e-06  6.68585497e-01  2.54447847e-06  1.80000000e+00  2.54447847e-06  8.77081378e-07  2.54447847e-06  6.68111094e-01                                 
 2.75692423e-06  7.37566503e-01  2.75692423e-06  6.70584466e-01  2.75692423e-06  6.71013009e-01  2.75692423e-06  1.80000000e+00  2.75692423e-06  5.20925462e-06  2.75692423e-06  6.70584466e-01                                 
 3.09721341e-06  7.33204694e-01  3.09721341e-06  6.66799328e-01  3.09721341e-06  6.66540461e-01  3.09721341e-06  1.80000000e+00  3.09721341e-06  7.58550584e-07  3.09721341e-06  6.66799328e-01                                 
 3.47640671e-06  7.38038873e-01  3.47640671e-06  6.70988555e-01  3.47640671e-06  6.71677038e-01  3.47640671e-06  1.80000000e+00  3.47640671e-06  5.32750027e-06  3.47640671e-06  6.70988555e-01                                 
 3.54568458e-06  7.35792687e-01  3.54568458e-06  6.69052487e-01  3.54568458e-06  6.69168461e-01  3.54568458e-06  1.80000000e+00  3.54568458e-06  2.93756228e-06  3.54568458e-06  6.69052487e-01                                 
 3.68424032e-06  7.35087737e-01  3.68424032e-06  6.68438003e-01  3.68424032e-06  6.68535693e-01  3.68424032e-06  1.80000000e+00  3.68424032e-06  3.06610417e-06  3.68424032e-06  6.68438003e-01                                 
 3.96135181e-06  7.36225804e-01  3.96135181e-06  6.69426601e-01  3.96135181e-06  6.69657914e-01  3.96135181e-06  1.80000000e+00  3.96135181e-06  2.97975507e-06  3.96135181e-06  6.69426601e-01                                 
 4.36006747e-06  7.35003337e-01  4.36006747e-06  6.68365499e-01  4.36006747e-06  6.68437990e-01  4.36006747e-06  1.80000000e+00  4.36006747e-06  3.03286758e-06  4.36006747e-06  6.68365499e-01                                 
 5.15749879e-06  7.36223377e-01  5.15749879e-06  6.69424080e-01  5.15749879e-06  6.69661680e-01  5.15749879e-06  1.80000000e+00  5.15749879e-06  3.00107909e-06  5.15749879e-06  6.69424080e-01                                 
 6.15749879e-06  7.35026473e-01  6.15749879e-06  6.68385885e-01  6.15749879e-06  6.68457918e-01  6.15749879e-06  1.80000000e+00  6.15749879e-06  3.02020874e-06  6.15749879e-06  6.68385885e-01                                 
 7.15749879e-06  7.36192208e-01  7.15749879e-06  6.69396771e-01  7.15749879e-06  6.69633133e-01  7.15749879e-06  1.80000000e+00  7.15749879e-06  3.01204945e-06  7.15749879e-06  6.69396771e-01                                 
 8.15749879e-06  7.35067099e-01  8.15749879e-06  6.68421404e-01  8.15749879e-06  6.68495951e-01  8.15749879e-06  1.80000000e+00  8.15749879e-06  3.00957027e-06  8.15749879e-06  6.68421404e-01                                 
 9.15749879e-06  7.36144348e-01  9.15749879e-06  6.69355110e-01  9.15749879e-06  6.69587734e-01  9.15749879e-06  1.80000000e+00  9.15749879e-06  3.02227865e-06  9.15749879e-06  6.69355110e-01                                 
 1.00005000e-05  7.35129518e-01  1.00005000e-05  6.68475846e-01  1.00005000e-05  6.68555721e-01  1.00005000e-05  1.80000000e+00  1.00005000e-05  2.99897378e-06  1.00005000e-05  6.68475846e-01                                 
 1.00005500e-05  7.35129214e-01  1.00005500e-05  6.68475581e-01  1.00005500e-05  6.61626585e-01  1.00005500e-05  1.62000000e+00  1.00005500e-05 -1.23577553e-04  1.00005500e-05  6.68475581e-01                                 
 1.00006500e-05  7.35128644e-01  1.00006500e-05  6.68475073e-01  1.00006500e-05  6.50418985e-01  1.00006500e-05  1.26000000e+00  1.00006500e-05 -8.96488232e-05  1.00006500e-05  6.68475073e-01                                 
