 time            v(vbep)         time            v(vben)         time            v(vout)         time            v(vphi1)        time            v(vphi2)        time            v(vref)         yes             currtemp       
 0.00000000e+00  6.58346281e-01  0.00000000e+00  6.00369462e-01  0.00000000e+00  1.07377946e+00  0.00000000e+00  0.00000000e+00  0.00000000e+00  1.79994885e+00  0.00000000e+00  6.00369462e-01  1.00000000e+00  4.40000000e+01 
 5.00000000e-12  6.58315091e-01  5.00000000e-12  6.00343666e-01  5.00000000e-12  1.07451498e+00  5.00000000e-12  1.80000000e-02  5.00000000e-12  1.80007535e+00  5.00000000e-12  6.00343666e-01                                 
 1.00000000e-11  6.58284787e-01  1.00000000e-11  6.00318571e-01  1.00000000e-11  1.07518463e+00  1.00000000e-11  3.60000000e-02  1.00000000e-11  1.80015059e+00  1.00000000e-11  6.00318571e-01                                 
 2.00000000e-11  6.58224725e-01  2.00000000e-11  6.00268585e-01  2.00000000e-11  1.07642071e+00  2.00000000e-11  7.20000000e-02  2.00000000e-11  1.80023472e+00  2.00000000e-11  6.00268585e-01                                 
 4.00000000e-11  6.58105538e-01  4.00000000e-11  6.00169021e-01  4.00000000e-11  1.07841482e+00  4.00000000e-11  1.44000000e-01  4.00000000e-11  1.80022526e+00  4.00000000e-11  6.00169021e-01                                 
 8.00000000e-11  6.57868378e-01  8.00000000e-11  5.99970823e-01  8.00000000e-11  1.08109761e+00  8.00000000e-11  2.88000000e-01  8.00000000e-11  1.80012894e+00  8.00000000e-11  5.99970823e-01                                 
 1.60000000e-10  6.57399309e-01  1.60000000e-10  5.99578122e-01  1.60000000e-10  1.08335731e+00  1.60000000e-10  5.76000000e-01  1.60000000e-10  1.80001917e+00  1.60000000e-10  5.99578122e-01                                 
 3.20000000e-10  6.56480881e-01  3.20000000e-10  5.98806949e-01  3.20000000e-10  1.07616667e+00  3.20000000e-10  1.15200000e+00  3.20000000e-10  1.80029742e+00  3.20000000e-10  5.98806949e-01                                 
 5.00000000e-10  6.55477961e-01  5.00000000e-10  5.97961233e-01  5.00000000e-10  1.17930352e+00  5.00000000e-10  1.80000000e+00  5.00000000e-10  1.57680823e-01  5.00000000e-10  5.97961233e-01                                 
 5.21529017e-10  6.55360316e-01  5.21529017e-10  5.97861765e-01  5.21529017e-10  1.20535633e+00  5.21529017e-10  1.80000000e+00  5.21529017e-10  4.01133897e-02  5.21529017e-10  5.97861765e-01                                 
 5.64587052e-10  6.55125864e-01  5.64587052e-10  5.97663425e-01  5.64587052e-10  1.25722742e+00  5.64587052e-10  1.80000000e+00  5.64587052e-10 -1.48114864e-02  5.64587052e-10  5.97663425e-01                                 
 6.50703121e-10  6.54662032e-01  6.50703121e-10  5.97270451e-01  6.50703121e-10  1.35030478e+00  6.50703121e-10  1.80000000e+00  6.50703121e-10  1.25284840e-02  6.50703121e-10  5.97270451e-01                                 
 7.70974097e-10  6.54025275e-01  7.70974097e-10  5.96729704e-01  7.70974097e-10  1.46269991e+00  7.70974097e-10  1.80000000e+00  7.70974097e-10 -9.45794024e-03  7.70974097e-10  5.96729704e-01                                 
 9.52742813e-10  6.53086310e-01  9.52742813e-10  5.95929677e-01  9.52742813e-10  1.59894851e+00  9.52742813e-10  1.80000000e+00  9.52742813e-10  9.31669737e-03  9.52742813e-10  5.95929677e-01                                 
 1.31628025e-09  6.51286848e-01  1.31628025e-09  5.94387917e-01  1.31628025e-09  1.76748214e+00  1.31628025e-09  1.80000000e+00  1.31628025e-09 -8.16052620e-03  1.31628025e-09  5.94387917e-01                                 
 1.65298710e-09  6.49707035e-01  1.65298710e-09  5.93024993e-01  1.65298710e-09  1.83900149e+00  1.65298710e-09  1.80000000e+00  1.65298710e-09  7.98550865e-03  1.65298710e-09  5.93024993e-01                                 
 2.02757390e-09  6.48037907e-01  2.02757390e-09  5.91575783e-01  2.02757390e-09  1.87061032e+00  2.02757390e-09  1.80000000e+00  2.02757390e-09 -7.38391995e-03  2.02757390e-09  5.91575783e-01                                 
 2.38214624e-09  6.46536184e-01  2.38214624e-09  5.90263946e-01  2.38214624e-09  1.88133644e+00  2.38214624e-09  1.80000000e+00  2.38214624e-09  7.03938043e-03  2.38214624e-09  5.90263946e-01                                 
 2.90577575e-09  6.44442378e-01  2.90577575e-09  5.88422816e-01  2.90577575e-09  1.88473142e+00  2.90577575e-09  1.80000000e+00  2.90577575e-09 -6.70889272e-03  2.90577575e-09  5.88422816e-01                                 
 3.56616031e-09  6.41988512e-01  3.56616031e-09  5.86247618e-01  3.56616031e-09  1.88398773e+00  3.56616031e-09  1.80000000e+00  3.56616031e-09  6.53237545e-03  3.56616031e-09  5.86247618e-01                                 
 4.68915318e-09  6.38214229e-01  4.68915318e-09  5.82867512e-01  4.68915318e-09  1.88020427e+00  4.68915318e-09  1.80000000e+00  4.68915318e-09 -6.38094624e-03  4.68915318e-09  5.82867512e-01                                 
 6.44752138e-09  6.33100989e-01  6.44752138e-09  5.78225685e-01  6.44752138e-09  1.87569176e+00  6.44752138e-09  1.80000000e+00  6.44752138e-09  6.33226989e-03  6.44752138e-09  5.78225685e-01                                 
 9.96425778e-09  6.24867070e-01  9.96425778e-09  5.70619009e-01  9.96425778e-09  1.86756195e+00  9.96425778e-09  1.80000000e+00  9.96425778e-09 -6.26201718e-03  9.96425778e-09  5.70619009e-01                                 
 1.21762826e-08  6.20700407e-01  1.21762826e-08  5.66705556e-01  1.21762826e-08  1.86373760e+00  1.21762826e-08  1.80000000e+00  1.21762826e-08  6.23201762e-03  1.21762826e-08  5.66705556e-01                                 
 1.37192245e-08  6.18114268e-01  1.37192245e-08  5.64258720e-01  1.37192245e-08  1.86087258e+00  1.37192245e-08  1.80000000e+00  1.37192245e-08 -6.12166244e-03  1.37192245e-08  5.64258720e-01                                 
 1.52546239e-08  6.15750043e-01  1.52546239e-08  5.62011142e-01  1.52546239e-08  1.85872590e+00  1.52546239e-08  1.80000000e+00  1.52546239e-08  6.06273921e-03  1.52546239e-08  5.62011142e-01                                 
 1.70022836e-08  6.13272986e-01  1.70022836e-08  5.59646095e-01  1.70022836e-08  1.85577566e+00  1.70022836e-08  1.80000000e+00  1.70022836e-08 -5.96678762e-03  1.70022836e-08  5.59646095e-01                                 
 1.90713752e-08  6.10588158e-01  1.90713752e-08  5.57071747e-01  1.90713752e-08  1.85298672e+00  1.90713752e-08  1.80000000e+00  1.90713752e-08  5.92909036e-03  1.90713752e-08  5.57071747e-01                                 
 2.14247847e-08  6.07806483e-01  2.14247847e-08  5.54393565e-01  2.14247847e-08  1.84925871e+00  2.14247847e-08  1.80000000e+00  2.14247847e-08 -5.85397234e-03  2.14247847e-08  5.54393565e-01                                 
 2.51300251e-08  6.03889841e-01  2.51300251e-08  5.50606868e-01  2.51300251e-08  1.84417635e+00  2.51300251e-08  1.80000000e+00  2.51300251e-08  5.84306591e-03  2.51300251e-08  5.50606868e-01                                 
 2.87573257e-08  6.00488447e-01  2.87573257e-08  5.47306799e-01  2.87573257e-08  1.83854947e+00  2.87573257e-08  1.80000000e+00  2.87573257e-08 -5.78699587e-03  2.87573257e-08  5.47306799e-01                                 
 3.60119270e-08  5.94505666e-01  3.60119270e-08  5.41502748e-01  3.60119270e-08  1.82849835e+00  3.60119270e-08  1.80000000e+00  3.60119270e-08  5.79285764e-03  3.60119270e-08  5.41502748e-01                                 
 4.69388849e-08  5.86580580e-01  4.69388849e-08  5.33896650e-01  4.69388849e-08  1.81555221e+00  4.69388849e-08  1.80000000e+00  4.69388849e-08 -5.75861175e-03  4.69388849e-08  5.33896650e-01                                 
 5.76501559e-08  5.79953427e-01  5.76501559e-08  5.27574008e-01  5.76501559e-08  1.80682067e+00  5.76501559e-08  1.80000000e+00  5.76501559e-08  5.77119118e-03  5.76501559e-08  5.27574008e-01                                 
 7.10508854e-08  5.70657365e-01  7.10508854e-08  5.19096454e-01  7.10508854e-08  1.78635252e+00  7.10508854e-08  1.80000000e+00  7.10508854e-08 -5.73948679e-03  7.10508854e-08  5.19096454e-01                                 
 8.56897965e-08  5.62461920e-01  8.56897965e-08  5.11588671e-01  8.56897965e-08  1.75715290e+00  8.56897965e-08  1.80000000e+00  8.56897965e-08  5.75384497e-03  8.56897965e-08  5.11588671e-01                                 
 1.02900115e-07  5.54111274e-01  1.02900115e-07  5.03976763e-01  1.02900115e-07  1.72585432e+00  1.02900115e-07  1.80000000e+00  1.02900115e-07 -5.72392620e-03  1.02900115e-07  5.03976763e-01                                 
 1.28731147e-07  5.44742909e-01  1.28731147e-07  4.95329616e-01  1.28731147e-07  1.68297799e+00  1.28731147e-07  1.80000000e+00  1.28731147e-07  5.74278709e-03  1.28731147e-07  4.95329616e-01                                 
 1.57581541e-07  5.47677203e-01  1.57581541e-07  4.96483477e-01  1.57581541e-07  1.67647590e+00  1.57581541e-07  1.80000000e+00  1.57581541e-07 -5.71226139e-03  1.57581541e-07  4.96483477e-01                                 
 1.78979499e-07  5.48849507e-01  1.78979499e-07  4.96642608e-01  1.78979499e-07  1.66024644e+00  1.78979499e-07  1.80000000e+00  1.78979499e-07  5.73226255e-03  1.78979499e-07  4.96642608e-01                                 
 2.01097037e-07  5.43767843e-01  2.01097037e-07  4.91916848e-01  2.01097037e-07  1.62915886e+00  2.01097037e-07  1.80000000e+00  2.01097037e-07 -5.70284294e-03  2.01097037e-07  4.91916848e-01                                 
 2.20456844e-07  5.39569066e-01  2.20456844e-07  4.88038514e-01  2.20456844e-07  1.60562597e+00  2.20456844e-07  1.80000000e+00  2.20456844e-07  5.72100779e-03  2.20456844e-07  4.88038514e-01                                 
 2.41277484e-07  5.34150419e-01  2.41277484e-07  4.83207468e-01  2.41277484e-07  1.58034175e+00  2.41277484e-07  1.80000000e+00  2.41277484e-07 -5.69121891e-03  2.41277484e-07  4.83207468e-01                                 
 2.76525162e-07  5.24499863e-01  2.76525162e-07  4.74762900e-01  2.76525162e-07  1.53493338e+00  2.76525162e-07  1.80000000e+00  2.76525162e-07  5.71185267e-03  2.76525162e-07  4.74762900e-01                                 
 3.22136840e-07  5.12893797e-01  3.22136840e-07  4.64709103e-01  3.22136840e-07  1.47780096e+00  3.22136840e-07  1.80000000e+00  3.22136840e-07 -5.68516813e-03  3.22136840e-07  4.64709103e-01                                 
 4.08437113e-07  4.87587954e-01  4.08437113e-07  4.43460691e-01  4.08437113e-07  1.36416979e+00  4.08437113e-07  1.80000000e+00  4.08437113e-07  5.70776764e-03  4.08437113e-07  4.43460691e-01                                 
 4.94214993e-07  4.71936885e-01  4.94214993e-07  4.30259993e-01  4.94214993e-07  1.26060489e+00  4.94214993e-07  1.80000000e+00  4.94214993e-07 -5.68207397e-03  4.94214993e-07  4.30259993e-01                                 
 5.71188978e-07  4.39660391e-01  5.71188978e-07  4.04143509e-01  5.71188978e-07  1.14875084e+00  5.71188978e-07  1.80000000e+00  5.71188978e-07  5.70407517e-03  5.71188978e-07  4.04143509e-01                                 
 6.50211421e-07  4.20680385e-01  6.50211421e-07  3.88865465e-01  6.50211421e-07  1.04976877e+00  6.50211421e-07  1.80000000e+00  6.50211421e-07 -5.67838632e-03  6.50211421e-07  3.88865465e-01                                 
 6.62888972e-07  4.27604154e-01  6.62888972e-07  3.94411009e-01  6.62888972e-07  1.04333876e+00  6.62888972e-07  1.80000000e+00  6.62888972e-07 -5.43289780e-07  6.62888972e-07  3.94411009e-01                                 
 6.88244074e-07  4.75041887e-01  6.88244074e-07  4.32349140e-01  6.88244074e-07  1.06296602e+00  6.88244074e-07  1.80000000e+00  6.88244074e-07  8.46002902e-06  6.88244074e-07  4.32349140e-01                                 
 7.38954278e-07  7.13507698e-01  7.38954278e-07  6.52775162e-01  7.38954278e-07  1.24023165e+00  7.38954278e-07  1.80000000e+00  7.38954278e-07  1.27815811e-05  7.38954278e-07  6.52775162e-01                                 
 7.89805922e-07  7.73192137e-01  7.89805922e-07  7.08152234e-01  7.89805922e-07  1.24712743e+00  7.89805922e-07  1.80000000e+00  7.89805922e-07 -5.69793914e-06  7.89805922e-07  7.08152234e-01                                 
 8.36662286e-07  7.84122326e-01  8.36662286e-07  7.16997529e-01  8.36662286e-07  1.20568983e+00  8.36662286e-07  1.80000000e+00  8.36662286e-07  7.97679782e-06  8.36662286e-07  7.16997529e-01                                 
 8.84980555e-07  7.84528829e-01  8.84980555e-07  7.17451014e-01  8.84980555e-07  1.15860587e+00  8.84980555e-07  1.80000000e+00  8.84980555e-07 -6.51193857e-06  8.84980555e-07  7.17451014e-01                                 
 9.29303283e-07  7.84327926e-01  9.29303283e-07  7.17171112e-01  9.29303283e-07  1.10911644e+00  9.29303283e-07  1.80000000e+00  9.29303283e-07  7.69775173e-06  9.29303283e-07  7.17171112e-01                                 
 9.38171131e-07  7.84397157e-01  9.38171131e-07  7.17267055e-01  9.38171131e-07  1.10136696e+00  9.38171131e-07  1.80000000e+00  9.38171131e-07  8.25451086e-07  9.38171131e-07  7.17267055e-01                                 
 9.55906826e-07  7.75218937e-01  9.55906826e-07  7.09858208e-01  9.55906826e-07  1.07503579e+00  9.55906826e-07  1.80000000e+00  9.55906826e-07 -1.77960284e-06  9.55906826e-07  7.09858208e-01                                 
 9.79657555e-07  7.54204191e-01  9.79657555e-07  6.91725052e-01  9.79657555e-07  1.03081336e+00  9.79657555e-07  1.80000000e+00  9.79657555e-07 -9.86415889e-07  9.79657555e-07  6.91725052e-01                                 
 1.00606909e-06  7.42596190e-01  1.00606909e-06  6.81227323e-01  1.00606909e-06  9.94878903e-01  1.00606909e-06  1.80000000e+00  1.00606909e-06  3.85100083e-07  1.00606909e-06  6.81227323e-01                                 
 1.04230971e-06  7.41252842e-01  1.04230971e-06  6.79942747e-01  1.04230971e-06  9.62712061e-01  1.04230971e-06  1.80000000e+00  1.04230971e-06  1.02500848e-06  1.04230971e-06  6.79942747e-01                                 
 1.08889895e-06  7.58513586e-01  1.08889895e-06  6.95491945e-01  1.08889895e-06  9.41889057e-01  1.08889895e-06  1.80000000e+00  1.08889895e-06  2.37123413e-06  1.08889895e-06  6.95491945e-01                                 
 1.15771867e-06  7.69165756e-01  1.15771867e-06  7.04712824e-01  1.15771867e-06  9.03132713e-01  1.15771867e-06  1.80000000e+00  1.15771867e-06  1.10433384e-07  1.15771867e-06  7.04712824e-01                                 
 1.22173764e-06  7.57160385e-01  1.22173764e-06  6.94340421e-01  1.22173764e-06  8.51999993e-01  1.22173764e-06  1.80000000e+00  1.22173764e-06  9.08558110e-07  1.22173764e-06  6.94340421e-01                                 
 1.29815337e-06  7.53691472e-01  1.29815337e-06  6.91229058e-01  1.29815337e-06  8.04387945e-01  1.29815337e-06  1.80000000e+00  1.29815337e-06  8.26476642e-07  1.29815337e-06  6.91229058e-01                                 
 1.38353957e-06  7.65188862e-01  1.38353957e-06  7.01314897e-01  1.38353957e-06  7.69424371e-01  1.38353957e-06  1.80000000e+00  1.38353957e-06  1.78941527e-06  1.38353957e-06  7.01314897e-01                                 
 1.49198089e-06  7.57533700e-01  1.49198089e-06  6.94659073e-01  1.49198089e-06  7.21343331e-01  1.49198089e-06  1.80000000e+00  1.49198089e-06  6.77526616e-08  1.49198089e-06  6.94659073e-01                                 
 1.60107893e-06  7.57418022e-01  1.60107893e-06  6.94539723e-01  1.60107893e-06  6.99663456e-01  1.60107893e-06  1.80000000e+00  1.60107893e-06  2.24618151e-06  1.60107893e-06  6.94539723e-01                                 
 1.74345163e-06  7.63351915e-01  1.74345163e-06  6.99734270e-01  1.74345163e-06  6.90871409e-01  1.74345163e-06  1.80000000e+00  1.74345163e-06  3.32247126e-07  1.74345163e-06  6.99734270e-01                                 
 1.88310590e-06  7.55938325e-01  1.88310590e-06  6.93242725e-01  1.88310590e-06  6.83958872e-01  1.88310590e-06  1.80000000e+00  1.88310590e-06  1.90447432e-06  1.88310590e-06  6.93242725e-01                                 
 1.91330364e-06  7.57712835e-01  1.91330364e-06  6.94804812e-01  1.91330364e-06  6.88986304e-01  1.91330364e-06  1.80000000e+00  1.91330364e-06  1.40531433e-06  1.91330364e-06  6.94804812e-01                                 
 1.97369911e-06  7.60702677e-01  1.97369911e-06  6.97427033e-01  1.97369911e-06  6.96481316e-01  1.97369911e-06  1.80000000e+00  1.97369911e-06  1.33581363e-06  1.97369911e-06  6.97427033e-01                                 
 2.09449005e-06  7.59736265e-01  2.09449005e-06  6.96587891e-01  2.09449005e-06  6.97202906e-01  2.09449005e-06  1.80000000e+00  2.09449005e-06  1.10577353e-06  2.09449005e-06  6.96587891e-01                                 
 2.30067642e-06  7.58964656e-01  2.30067642e-06  6.95905743e-01  2.30067642e-06  6.95731912e-01  2.30067642e-06  1.80000000e+00  2.30067642e-06  1.34322764e-06  2.30067642e-06  6.95905743e-01                                 
 2.49198547e-06  7.60649237e-01  2.49198547e-06  6.97384504e-01  2.49198547e-06  6.97703533e-01  2.49198547e-06  1.80000000e+00  2.49198547e-06  1.16478913e-06  2.49198547e-06  6.97384504e-01                                 
 2.87460355e-06  7.58535301e-01  2.87460355e-06  6.95530352e-01  2.87460355e-06  6.95496047e-01  2.87460355e-06  1.80000000e+00  2.87460355e-06  1.27845615e-06  2.87460355e-06  6.95530352e-01                                 
 3.49229315e-06  7.60704904e-01  3.49229315e-06  6.97432023e-01  3.49229315e-06  6.97705968e-01  3.49229315e-06  1.80000000e+00  3.49229315e-06  1.20508151e-06  3.49229315e-06  6.97432023e-01                                 
 4.26787049e-06  7.58556974e-01  4.26787049e-06  6.95550391e-01  4.26787049e-06  6.95541248e-01  4.26787049e-06  1.80000000e+00  4.26787049e-06  1.25055024e-06  4.26787049e-06  6.95550391e-01                                 
 5.26787049e-06  7.60662044e-01  5.26787049e-06  6.97394500e-01  5.26787049e-06  6.97650482e-01  5.26787049e-06  1.80000000e+00  5.26787049e-06  1.22669982e-06  5.26787049e-06  6.97394500e-01                                 
 6.26787049e-06  7.58619457e-01  6.26787049e-06  6.95605608e-01  6.26787049e-06  6.95611398e-01  6.26787049e-06  1.80000000e+00  6.26787049e-06  1.23217375e-06  6.26787049e-06  6.95605608e-01                                 
 7.26787049e-06  7.60584519e-01  7.26787049e-06  6.97326185e-01  7.26787049e-06  6.97567732e-01  7.26787049e-06  1.80000000e+00  7.26787049e-06  1.24444204e-06  7.26787049e-06  6.97326185e-01                                 
 8.26787049e-06  7.58714937e-01  8.26787049e-06  6.95689845e-01  8.26787049e-06  6.95709827e-01  8.26787049e-06  1.80000000e+00  8.26787049e-06  1.21520983e-06  8.26787049e-06  6.95689845e-01                                 
 9.26787049e-06  7.60479173e-01  9.26787049e-06  6.97233760e-01  9.26787049e-06  6.97461265e-01  9.26787049e-06  1.80000000e+00  9.26787049e-06  1.26050803e-06  9.26787049e-06  6.97233760e-01                                 
 1.00005000e-05  7.58861186e-01  1.00005000e-05  6.95818596e-01  1.00005000e-05  6.95855236e-01  1.00005000e-05  1.80000000e+00  1.00005000e-05  1.19765639e-06  1.00005000e-05  6.95818596e-01                                 
 1.00005500e-05  7.58860480e-01  1.00005500e-05  6.95817975e-01  1.00005500e-05  6.88857716e-01  1.00005500e-05  1.62000000e+00  1.00005500e-05 -1.20420484e-04  1.00005500e-05  6.95817975e-01                                 
 1.00006500e-05  7.58859096e-01  1.00006500e-05  6.95816744e-01  1.00006500e-05  6.78036643e-01  1.00006500e-05  1.26000000e+00  1.00006500e-05 -7.87099723e-05  1.00006500e-05  6.95816744e-01                                 
 1.00008500e-05  7.58856348e-01  1.00008500e-05  6.95814299e-01  1.00008500e-05  6.72308332e-01  1.00008500e-05  5.40000000e-01  1.00008500e-05 -3.85527916e-03  1.00008500e-05  6.95814299e-01                                 
