 time            v(vbep)         time            v(vben)         time            v(vout)         time            v(vphi1)        time            v(vphi2)        time            v(vref)         time            v(voutc)        time            v(voutcc)       yes             currtemp       
 0.00000000e+00  8.33115250e-01  0.00000000e+00  7.81490820e-01  0.00000000e+00  1.71073498e+00  0.00000000e+00  0.00000000e+00  0.00000000e+00  1.80000000e+00  0.00000000e+00  7.85234349e-01  0.00000000e+00  1.71073496e+00  0.00000000e+00  1.71594255e+00  1.00000000e+00 -8.00000000e+00 
 5.00000000e-12  8.33135308e-01  5.00000000e-12  7.81543900e-01  5.00000000e-12  1.71138767e+00  5.00000000e-12  1.80000000e-02  5.00000000e-12  1.80018232e+00  5.00000000e-12  7.85630071e-01  5.00000000e-12  1.71108439e+00  5.00000000e-12  1.71595505e+00                                 
 1.00000000e-11  8.33144204e-01  1.00000000e-11  7.81579166e-01  1.00000000e-11  1.71188769e+00  1.00000000e-11  3.60000000e-02  1.00000000e-11  1.80026717e+00  1.00000000e-11  7.85944555e-01  1.00000000e-11  1.71136443e+00  1.00000000e-11  1.71596227e+00                                 
 2.00000000e-11  8.33150104e-01  2.00000000e-11  7.81628287e-01  2.00000000e-11  1.71265381e+00  2.00000000e-11  7.20000000e-02  2.00000000e-11  1.80032534e+00  2.00000000e-11  7.86439524e-01  2.00000000e-11  1.71181119e+00  2.00000000e-11  1.71597001e+00                                 
 4.00000000e-11  8.33138550e-01  4.00000000e-11  7.81663766e-01  4.00000000e-11  1.71331395e+00  4.00000000e-11  1.44000000e-01  4.00000000e-11  1.80020522e+00  4.00000000e-11  7.86927335e-01  4.00000000e-11  1.71228064e+00  4.00000000e-11  1.71596605e+00                                 
 8.00000000e-11  8.33124936e-01  8.00000000e-11  7.81664043e-01  8.00000000e-11  1.71337134e+00  8.00000000e-11  2.88000000e-01  8.00000000e-11  1.80003368e+00  8.00000000e-11  7.87065909e-01  8.00000000e-11  1.71249777e+00  8.00000000e-11  1.71594902e+00                                 
 1.60000000e-10  8.33126275e-01  1.60000000e-10  7.81648170e-01  1.60000000e-10  1.71296429e+00  1.60000000e-10  5.76000000e-01  1.60000000e-10  1.80001871e+00  1.60000000e-10  7.86887736e-01  1.60000000e-10  1.71248383e+00  1.60000000e-10  1.71594175e+00                                 
 3.20000000e-10  8.33068363e-01  3.20000000e-10  7.81221173e-01  3.20000000e-10  1.70781906e+00  3.20000000e-10  1.15200000e+00  3.20000000e-10  1.80060256e+00  3.20000000e-10  7.82899094e-01  3.20000000e-10  1.70914482e+00  3.20000000e-10  1.71590500e+00                                 
 5.00000000e-10  8.33188431e-01  5.00000000e-10  7.81597585e-01  5.00000000e-10  1.69960403e+00  5.00000000e-10  1.80000000e+00  5.00000000e-10  1.29773797e-01  5.00000000e-10  7.86429150e-01  5.00000000e-10  1.71162611e+00  5.00000000e-10  1.71597716e+00                                 
 5.20258174e-10  8.33169452e-01  5.20258174e-10  7.81647987e-01  5.20258174e-10  1.69911644e+00  5.20258174e-10  1.80000000e+00  5.20258174e-10  3.10351022e-02  5.20258174e-10  7.87760145e-01  5.20258174e-10  1.71243666e+00  5.20258174e-10  1.71597833e+00                                 
 5.60774522e-10  8.33179178e-01  5.60774522e-10  7.81743763e-01  5.60774522e-10  1.69927940e+00  5.60774522e-10  1.80000000e+00  5.60774522e-10 -1.20585857e-02  5.60774522e-10  7.89645659e-01  5.60774522e-10  1.71414793e+00  5.60774522e-10  1.71598439e+00                                 
 6.41807219e-10  8.33217430e-01  6.41807219e-10  7.81581530e-01  6.41807219e-10  1.69805493e+00  6.41807219e-10  1.80000000e+00  6.41807219e-10  1.01187237e-02  6.41807219e-10  7.87955919e-01  6.41807219e-10  1.71286101e+00  6.41807219e-10  1.71591398e+00                                 
 7.59485282e-10  8.33247602e-01  7.59485282e-10  7.81561053e-01  7.59485282e-10  1.69740750e+00  7.59485282e-10  1.80000000e+00  7.59485282e-10 -7.99977879e-03  7.59485282e-10  7.88258282e-01  7.59485282e-10  1.71297899e+00  7.59485282e-10  1.71595753e+00                                 
 9.34713677e-10  8.33341949e-01  9.34713677e-10  7.81532389e-01  9.34713677e-10  1.69483783e+00  9.34713677e-10  1.80000000e+00  9.34713677e-10  7.68126403e-03  9.34713677e-10  7.88684436e-01  9.34713677e-10  1.71347508e+00  9.34713677e-10  1.71593374e+00                                 
 1.28517047e-09  8.33403174e-01  1.28517047e-09  7.81484816e-01  1.28517047e-09  1.68913345e+00  1.28517047e-09  1.80000000e+00  1.28517047e-09 -6.99448898e-03  1.28517047e-09  7.88771702e-01  1.28517047e-09  1.71343438e+00  1.28517047e-09  1.71594378e+00                                 
 1.69444065e-09  8.33364175e-01  1.69444065e-09  7.81494897e-01  1.69444065e-09  1.68759821e+00  1.69444065e-09  1.80000000e+00  1.69444065e-09  6.78388234e-03  1.69444065e-09  7.89144693e-01  1.69444065e-09  1.71387024e+00  1.69444065e-09  1.71593878e+00                                 
 2.15859852e-09  8.33252883e-01  2.15859852e-09  7.81468861e-01  2.15859852e-09  1.68743849e+00  2.15859852e-09  1.80000000e+00  2.15859852e-09 -6.48886393e-03  2.15859852e-09  7.88626648e-01  2.15859852e-09  1.71331463e+00  2.15859852e-09  1.71594791e+00                                 
 2.64537459e-09  8.33180136e-01  2.64537459e-09  7.81491467e-01  2.64537459e-09  1.68838654e+00  2.64537459e-09  1.80000000e+00  2.64537459e-09  6.25549154e-03  2.64537459e-09  7.88801382e-01  2.64537459e-09  1.71356906e+00  2.64537459e-09  1.71595931e+00                                 
 3.39918510e-09  8.33103044e-01  3.39918510e-09  7.81469676e-01  3.39918510e-09  1.68880304e+00  3.39918510e-09  1.80000000e+00  3.39918510e-09 -6.09654447e-03  3.39918510e-09  7.88114626e-01  3.39918510e-09  1.71287315e+00  3.39918510e-09  1.71597693e+00                                 
 4.75226612e-09  8.33079644e-01  4.75226612e-09  7.81495400e-01  4.75226612e-09  1.68987890e+00  4.75226612e-09  1.80000000e+00  4.75226612e-09  6.01966867e-03  4.75226612e-09  7.87944258e-01  4.75226612e-09  1.71282200e+00  4.75226612e-09  1.71602106e+00                                 
 7.45842814e-09  8.33078612e-01  7.45842814e-09  7.81475735e-01  7.45842814e-09  1.68930291e+00  7.45842814e-09  1.80000000e+00  7.45842814e-09 -5.97079944e-03  7.45842814e-09  7.86628247e-01  7.45842814e-09  1.71158180e+00  7.45842814e-09  1.71608823e+00                                 
 1.28707522e-08  8.33099495e-01  1.28707522e-08  7.81501738e-01  1.28707522e-08  1.68641623e+00  1.28707522e-08  1.80000000e+00  1.28707522e-08  5.96209275e-03  1.28707522e-08  7.85782521e-01  1.28707522e-08  1.71094477e+00  1.28707522e-08  1.71616548e+00                                 
 1.81547599e-08  8.33099935e-01  1.81547599e-08  7.81479360e-01  1.81547599e-08  1.68087121e+00  1.81547599e-08  1.80000000e+00  1.81547599e-08 -5.92587061e-03  1.81547599e-08  7.84860229e-01  1.81547599e-08  1.71004998e+00  1.81547599e-08  1.71615142e+00                                 
 2.33243984e-08  8.33112569e-01  2.33243984e-08  7.81502383e-01  2.33243984e-08  1.67489089e+00  2.33243984e-08  1.80000000e+00  2.33243984e-08  5.92243147e-03  2.33243984e-08  7.85036346e-01  2.33243984e-08  1.71029772e+00  2.33243984e-08  1.71610953e+00                                 
 2.85279042e-08  8.33106098e-01  2.85279042e-08  7.81479285e-01  2.85279042e-08  1.66766330e+00  2.85279042e-08  1.80000000e+00  2.85279042e-08 -5.88169423e-03  2.85279042e-08  7.84593744e-01  2.85279042e-08  1.70981599e+00  2.85279042e-08  1.71604546e+00                                 
 3.59011524e-08  8.33114176e-01  3.59011524e-08  7.81502439e-01  3.59011524e-08  1.65793016e+00  3.59011524e-08  1.80000000e+00  3.59011524e-08  5.88979696e-03  3.59011524e-08  7.84990304e-01  3.59011524e-08  1.71025126e+00  3.59011524e-08  1.71596900e+00                                 
 4.49688800e-08  8.33111773e-01  4.49688800e-08  7.81479266e-01  4.49688800e-08  1.64362853e+00  4.49688800e-08  1.80000000e+00  4.49688800e-08 -5.85355316e-03  4.49688800e-08  7.84677197e-01  4.49688800e-08  1.70988029e+00  4.49688800e-08  1.71587561e+00                                 
 5.85471934e-08  8.33119418e-01  5.85471934e-08  7.81502456e-01  5.85471934e-08  1.62121343e+00  5.85471934e-08  1.80000000e+00  5.85471934e-08  5.87089430e-03  5.85471934e-08  7.85163250e-01  5.85471934e-08  1.71039211e+00  5.85471934e-08  1.71578218e+00                                 
 7.75951993e-08  8.33113450e-01  7.75951993e-08  7.81479223e-01  7.75951993e-08  1.58709232e+00  7.75951993e-08  1.80000000e+00  7.75951993e-08 -5.83992541e-03  7.75951993e-08  7.84886485e-01  7.75951993e-08  1.71005345e+00  7.75951993e-08  1.71568831e+00                                 
 1.08041823e-07  8.33118574e-01  1.08041823e-07  7.81502433e-01  1.08041823e-07  1.53227260e+00  1.08041823e-07  1.80000000e+00  1.08041823e-07  5.86176368e-03  1.08041823e-07  7.85357762e-01  1.08041823e-07  1.71055426e+00  1.08041823e-07  1.71562672e+00                                 
 1.56092293e-07  8.33112541e-01  1.56092293e-07  7.81479196e-01  1.56092293e-07  1.44437070e+00  1.56092293e-07  1.80000000e+00  1.56092293e-07 -5.83421475e-03  1.56092293e-07  7.85028492e-01  1.56092293e-07  1.71017197e+00  1.56092293e-07  1.71559256e+00                                 
 2.52193233e-07  8.33118098e-01  2.52193233e-07  7.81502428e-01  2.52193233e-07  1.27145193e+00  2.52193233e-07  1.80000000e+00  2.52193233e-07  5.85842818e-03  2.52193233e-07  7.85426618e-01  2.52193233e-07  1.71060836e+00  2.52193233e-07  1.71560104e+00                                 
 4.13828150e-07  8.33112408e-01  4.13828150e-07  7.81479192e-01  4.13828150e-07  9.88379837e-01  4.13828150e-07  1.80000000e+00  4.13828150e-07 -5.83231403e-03  4.13828150e-07  7.85042876e-01  4.13828150e-07  1.71017350e+00  4.13828150e-07  1.71559702e+00                                 
 5.99862172e-07  8.33118103e-01  5.99862172e-07  7.81502430e-01  5.99862172e-07  7.98780652e-01  5.99862172e-07  1.80000000e+00  5.99862172e-07  5.85807498e-03  5.99862172e-07  7.85424752e-01  5.99862172e-07  1.71059089e+00  5.99862172e-07  1.71559270e+00                                 
 6.94325558e-07  8.33112490e-01  6.94325558e-07  7.81479203e-01  6.94325558e-07  7.86946565e-01  6.94325558e-07  1.80000000e+00  6.94325558e-07 -5.83016764e-03  6.94325558e-07  7.85045540e-01  6.94325558e-07  1.71016316e+00  6.94325558e-07  1.71558360e+00                                 
 7.93925672e-07  8.33117839e-01  7.93925672e-07  7.81502403e-01  7.93925672e-07  7.89916252e-01  7.93925672e-07  1.80000000e+00  7.93925672e-07  5.85594576e-03  7.93925672e-07  7.85423383e-01  7.93925672e-07  1.71058115e+00  7.93925672e-07  1.71558499e+00                                 
 8.81382929e-07  8.33112753e-01  8.81382929e-07  7.81479233e-01  8.81382929e-07  7.88556277e-01  8.81382929e-07  1.80000000e+00  8.81382929e-07 -5.82790427e-03  8.81382929e-07  7.85044855e-01  8.81382929e-07  1.71015433e+00  8.81382929e-07  1.71557481e+00                                 
 9.64555012e-07  8.33117712e-01  9.64555012e-07  7.81502378e-01  9.64555012e-07  7.89376672e-01  9.64555012e-07  1.80000000e+00  9.64555012e-07  5.85350729e-03  9.64555012e-07  7.85423860e-01  9.64555012e-07  1.71057404e+00  9.64555012e-07  1.71557730e+00                                 
 1.08527678e-06  8.33112794e-01  1.08527678e-06  7.81479249e-01  1.08527678e-06  7.88778000e-01  1.08527678e-06  1.80000000e+00  1.08527678e-06 -5.82571789e-03  1.08527678e-06  7.85044620e-01  1.08527678e-06  1.71014519e+00  1.08527678e-06  1.71556590e+00                                 
 1.25525872e-06  8.33117709e-01  1.25525872e-06  7.81502369e-01  1.25525872e-06  7.89291928e-01  1.25525872e-06  1.80000000e+00  1.25525872e-06  5.85202172e-03  1.25525872e-06  7.85423955e-01  1.25525872e-06  1.71056132e+00  1.25525872e-06  1.71556453e+00                                 
 1.56391742e-06  8.33112790e-01  1.56391742e-06  7.81479255e-01  1.56391742e-06  7.88818492e-01  1.56391742e-06  1.80000000e+00  1.56391742e-06 -5.82466742e-03  1.56391742e-06  7.85044579e-01  1.56391742e-06  1.71012410e+00  1.56391742e-06  1.71554492e+00                                 
 2.18123480e-06  8.33117713e-01  2.18123480e-06  7.81502366e-01  2.18123480e-06  7.89274067e-01  2.18123480e-06  1.80000000e+00  2.18123480e-06  5.85147176e-03  2.18123480e-06  7.85423972e-01  2.18123480e-06  1.71052061e+00  2.18123480e-06  1.71552393e+00                                 
 3.18123480e-06  8.33112787e-01  3.18123480e-06  7.81479256e-01  3.18123480e-06  7.88827220e-01  3.18123480e-06  1.80000000e+00  3.18123480e-06 -5.82446666e-03  3.18123480e-06  7.85044572e-01  3.18123480e-06  1.71005299e+00  3.18123480e-06  1.71547402e+00                                 
 4.18123480e-06  8.33117715e-01  4.18123480e-06  7.81502365e-01  4.18123480e-06  7.89267814e-01  4.18123480e-06  1.80000000e+00  4.18123480e-06  5.85132721e-03  4.18123480e-06  7.85423978e-01  4.18123480e-06  1.71043266e+00  4.18123480e-06  1.71543624e+00                                 
 5.18123480e-06  8.33112785e-01  5.18123480e-06  7.81479257e-01  5.18123480e-06  7.88833203e-01  5.18123480e-06  1.80000000e+00  5.18123480e-06 -5.82439174e-03  5.18123480e-06  7.85044565e-01  5.18123480e-06  1.70996502e+00  5.18123480e-06  1.71538632e+00                                 
 6.18123480e-06  8.33117718e-01  6.18123480e-06  7.81502364e-01  6.18123480e-06  7.89262111e-01  6.18123480e-06  1.80000000e+00  6.18123480e-06  5.85112021e-03  6.18123480e-06  7.85423983e-01  6.18123480e-06  1.71034470e+00  6.18123480e-06  1.71534853e+00                                 
 7.18123480e-06  8.33112782e-01  7.18123480e-06  7.81479258e-01  7.18123480e-06  7.88838662e-01  7.18123480e-06  1.80000000e+00  7.18123480e-06 -5.82418673e-03  7.18123480e-06  7.85044561e-01  7.18123480e-06  1.70987703e+00  7.18123480e-06  1.71529860e+00                                 
 8.18123480e-06  8.33117721e-01  8.18123480e-06  7.81502364e-01  8.18123480e-06  7.89256907e-01  8.18123480e-06  1.80000000e+00  8.18123480e-06  5.85091324e-03  8.18123480e-06  7.85423987e-01  8.18123480e-06  1.71025673e+00  8.18123480e-06  1.71526082e+00                                 
 9.18123480e-06  8.33112779e-01  9.18123480e-06  7.81479259e-01  9.18123480e-06  7.88843645e-01  9.18123480e-06  1.80000000e+00  9.18123480e-06 -5.82398176e-03  9.18123480e-06  7.85044557e-01  9.18123480e-06  1.70978908e+00  9.18123480e-06  1.71521091e+00                                 
 1.00005000e-05  8.33117725e-01  1.00005000e-05  7.81502363e-01  1.00005000e-05  7.89251662e-01  1.00005000e-05  1.80000000e+00  1.00005000e-05  5.85068745e-03  1.00005000e-05  7.85423992e-01  1.00005000e-05  1.71017674e+00  1.00005000e-05  1.71518106e+00                                 
 1.00005500e-05  8.33086988e-01  1.00005500e-05  7.81308122e-01  1.00005500e-05  7.87229119e-01  1.00005500e-05  1.62000000e+00  1.00005500e-05  3.96015751e-04  1.00005500e-05  7.83602475e-01  1.00005500e-05  1.70855122e+00  1.00005500e-05  1.71515555e+00                                 
 1.00006500e-05  8.33111883e-01  1.00006500e-05  7.81326484e-01  1.00006500e-05  7.87568045e-01  1.00006500e-05  1.26000000e+00  1.00006500e-05 -3.59385120e-04  1.00006500e-05  7.83544548e-01  1.00006500e-05  1.70849572e+00  1.00006500e-05  1.71518245e+00                                 
 1.00008500e-05  8.33135503e-01  1.00008500e-05  7.81608912e-01  1.00008500e-05  7.90467835e-01  1.00008500e-05  5.40000000e-01  1.00008500e-05  4.29055524e-05  1.00008500e-05  7.86210807e-01  1.00008500e-05  1.71062269e+00  1.00008500e-05  1.71519244e+00                                 
 1.00010000e-05  8.33111197e-01  1.00010000e-05  7.80085324e-01  1.00010000e-05  8.12663661e-01  1.00010000e-05  0.00000000e+00  1.00010000e-05  1.46888673e+00  1.00010000e-05  7.66347748e-01  1.00010000e-05  1.64047550e+00  1.00010000e-05  1.71445417e+00                                 
 1.00010275e-05  8.33125711e-01  1.00010275e-05  7.79804544e-01  1.00010275e-05  8.21129752e-01  1.00010275e-05  0.00000000e+00  1.00010275e-05  1.68178167e+00  1.00010275e-05  7.62319625e-01  1.00010275e-05  1.61287536e+00  1.00010275e-05  1.71434316e+00                                 
 1.00010824e-05  8.33116515e-01  1.00010824e-05  7.79409309e-01  1.00010824e-05  8.26652248e-01  1.00010824e-05  0.00000000e+00  1.00010824e-05  1.82633998e+00  1.00010824e-05  7.57063165e-01  1.00010824e-05  1.55611693e+00  1.00010824e-05  1.71433042e+00                                 
 1.00011923e-05  8.33110510e-01  1.00011923e-05  7.79569960e-01  1.00011923e-05  8.15983020e-01  1.00011923e-05  0.00000000e+00  1.00011923e-05  1.78352714e+00  1.00011923e-05  7.59189604e-01  1.00011923e-05  1.46138021e+00  1.00011923e-05  1.71486194e+00                                 
 1.00013464e-05  8.33120010e-01  1.00013464e-05  7.80130957e-01  1.00013464e-05  8.11860817e-01  1.00013464e-05  0.00000000e+00  1.00013464e-05  1.80989890e+00  1.00013464e-05  7.66208230e-01  1.00013464e-05  1.36310697e+00  1.00013464e-05  1.71519320e+00                                 
 1.00015707e-05  8.33109845e-01  1.00015707e-05  7.80448604e-01  1.00015707e-05  8.05235404e-01  1.00015707e-05  0.00000000e+00  1.00015707e-05  1.79193009e+00  1.00015707e-05  7.69711427e-01  1.00015707e-05  1.25095314e+00  1.00015707e-05  1.71529366e+00                                 
 1.00020192e-05  8.33119792e-01  1.00020192e-05  7.81065188e-01  1.00020192e-05  7.99779615e-01  1.00020192e-05  0.00000000e+00  1.00020192e-05  1.80652772e+00  1.00020192e-05  7.75941724e-01  1.00020192e-05  1.10647539e+00  1.00020192e-05  1.71545289e+00                                 
 1.00026514e-05  8.33110220e-01  1.00026514e-05  7.81350163e-01  1.00026514e-05  7.96250606e-01  1.00026514e-05  0.00000000e+00  1.00026514e-05  1.79386547e+00  1.00026514e-05  7.78059993e-01  1.00026514e-05  9.75089395e-01  1.00026514e-05  1.71534311e+00                                 
 1.00032663e-05  8.33119802e-01  1.00032663e-05  7.81638174e-01  1.00032663e-05  7.94312332e-01  1.00032663e-05  0.00000000e+00  1.00032663e-05  1.80526613e+00  1.00032663e-05  7.81192322e-01  1.00032663e-05  8.91033262e-01  1.00032663e-05  1.71503286e+00                                 
 1.00041391e-05  8.33110605e-01  1.00041391e-05  7.81727243e-01  1.00041391e-05  7.92259367e-01  1.00041391e-05  0.00000000e+00  1.00041391e-05  1.79493405e+00  1.00041391e-05  7.82807648e-01  1.00041391e-05  8.17013056e-01  1.00041391e-05  1.71430728e+00                                 
 1.00052386e-05  8.33119728e-01  1.00052386e-05  7.81894349e-01  1.00052386e-05  7.90303048e-01  1.00052386e-05  0.00000000e+00  1.00052386e-05  1.80465713e+00  1.00052386e-05  7.86228039e-01  1.00052386e-05  7.93237658e-01  1.00052386e-05  1.71320855e+00                                 
 1.00060980e-05  8.33110830e-01  1.00060980e-05  7.81717194e-01  1.00060980e-05  7.91700957e-01  1.00060980e-05  0.00000000e+00  1.00060980e-05  1.79565450e+00  1.00060980e-05  7.85217173e-01  1.00060980e-05  7.90625474e-01  1.00060980e-05  1.71213012e+00                                 
 1.00072826e-05  8.33119566e-01  1.00072826e-05  7.81724161e-01  1.00072826e-05  7.92040430e-01  1.00072826e-05  0.00000000e+00  1.00072826e-05  1.80404613e+00  1.00072826e-05  7.86563945e-01  1.00072826e-05  7.92498550e-01  1.00072826e-05  1.71059826e+00                                 
 1.00087364e-05  8.33110984e-01  1.00087364e-05  7.81559287e-01  1.00087364e-05  7.94376540e-01  1.00087364e-05  0.00000000e+00  1.00087364e-05  1.79610611e+00  1.00087364e-05  7.85469171e-01  1.00087364e-05  7.92908364e-01  1.00087364e-05  1.70861366e+00                                 
 1.00116440e-05  8.33119476e-01  1.00116440e-05  7.81580866e-01  1.00116440e-05  7.96848797e-01  1.00116440e-05  0.00000000e+00  1.00116440e-05  1.80375925e+00  1.00116440e-05  7.86545251e-01  1.00116440e-05  7.97139459e-01  1.00116440e-05  1.70472344e+00                                 
