 time            v(vbep)         time            v(vben)         time            v(vout)         time            v(vphi1)        time            v(vphi2)        time            v(vref)         time            v(voutc)        time            v(voutcc)       yes             currtemp       
 0.00000000e+00  8.33982946e-01  0.00000000e+00  7.84241908e-01  0.00000000e+00  1.72254441e+00  0.00000000e+00  0.00000000e+00  0.00000000e+00  1.80000000e+00  0.00000000e+00  7.88023997e-01  0.00000000e+00  1.72254440e+00  0.00000000e+00  1.72755305e+00  1.00000000e+00 -1.40000000e+01 
 1.00000000e-11  8.34004918e-01  1.00000000e-11  7.84308772e-01  1.00000000e-11  1.72336765e+00  1.00000000e-11  1.80000000e-02  1.00000000e-11  1.80024377e+00  1.00000000e-11  7.88540777e-01  1.00000000e-11  1.72300326e+00  1.00000000e-11  1.72756683e+00                                 
 2.00000000e-11  8.34011079e-01  2.00000000e-11  7.84350967e-01  2.00000000e-11  1.72392430e+00  2.00000000e-11  3.60000000e-02  2.00000000e-11  1.80034593e+00  2.00000000e-11  7.88931555e-01  2.00000000e-11  1.72336306e+00  2.00000000e-11  1.72757327e+00                                 
 4.00000000e-11  8.34011043e-01  4.00000000e-11  7.84406225e-01  4.00000000e-11  1.72466774e+00  4.00000000e-11  7.20000000e-02  4.00000000e-11  1.80039397e+00  4.00000000e-11  7.89510432e-01  4.00000000e-11  1.72391933e+00  4.00000000e-11  1.72757761e+00                                 
 8.00000000e-11  8.33999934e-01  8.00000000e-11  7.84438772e-01  8.00000000e-11  1.72502926e+00  8.00000000e-11  1.44000000e-01  8.00000000e-11  1.80020296e+00  8.00000000e-11  7.89976532e-01  8.00000000e-11  1.72444872e+00  8.00000000e-11  1.72756821e+00                                 
 1.60000000e-10  8.33996553e-01  1.60000000e-10  7.84438364e-01  1.60000000e-10  1.72481567e+00  1.60000000e-10  2.88000000e-01  1.60000000e-10  1.80001457e+00  1.60000000e-10  7.90044002e-01  1.60000000e-10  1.72465972e+00  1.60000000e-10  1.72755544e+00                                 
 3.20000000e-10  8.33994142e-01  3.20000000e-10  7.84436640e-01  3.20000000e-10  1.72451980e+00  3.20000000e-10  5.76000000e-01  3.20000000e-10  1.80002090e+00  3.20000000e-10  7.90004590e-01  3.20000000e-10  1.72464289e+00  3.20000000e-10  1.72755315e+00                                 
 6.40000000e-10  8.33923861e-01  6.40000000e-10  7.84230105e-01  6.40000000e-10  1.71792356e+00  6.40000000e-10  1.15200000e+00  6.40000000e-10  1.81353193e+00  6.40000000e-10  7.89566470e-01  6.40000000e-10  1.72918378e+00  6.40000000e-10  1.72758083e+00                                 
 9.95449892e-10  8.34327558e-01  9.95449892e-10  7.84248350e-01  9.95449892e-10  1.68727887e+00  9.95449892e-10  1.79180980e+00  9.95449892e-10  7.53181176e-02  9.95449892e-10  7.90270798e-01  9.95449892e-10  1.71776465e+00  9.95449892e-10  1.72745994e+00                                 
 1.00000000e-09  8.34342891e-01  1.00000000e-09  7.84274503e-01  1.00000000e-09  1.68698911e+00  1.00000000e-09  1.80000000e+00  1.00000000e-09  4.48704427e-02  1.00000000e-09  7.90635018e-01  1.00000000e-09  1.71765576e+00  1.00000000e-09  1.72746963e+00                                 
 1.00910022e-09  8.34325524e-01  1.00910022e-09  7.84285015e-01  1.00910022e-09  1.68692240e+00  1.00910022e-09  1.80000000e+00  1.00910022e-09  2.23309666e-02  1.00910022e-09  7.91449282e-01  1.00910022e-09  1.71807289e+00  1.00910022e-09  1.72750057e+00                                 
 1.02730065e-09  8.34318646e-01  1.02730065e-09  7.84338167e-01  1.02730065e-09  1.68725060e+00  1.02730065e-09  1.80000000e+00  1.02730065e-09  9.17582451e-04  1.02730065e-09  7.93060749e-01  1.02730065e-09  1.71922215e+00  1.02730065e-09  1.72755477e+00                                 
 1.06370152e-09  8.34393825e-01  1.06370152e-09  7.84394912e-01  1.06370152e-09  1.68734343e+00  1.06370152e-09  1.80000000e+00  1.06370152e-09  1.35638518e-03  1.06370152e-09  7.94666909e-01  1.06370152e-09  1.72067907e+00  1.06370152e-09  1.72757221e+00                                 
 1.13650325e-09  8.34558049e-01  1.13650325e-09  7.84318995e-01  1.13650325e-09  1.68431743e+00  1.13650325e-09  1.80000000e+00  1.13650325e-09  2.79012096e-04  1.13650325e-09  7.94889798e-01  1.13650325e-09  1.72086931e+00  1.13650325e-09  1.72753807e+00                                 
 1.28210673e-09  8.34735324e-01  1.28210673e-09  7.84259671e-01  1.28210673e-09  1.67833114e+00  1.28210673e-09  1.80000000e+00  1.28210673e-09  4.96767947e-04  1.28210673e-09  7.95566645e-01  1.28210673e-09  1.72143435e+00  1.28210673e-09  1.72756067e+00                                 
 1.51761440e-09  8.34762194e-01  1.51761440e-09  7.84243123e-01  1.51761440e-09  1.67461370e+00  1.51761440e-09  1.80000000e+00  1.51761440e-09 -1.93329205e-04  1.51761440e-09  7.95754671e-01  1.51761440e-09  1.72158072e+00  1.51761440e-09  1.72755271e+00                                 
 1.77983526e-09  8.34601578e-01  1.77983526e-09  7.84234617e-01  1.77983526e-09  1.67596495e+00  1.77983526e-09  1.80000000e+00  1.77983526e-09  1.61016474e-04  1.77983526e-09  7.95384575e-01  1.77983526e-09  1.72127133e+00  1.77983526e-09  1.72756283e+00                                 
 2.03845487e-09  8.34433855e-01  2.03845487e-09  7.84233125e-01  2.03845487e-09  1.67808429e+00  2.03845487e-09  1.80000000e+00  2.03845487e-09 -2.02552894e-04  2.03845487e-09  7.94979920e-01  2.03845487e-09  1.72092408e+00  2.03845487e-09  1.72755911e+00                                 
 2.40302692e-09  8.34225800e-01  2.40302692e-09  7.84229399e-01  2.40302692e-09  1.68110005e+00  2.40302692e-09  1.80000000e+00  2.40302692e-09  1.21320078e-04  2.40302692e-09  7.94417299e-01  2.40302692e-09  1.72045287e+00  2.40302692e-09  1.72756511e+00                                 
 3.09353721e-09  8.33989294e-01  3.09353721e-09  7.84224675e-01  3.09353721e-09  1.68583640e+00  3.09353721e-09  1.80000000e+00  3.09353721e-09 -1.80382332e-04  3.09353721e-09  7.93391300e-01  3.09353721e-09  1.71958092e+00  3.09353721e-09  1.72756092e+00                                 
 4.47455777e-09  8.33839492e-01  4.47455777e-09  7.84223385e-01  4.47455777e-09  1.69267179e+00  4.47455777e-09  1.80000000e+00  4.47455777e-09  1.16354906e-04  4.47455777e-09  7.91666765e-01  4.47455777e-09  1.71812719e+00  4.47455777e-09  1.72754683e+00                                 
 7.23659891e-09  8.33897376e-01  7.23659891e-09  7.84230167e-01  7.23659891e-09  1.69876758e+00  7.23659891e-09  1.80000000e+00  7.23659891e-09 -1.66677152e-04  7.23659891e-09  7.89365764e-01  7.23659891e-09  1.71617728e+00  7.23659891e-09  1.72744135e+00                                 
 9.85446841e-09  8.33937942e-01  9.85446841e-09  7.84237543e-01  9.85446841e-09  1.69941034e+00  9.85446841e-09  1.80000000e+00  9.85446841e-09  1.23017545e-04  9.85446841e-09  7.88300783e-01  9.85446841e-09  1.71527965e+00  9.85446841e-09  1.72727904e+00                                 
 1.23787260e-08  8.33951810e-01  1.23787260e-08  7.84239578e-01  1.23787260e-08  1.69831400e+00  1.23787260e-08  1.80000000e+00  1.23787260e-08 -1.55690661e-04  1.23787260e-08  7.87793890e-01  1.23787260e-08  1.71484353e+00  1.23787260e-08  1.72707709e+00                                 
 1.50505720e-08  8.33948445e-01  1.50505720e-08  7.84241774e-01  1.50505720e-08  1.69735469e+00  1.50505720e-08  1.80000000e+00  1.50505720e-08  1.29145393e-04  1.50505720e-08  7.87567448e-01  1.50505720e-08  1.71465055e+00  1.50505720e-08  1.72685043e+00                                 
 1.87629493e-08  8.33951216e-01  1.87629493e-08  7.84241436e-01  1.87629493e-08  1.69638430e+00  1.87629493e-08  1.80000000e+00  1.87629493e-08 -1.41652000e-04  1.87629493e-08  7.87446915e-01  1.87629493e-08  1.71453375e+00  1.87629493e-08  1.72652055e+00                                 
 2.34682157e-08  8.33966433e-01  2.34682157e-08  7.84242425e-01  2.34682157e-08  1.69331753e+00  2.34682157e-08  1.80000000e+00  2.34682157e-08  1.34436161e-04  2.34682157e-08  7.87461314e-01  2.34682157e-08  1.71453403e+00  2.34682157e-08  1.72611874e+00                                 
 3.01673170e-08  8.33982900e-01  3.01673170e-08  7.84241562e-01  3.01673170e-08  1.68581497e+00  3.01673170e-08  1.80000000e+00  3.01673170e-08 -1.37144455e-04  3.01673170e-08  7.87517415e-01  3.01673170e-08  1.71455459e+00  3.01673170e-08  1.72557588e+00                                 
 3.96826885e-08  8.33984004e-01  3.96826885e-08  7.84242517e-01  3.96826885e-08  1.67302629e+00  3.96826885e-08  1.80000000e+00  3.96826885e-08  1.34303278e-04  3.96826885e-08  7.87628456e-01  3.96826885e-08  1.71462430e+00  3.96826885e-08  1.72488860e+00                                 
 5.45308506e-08  8.33986572e-01  5.45308506e-08  7.84241529e-01  5.45308506e-08  1.65159707e+00  5.45308506e-08  1.80000000e+00  5.45308506e-08 -1.37002266e-04  5.45308506e-08  7.87735220e-01  5.45308506e-08  1.71467647e+00  5.45308506e-08  1.72396813e+00                                 
 7.78631782e-08  8.33982309e-01  7.78631782e-08  7.84242434e-01  7.78631782e-08  1.61609796e+00  7.78631782e-08  1.80000000e+00  7.78631782e-08  1.33751336e-04  7.78631782e-08  7.87867862e-01  7.78631782e-08  1.71475641e+00  7.78631782e-08  1.72284946e+00                                 
 1.24527833e-07  8.33985027e-01  1.24527833e-07  7.84241447e-01  1.24527833e-07  1.54202211e+00  1.24527833e-07  1.80000000e+00  1.24527833e-07 -1.37070585e-04  1.24527833e-07  7.87969982e-01  1.24527833e-07  1.71479917e+00  1.24527833e-07  1.72141201e+00                                 
 2.17857144e-07  8.33981252e-01  2.17857144e-07  7.84242396e-01  2.17857144e-07  1.39290798e+00  2.17857144e-07  1.80000000e+00  2.17857144e-07  1.33641443e-04  2.17857144e-07  7.88031751e-01  2.17857144e-07  1.71482609e+00  2.17857144e-07  1.72021105e+00                                 
 3.74081474e-07  8.33984651e-01  3.74081474e-07  7.84241434e-01  3.74081474e-07  1.14861793e+00  3.74081474e-07  1.80000000e+00  3.74081474e-07 -1.36714646e-04  3.74081474e-07  7.88017414e-01  3.74081474e-07  1.71479615e+00  3.74081474e-07  1.71983127e+00                                 
 5.90514975e-07  8.33981249e-01  5.90514975e-07  7.84242387e-01  5.90514975e-07  8.61978632e-01  5.90514975e-07  1.80000000e+00  5.90514975e-07  1.34240388e-04  5.90514975e-07  7.88029718e-01  5.90514975e-07  1.71480115e+00  5.90514975e-07  1.71982949e+00                                 
 7.90315212e-07  8.33984689e-01  7.90315212e-07  7.84241433e-01  7.90315212e-07  7.78563822e-01  7.90315212e-07  1.80000000e+00  7.90315212e-07 -1.34598169e-04  7.90315212e-07  7.88018956e-01  7.90315212e-07  1.71477956e+00  7.90315212e-07  1.71982110e+00                                 
 9.37179342e-07  8.33981092e-01  9.37179342e-07  7.84242377e-01  9.37179342e-07  7.95604839e-01  9.37179342e-07  1.80000000e+00  9.37179342e-07  1.34740845e-04  9.37179342e-07  7.88029502e-01  9.37179342e-07  1.71478618e+00  9.37179342e-07  1.71981727e+00                                 
 9.97484847e-07  8.33984837e-01  9.97484847e-07  7.84241440e-01  9.97484847e-07  7.92575636e-01  9.97484847e-07  1.80000000e+00  9.97484847e-07 -1.34671303e-04  9.97484847e-07  7.88017933e-01  9.97484847e-07  1.71476976e+00  9.97484847e-07  1.71981156e+00                                 
 1.07683892e-06  8.33981112e-01  1.07683892e-06  7.84242384e-01  1.07683892e-06  7.91812734e-01  1.07683892e-06  1.80000000e+00  1.07683892e-06  1.34704550e-04  1.07683892e-06  7.88030018e-01  1.07683892e-06  1.71478065e+00  1.07683892e-06  1.71981103e+00                                 
 1.16278435e-06  8.33984742e-01  1.16278435e-06  7.84241438e-01  1.16278435e-06  7.91929647e-01  1.16278435e-06  1.80000000e+00  1.16278435e-06 -1.34920376e-04  1.16278435e-06  7.88018037e-01  1.16278435e-06  1.71476278e+00  1.16278435e-06  1.71980456e+00                                 
 1.32246370e-06  8.33981165e-01  1.32246370e-06  7.84242389e-01  1.32246370e-06  7.91796439e-01  1.32246370e-06  1.80000000e+00  1.32246370e-06  1.34664394e-04  1.32246370e-06  7.88029954e-01  1.32246370e-06  1.71477009e+00  1.32246370e-06  1.71980058e+00                                 
 1.56188555e-06  8.33984717e-01  1.56188555e-06  7.84241439e-01  1.56188555e-06  7.91933775e-01  1.56188555e-06  1.80000000e+00  1.56188555e-06 -1.35044643e-04  1.56188555e-06  7.88018063e-01  1.56188555e-06  1.71474571e+00  1.56188555e-06  1.71978753e+00                                 
 2.04072924e-06  8.33981178e-01  2.04072924e-06  7.84242390e-01  2.04072924e-06  7.91814565e-01  2.04072924e-06  1.80000000e+00  2.04072924e-06  1.34648426e-04  2.04072924e-06  7.88029945e-01  2.04072924e-06  1.71473930e+00  2.04072924e-06  1.71976989e+00                                 
 2.90682440e-06  8.33984711e-01  2.90682440e-06  7.84241441e-01  2.90682440e-06  7.91935178e-01  2.90682440e-06  1.80000000e+00  2.90682440e-06 -1.35173651e-04  2.90682440e-06  7.88018070e-01  2.90682440e-06  1.71468805e+00  2.90682440e-06  1.71973004e+00                                 
 4.10682440e-06  8.33981183e-01  4.10682440e-06  7.84242388e-01  4.10682440e-06  7.91820064e-01  4.10682440e-06  1.80000000e+00  4.10682440e-06  1.34607733e-04  4.10682440e-06  7.88029940e-01  4.10682440e-06  1.71465074e+00  4.10682440e-06  1.71968160e+00                                 
 5.30682440e-06  8.33984707e-01  5.30682440e-06  7.84241436e-01  5.30682440e-06  7.91935367e-01  5.30682440e-06  1.80000000e+00  5.30682440e-06 -1.34832938e-04  5.30682440e-06  7.88018066e-01  5.30682440e-06  1.71458527e+00  5.30682440e-06  1.71962755e+00                                 
 6.00100000e-06  8.33981187e-01  6.00100000e-06  7.84242385e-01  6.00100000e-06  7.91822092e-01  6.00100000e-06  1.80000000e+00  6.00100000e-06  1.34566942e-04  6.00100000e-06  7.88029932e-01  6.00100000e-06  1.71456965e+00  6.00100000e-06  1.71960075e+00                                 
 6.00110000e-06  8.33950963e-01  6.00110000e-06  7.84019460e-01  6.00110000e-06  7.89763217e-01  6.00110000e-06  1.62000000e+00  6.00110000e-06 -8.73170682e-05  6.00110000e-06  7.86165880e-01  6.00110000e-06  1.71299140e+00  6.00110000e-06  1.71958456e+00                                 
 6.00130000e-06  8.33980567e-01  6.00130000e-06  7.84080737e-01  6.00130000e-06  7.90504917e-01  6.00130000e-06  1.26000000e+00  6.00130000e-06  3.95535944e-05  6.00130000e-06  7.86495203e-01  6.00130000e-06  1.71327252e+00  6.00130000e-06  1.71960780e+00                                 
 6.00170000e-06  8.34009531e-01  6.00170000e-06  7.84110978e-01  6.00170000e-06  7.92046728e-01  6.00170000e-06  5.40000000e-01  6.00170000e-06  6.90779220e-02  6.00170000e-06  7.85474992e-01  6.00170000e-06  1.70519796e+00  6.00170000e-06  1.71954856e+00                                 
 6.00200000e-06  8.33977911e-01  6.00200000e-06  7.81863940e-01  6.00200000e-06  8.40082587e-01  6.00200000e-06  0.00000000e+00  6.00200000e-06  1.60338436e+00  6.00200000e-06  7.57443922e-01  6.00200000e-06  1.50154501e+00  6.00200000e-06  1.71870966e+00                                 
 6.00205063e-06  8.33985023e-01  6.00205063e-06  7.81853889e-01  6.00205063e-06  8.37842696e-01  6.00205063e-06  0.00000000e+00  6.00205063e-06  1.73587249e+00  6.00205063e-06  7.57104736e-01  6.00205063e-06  1.44290336e+00  6.00205063e-06  1.71898353e+00                                 
 6.00215188e-06  8.33981840e-01  6.00215188e-06  7.81958526e-01  6.00215188e-06  8.29121999e-01  6.00215188e-06  0.00000000e+00  6.00215188e-06  1.81833021e+00  6.00215188e-06  7.58317468e-01  6.00215188e-06  1.33038324e+00  6.00215188e-06  1.71948910e+00                                 
 6.00230814e-06  8.33981596e-01  6.00230814e-06  7.82563300e-01  6.00230814e-06  8.16886480e-01  6.00230814e-06  0.00000000e+00  6.00230814e-06  1.78811845e+00  6.00230814e-06  7.65601051e-01  6.00230814e-06  1.20383161e+00  6.00230814e-06  1.71964812e+00                                 
 6.00247736e-06  8.33982519e-01  6.00247736e-06  7.82886727e-01  6.00247736e-06  8.13283277e-01  6.00247736e-06  0.00000000e+00  6.00247736e-06  1.80559761e+00  6.00247736e-06  7.69160599e-01  6.00247736e-06  1.11282712e+00  6.00247736e-06  1.71972125e+00                                 
 6.00270515e-06  8.33980994e-01  6.00270515e-06  7.83198165e-01  6.00270515e-06  8.08048623e-01  6.00270515e-06  0.00000000e+00  6.00270515e-06  1.79567871e+00  6.00270515e-06  7.72188260e-01  6.00270515e-06  1.01979670e+00  6.00270515e-06  1.71979880e+00                                 
 6.00296111e-06  8.33982872e-01  6.00296111e-06  7.83556958e-01  6.00296111e-06  8.05565999e-01  6.00296111e-06  0.00000000e+00  6.00296111e-06  1.80250918e+00  6.00296111e-06  7.75746190e-01  6.00296111e-06  9.40294522e-01  6.00296111e-06  1.71988264e+00                                 
 6.00347303e-06  8.33981356e-01  6.00347303e-06  7.84097944e-01  6.00347303e-06  7.98891384e-01  6.00347303e-06  0.00000000e+00  6.00347303e-06  1.79740798e+00  6.00347303e-06  7.80982801e-01  6.00347303e-06  8.34274886e-01  6.00347303e-06  1.71990680e+00                                 
 6.00413509e-06  8.33983500e-01  6.00413509e-06  7.84701612e-01  6.00413509e-06  7.92519998e-01  6.00413509e-06  0.00000000e+00  6.00413509e-06  1.80210651e+00  6.00413509e-06  7.87711267e-01  6.00413509e-06  7.94467744e-01  6.00413509e-06  1.71971947e+00                                 
 6.00457770e-06  8.33981788e-01  6.00457770e-06  7.84699311e-01  6.00457770e-06  7.92318810e-01  6.00457770e-06  0.00000000e+00  6.00457770e-06  1.79832452e+00  6.00457770e-06  7.87763097e-01  6.00457770e-06  7.92465299e-01  6.00457770e-06  1.71941362e+00                                 
 6.00526041e-06  8.33983764e-01  6.00526041e-06  7.84710393e-01  6.00526041e-06  7.92284447e-01  6.00526041e-06  0.00000000e+00  6.00526041e-06  1.80146726e+00  6.00526041e-06  7.88783960e-01  6.00526041e-06  7.92644547e-01  6.00526041e-06  1.71880846e+00                                 
 6.00588486e-06  8.33981996e-01  6.00588486e-06  7.84591745e-01  6.00588486e-06  7.92880000e-01  6.00588486e-06  0.00000000e+00  6.00588486e-06  1.79874159e+00  6.00588486e-06  7.88264828e-01  6.00588486e-06  7.92373770e-01  6.00588486e-06  1.71814516e+00                                 
 6.00713376e-06  8.33983836e-01  6.00713376e-06  7.84518488e-01  6.00713376e-06  7.93662659e-01  6.00713376e-06  0.00000000e+00  6.00713376e-06  1.80117386e+00  6.00713376e-06  7.88930574e-01  6.00713376e-06  7.93859342e-01  6.00713376e-06  1.71674475e+00                                 
 6.00963157e-06  8.33982051e-01  6.00963157e-06  7.84345491e-01  6.00963157e-06  7.96019200e-01  6.00963157e-06  0.00000000e+00  6.00963157e-06  1.79887542e+00  6.00963157e-06  7.88475668e-01  6.00963157e-06  7.95454637e-01  6.00963157e-06  1.71378674e+00                                 
 6.01462717e-06  8.33983833e-01  6.01462717e-06  7.84296642e-01  6.01462717e-06  8.00665660e-01  6.01462717e-06  0.00000000e+00  6.01462717e-06  1.80111043e+00  6.01462717e-06  7.88985458e-01  6.01462717e-06  8.00795653e-01  6.01462717e-06  1.70787940e+00                                 
 6.02461839e-06  8.33982057e-01  6.02461839e-06  7.84214671e-01  6.02461839e-06  8.10798338e-01  6.02461839e-06  0.00000000e+00  6.02461839e-06  1.79890658e+00  6.02461839e-06  7.88320363e-01  6.02461839e-06  8.10141697e-01  6.02461839e-06  1.69605502e+00                                 
 6.04273080e-06  8.33983833e-01  6.04273080e-06  7.84257967e-01  6.04273080e-06  8.28161451e-01  6.04273080e-06  0.00000000e+00  6.04273080e-06  1.80109438e+00  6.04273080e-06  7.88642653e-01  6.04273080e-06  8.28334083e-01  6.04273080e-06  1.67368873e+00                                 
 6.07895562e-06  8.33982058e-01  6.07895562e-06  7.84221302e-01  6.07895562e-06  8.60877304e-01  6.07895562e-06  0.00000000e+00  6.07895562e-06  1.79891428e+00  6.07895562e-06  7.87907838e-01  6.07895562e-06  8.59834309e-01  6.07895562e-06  1.62561190e+00                                 
