 time            v(vbep)         time            v(vben)         time            v(vout)         time            v(vphi1)        time            v(vphi2)        time            v(vref)         yes             currtemp       
 0.00000000e+00  6.54887247e-01  0.00000000e+00  5.96176267e-01  0.00000000e+00  1.06663686e+00  0.00000000e+00  0.00000000e+00  0.00000000e+00  1.79994072e+00  0.00000000e+00  5.96176267e-01  1.00000000e+00  4.80000000e+01 
 5.00000000e-12  6.54851426e-01  5.00000000e-12  5.96146735e-01  5.00000000e-12  1.06737288e+00  5.00000000e-12  1.80000000e-02  5.00000000e-12  1.80006856e+00  5.00000000e-12  5.96146735e-01                                 
 1.00000000e-11  6.54816797e-01  1.00000000e-11  5.96118075e-01  1.00000000e-11  1.06804255e+00  1.00000000e-11  3.60000000e-02  1.00000000e-11  1.80014530e+00  1.00000000e-11  5.96118075e-01                                 
 2.00000000e-11  6.54748299e-01  2.00000000e-11  5.96061011e-01  2.00000000e-11  1.06927766e+00  2.00000000e-11  7.20000000e-02  2.00000000e-11  1.80023165e+00  2.00000000e-11  5.96061011e-01                                 
 4.00000000e-11  6.54612606e-01  4.00000000e-11  5.95947399e-01  4.00000000e-11  1.07126525e+00  4.00000000e-11  1.44000000e-01  4.00000000e-11  1.80022341e+00  4.00000000e-11  5.95947399e-01                                 
 8.00000000e-11  6.54342732e-01  8.00000000e-11  5.95721351e-01  8.00000000e-11  1.07392481e+00  8.00000000e-11  2.88000000e-01  8.00000000e-11  1.80012612e+00  8.00000000e-11  5.95721351e-01                                 
 1.60000000e-10  6.53809587e-01  1.60000000e-10  5.95273928e-01  1.60000000e-10  1.07613201e+00  1.60000000e-10  5.76000000e-01  1.60000000e-10  1.80001529e+00  1.60000000e-10  5.95273928e-01                                 
 3.20000000e-10  6.52767926e-01  3.20000000e-10  5.94397019e-01  3.20000000e-10  1.06899454e+00  3.20000000e-10  1.15200000e+00  3.20000000e-10  1.80029626e+00  3.20000000e-10  5.94397019e-01                                 
 5.00000000e-10  6.51633833e-01  5.00000000e-10  5.93437955e-01  5.00000000e-10  1.17344346e+00  5.00000000e-10  1.80000000e+00  5.00000000e-10  1.60179812e-01  5.00000000e-10  5.93437955e-01                                 
 5.21612580e-10  6.51500547e-01  5.21612580e-10  5.93324923e-01  5.21612580e-10  1.19982513e+00  5.21612580e-10  1.80000000e+00  5.21612580e-10  4.10510942e-02  5.21612580e-10  5.93324923e-01                                 
 5.64837739e-10  6.51235016e-01  5.64837739e-10  5.93099602e-01  5.64837739e-10  1.25238782e+00  5.64837739e-10  1.80000000e+00  5.64837739e-10 -1.50471658e-02  5.64837739e-10  5.93099602e-01                                 
 6.51288057e-10  6.50710265e-01  6.51288057e-10  5.92653613e-01  6.51288057e-10  1.34677434e+00  6.51288057e-10  1.80000000e+00  6.51288057e-10  1.27011249e-02  6.51288057e-10  5.92653613e-01                                 
 7.71660873e-10  6.49993250e-01  7.71660873e-10  5.92042706e-01  7.71660873e-10  1.46035985e+00  7.71660873e-10  1.80000000e+00  7.71660873e-10 -9.55050467e-03  7.71660873e-10  5.92042706e-01                                 
 9.53755132e-10  6.48937401e-01  9.53755132e-10  5.91139966e-01  9.53755132e-10  1.59813712e+00  9.53755132e-10  1.80000000e+00  9.53755132e-10  9.40613794e-03  9.53755132e-10  5.91139966e-01                                 
 1.31794365e-09  6.46921861e-01  1.31794365e-09  5.89406593e-01  1.31794365e-09  1.76833218e+00  1.31794365e-09  1.80000000e+00  1.31794365e-09 -8.22474548e-03  1.31794365e-09  5.89406593e-01                                 
 1.65444064e-09  6.45165044e-01  1.65444064e-09  5.87884770e-01  1.65444064e-09  1.84021575e+00  1.65444064e-09  1.80000000e+00  1.65444064e-09  8.04364568e-03  1.65444064e-09  5.87884770e-01                                 
 2.02883040e-09  6.43316748e-01  2.02883040e-09  5.86273021e-01  2.02883040e-09  1.87189474e+00  2.02883040e-09  1.80000000e+00  2.02883040e-09 -7.43027934e-03  2.02883040e-09  5.86273021e-01                                 
 2.38169028e-09  6.41667607e-01  2.38169028e-09  5.84825841e-01  2.38169028e-09  1.88254108e+00  2.38169028e-09  1.80000000e+00  2.38169028e-09  7.07506338e-03  2.38169028e-09  5.84825841e-01                                 
 2.90421575e-09  6.39371709e-01  2.90421575e-09  5.82797454e-01  2.90421575e-09  1.88581002e+00  2.90421575e-09  1.80000000e+00  2.90421575e-09 -6.73879097e-03  2.90421575e-09  5.82797454e-01                                 
 3.56126408e-09  6.36702648e-01  3.56126408e-09  5.80419898e-01  3.56126408e-09  1.88489038e+00  3.56126408e-09  1.80000000e+00  3.56126408e-09  6.55663506e-03  3.56126408e-09  5.80419898e-01                                 
 4.68011007e-09  6.32617848e-01  4.68011007e-09  5.76743343e-01  4.68011007e-09  1.88081597e+00  4.68011007e-09  1.80000000e+00  4.68011007e-09 -6.40301772e-03  4.68011007e-09  5.76743343e-01                                 
 6.42360581e-09  6.27154649e-01  6.42360581e-09  5.71758811e-01  6.42360581e-09  1.87589732e+00  6.42360581e-09  1.80000000e+00  6.42360581e-09  6.35224248e-03  6.42360581e-09  5.71758811e-01                                 
 9.91059730e-09  6.18442214e-01  9.91059730e-09  5.63671380e-01  9.91059730e-09  1.86746278e+00  9.91059730e-09  1.80000000e+00  9.91059730e-09 -6.28054679e-03  9.91059730e-09  5.63671380e-01                                 
 1.20274234e-08  6.14217020e-01  1.20274234e-08  5.59685436e-01  1.20274234e-08  1.86384738e+00  1.20274234e-08  1.80000000e+00  1.20274234e-08  6.24711275e-03  1.20274234e-08  5.59685436e-01                                 
 1.35320312e-08  6.11547152e-01  1.35320312e-08  5.57149264e-01  1.35320312e-08  1.86112636e+00  1.35320312e-08  1.80000000e+00  1.35320312e-08 -6.13277587e-03  1.35320312e-08  5.57149264e-01                                 
 1.50848647e-08  6.09023653e-01  1.50848647e-08  5.54740977e-01  1.50848647e-08  1.85913796e+00  1.50848647e-08  1.80000000e+00  1.50848647e-08  6.07391630e-03  1.50848647e-08  5.54740977e-01                                 
 1.68271864e-08  6.06427916e-01  1.68271864e-08  5.52253126e-01  1.68271864e-08  1.85652240e+00  1.68271864e-08  1.80000000e+00  1.68271864e-08 -5.97602652e-03  1.68271864e-08  5.52253126e-01                                 
 1.88685498e-08  6.03652680e-01  1.88685498e-08  5.49582045e-01  1.88685498e-08  1.85434202e+00  1.88685498e-08  1.80000000e+00  1.88685498e-08  5.93721899e-03  1.88685498e-08  5.49582045e-01                                 
 2.11962732e-08  6.00780269e-01  2.11962732e-08  5.46805911e-01  2.11962732e-08  1.85152428e+00  2.11962732e-08  1.80000000e+00  2.11962732e-08 -5.85986936e-03  2.11962732e-08  5.46805911e-01                                 
 2.48729143e-08  5.96748281e-01  2.48729143e-08  5.42891001e-01  2.48729143e-08  1.84834838e+00  2.48729143e-08  1.80000000e+00  2.48729143e-08  5.84920542e-03  2.48729143e-08  5.42891001e-01                                 
 2.84491352e-08  5.93306439e-01  2.84491352e-08  5.39532996e-01  2.84491352e-08  1.84514304e+00  2.84491352e-08  1.80000000e+00  2.84491352e-08 -5.79090437e-03  2.84491352e-08  5.39532996e-01                                 
 3.56015772e-08  5.87433829e-01  3.56015772e-08  5.33774739e-01  3.56015772e-08  1.84029108e+00  3.56015772e-08  1.80000000e+00  3.56015772e-08  5.79759967e-03  3.56015772e-08  5.33774739e-01                                 
 4.60089698e-08  5.80556468e-01  4.60089698e-08  5.26994745e-01  4.60089698e-08  1.83128394e+00  4.60089698e-08  1.80000000e+00  4.60089698e-08 -5.76162825e-03  4.60089698e-08  5.26994745e-01                                 
 6.59488335e-08  5.69880335e-01  6.59488335e-08  5.16559902e-01  6.59488335e-08  1.80974673e+00  6.59488335e-08  1.80000000e+00  6.59488335e-08  5.77978375e-03  6.59488335e-08  5.16559902e-01                                 
 8.59513083e-08  5.59936031e-01  8.59513083e-08  5.07190192e-01  8.59513083e-08  1.78892261e+00  8.59513083e-08  1.80000000e+00  8.59513083e-08 -5.74916829e-03  8.59513083e-08  5.07190192e-01                                 
 1.03049826e-07  5.49807992e-01  1.03049826e-07  4.98145341e-01  1.03049826e-07  1.76625911e+00  1.03049826e-07  1.80000000e+00  1.03049826e-07  5.76594987e-03  1.03049826e-07  4.98145341e-01                                 
 1.22541691e-07  5.40900341e-01  1.22541691e-07  4.90112198e-01  1.22541691e-07  1.72941297e+00  1.22541691e-07  1.80000000e+00  1.22541691e-07 -5.73616629e-03  1.22541691e-07  4.90112198e-01                                 
 1.43817149e-07  5.32489734e-01  1.43817149e-07  4.82557310e-01  1.43817149e-07  1.69304827e+00  1.43817149e-07  1.80000000e+00  1.43817149e-07  5.75447559e-03  1.43817149e-07  4.82557310e-01                                 
 1.66315995e-07  5.31112512e-01  1.66315995e-07  4.80635857e-01  1.66315995e-07  1.67371687e+00  1.66315995e-07  1.80000000e+00  1.66315995e-07 -5.72326212e-03  1.66315995e-07  4.80635857e-01                                 
 1.96781328e-07  5.34514889e-01  1.96781328e-07  4.82314334e-01  1.96781328e-07  1.65971694e+00  1.96781328e-07  1.80000000e+00  1.96781328e-07  5.74606321e-03  1.96781328e-07  4.82314334e-01                                 
 2.16704361e-07  5.32876547e-01  2.16704361e-07  4.80421538e-01  2.16704361e-07  1.63767970e+00  2.16704361e-07  1.80000000e+00  2.16704361e-07 -5.71461992e-03  2.16704361e-07  4.80421538e-01                                 
 2.39584406e-07  5.28684810e-01  2.39584406e-07  4.76483073e-01  2.39584406e-07  1.61075054e+00  2.39584406e-07  1.80000000e+00  2.39584406e-07  5.73442459e-03  2.39584406e-07  4.76483073e-01                                 
 2.67836219e-07  5.21792749e-01  2.67836219e-07  4.70342930e-01  2.67836219e-07  1.57540387e+00  2.67836219e-07  1.80000000e+00  2.67836219e-07 -5.70542799e-03  2.67836219e-07  4.70342930e-01                                 
 2.98143044e-07  5.14055532e-01  2.98143044e-07  4.63571333e-01  2.98143044e-07  1.53794186e+00  2.98143044e-07  1.80000000e+00  2.98143044e-07  5.72621744e-03  2.98143044e-07  4.63571333e-01                                 
 3.55233521e-07  4.99669564e-01  3.55233521e-07  4.51168650e-01  3.55233521e-07  1.46513208e+00  3.55233521e-07  1.80000000e+00  3.55233521e-07 -5.69933146e-03  3.55233521e-07  4.51168650e-01                                 
 4.59344179e-07  4.77237625e-01  4.59344179e-07  4.32059829e-01  4.59344179e-07  1.33644320e+00  4.59344179e-07  1.80000000e+00  4.59344179e-07  5.72315904e-03  4.59344179e-07  4.32059829e-01                                 
 5.50787997e-07  4.39218132e-01  5.50787997e-07  4.01162790e-01  5.50787997e-07  1.20405415e+00  5.50787997e-07  1.80000000e+00  5.50787997e-07 -5.69774674e-03  5.50787997e-07  4.01162790e-01                                 
 6.44336601e-07  4.06081430e-01  6.44336601e-07  3.74473026e-01  6.44336601e-07  1.07584786e+00  6.44336601e-07  1.80000000e+00  6.44336601e-07  5.72092433e-03  6.44336601e-07  3.74473026e-01                                 
 7.44119743e-07  7.13579252e-01  7.44119743e-07  6.51763001e-01  7.44119743e-07  1.26619539e+00  7.44119743e-07  1.80000000e+00  7.44119743e-07 -5.68106710e-03  7.44119743e-07  6.51763001e-01                                 
 7.63899588e-07  7.36062814e-01  7.63899588e-07  6.73761865e-01  7.63899588e-07  1.26881916e+00  7.63899588e-07  1.80000000e+00  7.63899588e-07  2.34310667e-06  7.63899588e-07  6.73761865e-01                                 
 8.03459279e-07  7.59073146e-01  8.03459279e-07  6.94316884e-01  8.03459279e-07  1.24968996e+00  8.03459279e-07  1.80000000e+00  8.03459279e-07  2.41932293e-06  8.03459279e-07  6.94316884e-01                                 
 8.62173352e-07  7.63535712e-01  8.62173352e-07  6.98112372e-01  8.62173352e-07  1.19229871e+00  8.62173352e-07  1.80000000e+00  8.62173352e-07 -1.28045968e-07  8.62173352e-07  6.98112372e-01                                 
 9.31970598e-07  7.64822812e-01  9.31970598e-07  6.99206034e-01  9.31970598e-07  1.12080095e+00  9.31970598e-07  1.80000000e+00  9.31970598e-07  2.16732992e-06  9.31970598e-07  6.99206034e-01                                 
 1.00079154e-06  7.62048021e-01  1.00079154e-06  6.96858876e-01  1.00079154e-06  1.04793779e+00  1.00079154e-06  1.80000000e+00  1.00079154e-06 -3.61839718e-07  1.00079154e-06  6.96858876e-01                                 
 1.01374112e-06  7.58671072e-01  1.01374112e-06  6.93985866e-01  1.01374112e-06  1.03232179e+00  1.01374112e-06  1.80000000e+00  1.01374112e-06  4.27215073e-07  1.01374112e-06  6.93985866e-01                                 
 1.03964028e-06  7.51537652e-01  1.03964028e-06  6.87786542e-01  1.03964028e-06  1.00142190e+00  1.03964028e-06  1.80000000e+00  1.03964028e-06  3.86346405e-07  1.03964028e-06  6.87786542e-01                                 
 1.09143860e-06  7.48551687e-01  1.09143860e-06  6.85122736e-01  1.09143860e-06  9.55343140e-01  1.09143860e-06  1.80000000e+00  1.09143860e-06  1.57726054e-06  1.09143860e-06  6.85122736e-01                                 
 1.17523556e-06  7.57366297e-01  1.17523556e-06  6.92846469e-01  1.17523556e-06  9.03709910e-01  1.17523556e-06  1.80000000e+00  1.17523556e-06  1.30593980e-06  1.17523556e-06  6.92846469e-01                                 
 1.28087611e-06  7.52633330e-01  1.28087611e-06  6.88739077e-01  1.28087611e-06  8.33704380e-01  1.28087611e-06  1.80000000e+00  1.28087611e-06  1.00240074e-06  1.28087611e-06  6.88739077e-01                                 
 1.39277965e-06  7.52191172e-01  1.39277965e-06  6.88337760e-01  1.39277965e-06  7.70410926e-01  1.39277965e-06  1.80000000e+00  1.39277965e-06  1.59038984e-06  1.39277965e-06  6.88337760e-01                                 
 1.56337802e-06  7.55812631e-01  1.56337802e-06  6.91508122e-01  1.56337802e-06  7.10076239e-01  1.56337802e-06  1.80000000e+00  1.56337802e-06  1.31740324e-06  1.56337802e-06  6.91508122e-01                                 
 1.77156941e-06  7.51367330e-01  1.77156941e-06  6.87618681e-01  1.77156941e-06  6.77426140e-01  1.77156941e-06  1.80000000e+00  1.77156941e-06  1.59865945e-06  1.77156941e-06  6.87618681e-01                                 
 1.97383079e-06  7.55362032e-01  1.97383079e-06  6.91112621e-01  1.97383079e-06  6.86913863e-01  1.97383079e-06  1.80000000e+00  1.97383079e-06  1.62519930e-06  1.97383079e-06  6.91112621e-01                                 
 2.18992731e-06  7.52567015e-01  2.18992731e-06  6.88675745e-01  2.18992731e-06  6.92479867e-01  2.18992731e-06  1.80000000e+00  2.18992731e-06  1.45775872e-06  2.18992731e-06  6.88675745e-01                                 
 2.40713246e-06  7.53938145e-01  2.40713246e-06  6.89870728e-01  2.40713246e-06  6.87455384e-01  2.40713246e-06  1.80000000e+00  2.40713246e-06  1.66155604e-06  2.40713246e-06  6.89870728e-01                                 
 2.64833292e-06  7.54003331e-01  2.64833292e-06  6.89932376e-01  2.64833292e-06  6.91217017e-01  2.64833292e-06  1.80000000e+00  2.64833292e-06  1.46538698e-06  2.64833292e-06  6.89932376e-01                                 
 2.89559499e-06  7.52813710e-01  2.89559499e-06  6.88888214e-01  2.89559499e-06  6.88715800e-01  2.89559499e-06  1.80000000e+00  2.89559499e-06  1.62103409e-06  2.89559499e-06  6.88888214e-01                                 
 2.93915170e-06  7.53857038e-01  2.93915170e-06  6.89801048e-01  2.93915170e-06  6.89457153e-01  2.93915170e-06  1.80000000e+00  2.93915170e-06  1.60929501e-06  2.93915170e-06  6.89801048e-01                                 
 3.02626511e-06  7.54022146e-01  3.02626511e-06  6.89947498e-01  3.02626511e-06  6.90027850e-01  3.02626511e-06  1.80000000e+00  3.02626511e-06  1.51688571e-06  3.02626511e-06  6.89947498e-01                                 
 3.20049195e-06  7.53162239e-01  3.20049195e-06  6.89194629e-01  3.20049195e-06  6.89414268e-01  3.20049195e-06  1.80000000e+00  3.20049195e-06  1.57477977e-06  3.20049195e-06  6.89194629e-01                                 
 3.47597995e-06  7.54128490e-01  3.47597995e-06  6.90039366e-01  3.47597995e-06  6.90093158e-01  3.47597995e-06  1.80000000e+00  3.47597995e-06  1.55369204e-06  3.47597995e-06  6.90039366e-01                                 
 4.02695594e-06  7.53193576e-01  4.02695594e-06  6.89222649e-01  4.02695594e-06  6.89431871e-01  4.02695594e-06  1.80000000e+00  4.02695594e-06  1.55222156e-06  4.02695594e-06  6.89222649e-01                                 
 4.90643598e-06  7.54083034e-01  4.90643598e-06  6.89999428e-01  4.90643598e-06  6.90061976e-01  4.90643598e-06  1.80000000e+00  4.90643598e-06  1.56541530e-06  4.90643598e-06  6.89999428e-01                                 
 5.90643598e-06  7.53237713e-01  5.90643598e-06  6.89261428e-01  5.90643598e-06  6.89464205e-01  5.90643598e-06  1.80000000e+00  5.90643598e-06  1.54419061e-06  5.90643598e-06  6.89261428e-01                                 
 6.90643598e-06  7.54035918e-01  6.90643598e-06  6.89958133e-01  6.90643598e-06  6.90026270e-01  6.90643598e-06  1.80000000e+00  6.90643598e-06  1.57251835e-06  6.90643598e-06  6.89958133e-01                                 
 7.90643598e-06  7.53291088e-01  7.90643598e-06  6.89308271e-01  7.90643598e-06  6.89505796e-01  7.90643598e-06  1.80000000e+00  7.90643598e-06  1.53752918e-06  7.90643598e-06  6.89308271e-01                                 
 8.90643598e-06  7.53978814e-01  8.90643598e-06  6.89908154e-01  8.90643598e-06  6.89981042e-01  8.90643598e-06  1.80000000e+00  8.90643598e-06  1.57869403e-06  8.90643598e-06  6.89908154e-01                                 
 9.90643598e-06  7.53374560e-01  9.90643598e-06  6.89383714e-01  9.90643598e-06  6.89574840e-01  9.90643598e-06  1.80000000e+00  9.90643598e-06  1.53197540e-06  9.90643598e-06  6.89383714e-01                                 
 1.00005000e-05  7.53613915e-01  1.00005000e-05  6.89589260e-01  1.00005000e-05  6.89687108e-01  1.00005000e-05  1.80000000e+00  1.00005000e-05  1.59178968e-06  1.00005000e-05  6.89589260e-01                                 
 1.00005500e-05  7.53614635e-01  1.00005500e-05  6.89589893e-01  1.00005500e-05  6.82701717e-01  1.00005500e-05  1.62000000e+00  1.00005500e-05 -1.21522264e-04  1.00005500e-05  6.89589893e-01                                 
 1.00006500e-05  7.53616097e-01  1.00006500e-05  6.89591167e-01  1.00006500e-05  6.71782654e-01  1.00006500e-05  1.26000000e+00  1.00006500e-05 -8.15270464e-05  1.00006500e-05  6.89591167e-01                                 
 1.00008500e-05  7.53619025e-01  1.00008500e-05  6.89593718e-01  1.00008500e-05  6.65546183e-01  1.00008500e-05  5.40000000e-01  1.00008500e-05 -3.84239969e-03  1.00008500e-05  6.89593718e-01                                 
 1.00010000e-05  7.53621221e-01  1.00010000e-05  6.89595634e-01  1.00010000e-05  7.05269469e-01  1.00010000e-05  0.00000000e+00  1.00010000e-05  1.51880147e+00  1.00010000e-05  6.89595634e-01                                 
 1.00010255e-05  7.53621593e-01  1.00010255e-05  6.89595959e-01  1.00010255e-05  7.23674041e-01  1.00010255e-05  0.00000000e+00  1.00010255e-05  1.69430819e+00  1.00010255e-05  6.89595959e-01                                 
 1.00010765e-05  7.53622310e-01  1.00010765e-05  6.89596594e-01  1.00010765e-05  7.59085821e-01  1.00010765e-05  0.00000000e+00  1.00010765e-05  1.82340647e+00  1.00010765e-05  6.89596594e-01                                 
 1.00011784e-05  7.53623700e-01  1.00011784e-05  6.89597826e-01  1.00011784e-05  8.00736249e-01  1.00011784e-05  0.00000000e+00  1.00011784e-05  1.78748602e+00  1.00011784e-05  6.89597826e-01                                 
 1.00012943e-05  7.53625295e-01  1.00012943e-05  6.89599216e-01  1.00012943e-05  8.16484119e-01  1.00012943e-05  0.00000000e+00  1.00012943e-05  1.80689477e+00  1.00012943e-05  6.89599216e-01                                 
