 time            v(vbep)         time            v(vben)         time            v(vout)         time            v(vphi1)        time            v(vphi2)        time            v(vref)         yes             currtemp       
 0.00000000e+00  7.24635009e-01  0.00000000e+00  6.73210378e-01  0.00000000e+00  1.09278724e+00  0.00000000e+00  0.00000000e+00  0.00000000e+00  1.79995177e+00  0.00000000e+00  6.73210378e-01  1.00000000e+00  8.00000000e+00 
 5.00000000e-12  7.24606413e-01  5.00000000e-12  6.73186693e-01  5.00000000e-12  1.09352540e+00  5.00000000e-12  1.80000000e-02  5.00000000e-12  1.80007397e+00  5.00000000e-12  6.73186693e-01                                 
 1.00000000e-11  7.24578639e-01  1.00000000e-11  6.73163642e-01  1.00000000e-11  1.09420326e+00  1.00000000e-11  3.60000000e-02  1.00000000e-11  1.80014681e+00  1.00000000e-11  6.73163642e-01                                 
 2.00000000e-11  7.24523605e-01  2.00000000e-11  6.73117727e-01  2.00000000e-11  1.09546491e+00  2.00000000e-11  7.20000000e-02  2.00000000e-11  1.80022933e+00  2.00000000e-11  6.73117727e-01                                 
 4.00000000e-11  7.24414417e-01  4.00000000e-11  6.73026275e-01  4.00000000e-11  1.09755263e+00  4.00000000e-11  1.44000000e-01  4.00000000e-11  1.80022655e+00  4.00000000e-11  6.73026275e-01                                 
 8.00000000e-11  7.24197178e-01  8.00000000e-11  6.72844248e-01  8.00000000e-11  1.10047619e+00  8.00000000e-11  2.88000000e-01  8.00000000e-11  1.80014049e+00  8.00000000e-11  6.72844248e-01                                 
 1.60000000e-10  7.23767657e-01  1.60000000e-10  6.72483699e-01  1.60000000e-10  1.10312273e+00  1.60000000e-10  5.76000000e-01  1.60000000e-10  1.80003237e+00  1.60000000e-10  6.72483699e-01                                 
 3.20000000e-10  7.22927240e-01  3.20000000e-10  6.71776108e-01  3.20000000e-10  1.09401772e+00  3.20000000e-10  1.15200000e+00  3.20000000e-10  1.80028654e+00  3.20000000e-10  6.71776108e-01                                 
 5.00000000e-10  7.22010390e-01  5.00000000e-10  6.71000803e-01  5.00000000e-10  1.17892708e+00  5.00000000e-10  1.80000000e+00  5.00000000e-10  1.34494162e-01  5.00000000e-10  6.71000803e-01                                 
 5.20794393e-10  7.21906562e-01  5.20794393e-10  6.70912768e-01  5.20794393e-10  1.20133740e+00  5.20794393e-10  1.80000000e+00  5.20794393e-10  3.18357307e-02  5.20794393e-10  6.70912768e-01                                 
 5.62383179e-10  7.21699644e-01  5.62383179e-10  6.70737226e-01  5.62383179e-10  1.24599804e+00  5.62383179e-10  1.80000000e+00  5.62383179e-10 -1.25293510e-02  5.62383179e-10  6.70737226e-01                                 
 6.45560750e-10  7.21290265e-01  6.45560750e-10  6.70389413e-01  6.45560750e-10  1.32668156e+00  6.45560750e-10  1.80000000e+00  6.45560750e-10  1.07628062e-02  6.45560750e-10  6.70389413e-01                                 
 7.65550528e-10  7.20709912e-01  7.65550528e-10  6.69895182e-01  7.65550528e-10  1.42947593e+00  7.65550528e-10  1.80000000e+00  7.65550528e-10 -8.41874667e-03  7.65550528e-10  6.69895182e-01                                 
 9.45215787e-10  7.19862512e-01  9.45215787e-10  6.69171123e-01  9.45215787e-10  1.55581417e+00  9.45215787e-10  1.80000000e+00  9.45215787e-10  8.32267214e-03  9.45215787e-10  6.69171123e-01                                 
 1.30454631e-09  7.18239767e-01  1.30454631e-09  6.67776798e-01  1.30454631e-09  1.71871270e+00  1.30454631e-09  1.80000000e+00  1.30454631e-09 -7.37899731e-03  1.30454631e-09  6.67776798e-01                                 
 1.67356982e-09  7.16665678e-01  1.67356982e-09  6.66414480e-01  1.67356982e-09  1.79836009e+00  1.67356982e-09  1.80000000e+00  1.67356982e-09  7.30051884e-03  1.67356982e-09  6.66414480e-01                                 
 2.07445958e-09  7.15050803e-01  2.07445958e-09  6.65007091e-01  2.07445958e-09  1.83199398e+00  2.07445958e-09  1.80000000e+00  2.07445958e-09 -6.83340556e-03  2.07445958e-09  6.65007091e-01                                 
 2.44848298e-09  7.13624853e-01  2.44848298e-09  6.63756277e-01  2.44848298e-09  1.84290249e+00  2.44848298e-09  1.80000000e+00  2.44848298e-09  6.57400078e-03  2.44848298e-09  6.63756277e-01                                 
 2.98331274e-09  7.11705529e-01  2.98331274e-09  6.62061259e-01  2.98331274e-09  1.84635425e+00  2.98331274e-09  1.80000000e+00  2.98331274e-09 -6.30734866e-03  2.98331274e-09  6.62061259e-01                                 
 3.67831058e-09  7.09396396e-01  3.67831058e-09  6.60005123e-01  3.67831058e-09  1.84575159e+00  3.67831058e-09  1.80000000e+00  3.67831058e-09  6.17198394e-03  3.67831058e-09  6.60005123e-01                                 
 4.85508514e-09  7.05880275e-01  4.85508514e-09  6.56841183e-01  4.85508514e-09  1.84225603e+00  4.85508514e-09  1.80000000e+00  4.85508514e-09 -6.04991017e-03  4.85508514e-09  6.56841183e-01                                 
 6.74293239e-09  7.01043037e-01  6.74293239e-09  6.52427591e-01  6.74293239e-09  1.83792905e+00  6.74293239e-09  1.80000000e+00  6.74293239e-09  6.01448586e-03  6.74293239e-09  6.52427591e-01                                 
 1.05186269e-08  6.93356647e-01  1.05186269e-08  6.45288614e-01  1.05186269e-08  1.83057030e+00  1.05186269e-08  1.80000000e+00  1.05186269e-08 -5.96030493e-03  1.05186269e-08  6.45288614e-01                                 
 1.70619238e-08  6.83743528e-01  1.70619238e-08  6.36169416e-01  1.70619238e-08  1.82144603e+00  1.70619238e-08  1.80000000e+00  1.70619238e-08  5.96958696e-03  1.70619238e-08  6.36169416e-01                                 
 1.82586625e-08  6.82349351e-01  1.82586625e-08  6.34828325e-01  1.82586625e-08  1.81970180e+00  1.82586625e-08  1.80000000e+00  1.82586625e-08 -5.85570174e-03  1.82586625e-08  6.34828325e-01                                 
 1.95224980e-08  6.80954793e-01  1.95224980e-08  6.33483657e-01  1.95224980e-08  1.81837949e+00  1.95224980e-08  1.80000000e+00  1.95224980e-08  5.79177868e-03  1.95224980e-08  6.33483657e-01                                 
 2.11679150e-08  6.79245108e-01  2.11679150e-08  6.31831037e-01  2.11679150e-08  1.81604249e+00  2.11679150e-08  1.80000000e+00  2.11679150e-08 -5.70610684e-03  2.11679150e-08  6.31831037e-01                                 
 2.44587491e-08  6.76125475e-01  2.44587491e-08  6.28805348e-01  2.44587491e-08  1.81189764e+00  2.44587491e-08  1.80000000e+00  2.44587491e-08  5.69490507e-03  2.44587491e-08  6.28805348e-01                                 
 3.10404173e-08  6.70769926e-01  3.10404173e-08  6.23590428e-01  3.10404173e-08  1.80227798e+00  3.10404173e-08  1.80000000e+00  3.10404173e-08 -5.65819544e-03  3.10404173e-08  6.23590428e-01                                 
 4.24915310e-08  6.62992231e-01  4.24915310e-08  6.16049952e-01  4.24915310e-08  1.78825281e+00  4.24915310e-08  1.80000000e+00  4.24915310e-08  5.67041005e-03  4.24915310e-08  6.16049952e-01                                 
 5.50222038e-08  6.55712196e-01  5.50222038e-08  6.09085789e-01  5.50222038e-08  1.77628987e+00  5.50222038e-08  1.80000000e+00  5.50222038e-08 -5.64021430e-03  5.50222038e-08  6.09085789e-01                                 
 6.63542302e-08  6.50281655e-01  6.63542302e-08  6.03888028e-01  6.63542302e-08  1.76867457e+00  6.63542302e-08  1.80000000e+00  6.63542302e-08  5.65344330e-03  6.63542302e-08  6.03888028e-01                                 
 7.91251911e-08  6.42882221e-01  7.91251911e-08  5.97172453e-01  7.91251911e-08  1.74460535e+00  7.91251911e-08  1.80000000e+00  7.91251911e-08 -5.62456394e-03  7.91251911e-08  5.97172453e-01                                 
 9.32139980e-08  6.36046794e-01  9.32139980e-08  5.90955061e-01  9.32139980e-08  1.71856840e+00  9.32139980e-08  1.80000000e+00  9.32139980e-08  5.63837583e-03  9.32139980e-08  5.90955061e-01                                 
 1.07727467e-07  6.29861549e-01  1.07727467e-07  5.85346959e-01  1.07727467e-07  1.69456481e+00  1.07727467e-07  1.80000000e+00  1.07727467e-07 -5.60989776e-03  1.07727467e-07  5.85346959e-01                                 
 1.30219486e-07  6.21768071e-01  1.30219486e-07  5.78011063e-01  1.30219486e-07  1.65566263e+00  1.30219486e-07  1.80000000e+00  1.30219486e-07  5.62681130e-03  1.30219486e-07  5.78011063e-01                                 
 1.53912124e-07  6.22036408e-01  1.53912124e-07  5.77383278e-01  1.53912124e-07  1.64377949e+00  1.53912124e-07  1.80000000e+00  1.53912124e-07 -5.59892127e-03  1.53912124e-07  5.77383278e-01                                 
 1.81401317e-07  6.25574577e-01  1.81401317e-07  5.79311388e-01  1.81401317e-07  1.63063040e+00  1.81401317e-07  1.80000000e+00  1.81401317e-07  5.61900845e-03  1.81401317e-07  5.79311388e-01                                 
 2.00143071e-07  6.21656564e-01  2.00143071e-07  5.75676183e-01  2.00143071e-07  1.60837303e+00  2.00143071e-07  1.80000000e+00  2.00143071e-07 -5.59129324e-03  2.00143071e-07  5.75676183e-01                                 
 2.21457578e-07  6.15251092e-01  2.21457578e-07  5.70059362e-01  2.21457578e-07  1.58164666e+00  2.21457578e-07  1.80000000e+00  2.21457578e-07  5.60850638e-03  2.21457578e-07  5.70059362e-01                                 
 2.50388389e-07  6.08392545e-01  2.50388389e-07  5.63977765e-01  2.50388389e-07  1.54664140e+00  2.50388389e-07  1.80000000e+00  2.50388389e-07 -5.58285823e-03  2.50388389e-07  5.63977765e-01                                 
 2.87798086e-07  5.98693933e-01  2.87798086e-07  5.55584001e-01  2.87798086e-07  1.50042944e+00  2.87798086e-07  1.80000000e+00  2.87798086e-07  5.60220798e-03  2.87798086e-07  5.55584001e-01                                 
 3.52760311e-07  5.85151085e-01  3.52760311e-07  5.43880509e-01  3.52760311e-07  1.42244723e+00  3.52760311e-07  1.80000000e+00  3.52760311e-07 -5.57845711e-03  3.52760311e-07  5.43880509e-01                                 
 4.23299176e-07  5.61149946e-01  4.23299176e-07  5.24117790e-01  4.23299176e-07  1.32865773e+00  4.23299176e-07  1.80000000e+00  4.23299176e-07  5.59885133e-03  4.23299176e-07  5.24117790e-01                                 
 4.94358177e-07  5.40670341e-01  4.94358177e-07  5.07407087e-01  4.94358177e-07  1.23672782e+00  4.94358177e-07  1.80000000e+00  4.94358177e-07 -5.57546746e-03  4.94358177e-07  5.07407087e-01                                 
 5.71155959e-07  5.09123724e-01  5.71155959e-07  4.82040028e-01  5.71155959e-07  1.12748569e+00  5.71155959e-07  1.80000000e+00  5.71155959e-07  5.59580439e-03  5.71155959e-07  4.82040028e-01                                 
 6.72787619e-07  7.40649570e-01  6.72787619e-07  6.87196840e-01  6.72787619e-07  1.24551869e+00  6.72787619e-07  1.80000000e+00  6.72787619e-07 -5.56390355e-03  6.72787619e-07  6.87196840e-01                                 
 6.84982263e-07  7.64579575e-01  6.84982263e-07  7.11487781e-01  6.84982263e-07  1.25704368e+00  6.84982263e-07  1.80000000e+00  6.84982263e-07  1.72560010e-06  6.84982263e-07  7.11487781e-01                                 
 7.09371550e-07  7.92910476e-01  7.09371550e-07  7.39224474e-01  7.09371550e-07  1.25967685e+00  7.09371550e-07  1.80000000e+00  7.09371550e-07  2.47064821e-06  7.09371550e-07  7.39224474e-01                                 
 7.58150124e-07  8.19265914e-01  7.58150124e-07  7.63201677e-01  7.58150124e-07  1.23455675e+00  7.58150124e-07  1.80000000e+00  7.58150124e-07 -9.88924869e-07  7.58150124e-07  7.63201677e-01                                 
 8.08161475e-07  8.30153080e-01  8.08161475e-07  7.72529409e-01  8.08161475e-07  1.19414474e+00  8.08161475e-07  1.80000000e+00  8.08161475e-07  1.13048775e-06  8.08161475e-07  7.72529409e-01                                 
 8.16554695e-07  8.31930192e-01  8.16554695e-07  7.73996113e-01  8.16554695e-07  1.18696614e+00  8.16554695e-07  1.80000000e+00  8.16554695e-07  2.56400329e-08  8.16554695e-07  7.73996113e-01                                 
 8.33341135e-07  8.36024818e-01  8.33341135e-07  7.77352558e-01  8.33341135e-07  1.17347809e+00  8.33341135e-07  1.80000000e+00  8.33341135e-07  1.84791658e-07  8.33341135e-07  7.77352558e-01                                 
 8.66914013e-07  8.45708268e-01  8.66914013e-07  7.85059009e-01  8.66914013e-07  1.14797456e+00  8.66914013e-07  1.80000000e+00  8.66914013e-07  1.95896483e-07  8.66914013e-07  7.85059009e-01                                 
 8.71884382e-07  8.45757052e-01  8.71884382e-07  7.85119037e-01  8.71884382e-07  1.14301483e+00  8.71884382e-07  1.80000000e+00  8.71884382e-07 -3.32678903e-07  8.71884382e-07  7.85119037e-01                                 
 8.81825120e-07  8.40269705e-01  8.81825120e-07  7.80882506e-01  8.81825120e-07  1.12814739e+00  8.81825120e-07  1.80000000e+00  8.81825120e-07 -2.47734139e-06  8.81825120e-07  7.80882506e-01                                 
 8.99044214e-07  8.20258714e-01  8.99044214e-07  7.64164225e-01  8.99044214e-07  1.09120449e+00  8.99044214e-07  1.80000000e+00  8.99044214e-07 -2.94654659e-06  8.99044214e-07  7.64164225e-01                                 
 9.17751915e-07  8.05806497e-01  9.17751915e-07  7.51232952e-01  9.17751915e-07  1.05662247e+00  9.17751915e-07  1.80000000e+00  9.17751915e-07 -1.05050383e-06  9.17751915e-07  7.51232952e-01                                 
 9.38526376e-07  8.02599867e-01  9.38526376e-07  7.48275007e-01  9.38526376e-07  1.03122124e+00  9.38526376e-07  1.80000000e+00  9.38526376e-07 -3.49409410e-07  9.38526376e-07  7.48275007e-01                                 
 9.80075299e-07  8.09833255e-01  9.80075299e-07  7.54845708e-01  9.80075299e-07  9.95304562e-01  9.80075299e-07  1.80000000e+00  9.80075299e-07  3.62814546e-07  9.80075299e-07  7.54845708e-01                                 
 1.02016850e-06  8.18154729e-01  1.02016850e-06  7.62254794e-01  1.02016850e-06  9.64884266e-01  1.02016850e-06  1.80000000e+00  1.02016850e-06 -1.32519131e-07  1.02016850e-06  7.62254794e-01                                 
 1.10035491e-06  8.12846933e-01  1.10035491e-06  7.57581523e-01  1.10035491e-06  8.97073328e-01  1.10035491e-06  1.80000000e+00  1.10035491e-06 -5.62690363e-07  1.10035491e-06  7.57581523e-01                                 
 1.17998440e-06  8.08026741e-01  1.17998440e-06  7.53223811e-01  1.17998440e-06  8.39603555e-01  1.17998440e-06  1.80000000e+00  1.17998440e-06  3.14999822e-08  1.17998440e-06  7.53223811e-01                                 
 1.28324848e-06  8.17356829e-01  1.28324848e-06  7.61558010e-01  1.28324848e-06  7.99437869e-01  1.28324848e-06  1.80000000e+00  1.28324848e-06  2.10176120e-07  1.28324848e-06  7.61558010e-01                                 
 1.41009798e-06  8.09985897e-01  1.41009798e-06  7.55012078e-01  1.41009798e-06  7.62809432e-01  1.41009798e-06  1.80000000e+00  1.41009798e-06 -3.66623283e-07  1.41009798e-06  7.55012078e-01                                 
 1.54313558e-06  8.12641035e-01  1.54313558e-06  7.57371548e-01  1.54313558e-06  7.51925676e-01  1.54313558e-06  1.80000000e+00  1.54313558e-06  6.00612784e-07  1.54313558e-06  7.57371548e-01                                 
 1.69674564e-06  8.14721134e-01  1.69674564e-06  7.59244077e-01  1.69674564e-06  7.48191625e-01  1.69674564e-06  1.80000000e+00  1.69674564e-06 -3.48798734e-07  1.69674564e-06  7.59244077e-01                                 
 1.72332415e-06  8.12418478e-01  1.72332415e-06  7.57189639e-01  1.72332415e-06  7.47352709e-01  1.72332415e-06  1.80000000e+00  1.72332415e-06 -3.83235904e-08  1.72332415e-06  7.57189639e-01                                 
 1.77648117e-06  8.11253735e-01  1.77648117e-06  7.56139050e-01  1.77648117e-06  7.51763695e-01  1.77648117e-06  1.80000000e+00  1.77648117e-06  2.45153164e-07  1.77648117e-06  7.56139050e-01                                 
 1.88279522e-06  8.14049538e-01  1.88279522e-06  7.58637631e-01  1.88279522e-06  7.60251594e-01  1.88279522e-06  1.80000000e+00  1.88279522e-06  1.09118879e-07  1.88279522e-06  7.58637631e-01                                 
 1.98828934e-06  8.12214805e-01  1.98828934e-06  7.57004939e-01  1.98828934e-06  7.56843036e-01  1.98828934e-06  1.80000000e+00  1.98828934e-06  3.47120892e-08  1.98828934e-06  7.57004939e-01                                 
 2.14321952e-06  8.12628667e-01  2.14321952e-06  7.57369557e-01  2.14321952e-06  7.57349588e-01  2.14321952e-06  1.80000000e+00  2.14321952e-06  1.97695782e-07  2.14321952e-06  7.57369557e-01                                 
 2.30453889e-06  8.13339805e-01  2.30453889e-06  7.58008825e-01  2.30453889e-06  7.58218641e-01  2.30453889e-06  1.80000000e+00  2.30453889e-06  4.10993549e-08  2.30453889e-06  7.58008825e-01                                 
 2.62717765e-06  8.11987410e-01  2.62717765e-06  7.56797223e-01  2.62717765e-06  7.56750097e-01  2.62717765e-06  1.80000000e+00  2.62717765e-06  1.63622944e-07  2.62717765e-06  7.56797223e-01                                 
 3.13232760e-06  8.13558330e-01  3.13232760e-06  7.58202557e-01  3.13232760e-06  7.58382200e-01  3.13232760e-06  1.80000000e+00  3.13232760e-06  6.97643548e-08  3.13232760e-06  7.58202557e-01                                 
 3.90679371e-06  8.11896702e-01  3.90679371e-06  7.56716760e-01  3.90679371e-06  7.56692434e-01  3.90679371e-06  1.80000000e+00  3.90679371e-06  1.43096134e-07  3.90679371e-06  7.56716760e-01                                 
 4.90679371e-06  8.13597331e-01  4.90679371e-06  7.58236946e-01  4.90679371e-06  7.58400527e-01  4.90679371e-06  1.80000000e+00  4.90679371e-06  8.47445001e-08  4.90679371e-06  7.58236946e-01                                 
 5.90679371e-06  8.11876410e-01  5.90679371e-06  7.56698941e-01  5.90679371e-06  7.56688295e-01  5.90679371e-06  1.80000000e+00  5.90679371e-06  1.29794669e-07  5.90679371e-06  7.56698941e-01                                 
 6.90679371e-06  8.13602151e-01  6.90679371e-06  7.58240803e-01  6.90679371e-06  7.58391132e-01  6.90679371e-06  1.80000000e+00  6.90679371e-06  9.81235093e-08  6.90679371e-06  7.58240803e-01                                 
 7.90679371e-06  8.11883544e-01  7.90679371e-06  7.56705733e-01  7.90679371e-06  7.56707826e-01  7.90679371e-06  1.80000000e+00  7.90679371e-06  1.16443502e-07  7.90679371e-06  7.56705733e-01                                 
 8.90679371e-06  8.13581879e-01  8.90679371e-06  7.58222367e-01  8.90679371e-06  7.58360513e-01  8.90679371e-06  1.80000000e+00  8.90679371e-06  1.11351271e-07  8.90679371e-06  7.58222367e-01                                 
 9.90679371e-06  8.11915707e-01  9.90679371e-06  7.56734914e-01  9.90679371e-06  7.56748637e-01  9.90679371e-06  1.80000000e+00  9.90679371e-06  1.03434745e-07  9.90679371e-06  7.56734914e-01                                 
 1.00005000e-05  8.13138515e-01  1.00005000e-05  7.57825673e-01  1.00005000e-05  7.57909150e-01  1.00005000e-05  1.80000000e+00  1.00005000e-05  1.67920564e-07  1.00005000e-05  7.57825673e-01                                 
 1.00005500e-05  8.13139780e-01  1.00005500e-05  7.57826825e-01  1.00005500e-05  7.50988595e-01  1.00005500e-05  1.62000000e+00  1.00005500e-05 -1.06311338e-04  1.00005500e-05  7.57826825e-01                                 
 1.00006500e-05  8.13142393e-01  1.00006500e-05  7.57829155e-01  1.00006500e-05  7.41425130e-01  1.00006500e-05  1.26000000e+00  1.00006500e-05 -5.08676740e-05  1.00006500e-05  7.57829155e-01                                 
 1.00008500e-05  8.13147606e-01  1.00008500e-05  7.57833800e-01  1.00008500e-05  7.41121414e-01  1.00008500e-05  5.40000000e-01  1.00008500e-05 -9.58861140e-04  1.00008500e-05  7.57833800e-01                                 
 1.00010000e-05  8.13151416e-01  1.00010000e-05  7.57837219e-01  1.00010000e-05  7.60047865e-01  1.00010000e-05  0.00000000e+00  1.00010000e-05  1.49060410e+00  1.00010000e-05  7.57837219e-01                                 
