 time            v(vbep)         time            v(vben)         time            v(vout)         time            v(vphi1)        time            v(vphi2)        time            v(vref)         yes             currtemp       
 0.00000000e+00  6.62558200e-01  0.00000000e+00  6.05312127e-01  0.00000000e+00  9.67562034e-01  0.00000000e+00  0.00000000e+00  0.00000000e+00  1.79995760e+00  0.00000000e+00  5.00000000e-01  1.00000000e+00  4.00000000e+01 
 5.00000000e-12  6.62530410e-01  5.00000000e-12  6.05289095e-01  5.00000000e-12  9.68309641e-01  5.00000000e-12  1.80000000e-02  5.00000000e-12  1.80006035e+00  5.00000000e-12  5.00000000e-01                                 
 1.00000000e-11  6.62503312e-01  1.00000000e-11  6.05266650e-01  1.00000000e-11  9.68985609e-01  1.00000000e-11  3.60000000e-02  1.00000000e-11  1.80011356e+00  1.00000000e-11  5.00000000e-01                                 
 2.00000000e-11  6.62449532e-01  2.00000000e-11  6.05221930e-01  2.00000000e-11  9.70224458e-01  2.00000000e-11  7.20000000e-02  2.00000000e-11  1.80016360e+00  2.00000000e-11  5.00000000e-01                                 
 4.00000000e-11  6.62342688e-01  4.00000000e-11  6.05132826e-01  4.00000000e-11  9.72181394e-01  4.00000000e-11  1.44000000e-01  4.00000000e-11  1.80013719e+00  4.00000000e-11  5.00000000e-01                                 
 8.00000000e-11  6.62130006e-01  8.00000000e-11  6.04955382e-01  8.00000000e-11  9.74720547e-01  8.00000000e-11  2.88000000e-01  8.00000000e-11  1.80007290e+00  8.00000000e-11  5.00000000e-01                                 
 1.60000000e-10  6.61708969e-01  1.60000000e-10  6.04603527e-01  1.60000000e-10  9.77000624e-01  1.60000000e-10  5.76000000e-01  1.60000000e-10  1.80001462e+00  1.60000000e-10  5.00000000e-01                                 
 3.20000000e-10  6.60883214e-01  3.20000000e-10  6.03911517e-01  3.20000000e-10  9.70246641e-01  3.20000000e-10  1.15200000e+00  3.20000000e-10  1.80038482e+00  3.20000000e-10  5.00000000e-01                                 
 5.00000000e-10  6.59979401e-01  5.00000000e-10  6.03151039e-01  5.00000000e-10  1.13284313e+00  5.00000000e-10  1.80000000e+00  5.00000000e-10  1.17873056e-01  5.00000000e-10  5.00000000e-01                                 
 5.21573375e-10  6.59873001e-01  5.21573375e-10  6.03061288e-01  5.21573375e-10  1.17122794e+00  5.21573375e-10  1.80000000e+00  5.21573375e-10  2.32772818e-02  5.21573375e-10  5.00000000e-01                                 
 5.64720125e-10  6.59660902e-01  5.64720125e-10  6.02882281e-01  5.64720125e-10  1.24237242e+00  5.64720125e-10  1.80000000e+00  5.64720125e-10 -1.08661908e-02  5.64720125e-10  5.00000000e-01                                 
 6.51013625e-10  6.59240948e-01  6.51013625e-10  6.02527347e-01  6.51013625e-10  1.36256728e+00  6.51013625e-10  1.80000000e+00  6.51013625e-10  9.04096115e-03  6.51013625e-10  5.00000000e-01                                 
 7.73212445e-10  6.58655718e-01  7.73212445e-10  6.02031615e-01  7.73212445e-10  1.50314284e+00  7.73212445e-10  1.80000000e+00  7.73212445e-10 -7.85726327e-03  7.73212445e-10  5.00000000e-01                                 
 9.65284051e-10  6.57757364e-01  9.65284051e-10  6.01268155e-01  9.65284051e-10  1.67112119e+00  9.65284051e-10  1.80000000e+00  9.65284051e-10  7.37229245e-03  9.65284051e-10  5.00000000e-01                                 
 1.34942726e-09  6.56034098e-01  1.34942726e-09  5.99795431e-01  1.34942726e-09  1.86491248e+00  1.34942726e-09  1.80000000e+00  1.34942726e-09 -6.96744524e-03  1.34942726e-09  5.00000000e-01                                 
 1.63750377e-09  6.54802174e-01  1.63750377e-09  5.98735894e-01  1.63750377e-09  1.92580928e+00  1.63750377e-09  1.80000000e+00  1.63750377e-09  6.71108314e-03  1.63750377e-09  5.00000000e-01                                 
 1.97953423e-09  6.53400493e-01  1.97953423e-09  5.97523785e-01  1.97953423e-09  1.95613860e+00  1.97953423e-09  1.80000000e+00  1.97953423e-09 -6.34647082e-03  1.97953423e-09  5.00000000e-01                                 
 2.29347191e-09  6.52167959e-01  2.29347191e-09  5.96452238e-01  2.29347191e-09  1.96605201e+00  2.29347191e-09  1.80000000e+00  2.29347191e-09  6.11410930e-03  2.29347191e-09  5.00000000e-01                                 
 2.80878154e-09  6.50245766e-01  2.80878154e-09  5.94770898e-01  2.80878154e-09  1.97016899e+00  2.80878154e-09  1.80000000e+00  2.80878154e-09 -5.88724969e-03  2.80878154e-09  5.00000000e-01                                 
 3.40749349e-09  6.48154587e-01  3.40749349e-09  5.92927840e-01  3.40749349e-09  1.96926481e+00  3.40749349e-09  1.80000000e+00  3.40749349e-09  5.78862004e-03  3.40749349e-09  5.00000000e-01                                 
 4.51194947e-09  6.44633977e-01  4.51194947e-09  5.89794470e-01  4.51194947e-09  1.96597630e+00  4.51194947e-09  1.80000000e+00  4.51194947e-09 -5.67182281e-03  4.51194947e-09  5.00000000e-01                                 
 6.08852967e-09  6.40224837e-01  6.08852967e-09  5.85818760e-01  6.08852967e-09  1.96183092e+00  6.08852967e-09  1.80000000e+00  6.08852967e-09  5.65920099e-03  6.08852967e-09  5.00000000e-01                                 
 9.24169005e-09  6.32935512e-01  9.24169005e-09  5.79137482e-01  9.24169005e-09  1.95428752e+00  9.24169005e-09  1.80000000e+00  9.24169005e-09 -5.58946779e-03  9.24169005e-09  5.00000000e-01                                 
 1.07655581e-08  6.29988533e-01  1.07655581e-08  5.76396320e-01  1.07655581e-08  1.95128882e+00  1.07655581e-08  1.80000000e+00  1.07655581e-08  5.56945813e-03  1.07655581e-08  5.00000000e-01                                 
 1.22365388e-08  6.27395026e-01  1.22365388e-08  5.73969010e-01  1.22365388e-08  1.94849012e+00  1.22365388e-08  1.80000000e+00  1.22365388e-08 -5.48376274e-03  1.22365388e-08  5.00000000e-01                                 
 1.39327290e-08  6.24655375e-01  1.39327290e-08  5.71391485e-01  1.39327290e-08  1.94555806e+00  1.39327290e-08  1.80000000e+00  1.39327290e-08  5.46394261e-03  1.39327290e-08  5.00000000e-01                                 
 1.66640153e-08  6.20690844e-01  1.66640153e-08  5.67641171e-01  1.66640153e-08  1.94101020e+00  1.66640153e-08  1.80000000e+00  1.66640153e-08 -5.40800400e-03  1.66640153e-08  5.00000000e-01                                 
 2.00727096e-08  6.16342517e-01  2.00727096e-08  5.63505571e-01  2.00727096e-08  1.93588807e+00  2.00727096e-08  1.80000000e+00  2.00727096e-08  5.41033533e-03  2.00727096e-08  5.00000000e-01                                 
 2.48901783e-08  6.11030943e-01  2.48901783e-08  5.58430243e-01  2.48901783e-08  1.92925834e+00  2.48901783e-08  1.80000000e+00  2.48901783e-08 -5.36820502e-03  2.48901783e-08  5.00000000e-01                                 
 3.21486527e-08  6.04308577e-01  3.21486527e-08  5.51983836e-01  3.21486527e-08  1.91961666e+00  3.21486527e-08  1.80000000e+00  3.21486527e-08  5.38290817e-03  3.21486527e-08  5.00000000e-01                                 
 4.50372614e-08  5.92712927e-01  4.50372614e-08  5.41197851e-01  4.50372614e-08  1.89463432e+00  4.50372614e-08  1.80000000e+00  4.50372614e-08 -5.35125671e-03  4.50372614e-08  5.00000000e-01                                 
 6.38455991e-08  5.79786107e-01  6.38455991e-08  5.29184089e-01  6.38455991e-08  1.85213813e+00  6.38455991e-08  1.80000000e+00  6.38455991e-08  5.37280024e-03  6.38455991e-08  5.00000000e-01                                 
 8.42075344e-08  5.68780725e-01  8.42075344e-08  5.19019658e-01  8.42075344e-08  1.81377652e+00  8.42075344e-08  1.80000000e+00  8.42075344e-08 -5.34302666e-03  8.42075344e-08  5.00000000e-01                                 
 1.11551328e-07  5.60136283e-01  1.11551328e-07  5.10660141e-01  1.11551328e-07  1.77112887e+00  1.11551328e-07  1.80000000e+00  1.11551328e-07  5.36624395e-03  1.11551328e-07  5.00000000e-01                                 
 1.48655100e-07  5.61656865e-01  1.48655100e-07  5.10223410e-01  1.48655100e-07  1.75687851e+00  1.48655100e-07  1.80000000e+00  1.48655100e-07 -5.33767410e-03  1.48655100e-07  5.00000000e-01                                 
 1.73163076e-07  5.60382275e-01  1.73163076e-07  5.08318184e-01  1.73163076e-07  1.73233906e+00  1.73163076e-07  1.80000000e+00  1.73163076e-07  5.36075656e-03  1.73163076e-07  5.00000000e-01                                 
 1.98788240e-07  5.53299236e-01  1.98788240e-07  5.01901987e-01  1.98788240e-07  1.69798553e+00  1.98788240e-07  1.80000000e+00  1.98788240e-07 -5.33162486e-03  1.98788240e-07  5.00000000e-01                                 
 2.20479211e-07  5.47393423e-01  2.20479211e-07  4.96618990e-01  2.20479211e-07  1.67123705e+00  2.20479211e-07  1.80000000e+00  2.20479211e-07  5.35404323e-03  2.20479211e-07  5.00000000e-01                                 
 2.44648208e-07  5.40753863e-01  2.44648208e-07  4.90756753e-01  2.44648208e-07  1.64090160e+00  2.44648208e-07  1.80000000e+00  2.44648208e-07 -5.32482332e-03  2.44648208e-07  5.00000000e-01                                 
 2.79578760e-07  5.30920258e-01  2.79578760e-07  4.82211068e-01  2.79578760e-07  1.59618986e+00  2.79578760e-07  1.80000000e+00  2.79578760e-07  5.34854551e-03  2.79578760e-07  5.00000000e-01                                 
 3.38277586e-07  5.15600345e-01  3.38277586e-07  4.69052824e-01  3.38277586e-07  1.52132279e+00  3.38277586e-07  1.80000000e+00  3.38277586e-07 -5.32126312e-03  3.38277586e-07  5.00000000e-01                                 
 4.43009249e-07  4.79093482e-01  4.43009249e-07  4.38914590e-01  4.43009249e-07  1.37740405e+00  4.43009249e-07  1.80000000e+00  4.43009249e-07  5.34640147e-03  4.43009249e-07  5.00000000e-01                                 
 5.39595336e-07  4.53287185e-01  5.39595336e-07  4.17834029e-01  5.39595336e-07  1.25075828e+00  5.39595336e-07  1.80000000e+00  5.39595336e-07 -5.31964900e-03  5.39595336e-07  5.00000000e-01                                 
 6.32357413e-07  4.62500220e-01  6.32357413e-07  4.25037522e-01  6.32357413e-07  1.16113012e+00  6.32357413e-07  1.80000000e+00  6.32357413e-07  5.34509374e-03  6.32357413e-07  5.00000000e-01                                 
 6.40502585e-07  4.73443618e-01  6.40502585e-07  4.33774241e-01  6.40502585e-07  1.16287286e+00  6.40502585e-07  1.80000000e+00  6.40502585e-07  4.01492529e-06  6.40502585e-07  5.00000000e-01                                 
 6.56792929e-07  5.14309377e-01  6.56792929e-07  4.66376076e-01  6.56792929e-07  1.18457757e+00  6.56792929e-07  1.80000000e+00  6.56792929e-07  2.03410695e-07  6.56792929e-07  5.00000000e-01                                 
 6.89373617e-07  6.90622994e-01  6.89373617e-07  6.29142952e-01  6.89373617e-07  1.31867280e+00  6.89373617e-07  1.80000000e+00  6.89373617e-07  7.73716323e-06  6.89373617e-07  5.00000000e-01                                 
 7.12348073e-07  7.41222324e-01  7.12348073e-07  6.81242679e-01  7.12348073e-07  1.34488042e+00  7.12348073e-07  1.80000000e+00  7.12348073e-07 -2.31784645e-06  7.12348073e-07  5.00000000e-01                                 
 7.35759728e-07  7.66194838e-01  7.35759728e-07  7.03772725e-01  7.35759728e-07  1.34204573e+00  7.35759728e-07  1.80000000e+00  7.35759728e-07  5.60140929e-06  7.35759728e-07  5.00000000e-01                                 
 7.64202817e-07  7.76022578e-01  7.64202817e-07  7.12373265e-01  7.64202817e-07  1.32342815e+00  7.64202817e-07  1.80000000e+00  7.64202817e-07 -2.98501092e-06  7.64202817e-07  5.00000000e-01                                 
 7.95195084e-07  7.76528938e-01  7.95195084e-07  7.12733263e-01  7.95195084e-07  1.28924946e+00  7.95195084e-07  1.80000000e+00  7.95195084e-07  4.85291946e-06  7.95195084e-07  5.00000000e-01                                 
 8.43579138e-07  7.77756768e-01  8.43579138e-07  7.13829374e-01  8.43579138e-07  1.24099996e+00  8.43579138e-07  1.80000000e+00  8.43579138e-07 -2.82096979e-06  8.43579138e-07  5.00000000e-01                                 
 8.50378331e-07  7.77416331e-01  8.50378331e-07  7.13521254e-01  8.50378331e-07  1.23263284e+00  8.50378331e-07  1.80000000e+00  8.50378331e-07  8.69313199e-07  8.50378331e-07  5.00000000e-01                                 
 8.63976717e-07  7.77395563e-01  8.63976717e-07  7.13493295e-01  8.63976717e-07  1.21802197e+00  8.63976717e-07  1.80000000e+00  8.63976717e-07  1.04818388e-06  8.63976717e-07  5.00000000e-01                                 
 8.91173489e-07  7.77557853e-01  8.91173489e-07  7.13638469e-01  8.91173489e-07  1.18941128e+00  8.91173489e-07  1.80000000e+00  8.91173489e-07  9.09689185e-07  8.91173489e-07  5.00000000e-01                                 
 9.45567033e-07  7.77915555e-01  9.45567033e-07  7.13931585e-01  9.45567033e-07  1.13180384e+00  9.45567033e-07  1.80000000e+00  9.45567033e-07  1.04158907e-06  9.45567033e-07  5.00000000e-01                                 
 9.54686935e-07  7.78103136e-01  9.54686935e-07  7.14092252e-01  9.54686935e-07  1.12235896e+00  9.54686935e-07  1.80000000e+00  9.54686935e-07  9.88413411e-07  9.54686935e-07  5.00000000e-01                                 
 9.72926740e-07  7.77413430e-01  9.72926740e-07  7.13518549e-01  9.72926740e-07  1.10241829e+00  9.72926740e-07  1.80000000e+00  9.72926740e-07  9.09419205e-07  9.72926740e-07  5.00000000e-01                                 
 9.77486691e-07  7.76168281e-01  9.77486691e-07  7.12476311e-01  9.77486691e-07  1.09646577e+00  9.77486691e-07  1.80000000e+00  9.77486691e-07  7.96934975e-07  9.77486691e-07  5.00000000e-01                                 
 9.86606594e-07  7.72322803e-01  9.86606594e-07  7.09214834e-01  9.86606594e-07  1.08327789e+00  9.86606594e-07  1.80000000e+00  9.86606594e-07  5.87121381e-07  9.86606594e-07  5.00000000e-01                                 
 1.00484640e-06  7.62479099e-01  1.00484640e-06  7.00623546e-01  1.00484640e-06  1.05477725e+00  1.00484640e-06  1.80000000e+00  1.00484640e-06  5.90149346e-07  1.00484640e-06  5.00000000e-01                                 
 1.04132601e-06  7.55558747e-01  1.04132601e-06  6.94391771e-01  1.04132601e-06  1.01131263e+00  1.04132601e-06  1.80000000e+00  1.04132601e-06  1.05845072e-06  1.04132601e-06  5.00000000e-01                                 
 1.08510378e-06  7.63977097e-01  1.08510378e-06  7.01906841e-01  1.08510378e-06  9.78619607e-01  1.08510378e-06  1.80000000e+00  1.08510378e-06  1.15745361e-06  1.08510378e-06  5.00000000e-01                                 
 1.15209264e-06  7.70887823e-01  1.15209264e-06  7.07949588e-01  1.15209264e-06  9.30775481e-01  1.15209264e-06  1.80000000e+00  1.15209264e-06  9.44699239e-07  1.15209264e-06  5.00000000e-01                                 
 1.22377062e-06  7.63953772e-01  1.22377062e-06  7.01909487e-01  1.22377062e-06  8.75520595e-01  1.22377062e-06  1.80000000e+00  1.22377062e-06  8.65710146e-07  1.22377062e-06  5.00000000e-01                                 
 1.32827139e-06  7.63453320e-01  1.32827139e-06  7.01448025e-01  1.32827139e-06  8.11096847e-01  1.32827139e-06  1.80000000e+00  1.32827139e-06  1.06912153e-06  1.32827139e-06  5.00000000e-01                                 
 1.43802076e-06  7.69072703e-01  1.43802076e-06  7.06382063e-01  1.43802076e-06  7.53610216e-01  1.43802076e-06  1.80000000e+00  1.43802076e-06  9.50608897e-07  1.43802076e-06  5.00000000e-01                                 
 1.61251433e-06  7.62439608e-01  1.61251433e-06  7.00561254e-01  1.61251433e-06  6.55024963e-01  1.61251433e-06  1.80000000e+00  1.61251433e-06  9.39443945e-07  1.61251433e-06  5.00000000e-01                                 
 1.81402286e-06  7.67494146e-01  1.81402286e-06  7.05002053e-01  1.81402286e-06  5.63572924e-01  1.81402286e-06  1.80000000e+00  1.81402286e-06  1.03971279e-06  1.81402286e-06  5.00000000e-01                                 
 2.04392982e-06  7.64771415e-01  2.04392982e-06  7.02624507e-01  2.04392982e-06  5.00483952e-01  2.04392982e-06  1.80000000e+00  2.04392982e-06  8.91805041e-07  2.04392982e-06  5.00000000e-01                                 
 2.25003193e-06  7.65222789e-01  2.25003193e-06  7.03011818e-01  2.25003193e-06  4.90080165e-01  2.25003193e-06  1.80000000e+00  2.25003193e-06  1.05394857e-06  2.25003193e-06  5.00000000e-01                                 
 2.27865926e-06  7.66447256e-01  2.27865926e-06  7.04088140e-01  2.27865926e-06  4.91097273e-01  2.27865926e-06  1.80000000e+00  2.27865926e-06  1.00532684e-06  2.27865926e-06  5.00000000e-01                                 
 2.33591394e-06  7.66531529e-01  2.33591394e-06  7.04166412e-01  2.33591394e-06  4.94790863e-01  2.33591394e-06  1.80000000e+00  2.33591394e-06  9.47440199e-07  2.33591394e-06  5.00000000e-01                                 
 2.45042328e-06  7.64520406e-01  2.45042328e-06  7.02398582e-01  2.45042328e-06  5.00750516e-01  2.45042328e-06  1.80000000e+00  2.45042328e-06  9.68530515e-07  2.45042328e-06  5.00000000e-01                                 
 2.60441959e-06  7.66332192e-01  2.60441959e-06  7.03988751e-01  2.60441959e-06  5.01045422e-01  2.60441959e-06  1.80000000e+00  2.60441959e-06  9.91083865e-07  2.60441959e-06  5.00000000e-01                                 
 2.76034682e-06  7.65363936e-01  2.76034682e-06  7.03142405e-01  2.76034682e-06  4.99366694e-01  2.76034682e-06  1.80000000e+00  2.76034682e-06  9.45051645e-07  2.76034682e-06  5.00000000e-01                                 
 3.07220128e-06  7.65588699e-01  3.07220128e-06  7.03336236e-01  3.07220128e-06  5.00682172e-01  3.07220128e-06  1.80000000e+00  3.07220128e-06  9.99050572e-07  3.07220128e-06  5.00000000e-01                                 
 3.54429157e-06  7.65774459e-01  3.54429157e-06  7.03502742e-01  3.54429157e-06  4.99938978e-01  3.54429157e-06  1.80000000e+00  3.54429157e-06  9.45559321e-07  3.54429157e-06  5.00000000e-01                                 
 4.31956583e-06  7.65349535e-01  4.31956583e-06  7.03126358e-01  4.31956583e-06  5.00292699e-01  4.31956583e-06  1.80000000e+00  4.31956583e-06  9.97139863e-07  4.31956583e-06  5.00000000e-01                                 
 5.31956583e-06  7.65917095e-01  5.31956583e-06  7.03627695e-01  5.31956583e-06  5.00190882e-01  5.31956583e-06  1.80000000e+00  5.31956583e-06  9.47504615e-07  5.31956583e-06  5.00000000e-01                                 
 6.31956583e-06  7.65235173e-01  6.31956583e-06  7.03026032e-01  6.31956583e-06  5.00084549e-01  6.31956583e-06  1.80000000e+00  6.31956583e-06  9.95065931e-07  6.31956583e-06  5.00000000e-01                                 
 7.31956583e-06  7.66019038e-01  7.31956583e-06  7.03716893e-01  7.31956583e-06  5.00385311e-01  7.31956583e-06  1.80000000e+00  7.31956583e-06  9.49872035e-07  7.31956583e-06  5.00000000e-01                                 
 8.31956583e-06  7.65143074e-01  8.31956583e-06  7.02945286e-01  8.31956583e-06  4.99905724e-01  8.31956583e-06  1.80000000e+00  8.31956583e-06  9.92436539e-07  8.31956583e-06  5.00000000e-01                                 
 9.31956583e-06  7.66097460e-01  9.31956583e-06  7.03785417e-01  9.31956583e-06  5.00546537e-01  9.31956583e-06  1.80000000e+00  9.31956583e-06  9.52730059e-07  9.31956583e-06  5.00000000e-01                                 
 1.00005000e-05  7.65062836e-01  1.00005000e-05  7.02875031e-01  1.00005000e-05  4.99735237e-01  1.00005000e-05  1.80000000e+00  1.00005000e-05  9.88624554e-07  1.00005000e-05  5.00000000e-01                                 
 1.00005500e-05  7.65063824e-01  1.00005500e-05  7.02875902e-01  1.00005500e-05  4.91866442e-01  1.00005500e-05  1.62000000e+00  1.00005500e-05 -7.84814496e-05  1.00005500e-05  5.00000000e-01                                 
 1.00006500e-05  7.65065821e-01  1.00006500e-05  7.02877653e-01  1.00006500e-05  4.78042541e-01  1.00006500e-05  1.26000000e+00  1.00006500e-05 -6.11126959e-05  1.00006500e-05  5.00000000e-01                                 
