 time            v(vbep)         time            v(vben)         time            v(vout)         time            v(vphi1)        time            v(vphi2)        time            v(vref)         yes             currtemp       
 0.00000000e+00  7.93414045e-01  0.00000000e+00  7.50419965e-01  0.00000000e+00  5.87579580e-02  0.00000000e+00  0.00000000e+00  0.00000000e+00  1.79997571e+00  0.00000000e+00  5.00000000e-01  1.00000000e+00 -3.80000000e+01 
 5.00000000e-12  7.93399479e-01  5.00000000e-12  7.50407813e-01  5.00000000e-12  5.91826152e-02  5.00000000e-12  1.80000000e-02  5.00000000e-12  1.80004974e+00  5.00000000e-12  5.00000000e-01                                 
 1.00000000e-11  7.93385130e-01  1.00000000e-11  7.50395904e-01  1.00000000e-11  5.95604379e-02  1.00000000e-11  3.60000000e-02  1.00000000e-11  1.80008524e+00  1.00000000e-11  5.00000000e-01                                 
 2.00000000e-11  7.93356547e-01  2.00000000e-11  7.50372152e-01  2.00000000e-11  6.02495157e-02  2.00000000e-11  7.20000000e-02  2.00000000e-11  1.80011696e+00  2.00000000e-11  5.00000000e-01                                 
 4.00000000e-11  7.93299586e-01  4.00000000e-11  7.50324774e-01  4.00000000e-11  6.13175292e-02  4.00000000e-11  1.44000000e-01  4.00000000e-11  1.80009752e+00  4.00000000e-11  5.00000000e-01                                 
 8.00000000e-11  7.93186036e-01  8.00000000e-11  7.50230284e-01  8.00000000e-11  6.27374433e-02  8.00000000e-11  2.88000000e-01  8.00000000e-11  1.80005577e+00  8.00000000e-11  5.00000000e-01                                 
 1.60000000e-10  7.92960528e-01  1.60000000e-10  7.50042399e-01  1.60000000e-10  6.44961353e-02  1.60000000e-10  5.76000000e-01  1.60000000e-10  1.80001943e+00  1.60000000e-10  5.00000000e-01                                 
 3.20000000e-10  7.92515678e-01  3.20000000e-10  7.49670937e-01  3.20000000e-10  1.04220157e-01  3.20000000e-10  1.15200000e+00  3.20000000e-10  1.79977152e+00  3.20000000e-10  5.00000000e-01                                 
 5.00000000e-10  7.92024967e-01  5.00000000e-10  7.49259877e-01  5.00000000e-10  4.94706755e-01  5.00000000e-10  1.80000000e+00  5.00000000e-10  8.52300469e-02  5.00000000e-10  5.00000000e-01                                 
 5.20589645e-10  7.91969552e-01  5.20589645e-10  7.49213363e-01  5.20589645e-10  5.63327298e-01  5.20589645e-10  1.80000000e+00  5.20589645e-10  1.38465180e-02  5.20589645e-10  5.00000000e-01                                 
 5.61768935e-10  7.91858975e-01  5.61768935e-10  7.49120512e-01  5.61768935e-10  6.84712183e-01  5.61768935e-10  1.80000000e+00  5.61768935e-10 -6.66423240e-03  5.61768935e-10  5.00000000e-01                                 
 6.44127514e-10  7.91639355e-01  6.44127514e-10  7.48935899e-01  6.44127514e-10  8.64524782e-01  6.44127514e-10  1.80000000e+00  6.44127514e-10  5.92911256e-03  6.44127514e-10  5.00000000e-01                                 
 7.69688775e-10  7.91308421e-01  7.69688775e-10  7.48657210e-01  7.69688775e-10  1.06874372e+00  7.69688775e-10  1.80000000e+00  7.69688775e-10 -5.30342337e-03  7.69688775e-10  5.00000000e-01                                 
 9.56094637e-10  7.90825569e-01  9.56094637e-10  7.48249512e-01  9.56094637e-10  1.31572743e+00  9.56094637e-10  1.80000000e+00  9.56094637e-10  5.09119254e-03  9.56094637e-10  5.00000000e-01                                 
 1.32301569e-09  7.89903211e-01  1.32301569e-09  7.47467240e-01  1.32301569e-09  1.66048435e+00  1.32301569e-09  1.80000000e+00  1.32301569e-09 -4.86825463e-03  1.32301569e-09  5.00000000e-01                                 
 2.00624175e-09  7.88276648e-01  2.00624175e-09  7.46076953e-01  2.00624175e-09  1.89849609e+00  2.00624175e-09  1.80000000e+00  2.00624175e-09  4.85462788e-03  2.00624175e-09  5.00000000e-01                                 
 2.23308998e-09  7.87761303e-01  2.23308998e-09  7.45633516e-01  2.23308998e-09  1.91345858e+00  2.23308998e-09  1.80000000e+00  2.23308998e-09 -4.57362511e-03  2.23308998e-09  5.00000000e-01                                 
 2.52338303e-09  7.87118067e-01  2.52338303e-09  7.45078165e-01  2.52338303e-09  1.92158957e+00  2.52338303e-09  1.80000000e+00  2.52338303e-09  4.45261680e-03  2.52338303e-09  5.00000000e-01                                 
 2.86675745e-09  7.86379506e-01  2.86675745e-09  7.44438000e-01  2.86675745e-09  1.92884943e+00  2.86675745e-09  1.80000000e+00  2.86675745e-09 -4.27939008e-03  2.86675745e-09  5.00000000e-01                                 
 3.55350629e-09  7.84968585e-01  3.55350629e-09  7.43207914e-01  3.55350629e-09  1.93838110e+00  3.55350629e-09  1.80000000e+00  3.55350629e-09  4.24676017e-03  3.55350629e-09  5.00000000e-01                                 
 4.92700396e-09  7.82375788e-01  4.92700396e-09  7.40924491e-01  4.92700396e-09  1.93681062e+00  4.92700396e-09  1.80000000e+00  4.92700396e-09 -4.18991545e-03  4.92700396e-09  5.00000000e-01                                 
 6.87032826e-09  7.79133758e-01  6.87032826e-09  7.38029995e-01  6.87032826e-09  1.92389120e+00  6.87032826e-09  1.80000000e+00  6.87032826e-09  4.19575968e-03  6.87032826e-09  5.00000000e-01                                 
 8.90618658e-09  7.76155102e-01  8.90618658e-09  7.35335458e-01  8.90618658e-09  1.91320246e+00  8.90618658e-09  1.80000000e+00  8.90618658e-09 -4.14379356e-03  8.90618658e-09  5.00000000e-01                                 
 1.01454393e-08  7.74508941e-01  1.01454393e-08  7.33833278e-01  1.01454393e-08  1.90737912e+00  1.01454393e-08  1.80000000e+00  1.01454393e-08  4.13280767e-03  1.01454393e-08  5.00000000e-01                                 
 1.21160921e-08  7.72097977e-01  1.21160921e-08  7.31619068e-01  1.21160921e-08  1.89984743e+00  1.21160921e-08  1.80000000e+00  1.21160921e-08 -4.08972055e-03  1.21160921e-08  5.00000000e-01                                 
 1.44423466e-08  7.69528710e-01  1.44423466e-08  7.29242092e-01  1.44423466e-08  1.89187896e+00  1.44423466e-08  1.80000000e+00  1.44423466e-08  4.08913119e-03  1.44423466e-08  5.00000000e-01                                 
 1.83910373e-08  7.65710448e-01  1.83910373e-08  7.25679474e-01  1.83910373e-08  1.88084124e+00  1.83910373e-08  1.80000000e+00  1.83910373e-08 -4.06186412e-03  1.83910373e-08  5.00000000e-01                                 
 2.33155401e-08  7.61705253e-01  2.33155401e-08  7.21902956e-01  2.33155401e-08  1.86973912e+00  2.33155401e-08  1.80000000e+00  2.33155401e-08  4.06862631e-03  2.33155401e-08  5.00000000e-01                                 
 3.16222042e-08  7.56193606e-01  3.16222042e-08  7.16654794e-01  3.16222042e-08  1.85523940e+00  3.16222042e-08  1.80000000e+00  3.16222042e-08 -4.04797146e-03  3.16222042e-08  5.00000000e-01                                 
 4.43361318e-08  7.49180664e-01  4.43361318e-08  7.09992868e-01  4.43361318e-08  1.83606140e+00  4.43361318e-08  1.80000000e+00  4.43361318e-08  4.06005887e-03  4.43361318e-08  5.00000000e-01                                 
 6.93919976e-08  7.37941089e-01  6.93919976e-08  6.99439177e-01  6.93919976e-08  1.80222873e+00  6.93919976e-08  1.80000000e+00  6.93919976e-08 -4.04292650e-03  6.93919976e-08  5.00000000e-01                                 
 1.07461865e-07  7.25816582e-01  1.07461865e-07  6.88093722e-01  1.07461865e-07  1.75783224e+00  1.07461865e-07  1.80000000e+00  1.07461865e-07  4.05732349e-03  1.07461865e-07  5.00000000e-01                                 
 1.44396302e-07  7.17240689e-01  1.44396302e-07  6.80100025e-01  1.44396302e-07  1.71726858e+00  1.44396302e-07  1.80000000e+00  1.44396302e-07 -4.04059466e-03  1.44396302e-07  5.00000000e-01                                 
 2.16374418e-07  7.04266697e-01  2.16374418e-07  6.68143907e-01  2.16374418e-07  1.63952636e+00  2.16374418e-07  1.80000000e+00  2.16374418e-07  4.05559960e-03  2.16374418e-07  5.00000000e-01                                 
 2.88015015e-07  6.94555915e-01  2.88015015e-07  6.59292922e-01  2.88015015e-07  1.56370831e+00  2.88015015e-07  1.80000000e+00  2.88015015e-07 -4.03935836e-03  2.88015015e-07  5.00000000e-01                                 
 4.31296210e-07  6.79840920e-01  4.31296210e-07  6.46024791e-01  4.31296210e-07  1.41163692e+00  4.31296210e-07  1.80000000e+00  4.31296210e-07  4.05475070e-03  4.31296210e-07  5.00000000e-01                                 
 7.17858600e-07  6.61029173e-01  7.17858600e-07  6.29170863e-01  7.17858600e-07  1.10862786e+00  7.17858600e-07  1.80000000e+00  7.17858600e-07 -4.03877137e-03  7.17858600e-07  5.00000000e-01                                 
 1.11428827e-06  6.46691179e-01  1.11428827e-06  6.16236309e-01  1.11428827e-06  7.79744613e-01  1.11428827e-06  1.80000000e+00  1.11428827e-06  4.05451756e-03  1.11428827e-06  5.00000000e-01                                 
 1.63639430e-06  6.35721779e-01  1.63639430e-06  6.06180198e-01  1.63639430e-06  5.40909855e-01  1.63639430e-06  1.80000000e+00  1.63639430e-06 -4.03871957e-03  1.63639430e-06  5.00000000e-01                                 
 2.13820517e-06  6.29087542e-01  2.13820517e-06  5.99953765e-01  2.13820517e-06  4.89213635e-01  2.13820517e-06  1.80000000e+00  2.13820517e-06  4.05435783e-03  2.13820517e-06  5.00000000e-01                                 
 2.22674552e-06  6.28146100e-01  2.22674552e-06  5.99060503e-01  2.22674552e-06  4.88473093e-01  2.22674552e-06  1.80000000e+00  2.22674552e-06  1.23311904e-07  2.22674552e-06  5.00000000e-01                                 
 2.40382622e-06  6.26357447e-01  2.40382622e-06  5.97357215e-01  2.40382622e-06  4.87010515e-01  2.40382622e-06  1.80000000e+00  2.40382622e-06 -1.21496789e-07  2.40382622e-06  5.00000000e-01                                 
 2.75798763e-06  6.23265718e-01  2.75798763e-06  5.94381084e-01  2.75798763e-06  4.87864931e-01  2.75798763e-06  1.80000000e+00  2.75798763e-06  1.24256193e-07  2.75798763e-06  5.00000000e-01                                 
 3.12361709e-06  6.20636883e-01  3.12361709e-06  5.91807425e-01  3.12361709e-06  4.92771888e-01  3.12361709e-06  1.80000000e+00  3.12361709e-06 -1.20465163e-07  3.12361709e-06  5.00000000e-01                                 
 3.73112885e-06  6.17435949e-01  3.73112885e-06  5.88542624e-01  3.73112885e-06  4.95907833e-01  3.73112885e-06  1.80000000e+00  3.73112885e-06  1.25515571e-07  3.73112885e-06  5.00000000e-01                                 
 4.36127323e-06  6.15888002e-01  4.36127323e-06  5.86647615e-01  4.36127323e-06  4.94708111e-01  4.36127323e-06  1.80000000e+00  4.36127323e-06 -1.18609616e-07  4.36127323e-06  5.00000000e-01                                 
 4.48627323e-06  6.15897817e-01  4.48627323e-06  5.86532705e-01  4.48627323e-06  4.94816771e-01  4.48627323e-06  1.80000000e+00  4.48627323e-06  4.26399177e-09  4.48627323e-06  5.00000000e-01                                 
 4.73627323e-06  6.16195718e-01  4.73627323e-06  5.86528267e-01  4.73627323e-06  4.95326132e-01  4.73627323e-06  1.80000000e+00  4.73627323e-06  4.98123533e-09  4.73627323e-06  5.00000000e-01                                 
 5.23627323e-06  6.19994023e-01  5.23627323e-06  5.89091151e-01  5.23627323e-06  4.99443244e-01  5.23627323e-06  1.80000000e+00  5.23627323e-06  8.34168089e-09  5.23627323e-06  5.00000000e-01                                 
 5.36127323e-06  6.22413943e-01  5.36127323e-06  5.90909196e-01  5.36127323e-06  5.01862837e-01  5.36127323e-06  1.80000000e+00  5.36127323e-06  1.04132625e-08  5.36127323e-06  5.00000000e-01                                 
 5.61127323e-06  6.31451074e-01  5.61127323e-06  5.97906925e-01  5.61127323e-06  5.10098141e-01  5.61127323e-06  1.80000000e+00  5.61127323e-06  2.11931982e-08  5.61127323e-06  5.00000000e-01                                 
 5.67377323e-06  6.36262096e-01  5.67377323e-06  6.01701048e-01  5.67377323e-06  5.13300276e-01  5.67377323e-06  1.80000000e+00  5.67377323e-06  2.89288581e-08  5.67377323e-06  5.00000000e-01                                 
 5.79877323e-06  6.54209369e-01  5.79877323e-06  6.15976357e-01  5.79877323e-06  5.22186158e-01  5.79877323e-06  1.80000000e+00  5.79877323e-06  7.24098790e-08  5.79877323e-06  5.00000000e-01                                 
 5.83002323e-06  6.63956029e-01  5.83002323e-06  6.23776015e-01  5.83002323e-06  5.26870903e-01  5.83002323e-06  1.80000000e+00  5.83002323e-06  1.06361974e-07  5.83002323e-06  5.00000000e-01                                 
 5.89252323e-06  7.02060829e-01  5.89252323e-06  6.54558395e-01  5.89252323e-06  5.47853952e-01  5.89252323e-06  1.80000000e+00  5.89252323e-06  3.11171597e-07  5.89252323e-06  5.00000000e-01                                 
 5.90814823e-06  7.23256291e-01  5.90814823e-06  6.72038344e-01  5.90814823e-06  5.60816601e-01  5.90814823e-06  1.80000000e+00  5.90814823e-06  4.77038761e-07  5.90814823e-06  5.00000000e-01                                 
 5.93939823e-06  7.85762701e-01  5.93939823e-06  7.32673614e-01  5.93939823e-06  6.02455380e-01  5.93939823e-06  1.80000000e+00  5.93939823e-06  1.11135128e-06  5.93939823e-06  5.00000000e-01                                 
 5.94566752e-06  8.00634415e-01  5.94566752e-06  7.50509736e-01  5.94566752e-06  6.12832400e-01  5.94566752e-06  1.80000000e+00  5.94566752e-06  1.12539761e-06  5.94566752e-06  5.00000000e-01                                 
 5.95820611e-06  8.23609362e-01  5.95820611e-06  7.78580358e-01  5.95820611e-06  6.28115166e-01  5.95820611e-06  1.80000000e+00  5.95820611e-06  7.90047245e-07  5.95820611e-06  5.00000000e-01                                 
 5.98328329e-06  8.58944420e-01  5.98328329e-06  8.14618746e-01  5.98328329e-06  6.50144169e-01  5.98328329e-06  1.80000000e+00  5.98328329e-06  6.47500148e-07  5.98328329e-06  5.00000000e-01                                 
 6.01542008e-06  9.00802463e-01  6.01542008e-06  8.52167886e-01  6.01542008e-06  6.74286745e-01  6.01542008e-06  1.80000000e+00  6.01542008e-06  5.97984181e-07  6.01542008e-06  5.00000000e-01                                 
 6.05091921e-06  9.28573827e-01  6.05091921e-06  8.73119679e-01  6.05091921e-06  6.83644002e-01  6.05091921e-06  1.80000000e+00  6.05091921e-06  2.14114979e-07  6.05091921e-06  5.00000000e-01                                 
 6.07642485e-06  9.23546393e-01  6.07642485e-06  8.69789964e-01  6.07642485e-06  6.73176517e-01  6.07642485e-06  1.80000000e+00  6.07642485e-06 -2.00303977e-07  6.07642485e-06  5.00000000e-01                                 
 6.10317311e-06  9.22750481e-01  6.10317311e-06  8.68993959e-01  6.10317311e-06  6.62933408e-01  6.10317311e-06  1.80000000e+00  6.10317311e-06  1.18964344e-07  6.10317311e-06  5.00000000e-01                                 
 6.12739538e-06  9.24321268e-01  6.12739538e-06  8.70306117e-01  6.12739538e-06  6.57508601e-01  6.12739538e-06  1.80000000e+00  6.12739538e-06 -3.73676040e-08  6.12739538e-06  5.00000000e-01                                 
 6.16202743e-06  9.20195816e-01  6.16202743e-06  8.67201896e-01  6.16202743e-06  6.43667273e-01  6.16202743e-06  1.80000000e+00  6.16202743e-06 -3.90997809e-08  6.16202743e-06  5.00000000e-01                                 
 6.19669318e-06  9.21462531e-01  6.19669318e-06  8.68225565e-01  6.19669318e-06  6.34967233e-01  6.19669318e-06  1.80000000e+00  6.19669318e-06  5.86085496e-08  6.19669318e-06  5.00000000e-01                                 
 6.23202312e-06  9.17663620e-01  6.23202312e-06  8.65381368e-01  6.23202312e-06  6.22298760e-01  6.23202312e-06  1.80000000e+00  6.23202312e-06 -1.18731307e-07  6.23202312e-06  5.00000000e-01                                 
 6.27455596e-06  9.17562952e-01  6.27455596e-06  8.65353974e-01  6.27455596e-06  6.10780385e-01  6.27455596e-06  1.80000000e+00  6.27455596e-06  1.05032305e-07  6.27455596e-06  5.00000000e-01                                 
 6.32048693e-06  9.13849391e-01  6.32048693e-06  8.62546186e-01  6.32048693e-06  5.96425942e-01  6.32048693e-06  1.80000000e+00  6.32048693e-06 -1.51186299e-07  6.32048693e-06  5.00000000e-01                                 
 6.37879598e-06  9.11999122e-01  6.37879598e-06  8.61156013e-01  6.37879598e-06  5.80444080e-01  6.37879598e-06  1.80000000e+00  6.37879598e-06  1.17325208e-07  6.37879598e-06  5.00000000e-01                                 
 6.45240690e-06  9.06769022e-01  6.45240690e-06  8.57075290e-01  6.45240690e-06  5.59903180e-01  6.45240690e-06  1.80000000e+00  6.45240690e-06 -1.65333120e-07  6.45240690e-06  5.00000000e-01                                 
 6.55111609e-06  9.01526575e-01  6.55111609e-06  8.52869858e-01  6.55111609e-06  5.36193394e-01  6.55111609e-06  1.80000000e+00  6.55111609e-06  1.18349604e-07  6.55111609e-06  5.00000000e-01                                 
 6.68846901e-06  8.92134975e-01  6.68846901e-06  8.45013383e-01  6.68846901e-06  5.15897163e-01  6.68846901e-06  1.80000000e+00  6.68846901e-06 -1.66393571e-07  6.68846901e-06  5.00000000e-01                                 
 6.90703074e-06  8.83658424e-01  6.90703074e-06  8.37585855e-01  6.90703074e-06  5.03768930e-01  6.90703074e-06  1.80000000e+00  6.90703074e-06  1.32556716e-07  6.90703074e-06  5.00000000e-01                                 
 7.15998222e-06  8.78322937e-01  7.15998222e-06  8.32801156e-01  7.15998222e-06  4.99306473e-01  7.15998222e-06  1.80000000e+00  7.15998222e-06 -1.43848716e-07  7.15998222e-06  5.00000000e-01                                 
 7.48880807e-06  8.78417824e-01  7.48880807e-06  8.32860571e-01  7.48880807e-06  4.99174362e-01  7.48880807e-06  1.80000000e+00  7.48880807e-06  1.51167049e-07  7.48880807e-06  5.00000000e-01                                 
 7.96649444e-06  8.77879092e-01  7.96649444e-06  8.32397346e-01  7.96649444e-06  4.99344991e-01  7.96649444e-06  1.80000000e+00  7.96649444e-06 -1.42311789e-07  7.96649444e-06  5.00000000e-01                                 
 8.54211634e-06  8.78394789e-01  8.54211634e-06  8.32841257e-01  8.54211634e-06  4.99659518e-01  8.54211634e-06  1.80000000e+00  8.54211634e-06  1.51083271e-07  8.54211634e-06  5.00000000e-01                                 
 9.54211634e-06  8.77883588e-01  9.54211634e-06  8.32401457e-01  9.54211634e-06  4.99993882e-01  9.54211634e-06  1.80000000e+00  9.54211634e-06 -1.42223853e-07  9.54211634e-06  5.00000000e-01                                 
 1.00005000e-05  8.78383404e-01  1.00005000e-05  8.32829387e-01  1.00005000e-05  5.00185001e-01  1.00005000e-05  1.80000000e+00  1.00005000e-05  1.50961179e-07  1.00005000e-05  5.00000000e-01                                 
 1.00005500e-05  8.78379546e-01  1.00005500e-05  8.32825017e-01  1.00005500e-05  4.92274683e-01  1.00005500e-05  1.62000000e+00  1.00005500e-05 -5.68926045e-05  1.00005500e-05  5.00000000e-01                                 
 1.00006500e-05  8.78366869e-01  1.00006500e-05  8.32815152e-01  1.00006500e-05  4.78962500e-01  1.00006500e-05  1.26000000e+00  1.00006500e-05 -3.76822992e-05  1.00006500e-05  5.00000000e-01                                 
 1.00008500e-05  8.78342583e-01  1.00008500e-05  8.32797879e-01  1.00008500e-05  4.78820150e-01  1.00008500e-05  5.40000000e-01  1.00008500e-05  1.27171267e-04  1.00008500e-05  5.00000000e-01                                 
 1.00010000e-05  8.78328489e-01  1.00010000e-05  8.32786860e-01  1.00010000e-05  4.45827783e-01  1.00010000e-05  0.00000000e+00  1.00010000e-05  1.53989198e+00  1.00010000e-05  5.00000000e-01                                 
 1.00010119e-05  8.78327215e-01  1.00010119e-05  8.32785995e-01  1.00010119e-05  4.31286009e-01  1.00010119e-05  0.00000000e+00  1.00010119e-05  1.65901063e+00  1.00010119e-05  5.00000000e-01                                 
 1.00010357e-05  8.78324834e-01  1.00010357e-05  8.32784299e-01  1.00010357e-05  3.91201433e-01  1.00010357e-05  0.00000000e+00  1.00010357e-05  1.78760996e+00  1.00010357e-05  5.00000000e-01                                 
