 time            v(vbep)         time            v(vben)         time            v(vout)         time            v(vphi1)        time            v(vphi2)        time            v(vref)         yes             currtemp       
 0.00000000e+00  7.90102208e-01  0.00000000e+00  7.45845719e-01  0.00000000e+00  8.65954726e-01  0.00000000e+00  0.00000000e+00  0.00000000e+00  1.79996075e+00  0.00000000e+00  7.45845719e-01  1.00000000e+00 -3.10000000e+01 
 5.00000000e-12  7.90080291e-01  5.00000000e-12  7.45827496e-01  5.00000000e-12  8.66627243e-01  5.00000000e-12  1.80000000e-02  5.00000000e-12  1.80007723e+00  5.00000000e-12  7.45827496e-01                                 
 1.00000000e-11  7.90058896e-01  1.00000000e-11  7.45809709e-01  1.00000000e-11  8.67239441e-01  1.00000000e-11  3.60000000e-02  1.00000000e-11  1.80014750e+00  1.00000000e-11  7.45809709e-01                                 
 2.00000000e-11  7.90016421e-01  2.00000000e-11  7.45774263e-01  2.00000000e-11  8.68362257e-01  2.00000000e-11  7.20000000e-02  2.00000000e-11  1.80022889e+00  2.00000000e-11  7.45774263e-01                                 
 4.00000000e-11  7.89932019e-01  4.00000000e-11  7.45703632e-01  4.00000000e-11  8.70178531e-01  4.00000000e-11  1.44000000e-01  4.00000000e-11  1.80023403e+00  4.00000000e-11  7.45703632e-01                                 
 8.00000000e-11  7.89764024e-01  8.00000000e-11  7.45562984e-01  8.00000000e-11  8.72705876e-01  8.00000000e-11  2.88000000e-01  8.00000000e-11  1.80015998e+00  8.00000000e-11  7.45562984e-01                                 
 1.60000000e-10  7.89431538e-01  1.60000000e-10  7.45284157e-01  1.60000000e-10  8.75662628e-01  1.60000000e-10  5.76000000e-01  1.60000000e-10  1.80008019e+00  1.60000000e-10  7.45284157e-01                                 
 3.20000000e-10  7.88779821e-01  3.20000000e-10  7.44736042e-01  3.20000000e-10  8.64092902e-01  3.20000000e-10  1.15200000e+00  3.20000000e-10  1.80016030e+00  3.20000000e-10  7.44736042e-01                                 
 5.00000000e-10  7.88067044e-01  5.00000000e-10  7.44134103e-01  5.00000000e-10  9.36786147e-01  5.00000000e-10  1.80000000e+00  5.00000000e-10  1.10714568e-01  5.00000000e-10  7.44134103e-01                                 
 5.20164908e-10  7.87988636e-01  5.20164908e-10  7.44067717e-01  5.20164908e-10  9.57458549e-01  5.20164908e-10  1.80000000e+00  5.20164908e-10  2.29585367e-02  5.20164908e-10  7.44067717e-01                                 
 5.60494724e-10  7.87832318e-01  5.60494724e-10  7.43935303e-01  5.60494724e-10  9.98263407e-01  5.60494724e-10  1.80000000e+00  5.60494724e-10 -9.79433403e-03  5.60494724e-10  7.43935303e-01                                 
 6.41154357e-10  7.87522698e-01  6.41154357e-10  7.43672670e-01  6.41154357e-10  1.07330940e+00  6.41154357e-10  1.80000000e+00  6.41154357e-10  8.65424108e-03  6.41154357e-10  7.43672670e-01                                 
 7.60868949e-10  7.87070397e-01  7.60868949e-10  7.43288163e-01  7.60868949e-10  1.17930220e+00  7.60868949e-10  1.80000000e+00  7.60868949e-10 -7.00474334e-03  7.60868949e-10  7.43288163e-01                                 
 9.41975450e-10  7.86401924e-01  9.41975450e-10  7.42718061e-01  9.41975450e-10  1.32402779e+00  9.41975450e-10  1.80000000e+00  9.41975450e-10  7.09796948e-03  9.41975450e-10  7.42718061e-01                                 
 1.30418845e-09  7.85118076e-01  1.30418845e-09  7.41617196e-01  1.30418845e-09  1.53927074e+00  1.30418845e-09  1.80000000e+00  1.30418845e-09 -6.26826593e-03  1.30418845e-09  7.41617196e-01                                 
 1.85130929e-09  7.83300426e-01  1.85130929e-09  7.40045498e-01  1.85130929e-09  1.70776052e+00  1.85130929e-09  1.80000000e+00  1.85130929e-09  6.40943045e-03  1.85130929e-09  7.40045498e-01                                 
 2.19388788e-09  7.82230296e-01  2.19388788e-09  7.39112889e-01  2.19388788e-09  1.74734367e+00  2.19388788e-09  1.80000000e+00  2.19388788e-09 -5.98847530e-03  2.19388788e-09  7.39112889e-01                                 
 2.60457873e-09  7.81008228e-01  2.60457873e-09  7.38041633e-01  2.60457873e-09  1.76808862e+00  2.60457873e-09  1.80000000e+00  2.60457873e-09  5.84879176e-03  2.60457873e-09  7.38041633e-01                                 
 3.05064923e-09  7.79749213e-01  3.05064923e-09  7.36931193e-01  3.05064923e-09  1.77537331e+00  3.05064923e-09  1.80000000e+00  3.05064923e-09 -5.60790068e-03  3.05064923e-09  7.36931193e-01                                 
 3.79272524e-09  7.77792855e-01  3.79272524e-09  7.35192723e-01  3.79272524e-09  1.77766160e+00  3.79272524e-09  1.80000000e+00  3.79272524e-09  5.52248847e-03  3.79272524e-09  7.35192723e-01                                 
 4.70744745e-09  7.75587124e-01  4.70744745e-09  7.33214256e-01  4.70744745e-09  1.77559914e+00  4.70744745e-09  1.80000000e+00  4.70744745e-09 -5.40916443e-03  4.70744745e-09  7.33214256e-01                                 
 6.42705895e-09  7.71925677e-01  6.42705895e-09  7.29891204e-01  6.42705895e-09  1.77209777e+00  6.42705895e-09  1.80000000e+00  6.42705895e-09  5.38181360e-03  6.42705895e-09  7.29891204e-01                                 
 9.26436132e-09  7.66904033e-01  9.26436132e-09  7.25262027e-01  9.26436132e-09  1.76664353e+00  9.26436132e-09  1.80000000e+00  9.26436132e-09 -5.33392605e-03  9.26436132e-09  7.25262027e-01                                 
 1.49389661e-08  7.59199195e-01  1.49389661e-08  7.18029709e-01  1.49389661e-08  1.75836036e+00  1.49389661e-08  1.80000000e+00  1.49389661e-08  5.33913985e-03  1.49389661e-08  7.18029709e-01                                 
 2.14063346e-08  7.52735303e-01  2.14063346e-08  7.11856956e-01  2.14063346e-08  1.74978350e+00  2.14063346e-08  1.80000000e+00  2.14063346e-08 -5.30585349e-03  2.14063346e-08  7.11856956e-01                                 
 2.54376187e-08  7.49468711e-01  2.54376187e-08  7.08710905e-01  2.54376187e-08  1.74448515e+00  2.54376187e-08  1.80000000e+00  2.54376187e-08  5.30534988e-03  2.54376187e-08  7.08710905e-01                                 
 2.71924919e-08  7.48168871e-01  2.71924919e-08  7.07456686e-01  2.71924919e-08  1.74180144e+00  2.71924919e-08  1.80000000e+00  2.71924919e-08 -5.24130549e-03  2.71924919e-08  7.07456686e-01                                 
 3.00972771e-08  7.46122842e-01  3.00972771e-08  7.05484925e-01  3.00972771e-08  1.73751258e+00  3.00972771e-08  1.80000000e+00  3.00972771e-08  5.23238479e-03  3.00972771e-08  7.05484925e-01                                 
 3.35157776e-08  7.43804515e-01  3.35157776e-08  7.03264723e-01  3.35157776e-08  1.73189851e+00  3.35157776e-08  1.80000000e+00  3.35157776e-08 -5.19129916e-03  3.35157776e-08  7.03264723e-01                                 
 3.95898218e-08  7.39362612e-01  3.95898218e-08  6.99128883e-01  3.95898218e-08  1.72193078e+00  3.95898218e-08  1.80000000e+00  3.95898218e-08  5.19620598e-03  3.95898218e-08  6.99128883e-01                                 
 4.59036287e-08  7.34791907e-01  4.59036287e-08  6.94939825e-01  4.59036287e-08  1.71067674e+00  4.59036287e-08  1.80000000e+00  4.59036287e-08 -5.16629344e-03  4.59036287e-08  6.94939825e-01                                 
 5.85312425e-08  7.27878300e-01  5.85312425e-08  6.88492370e-01  5.85312425e-08  1.68668284e+00  5.85312425e-08  1.80000000e+00  5.85312425e-08  5.17792816e-03  5.85312425e-08  6.88492370e-01                                 
 7.44941951e-08  7.20356666e-01  7.44941951e-08  6.81542913e-01  7.44941951e-08  1.65698575e+00  7.44941951e-08  1.80000000e+00  7.44941951e-08 -5.15508384e-03  7.44941951e-08  6.81542913e-01                                 
 1.01257703e-07  7.10332368e-01  1.01257703e-07  6.72315444e-01  1.01257703e-07  1.61157078e+00  1.01257703e-07  1.80000000e+00  1.01257703e-07  5.17052317e-03  1.01257703e-07  6.72315444e-01                                 
 1.25824704e-07  7.10598909e-01  1.25824704e-07  6.71592105e-01  1.25824704e-07  1.60225422e+00  1.25824704e-07  1.80000000e+00  1.25824704e-07 -5.14723384e-03  1.25824704e-07  6.71592105e-01                                 
 1.54599905e-07  7.14398153e-01  1.54599905e-07  6.73669709e-01  1.54599905e-07  1.58843477e+00  1.54599905e-07  1.80000000e+00  1.54599905e-07  5.16477801e-03  1.54599905e-07  6.73669709e-01                                 
 1.75012094e-07  7.11882561e-01  1.75012094e-07  6.71102013e-01  1.75012094e-07  1.56518430e+00  1.75012094e-07  1.80000000e+00  1.75012094e-07 -5.14181086e-03  1.75012094e-07  6.71102013e-01                                 
 1.97005749e-07  7.07996007e-01  1.97005749e-07  6.67467782e-01  1.97005749e-07  1.54132372e+00  1.97005749e-07  1.80000000e+00  1.97005749e-07  5.15747338e-03  1.97005749e-07  6.67467782e-01                                 
 2.22834703e-07  7.03796969e-01  2.22834703e-07  6.63557328e-01  2.22834703e-07  1.51172964e+00  2.22834703e-07  1.80000000e+00  2.22834703e-07 -5.13541660e-03  2.22834703e-07  6.63557328e-01                                 
 2.71459725e-07  6.96220193e-01  2.71459725e-07  6.56609714e-01  2.71459725e-07  1.45823330e+00  2.71459725e-07  1.80000000e+00  2.71459725e-07  5.15292922e-03  2.71459725e-07  6.56609714e-01                                 
 3.29918224e-07  6.88396910e-01  3.29918224e-07  6.49481406e-01  3.29918224e-07  1.39320339e+00  3.29918224e-07  1.80000000e+00  3.29918224e-07 -5.13244709e-03  3.29918224e-07  6.49481406e-01                                 
 4.46835222e-07  6.74441587e-01  4.46835222e-07  6.37003583e-01  4.46835222e-07  1.26614147e+00  4.46835222e-07  1.80000000e+00  4.46835222e-07  5.15102864e-03  4.46835222e-07  6.37003583e-01                                 
 6.55599584e-07  6.56227117e-01  6.55599584e-07  6.20885712e-01  6.55599584e-07  1.02578303e+00  6.55599584e-07  1.80000000e+00  6.55599584e-07 -5.13147192e-03  6.55599584e-07  6.20885712e-01                                 
 9.01304189e-07  6.30815804e-01  9.01304189e-07  5.99554748e-01  9.01304189e-07  8.12954593e-01  9.01304189e-07  1.80000000e+00  9.01304189e-07  5.15077993e-03  9.01304189e-07  5.99554748e-01                                 
 1.14281994e-06  6.11352338e-01  1.14281994e-06  5.83450473e-01  1.14281994e-06  6.65586729e-01  1.14281994e-06  1.80000000e+00  1.14281994e-06 -5.13055682e-03  1.14281994e-06  5.83450473e-01                                 
 1.44767675e-06  5.90635884e-01  1.44767675e-06  5.66481889e-01  1.44767675e-06  5.86486679e-01  1.44767675e-06  1.80000000e+00  1.44767675e-06  5.15045781e-03  1.44767675e-06  5.66481889e-01                                 
 1.47625577e-06  5.88966647e-01  1.47625577e-06  5.65120414e-01  1.47625577e-06  5.82757523e-01  1.47625577e-06  1.80000000e+00  1.47625577e-06  5.60293023e-07  1.47625577e-06  5.65120414e-01                                 
 1.53341382e-06  5.85732501e-01  1.53341382e-06  5.62482939e-01  1.53341382e-06  5.76088257e-01  1.53341382e-06  1.80000000e+00  1.53341382e-06 -6.79953445e-07  1.53341382e-06  5.62482939e-01                                 
 1.64772992e-06  5.80276370e-01  1.64772992e-06  5.58028600e-01  1.64772992e-06  5.66586527e-01  1.64772992e-06  1.80000000e+00  1.64772992e-06  5.86056584e-07  1.64772992e-06  5.58028600e-01                                 
 1.81962635e-06  5.77222214e-01  1.81962635e-06  5.55472146e-01  1.81962635e-06  5.60925417e-01  1.81962635e-06  1.80000000e+00  1.81962635e-06 -6.13966259e-07  1.81962635e-06  5.55472146e-01                                 
 1.84390106e-06  5.77655204e-01  1.84390106e-06  5.55804520e-01  1.84390106e-06  5.61100572e-01  1.84390106e-06  1.80000000e+00  1.84390106e-06  2.05398566e-08  1.84390106e-06  5.55804520e-01                                 
 1.89245049e-06  5.79229873e-01  1.89245049e-06  5.57037072e-01  1.89245049e-06  5.62144322e-01  1.89245049e-06  1.80000000e+00  1.89245049e-06  4.83140931e-08  1.89245049e-06  5.57037072e-01                                 
 1.98954934e-06  5.89719136e-01  1.98954934e-06  5.65378457e-01  1.98954934e-06  5.71134470e-01  1.98954934e-06  1.80000000e+00  1.98954934e-06  1.63106902e-07  1.98954934e-06  5.65378457e-01                                 
 2.01382405e-06  5.95243011e-01  2.01382405e-06  5.69785751e-01  2.01382405e-06  5.76052028e-01  2.01382405e-06  1.80000000e+00  2.01382405e-06  2.19003996e-07  2.01382405e-06  5.69785751e-01                                 
 2.06237348e-06  6.11095647e-01  2.06237348e-06  5.82443713e-01  2.06237348e-06  5.90223998e-01  2.06237348e-06  1.80000000e+00  2.06237348e-06  4.10088502e-07  2.06237348e-06  5.82443713e-01                                 
 2.13473454e-06  7.08576544e-01  2.13473454e-06  6.60996610e-01  2.13473454e-06  6.77495917e-01  2.13473454e-06  1.80000000e+00  2.13473454e-06  2.31268770e-06  2.13473454e-06  6.60996610e-01                                 
 2.14550271e-06  7.40732244e-01  2.14550271e-06  6.88115414e-01  2.14550271e-06  7.06002962e-01  2.14550271e-06  1.80000000e+00  2.14550271e-06  3.35684080e-06  2.14550271e-06  6.88115414e-01                                 
 2.16703903e-06  7.97474159e-01  2.16703903e-06  7.47436501e-01  2.16703903e-06  7.55040733e-01  2.16703903e-06  1.80000000e+00  2.16703903e-06  4.01474025e-06  2.16703903e-06  7.47436501e-01                                 
 2.21011169e-06  8.55896791e-01  2.21011169e-06  8.09917266e-01  2.21011169e-06  7.95802074e-01  2.21011169e-06  1.80000000e+00  2.21011169e-06  2.03953839e-07  2.21011169e-06  8.09917266e-01                                 
 2.25045775e-06  9.06582226e-01  2.25045775e-06  8.53075354e-01  2.25045775e-06  8.17359929e-01  2.25045775e-06  1.80000000e+00  2.25045775e-06  3.20879376e-06  2.25045775e-06  8.53075354e-01                                 
 2.29366489e-06  9.56349861e-01  2.29366489e-06  8.85173332e-01  2.29366489e-06  8.68537423e-01  2.29366489e-06  1.80000000e+00  2.29366489e-06  2.44485644e-07  2.29366489e-06  8.85173332e-01                                 
 2.32363008e-06  9.59640030e-01  2.32363008e-06  8.87269906e-01  2.32363008e-06  8.86268188e-01  2.32363008e-06  1.80000000e+00  2.32363008e-06  5.61172565e-07  2.32363008e-06  8.87269906e-01                                 
 2.35710522e-06  9.55681141e-01  2.35710522e-06  8.84890218e-01  2.35710522e-06  8.62032484e-01  2.35710522e-06  1.80000000e+00  2.35710522e-06 -1.57472494e-06  2.35710522e-06  8.84890218e-01                                 
 2.40001435e-06  9.58576324e-01  2.40001435e-06  8.86626481e-01  2.40001435e-06  8.85659629e-01  2.40001435e-06  1.80000000e+00  2.40001435e-06  2.31397409e-06  2.40001435e-06  8.86626481e-01                                 
 2.44101929e-06  9.55246411e-01  2.44101929e-06  8.84700986e-01  2.44101929e-06  8.69122374e-01  2.44101929e-06  1.80000000e+00  2.44101929e-06 -2.91857465e-06  2.44101929e-06  8.84700986e-01                                 
 2.49482831e-06  9.57018123e-01  2.49482831e-06  8.85733984e-01  2.49482831e-06  8.80010443e-01  2.49482831e-06  1.80000000e+00  2.49482831e-06  3.20893365e-06  2.49482831e-06  8.85733984e-01                                 
 2.55523902e-06  9.54375478e-01  2.55523902e-06  8.84240211e-01  2.55523902e-06  8.75348114e-01  2.55523902e-06  1.80000000e+00  2.55523902e-06 -3.37422433e-06  2.55523902e-06  8.84240211e-01                                 
 2.63223815e-06  9.55207499e-01  2.63223815e-06  8.84713300e-01  2.63223815e-06  8.77288700e-01  2.63223815e-06  1.80000000e+00  2.63223815e-06  3.42586713e-06  2.63223815e-06  8.84713300e-01                                 
 2.73187644e-06  9.52691659e-01  2.73187644e-06  8.83304406e-01  2.73187644e-06  8.79066909e-01  2.73187644e-06  1.80000000e+00  2.73187644e-06 -3.44568996e-06  2.73187644e-06  8.83304406e-01                                 
 2.86301061e-06  9.52531443e-01  2.86301061e-06  8.83202637e-01  2.86301061e-06  8.76321702e-01  2.86301061e-06  1.80000000e+00  2.86301061e-06  3.42643138e-06  2.86301061e-06  8.83202637e-01                                 
 3.04201412e-06  9.49349721e-01  3.04201412e-06  8.81401139e-01  3.04201412e-06  8.80299465e-01  3.04201412e-06  1.80000000e+00  3.04201412e-06 -3.42464493e-06  3.04201412e-06  8.81401139e-01                                 
 3.29095017e-06  9.47444231e-01  3.29095017e-06  8.80273857e-01  3.29095017e-06  8.74579269e-01  3.29095017e-06  1.80000000e+00  3.29095017e-06  3.39454326e-06  3.29095017e-06  8.80273857e-01                                 
 3.63547818e-06  9.41650815e-01  3.63547818e-06  8.76859512e-01  3.63547818e-06  8.77295257e-01  3.63547818e-06  1.80000000e+00  3.63547818e-06 -3.40557303e-06  3.63547818e-06  8.76859512e-01                                 
 4.11788523e-06  9.33215483e-01  4.11788523e-06  8.71595451e-01  4.11788523e-06  8.66553014e-01  4.11788523e-06  1.80000000e+00  4.11788523e-06  3.35954969e-06  4.11788523e-06  8.71595451e-01                                 
 4.20757573e-06  9.30263784e-01  4.20757573e-06  8.69721388e-01  4.20757573e-06  8.67412649e-01  4.20757573e-06  1.80000000e+00  4.20757573e-06 -2.01572999e-08  4.20757573e-06  8.69721388e-01                                 
 4.38695672e-06  9.24302131e-01  4.38695672e-06  8.65788728e-01  4.38695672e-06  8.62989481e-01  4.38695672e-06  1.80000000e+00  4.38695672e-06 -5.91056774e-08  4.38695672e-06  8.65788728e-01                                 
 4.74571872e-06  8.99314979e-01  4.74571872e-06  8.47661821e-01  4.74571872e-06  8.44559059e-01  4.74571872e-06  1.80000000e+00  4.74571872e-06 -1.25295523e-07  4.74571872e-06  8.47661821e-01                                 
 5.03690626e-06  8.75126893e-01  5.03690626e-06  8.27445630e-01  5.03690626e-06  8.25922538e-01  5.03690626e-06  1.80000000e+00  5.03690626e-06 -1.12551249e-07  5.03690626e-06  8.27445630e-01                                 
 5.35575762e-06  8.67067604e-01  5.35575762e-06  8.20212404e-01  5.35575762e-06  8.20182548e-01  5.35575762e-06  1.80000000e+00  5.35575762e-06  4.78498029e-08  5.35575762e-06  8.20212404e-01                                 
 5.69987986e-06  8.68735345e-01  5.69987986e-06  8.21714126e-01  5.69987986e-06  8.21623890e-01  5.69987986e-06  1.80000000e+00  5.69987986e-06 -2.07775430e-08  5.69987986e-06  8.21714126e-01                                 
 6.12344042e-06  8.68209073e-01  6.12344042e-06  8.21251984e-01  6.12344042e-06  8.21213447e-01  6.12344042e-06  1.80000000e+00  6.12344042e-06  2.92465995e-08  6.12344042e-06  8.21251984e-01                                 
 6.80893293e-06  8.68369392e-01  6.80893293e-06  8.21382321e-01  6.80893293e-06  8.21298030e-01  6.80893293e-06  1.80000000e+00  6.80893293e-06 -1.65401506e-08  6.80893293e-06  8.21382321e-01                                 
 7.80893293e-06  8.68338237e-01  7.80893293e-06  8.21369154e-01  7.80893293e-06  8.21327880e-01  7.80893293e-06  1.80000000e+00  7.80893293e-06  2.86626424e-08  7.80893293e-06  8.21369154e-01                                 
 8.80893293e-06  8.68308774e-01  8.80893293e-06  8.21326816e-01  8.80893293e-06  8.21242902e-01  8.80893293e-06  1.80000000e+00  8.80893293e-06 -1.67337499e-08  8.80893293e-06  8.21326816e-01                                 
 9.80893293e-06  8.68373268e-01  9.80893293e-06  8.21401157e-01  9.80893293e-06  8.21357709e-01  9.80893293e-06  1.80000000e+00  9.80893293e-06  2.91606110e-08  9.80893293e-06  8.21401157e-01                                 
 1.00005000e-05  8.68253291e-01  1.00005000e-05  8.21276678e-01  1.00005000e-05  8.21199612e-01  1.00005000e-05  1.80000000e+00  1.00005000e-05 -1.94924892e-08  1.00005000e-05  8.21276678e-01                                 
 1.00005500e-05  8.68255900e-01  1.00005500e-05  8.21279752e-01  1.00005500e-05  8.14711290e-01  1.00005500e-05  1.62000000e+00  1.00005500e-05 -8.42618042e-05  1.00005500e-05  8.21279752e-01                                 
