 time            v(vbep)         time            v(vben)         time            v(vout)         time            v(vphi1)        time            v(vphi2)        time            v(vref)         time            v(voutc)        time            v(voutcc)       yes             currtemp       
 0.00000000e+00  8.62799569e-01  0.00000000e+00  8.17153714e-01  0.00000000e+00  1.77699725e+00  0.00000000e+00  0.00000000e+00  0.00000000e+00  1.80000000e+00  0.00000000e+00  8.21323680e-01  0.00000000e+00  1.77699724e+00  0.00000000e+00  1.78117454e+00  1.00000000e+00 -3.40000000e+01 
 1.00000000e-11  8.62819359e-01  1.00000000e-11  8.17214497e-01  1.00000000e-11  1.77784989e+00  1.00000000e-11  1.80000000e-02  1.00000000e-11  1.80024005e+00  1.00000000e-11  8.21832159e-01  1.00000000e-11  1.77744925e+00  1.00000000e-11  1.78118890e+00                                 
 2.00000000e-11  8.62825102e-01  2.00000000e-11  8.17253305e-01  2.00000000e-11  1.77846136e+00  2.00000000e-11  3.60000000e-02  2.00000000e-11  1.80034472e+00  2.00000000e-11  8.22222692e-01  2.00000000e-11  1.77781312e+00  2.00000000e-11  1.78119673e+00                                 
 4.00000000e-11  8.62825393e-01  4.00000000e-11  8.17304748e-01  4.00000000e-11  1.77933281e+00  4.00000000e-11  7.20000000e-02  4.00000000e-11  1.80040185e+00  4.00000000e-11  8.22811134e-01  4.00000000e-11  1.77839353e+00  4.00000000e-11  1.78120412e+00                                 
 8.00000000e-11  8.62815451e-01  8.00000000e-11  8.17336554e-01  8.00000000e-11  1.77992605e+00  8.00000000e-11  1.44000000e-01  8.00000000e-11  1.80022455e+00  8.00000000e-11  8.23320100e-01  8.00000000e-11  1.77902156e+00  8.00000000e-11  1.78119797e+00                                 
 1.60000000e-10  8.62812145e-01  1.60000000e-10  8.17336273e-01  1.60000000e-10  1.77990680e+00  1.60000000e-10  2.88000000e-01  1.60000000e-10  1.80003118e+00  1.60000000e-10  8.23436507e-01  1.60000000e-10  1.77942602e+00  1.60000000e-10  1.78118302e+00                                 
 3.20000000e-10  8.62810309e-01  3.20000000e-10  8.17332256e-01  3.20000000e-10  1.77968552e+00  3.20000000e-10  5.76000000e-01  3.20000000e-10  1.80003483e+00  3.20000000e-10  8.23414711e-01  3.20000000e-10  1.77964242e+00  3.20000000e-10  1.78117895e+00                                 
 6.40000000e-10  8.62745016e-01  6.40000000e-10  8.17159091e-01  6.40000000e-10  1.76983028e+00  6.40000000e-10  1.15200000e+00  6.40000000e-10  1.81349516e+00  6.40000000e-10  8.23314057e-01  6.40000000e-10  1.78296987e+00  6.40000000e-10  1.78120100e+00                                 
 9.88481455e-10  8.63064799e-01  9.88481455e-10  8.17113341e-01  9.88481455e-10  1.73465261e+00  9.88481455e-10  1.77926662e+00  9.88481455e-10  7.05161572e-02  9.88481455e-10  8.20715958e-01  9.88481455e-10  1.76749445e+00  9.88481455e-10  1.78104508e+00                                 
 1.00000000e-09  8.63094665e-01  1.00000000e-09  8.17207588e-01  1.00000000e-09  1.73425974e+00  1.00000000e-09  1.80000000e+00  1.00000000e-09  1.36653857e-02  1.00000000e-09  8.21965428e-01  1.00000000e-09  1.76780653e+00  1.00000000e-09  1.78109130e+00                                 
 1.02303709e-09  8.63111137e-01  1.02303709e-09  8.17240275e-01  1.02303709e-09  1.73396538e+00  1.02303709e-09  1.80000000e+00  1.02303709e-09  4.50156615e-03  1.02303709e-09  8.23563356e-01  1.02303709e-09  1.76912839e+00  1.02303709e-09  1.78114726e+00                                 
 1.06911127e-09  8.63223899e-01  1.06911127e-09  8.17265363e-01  1.06911127e-09  1.73211303e+00  1.06911127e-09  1.80000000e+00  1.06911127e-09 -5.39420966e-04  1.06911127e-09  8.25071341e-01  1.06911127e-09  1.77044380e+00  1.06911127e-09  1.78118120e+00                                 
 1.15028538e-09  8.63440638e-01  1.15028538e-09  8.17206915e-01  1.15028538e-09  1.72594494e+00  1.15028538e-09  1.80000000e+00  1.15028538e-09  1.35457610e-03  1.15028538e-09  8.24914131e-01  1.15028538e-09  1.77034664e+00  1.15028538e-09  1.78115037e+00                                 
 1.31263361e-09  8.63607756e-01  1.31263361e-09  8.17158375e-01  1.31263361e-09  1.71674314e+00  1.31263361e-09  1.80000000e+00  1.31263361e-09 -6.13092820e-04  1.31263361e-09  8.25454681e-01  1.31263361e-09  1.77076173e+00  1.31263361e-09  1.78117282e+00                                 
 1.50892464e-09  8.63592681e-01  1.50892464e-09  8.17152381e-01  1.50892464e-09  1.71386969e+00  1.50892464e-09  1.80000000e+00  1.50892464e-09  6.65000711e-04  1.50892464e-09  8.25800053e-01  1.50892464e-09  1.77106860e+00  1.50892464e-09  1.78117044e+00                                 
 1.75667699e-09  8.63438257e-01  1.75667699e-09  8.17136943e-01  1.75667699e-09  1.71550110e+00  1.75667699e-09  1.80000000e+00  1.75667699e-09 -6.08748212e-04  1.75667699e-09  8.25757787e-01  1.75667699e-09  1.77101007e+00  1.75667699e-09  1.78117760e+00                                 
 2.00108786e-09  8.63289629e-01  2.00108786e-09  8.17142444e-01  2.00108786e-09  1.71824206e+00  2.00108786e-09  1.80000000e+00  2.00108786e-09  4.93273753e-04  2.00108786e-09  8.25684922e-01  2.00108786e-09  1.77096488e+00  2.00108786e-09  1.78117924e+00                                 
 2.40454346e-09  8.63068036e-01  2.40454346e-09  8.17136157e-01  2.40454346e-09  1.72267506e+00  2.40454346e-09  1.80000000e+00  2.40454346e-09 -5.12783633e-04  2.40454346e-09  8.25385714e-01  2.40454346e-09  1.77069617e+00  2.40454346e-09  1.78118109e+00                                 
 3.08534682e-09  8.62834530e-01  3.08534682e-09  8.17141808e-01  3.08534682e-09  1.72943372e+00  3.08534682e-09  1.80000000e+00  3.08534682e-09  4.41615085e-04  3.08534682e-09  8.24987670e-01  3.08534682e-09  1.77037558e+00  3.08534682e-09  1.78117971e+00                                 
 4.44695355e-09  8.62653138e-01  4.44695355e-09  8.17138496e-01  4.44695355e-09  1.74006292e+00  4.44695355e-09  1.80000000e+00  4.44695355e-09 -4.79007451e-04  4.44695355e-09  8.24146402e-01  4.44695355e-09  1.76965372e+00  4.44695355e-09  1.78116367e+00                                 
 7.17016701e-09  8.62689858e-01  7.17016701e-09  8.17148285e-01  7.17016701e-09  1.75306451e+00  7.17016701e-09  1.80000000e+00  7.17016701e-09  4.35969878e-04  7.17016701e-09  8.22945936e-01  7.17016701e-09  1.76866049e+00  7.17016701e-09  1.78110594e+00                                 
 1.01955420e-08  8.62755643e-01  1.01955420e-08  8.17147626e-01  1.01955420e-08  1.75915138e+00  1.01955420e-08  1.80000000e+00  1.01955420e-08 -4.60748193e-04  1.01955420e-08  8.22044938e-01  1.01955420e-08  1.76789067e+00  1.01955420e-08  1.78101182e+00                                 
 1.41782829e-08  8.62778999e-01  1.41782829e-08  8.17154770e-01  1.41782829e-08  1.76140997e+00  1.41782829e-08  1.80000000e+00  1.41782829e-08  4.35659350e-04  1.41782829e-08  8.21483470e-01  1.41782829e-08  1.76743251e+00  1.41782829e-08  1.78086233e+00                                 
 1.78200038e-08  8.62784631e-01  1.78200038e-08  8.17150833e-01  1.78200038e-08  1.76112974e+00  1.78200038e-08  1.80000000e+00  1.78200038e-08 -4.49765684e-04  1.78200038e-08  8.21192010e-01  1.78200038e-08  1.76717049e+00  1.78200038e-08  1.78070926e+00                                 
 2.27588275e-08  8.62791242e-01  2.27588275e-08  8.17155897e-01  2.27588275e-08  1.76035564e+00  2.27588275e-08  1.80000000e+00  2.27588275e-08  4.33972022e-04  2.27588275e-08  8.21091743e-01  2.27588275e-08  1.76709249e+00  2.27588275e-08  1.78049586e+00                                 
 2.84291677e-08  8.62787136e-01  2.84291677e-08  8.17151452e-01  2.84291677e-08  1.75968793e+00  2.84291677e-08  1.80000000e+00  2.84291677e-08 -4.40117324e-04  2.84291677e-08  8.21013736e-01  2.84291677e-08  1.76700182e+00  2.84291677e-08  1.78024753e+00                                 
 3.71293954e-08  8.62796104e-01  3.71293954e-08  8.17156075e-01  3.71293954e-08  1.75792161e+00  3.71293954e-08  1.80000000e+00  3.71293954e-08  4.35343082e-04  3.71293954e-08  8.21064793e-01  3.71293954e-08  1.76703986e+00  3.71293954e-08  1.77987528e+00                                 
 4.84419583e-08  8.62799333e-01  4.84419583e-08  8.17151490e-01  4.84419583e-08  1.75220995e+00  4.84419583e-08  1.80000000e+00  4.84419583e-08 -4.35588138e-04  4.84419583e-08  8.21063680e-01  4.84419583e-08  1.76700254e+00  4.84419583e-08  1.77940523e+00                                 
 6.87449754e-08  8.62801812e-01  6.87449754e-08  8.17156046e-01  6.87449754e-08  1.73927838e+00  6.87449754e-08  1.80000000e+00  6.87449754e-08  4.34139162e-04  6.87449754e-08  8.21161318e-01  6.87449754e-08  1.76706417e+00  6.87449754e-08  1.77861115e+00                                 
 9.61105459e-08  8.62799184e-01  9.61105459e-08  8.17151461e-01  9.61105459e-08  1.71917272e+00  9.61105459e-08  1.80000000e+00  9.61105459e-08 -4.34725664e-04  9.61105459e-08  8.21179255e-01  9.61105459e-08  1.76702985e+00  9.61105459e-08  1.77763478e+00                                 
 1.50841687e-07  8.62800882e-01  1.50841687e-07  8.17156005e-01  1.50841687e-07  1.67263221e+00  1.50841687e-07  1.80000000e+00  1.50841687e-07  4.33305186e-04  1.50841687e-07  8.21285882e-01  1.50841687e-07  1.76708268e+00  1.50841687e-07  1.77599838e+00                                 
 2.60303969e-07  8.62798565e-01  2.60303969e-07  8.17151436e-01  2.60303969e-07  1.56774447e+00  2.60303969e-07  1.80000000e+00  2.60303969e-07 -4.34567809e-04  2.60303969e-07  8.21295571e-01  2.60303969e-07  1.76701812e+00  2.60303969e-07  1.77376073e+00                                 
 4.79228533e-07  8.62800617e-01  4.79228533e-07  8.17155993e-01  4.79228533e-07  1.35709438e+00  4.79228533e-07  1.80000000e+00  4.79228533e-07  4.33161358e-04  4.79228533e-07  8.21344840e-01  4.79228533e-07  1.76702084e+00  4.79228533e-07  1.77179145e+00                                 
 8.74872026e-07  8.62798515e-01  8.74872026e-07  8.17151436e-01  8.74872026e-07  9.94709087e-01  8.74872026e-07  1.80000000e+00  8.74872026e-07 -4.34316012e-04  8.74872026e-07  8.21303336e-01  8.74872026e-07  1.76694139e+00  8.74872026e-07  1.77118590e+00                                 
 9.40158103e-07  8.62799564e-01  9.40158103e-07  8.17153713e-01  9.40158103e-07  9.40120978e-01  9.40158103e-07  1.80000000e+00  9.40158103e-07 -5.53542027e-07  9.40158103e-07  8.21322923e-01  9.40158103e-07  1.76696200e+00  9.40158103e-07  1.77119669e+00                                 
 1.07073026e-06  8.62799620e-01  1.07073026e-06  8.17153717e-01  1.07073026e-06  8.58597375e-01  1.07073026e-06  1.80000000e+00  1.07073026e-06 -9.82480772e-08  1.07073026e-06  8.21323541e-01  1.07073026e-06  1.76695695e+00  1.07073026e-06  1.77120999e+00                                 
 1.22513844e-06  8.62799537e-01  1.22513844e-06  8.17153715e-01  1.22513844e-06  8.26275348e-01  1.22513844e-06  1.80000000e+00  1.22513844e-06 -7.57416393e-08  1.22513844e-06  8.21324595e-01  1.22513844e-06  1.76695103e+00  1.22513844e-06  1.77121277e+00                                 
 1.30230974e-06  8.62799509e-01  1.30230974e-06  8.17153704e-01  1.30230974e-06  8.25843052e-01  1.30230974e-06  1.80000000e+00  1.30230974e-06  7.33358414e-08  1.30230974e-06  8.21323319e-01  1.30230974e-06  1.76694652e+00  1.30230974e-06  1.77121138e+00                                 
 1.37730667e-06  8.62799642e-01  1.37730667e-06  8.17153729e-01  1.37730667e-06  8.25599450e-01  1.37730667e-06  1.80000000e+00  1.37730667e-06 -6.12021329e-08  1.37730667e-06  8.21324110e-01  1.37730667e-06  1.76694383e+00  1.37730667e-06  1.77120916e+00                                 
 1.46379392e-06  8.62799479e-01  1.46379392e-06  8.17153695e-01  1.46379392e-06  8.25591273e-01  1.46379392e-06  1.80000000e+00  1.46379392e-06  6.85188938e-08  1.46379392e-06  8.21323340e-01  1.46379392e-06  1.76693930e+00  1.46379392e-06  1.77120612e+00                                 
 1.63676841e-06  8.62799661e-01  1.63676841e-06  8.17153734e-01  1.63676841e-06  8.25531810e-01  1.63676841e-06  1.80000000e+00  1.63676841e-06 -5.74463684e-08  1.63676841e-06  8.21324012e-01  1.63676841e-06  1.76693210e+00  1.63676841e-06  1.77119914e+00                                 
 1.87263715e-06  8.62799475e-01  1.87263715e-06  8.17153693e-01  1.87263715e-06  8.25565113e-01  1.87263715e-06  1.80000000e+00  1.87263715e-06  6.72836773e-08  1.87263715e-06  8.21323359e-01  1.87263715e-06  1.76692093e+00  1.87263715e-06  1.77118888e+00                                 
 2.33951209e-06  8.62799663e-01  2.33951209e-06  8.17153735e-01  2.33951209e-06  8.25536727e-01  2.33951209e-06  1.80000000e+00  2.33951209e-06 -5.66847697e-08  2.33951209e-06  8.21323996e-01  2.33951209e-06  1.76690039e+00  2.33951209e-06  1.77116802e+00                                 
 3.12348935e-06  8.62799474e-01  3.12348935e-06  8.17153692e-01  3.12348935e-06  8.25563241e-01  3.12348935e-06  1.80000000e+00  3.12348935e-06  6.69060756e-08  3.12348935e-06  8.21323367e-01  3.12348935e-06  1.76686448e+00  3.12348935e-06  1.77113286e+00                                 
 4.32348935e-06  8.62799664e-01  4.32348935e-06  8.17153736e-01  4.32348935e-06  8.25538404e-01  4.32348935e-06  1.80000000e+00  4.32348935e-06 -5.64612987e-08  4.32348935e-06  8.21323991e-01  4.32348935e-06  1.76681093e+00  4.32348935e-06  1.77107912e+00                                 
 5.52348935e-06  8.62799474e-01  5.52348935e-06  8.17153691e-01  5.52348935e-06  8.25563405e-01  5.52348935e-06  1.80000000e+00  5.52348935e-06  6.67359646e-08  5.52348935e-06  8.21323371e-01  5.52348935e-06  1.76675631e+00  5.52348935e-06  1.77102539e+00                                 
 6.00100000e-06  8.62799664e-01  6.00100000e-06  8.17153737e-01  6.00100000e-06  8.25540490e-01  6.00100000e-06  1.80000000e+00  6.00100000e-06 -5.61752834e-08  6.00100000e-06  8.21323986e-01  6.00100000e-06  1.76673527e+00  6.00100000e-06  1.77100398e+00                                 
 6.00110000e-06  8.62771917e-01  6.00110000e-06  8.16948340e-01  6.00110000e-06  8.23381028e-01  6.00110000e-06  1.62000000e+00  6.00110000e-06 -9.02619275e-05  6.00110000e-06  8.19353147e-01  6.00110000e-06  1.76507912e+00  6.00110000e-06  1.77098603e+00                                 
 6.00130000e-06  8.62798478e-01  6.00130000e-06  8.17020587e-01  6.00130000e-06  8.24247185e-01  6.00130000e-06  1.26000000e+00  6.00130000e-06  5.27408422e-05  6.00130000e-06  8.19799079e-01  6.00130000e-06  1.76545704e+00  6.00130000e-06  1.77101369e+00                                 
 6.00170000e-06  8.62820538e-01  6.00170000e-06  8.17099250e-01  6.00170000e-06  8.25531628e-01  6.00170000e-06  5.40000000e-01  6.00170000e-06 -2.81346709e-03  6.00170000e-06  8.19641614e-01  6.00170000e-06  1.76184864e+00  6.00170000e-06  1.77097217e+00                                 
 6.00200000e-06  8.62798843e-01  6.00200000e-06  8.14620681e-01  6.00200000e-06  8.77961922e-01  6.00200000e-06  0.00000000e+00  6.00200000e-06  1.57145485e+00  6.00200000e-06  7.84229326e-01  6.00200000e-06  1.54995705e+00  6.00200000e-06  1.76989789e+00                                 
 6.00205229e-06  8.62804173e-01  6.00205229e-06  8.14571275e-01  6.00205229e-06  8.77370656e-01  6.00205229e-06  0.00000000e+00  6.00205229e-06  1.72805870e+00  6.00205229e-06  7.82892000e-01  6.00205229e-06  1.48925504e+00  6.00205229e-06  1.77024157e+00                                 
 6.00215686e-06  8.62797790e-01  6.00215686e-06  8.14963597e-01  6.00215686e-06  8.65403854e-01  6.00215686e-06  0.00000000e+00  6.00215686e-06  1.82206702e+00  6.00215686e-06  7.87525987e-01  6.00215686e-06  1.38161171e+00  6.00215686e-06  1.77086128e+00                                 
 6.00232280e-06  8.62798177e-01  6.00232280e-06  8.15917039e-01  6.00232280e-06  8.48647489e-01  6.00232280e-06  0.00000000e+00  6.00232280e-06  1.78597628e+00  6.00232280e-06  8.00052556e-01  6.00232280e-06  1.26468414e+00  6.00232280e-06  1.77098349e+00                                 
 6.00250316e-06  8.62799454e-01  6.00250316e-06  8.16244966e-01  6.00250316e-06  8.45763305e-01  6.00250316e-06  0.00000000e+00  6.00250316e-06  1.80712077e+00  6.00250316e-06  8.04056266e-01  6.00250316e-06  1.18140306e+00  6.00250316e-06  1.77102420e+00                                 
 6.00277336e-06  8.62797531e-01  6.00277336e-06  8.16607751e-01  6.00277336e-06  8.38117124e-01  6.00277336e-06  0.00000000e+00  6.00277336e-06  1.79445467e+00  6.00277336e-06  8.08524095e-01  6.00277336e-06  1.09549456e+00  6.00277336e-06  1.77106877e+00                                 
 6.00306639e-06  8.62800026e-01  6.00306639e-06  8.16864524e-01  6.00306639e-06  8.36765040e-01  6.00306639e-06  0.00000000e+00  6.00306639e-06  1.80367569e+00  6.00306639e-06  8.11577335e-01  6.00306639e-06  1.03046805e+00  6.00306639e-06  1.77114400e+00                                 
 6.00364432e-06  8.62797839e-01  6.00364432e-06  8.17079038e-01  6.00364432e-06  8.32853237e-01  6.00364432e-06  0.00000000e+00  6.00364432e-06  1.79656572e+00  6.00364432e-06  8.13925678e-01  6.00364432e-06  9.28279273e-01  6.00364432e-06  1.77123348e+00                                 
 6.00418917e-06  8.62800532e-01  6.00418917e-06  8.17333689e-01  6.00418917e-06  8.30570878e-01  6.00418917e-06  0.00000000e+00  6.00418917e-06  1.80256349e+00  6.00418917e-06  8.17277853e-01  6.00418917e-06  8.66618802e-01  6.00418917e-06  1.77127096e+00                                 
 6.00527887e-06  8.62798207e-01  6.00527887e-06  8.17542066e-01  6.00527887e-06  8.25468046e-01  6.00527887e-06  0.00000000e+00  6.00527887e-06  1.79753470e+00  6.00527887e-06  8.20956814e-01  6.00527887e-06  8.23669798e-01  6.00527887e-06  1.77111945e+00                                 
 6.00605581e-06  8.62800788e-01  6.00605581e-06  8.17537326e-01  6.00605581e-06  8.25911859e-01  6.00605581e-06  0.00000000e+00  6.00605581e-06  1.80219295e+00  6.00605581e-06  8.21943006e-01  6.00605581e-06  8.26328758e-01  6.00605581e-06  1.77088985e+00                                 
 6.00701045e-06  8.62798315e-01  6.00701045e-06  8.17394929e-01  6.00701045e-06  8.25953683e-01  6.00701045e-06  0.00000000e+00  6.00701045e-06  1.79801213e+00  6.00701045e-06  8.21328856e-01  6.00701045e-06  8.25611217e-01  6.00701045e-06  1.77049985e+00                                 
 6.00799940e-06  8.62800817e-01  6.00799940e-06  8.17362574e-01  6.00799940e-06  8.26532852e-01  6.00799940e-06  0.00000000e+00  6.00799940e-06  1.80179826e+00  6.00799940e-06  8.21998919e-01  6.00799940e-06  8.26617418e-01  6.00799940e-06  1.77007230e+00                                 
 6.00997730e-06  8.62798338e-01  6.00997730e-06  8.17224633e-01  6.00997730e-06  8.27148078e-01  6.00997730e-06  0.00000000e+00  6.00997730e-06  1.79828643e+00  6.00997730e-06  8.21483926e-01  6.00997730e-06  8.26834940e-01  6.00997730e-06  1.76913137e+00                                 
 6.01393310e-06  8.62800805e-01  6.01393310e-06  8.17199145e-01  6.01393310e-06  8.29179099e-01  6.01393310e-06  0.00000000e+00  6.01393310e-06  1.80166990e+00  6.01393310e-06  8.22078728e-01  6.01393310e-06  8.29196039e-01  6.01393310e-06  1.76720440e+00                                 
 6.02184471e-06  8.62798335e-01  6.02184471e-06  8.17140792e-01  6.02184471e-06  8.33037606e-01  6.02184471e-06  0.00000000e+00  6.02184471e-06  1.79834935e+00  6.02184471e-06  8.21515868e-01  6.02184471e-06  8.32669959e-01  6.02184471e-06  1.76326883e+00                                 
 6.03766791e-06  8.62800801e-01  6.03766791e-06  8.17170348e-01  6.03766791e-06  8.41583372e-01  6.03766791e-06  0.00000000e+00  6.03766791e-06  1.80163924e+00  6.03766791e-06  8.21958624e-01  6.03766791e-06  8.41575987e-01  6.03766791e-06  1.75497714e+00                                 
 6.06931432e-06  8.62798337e-01  6.06931432e-06  8.17132847e-01  6.06931432e-06  8.57581095e-01  6.06931432e-06  0.00000000e+00  6.06931432e-06  1.79836451e+00  6.06931432e-06  8.21292264e-01  6.06931432e-06  8.57097971e-01  6.06931432e-06  1.73555285e+00                                 
