 time            v(vbep)         time            v(vben)         time            v(vout)         time            v(vphi1)        time            v(vphi2)        time            v(vref)         time            v(voutc)        time            v(voutcc)       yes             currtemp       
 0.00000000e+00  7.05846676e-01  0.00000000e+00  6.34865414e-01  0.00000000e+00  1.46341948e+00  0.00000000e+00  0.00000000e+00  0.00000000e+00  1.79999999e+00  0.00000000e+00  6.34925345e-01  0.00000000e+00  1.46341947e+00  0.00000000e+00  1.47134065e+00  1.00000000e+00  7.90000000e+01 
 5.00000000e-12  7.05868244e-01  5.00000000e-12  6.34920343e-01  5.00000000e-12  1.46402889e+00  5.00000000e-12  1.80000000e-02  5.00000000e-12  1.80018668e+00  5.00000000e-12  6.35314419e-01  5.00000000e-12  1.46376507e+00  5.00000000e-12  1.47135364e+00                                 
 1.00000000e-11  7.05877653e-01  1.00000000e-11  6.34956147e-01  1.00000000e-11  1.46446067e+00  1.00000000e-11  3.60000000e-02  1.00000000e-11  1.80027055e+00  1.00000000e-11  6.35619030e-01  1.00000000e-11  1.46403671e+00  1.00000000e-11  1.47136025e+00                                 
 2.00000000e-11  7.05883863e-01  2.00000000e-11  6.35005516e-01  2.00000000e-11  1.46507163e+00  2.00000000e-11  7.20000000e-02  2.00000000e-11  1.80032248e+00  2.00000000e-11  6.36094945e-01  2.00000000e-11  1.46446374e+00  2.00000000e-11  1.47136610e+00                                 
 4.00000000e-11  7.05871914e-01  4.00000000e-11  6.35040266e-01  4.00000000e-11  1.46544350e+00  4.00000000e-11  1.44000000e-01  4.00000000e-11  1.80018837e+00  4.00000000e-11  6.36550820e-01  4.00000000e-11  1.46488404e+00  4.00000000e-11  1.47135961e+00                                 
 8.00000000e-11  7.05858965e-01  8.00000000e-11  6.35045151e-01  8.00000000e-11  1.46528413e+00  8.00000000e-11  2.88000000e-01  8.00000000e-11  1.80003069e+00  8.00000000e-11  6.36699117e-01  8.00000000e-11  1.46504441e+00  8.00000000e-11  1.47134595e+00                                 
 1.60000000e-10  7.05858874e-01  1.60000000e-10  6.35030078e-01  1.60000000e-10  1.46478918e+00  1.60000000e-10  5.76000000e-01  1.60000000e-10  1.80000802e+00  1.60000000e-10  6.36514420e-01  1.60000000e-10  1.46489502e+00  1.60000000e-10  1.47134007e+00                                 
 3.20000000e-10  7.05791784e-01  3.20000000e-10  6.34585380e-01  3.20000000e-10  1.46136629e+00  3.20000000e-10  1.15200000e+00  3.20000000e-10  1.80071460e+00  3.20000000e-10  6.32690542e-01  3.20000000e-10  1.46177971e+00  3.20000000e-10  1.47131109e+00                                 
 5.00000000e-10  7.05825237e-01  5.00000000e-10  6.35120910e-01  5.00000000e-10  1.45973373e+00  5.00000000e-10  1.80000000e+00  5.00000000e-10  1.82277312e-01  5.00000000e-10  6.40816891e-01  5.00000000e-10  1.46896827e+00  5.00000000e-10  1.47141441e+00                                 
 5.21838932e-10  7.05831922e-01  5.21838932e-10  6.35137970e-01  5.21838932e-10  1.45898315e+00  5.21838932e-10  1.80000000e+00  5.21838932e-10  5.11232528e-02  5.21838932e-10  6.42589178e-01  5.21838932e-10  1.46994059e+00  5.21838932e-10  1.47139832e+00                                 
 5.65516797e-10  7.05932271e-01  5.65516797e-10  6.35186408e-01  5.65516797e-10  1.45823507e+00  5.65516797e-10  1.80000000e+00  5.65516797e-10 -1.72666636e-02  5.65516797e-10  6.45101449e-01  5.65516797e-10  1.47204916e+00  5.65516797e-10  1.47139136e+00                                 
 6.52872527e-10  7.06057856e-01  6.52872527e-10  6.35010723e-01  6.52872527e-10  1.45515781e+00  6.52872527e-10  1.80000000e+00  6.52872527e-10  1.31764498e-02  6.52872527e-10  6.45323388e-01  6.52872527e-10  1.47248475e+00  6.52872527e-10  1.47134106e+00                                 
 7.73501263e-10  7.06114500e-01  7.73501263e-10  6.34957455e-01  7.73501263e-10  1.45316953e+00  7.73501263e-10  1.80000000e+00  7.73501263e-10 -1.02565285e-02  7.73501263e-10  6.46772225e-01  7.73501263e-10  1.47357696e+00  7.73501263e-10  1.47135458e+00                                 
 9.53404034e-10  7.06184517e-01  9.53404034e-10  6.34924785e-01  9.53404034e-10  1.45164749e+00  9.53404034e-10  1.80000000e+00  9.53404034e-10  9.15960227e-03  9.53404034e-10  6.47494239e-01  9.53404034e-10  1.47437259e+00  9.53404034e-10  1.47133401e+00                                 
 1.31320958e-09  7.06133028e-01  1.31320958e-09  6.34854233e-01  1.31320958e-09  1.44918646e+00  1.31320958e-09  1.80000000e+00  1.31320958e-09 -8.36392586e-03  1.31320958e-09  6.46711818e-01  1.31320958e-09  1.47355327e+00  1.31320958e-09  1.47139063e+00                                 
 1.67841913e-09  7.06071049e-01  1.67841913e-09  6.34879218e-01  1.67841913e-09  1.44759833e+00  1.67841913e-09  1.80000000e+00  1.67841913e-09  7.88288506e-03  1.67841913e-09  6.46071377e-01  1.67841913e-09  1.47312199e+00  1.67841913e-09  1.47148153e+00                                 
 2.33230280e-09  7.05925991e-01  2.33230280e-09  6.34837739e-01  2.33230280e-09  1.44373815e+00  2.33230280e-09  1.80000000e+00  2.33230280e-09 -7.54192613e-03  2.33230280e-09  6.43946554e-01  2.33230280e-09  1.47113294e+00  2.33230280e-09  1.47169387e+00                                 
 3.14389227e-09  7.05856676e-01  3.14389227e-09  6.34869062e-01  3.14389227e-09  1.43942246e+00  3.14389227e-09  1.80000000e+00  3.14389227e-09  7.33344555e-03  3.14389227e-09  6.42313854e-01  3.14389227e-09  1.46982001e+00  3.14389227e-09  1.47195468e+00                                 
 4.52721755e-09  7.05781419e-01  4.52721755e-09  6.34830737e-01  4.52721755e-09  1.43068273e+00  4.52721755e-09  1.80000000e+00  4.52721755e-09 -7.17609337e-03  4.52721755e-09  6.39050661e-01  4.52721755e-09  1.46684682e+00  4.52721755e-09  1.47230791e+00                                 
 6.58280525e-09  7.05787346e-01  6.58280525e-09  6.34869839e-01  6.58280525e-09  1.41775596e+00  6.58280525e-09  1.80000000e+00  6.58280525e-09  7.11720293e-03  6.58280525e-09  6.36511111e-01  6.58280525e-09  1.46474677e+00  6.58280525e-09  1.47257660e+00                                 
 9.41117868e-09  7.05784647e-01  9.41117868e-09  6.34841265e-01  9.41117868e-09  1.39770498e+00  9.41117868e-09  1.80000000e+00  9.41117868e-09 -7.02111230e-03  9.41117868e-09  6.33978745e-01  9.41117868e-09  1.46242153e+00  9.41117868e-09  1.47257449e+00                                 
 1.19307262e-08  7.05821035e-01  1.19307262e-08  6.34881434e-01  1.19307262e-08  1.37929057e+00  1.19307262e-08  1.80000000e+00  1.19307262e-08  6.98681429e-03  1.19307262e-08  6.33624054e-01  1.19307262e-08  1.46221958e+00  1.19307262e-08  1.47238491e+00                                 
 1.43908464e-08  7.05817436e-01  1.43908464e-08  6.34847156e-01  1.43908464e-08  1.35977812e+00  1.43908464e-08  1.80000000e+00  1.43908464e-08 -6.87934393e-03  1.43908464e-08  6.32984688e-01  1.43908464e-08  1.46153827e+00  1.43908464e-08  1.47214292e+00                                 
 1.69735360e-08  7.05845493e-01  1.69735360e-08  6.34883813e-01  1.69735360e-08  1.33934232e+00  1.69735360e-08  1.80000000e+00  1.69735360e-08  6.84983731e-03  1.69735360e-08  6.33407496e-01  1.69735360e-08  1.46200830e+00  1.69735360e-08  1.47189318e+00                                 
 2.04870821e-08  7.05836997e-01  2.04870821e-08  6.34847821e-01  2.04870821e-08  1.31007257e+00  2.04870821e-08  1.80000000e+00  2.04870821e-08 -6.76375899e-03  2.04870821e-08  6.33192969e-01  2.04870821e-08  1.46169647e+00  2.04870821e-08  1.47158943e+00                                 
 2.47869388e-08  7.05859328e-01  2.47869388e-08  6.34883997e-01  2.47869388e-08  1.27441919e+00  2.47869388e-08  1.80000000e+00  2.47869388e-08  6.76217658e-03  2.47869388e-08  6.33905237e-01  2.47869388e-08  1.46241712e+00  2.47869388e-08  1.47130904e+00                                 
 3.06453585e-08  7.05843702e-01  3.06453585e-08  6.34847774e-01  3.06453585e-08  1.22459325e+00  3.06453585e-08  1.80000000e+00  3.06453585e-08 -6.69553172e-03  3.06453585e-08  6.33864852e-01  3.06453585e-08  1.46226254e+00  3.06453585e-08  1.47105733e+00                                 
 3.87007935e-08  7.05859716e-01  3.87007935e-08  6.34883884e-01  3.87007935e-08  1.15670615e+00  3.87007935e-08  1.80000000e+00  3.87007935e-08  6.71270392e-03  3.87007935e-08  6.34625795e-01  3.87007935e-08  1.46303251e+00  3.87007935e-08  1.47090124e+00                                 
 5.19186236e-08  7.05840057e-01  5.19186236e-08  6.34847467e-01  5.19186236e-08  1.04487549e+00  5.19186236e-08  1.80000000e+00  5.19186236e-08 -6.66197063e-03  5.19186236e-08  6.34522317e-01  5.19186236e-08  1.46283421e+00  5.19186236e-08  1.47086579e+00                                 
 7.28385739e-08  7.05854245e-01  7.28385739e-08  6.34883500e-01  7.28385739e-08  8.71622027e-01  7.28385739e-08  1.80000000e+00  7.28385739e-08  6.69250754e-03  7.28385739e-08  6.35089582e-01  7.28385739e-08  1.46344447e+00  7.28385739e-08  1.47098328e+00                                 
 9.75659128e-08  7.05840507e-01  9.75659128e-08  6.34847261e-01  9.75659128e-08  6.99483818e-01  9.75659128e-08  1.80000000e+00  9.75659128e-08 -6.64472943e-03  9.75659128e-08  6.34710450e-01  9.75659128e-08  1.46300709e+00  9.75659128e-08  1.47109418e+00                                 
 1.19838426e-07  7.05856624e-01  1.19838426e-07  6.34884018e-01  1.19838426e-07  6.37150737e-01  1.19838426e-07  1.80000000e+00  1.19838426e-07  6.68374877e-03  1.19838426e-07  6.35141426e-01  1.19838426e-07  1.46349314e+00  1.19838426e-07  1.47114628e+00                                 
 1.41565401e-07  7.05834088e-01  1.41565401e-07  6.34846558e-01  1.41565401e-07  6.35010451e-01  1.41565401e-07  1.80000000e+00  1.41565401e-07 -6.62827632e-03  1.41565401e-07  6.34719351e-01  1.41565401e-07  1.46301532e+00  1.41565401e-07  1.47116306e+00                                 
 1.53414838e-07  7.05856462e-01  1.53414838e-07  6.34884218e-01  1.53414838e-07  6.35063809e-01  1.53414838e-07  1.80000000e+00  1.53414838e-07  6.66253714e-03  1.53414838e-07  6.35134175e-01  1.53414838e-07  1.46348613e+00  1.53414838e-07  1.47116967e+00                                 
 1.72046344e-07  7.05837125e-01  1.72046344e-07  6.34846579e-01  1.72046344e-07  6.35063108e-01  1.72046344e-07  1.80000000e+00  1.72046344e-07 -6.60593863e-03  1.72046344e-07  6.34717538e-01  1.72046344e-07  1.46301301e+00  1.72046344e-07  1.47116801e+00                                 
 2.09309357e-07  7.05855989e-01  2.09309357e-07  6.34884220e-01  2.09309357e-07  6.35005231e-01  2.09309357e-07  1.80000000e+00  2.09309357e-07  6.64947053e-03  2.09309357e-07  6.35133183e-01  2.09309357e-07  1.46348340e+00  2.09309357e-07  1.47117163e+00                                 
 2.71965558e-07  7.05837473e-01  2.71965558e-07  6.34846600e-01  2.71965558e-07  6.35008877e-01  2.71965558e-07  1.80000000e+00  2.71965558e-07 -6.59905239e-03  2.71965558e-07  6.34717400e-01  2.71965558e-07  1.46300976e+00  2.71965558e-07  1.47116609e+00                                 
 3.97277961e-07  7.05855829e-01  3.97277961e-07  6.34884210e-01  3.97277961e-07  6.35009409e-01  3.97277961e-07  1.80000000e+00  3.97277961e-07  6.64556969e-03  3.97277961e-07  6.35133174e-01  3.97277961e-07  1.46347733e+00  3.97277961e-07  1.47116569e+00                                 
 6.33694209e-07  7.05837549e-01  6.33694209e-07  6.34846605e-01  6.33694209e-07  6.35002074e-01  6.33694209e-07  1.80000000e+00  6.33694209e-07 -6.59705486e-03  6.33694209e-07  6.34717408e-01  6.33694209e-07  1.46299816e+00  6.33694209e-07  1.47115448e+00                                 
 1.07796500e-06  7.05855790e-01  1.07796500e-06  6.34884207e-01  1.07796500e-06  6.35010461e-01  1.07796500e-06  1.80000000e+00  1.07796500e-06  6.64452371e-03  1.07796500e-06  6.35133168e-01  1.07796500e-06  1.46345545e+00  1.07796500e-06  1.47114385e+00                                 
 1.96650659e-06  7.05837569e-01  1.96650659e-06  6.34846606e-01  1.96650659e-06  6.35000153e-01  1.96650659e-06  1.80000000e+00  1.96650659e-06 -6.59648741e-03  1.96650659e-06  6.34717411e-01  1.96650659e-06  1.46295537e+00  1.96650659e-06  1.47111173e+00                                 
 2.96650659e-06  7.05855777e-01  2.96650659e-06  6.34884206e-01  2.96650659e-06  6.35012067e-01  2.96650659e-06  1.80000000e+00  2.96650659e-06  6.64419332e-03  2.96650659e-06  6.35133167e-01  2.96650659e-06  1.46339478e+00  2.96650659e-06  1.47108327e+00                                 
 3.96650659e-06  7.05837581e-01  3.96650659e-06  6.34846607e-01  3.96650659e-06  6.34999487e-01  3.96650659e-06  1.80000000e+00  3.96650659e-06 -6.59631132e-03  3.96650659e-06  6.34717413e-01  3.96650659e-06  1.46289112e+00  3.96650659e-06  1.47104756e+00                                 
 4.96650659e-06  7.05855766e-01  4.96650659e-06  6.34884205e-01  4.96650659e-06  6.35012571e-01  4.96650659e-06  1.80000000e+00  4.96650659e-06  6.64387037e-03  4.96650659e-06  6.35133165e-01  4.96650659e-06  1.46333056e+00  4.96650659e-06  1.47101913e+00                                 
 5.96650659e-06  7.05837592e-01  5.96650659e-06  6.34846608e-01  5.96650659e-06  6.34998504e-01  5.96650659e-06  1.80000000e+00  5.96650659e-06 -6.59599076e-03  5.96650659e-06  6.34717414e-01  5.96650659e-06  1.46282692e+00  5.96650659e-06  1.47098344e+00                                 
 6.96650659e-06  7.05855755e-01  6.96650659e-06  6.34884204e-01  6.96650659e-06  6.35012988e-01  6.96650659e-06  1.80000000e+00  6.96650659e-06  6.64354645e-03  6.96650659e-06  6.35133164e-01  6.96650659e-06  1.46326634e+00  6.96650659e-06  1.47095500e+00                                 
 7.96650659e-06  7.05837604e-01  7.96650659e-06  6.34846609e-01  7.96650659e-06  6.34997532e-01  7.96650659e-06  1.80000000e+00  7.96650659e-06 -6.59567021e-03  7.96650659e-06  6.34717416e-01  7.96650659e-06  1.46276271e+00  7.96650659e-06  1.47091931e+00                                 
 8.96650659e-06  7.05855743e-01  8.96650659e-06  6.34884203e-01  8.96650659e-06  6.35013402e-01  8.96650659e-06  1.80000000e+00  8.96650659e-06  6.64322255e-03  8.96650659e-06  6.35133162e-01  8.96650659e-06  1.46320213e+00  8.96650659e-06  1.47089088e+00                                 
 9.96650659e-06  7.05837615e-01  9.96650659e-06  6.34846610e-01  9.96650659e-06  6.34996568e-01  9.96650659e-06  1.80000000e+00  9.96650659e-06 -6.59534969e-03  9.96650659e-06  6.34717417e-01  9.96650659e-06  1.46269852e+00  9.96650659e-06  1.47085519e+00                                 
 1.00005000e-05  7.05855588e-01  1.00005000e-05  6.34884190e-01  1.00005000e-05  6.35021581e-01  1.00005000e-05  1.80000000e+00  1.00005000e-05  6.63830033e-03  1.00005000e-05  6.35133137e-01  1.00005000e-05  1.46316889e+00  1.00005000e-05  1.47085776e+00                                 
 1.00005500e-05  7.05810599e-01  1.00005500e-05  6.34675503e-01  1.00005500e-05  6.33170304e-01  1.00005500e-05  1.62000000e+00  1.00005500e-05  6.30116897e-04  1.00005500e-05  6.33456720e-01  1.00005500e-05  1.46165077e+00  1.00005500e-05  1.47083780e+00                                 
 1.00006500e-05  7.05833598e-01  1.00006500e-05  6.34641398e-01  1.00006500e-05  6.33030149e-01  1.00006500e-05  1.26000000e+00  1.00006500e-05 -5.44568755e-04  1.00006500e-05  6.32967459e-01  1.00006500e-05  1.46121343e+00  1.00006500e-05  1.47085705e+00                                 
 1.00008500e-05  7.05889572e-01  1.00008500e-05  6.34816219e-01  1.00008500e-05  6.35234963e-01  1.00008500e-05  5.40000000e-01  1.00008500e-05  2.21907376e-02  1.00008500e-05  6.33472051e-01  1.00008500e-05  1.45966794e+00  1.00008500e-05  1.47084329e+00                                 
 1.00010000e-05  7.05829067e-01  1.00010000e-05  6.34167521e-01  1.00010000e-05  6.56035217e-01  1.00010000e-05  0.00000000e+00  1.00010000e-05  1.53938805e+00  1.00010000e-05  6.26332397e-01  1.00010000e-05  1.40354512e+00  1.00010000e-05  1.47038164e+00                                 
 1.00010249e-05  7.05847482e-01  1.00010249e-05  6.33767641e-01  1.00010249e-05  6.61911853e-01  1.00010249e-05  0.00000000e+00  1.00010249e-05  1.69991422e+00  1.00010249e-05  6.21523252e-01  1.00010249e-05  1.37492124e+00  1.00010249e-05  1.47016246e+00                                 
 1.00010746e-05  7.05851530e-01  1.00010746e-05  6.33038805e-01  1.00010746e-05  6.67667834e-01  1.00010746e-05  0.00000000e+00  1.00010746e-05  1.81919849e+00  1.00010746e-05  6.12685162e-01  1.00010746e-05  1.31192304e+00  1.00010746e-05  1.47000442e+00                                 
 1.00011740e-05  7.05844907e-01  1.00011740e-05  6.32885611e-01  1.00011740e-05  6.63168344e-01  1.00011740e-05  0.00000000e+00  1.00011740e-05  1.78779224e+00  1.00011740e-05  6.10941155e-01  1.00011740e-05  1.20201646e+00  1.00011740e-05  1.47057203e+00                                 
 1.00013030e-05  7.05849777e-01  1.00013030e-05  6.33156414e-01  1.00013030e-05  6.60178003e-01  1.00013030e-05  0.00000000e+00  1.00013030e-05  1.80650556e+00  1.00013030e-05  6.14648946e-01  1.00013030e-05  1.09048496e+00  1.00013030e-05  1.47095892e+00                                 
 1.00015213e-05  7.05844409e-01  1.00015213e-05  6.33302881e-01  1.00015213e-05  6.56561238e-01  1.00015213e-05  0.00000000e+00  1.00015213e-05  1.79415027e+00  1.00015213e-05  6.15333610e-01  1.00015213e-05  9.33016096e-01  1.00015213e-05  1.47118107e+00                                 
 1.00017979e-05  7.05848807e-01  1.00017979e-05  6.33928068e-01  1.00017979e-05  6.50376665e-01  1.00017979e-05  0.00000000e+00  1.00017979e-05  1.80408263e+00  1.00017979e-05  6.21463536e-01  1.00017979e-05  7.94426553e-01  1.00017979e-05  1.47103493e+00                                 
 1.00022107e-05  7.05844623e-01  1.00022107e-05  6.34654617e-01  1.00022107e-05  6.42151010e-01  1.00022107e-05  0.00000000e+00  1.00022107e-05  1.79601951e+00  1.00022107e-05  6.28168571e-01  1.00022107e-05  6.80738740e-01  1.00022107e-05  1.47007201e+00                                 
 1.00026400e-05  7.05848571e-01  1.00026400e-05  6.35242233e-01  1.00026400e-05  6.37270691e-01  1.00026400e-05  0.00000000e+00  1.00026400e-05  1.80336941e+00  1.00026400e-05  6.34393962e-01  1.00026400e-05  6.46552088e-01  1.00026400e-05  1.46805830e+00                                 
 1.00030353e-05  7.05844906e-01  1.00030353e-05  6.35273797e-01  1.00030353e-05  6.37791079e-01  1.00030353e-05  0.00000000e+00  1.00030353e-05  1.79709037e+00  1.00030353e-05  6.34731293e-01  1.00030353e-05  6.38531032e-01  1.00030353e-05  1.46566685e+00                                 
 1.00034597e-05  7.05848361e-01  1.00034597e-05  6.35361323e-01  1.00034597e-05  6.37841355e-01  1.00034597e-05  0.00000000e+00  1.00034597e-05  1.80254079e+00  1.00034597e-05  6.36381889e-01  1.00034597e-05  6.38661031e-01  1.00034597e-05  1.46282491e+00                                 
 1.00040667e-05  7.05845117e-01  1.00040667e-05  6.35236530e-01  1.00040667e-05  6.40272293e-01  1.00040667e-05  0.00000000e+00  1.00040667e-05  1.79770313e+00  1.00040667e-05  6.35704052e-01  1.00040667e-05  6.38853357e-01  1.00040667e-05  1.45854966e+00                                 
 1.00051583e-05  7.05848240e-01  1.00051583e-05  6.35200852e-01  1.00051583e-05  6.43017391e-01  1.00051583e-05  0.00000000e+00  1.00051583e-05  1.80218358e+00  1.00051583e-05  6.36663991e-01  1.00051583e-05  6.43026538e-01  1.00051583e-05  1.45049770e+00                                 
 1.00071859e-05  7.05845160e-01  1.00071859e-05  6.34983138e-01  1.00071859e-05  6.50100926e-01  1.00071859e-05  0.00000000e+00  1.00071859e-05  1.79788722e+00  1.00071859e-05  6.35755433e-01  1.00071859e-05  6.48567159e-01  1.00071859e-05  1.43488908e+00                                 
 1.00112410e-05  7.05848186e-01  1.00112410e-05  6.34906772e-01  1.00112410e-05  6.62105660e-01  1.00112410e-05  0.00000000e+00  1.00112410e-05  1.80208981e+00  1.00112410e-05  6.36324147e-01  1.00112410e-05  6.62043489e-01  1.00112410e-05  1.40246556e+00                                 
