 time            v(vbep)         time            v(vben)         time            v(vout)         time            v(vphi1)        time            v(vphi2)        time            v(vref)         time            v(voutc)        time            v(voutcc)       yes             currtemp       
 0.00000000e+00  6.88385204e-01  0.00000000e+00  6.17954905e-01  0.00000000e+00  1.42077969e+00  0.00000000e+00  0.00000000e+00  0.00000000e+00  1.79999999e+00  0.00000000e+00  6.17496478e-01  0.00000000e+00  1.42077969e+00  0.00000000e+00  1.42886561e+00  1.00000000e+00  8.30000000e+01 
 1.00000000e-11  6.88410412e-01  1.00000000e-11  6.18028002e-01  1.00000000e-11  1.42152407e+00  1.00000000e-11  1.80000000e-02  1.00000000e-11  1.80025158e+00  1.00000000e-11  6.18022523e-01  1.00000000e-11  1.42124257e+00  1.00000000e-11  1.42887851e+00                                 
 2.00000000e-11  6.88417138e-01  2.00000000e-11  6.18072642e-01  2.00000000e-11  1.42196382e+00  2.00000000e-11  3.60000000e-02  2.00000000e-11  1.80034850e+00  2.00000000e-11  6.18409600e-01  2.00000000e-11  1.42158735e+00  2.00000000e-11  1.42888284e+00                                 
 4.00000000e-11  6.88416943e-01  4.00000000e-11  6.18130295e-01  4.00000000e-11  1.42247027e+00  4.00000000e-11  7.20000000e-02  4.00000000e-11  1.80038103e+00  4.00000000e-11  6.18972814e-01  4.00000000e-11  1.42209457e+00  4.00000000e-11  1.42888352e+00                                 
 8.00000000e-11  6.88405252e-01  8.00000000e-11  6.18164795e-01  8.00000000e-11  1.42251747e+00  8.00000000e-11  1.44000000e-01  8.00000000e-11  1.80017481e+00  8.00000000e-11  6.19407638e-01  8.00000000e-11  1.42249137e+00  8.00000000e-11  1.42887328e+00                                 
 1.60000000e-10  6.88402518e-01  1.60000000e-10  6.18172205e-01  1.60000000e-10  1.42218325e+00  1.60000000e-10  2.88000000e-01  1.60000000e-10  1.80000500e+00  1.60000000e-10  6.19504511e-01  1.60000000e-10  1.42252814e+00  1.60000000e-10  1.42886443e+00                                 
 3.20000000e-10  6.88397321e-01  3.20000000e-10  6.18158938e-01  3.20000000e-10  1.42181132e+00  3.20000000e-10  5.76000000e-01  3.20000000e-10  1.79998043e+00  3.20000000e-10  6.19343360e-01  3.20000000e-10  1.42218305e+00  3.20000000e-10  1.42885909e+00                                 
 6.40000000e-10  6.88315956e-01  6.40000000e-10  6.17682988e-01  6.40000000e-10  1.42020506e+00  6.40000000e-10  1.15200000e+00  6.40000000e-10  1.80759512e+00  6.40000000e-10  6.15988611e-01  6.40000000e-10  1.42462536e+00  6.40000000e-10  1.42887861e+00                                 
 1.00000000e-09  6.88828793e-01  1.00000000e-09  6.18190728e-01  1.00000000e-09  1.40248948e+00  1.00000000e-09  1.80000000e+00  1.00000000e-09  1.13611067e-01  1.00000000e-09  6.32963012e-01  1.00000000e-09  1.43227541e+00  1.00000000e-09  1.42890510e+00                                 
 1.03798550e-09  6.88912706e-01  1.03798550e-09  6.18173398e-01  1.03798550e-09  1.40074711e+00  1.03798550e-09  1.80000000e+00  1.03798550e-09  2.77379322e-02  1.03798550e-09  6.35900233e-01  1.03798550e-09  1.43379154e+00  1.03798550e-09  1.42891526e+00                                 
 1.11395650e-09  6.89100180e-01  1.11395650e-09  6.18172488e-01  1.11395650e-09  1.39853611e+00  1.11395650e-09  1.80000000e+00  1.11395650e-09 -1.25235261e-02  1.11395650e-09  6.39416816e-01  1.11395650e-09  1.43647150e+00  1.11395650e-09  1.42892070e+00                                 
 1.26589851e-09  6.89225442e-01  1.26589851e-09  6.18004993e-01  1.26589851e-09  1.39518156e+00  1.26589851e-09  1.80000000e+00  1.26589851e-09  9.66056070e-03  1.26589851e-09  6.38689592e-01  1.26589851e-09  1.43615306e+00  1.26589851e-09  1.42887957e+00                                 
 1.44944623e-09  6.89182578e-01  1.44944623e-09  6.17997680e-01  1.44944623e-09  1.39413409e+00  1.44944623e-09  1.80000000e+00  1.44944623e-09 -7.31004846e-03  1.44944623e-09  6.37361806e-01  1.44944623e-09  1.43478978e+00  1.44944623e-09  1.42892524e+00                                 
 1.65454719e-09  6.89067344e-01  1.65454719e-09  6.17997437e-01  1.65454719e-09  1.39369210e+00  1.65454719e-09  1.80000000e+00  1.65454719e-09  5.90359708e-03  1.65454719e-09  6.35523520e-01  1.65454719e-09  1.43341169e+00  1.65454719e-09  1.42897490e+00                                 
 2.01869713e-09  6.88803828e-01  2.01869713e-09  6.17961152e-01  2.01869713e-09  1.39291599e+00  2.01869713e-09  1.80000000e+00  2.01869713e-09 -5.23839370e-03  2.01869713e-09  6.32425233e-01  2.01869713e-09  1.43059772e+00  2.01869713e-09  1.42913209e+00                                 
 2.61521397e-09  6.88512303e-01  2.61521397e-09  6.17970503e-01  2.61521397e-09  1.39161820e+00  2.61521397e-09  1.80000000e+00  2.61521397e-09  4.82122947e-03  2.61521397e-09  6.28392826e-01  2.61521397e-09  1.42729820e+00  2.61521397e-09  1.42938035e+00                                 
 3.59799830e-09  6.88262881e-01  3.59799830e-09  6.17925992e-01  3.59799830e-09  1.38785195e+00  3.59799830e-09  1.80000000e+00  3.59799830e-09 -4.64121177e-03  3.59799830e-09  6.23108908e-01  3.59799830e-09  1.42264344e+00  3.59799830e-09  1.42971187e+00                                 
 5.04771837e-09  6.88185162e-01  5.04771837e-09  6.17945342e-01  5.04771837e-09  1.38133403e+00  5.04771837e-09  1.80000000e+00  5.04771837e-09  4.48335930e-03  5.04771837e-09  6.18890547e-01  5.04771837e-09  1.41918622e+00  5.04771837e-09  1.42990158e+00                                 
 6.31573649e-09  6.88184733e-01  6.31573649e-09  6.17917648e-01  6.31573649e-09  1.37412832e+00  6.31573649e-09  1.80000000e+00  6.31573649e-09 -4.33756700e-03  6.31573649e-09  6.16799739e-01  6.31573649e-09  1.41727525e+00  6.31573649e-09  1.42984445e+00                                 
 7.54327455e-09  6.88231669e-01  7.54327455e-09  6.17950897e-01  7.54327455e-09  1.36658225e+00  7.54327455e-09  1.80000000e+00  7.54327455e-09  4.18405939e-03  7.54327455e-09  6.16116817e-01  7.54327455e-09  1.41682194e+00  7.54327455e-09  1.42966433e+00                                 
 8.85787501e-09  6.88261075e-01  8.85787501e-09  6.17926405e-01  8.85787501e-09  1.35709505e+00  8.85787501e-09  1.80000000e+00  8.85787501e-09 -4.04483440e-03  8.85787501e-09  6.15470493e-01  8.85787501e-09  1.41614178e+00  8.85787501e-09  1.42941811e+00                                 
 1.06564003e-08  6.88322349e-01  1.06564003e-08  6.17961881e-01  1.06564003e-08  1.34345645e+00  1.06564003e-08  1.80000000e+00  1.06564003e-08  3.95272507e-03  1.06564003e-08  6.15548531e-01  1.06564003e-08  1.41631834e+00  1.06564003e-08  1.42904771e+00                                 
 1.28273487e-08  6.88350665e-01  1.28273487e-08  6.17936209e-01  1.28273487e-08  1.32537676e+00  1.28273487e-08  1.80000000e+00  1.28273487e-08 -3.86714597e-03  1.28273487e-08  6.15420575e-01  1.28273487e-08  1.41607329e+00  1.28273487e-08  1.42861712e+00                                 
 1.58163552e-08  6.88391661e-01  1.58163552e-08  6.17969077e-01  1.58163552e-08  1.29993702e+00  1.58163552e-08  1.80000000e+00  1.58163552e-08  3.81957083e-03  1.58163552e-08  6.15925953e-01  1.58163552e-08  1.41659869e+00  1.58163552e-08  1.42808974e+00                                 
 1.97742298e-08  6.88391467e-01  1.97742298e-08  6.17940293e-01  1.97742298e-08  1.26494862e+00  1.97742298e-08  1.80000000e+00  1.97742298e-08 -3.76880593e-03  1.97742298e-08  6.16049448e-01  1.97742298e-08  1.41656435e+00  1.97742298e-08  1.42752723e+00                                 
 2.62906300e-08  6.88403554e-01  2.62906300e-08  6.17970912e-01  2.62906300e-08  1.20749307e+00  2.62906300e-08  1.80000000e+00  2.62906300e-08  3.75303086e-03  2.62906300e-08  6.16733486e-01  2.62906300e-08  1.41723719e+00  2.62906300e-08  1.42686852e+00                                 
 3.65827461e-08  6.88385091e-01  3.65827461e-08  6.17940527e-01  3.65827461e-08  1.11654059e+00  3.65827461e-08  1.80000000e+00  3.65827461e-08 -3.72780219e-03  3.65827461e-08  6.16926856e-01  3.65827461e-08  1.41726941e+00  3.65827461e-08  1.42628360e+00                                 
 5.22409183e-08  6.88392277e-01  5.22409183e-08  6.17970251e-01  5.22409183e-08  9.80440924e-01  5.22409183e-08  1.80000000e+00  5.22409183e-08  3.72748528e-03  5.22409183e-08  6.17459920e-01  5.22409183e-08  1.41783061e+00  5.22409183e-08  1.42593771e+00                                 
 8.35572628e-08  6.88379422e-01  8.35572628e-08  6.17939693e-01  8.35572628e-08  7.29437710e-01  8.35572628e-08  1.80000000e+00  8.35572628e-08 -3.70882179e-03  8.35572628e-08  6.17368544e-01  8.35572628e-08  1.41763870e+00  8.35572628e-08  1.42583937e+00                                 
 1.09495398e-07  6.88395842e-01  1.09495398e-07  6.17970615e-01  1.09495398e-07  6.26242254e-01  1.09495398e-07  1.80000000e+00  1.09495398e-07  3.72699394e-03  1.09495398e-07  6.17627958e-01  1.09495398e-07  1.41797415e+00  1.09495398e-07  1.42587982e+00                                 
 1.35722773e-07  6.88371145e-01  1.35722773e-07  6.17938988e-01  1.35722773e-07  6.17646574e-01  1.35722773e-07  1.80000000e+00  1.35722773e-07 -3.69119069e-03  1.35722773e-07  6.17375022e-01  1.35722773e-07  1.41764450e+00  1.35722773e-07  1.42589462e+00                                 
 1.49133425e-07  6.88396431e-01  1.49133425e-07  6.17970717e-01  1.49133425e-07  6.17263816e-01  1.49133425e-07  1.80000000e+00  1.49133425e-07  3.70996241e-03  1.49133425e-07  6.17620147e-01  1.49133425e-07  1.41796632e+00  1.49133425e-07  1.42589432e+00                                 
 1.68633549e-07  6.88374954e-01  1.68633549e-07  6.17939066e-01  1.68633549e-07  6.17090357e-01  1.68633549e-07  1.80000000e+00  1.68633549e-07 -3.67172720e-03  1.68633549e-07  6.17373709e-01  1.68633549e-07  1.41764261e+00  1.68633549e-07  1.42589457e+00                                 
 2.07633797e-07  6.88394907e-01  2.07633797e-07  6.17970722e-01  2.07633797e-07  6.17032371e-01  2.07633797e-07  1.80000000e+00  2.07633797e-07  3.69803195e-03  2.07633797e-07  6.17619324e-01  2.07633797e-07  1.41796360e+00  2.07633797e-07  1.42589255e+00                                 
 2.70528463e-07  6.88375799e-01  2.70528463e-07  6.17939082e-01  2.70528463e-07  6.17008638e-01  2.70528463e-07  1.80000000e+00  2.70528463e-07 -3.66532463e-03  2.70528463e-07  6.17373597e-01  2.70528463e-07  1.41763942e+00  2.70528463e-07  1.42589103e+00                                 
 3.96317793e-07  6.88394469e-01  3.96317793e-07  6.17970715e-01  3.96317793e-07  6.17034401e-01  3.96317793e-07  1.80000000e+00  3.96317793e-07  3.69433537e-03  3.96317793e-07  6.17619313e-01  3.96317793e-07  1.41795765e+00  3.96317793e-07  1.42588661e+00                                 
 6.47896454e-07  6.88376008e-01  6.47896454e-07  6.17939085e-01  6.47896454e-07  6.17001206e-01  6.47896454e-07  1.80000000e+00  6.47896454e-07 -3.66348193e-03  6.47896454e-07  6.17373605e-01  6.47896454e-07  1.41762771e+00  6.47896454e-07  1.42587931e+00                                 
 1.14696171e-06  6.88394366e-01  1.14696171e-06  6.17970713e-01  1.14696171e-06  6.17035282e-01  1.14696171e-06  1.80000000e+00  1.14696171e-06  3.69340927e-03  1.14696171e-06  6.17619308e-01  1.14696171e-06  1.41793427e+00  1.14696171e-06  1.42586327e+00                                 
 2.14509221e-06  6.88376060e-01  2.14509221e-06  6.17939086e-01  2.14509221e-06  6.16999884e-01  2.14509221e-06  1.80000000e+00  2.14509221e-06 -3.66301970e-03  2.14509221e-06  6.17373607e-01  2.14509221e-06  1.41758110e+00  2.14509221e-06  1.42583274e+00                                 
 3.34509221e-06  6.88394335e-01  3.34509221e-06  6.17970712e-01  3.34509221e-06  6.17037875e-01  3.34509221e-06  1.80000000e+00  3.34509221e-06  3.69312536e-03  3.34509221e-06  6.17619307e-01  3.34509221e-06  1.41786585e+00  3.34509221e-06  1.42579493e+00                                 
 4.54509221e-06  6.88376088e-01  4.54509221e-06  6.17939087e-01  4.54509221e-06  6.17000561e-01  4.54509221e-06  1.80000000e+00  4.54509221e-06 -3.66277864e-03  4.54509221e-06  6.17373609e-01  4.54509221e-06  1.41750642e+00  4.54509221e-06  1.42575815e+00                                 
 5.74509221e-06  6.88394308e-01  5.74509221e-06  6.17970712e-01  5.74509221e-06  6.17038342e-01  5.74509221e-06  1.80000000e+00  5.74509221e-06  3.69286726e-03  5.74509221e-06  6.17619306e-01  5.74509221e-06  1.41779111e+00  5.74509221e-06  1.42572029e+00                                 
 6.00100000e-06  6.88376166e-01  6.00100000e-06  6.17939088e-01  6.00100000e-06  6.16999069e-01  6.00100000e-06  1.80000000e+00  6.00100000e-06 -3.66205267e-03  6.00100000e-06  6.17373612e-01  6.00100000e-06  1.41746107e+00  6.00100000e-06  1.42571284e+00                                 
 6.00110000e-06  6.88331910e-01  6.00110000e-06  6.17716737e-01  6.00110000e-06  6.15379836e-01  6.00110000e-06  1.62000000e+00  6.00110000e-06 -4.37748889e-04  6.00110000e-06  6.15985643e-01  6.00110000e-06  1.41632565e+00  6.00110000e-06  1.42570378e+00                                 
 6.00130000e-06  6.88366955e-01  6.00130000e-06  6.17710539e-01  6.00130000e-06  6.15293717e-01  6.00130000e-06  1.26000000e+00  6.00130000e-06  2.81078644e-04  6.00130000e-06  6.15644405e-01  6.00130000e-06  1.41604574e+00  6.00130000e-06  1.42571600e+00                                 
 6.00164529e-06  6.88435410e-01  6.00164529e-06  6.17927428e-01  6.00164529e-06  6.17383325e-01  6.00164529e-06  6.38481114e-01  6.00164529e-06  5.56287997e-03  6.00164529e-06  6.16096210e-01  6.00164529e-06  1.41334457e+00  6.00164529e-06  1.42569646e+00                                 
 6.00200000e-06  6.88367387e-01  6.00200000e-06  6.16627164e-01  6.00200000e-06  6.48744519e-01  6.00200000e-06  0.00000000e+00  6.00200000e-06  1.60739691e+00  6.00200000e-06  6.02483755e-01  6.00200000e-06  1.20960734e+00  6.00200000e-06  1.42512599e+00                                 
 6.00204192e-06  6.88383798e-01  6.00204192e-06  6.16029181e-01  6.00204192e-06  6.57016652e-01  6.00204192e-06  0.00000000e+00  6.00204192e-06  1.72548477e+00  6.00204192e-06  5.95706701e-01  6.00204192e-06  1.14201597e+00  6.00204192e-06  1.42510774e+00                                 
 6.00212576e-06  6.88386711e-01  6.00212576e-06  6.15082904e-01  6.00212576e-06  6.63444311e-01  6.00212576e-06  0.00000000e+00  6.00212576e-06  1.81316352e+00  6.00212576e-06  5.85096686e-01  6.00212576e-06  1.00489580e+00  6.00212576e-06  1.42548595e+00                                 
 6.00229344e-06  6.88382278e-01  6.00229344e-06  6.15136084e-01  6.00229344e-06  6.52029339e-01  6.00229344e-06  0.00000000e+00  6.00229344e-06  1.78914071e+00  6.00229344e-06  5.86116199e-01  6.00229344e-06  7.97997084e-01  6.00229344e-06  1.42601005e+00                                 
 6.00246209e-06  6.88385122e-01  6.00246209e-06  6.16199101e-01  6.00246209e-06  6.38005663e-01  6.00246209e-06  0.00000000e+00  6.00246209e-06  1.80429965e+00  6.00246209e-06  5.97744258e-01  6.00246209e-06  6.93914265e-01  6.00246209e-06  1.42607390e+00                                 
 6.00263913e-06  6.88382096e-01  6.00263913e-06  6.17117073e-01  6.00263913e-06  6.26701550e-01  6.00263913e-06  0.00000000e+00  6.00263913e-06  1.79718480e+00  6.00263913e-06  6.06725556e-01  6.00263913e-06  6.46008117e-01  6.00263913e-06  1.42611905e+00                                 
 6.00284207e-06  6.88385061e-01  6.00284207e-06  6.17861475e-01  6.00284207e-06  6.20966093e-01  6.00284207e-06  0.00000000e+00  6.00284207e-06  1.80178987e+00  6.00284207e-06  6.13697434e-01  6.00284207e-06  6.27830681e-01  6.00284207e-06  1.42541500e+00                                 
 6.00304793e-06  6.88382793e-01  6.00304793e-06  6.18156588e-01  6.00304793e-06  6.18840939e-01  6.00304793e-06  0.00000000e+00  6.00304793e-06  1.79898893e+00  6.00304793e-06  6.15982242e-01  6.00304793e-06  6.20940994e-01  6.00304793e-06  1.42447490e+00                                 
 6.00331901e-06  6.88385361e-01  6.00331901e-06  6.18367498e-01  6.00331901e-06  6.18195003e-01  6.00331901e-06  0.00000000e+00  6.00331901e-06  1.80075914e+00  6.00331901e-06  6.17869960e-01  6.00331901e-06  6.18900500e-01  6.00331901e-06  1.42280356e+00                                 
 6.00371991e-06  6.88383555e-01  6.00371991e-06  6.18392847e-01  6.00371991e-06  6.18811483e-01  6.00371991e-06  0.00000000e+00  6.00371991e-06  1.79944324e+00  6.00371991e-06  6.18192771e-01  6.00371991e-06  6.18483006e-01  6.00371991e-06  1.42016712e+00                                 
 6.00436469e-06  6.88385837e-01  6.00436469e-06  6.18385953e-01  6.00436469e-06  6.20448347e-01  6.00436469e-06  0.00000000e+00  6.00436469e-06  1.80050374e+00  6.00436469e-06  6.18721829e-01  6.00436469e-06  6.20357003e-01  6.00436469e-06  1.41547263e+00                                 
 6.00543210e-06  6.88384100e-01  6.00543210e-06  6.18288338e-01  6.00543210e-06  6.23666157e-01  6.00543210e-06  0.00000000e+00  6.00543210e-06  1.79956763e+00  6.00543210e-06  6.18554275e-01  6.00543210e-06  6.23205169e-01  6.00543210e-06  1.40735740e+00                                 
 6.00756693e-06  6.88386110e-01  6.00756693e-06  6.18169126e-01  6.00756693e-06  6.30054687e-01  6.00756693e-06  0.00000000e+00  6.00756693e-06  1.80043779e+00  6.00756693e-06  6.18767178e-01  6.00756693e-06  6.29901585e-01  6.00756693e-06  1.39013073e+00                                 
 6.01183659e-06  6.88384265e-01  6.01183659e-06  6.17975100e-01  6.01183659e-06  6.42879469e-01  6.01183659e-06  0.00000000e+00  6.01183659e-06  1.79959711e+00  6.01183659e-06  6.18291785e-01  6.01183659e-06  6.42378460e-01  6.01183659e-06  1.35446576e+00                                 
 6.01906050e-06  6.88386131e-01  6.01906050e-06  6.17942974e-01  6.01906050e-06  6.63743635e-01  6.01906050e-06  0.00000000e+00  6.01906050e-06  1.80042142e+00  6.01906050e-06  6.18209992e-01  6.01906050e-06  6.63557834e-01  6.01906050e-06  1.29274274e+00                                 
 6.03266573e-06  6.88384272e-01  6.03266573e-06  6.17938876e-01  6.03266573e-06  7.01341937e-01  6.03266573e-06  0.00000000e+00  6.03266573e-06  1.79960483e+00  6.03266573e-06  6.17601386e-01  6.03266573e-06  7.00758373e-01  6.03266573e-06  1.17558590e+00                                 
 6.04697471e-06  6.88386133e-01  6.04697471e-06  6.17960997e-01  6.04697471e-06  7.38097436e-01  6.04697471e-06  0.00000000e+00  6.04697471e-06  1.80041408e+00  6.04697471e-06  6.17697112e-01  6.04697471e-06  7.37905438e-01  6.04697471e-06  1.06259957e+00                                 
 6.06607191e-06  6.88384277e-01  6.06607191e-06  6.17944800e-01  6.06607191e-06  7.83407718e-01  6.06607191e-06  0.00000000e+00  6.06607191e-06  1.79960782e+00  6.06607191e-06  6.17384837e-01  6.06607191e-06  7.82632169e-01  6.06607191e-06  9.35450875e-01                                 
 6.09656492e-06  6.88386131e-01  6.09656492e-06  6.17964538e-01  6.09656492e-06  8.46989742e-01  6.09656492e-06  0.00000000e+00  6.09656492e-06  1.80040799e+00  6.09656492e-06  6.17609139e-01  6.09656492e-06  8.46830773e-01  6.09656492e-06  8.45567688e-01                                 
 6.12568330e-06  6.88384279e-01  6.12568330e-06  6.17945122e-01  6.12568330e-06  8.98890663e-01  6.12568330e-06  0.00000000e+00  6.12568330e-06  1.79960736e+00  6.12568330e-06  6.17363999e-01  6.12568330e-06  8.97810010e-01  6.12568330e-06  8.73609846e-01                                 
 6.14185564e-06  6.88386129e-01  6.14185564e-06  6.17965034e-01  6.14185564e-06  9.24152252e-01  6.14185564e-06  0.00000000e+00  6.14185564e-06  1.80040231e+00  6.14185564e-06  6.17612932e-01  6.14185564e-06  9.24061354e-01  6.14185564e-06  9.00185446e-01                                 
 6.15860125e-06  6.88384282e-01  6.15860125e-06  6.17944486e-01  6.15860125e-06  9.48177561e-01  6.15860125e-06  0.00000000e+00  6.15860125e-06  1.79961053e+00  6.15860125e-06  6.17361306e-01  6.15860125e-06  9.46956727e-01  6.15860125e-06  9.25591890e-01                                 
