 time            v(vbep)         time            v(vben)         time            v(vout)         time            v(vphi1)        time            v(vphi2)        time            v(vref)         yes             currtemp       
 0.00000000e+00  6.81592367e-01  0.00000000e+00  6.25787712e-01  0.00000000e+00  1.08960168e+00  0.00000000e+00  0.00000000e+00  0.00000000e+00  1.79994813e+00  0.00000000e+00  6.25787712e-01  1.00000000e+00  3.20000000e+01 
 5.00000000e-12  6.81561068e-01  5.00000000e-12  6.25761829e-01  5.00000000e-12  1.09033784e+00  5.00000000e-12  1.80000000e-02  5.00000000e-12  1.80007306e+00  5.00000000e-12  6.25761829e-01                                 
 1.00000000e-11  6.81530697e-01  1.00000000e-11  6.25736661e-01  1.00000000e-11  1.09100986e+00  1.00000000e-11  3.60000000e-02  1.00000000e-11  1.80014749e+00  1.00000000e-11  6.25736661e-01                                 
 2.00000000e-11  6.81470535e-01  2.00000000e-11  6.25686531e-01  2.00000000e-11  1.09225365e+00  2.00000000e-11  7.20000000e-02  2.00000000e-11  1.80023106e+00  2.00000000e-11  6.25686531e-01                                 
 4.00000000e-11  6.81351204e-01  4.00000000e-11  6.25586693e-01  4.00000000e-11  1.09427652e+00  4.00000000e-11  1.44000000e-01  4.00000000e-11  1.80022384e+00  4.00000000e-11  6.25586693e-01                                 
 8.00000000e-11  6.81113793e-01  8.00000000e-11  6.25387983e-01  8.00000000e-11  1.09703503e+00  8.00000000e-11  2.88000000e-01  8.00000000e-11  1.80013128e+00  8.00000000e-11  6.25387983e-01                                 
 1.60000000e-10  6.80644413e-01  1.60000000e-10  6.24994402e-01  1.60000000e-10  1.09940636e+00  1.60000000e-10  5.76000000e-01  1.60000000e-10  1.80002230e+00  1.60000000e-10  6.24994402e-01                                 
 3.20000000e-10  6.79726058e-01  3.20000000e-10  6.24222029e-01  3.20000000e-10  1.09155892e+00  3.20000000e-10  1.15200000e+00  3.20000000e-10  1.80029508e+00  3.20000000e-10  6.24222029e-01                                 
 5.00000000e-10  6.78724253e-01  5.00000000e-10  6.23375795e-01  5.00000000e-10  1.18836708e+00  5.00000000e-10  1.80000000e+00  5.00000000e-10  1.49794232e-01  5.00000000e-10  6.23375795e-01                                 
 5.21266918e-10  6.78608242e-01  5.21266918e-10  6.23277535e-01  5.21266918e-10  1.21308242e+00  5.21266918e-10  1.80000000e+00  5.21266918e-10  3.72873057e-02  5.21266918e-10  6.23277535e-01                                 
 5.63800754e-10  6.78377064e-01  5.63800754e-10  6.23081615e-01  5.63800754e-10  1.26229122e+00  5.63800754e-10  1.80000000e+00  5.63800754e-10 -1.40624383e-02  5.63800754e-10  6.23081615e-01                                 
 6.48868425e-10  6.77919810e-01  6.48868425e-10  6.22693520e-01  6.48868425e-10  1.35068388e+00  6.48868425e-10  1.80000000e+00  6.48868425e-10  1.19455186e-02  6.48868425e-10  6.22693520e-01                                 
 7.68971705e-10  6.77285524e-01  7.68971705e-10  6.22153891e-01  7.68971705e-10  1.45911344e+00  7.68971705e-10  1.80000000e+00  7.68971705e-10 -9.13042032e-03  7.68971705e-10  6.22153891e-01                                 
 9.49862078e-10  6.76354088e-01  9.49862078e-10  6.21358795e-01  9.49862078e-10  1.59078363e+00  9.49862078e-10  1.80000000e+00  9.49862078e-10  8.99500096e-03  9.49862078e-10  6.21358795e-01                                 
 1.31164282e-09  6.74571084e-01  1.31164282e-09  6.19828179e-01  1.31164282e-09  1.75536348e+00  1.31164282e-09  1.80000000e+00  1.31164282e-09 -7.91667184e-03  1.31164282e-09  6.19828179e-01                                 
 1.65506995e-09  6.72969946e-01  1.65506995e-09  6.18443975e-01  1.65506995e-09  1.82774967e+00  1.65506995e-09  1.80000000e+00  1.65506995e-09  7.76774934e-03  1.65506995e-09  6.18443975e-01                                 
 2.03532112e-09  6.71290388e-01  2.03532112e-09  6.16982383e-01  2.03532112e-09  1.85948737e+00  2.03532112e-09  1.80000000e+00  2.03532112e-09 -7.21141845e-03  2.03532112e-09  6.16982383e-01                                 
 2.39695661e-09  6.69775596e-01  2.39695661e-09  6.15655895e-01  2.39695661e-09  1.87020640e+00  2.39695661e-09  1.80000000e+00  2.39695661e-09  6.89612103e-03  2.39695661e-09  6.15655895e-01                                 
 2.92509788e-09  6.67691595e-01  2.92509788e-09  6.13818673e-01  2.92509788e-09  1.87353086e+00  2.92509788e-09  1.80000000e+00  2.92509788e-09 -6.58836479e-03  2.92509788e-09  6.13818673e-01                                 
 3.59796787e-09  6.65230974e-01  3.59796787e-09  6.11631603e-01  3.59796787e-09  1.87276974e+00  3.59796787e-09  1.80000000e+00  3.59796787e-09  6.42555134e-03  3.59796787e-09  6.11631603e-01                                 
 4.73784753e-09  6.61474367e-01  4.73784753e-09  6.08257802e-01  4.73784753e-09  1.86902634e+00  4.73784753e-09  1.80000000e+00  4.73784753e-09 -6.28460101e-03  4.73784753e-09  6.08257802e-01                                 
 6.54434138e-09  6.56350841e-01  6.54434138e-09  6.03592822e-01  6.54434138e-09  1.86447581e+00  6.54434138e-09  1.80000000e+00  6.54434138e-09  6.23978126e-03  6.54434138e-09  6.03592822e-01                                 
 1.01573291e-08  6.48165212e-01  1.01573291e-08  5.96007472e-01  1.01573291e-08  1.85663978e+00  1.01573291e-08  1.80000000e+00  1.01573291e-08 -6.17554282e-03  1.01573291e-08  5.96007472e-01                                 
 1.28467241e-08  6.43354500e-01  1.28467241e-08  5.91472243e-01  1.28467241e-08  1.85248063e+00  1.28467241e-08  1.80000000e+00  1.28467241e-08  6.15761796e-03  1.28467241e-08  5.91472243e-01                                 
 1.46412069e-08  6.40557984e-01  1.46412069e-08  5.88813928e-01  1.46412069e-08  1.84964656e+00  1.46412069e-08  1.80000000e+00  1.46412069e-08 -6.06376075e-03  1.46412069e-08  5.88813928e-01                                 
 1.61018980e-08  6.38473094e-01  1.61018980e-08  5.86822746e-01  1.61018980e-08  1.84800994e+00  1.61018980e-08  1.80000000e+00  1.61018980e-08  6.00413911e-03  1.61018980e-08  5.86822746e-01                                 
 1.78905442e-08  6.36115230e-01  1.78905442e-08  5.84562028e-01  1.78905442e-08  1.84552926e+00  1.78905442e-08  1.80000000e+00  1.78905442e-08 -5.91403147e-03  1.78905442e-08  5.84562028e-01                                 
 2.00187237e-08  6.33547216e-01  2.00187237e-08  5.82089790e-01  2.00187237e-08  1.84330736e+00  2.00187237e-08  1.80000000e+00  2.00187237e-08  5.88035749e-03  2.00187237e-08  5.82089790e-01                                 
 2.25992625e-08  6.30721009e-01  2.25992625e-08  5.79357771e-01  2.25992625e-08  1.84008500e+00  2.25992625e-08  1.80000000e+00  2.25992625e-08 -5.81273926e-03  2.25992625e-08  5.79357771e-01                                 
 2.63682767e-08  6.27044560e-01  2.63682767e-08  5.75788305e-01  2.63682767e-08  1.83600762e+00  2.63682767e-08  1.80000000e+00  2.63682767e-08  5.80341538e-03  2.63682767e-08  5.75788305e-01                                 
 3.02585225e-08  6.23695457e-01  3.02585225e-08  5.72523480e-01  3.02585225e-08  1.83082789e+00  3.02585225e-08  1.80000000e+00  3.02585225e-08 -5.75174900e-03  3.02585225e-08  5.72523480e-01                                 
 3.80390139e-08  6.17905020e-01  3.80390139e-08  5.66867340e-01  3.80390139e-08  1.82033522e+00  3.80390139e-08  1.80000000e+00  3.80390139e-08  5.75865502e-03  3.80390139e-08  5.66867340e-01                                 
 5.02830000e-08  6.10030794e-01  5.02830000e-08  5.59251763e-01  5.02830000e-08  1.80565032e+00  5.02830000e-08  1.80000000e+00  5.02830000e-08 -5.72695302e-03  5.02830000e-08  5.59251763e-01                                 
 6.70447335e-08  6.00841236e-01  6.70447335e-08  5.50483896e-01  6.70447335e-08  1.79019919e+00  6.70447335e-08  1.80000000e+00  6.70447335e-08  5.74291721e-03  6.70447335e-08  5.50483896e-01                                 
 8.41859413e-08  5.90301168e-01  8.41859413e-08  5.40937238e-01  8.41859413e-08  1.76518130e+00  8.41859413e-08  1.80000000e+00  8.41859413e-08 -5.71420431e-03  8.41859413e-08  5.40937238e-01                                 
 1.00861703e-07  5.82183721e-01  1.00861703e-07  5.33548950e-01  1.00861703e-07  1.73342008e+00  1.00861703e-07  1.80000000e+00  1.00861703e-07  5.72921570e-03  1.00861703e-07  5.33548950e-01                                 
 1.26807476e-07  5.71480291e-01  1.26807476e-07  5.23858268e-01  1.26807476e-07  1.68813406e+00  1.26807476e-07  1.80000000e+00  1.26807476e-07 -5.70257018e-03  1.26807476e-07  5.23858268e-01                                 
 1.50481703e-07  5.68787670e-01  1.50481703e-07  5.20803476e-01  1.50481703e-07  1.66447270e+00  1.50481703e-07  1.80000000e+00  1.50481703e-07  5.72161338e-03  1.50481703e-07  5.20803476e-01                                 
 1.84989481e-07  5.72326026e-01  1.84989481e-07  5.22425415e-01  1.84989481e-07  1.64954234e+00  1.84989481e-07  1.80000000e+00  1.84989481e-07 -5.69333407e-03  1.84989481e-07  5.22425415e-01                                 
 2.04763131e-07  5.70230342e-01  2.04763131e-07  5.20170874e-01  2.04763131e-07  1.62831729e+00  2.04763131e-07  1.80000000e+00  2.04763131e-07  5.71129969e-03  2.04763131e-07  5.20170874e-01                                 
 2.29085508e-07  5.63298447e-01  2.29085508e-07  5.14028589e-01  2.29085508e-07  1.59657006e+00  2.29085508e-07  1.80000000e+00  2.29085508e-07 -5.68366788e-03  2.29085508e-07  5.14028589e-01                                 
 2.54946244e-07  5.56435748e-01  2.54946244e-07  5.07979763e-01  2.54946244e-07  1.56407207e+00  2.54946244e-07  1.80000000e+00  2.54946244e-07  5.70235978e-03  2.54946244e-07  5.07979763e-01                                 
 2.83206192e-07  5.49374968e-01  2.83206192e-07  5.01797642e-01  2.83206192e-07  1.52921529e+00  2.83206192e-07  1.80000000e+00  2.83206192e-07 -5.67527866e-03  2.83206192e-07  5.01797642e-01                                 
 3.35341227e-07  5.35541195e-01  3.35341227e-07  4.89937452e-01  3.35341227e-07  1.46301521e+00  3.35341227e-07  1.80000000e+00  3.35341227e-07  5.69614094e-03  3.35341227e-07  4.89937452e-01                                 
 4.14692510e-07  5.19902959e-01  4.14692510e-07  4.76513363e-01  4.14692510e-07  1.36708660e+00  4.14692510e-07  1.80000000e+00  4.14692510e-07 -5.67147217e-03  4.14692510e-07  4.76513363e-01                                 
 4.86625919e-07  4.91665527e-01  4.86625919e-07  4.53480449e-01  4.86625919e-07  1.26586566e+00  4.86625919e-07  1.80000000e+00  4.86625919e-07  5.69252482e-03  4.86625919e-07  4.53480449e-01                                 
 5.61078112e-07  4.60407690e-01  5.61078112e-07  4.28268325e-01  5.61078112e-07  1.15880206e+00  5.61078112e-07  1.80000000e+00  5.61078112e-07 -5.66851037e-03  5.61078112e-07  4.28268325e-01                                 
 6.46480640e-07  4.85724206e-01  6.46480640e-07  4.48413196e-01  6.46480640e-07  1.09384816e+00  6.46480640e-07  1.80000000e+00  6.46480640e-07  5.69216246e-03  6.46480640e-07  4.48413196e-01                                 
 6.67217518e-07  5.75452269e-01  6.67217518e-07  5.20155485e-01  6.67217518e-07  1.15874625e+00  6.67217518e-07  1.80000000e+00  6.67217518e-07  8.89999045e-06  6.67217518e-07  5.20155485e-01                                 
 7.08691273e-07  7.31200421e-01  7.08691273e-07  6.72664333e-01  7.08691273e-07  1.26569813e+00  7.08691273e-07  1.80000000e+00  7.08691273e-07  7.36751923e-06  7.08691273e-07  6.72664333e-01                                 
 7.19059712e-07  7.49492982e-01  7.19059712e-07  6.91129897e-01  7.19059712e-07  1.27277620e+00  7.19059712e-07  1.80000000e+00  7.19059712e-07  4.28111687e-06  7.19059712e-07  6.91129897e-01                                 
 7.39796590e-07  7.74130651e-01  7.39796590e-07  7.14002061e-01  7.39796590e-07  1.27505668e+00  7.39796590e-07  1.80000000e+00  7.39796590e-07  1.32196788e-06  7.39796590e-07  7.14002061e-01                                 
 7.81270345e-07  7.90901439e-01  7.81270345e-07  7.28540541e-01  7.81270345e-07  1.24809386e+00  7.81270345e-07  1.80000000e+00  7.81270345e-07  5.88251658e-07  7.81270345e-07  7.28540541e-01                                 
 8.22525964e-07  7.91421610e-01  8.22525964e-07  7.29008858e-01  8.22525964e-07  1.20595146e+00  8.22525964e-07  1.80000000e+00  8.22525964e-07 -4.42387002e-07  8.22525964e-07  7.29008858e-01                                 
 8.72088768e-07  7.91455597e-01  8.72088768e-07  7.29009730e-01  8.72088768e-07  1.15426741e+00  8.72088768e-07  1.80000000e+00  8.72088768e-07  5.25213597e-07  8.72088768e-07  7.29009730e-01                                 
 9.31904109e-07  7.90460771e-01  9.31904109e-07  7.28201887e-01  9.31904109e-07  1.09119374e+00  9.31904109e-07  1.80000000e+00  9.31904109e-07 -4.94081126e-07  9.31904109e-07  7.28201887e-01                                 
 1.00564297e-06  7.71323140e-01  1.00564297e-06  7.11518655e-01  1.00564297e-06  9.98980021e-01  1.00564297e-06  1.80000000e+00  1.00564297e-06 -5.03474834e-07  1.00564297e-06  7.11518655e-01                                 
 1.07565964e-06  7.67524967e-01  1.07565964e-06  7.08081485e-01  1.07565964e-06  9.35827006e-01  1.07565964e-06  1.80000000e+00  1.07565964e-06  6.16022824e-07  1.07565964e-06  7.08081485e-01                                 
 1.16390427e-06  7.87021185e-01  1.16390427e-06  7.25255510e-01  1.16390427e-06  8.90269385e-01  1.16390427e-06  1.80000000e+00  1.16390427e-06  8.69273880e-07  1.16390427e-06  7.25255510e-01                                 
 1.26051041e-06  7.73965348e-01  1.26051041e-06  7.13915707e-01  1.26051041e-06  8.19320219e-01  1.26051041e-06  1.80000000e+00  1.26051041e-06 -8.02533595e-07  1.26051041e-06  7.13915707e-01                                 
 1.34794152e-06  7.72766354e-01  1.34794152e-06  7.12768062e-01  1.34794152e-06  7.73368127e-01  1.34794152e-06  1.80000000e+00  1.34794152e-06  1.50745621e-06  1.34794152e-06  7.12768062e-01                                 
 1.45824653e-06  7.82932655e-01  1.45824653e-06  7.21775686e-01  1.45824653e-06  7.44915617e-01  1.45824653e-06  1.80000000e+00  1.45824653e-06 -1.88586603e-07  1.45824653e-06  7.21775686e-01                                 
 1.59729993e-06  7.73354722e-01  1.59729993e-06  7.13315158e-01  1.59729993e-06  7.12933763e-01  1.59729993e-06  1.80000000e+00  1.59729993e-06  9.59531250e-07  1.59729993e-06  7.13315158e-01                                 
 1.73834803e-06  7.77895416e-01  1.73834803e-06  7.17368639e-01  1.73834803e-06  7.06931165e-01  1.73834803e-06  1.80000000e+00  1.73834803e-06  3.08064232e-07  1.73834803e-06  7.17368639e-01                                 
 1.89541613e-06  7.79661060e-01  1.89541613e-06  7.18898319e-01  1.89541613e-06  7.13181533e-01  1.89541613e-06  1.80000000e+00  1.89541613e-06  9.42375158e-07  1.89541613e-06  7.18898319e-01                                 
 2.09544555e-06  7.74259905e-01  2.09544555e-06  7.14154817e-01  2.09544555e-06  7.17697084e-01  2.09544555e-06  1.80000000e+00  2.09544555e-06  1.57947980e-07  2.09544555e-06  7.14154817e-01                                 
 2.30568136e-06  7.80792374e-01  2.30568136e-06  7.19881592e-01  2.30568136e-06  7.18099193e-01  2.30568136e-06  1.80000000e+00  2.30568136e-06  1.13358184e-06  2.30568136e-06  7.19881592e-01                                 
 2.50360473e-06  7.74629550e-01  2.50360473e-06  7.14490279e-01  2.50360473e-06  7.15002161e-01  2.50360473e-06  1.80000000e+00  2.50360473e-06 -7.18818233e-08  2.50360473e-06  7.14490279e-01                                 
 2.73839992e-06  7.79335087e-01  2.73839992e-06  7.18601880e-01  2.73839992e-06  7.18930640e-01  2.73839992e-06  1.80000000e+00  2.73839992e-06  1.33366153e-06  2.73839992e-06  7.18601880e-01                                 
 2.77936564e-06  7.78888964e-01  2.77936564e-06  7.18232125e-01  2.77936564e-06  7.18183624e-01  2.77936564e-06  1.80000000e+00  2.77936564e-06  5.67844216e-07  2.77936564e-06  7.18232125e-01                                 
 2.86129708e-06  7.76870020e-01  2.86129708e-06  7.16456701e-01  2.86129708e-06  7.16399551e-01  2.86129708e-06  1.80000000e+00  2.86129708e-06  5.11092279e-07  2.86129708e-06  7.16456701e-01                                 
 3.02515996e-06  7.77453213e-01  3.02515996e-06  7.16966043e-01  3.02515996e-06  7.17167140e-01  3.02515996e-06  1.80000000e+00  3.02515996e-06  6.85373062e-07  3.02515996e-06  7.16966043e-01                                 
 3.28462843e-06  7.77898317e-01  3.28462843e-06  7.17363680e-01  3.28462843e-06  7.17429004e-01  3.28462843e-06  1.80000000e+00  3.28462843e-06  5.02756709e-07  3.28462843e-06  7.17363680e-01                                 
 3.70067172e-06  7.76916479e-01  3.70067172e-06  7.16492867e-01  3.70067172e-06  7.16617455e-01  3.70067172e-06  1.80000000e+00  3.70067172e-06  6.68324633e-07  3.70067172e-06  7.16492867e-01                                 
 4.39788311e-06  7.78149048e-01  4.39788311e-06  7.17583866e-01  4.39788311e-06  7.17687937e-01  4.39788311e-06  1.80000000e+00  4.39788311e-06  5.20159037e-07  4.39788311e-06  7.17583866e-01                                 
 5.39788311e-06  7.76784165e-01  5.39788311e-06  7.16376377e-01  5.39788311e-06  7.16480382e-01  5.39788311e-06  1.80000000e+00  5.39788311e-06  6.55093097e-07  5.39788311e-06  7.16376377e-01                                 
 6.39788311e-06  7.78236099e-01  6.39788311e-06  7.17660177e-01  6.39788311e-06  7.17778618e-01  6.39788311e-06  1.80000000e+00  6.39788311e-06  5.32065249e-07  6.39788311e-06  7.17660177e-01                                 
 7.39788311e-06  7.76711694e-01  7.39788311e-06  7.16312659e-01  7.39788311e-06  7.16404249e-01  7.39788311e-06  1.80000000e+00  7.39788311e-06  6.42507569e-07  7.39788311e-06  7.16312659e-01                                 
 8.39788311e-06  7.78289315e-01  8.39788311e-06  7.17706649e-01  8.39788311e-06  7.17835484e-01  8.39788311e-06  1.80000000e+00  8.39788311e-06  5.45185674e-07  8.39788311e-06  7.17706649e-01                                 
 9.39788311e-06  7.76673741e-01  9.39788311e-06  7.16279493e-01  9.39788311e-06  7.16362558e-01  9.39788311e-06  1.80000000e+00  9.39788311e-06  6.28999610e-07  9.39788311e-06  7.16279493e-01                                 
 1.00005000e-05  7.78308387e-01  1.00005000e-05  7.17722894e-01  1.00005000e-05  7.17859785e-01  1.00005000e-05  1.80000000e+00  1.00005000e-05  5.63495486e-07  1.00005000e-05  7.17722894e-01                                 
 1.00005500e-05  7.78307721e-01  1.00005500e-05  7.17722294e-01  1.00005500e-05  7.10845246e-01  1.00005500e-05  1.62000000e+00  1.00005500e-05 -1.17005689e-04  1.00005500e-05  7.17722294e-01                                 
 1.00006500e-05  7.78306407e-01  1.00006500e-05  7.17721104e-01  1.00006500e-05  7.00407413e-01  1.00006500e-05  1.26000000e+00  1.00006500e-05 -6.93797881e-05  1.00006500e-05  7.17721104e-01                                 
 1.00008500e-05  7.78303771e-01  1.00008500e-05  7.17718731e-01  1.00008500e-05  6.96446017e-01  1.00008500e-05  5.40000000e-01  1.00008500e-05 -2.88030439e-03  1.00008500e-05  7.17718731e-01                                 
 1.00010000e-05  7.78301773e-01  1.00010000e-05  7.17716945e-01  1.00010000e-05  7.29403012e-01  1.00010000e-05  0.00000000e+00  1.00010000e-05  1.50748625e+00  1.00010000e-05  7.17716945e-01                                 
 1.00010259e-05  7.78301430e-01  1.00010259e-05  7.17716637e-01  1.00010259e-05  7.46505808e-01  1.00010259e-05  0.00000000e+00  1.00010259e-05  1.69092329e+00  1.00010259e-05  7.17716637e-01                                 
 1.00010777e-05  7.78300708e-01  1.00010777e-05  7.17716005e-01  1.00010777e-05  7.80073738e-01  1.00010777e-05  0.00000000e+00  1.00010777e-05  1.82435248e+00  1.00010777e-05  7.17716005e-01                                 
