 time            v(vbep)         time            v(vben)         time            v(vout)         time            v(vphi1)        time            v(vphi2)        time            v(vref)         time            v(voutc)        time            v(voutcc)       yes             currtemp       
 0.00000000e+00  7.44525420e-01  0.00000000e+00  6.79521908e-01  0.00000000e+00  1.53986452e+00  0.00000000e+00  0.00000000e+00  0.00000000e+00  1.80000000e+00  0.00000000e+00  6.81047530e-01  0.00000000e+00  1.53986451e+00  0.00000000e+00  1.54698335e+00  1.00000000e+00  5.30000000e+01 
 5.00000000e-12  7.44547188e-01  5.00000000e-12  6.79575991e-01  5.00000000e-12  1.54048559e+00  5.00000000e-12  1.80000000e-02  5.00000000e-12  1.80018552e+00  5.00000000e-12  6.81439285e-01  5.00000000e-12  1.54021253e+00  5.00000000e-12  1.54699649e+00                                 
 1.00000000e-11  7.44556752e-01  1.00000000e-11  6.79611612e-01  1.00000000e-11  1.54093212e+00  1.00000000e-11  3.60000000e-02  1.00000000e-11  1.80026945e+00  1.00000000e-11  6.81746970e-01  1.00000000e-11  1.54048722e+00  1.00000000e-11  1.54700335e+00                                 
 2.00000000e-11  7.44563122e-01  2.00000000e-11  6.79661133e-01  2.00000000e-11  1.54157338e+00  2.00000000e-11  7.20000000e-02  2.00000000e-11  1.80032254e+00  2.00000000e-11  6.82228305e-01  2.00000000e-11  1.54092028e+00  2.00000000e-11  1.54700966e+00                                 
 4.00000000e-11  7.44551058e-01  4.00000000e-11  6.79697083e-01  4.00000000e-11  1.54199187e+00  4.00000000e-11  1.44000000e-01  4.00000000e-11  1.80019149e+00  4.00000000e-11  6.82690554e-01  4.00000000e-11  1.54135071e+00  4.00000000e-11  1.54700342e+00                                 
 8.00000000e-11  7.44537674e-01  8.00000000e-11  6.79702608e-01  8.00000000e-11  1.54185259e+00  8.00000000e-11  2.88000000e-01  8.00000000e-11  1.80003036e+00  8.00000000e-11  6.82827750e-01  8.00000000e-11  1.54151205e+00  8.00000000e-11  1.54698893e+00                                 
 1.60000000e-10  7.44538130e-01  1.60000000e-10  6.79689686e-01  1.60000000e-10  1.54136201e+00  1.60000000e-10  5.76000000e-01  1.60000000e-10  1.80000902e+00  1.60000000e-10  6.82628517e-01  1.60000000e-10  1.54136813e+00  1.60000000e-10  1.54698339e+00                                 
 3.20000000e-10  7.44470814e-01  3.20000000e-10  6.79247062e-01  3.20000000e-10  1.53767795e+00  3.20000000e-10  1.15200000e+00  3.20000000e-10  1.80073236e+00  3.20000000e-10  6.78796413e-01  3.20000000e-10  1.53824006e+00  3.20000000e-10  1.54695368e+00                                 
 5.00000000e-10  7.44547901e-01  5.00000000e-10  6.79730755e-01  5.00000000e-10  1.53439164e+00  5.00000000e-10  1.80000000e+00  5.00000000e-10  1.65625663e-01  5.00000000e-10  6.85490765e-01  5.00000000e-10  1.54399715e+00  5.00000000e-10  1.54704561e+00                                 
 5.21254595e-10  7.44550289e-01  5.21254595e-10  6.79762510e-01  5.21254595e-10  1.53372890e+00  5.21254595e-10  1.80000000e+00  5.21254595e-10  4.46713323e-02  5.21254595e-10  6.87122422e-01  5.21254595e-10  1.54491144e+00  5.21254595e-10  1.54703463e+00                                 
 5.63763786e-10  7.44631925e-01  5.63763786e-10  6.79827049e-01  5.63763786e-10  1.53308790e+00  5.63763786e-10  1.80000000e+00  5.63763786e-10 -1.57717280e-02  5.63763786e-10  6.89356969e-01  5.63763786e-10  1.54682143e+00  5.63763786e-10  1.54703017e+00                                 
 6.48782167e-10  7.44744732e-01  6.48782167e-10  6.79662840e-01  6.48782167e-10  1.53009921e+00  6.48782167e-10  1.80000000e+00  6.48782167e-10  1.23018450e-02  6.48782167e-10  6.89032545e-01  6.48782167e-10  1.54676287e+00  6.48782167e-10  1.54697896e+00                                 
 7.68208735e-10  7.44792011e-01  7.68208735e-10  6.79623231e-01  7.68208735e-10  1.52838511e+00  7.68208735e-10  1.80000000e+00  7.68208735e-10 -9.66404744e-03  7.68208735e-10  6.90325488e-01  7.68208735e-10  1.54772485e+00  7.68208735e-10  1.54700161e+00                                 
 9.46127853e-10  7.44852185e-01  9.46127853e-10  6.79590408e-01  9.46127853e-10  1.52726990e+00  9.46127853e-10  1.80000000e+00  9.46127853e-10  8.79445020e-03  9.46127853e-10  6.91117878e-01  9.46127853e-10  1.54857298e+00  9.46127853e-10  1.54697503e+00                                 
 1.30196609e-09  7.44815195e-01  1.30196609e-09  6.79515506e-01  1.30196609e-09  1.52536358e+00  1.30196609e-09  1.80000000e+00  1.30196609e-09 -8.00918238e-03  1.30196609e-09  6.90702577e-01  1.30196609e-09  1.54808049e+00  1.30196609e-09  1.54700616e+00                                 
 1.70603598e-09  7.44756774e-01  1.70603598e-09  6.79532560e-01  1.70603598e-09  1.52408695e+00  1.70603598e-09  1.80000000e+00  1.70603598e-09  7.66500209e-03  1.70603598e-09  6.90321822e-01  1.70603598e-09  1.54787443e+00  1.70603598e-09  1.54705865e+00                                 
 2.35459515e-09  7.44620894e-01  2.35459515e-09  6.79492721e-01  2.35459515e-09  1.52137874e+00  2.35459515e-09  1.80000000e+00  2.35459515e-09 -7.35488698e-03  2.35459515e-09  6.88688310e-01  2.35459515e-09  1.54632096e+00  2.35459515e-09  1.54719286e+00                                 
 3.06682361e-09  7.44556287e-01  3.06682361e-09  6.79522733e-01  3.06682361e-09  1.51897716e+00  3.06682361e-09  1.80000000e+00  3.06682361e-09  7.12615425e-03  3.06682361e-09  6.87745534e-01  3.06682361e-09  1.54561042e+00  3.06682361e-09  1.54734347e+00                                 
 4.12397950e-09  7.44488956e-01  4.12397950e-09  6.79488561e-01  4.12397950e-09  1.51431573e+00  4.12397950e-09  1.80000000e+00  4.12397950e-09 -6.96642484e-03  4.12397950e-09  6.85568833e-01  4.12397950e-09  1.54358977e+00  4.12397950e-09  1.54754978e+00                                 
 5.65317837e-09  7.44480744e-01  5.65317837e-09  6.79524451e-01  5.65317837e-09  1.50821223e+00  5.65317837e-09  1.80000000e+00  5.65317837e-09  6.86720464e-03  5.65317837e-09  6.83894917e-01  5.65317837e-09  1.54223893e+00  5.65317837e-09  1.54776478e+00                                 
 8.71157610e-09  7.44458274e-01  8.71157610e-09  6.79499337e-01  8.71157610e-09  1.49429384e+00  8.71157610e-09  1.80000000e+00  8.71157610e-09 -6.80129403e-03  8.71157610e-09  6.80900241e-01  8.71157610e-09  1.53951468e+00  8.71157610e-09  1.54791892e+00                                 
 1.18626909e-08  7.44488003e-01  1.18626909e-08  6.79537235e-01  1.18626909e-08  1.47909405e+00  1.18626909e-08  1.80000000e+00  1.18626909e-08  6.77313017e-03  1.18626909e-08  6.80158650e-01  1.18626909e-08  1.53897700e+00  1.18626909e-08  1.54782367e+00                                 
 1.42974132e-08  7.44487481e-01  1.42974132e-08  6.79505072e-01  1.42974132e-08  1.46565227e+00  1.42974132e-08  1.80000000e+00  1.42974132e-08 -6.68455513e-03  1.42974132e-08  6.79441240e-01  1.42974132e-08  1.53823564e+00  1.42974132e-08  1.54767085e+00                                 
 1.71342549e-08  7.44514893e-01  1.71342549e-08  6.79538832e-01  1.71342549e-08  1.44985893e+00  1.71342549e-08  1.80000000e+00  1.71342549e-08  6.65668218e-03  1.71342549e-08  6.79777688e-01  1.71342549e-08  1.53863051e+00  1.71342549e-08  1.54747953e+00                                 
 2.05114492e-08  7.44511799e-01  2.05114492e-08  6.79505595e-01  2.05114492e-08  1.42941927e+00  2.05114492e-08  1.80000000e+00  2.05114492e-08 -6.58423779e-03  2.05114492e-08  6.79477291e-01  2.05114492e-08  1.53825033e+00  2.05114492e-08  1.54726169e+00                                 
 2.51483586e-08  7.44534172e-01  2.51483586e-08  6.79538977e-01  2.51483586e-08  1.40119619e+00  2.51483586e-08  1.80000000e+00  2.51483586e-08  6.57960143e-03  2.51483586e-08  6.80137095e-01  2.51483586e-08  1.53892359e+00  2.51483586e-08  1.54702124e+00                                 
 3.07003521e-08  7.44523467e-01  3.07003521e-08  6.79505556e-01  3.07003521e-08  1.36590291e+00  3.07003521e-08  1.80000000e+00  3.07003521e-08 -6.52416494e-03  3.07003521e-08  6.80028370e-01  3.07003521e-08  1.53871288e+00  3.07003521e-08  1.54681487e+00                                 
 3.88479407e-08  7.44537359e-01  3.88479407e-08  6.79538859e-01  3.88479407e-08  1.31442309e+00  3.88479407e-08  1.80000000e+00  3.88479407e-08  6.53421034e-03  3.88479407e-08  6.80761572e-01  3.88479407e-08  1.53945437e+00  3.88479407e-08  1.54665081e+00                                 
 5.03134783e-08  7.44521309e-01  5.03134783e-08  6.79505322e-01  5.03134783e-08  1.24103509e+00  5.03134783e-08  1.80000000e+00  5.03134783e-08 -6.49271670e-03  5.03134783e-08  6.80615263e-01  5.03134783e-08  1.53921854e+00  5.03134783e-08  1.54657266e+00                                 
 7.11063849e-08  7.44533103e-01  7.11063849e-08  6.79538632e-01  7.11063849e-08  1.10946117e+00  7.11063849e-08  1.80000000e+00  7.11063849e-08  6.51403809e-03  7.11063849e-08  6.81204850e-01  7.11063849e-08  1.53984299e+00  7.11063849e-08  1.54660950e+00                                 
 1.02032976e-07  7.44518142e-01  1.02032976e-07  6.79505169e-01  1.02032976e-07  9.16059855e-01  1.02032976e-07  1.80000000e+00  1.02032976e-07 -6.48044695e-03  1.02032976e-07  6.80842040e-01  1.02032976e-07  1.53942256e+00  1.02032976e-07  1.54670696e+00                                 
 1.37347509e-07  7.44532738e-01  1.37347509e-07  6.79538585e-01  1.37347509e-07  7.39545847e-01  1.37347509e-07  1.80000000e+00  1.37347509e-07  6.50716335e-03  1.37347509e-07  6.81247179e-01  1.37347509e-07  1.53988249e+00  1.37347509e-07  1.54675872e+00                                 
 1.66470440e-07  7.44520666e-01  1.66470440e-07  6.79505434e-01  1.66470440e-07  6.81380938e-01  1.66470440e-07  1.80000000e+00  1.66470440e-07 -6.46786167e-03  1.66470440e-07  6.80850926e-01  1.66470440e-07  1.53942920e+00  1.66470440e-07  1.54676777e+00                                 
 1.97335270e-07  7.44528349e-01  1.97335270e-07  6.79538253e-01  1.97335270e-07  6.82675790e-01  1.97335270e-07  1.80000000e+00  1.97335270e-07  6.49863061e-03  1.97335270e-07  6.81250426e-01  1.97335270e-07  1.53988343e+00  1.97335270e-07  1.54677537e+00                                 
 2.12241442e-07  7.44520886e-01  2.12241442e-07  6.79505517e-01  2.12241442e-07  6.82616872e-01  2.12241442e-07  1.80000000e+00  2.12241442e-07 -6.45360092e-03  2.12241442e-07  6.80845432e-01  2.12241442e-07  1.53942302e+00  2.12241442e-07  1.54677188e+00                                 
 2.35257320e-07  7.44530553e-01  2.35257320e-07  6.79538283e-01  2.35257320e-07  6.82711414e-01  2.35257320e-07  1.80000000e+00  2.35257320e-07  6.48261728e-03  2.35257320e-07  6.81249319e-01  2.35257320e-07  1.53988094e+00  2.35257320e-07  1.54677372e+00                                 
 2.81289075e-07  7.44520056e-01  2.81289075e-07  6.79505519e-01  2.81289075e-07  6.82502361e-01  2.81289075e-07  1.80000000e+00  2.81289075e-07 -6.44405845e-03  2.81289075e-07  6.80845650e-01  2.81289075e-07  1.53942081e+00  2.81289075e-07  1.54676889e+00                                 
 3.64450919e-07  7.44530899e-01  3.64450919e-07  6.79538281e-01  3.64450919e-07  6.82714715e-01  3.64450919e-07  1.80000000e+00  3.64450919e-07  6.47772881e-03  3.64450919e-07  6.81249279e-01  3.64450919e-07  1.53987628e+00  3.64450919e-07  1.54676896e+00                                 
 5.30774607e-07  7.44519887e-01  5.30774607e-07  6.79505520e-01  5.30774607e-07  6.82499247e-01  5.30774607e-07  1.80000000e+00  5.30774607e-07 -6.44147899e-03  5.30774607e-07  6.80845667e-01  5.30774607e-07  1.53941201e+00  5.30774607e-07  1.54676003e+00                                 
 8.63421983e-07  7.44530979e-01  8.63421983e-07  6.79538281e-01  8.63421983e-07  6.82716137e-01  8.63421983e-07  1.80000000e+00  8.63421983e-07  6.47641675e-03  8.63421983e-07  6.81249271e-01  8.63421983e-07  1.53985858e+00  8.63421983e-07  1.54675130e+00                                 
 1.52871674e-06  7.44519848e-01  1.52871674e-06  6.79505520e-01  1.52871674e-06  6.82498450e-01  1.52871674e-06  1.80000000e+00  1.52871674e-06 -6.44083431e-03  1.52871674e-06  6.80845670e-01  1.52871674e-06  1.53937663e+00  1.52871674e-06  1.54672469e+00                                 
 2.52871674e-06  7.44531001e-01  2.52871674e-06  6.79538280e-01  2.52871674e-06  6.82716530e-01  2.52871674e-06  1.80000000e+00  2.52871674e-06  6.47607417e-03  2.52871674e-06  6.81249269e-01  2.52871674e-06  1.53979955e+00  2.52871674e-06  1.54669236e+00                                 
 3.52871674e-06  7.44519831e-01  3.52871674e-06  6.79505520e-01  3.52871674e-06  6.82498088e-01  3.52871674e-06  1.80000000e+00  3.52871674e-06 -6.44072707e-03  3.52871674e-06  6.80845672e-01  3.52871674e-06  1.53930575e+00  3.52871674e-06  1.54665391e+00                                 
 4.52871674e-06  7.44531018e-01  4.52871674e-06  6.79538280e-01  4.52871674e-06  6.82716846e-01  4.52871674e-06  1.80000000e+00  4.52871674e-06  6.47579446e-03  4.52871674e-06  6.81249268e-01  4.52871674e-06  1.53972866e+00  4.52871674e-06  1.54662157e+00                                 
 5.52871674e-06  7.44519813e-01  5.52871674e-06  6.79505520e-01  5.52871674e-06  6.82497735e-01  5.52871674e-06  1.80000000e+00  5.52871674e-06 -6.44044108e-03  5.52871674e-06  6.80845673e-01  5.52871674e-06  1.53923490e+00  5.52871674e-06  1.54658316e+00                                 
 6.52871674e-06  7.44531035e-01  6.52871674e-06  6.79538280e-01  6.52871674e-06  6.82717167e-01  6.52871674e-06  1.80000000e+00  6.52871674e-06  6.47550551e-03  6.52871674e-06  6.81249266e-01  6.52871674e-06  1.53965784e+00  6.52871674e-06  1.54655086e+00                                 
 7.52871674e-06  7.44519797e-01  7.52871674e-06  6.79505521e-01  7.52871674e-06  6.82497384e-01  7.52871674e-06  1.80000000e+00  7.52871674e-06 -6.44015511e-03  7.52871674e-06  6.80845675e-01  7.52871674e-06  1.53916408e+00  7.52871674e-06  1.54651243e+00                                 
 8.52871674e-06  7.44531052e-01  8.52871674e-06  6.79538280e-01  8.52871674e-06  6.82717486e-01  8.52871674e-06  1.80000000e+00  8.52871674e-06  6.47521659e-03  8.52871674e-06  6.81249265e-01  8.52871674e-06  1.53958698e+00  8.52871674e-06  1.54648010e+00                                 
 9.52871674e-06  7.44519780e-01  9.52871674e-06  6.79505521e-01  9.52871674e-06  6.82497034e-01  9.52871674e-06  1.80000000e+00  9.52871674e-06 -6.43986915e-03  9.52871674e-06  6.80845676e-01  9.52871674e-06  1.53909323e+00  9.52871674e-06  1.54644167e+00                                 
 1.00005000e-05  7.44531077e-01  1.00005000e-05  6.79538280e-01  1.00005000e-05  6.82717984e-01  1.00005000e-05  1.80000000e+00  1.00005000e-05  6.47476898e-03  1.00005000e-05  6.81249263e-01  1.00005000e-05  1.53953483e+00  1.00005000e-05  1.54642804e+00                                 
 1.00005500e-05  7.44488571e-01  1.00005500e-05  6.79332415e-01  1.00005500e-05  6.80830796e-01  1.00005500e-05  1.62000000e+00  1.00005500e-05  5.60027539e-04  1.00005500e-05  6.79542112e-01  1.00005500e-05  1.53799157e+00  1.00005500e-05  1.54640761e+00                                 
 1.00006500e-05  7.44512253e-01  1.00006500e-05  6.79306229e-01  1.00006500e-05  6.80807746e-01  1.00006500e-05  1.26000000e+00  1.00006500e-05 -4.99273951e-04  1.00006500e-05  6.79163216e-01  1.00006500e-05  1.53765182e+00  1.00006500e-05  1.54642871e+00                                 
 1.00008500e-05  7.44561030e-01  1.00008500e-05  6.79498856e-01  1.00008500e-05  6.83065939e-01  1.00008500e-05  5.40000000e-01  1.00008500e-05 -2.57720031e-03  1.00008500e-05  6.80085460e-01  1.00008500e-05  1.53693904e+00  1.00008500e-05  1.54641867e+00                                 
 1.00010000e-05  7.44510102e-01  1.00010000e-05  6.78653493e-01  1.00010000e-05  7.03645280e-01  1.00010000e-05  0.00000000e+00  1.00010000e-05  1.51461390e+00  1.00010000e-05  6.70358672e-01  1.00010000e-05  1.48053872e+00  1.00010000e-05  1.54593420e+00                                 
 1.00010253e-05  7.44528215e-01  1.00010253e-05  6.78319241e-01  1.00010253e-05  7.09556266e-01  1.00010253e-05  0.00000000e+00  1.00010253e-05  1.69113311e+00  1.00010253e-05  6.66262809e-01  1.00010253e-05  1.45382724e+00  1.00010253e-05  1.54575215e+00                                 
 1.00010760e-05  7.44528523e-01  1.00010760e-05  6.77664884e-01  1.00010760e-05  7.15399737e-01  1.00010760e-05  0.00000000e+00  1.00010760e-05  1.82105772e+00  1.00010760e-05  6.58422710e-01  1.00010760e-05  1.39381856e+00  1.00010760e-05  1.54559975e+00                                 
 1.00011774e-05  7.44521614e-01  1.00011774e-05  6.77523227e-01  1.00011774e-05  7.09826140e-01  1.00011774e-05  0.00000000e+00  1.00011774e-05  1.78686632e+00  1.00011774e-05  6.57262336e-01  1.00011774e-05  1.28837766e+00  1.00011774e-05  1.54613784e+00                                 
 1.00013043e-05  7.44528175e-01  1.00013043e-05  6.77830197e-01  1.00013043e-05  7.06398821e-01  1.00013043e-05  0.00000000e+00  1.00013043e-05  1.80694259e+00  1.00013043e-05  6.61636954e-01  1.00013043e-05  1.18682151e+00  1.00013043e-05  1.54650572e+00                                 
 1.00015215e-05  7.44521269e-01  1.00015215e-05  6.77987673e-01  1.00015215e-05  7.02551332e-01  1.00015215e-05  0.00000000e+00  1.00015215e-05  1.79395517e+00  1.00015215e-05  6.62690249e-01  1.00015215e-05  1.04216900e+00  1.00015215e-05  1.54670939e+00                                 
 1.00018241e-05  7.44527536e-01  1.00018241e-05  6.78532490e-01  1.00018241e-05  6.97781038e-01  1.00018241e-05  0.00000000e+00  1.00018241e-05  1.80439206e+00  1.00018241e-05  6.67682538e-01  1.00018241e-05  8.97124193e-01  1.00018241e-05  1.54664883e+00                                 
 1.00022549e-05  7.44521982e-01  1.00022549e-05  6.79111621e-01  1.00022549e-05  6.92000388e-01  1.00022549e-05  0.00000000e+00  1.00022549e-05  1.79575669e+00  1.00022549e-05  6.72385035e-01  1.00022549e-05  7.62967118e-01  1.00022549e-05  1.54609384e+00                                 
 1.00027205e-05  7.44527697e-01  1.00027205e-05  6.79800344e-01  1.00027205e-05  6.85677325e-01  1.00027205e-05  0.00000000e+00  1.00027205e-05  1.80350108e+00  1.00027205e-05  6.79349232e-01  1.00027205e-05  7.04825822e-01  1.00027205e-05  1.54490785e+00                                 
 1.00031091e-05  7.44522610e-01  1.00031091e-05  6.79909960e-01  1.00031091e-05  6.85502873e-01  1.00031091e-05  0.00000000e+00  1.00031091e-05  1.79697887e+00  1.00031091e-05  6.80242699e-01  1.00031091e-05  6.89490752e-01  1.00031091e-05  1.54343470e+00                                 
 1.00036688e-05  7.44527617e-01  1.00036688e-05  6.80051098e-01  1.00036688e-05  6.85024441e-01  1.00036688e-05  0.00000000e+00  1.00036688e-05  1.80269151e+00  1.00036688e-05  6.82460992e-01  1.00036688e-05  6.86192310e-01  1.00036688e-05  1.54088277e+00                                 
 1.00041801e-05  7.44523031e-01  1.00041801e-05  6.79934932e-01  1.00041801e-05  6.87154066e-01  1.00041801e-05  0.00000000e+00  1.00041801e-05  1.79762870e+00  1.00041801e-05  6.81786211e-01  1.00041801e-05  6.85772587e-01  1.00041801e-05  1.53829139e+00                                 
 1.00051801e-05  7.44527545e-01  1.00051801e-05  6.79903849e-01  1.00051801e-05  6.89092205e-01  1.00051801e-05  0.00000000e+00  1.00051801e-05  1.80222594e+00  1.00051801e-05  6.82813441e-01  1.00051801e-05  6.89136383e-01  1.00051801e-05  1.53294053e+00                                 
 1.00066145e-05  7.44523246e-01  1.00066145e-05  6.79714092e-01  1.00066145e-05  6.94065642e-01  1.00066145e-05  0.00000000e+00  1.00066145e-05  1.79787611e+00  1.00066145e-05  6.81988781e-01  1.00066145e-05  6.92431731e-01  1.00066145e-05  1.52486729e+00                                 
 1.00094833e-05  7.44527541e-01  1.00094833e-05  6.79625148e-01  1.00094833e-05  7.01567837e-01  1.00094833e-05  0.00000000e+00  1.00094833e-05  1.80207977e+00  1.00094833e-05  6.82625576e-01  1.00094833e-05  7.01507279e-01  1.00094833e-05  1.50819989e+00                                 
