 time            v(vbep)         time            v(vben)         time            v(vout)         time            v(vphi1)        time            v(vphi2)        time            v(vref)         time            v(voutc)        time            v(voutcc)       yes             currtemp       
 0.00000000e+00  8.25268984e-01  0.00000000e+00  7.74287674e-01  0.00000000e+00  1.70584379e+00  0.00000000e+00  0.00000000e+00  0.00000000e+00  1.80000000e+00  0.00000000e+00  7.77894875e-01  0.00000000e+00  1.70584378e+00  0.00000000e+00  1.71106562e+00  1.00000000e+00 -8.00000000e+00 
 1.00000000e-11  8.25291547e-01  1.00000000e-11  7.74355911e-01  1.00000000e-11  1.70665994e+00  1.00000000e-11  1.80000000e-02  1.00000000e-11  1.80024481e+00  1.00000000e-11  7.78413962e-01  1.00000000e-11  1.70630447e+00  1.00000000e-11  1.71107881e+00                                 
 2.00000000e-11  8.25297827e-01  2.00000000e-11  7.74398900e-01  2.00000000e-11  1.70720362e+00  2.00000000e-11  3.60000000e-02  2.00000000e-11  1.80034647e+00  2.00000000e-11  7.78805162e-01  2.00000000e-11  1.70666354e+00  2.00000000e-11  1.71108464e+00                                 
 4.00000000e-11  8.25297727e-01  4.00000000e-11  7.74455163e-01  4.00000000e-11  1.70791792e+00  4.00000000e-11  7.20000000e-02  4.00000000e-11  1.80039261e+00  4.00000000e-11  7.79382791e-01  4.00000000e-11  1.70721485e+00  4.00000000e-11  1.71108796e+00                                 
 8.00000000e-11  8.25286344e-01  8.00000000e-11  7.74488433e-01  8.00000000e-11  1.70823198e+00  8.00000000e-11  1.44000000e-01  8.00000000e-11  1.80019892e+00  8.00000000e-11  7.79841836e-01  8.00000000e-11  1.70772421e+00  8.00000000e-11  1.71107792e+00                                 
 1.60000000e-10  8.25282968e-01  1.60000000e-10  7.74489092e-01  1.60000000e-10  1.70798660e+00  1.60000000e-10  2.88000000e-01  1.60000000e-10  1.80001153e+00  1.60000000e-10  7.79902543e-01  1.60000000e-10  1.70789800e+00  1.60000000e-10  1.71106577e+00                                 
 3.20000000e-10  8.25280382e-01  3.20000000e-10  7.74488365e-01  3.20000000e-10  1.70767967e+00  3.20000000e-10  5.76000000e-01  3.20000000e-10  1.80001693e+00  3.20000000e-10  7.79853631e-01  3.20000000e-10  1.70783280e+00  3.20000000e-10  1.71106351e+00                                 
 6.40000000e-10  8.25208474e-01  6.40000000e-10  7.74264876e-01  6.40000000e-10  1.70184885e+00  6.40000000e-10  1.15200000e+00  6.40000000e-10  1.81346600e+00  6.40000000e-10  7.79239164e-01  6.40000000e-10  1.71258815e+00  6.40000000e-10  1.71109195e+00                                 
 9.96223843e-10  8.25645032e-01  9.96223843e-10  7.74304410e-01  9.96223843e-10  1.67205407e+00  9.96223843e-10  1.79320292e+00  9.96223843e-10  7.71016341e-02  9.96223843e-10  7.81008065e-01  9.96223843e-10  1.70241802e+00  9.96223843e-10  1.71098060e+00                                 
 1.00000000e-09  8.25658159e-01  1.00000000e-09  7.74323735e-01  1.00000000e-09  1.67179881e+00  1.00000000e-09  1.80000000e+00  1.00000000e-09  5.07850834e-02  1.00000000e-09  7.81300601e-01  1.00000000e-09  1.70230286e+00  1.00000000e-09  1.71098713e+00                                 
 1.00755231e-09  8.25640890e-01  1.00755231e-09  7.74327161e-01  1.00755231e-09  1.67166870e+00  1.00755231e-09  1.80000000e+00  1.00755231e-09  2.77785747e-02  1.00755231e-09  7.81960130e-01  1.00755231e-09  1.70257250e+00  1.00755231e-09  1.71101123e+00                                 
 1.02265694e-09  8.25625525e-01  1.02265694e-09  7.74372388e-01  1.02265694e-09  1.67194803e+00  1.02265694e-09  1.80000000e+00  1.02265694e-09  3.51223087e-03  1.02265694e-09  7.83407517e-01  1.02265694e-09  1.70353057e+00  1.02265694e-09  1.71106068e+00                                 
 1.05286620e-09  8.25668392e-01  1.05286620e-09  7.74449085e-01  1.05286620e-09  1.67254217e+00  1.05286620e-09  1.80000000e+00  1.05286620e-09  7.79353902e-04  1.05286620e-09  7.85274567e-01  1.05286620e-09  1.70516981e+00  1.05286620e-09  1.71109187e+00                                 
 1.11328472e-09  8.25800953e-01  1.11328472e-09  7.74399533e-01  1.11328472e-09  1.67092580e+00  1.11328472e-09  1.80000000e+00  1.11328472e-09  8.19138729e-04  1.11328472e-09  7.85829333e-01  1.11328472e-09  1.70567587e+00  1.11328472e-09  1.71105673e+00                                 
 1.23412175e-09  8.25972163e-01  1.23412175e-09  7.74317744e-01  1.23412175e-09  1.66640871e+00  1.23412175e-09  1.80000000e+00  1.23412175e-09  2.39038096e-04  1.23412175e-09  7.86352165e-01  1.23412175e-09  1.70610040e+00  1.23412175e-09  1.71106843e+00                                 
 1.47579581e-09  8.26060900e-01  1.47579581e-09  7.74296130e-01  1.47579581e-09  1.66168305e+00  1.47579581e-09  1.80000000e+00  1.47579581e-09  1.58682408e-04  1.47579581e-09  7.86767341e-01  1.47579581e-09  1.70644780e+00  1.47579581e-09  1.71106890e+00                                 
 1.72825339e-09  8.25923824e-01  1.72825339e-09  7.74282828e-01  1.72825339e-09  1.66227497e+00  1.72825339e-09  1.80000000e+00  1.72825339e-09 -1.25538736e-04  1.72825339e-09  7.86246161e-01  1.72825339e-09  1.70600096e+00  1.72825339e-09  1.71107179e+00                                 
 1.99697390e-09  8.25745279e-01  1.99697390e-09  7.74282114e-01  1.99697390e-09  1.66423889e+00  1.99697390e-09  1.80000000e+00  1.99697390e-09  5.52198743e-05  1.99697390e-09  7.85783501e-01  1.99697390e-09  1.70561286e+00  1.99697390e-09  1.71107565e+00                                 
 2.31776006e-09  8.25553142e-01  2.31776006e-09  7.74274908e-01  2.31776006e-09  1.66654874e+00  2.31776006e-09  1.80000000e+00  2.31776006e-09 -1.19582495e-04  2.31776006e-09  7.85132341e-01  2.31776006e-09  1.70505848e+00  2.31776006e-09  1.71107904e+00                                 
 2.93785487e-09  8.25312923e-01  2.93785487e-09  7.74270210e-01  2.93785487e-09  1.67041666e+00  2.93785487e-09  1.80000000e+00  2.93785487e-09  4.51180159e-05  2.93785487e-09  7.84043973e-01  2.93785487e-09  1.70413992e+00  2.93785487e-09  1.71108623e+00                                 
 4.17804450e-09  8.25140553e-01  4.17804450e-09  7.74265575e-01  4.17804450e-09  1.67589236e+00  4.17804450e-09  1.80000000e+00  4.17804450e-09 -1.09672883e-04  4.17804450e-09  7.82087629e-01  4.17804450e-09  1.70248064e+00  4.17804450e-09  1.71108430e+00                                 
 6.65842376e-09  8.25170218e-01  6.65842376e-09  7.74274199e-01  6.65842376e-09  1.68077364e+00  6.65842376e-09  1.80000000e+00  6.65842376e-09  5.04709114e-05  6.65842376e-09  7.79519682e-01  6.65842376e-09  1.70030882e+00  6.65842376e-09  1.71101483e+00                                 
 9.01374955e-09  8.25215854e-01  9.01374955e-09  7.74281142e-01  9.01374955e-09  1.68096506e+00  9.01374955e-09  1.80000000e+00  9.01374955e-09 -9.81592387e-05  9.01374955e-09  7.78231048e-01  9.01374955e-09  1.69921407e+00  9.01374955e-09  1.71087065e+00                                 
 1.11957938e-08  8.25227609e-01  1.11957938e-08  7.74285504e-01  1.11957938e-08  1.67984697e+00  1.11957938e-08  1.80000000e+00  1.11957938e-08  5.71795808e-05  1.11957938e-08  7.77676193e-01  1.11957938e-08  1.69874442e+00  1.11957938e-08  1.71069404e+00                                 
 1.36203940e-08  8.25223922e-01  1.36203940e-08  7.74286505e-01  1.36203940e-08  1.67889173e+00  1.36203940e-08  1.80000000e+00  1.36203940e-08 -8.45897886e-05  1.36203940e-08  7.77343721e-01  1.36203940e-08  1.69845553e+00  1.36203940e-08  1.71047048e+00                                 
 1.68250322e-08  8.25226699e-01  1.68250322e-08  7.74287934e-01  1.68250322e-08  1.67786556e+00  1.68250322e-08  1.80000000e+00  1.68250322e-08  6.85763799e-05  1.68250322e-08  7.77225228e-01  1.68250322e-08  1.69834846e+00  1.68250322e-08  1.71016387e+00                                 
 2.09458620e-08  8.25247434e-01  2.09458620e-08  7.74287345e-01  2.09458620e-08  1.67450101e+00  2.09458620e-08  1.80000000e+00  2.09458620e-08 -7.56573335e-05  2.09458620e-08  7.77192278e-01  2.09458620e-08  1.69830334e+00  2.09458620e-08  1.70977268e+00                                 
 2.65346668e-08  8.25265436e-01  2.65346668e-08  7.74288118e-01  2.65346668e-08  1.66710245e+00  2.65346668e-08  1.80000000e+00  2.65346668e-08  7.11135186e-05  2.65346668e-08  7.77289769e-01  2.65346668e-08  1.69836773e+00  2.65346668e-08  1.70927594e+00                                 
 3.44618469e-08  8.25271244e-01  3.44618469e-08  7.74287519e-01  3.44618469e-08  1.65441534e+00  3.44618469e-08  1.80000000e+00  3.44618469e-08 -7.39125000e-05  3.44618469e-08  7.77383408e-01  3.44618469e-08  1.69841824e+00  3.44618469e-08  1.70863976e+00                                 
 4.72141024e-08  8.25272393e-01  4.72141024e-08  7.74288122e-01  4.72141024e-08  1.63259415e+00  4.72141024e-08  1.80000000e+00  4.72141024e-08  7.08539999e-05  4.72141024e-08  7.77554442e-01  4.72141024e-08  1.69853266e+00  4.72141024e-08  1.70777391e+00                                 
 6.58330801e-08  8.25269783e-01  6.58330801e-08  7.74287422e-01  6.58330801e-08  1.59929569e+00  6.58330801e-08  1.80000000e+00  6.58330801e-08 -7.38725890e-05  6.58330801e-08  7.77673244e-01  6.58330801e-08  1.69859792e+00  6.58330801e-08  1.70678726e+00                                 
 1.03071035e-07  8.25270305e-01  1.03071035e-07  7.74288013e-01  1.03071035e-07  1.53060820e+00  1.03071035e-07  1.80000000e+00  1.03071035e-07  7.05961087e-05  1.03071035e-07  7.77837207e-01  1.03071035e-07  1.69870278e+00  1.03071035e-07  1.70550136e+00                                 
 1.77546946e-07  8.25268322e-01  1.77546946e-07  7.74287370e-01  1.77546946e-07  1.39226661e+00  1.77546946e-07  1.80000000e+00  1.77546946e-07 -7.38522000e-05  1.77546946e-07  7.77883558e-01  1.77546946e-07  1.69871185e+00  1.77546946e-07  1.70436725e+00                                 
 2.97376594e-07  8.25269683e-01  2.97376594e-07  7.74287996e-01  2.97376594e-07  1.17344040e+00  2.97376594e-07  1.80000000e+00  2.97376594e-07  7.06500201e-05  2.97376594e-07  7.77906140e-01  2.97376594e-07  1.69872128e+00  2.97376594e-07  1.70397074e+00                                 
 4.62198198e-07  8.25268290e-01  4.62198198e-07  7.74287360e-01  4.62198198e-07  8.94281137e-01  4.62198198e-07  1.80000000e+00  4.62198198e-07 -7.31324409e-05  4.62198198e-07  7.77882939e-01  4.62198198e-07  1.69869132e+00  4.62198198e-07  1.70394166e+00                                 
 6.19938659e-07  8.25269763e-01  6.19938659e-07  7.74287993e-01  6.19938659e-07  7.76288374e-01  6.19938659e-07  1.80000000e+00  6.19938659e-07  7.23268018e-05  6.19938659e-07  7.77906979e-01  6.19938659e-07  1.69870760e+00  6.19938659e-07  1.70394083e+00                                 
 7.72313534e-07  8.25268097e-01  7.72313534e-07  7.74287354e-01  7.72313534e-07  7.83354867e-01  7.72313534e-07  1.80000000e+00  7.72313534e-07 -7.22001068e-05  7.72313534e-07  7.77883737e-01  7.72313534e-07  1.69867894e+00  7.72313534e-07  1.70393342e+00                                 
 8.31123677e-07  8.25269822e-01  8.31123677e-07  7.74287979e-01  8.31123677e-07  7.81899588e-01  8.31123677e-07  1.80000000e+00  8.31123677e-07  7.22082748e-05  8.31123677e-07  7.77905399e-01  8.31123677e-07  1.69869731e+00  8.31123677e-07  1.70393147e+00                                 
 9.15909649e-07  8.25268244e-01  9.15909649e-07  7.74287392e-01  9.15909649e-07  7.81398463e-01  9.15909649e-07  1.80000000e+00  9.15909649e-07 -7.22004080e-05  9.15909649e-07  7.77884226e-01  9.15909649e-07  1.69867331e+00  9.15909649e-07  1.70392690e+00                                 
 1.06972137e-06  8.25269685e-01  1.06972137e-06  7.74287966e-01  1.06972137e-06  7.81662100e-01  1.06972137e-06  1.80000000e+00  1.06972137e-06  7.22293859e-05  1.06972137e-06  7.77905612e-01  1.06972137e-06  1.69868746e+00  1.06972137e-06  1.70392149e+00                                 
 1.29829545e-06  8.25268307e-01  1.29829545e-06  7.74287402e-01  1.29829545e-06  7.81408142e-01  1.29829545e-06  1.80000000e+00  1.29829545e-06 -7.21808620e-05  1.29829545e-06  7.77884135e-01  1.29829545e-06  1.69865715e+00  1.29829545e-06  1.70391088e+00                                 
 1.57169793e-06  8.25269643e-01  1.57169793e-06  7.74287955e-01  1.57169793e-06  7.81676784e-01  1.57169793e-06  1.80000000e+00  1.57169793e-06  7.21815018e-05  1.57169793e-06  7.77905665e-01  1.57169793e-06  1.69866636e+00  1.57169793e-06  1.70390039e+00                                 
 2.08826376e-06  8.25268334e-01  2.08826376e-06  7.74287409e-01  2.08826376e-06  7.81427836e-01  2.08826376e-06  1.80000000e+00  2.08826376e-06 -7.22059357e-05  2.08826376e-06  7.77884100e-01  2.08826376e-06  1.69862383e+00  2.08826376e-06  1.70387768e+00                                 
 2.86100455e-06  8.25269630e-01  2.86100455e-06  7.74287955e-01  2.86100455e-06  7.81668648e-01  2.86100455e-06  1.80000000e+00  2.86100455e-06  7.21886361e-05  2.86100455e-06  7.77905690e-01  2.86100455e-06  1.69861211e+00  2.86100455e-06  1.70384625e+00                                 
 4.06100455e-06  8.25268343e-01  4.06100455e-06  7.74287408e-01  4.06100455e-06  7.81442699e-01  4.06100455e-06  1.80000000e+00  4.06100455e-06 -7.21705893e-05  4.06100455e-06  7.77884082e-01  4.06100455e-06  1.69854083e+00  4.06100455e-06  1.70379491e+00                                 
 5.26100455e-06  8.25269622e-01  5.26100455e-06  7.74287952e-01  5.26100455e-06  7.81672928e-01  5.26100455e-06  1.80000000e+00  5.26100455e-06  7.21630135e-05  5.26100455e-06  7.77905696e-01  5.26100455e-06  1.69851111e+00  5.26100455e-06  1.70374550e+00                                 
 6.00100000e-06  8.25268352e-01  6.00100000e-06  7.74287406e-01  6.00100000e-06  7.81456025e-01  6.00100000e-06  1.80000000e+00  6.00100000e-06 -7.20998893e-05  6.00100000e-06  7.77884062e-01  6.00100000e-06  1.69845913e+00  6.00100000e-06  1.70371343e+00                                 
 6.00110000e-06  8.25235429e-01  6.00110000e-06  7.74060433e-01  6.00110000e-06  7.79449130e-01  6.00110000e-06  1.62000000e+00  6.00110000e-06 -1.02233070e-04  6.00110000e-06  7.76067626e-01  6.00110000e-06  1.69692194e+00  6.00110000e-06  1.70369959e+00                                 
 6.00130000e-06  8.25265570e-01  6.00130000e-06  7.74115714e-01  6.00130000e-06  7.80150520e-01  6.00130000e-06  1.26000000e+00  6.00130000e-06  4.90072641e-05  6.00130000e-06  7.76353563e-01  6.00130000e-06  1.69716703e+00  6.00130000e-06  1.70372211e+00                                 
 6.00170000e-06  8.25297510e-01  6.00170000e-06  7.74187447e-01  6.00170000e-06  7.83074920e-01  6.00170000e-06  5.40000000e-01  6.00170000e-06  3.16238199e-01  6.00170000e-06  7.75789682e-01  6.00170000e-06  1.68786894e+00  6.00170000e-06  1.70365883e+00                                 
 6.00200000e-06  8.25262255e-01  6.00200000e-06  7.71926934e-01  6.00200000e-06  8.26806976e-01  6.00200000e-06  0.00000000e+00  6.00200000e-06  1.66007541e+00  6.00200000e-06  7.48569857e-01  6.00200000e-06  1.47833886e+00  6.00200000e-06  1.70285204e+00                                 
 6.00204793e-06  8.25270255e-01  6.00204793e-06  7.71895638e-01  6.00204793e-06  8.25492028e-01  6.00204793e-06  0.00000000e+00  6.00204793e-06  1.75188227e+00  6.00204793e-06  7.48094411e-01  6.00204793e-06  1.42095144e+00  6.00204793e-06  1.70312258e+00                                 
 6.00214378e-06  8.25268228e-01  6.00214378e-06  7.71907958e-01  6.00214378e-06  8.18757377e-01  6.00214378e-06  0.00000000e+00  6.00214378e-06  1.81222366e+00  6.00214378e-06  7.48347991e-01  6.00214378e-06  1.31204975e+00  6.00214378e-06  1.70361908e+00                                 
 6.00233548e-06  8.25267441e-01  6.00233548e-06  7.72480139e-01  6.00233548e-06  8.06163755e-01  6.00233548e-06  0.00000000e+00  6.00233548e-06  1.79059249e+00  6.00233548e-06  7.55203552e-01  6.00233548e-06  1.15766131e+00  6.00233548e-06  1.70380980e+00                                 
 6.00251641e-06  8.25268438e-01  6.00251641e-06  7.72821221e-01  6.00251641e-06  8.02647381e-01  6.00251641e-06  0.00000000e+00  6.00251641e-06  1.80462743e+00  6.00251641e-06  7.58832788e-01  6.00251641e-06  1.06380348e+00  6.00251641e-06  1.70387650e+00                                 
 6.00275136e-06  8.25266983e-01  6.00275136e-06  7.73166571e-01  6.00275136e-06  7.97839202e-01  6.00275136e-06  0.00000000e+00  6.00275136e-06  1.79631614e+00  6.00275136e-06  7.62047226e-01  6.00275136e-06  9.68332226e-01  6.00275136e-06  1.70396721e+00                                 
 6.00302240e-06  8.25268821e-01  6.00302240e-06  7.73599137e-01  6.00302240e-06  7.94599586e-01  6.00302240e-06  0.00000000e+00  6.00302240e-06  1.80203922e+00  6.00302240e-06  7.66179058e-01  6.00302240e-06  8.85253542e-01  6.00302240e-06  1.70402763e+00                                 
 6.00356447e-06  8.25267451e-01  6.00356447e-06  7.74356104e-01  6.00356447e-06  7.85524968e-01  6.00356447e-06  0.00000000e+00  6.00356447e-06  1.79786131e+00  6.00356447e-06  7.73563878e-01  6.00356447e-06  7.98486080e-01  6.00356447e-06  1.70398981e+00                                 
 6.00396865e-06  8.25269388e-01  6.00396865e-06  7.74725438e-01  6.00396865e-06  7.82551628e-01  6.00396865e-06  0.00000000e+00  6.00396865e-06  1.80168522e+00  6.00396865e-06  7.77359228e-01  6.00396865e-06  7.86249429e-01  6.00396865e-06  1.70380081e+00                                 
 6.00437016e-06  8.25267817e-01  6.00437016e-06  7.74755056e-01  6.00437016e-06  7.82184144e-01  6.00437016e-06  0.00000000e+00  6.00437016e-06  1.79867084e+00  6.00437016e-06  7.77591847e-01  6.00437016e-06  7.82489151e-01  6.00437016e-06  1.70346707e+00                                 
 6.00488899e-06  8.25269671e-01  6.00488899e-06  7.74794397e-01  6.00488899e-06  7.82029285e-01  6.00488899e-06  0.00000000e+00  6.00488899e-06  1.80112490e+00  6.00488899e-06  7.78622229e-01  6.00488899e-06  7.82483230e-01  6.00488899e-06  1.70291271e+00                                 
 6.00576019e-06  8.25268083e-01  6.00576019e-06  7.74659932e-01  6.00576019e-06  7.82917923e-01  6.00576019e-06  0.00000000e+00  6.00576019e-06  1.79899560e+00  6.00576019e-06  7.78248081e-01  6.00576019e-06  7.82361638e-01  6.00576019e-06  1.70180799e+00                                 
 6.00733224e-06  8.25269812e-01  6.00733224e-06  7.74558077e-01  6.00733224e-06  7.84233983e-01  6.00733224e-06  0.00000000e+00  6.00733224e-06  1.80095610e+00  6.00733224e-06  7.78904782e-01  6.00733224e-06  7.84416961e-01  6.00733224e-06  1.69962022e+00                                 
 6.01047633e-06  8.25268139e-01  6.01047633e-06  7.74376036e-01  6.01047633e-06  7.87893131e-01  6.01047633e-06  0.00000000e+00  6.01047633e-06  1.79907999e+00  6.01047633e-06  7.78452008e-01  6.01047633e-06  7.87270948e-01  6.01047633e-06  1.69507823e+00                                 
 6.01676450e-06  8.25269815e-01  6.01676450e-06  7.74322997e-01  6.01676450e-06  7.95081750e-01  6.01676450e-06  0.00000000e+00  6.01676450e-06  1.80091565e+00  6.01676450e-06  7.78869484e-01  6.01676450e-06  7.95208128e-01  6.01676450e-06  1.68606100e+00                                 
 6.02934086e-06  8.25268150e-01  6.02934086e-06  7.74254655e-01  6.02934086e-06  8.10067485e-01  6.02934086e-06  0.00000000e+00  6.02934086e-06  1.79909976e+00  6.02934086e-06  7.78149839e-01  6.02934086e-06  8.09329648e-01  6.02934086e-06  1.66792300e+00                                 
 6.05224250e-06  8.25269815e-01  6.05224250e-06  7.74308040e-01  6.05224250e-06  8.35325073e-01  6.05224250e-06  0.00000000e+00  6.05224250e-06  1.80090503e+00  6.05224250e-06  7.78412168e-01  6.05224250e-06  8.35533565e-01  6.05224250e-06  1.63354112e+00                                 
 6.09804577e-06  8.25268152e-01  6.09804577e-06  7.74264543e-01  6.09804577e-06  8.81374123e-01  6.09804577e-06  0.00000000e+00  6.09804577e-06  1.79910398e+00  6.09804577e-06  7.77697434e-01  6.09804577e-06  8.79926003e-01  6.09804577e-06  1.56239011e+00                                 
