 time            v(vbep)         time            v(vben)         time            v(vout)         time            v(vphi1)        time            v(vphi2)        time            v(vref)         time            v(voutc)        time            v(voutcc)       yes             currtemp       
 0.00000000e+00  6.68405067e-01  0.00000000e+00  5.95052801e-01  0.00000000e+00  1.34707996e+00  0.00000000e+00  0.00000000e+00  0.00000000e+00  1.79999998e+00  0.00000000e+00  5.93727761e-01  0.00000000e+00  1.34707995e+00  0.00000000e+00  1.35562397e+00  1.00000000e+00  9.60000000e+01 
 1.00000000e-11  6.68430441e-01  1.00000000e-11  5.95123966e-01  1.00000000e-11  1.34778699e+00  1.00000000e-11  1.80000000e-02  1.00000000e-11  1.80024080e+00  1.00000000e-11  5.94226755e-01  1.00000000e-11  1.34751726e+00  1.00000000e-11  1.35563520e+00                                 
 2.00000000e-11  6.68437121e-01  2.00000000e-11  5.95166801e-01  2.00000000e-11  1.34820035e+00  2.00000000e-11  3.60000000e-02  2.00000000e-11  1.80033179e+00  2.00000000e-11  5.94591536e-01  2.00000000e-11  1.34784042e+00  2.00000000e-11  1.35563877e+00                                 
 4.00000000e-11  6.68436786e-01  4.00000000e-11  5.95221229e-01  4.00000000e-11  1.34866901e+00  4.00000000e-11  7.20000000e-02  4.00000000e-11  1.80035830e+00  4.00000000e-11  5.95117822e-01  4.00000000e-11  1.34831129e+00  4.00000000e-11  1.35563873e+00                                 
 8.00000000e-11  6.68424966e-01  8.00000000e-11  5.95251637e-01  8.00000000e-11  1.34869574e+00  8.00000000e-11  1.44000000e-01  8.00000000e-11  1.80015713e+00  8.00000000e-11  5.95513586e-01  8.00000000e-11  1.34866998e+00  8.00000000e-11  1.35562895e+00                                 
 1.60000000e-10  6.68422227e-01  1.60000000e-10  5.95256262e-01  1.60000000e-10  1.34838373e+00  1.60000000e-10  2.88000000e-01  1.60000000e-10  1.80000362e+00  1.60000000e-10  5.95598730e-01  1.60000000e-10  1.34870424e+00  1.60000000e-10  1.35562082e+00                                 
 3.20000000e-10  6.68416700e-01  3.20000000e-10  5.95244884e-01  3.20000000e-10  1.34805768e+00  3.20000000e-10  5.76000000e-01  3.20000000e-10  1.79998788e+00  3.20000000e-10  5.95490113e-01  3.20000000e-10  1.34843222e+00  3.20000000e-10  1.35561596e+00                                 
 6.40000000e-10  6.68336197e-01  6.40000000e-10  5.94729162e-01  6.40000000e-10  1.34627484e+00  6.40000000e-10  1.15200000e+00  6.40000000e-10  1.80596957e+00  6.40000000e-10  5.91641309e-01  6.40000000e-10  1.34969652e+00  6.40000000e-10  1.35562931e+00                                 
 1.00000000e-09  6.68935590e-01  1.00000000e-09  5.95288840e-01  1.00000000e-09  1.32679492e+00  1.00000000e-09  1.80000000e+00  1.00000000e-09  1.21391627e-01  1.00000000e-09  6.03614847e-01  1.00000000e-09  1.35442903e+00  1.00000000e-09  1.35565287e+00                                 
 1.03871251e-09  6.69025778e-01  1.03871251e-09  5.95246457e-01  1.03871251e-09  1.32460655e+00  1.03871251e-09  1.80000000e+00  1.03871251e-09  3.04012007e-02  1.03871251e-09  6.05382386e-01  1.03871251e-09  1.35495007e+00  1.03871251e-09  1.35565274e+00                                 
 1.11613752e-09  6.69210928e-01  1.11613752e-09  5.95228436e-01  1.11613752e-09  1.32247775e+00  1.11613752e-09  1.80000000e+00  1.11613752e-09 -1.32893786e-02  1.11613752e-09  6.07363224e-01  1.11613752e-09  1.35633496e+00  1.11613752e-09  1.35566057e+00                                 
 1.27098754e-09  6.69292870e-01  1.27098754e-09  5.95074848e-01  1.27098754e-09  1.32016065e+00  1.27098754e-09  1.80000000e+00  1.27098754e-09  1.01292451e-02  1.27098754e-09  6.06086482e-01  1.27098754e-09  1.35554107e+00  1.27098754e-09  1.35563743e+00                                 
 1.51883455e-09  6.69163749e-01  1.51883455e-09  5.95071967e-01  1.51883455e-09  1.31941368e+00  1.51883455e-09  1.80000000e+00  1.51883455e-09 -8.17970830e-03  1.51883455e-09  6.04896100e-01  1.51883455e-09  1.35428253e+00  1.51883455e-09  1.35569215e+00                                 
 1.74988580e-09  6.68987810e-01  1.74988580e-09  5.95067711e-01  1.74988580e-09  1.31920433e+00  1.74988580e-09  1.80000000e+00  1.74988580e-09  6.67648042e-03  1.74988580e-09  6.03507139e-01  1.74988580e-09  1.35330503e+00  1.74988580e-09  1.35573524e+00                                 
 2.21198829e-09  6.68669730e-01  2.21198829e-09  5.95044940e-01  2.21198829e-09  1.31776658e+00  2.21198829e-09  1.80000000e+00  2.21198829e-09 -6.03948037e-03  2.21198829e-09  6.01229447e-01  2.21198829e-09  1.35118057e+00  2.21198829e-09  1.35586821e+00                                 
 2.91663511e-09  6.68413201e-01  2.91663511e-09  5.95058243e-01  2.91663511e-09  1.31467414e+00  2.91663511e-09  1.80000000e+00  2.91663511e-09  5.63953564e-03  2.91663511e-09  5.98650400e-01  2.91663511e-09  1.34915013e+00  2.91663511e-09  1.35602548e+00                                 
 4.32592875e-09  6.68214414e-01  4.32592875e-09  5.95028378e-01  4.32592875e-09  1.30603839e+00  4.32592875e-09  1.80000000e+00  4.32592875e-09 -5.45851610e-03  4.32592875e-09  5.95194894e-01  4.32592875e-09  1.34604802e+00  4.32592875e-09  1.35619724e+00                                 
 5.65175406e-09  6.68211740e-01  5.65175406e-09  5.95051895e-01  5.65175406e-09  1.29736127e+00  5.65175406e-09  1.80000000e+00  5.65175406e-09  5.27979766e-03  5.65175406e-09  5.93810544e-01  5.65175406e-09  1.34502890e+00  5.65175406e-09  1.35616658e+00                                 
 7.08187565e-09  6.68229146e-01  7.08187565e-09  5.95028949e-01  7.08187565e-09  1.28648983e+00  7.08187565e-09  1.80000000e+00  7.08187565e-09 -5.09689847e-03  7.08187565e-09  5.92907266e-01  7.08187565e-09  1.34410836e+00  7.08187565e-09  1.35602944e+00                                 
 8.46440885e-09  6.68281803e-01  8.46440885e-09  5.95058142e-01  8.46440885e-09  1.27535122e+00  8.46440885e-09  1.80000000e+00  8.46440885e-09  4.94893934e-03  8.46440885e-09  5.92778230e-01  8.46440885e-09  1.34414203e+00  8.46440885e-09  1.35583716e+00                                 
 1.05359054e-08  6.68325920e-01  1.05359054e-08  5.95034793e-01  1.05359054e-08  1.25674033e+00  1.05359054e-08  1.80000000e+00  1.05359054e-08 -4.81834156e-03  1.05359054e-08  5.92500993e-01  1.05359054e-08  1.34375236e+00  1.05359054e-08  1.35554080e+00                                 
 1.29632561e-08  6.68382329e-01  1.29632561e-08  5.95064744e-01  1.29632561e-08  1.23414376e+00  1.29632561e-08  1.80000000e+00  1.29632561e-08  4.75306696e-03  1.29632561e-08  5.92756122e-01  1.29632561e-08  1.34409717e+00  1.29632561e-08  1.35520301e+00                                 
 1.66972683e-08  6.68403086e-01  1.66972683e-08  5.95038717e-01  1.66972683e-08  1.19749103e+00  1.66972683e-08  1.80000000e+00  1.66972683e-08 -4.66862679e-03  1.66972683e-08  5.92761055e-01  1.66972683e-08  1.34394369e+00  1.66972683e-08  1.35476938e+00                                 
 2.16546007e-08  6.68424768e-01  2.16546007e-08  5.95067478e-01  2.16546007e-08  1.14859208e+00  2.16546007e-08  1.80000000e+00  2.16546007e-08  4.65339595e-03  2.16546007e-08  5.93178754e-01  2.16546007e-08  1.34441957e+00  2.16546007e-08  1.35432566e+00                                 
 2.90524164e-08  6.68409975e-01  2.90524164e-08  5.95038935e-01  2.90524164e-08  1.07520500e+00  2.90524164e-08  1.80000000e+00  2.90524164e-08 -4.59674080e-03  2.90524164e-08  5.93221667e-01  2.90524164e-08  1.34430389e+00  2.90524164e-08  1.35389220e+00                                 
 3.85029668e-08  6.68415362e-01  3.85029668e-08  5.95067083e-01  3.85029668e-08  9.83300670e-01  3.85029668e-08  1.80000000e+00  3.85029668e-08  4.60320506e-03  3.85029668e-08  5.93591472e-01  3.85029668e-08  1.34474612e+00  3.85029668e-08  1.35357896e+00                                 
 5.74040676e-08  6.68400135e-01  5.74040676e-08  5.95038805e-01  5.74040676e-08  8.03917692e-01  5.74040676e-08  1.80000000e+00  5.74040676e-08 -4.56174803e-03  5.74040676e-08  5.93561833e-01  5.74040676e-08  1.34457972e+00  5.74040676e-08  1.35334361e+00                                 
 8.12087914e-08  6.68415796e-01  8.12087914e-08  5.95067213e-01  8.12087914e-08  6.39834579e-01  8.12087914e-08  1.80000000e+00  8.12087914e-08  4.59253622e-03  8.12087914e-08  5.93816990e-01  8.12087914e-08  1.34493244e+00  8.12087914e-08  1.35330953e+00                                 
 1.03558865e-07  6.68394642e-01  1.03558865e-07  5.95038737e-01  1.03558865e-07  5.97110518e-01  1.03558865e-07  1.80000000e+00  1.03558865e-07 -4.53413615e-03  1.03558865e-07  5.93640201e-01  1.03558865e-07  1.34464660e+00  1.03558865e-07  1.35332917e+00                                 
 1.20261348e-07  6.68410962e-01  1.20261348e-07  5.95066504e-01  1.20261348e-07  5.95057185e-01  1.20261348e-07  1.80000000e+00  1.20261348e-07  4.57402523e-03  1.20261348e-07  5.93823745e-01  1.20261348e-07  1.34493760e+00  1.20261348e-07  1.35333301e+00                                 
 1.39163236e-07  6.68398506e-01  1.39163236e-07  5.95039002e-01  1.39163236e-07  5.92185796e-01  1.39163236e-07  1.80000000e+00  1.39163236e-07 -4.51156913e-03  1.39163236e-07  5.93632563e-01  1.39163236e-07  1.34463941e+00  1.39163236e-07  1.35333604e+00                                 
 1.58039285e-07  6.68411554e-01  1.58039285e-07  5.95066630e-01  1.58039285e-07  5.93136941e-01  1.58039285e-07  1.80000000e+00  1.58039285e-07  4.55307221e-03  1.58039285e-07  5.93824582e-01  1.58039285e-07  1.34493677e+00  1.58039285e-07  1.35333343e+00                                 
 1.95791383e-07  6.68398402e-01  1.95791383e-07  5.95038922e-01  1.95791383e-07  5.91900948e-01  1.95791383e-07  1.80000000e+00  1.95791383e-07 -4.49593170e-03  1.95791383e-07  5.93630749e-01  1.95791383e-07  1.34463618e+00  1.95791383e-07  1.35333437e+00                                 
 2.49254890e-07  6.68411836e-01  2.49254890e-07  5.95066694e-01  2.49254890e-07  5.92950945e-01  2.49254890e-07  1.80000000e+00  2.49254890e-07  4.54412276e-03  2.49254890e-07  5.93824944e-01  2.49254890e-07  1.34493391e+00  2.49254890e-07  1.35333013e+00                                 
 3.43831937e-07  6.68398240e-01  3.43831937e-07  5.95038886e-01  3.43831937e-07  5.91945234e-01  3.43831937e-07  1.80000000e+00  3.43831937e-07 -4.49019003e-03  3.43831937e-07  5.93630450e-01  3.43831937e-07  1.34463107e+00  3.43831937e-07  1.35332937e+00                                 
 5.01140477e-07  6.68411928e-01  5.01140477e-07  5.95066714e-01  5.01140477e-07  5.92923439e-01  5.01140477e-07  1.80000000e+00  5.01140477e-07  4.54077130e-03  5.01140477e-07  5.93825106e-01  5.01140477e-07  1.34492562e+00  5.01140477e-07  1.35332175e+00                                 
 8.15757555e-07  6.68398188e-01  8.15757555e-07  5.95038874e-01  8.15757555e-07  5.91956110e-01  8.15757555e-07  1.80000000e+00  8.15757555e-07 -4.48832101e-03  8.15757555e-07  5.93630361e-01  8.15757555e-07  1.34461529e+00  8.15757555e-07  1.35331366e+00                                 
 1.44499171e-06  6.68411954e-01  1.44499171e-06  5.95066719e-01  1.44499171e-06  5.92916334e-01  1.44499171e-06  1.80000000e+00  1.44499171e-06  4.53982780e-03  1.44499171e-06  5.93825150e-01  1.44499171e-06  1.34489415e+00  1.44499171e-06  1.35329030e+00                                 
 2.64499171e-06  6.68398175e-01  2.64499171e-06  5.95038872e-01  2.64499171e-06  5.91958800e-01  2.64499171e-06  1.80000000e+00  2.64499171e-06 -4.48784624e-03  2.64499171e-06  5.93630340e-01  2.64499171e-06  1.34455428e+00  2.64499171e-06  1.35325273e+00                                 
 3.84499171e-06  6.68411963e-01  3.84499171e-06  5.95066721e-01  3.84499171e-06  5.92912336e-01  3.84499171e-06  1.80000000e+00  3.84499171e-06  4.53949790e-03  3.84499171e-06  5.93825165e-01  3.84499171e-06  1.34481418e+00  3.84499171e-06  1.35321040e+00                                 
 5.04499171e-06  6.68398166e-01  5.04499171e-06  5.95038870e-01  5.04499171e-06  5.91960755e-01  5.04499171e-06  1.80000000e+00  5.04499171e-06 -4.48751963e-03  5.04499171e-06  5.93630325e-01  5.04499171e-06  1.34447432e+00  5.04499171e-06  1.35317286e+00                                 
 6.00100000e-06  6.68411973e-01  6.00100000e-06  5.95066723e-01  6.00100000e-06  5.92910164e-01  6.00100000e-06  1.80000000e+00  6.00100000e-06  4.53912600e-03  6.00100000e-06  5.93825181e-01  6.00100000e-06  1.34474233e+00  6.00100000e-06  1.35313862e+00                                 
 6.00110000e-06  6.68353738e-01  6.00110000e-06  5.94815515e-01  6.00110000e-06  5.91078297e-01  6.00110000e-06  1.62000000e+00  6.00110000e-06  3.60305764e-04  6.00110000e-06  5.92222117e-01  6.00110000e-06  1.34331374e+00  6.00110000e-06  1.35312942e+00                                 
 6.00130000e-06  6.68387516e-01  6.00130000e-06  5.94806752e-01  6.00130000e-06  5.90867345e-01  6.00130000e-06  1.26000000e+00  6.00130000e-06 -3.51156889e-04  6.00130000e-06  5.91860624e-01  6.00130000e-06  1.34299732e+00  6.00130000e-06  1.35314439e+00                                 
 6.00164721e-06  6.68459602e-01  6.00164721e-06  5.94996089e-01  6.00164721e-06  5.92729893e-01  6.00164721e-06  6.35018361e-01  6.00164721e-06  4.32993676e-02  6.00164721e-06  5.91891550e-01  6.00164721e-06  1.33952417e+00  6.00164721e-06  1.35311882e+00                                 
 6.00200000e-06  6.68384340e-01  6.00200000e-06  5.93830142e-01  6.00200000e-06  6.25205743e-01  6.00200000e-06  0.00000000e+00  6.00200000e-06  1.62073347e+00  6.00200000e-06  5.79822722e-01  6.00200000e-06  1.13021067e+00  6.00200000e-06  1.35254148e+00                                 
 6.00204631e-06  6.68402209e-01  6.00204631e-06  5.93144310e-01  6.00204631e-06  6.33153398e-01  6.00204631e-06  0.00000000e+00  6.00204631e-06  1.73519003e+00  6.00204631e-06  5.72032517e-01  6.00204631e-06  1.05481672e+00  6.00204631e-06  1.35252699e+00                                 
 6.00213893e-06  6.68407325e-01  6.00213893e-06  5.92176765e-01  6.00213893e-06  6.38089135e-01  6.00213893e-06  0.00000000e+00  6.00213893e-06  1.81418849e+00  6.00213893e-06  5.61044737e-01  6.00213893e-06  9.06718762e-01  6.00213893e-06  1.35295094e+00                                 
 6.00232417e-06  6.68402754e-01  6.00232417e-06  5.92671491e-01  6.00232417e-06  6.21376865e-01  6.00232417e-06  0.00000000e+00  6.00232417e-06  1.78808525e+00  6.00232417e-06  5.66699445e-01  6.00232417e-06  7.10188714e-01  6.00232417e-06  1.35353746e+00                                 
 6.00250538e-06  6.68405437e-01  6.00250538e-06  5.93891641e-01  6.00250538e-06  6.06386458e-01  6.00250538e-06  0.00000000e+00  6.00250538e-06  1.80591283e+00  6.00250538e-06  5.79769625e-01  6.00250538e-06  6.36027939e-01  6.00250538e-06  1.35353999e+00                                 
 6.00264920e-06  6.68402870e-01  6.00264920e-06  5.94499804e-01  6.00264920e-06  5.99710080e-01  6.00264920e-06  0.00000000e+00  6.00264920e-06  1.79701155e+00  6.00264920e-06  5.85477758e-01  6.00264920e-06  6.12313311e-01  6.00264920e-06  1.35332873e+00                                 
 6.00284062e-06  6.68405218e-01  6.00284062e-06  5.95077846e-01  6.00284062e-06  5.95566163e-01  6.00284062e-06  0.00000000e+00  6.00284062e-06  1.80191214e+00  6.00284062e-06  5.90965953e-01  6.00284062e-06  6.00609725e-01  6.00284062e-06  1.35236842e+00                                 
 6.00305158e-06  6.68403453e-01  6.00305158e-06  5.95296192e-01  6.00305158e-06  5.94038710e-01  6.00305158e-06  0.00000000e+00  6.00305158e-06  1.79886345e+00  6.00305158e-06  5.92676087e-01  6.00305158e-06  5.95330444e-01  6.00305158e-06  1.35113293e+00                                 
 6.00338011e-06  6.68405440e-01  6.00338011e-06  5.95471579e-01  6.00338011e-06  5.93756757e-01  6.00338011e-06  0.00000000e+00  6.00338011e-06  1.80090923e+00  6.00338011e-06  5.94430537e-01  6.00338011e-06  5.94133019e-01  6.00338011e-06  1.34873816e+00                                 
 6.00382110e-06  6.68403998e-01  6.00382110e-06  5.95448709e-01  6.00382110e-06  5.94761577e-01  6.00382110e-06  0.00000000e+00  6.00382110e-06  1.79929302e+00  6.00382110e-06  5.94420208e-01  6.00382110e-06  5.94329796e-01  6.00382110e-06  1.34534735e+00                                 
 6.00457948e-06  6.68405715e-01  6.00457948e-06  5.95432331e-01  6.00457948e-06  5.96856438e-01  6.00457948e-06  0.00000000e+00  6.00457948e-06  1.80065318e+00  6.00457948e-06  5.94950239e-01  6.00457948e-06  5.96813118e-01  6.00457948e-06  1.33901086e+00                                 
 6.00584719e-06  6.68404274e-01  6.00584719e-06  5.95319280e-01  6.00584719e-06  6.00783268e-01  6.00584719e-06  0.00000000e+00  6.00584719e-06  1.79941860e+00  6.00584719e-06  5.94649860e-01  6.00584719e-06  6.00285428e-01  6.00584719e-06  1.32787061e+00                                 
 6.00838260e-06  6.68405792e-01  6.00838260e-06  5.95201297e-01  6.00838260e-06  6.08472816e-01  6.00838260e-06  0.00000000e+00  6.00838260e-06  1.80058640e+00  6.00838260e-06  5.94895676e-01  6.00838260e-06  6.08384506e-01  6.00838260e-06  1.30439613e+00                                 
 6.01345342e-06  6.68404322e-01  6.01345342e-06  5.95037774e-01  6.01345342e-06  6.23742383e-01  6.01345342e-06  0.00000000e+00  6.01345342e-06  1.79944906e+00  6.01345342e-06  5.94325382e-01  6.01345342e-06  6.23198132e-01  6.01345342e-06  1.25640850e+00                                 
 6.02172788e-06  6.68405796e-01  6.02172788e-06  5.95050569e-01  6.02172788e-06  6.47695340e-01  6.02172788e-06  0.00000000e+00  6.02172788e-06  1.80056931e+00  6.02172788e-06  5.94347320e-01  6.02172788e-06  6.47567447e-01  6.02172788e-06  1.17681411e+00                                 
 6.03704763e-06  6.68404332e-01  6.03704763e-06  5.95035306e-01  6.03704763e-06  6.89866095e-01  6.03704763e-06  0.00000000e+00  6.03704763e-06  1.79945731e+00  6.03704763e-06  5.93719247e-01  6.03704763e-06  6.89210172e-01  6.03704763e-06  1.02918718e+00                                 
 6.05174133e-06  6.68405799e-01  6.05174133e-06  5.95064009e-01  6.05174133e-06  7.27367827e-01  6.05174133e-06  0.00000000e+00  6.05174133e-06  1.80056100e+00  6.05174133e-06  5.93943129e-01  6.05174133e-06  7.27224997e-01  6.05174133e-06  9.02029182e-01                                 
 6.07049239e-06  6.68404335e-01  6.07049239e-06  5.95039082e-01  6.07049239e-06  7.71672143e-01  6.07049239e-06  0.00000000e+00  6.07049239e-06  1.79946144e+00  6.07049239e-06  5.93569912e-01  6.07049239e-06  7.70868055e-01  6.07049239e-06  8.05563183e-01                                 
 6.09144042e-06  6.68405797e-01  6.09144042e-06  5.95066107e-01  6.09144042e-06  8.16359221e-01  6.09144042e-06  0.00000000e+00  6.09144042e-06  1.80055394e+00  6.09144042e-06  5.93885253e-01  6.09144042e-06  8.16339210e-01  6.09144042e-06  7.96632082e-01                                 
 6.10428193e-06  6.68404338e-01  6.10428193e-06  5.95039182e-01  6.10428193e-06  8.41584741e-01  6.10428193e-06  0.00000000e+00  6.10428193e-06  1.79946566e+00  6.10428193e-06  5.93553850e-01  6.10428193e-06  8.40653509e-01  6.10428193e-06  8.18941028e-01                                 
 6.11780221e-06  6.68405794e-01  6.11780221e-06  5.95066580e-01  6.11780221e-06  8.66216715e-01  6.11780221e-06  0.00000000e+00  6.11780221e-06  1.80054553e+00  6.11780221e-06  5.93886035e-01  6.11780221e-06  8.66218111e-01  6.11780221e-06  8.43314318e-01                                 
 6.13368206e-06  6.68404340e-01  6.13368206e-06  5.95038849e-01  6.13368206e-06  8.93170038e-01  6.13368206e-06  0.00000000e+00  6.13368206e-06  1.79947066e+00  6.13368206e-06  5.93550529e-01  6.13368206e-06  8.92086411e-01  6.13368206e-06  8.71225258e-01                                 
 6.16544175e-06  6.68405793e-01  6.16544175e-06  5.95066863e-01  6.16544175e-06  9.40419508e-01  6.16544175e-06  0.00000000e+00  6.16544175e-06  1.80053928e+00  6.16544175e-06  5.93889632e-01  6.16544175e-06  9.40528110e-01  6.16544175e-06  9.20943569e-01                                 
