 time            v(vbep)         time            v(vben)         time            v(vout)         time            v(vphi1)        time            v(vphi2)        time            v(vref)         yes             currtemp       
 0.00000000e+00  8.35761472e-01  0.00000000e+00  7.85512436e-01  0.00000000e+00  9.79497897e-01  0.00000000e+00  0.00000000e+00  0.00000000e+00  1.79874443e+00  0.00000000e+00  7.85512436e-01  1.00000000e+00 -1.00000000e+01 
 5.00000000e-12  8.35214582e-01  5.00000000e-12  7.85243142e-01  5.00000000e-12  9.80241659e-01  5.00000000e-12  1.80000000e-02  5.00000000e-12  1.79907231e+00  5.00000000e-12  7.85243142e-01                                 
 1.00000000e-11  8.34800618e-01  1.00000000e-11  7.85060471e-01  1.00000000e-11  9.80935115e-01  1.00000000e-11  3.60000000e-02  1.00000000e-11  1.79934312e+00  1.00000000e-11  7.85060471e-01                                 
 2.00000000e-11  8.34138473e-01  2.00000000e-11  7.84730513e-01  2.00000000e-11  9.82234176e-01  2.00000000e-11  7.20000000e-02  2.00000000e-11  1.79975909e+00  2.00000000e-11  7.84730513e-01                                 
 4.00000000e-11  8.33292041e-01  4.00000000e-11  7.84110723e-01  4.00000000e-11  9.84424525e-01  4.00000000e-11  1.44000000e-01  4.00000000e-11  1.80008577e+00  4.00000000e-11  7.84110723e-01                                 
 8.00000000e-11  8.31934354e-01  8.00000000e-11  7.82876746e-01  8.00000000e-11  9.87545955e-01  8.00000000e-11  2.88000000e-01  8.00000000e-11  1.80008973e+00  8.00000000e-11  7.82876746e-01                                 
 1.60000000e-10  8.29306218e-01  1.60000000e-10  7.80466874e-01  1.60000000e-10  9.90789832e-01  1.60000000e-10  5.76000000e-01  1.60000000e-10  1.79996143e+00  1.60000000e-10  7.80466874e-01                                 
 3.20000000e-10  8.24260867e-01  3.20000000e-10  7.75840657e-01  3.20000000e-10  9.78298509e-01  3.20000000e-10  1.15200000e+00  3.20000000e-10  1.80021741e+00  3.20000000e-10  7.75840657e-01                                 
 5.00000000e-10  8.18970245e-01  5.00000000e-10  7.70981047e-01  5.00000000e-10  1.04246112e+00  5.00000000e-10  1.80000000e+00  5.00000000e-10  1.20803944e-01  5.00000000e-10  7.70981047e-01                                 
 5.20373689e-10  8.18403256e-01  5.20373689e-10  7.70460562e-01  5.20373689e-10  1.06161364e+00  5.20373689e-10  1.80000000e+00  5.20373689e-10  2.74041685e-02  5.20373689e-10  7.70460562e-01                                 
 5.61121066e-10  8.17276914e-01  5.61121066e-10  7.69423911e-01  5.61121066e-10  1.10042483e+00  5.61121066e-10  1.80000000e+00  5.61121066e-10 -1.12236426e-02  5.61121066e-10  7.69423911e-01                                 
 6.42615822e-10  8.15080086e-01  6.42615822e-10  7.67402310e-01  6.42615822e-10  1.17301788e+00  6.42615822e-10  1.80000000e+00  6.42615822e-10  9.57097434e-03  6.42615822e-10  7.67402310e-01                                 
 7.62758407e-10  8.11980140e-01  7.62758407e-10  7.64547587e-01  7.62758407e-10  1.27342538e+00  7.62758407e-10  1.80000000e+00  7.62758407e-10 -7.67271362e-03  7.62758407e-10  7.64547587e-01                                 
 9.43281127e-10  8.07616988e-01  9.43281127e-10  7.60525443e-01  9.43281127e-10  1.40591558e+00  9.43281127e-10  1.80000000e+00  9.43281127e-10  7.59734263e-03  9.43281127e-10  7.60525443e-01                                 
 1.30432657e-09  7.99828930e-01  1.30432657e-09  7.53332311e-01  1.30432657e-09  1.59346847e+00  1.30432657e-09  1.80000000e+00  1.30432657e-09 -6.74628332e-03  1.30432657e-09  7.53332311e-01                                 
 1.82719951e-09  7.90508849e-01  1.82719951e-09  7.44681691e-01  1.82719951e-09  1.72568722e+00  1.82719951e-09  1.80000000e+00  1.82719951e-09  6.79269980e-03  1.82719951e-09  7.44681691e-01                                 
 2.21893069e-09  7.84830906e-01  2.21893069e-09  7.39368668e-01  2.21893069e-09  1.75829223e+00  2.21893069e-09  1.80000000e+00  2.21893069e-09 -6.39965453e-03  2.21893069e-09  7.39368668e-01                                 
 2.66277501e-09  7.79355269e-01  2.66277501e-09  7.34213018e-01  2.66277501e-09  1.77002385e+00  2.66277501e-09  1.80000000e+00  2.66277501e-09  6.19557338e-03  2.66277501e-09  7.34213018e-01                                 
 3.13925070e-09  7.74356053e-01  3.13925070e-09  7.29477614e-01  3.13925070e-09  1.77060555e+00  3.13925070e-09  1.80000000e+00  3.13925070e-09 -5.96179483e-03  3.13925070e-09  7.29477614e-01                                 
 3.96289734e-09  7.67228521e-01  3.96289734e-09  7.22679409e-01  3.96289734e-09  1.76593377e+00  3.96289734e-09  1.80000000e+00  3.96289734e-09  5.84580621e-03  3.96289734e-09  7.22679409e-01                                 
 5.04239369e-09  7.59939967e-01  5.04239369e-09  7.15668505e-01  5.04239369e-09  1.75828085e+00  5.04239369e-09  1.80000000e+00  5.04239369e-09 -5.74593070e-03  5.04239369e-09  7.15668505e-01                                 
 7.16391345e-09  7.49451396e-01  7.16391345e-09  7.05487363e-01  7.16391345e-09  1.74804190e+00  7.16391345e-09  1.80000000e+00  7.16391345e-09  5.71163594e-03  7.16391345e-09  7.05487363e-01                                 
 1.09496263e-08  7.37222639e-01  1.09496263e-08  6.93492000e-01  1.09496263e-08  1.73582869e+00  1.09496263e-08  1.80000000e+00  1.09496263e-08 -5.67045136e-03  1.09496263e-08  6.93492000e-01                                 
 1.65066283e-08  7.26005245e-01  1.65066283e-08  6.82389558e-01  1.65066283e-08  1.72523999e+00  1.65066283e-08  1.80000000e+00  1.65066283e-08  5.67453542e-03  1.65066283e-08  6.82389558e-01                                 
 2.09465224e-08  7.19825939e-01  2.09465224e-08  6.76241388e-01  2.09465224e-08  1.71909279e+00  2.09465224e-08  1.80000000e+00  2.09465224e-08 -5.63168077e-03  2.09465224e-08  6.76241388e-01                                 
 2.26464377e-08  7.17839501e-01  2.26464377e-08  6.74261032e-01  2.26464377e-08  1.71742623e+00  2.26464377e-08  1.80000000e+00  2.26464377e-08  5.59606700e-03  2.26464377e-08  6.74261032e-01                                 
 2.51003706e-08  7.15228388e-01  2.51003706e-08  6.71655951e-01  2.51003706e-08  1.71469928e+00  2.51003706e-08  1.80000000e+00  2.51003706e-08 -5.53727998e-03  2.51003706e-08  6.71655951e-01                                 
 2.74328176e-08  7.12983826e-01  2.74328176e-08  6.69414376e-01  2.74328176e-08  1.71279768e+00  2.74328176e-08  1.80000000e+00  2.74328176e-08  5.51745245e-03  2.74328176e-08  6.69414376e-01                                 
 3.20977116e-08  7.09024587e-01  3.20977116e-08  6.65456712e-01  3.20977116e-08  1.70879352e+00  3.20977116e-08  1.80000000e+00  3.20977116e-08 -5.47710609e-03  3.20977116e-08  6.65456712e-01                                 
 3.66882140e-08  7.05678748e-01  3.66882140e-08  6.62108124e-01  3.66882140e-08  1.70584752e+00  3.66882140e-08  1.80000000e+00  3.66882140e-08  5.47770980e-03  3.66882140e-08  6.62108124e-01                                 
 4.58692189e-08  7.00093938e-01  4.58692189e-08  6.56512059e-01  4.58692189e-08  1.70031335e+00  4.58692189e-08  1.80000000e+00  4.58692189e-08 -5.44673321e-03  4.58692189e-08  6.56512059e-01                                 
 5.62378149e-08  6.95044902e-01  5.62378149e-08  6.51445546e-01  5.62378149e-08  1.69574985e+00  5.62378149e-08  1.80000000e+00  5.62378149e-08  5.45925908e-03  5.62378149e-08  6.51445546e-01                                 
 7.69750069e-08  6.87255805e-01  7.69750069e-08  6.43618373e-01  7.69750069e-08  1.68813482e+00  7.69750069e-08  1.80000000e+00  7.69750069e-08 -5.43320262e-03  7.69750069e-08  6.43618373e-01                                 
 1.18449391e-07  6.76794150e-01  1.18449391e-07  6.33030807e-01  1.18449391e-07  1.67915442e+00  1.18449391e-07  1.80000000e+00  1.18449391e-07  5.45311966e-03  1.18449391e-07  6.33030807e-01                                 
 1.75516019e-07  6.68526407e-01  1.75516019e-07  6.24402464e-01  1.75516019e-07  1.67475878e+00  1.75516019e-07  1.80000000e+00  1.75516019e-07 -5.42930630e-03  1.75516019e-07  6.24402464e-01                                 
 2.13079004e-07  6.64577091e-01  2.13079004e-07  6.20268244e-01  2.13079004e-07  1.66750068e+00  2.13079004e-07  1.80000000e+00  2.13079004e-07  5.44911378e-03  2.13079004e-07  6.20268244e-01                                 
 2.46256844e-07  6.59158991e-01  2.46256844e-07  6.15222502e-01  2.46256844e-07  1.64854506e+00  2.46256844e-07  1.80000000e+00  2.46256844e-07 -5.42468468e-03  2.46256844e-07  6.15222502e-01                                 
 2.72801728e-07  6.51542474e-01  2.72801728e-07  6.08653474e-01  2.72801728e-07  1.63344841e+00  2.72801728e-07  1.80000000e+00  2.72801728e-07  5.44279640e-03  2.72801728e-07  6.08653474e-01                                 
 3.00949348e-07  6.43230986e-01  3.00949348e-07  6.01565557e-01  3.00949348e-07  1.58988671e+00  3.00949348e-07  1.80000000e+00  3.00949348e-07 -5.41912956e-03  3.00949348e-07  6.01565557e-01                                 
 3.23379353e-07  6.36919561e-01  3.23379353e-07  5.96211410e-01  3.23379353e-07  1.55737056e+00  3.23379353e-07  1.80000000e+00  3.23379353e-07  5.43583426e-03  3.23379353e-07  5.96211410e-01                                 
 3.46774017e-07  6.38356985e-01  3.46774017e-07  5.97015052e-01  3.46774017e-07  1.54803260e+00  3.46774017e-07  1.80000000e+00  3.46774017e-07 -5.40977519e-03  3.46774017e-07  5.97015052e-01                                 
 3.73423762e-07  6.42416482e-01  3.73423762e-07  5.99860166e-01  3.73423762e-07  1.53405290e+00  3.73423762e-07  1.80000000e+00  3.73423762e-07  5.42872273e-03  3.73423762e-07  5.99860166e-01                                 
 3.93302704e-07  6.38736853e-01  3.93302704e-07  5.96672051e-01  3.93302704e-07  1.51083590e+00  3.93302704e-07  1.80000000e+00  3.93302704e-07 -5.40327167e-03  3.93302704e-07  5.96672051e-01                                 
 4.15089327e-07  6.33762118e-01  4.15089327e-07  5.92451916e-01  4.15089327e-07  1.48526203e+00  4.15089327e-07  1.80000000e+00  4.15089327e-07  5.42010253e-03  4.15089327e-07  5.92451916e-01                                 
 4.44197876e-07  6.28038250e-01  4.44197876e-07  5.87579556e-01  4.44197876e-07  1.45084408e+00  4.44197876e-07  1.80000000e+00  4.44197876e-07 -5.39616012e-03  4.44197876e-07  5.87579556e-01                                 
 4.78385763e-07  6.21248266e-01  4.78385763e-07  5.81847670e-01  4.78385763e-07  1.41106927e+00  4.78385763e-07  1.80000000e+00  4.78385763e-07  5.41450684e-03  4.78385763e-07  5.81847670e-01                                 
 5.38518020e-07  6.07724300e-01  5.38518020e-07  5.70617739e-01  5.38518020e-07  1.33800061e+00  5.38518020e-07  1.80000000e+00  5.38518020e-07 -5.39223605e-03  5.38518020e-07  5.70617739e-01                                 
 6.46728309e-07  5.84214489e-01  6.46728309e-07  5.51334861e-01  6.46728309e-07  1.20751254e+00  6.46728309e-07  1.80000000e+00  6.46728309e-07  5.41228719e-03  6.46728309e-07  5.51334861e-01                                 
 7.66660986e-07  5.46271288e-01  7.66660986e-07  5.20792955e-01  7.66660986e-07  1.04381441e+00  7.66660986e-07  1.80000000e+00  7.66660986e-07 -5.39099059e-03  7.66660986e-07  5.20792955e-01                                 
 7.84512894e-07  5.39597258e-01  7.84512894e-07  5.15450340e-01  7.84512894e-07  1.01782660e+00  7.84512894e-07  1.80000000e+00  7.84512894e-07 -2.05401737e-06  7.84512894e-07  5.15450340e-01                                 
 8.20216711e-07  5.25262502e-01  8.20216711e-07  5.03982260e-01  8.20216711e-07  9.66287184e-01  8.20216711e-07  1.80000000e+00  8.20216711e-07  2.48169944e-07  8.20216711e-07  5.03982260e-01                                 
 8.91624344e-07  5.50514793e-01  8.91624344e-07  5.24228102e-01  8.91624344e-07  9.26020758e-01  8.91624344e-07  1.80000000e+00  8.91624344e-07 -6.29473458e-09  8.91624344e-07  5.24228102e-01                                 
 9.09476252e-07  6.06894169e-01  9.09476252e-07  5.69315491e-01  9.09476252e-07  9.57602819e-01  9.09476252e-07  1.80000000e+00  9.09476252e-07  3.57050485e-06  9.09476252e-07  5.69315491e-01                                 
 9.45180069e-07  7.76326246e-01  9.45180069e-07  7.24869934e-01  9.45180069e-07  1.08871613e+00  9.45180069e-07  1.80000000e+00  9.45180069e-07  1.06413061e-05  9.45180069e-07  7.24869934e-01                                 
 9.88369276e-07  8.38181705e-01  9.88369276e-07  7.86863750e-01  9.88369276e-07  1.11330262e+00  9.88369276e-07  1.80000000e+00  9.88369276e-07 -5.72600744e-06  9.88369276e-07  7.86863750e-01                                 
 1.03340958e-06  8.81789800e-01  1.03340958e-06  8.22575801e-01  1.03340958e-06  1.10144849e+00  1.03340958e-06  1.80000000e+00  1.03340958e-06  8.18277562e-06  1.03340958e-06  8.22575801e-01                                 
 1.06695978e-06  9.25202055e-01  1.06695978e-06  8.51107361e-01  1.06695978e-06  1.11360044e+00  1.06695978e-06  1.80000000e+00  1.06695978e-06 -4.54228816e-06  1.06695978e-06  8.51107361e-01                                 
 1.10594782e-06  9.65586664e-01  1.10594782e-06  8.72728874e-01  1.10594782e-06  1.10029400e+00  1.10594782e-06  1.80000000e+00  1.10594782e-06  6.39353782e-06  1.10594782e-06  8.72728874e-01                                 
 1.14131646e-06  9.63496182e-01  1.14131646e-06  8.71984846e-01  1.14131646e-06  1.07085551e+00  1.14131646e-06  1.80000000e+00  1.14131646e-06 -6.95399760e-06  1.14131646e-06  8.71984846e-01                                 
 1.17764514e-06  9.63727929e-01  1.17764514e-06  8.71823168e-01  1.17764514e-06  1.03771144e+00  1.17764514e-06  1.80000000e+00  1.17764514e-06  6.15888816e-06  1.17764514e-06  8.71823168e-01                                 
 1.21558805e-06  9.64513825e-01  1.21558805e-06  8.72457675e-01  1.21558805e-06  1.05343790e+00  1.21558805e-06  1.80000000e+00  1.21558805e-06 -5.26385050e-06  1.21558805e-06  8.72457675e-01                                 
 1.26500710e-06  9.62830213e-01  1.26500710e-06  8.71414656e-01  1.26500710e-06  1.00871682e+00  1.26500710e-06  1.80000000e+00  1.26500710e-06  4.20783802e-06  1.26500710e-06  8.71414656e-01                                 
 1.31063454e-06  9.64297062e-01  1.31063454e-06  8.72323698e-01  1.31063454e-06  1.00638685e+00  1.31063454e-06  1.80000000e+00  1.31063454e-06 -3.88652455e-06  1.31063454e-06  8.72323698e-01                                 
 1.36434008e-06  9.62010292e-01  1.36434008e-06  8.71045155e-01  1.36434008e-06  9.77759941e-01  1.36434008e-06  1.80000000e+00  1.36434008e-06  3.27903903e-06  1.36434008e-06  8.71045155e-01                                 
 1.44377666e-06  9.63193647e-01  1.44377666e-06  8.71766732e-01  1.44377666e-06  9.54620968e-01  1.44377666e-06  1.80000000e+00  1.44377666e-06 -3.34595026e-06  1.44377666e-06  8.71766732e-01                                 
 1.52355867e-06  9.60613797e-01  1.52355867e-06  8.70377326e-01  1.52355867e-06  9.31489220e-01  1.52355867e-06  1.80000000e+00  1.52355867e-06  3.06614747e-06  1.52355867e-06  8.70377326e-01                                 
 1.61546771e-06  9.61511377e-01  1.61546771e-06  8.70930329e-01  1.61546771e-06  9.10392283e-01  1.61546771e-06  1.80000000e+00  1.61546771e-06 -3.12006521e-06  1.61546771e-06  8.70930329e-01                                 
 1.63561103e-06  9.60382374e-01  1.63561103e-06  8.70331706e-01  1.63561103e-06  9.07514818e-01  1.63561103e-06  1.80000000e+00  1.63561103e-06 -9.81148243e-08  1.63561103e-06  8.70331706e-01                                 
 1.67589766e-06  9.59743449e-01  1.67589766e-06  8.70001276e-01  1.67589766e-06  8.99581382e-01  1.67589766e-06  1.80000000e+00  1.67589766e-06 -3.16220890e-08  1.67589766e-06  8.70001276e-01                                 
 1.75647093e-06  9.58853967e-01  1.75647093e-06  8.69572970e-01  1.75647093e-06  8.88870148e-01  1.75647093e-06  1.80000000e+00  1.75647093e-06 -1.72886680e-08  1.75647093e-06  8.69572970e-01                                 
 1.85768084e-06  9.57474957e-01  1.85768084e-06  8.68873182e-01  1.85768084e-06  8.79136295e-01  1.85768084e-06  1.80000000e+00  1.85768084e-06 -2.15883576e-08  1.85768084e-06  8.68873182e-01                                 
 2.06010067e-06  9.55108335e-01  2.06010067e-06  8.67692553e-01  2.06010067e-06  8.69762883e-01  2.06010067e-06  1.80000000e+00  2.06010067e-06  2.31445051e-08  2.06010067e-06  8.67692553e-01                                 
 2.37416406e-06  9.51176017e-01  2.37416406e-06  8.65668604e-01  2.37416406e-06  8.64956859e-01  2.37416406e-06  1.80000000e+00  2.37416406e-06 -7.74472075e-09  2.37416406e-06  8.65668604e-01                                 
 2.75731007e-06  9.46603240e-01  2.75731007e-06  8.63288425e-01  2.75731007e-06  8.62632459e-01  2.75731007e-06  1.80000000e+00  2.75731007e-06  3.06349710e-08  2.75731007e-06  8.63288425e-01                                 
 3.27367257e-06  9.39480959e-01  3.27367257e-06  8.59439164e-01  3.27367257e-06  8.58771682e-01  3.27367257e-06  1.80000000e+00  3.27367257e-06 -1.42207827e-08  3.27367257e-06  8.59439164e-01                                 
 3.39867257e-06  9.37527348e-01  3.39867257e-06  8.58368521e-01  3.39867257e-06  8.57666919e-01  3.39867257e-06  1.80000000e+00  3.39867257e-06  5.90762244e-09  3.39867257e-06  8.58368521e-01                                 
 3.64867257e-06  9.32907952e-01  3.64867257e-06  8.55781009e-01  3.64867257e-06  8.55011978e-01  3.64867257e-06  1.80000000e+00  3.64867257e-06 -2.82860069e-09  3.64867257e-06  8.55781009e-01                                 
 3.71117257e-06  9.31474881e-01  3.71117257e-06  8.54964896e-01  3.71117257e-06  8.54148380e-01  3.71117257e-06  1.80000000e+00  3.71117257e-06 -5.03889813e-09  3.71117257e-06  8.54964896e-01                                 
 3.83617257e-06  9.28251916e-01  3.83617257e-06  8.53109980e-01  3.83617257e-06  8.52186643e-01  3.83617257e-06  1.80000000e+00  3.83617257e-06 -1.32874336e-08  3.83617257e-06  8.53109980e-01                                 
 4.08617257e-06  9.16657745e-01  4.08617257e-06  8.46185975e-01  4.08617257e-06  8.44663880e-01  4.08617257e-06  1.80000000e+00  4.08617257e-06 -6.56108683e-08  4.08617257e-06  8.46185975e-01                                 
 4.57304864e-06  8.44833025e-01  4.57304864e-06  7.92773037e-01  4.57304864e-06  7.90944800e-01  4.57304864e-06  1.80000000e+00  4.57304864e-06 -3.50409861e-07  4.57304864e-06  7.92773037e-01                                 
 4.59667747e-06  8.41083761e-01  4.59667747e-06  7.89431944e-01  4.59667747e-06  7.88140559e-01  4.59667747e-06  1.80000000e+00  4.59667747e-06 -2.44430248e-07  4.59667747e-06  7.89431944e-01                                 
 4.64393513e-06  8.37395437e-01  4.64393513e-06  7.86106918e-01  4.64393513e-06  7.85690784e-01  4.64393513e-06  1.80000000e+00  4.64393513e-06  3.33795744e-08  4.64393513e-06  7.86106918e-01                                 
 4.73845046e-06  8.39050801e-01  4.73845046e-06  7.87599478e-01  4.73845046e-06  7.87654056e-01  4.73845046e-06  1.80000000e+00  4.73845046e-06  8.37155917e-08  4.73845046e-06  7.87599478e-01                                 
 4.89091082e-06  8.38722015e-01  4.89091082e-06  7.87305932e-01  4.89091082e-06  7.87318779e-01  4.89091082e-06  1.80000000e+00  4.89091082e-06 -3.73038605e-08  4.89091082e-06  7.87305932e-01                                 
 5.05374927e-06  8.38415609e-01  5.05374927e-06  7.87027733e-01  5.05374927e-06  7.87126443e-01  5.05374927e-06  1.80000000e+00  5.05374927e-06  8.45390324e-08  5.05374927e-06  7.87027733e-01                                 
 5.37942617e-06  8.39017437e-01  5.37942617e-06  7.87571250e-01  5.37942617e-06  7.87588088e-01  5.37942617e-06  1.80000000e+00  5.37942617e-06 -2.43788804e-08  5.37942617e-06  7.87571250e-01                                 
