 time            v(vbep)         time            v(vben)         time            v(vout)         time            v(vphi1)        time            v(vphi2)        time            v(vref)         time            v(voutc)        time            v(voutcc)       yes             currtemp       
 0.00000000e+00  7.90022628e-01  0.00000000e+00  7.34030314e-01  0.00000000e+00  1.63520659e+00  0.00000000e+00  0.00000000e+00  0.00000000e+00  1.80000000e+00  0.00000000e+00  7.36885142e-01  0.00000000e+00  1.63520658e+00  0.00000000e+00  1.64121899e+00  1.00000000e+00  1.60000000e+01 
 1.00000000e-11  7.90047002e-01  1.00000000e-11  7.34101248e-01  1.00000000e-11  1.63600168e+00  1.00000000e-11  1.80000000e-02  1.00000000e-11  1.80024858e+00  1.00000000e-11  7.37411631e-01  1.00000000e-11  1.63567314e+00  1.00000000e-11  1.64123254e+00                                 
 2.00000000e-11  7.90053677e-01  2.00000000e-11  7.34145872e-01  2.00000000e-11  1.63650646e+00  2.00000000e-11  3.60000000e-02  2.00000000e-11  1.80034895e+00  2.00000000e-11  7.37804665e-01  2.00000000e-11  1.63603030e+00  2.00000000e-11  1.64123794e+00                                 
 4.00000000e-11  7.90053495e-01  4.00000000e-11  7.34204593e-01  4.00000000e-11  1.63713599e+00  4.00000000e-11  7.20000000e-02  4.00000000e-11  1.80038997e+00  4.00000000e-11  7.38380759e-01  4.00000000e-11  1.63656839e+00  4.00000000e-11  1.64124015e+00                                 
 8.00000000e-11  7.90041525e-01  8.00000000e-11  7.34241449e-01  8.00000000e-11  1.63732334e+00  8.00000000e-11  1.44000000e-01  8.00000000e-11  1.80018946e+00  8.00000000e-11  7.38827091e-01  8.00000000e-11  1.63702637e+00  8.00000000e-11  1.64122954e+00                                 
 1.60000000e-10  7.90038345e-01  1.60000000e-10  7.34249058e-01  1.60000000e-10  1.63701141e+00  1.60000000e-10  2.88000000e-01  1.60000000e-10  1.80000496e+00  1.60000000e-10  7.38883431e-01  1.60000000e-10  1.63711182e+00  1.60000000e-10  1.64121913e+00                                 
 3.20000000e-10  7.90035098e-01  3.20000000e-10  7.34251622e-01  3.20000000e-10  1.63667205e+00  3.20000000e-10  5.76000000e-01  3.20000000e-10  1.80000208e+00  3.20000000e-10  7.38787608e-01  3.20000000e-10  1.63690563e+00  3.20000000e-10  1.64121609e+00                                 
 6.40000000e-10  7.89956720e-01  6.40000000e-10  7.33945300e-01  6.40000000e-10  1.63317475e+00  6.40000000e-10  1.15200000e+00  6.40000000e-10  1.81277904e+00  6.40000000e-10  7.37339917e-01  6.40000000e-10  1.64198532e+00  6.40000000e-10  1.64124564e+00                                 
 9.99956618e-10  7.90546870e-01  9.99956618e-10  7.34087199e-01  9.99956618e-10  1.60525776e+00  9.99956618e-10  1.79992191e+00  9.99956618e-10  8.42697993e-02  9.99956618e-10  7.43857112e-01  9.99956618e-10  1.63709061e+00  9.99956618e-10  1.64117181e+00                                 
 1.00000000e-09  7.90546733e-01  1.00000000e-09  7.34086869e-01  1.00000000e-09  1.60525391e+00  1.00000000e-09  1.80000000e+00  1.00000000e-09  8.39085430e-02  1.00000000e-09  7.43859267e-01  1.00000000e-09  1.63708749e+00  1.00000000e-09  1.64117171e+00                                 
 1.00008676e-09  7.90545435e-01  1.00008676e-09  7.34083925e-01  1.00008676e-09  1.60523343e+00  1.00008676e-09  1.80000000e+00  1.00008676e-09  8.31782972e-02  1.00008676e-09  7.43854041e-01  1.00008676e-09  1.63707233e+00  1.00008676e-09  1.64117077e+00                                 
 1.00026029e-09  7.90544441e-01  1.00026029e-09  7.34081243e-01  1.00026029e-09  1.60520042e+00  1.00026029e-09  1.80000000e+00  1.00026029e-09  8.17404459e-02  1.00026029e-09  7.43849649e-01  1.00026029e-09  1.63704816e+00  1.00026029e-09  1.64117004e+00                                 
 1.00060734e-09  7.90543055e-01  1.00060734e-09  7.34077489e-01  1.00060734e-09  1.60514199e+00  1.00060734e-09  1.80000000e+00  1.00060734e-09  7.89399966e-02  1.00060734e-09  7.43846408e-01  1.00060734e-09  1.63700606e+00  1.00060734e-09  1.64116899e+00                                 
 1.00130145e-09  7.90539889e-01  1.00130145e-09  7.34070108e-01  1.00130145e-09  1.60503427e+00  1.00130145e-09  1.80000000e+00  1.00130145e-09  7.36128489e-02  1.00130145e-09  7.43846712e-01  1.00130145e-09  1.63693161e+00  1.00130145e-09  1.64116720e+00                                 
 1.00268967e-09  7.90534376e-01  1.00268967e-09  7.34060265e-01  1.00268967e-09  1.60486256e+00  1.00268967e-09  1.80000000e+00  1.00268967e-09  6.39866582e-02  1.00268967e-09  7.43879486e-01  1.00268967e-09  1.63682577e+00  1.00268967e-09  1.64116598e+00                                 
 1.00546610e-09  7.90524356e-01  1.00546610e-09  7.34051283e-01  1.00546610e-09  1.60465221e+00  1.00546610e-09  1.80000000e+00  1.00546610e-09  4.82615919e-02  1.00546610e-09  7.44041258e-01  1.00546610e-09  1.63674891e+00  1.00546610e-09  1.64116934e+00                                 
 1.01101896e-09  7.90510720e-01  1.01101896e-09  7.34061637e-01  1.01101896e-09  1.60459050e+00  1.01101896e-09  1.80000000e+00  1.01101896e-09  2.72653929e-02  1.01101896e-09  7.44606237e-01  1.01101896e-09  1.63695650e+00  1.01101896e-09  1.64118915e+00                                 
 1.02212468e-09  7.90502670e-01  1.02212468e-09  7.34118666e-01  1.02212468e-09  1.60501568e+00  1.02212468e-09  1.80000000e+00  1.02212468e-09  8.36341173e-03  1.02212468e-09  7.45978904e-01  1.02212468e-09  1.63791248e+00  1.02212468e-09  1.64123283e+00                                 
 1.04433612e-09  7.90524538e-01  1.04433612e-09  7.34206649e-01  1.04433612e-09  1.60576175e+00  1.04433612e-09  1.80000000e+00  1.04433612e-09  8.36225614e-04  1.04433612e-09  7.47952372e-01  1.04433612e-09  1.63956801e+00  1.04433612e-09  1.64126359e+00                                 
 1.08875900e-09  7.90585537e-01  1.08875900e-09  7.34210499e-01  1.08875900e-09  1.60567728e+00  1.08875900e-09  1.80000000e+00  1.08875900e-09  9.21329943e-04  1.08875900e-09  7.49240049e-01  1.08875900e-09  1.64072291e+00  1.08875900e-09  1.64123727e+00                                 
 1.17760477e-09  7.90679705e-01  1.17760477e-09  7.34118312e-01  1.17760477e-09  1.60434222e+00  1.17760477e-09  1.80000000e+00  1.17760477e-09  3.51604632e-04  1.17760477e-09  7.49778601e-01  1.17760477e-09  1.64117752e+00  1.17760477e-09  1.64122687e+00                                 
 1.35529631e-09  7.90792844e-01  1.35529631e-09  7.34070184e-01  1.35529631e-09  1.60195748e+00  1.35529631e-09  1.80000000e+00  1.35529631e-09  3.53835359e-04  1.35529631e-09  7.50127341e-01  1.35529631e-09  1.64147104e+00  1.35529631e-09  1.64123322e+00                                 
 1.61589458e-09  7.90748519e-01  1.61589458e-09  7.34049775e-01  1.61589458e-09  1.60073437e+00  1.61589458e-09  1.80000000e+00  1.61589458e-09 -1.08372951e-04  1.61589458e-09  7.49284553e-01  1.61589458e-09  1.64075092e+00  1.61589458e-09  1.64123341e+00                                 
 1.95262918e-09  7.90540430e-01  1.95262918e-09  7.34031902e-01  1.95262918e-09  1.60183368e+00  1.95262918e-09  1.80000000e+00  1.95262918e-09  6.46851375e-05  1.95262918e-09  7.48030968e-01  1.95262918e-09  1.63968825e+00  1.95262918e-09  1.64126056e+00                                 
 2.25949124e-09  7.90349658e-01  2.25949124e-09  7.34020082e-01  2.25949124e-09  1.60295622e+00  2.25949124e-09  1.80000000e+00  2.25949124e-09 -1.44935552e-04  2.25949124e-09  7.46912359e-01  2.25949124e-09  1.63873424e+00  2.25949124e-09  1.64128197e+00                                 
 2.73009386e-09  7.90142839e-01  2.73009386e-09  7.34008219e-01  2.73009386e-09  1.60446681e+00  2.73009386e-09  1.80000000e+00  2.73009386e-09  4.39995283e-05  2.73009386e-09  7.45334651e-01  2.73009386e-09  1.63739435e+00  2.73009386e-09  1.64132817e+00                                 
 3.54413362e-09  7.89970264e-01  3.54413362e-09  7.34001291e-01  3.54413362e-09  1.60594218e+00  3.54413362e-09  1.80000000e+00  3.54413362e-09 -1.32703692e-04  3.54413362e-09  7.42936557e-01  3.54413362e-09  1.63535109e+00  3.54413362e-09  1.64138887e+00                                 
 5.17221314e-09  7.89906825e-01  5.17221314e-09  7.34006323e-01  5.17221314e-09  1.60643130e+00  5.17221314e-09  1.80000000e+00  5.17221314e-09  4.47946187e-05  5.17221314e-09  7.39532466e-01  5.17221314e-09  1.63245783e+00  5.17221314e-09  1.64145138e+00                                 
 7.10181565e-09  7.89925344e-01  7.10181565e-09  7.34019210e-01  7.10181565e-09  1.60487024e+00  7.10181565e-09  1.80000000e+00  7.10181565e-09 -1.14527948e-04  7.10181565e-09  7.37294048e-01  7.10181565e-09  1.63055290e+00  7.10181565e-09  1.64139095e+00                                 
 8.70154201e-09  7.89910148e-01  8.70154201e-09  7.34024854e-01  8.70154201e-09  1.60398578e+00  8.70154201e-09  1.80000000e+00  8.70154201e-09  6.63335698e-05  8.70154201e-09  7.36396504e-01  8.70154201e-09  1.62979232e+00  8.70154201e-09  1.64126503e+00                                 
 1.05533788e-08  7.89916132e-01  1.05533788e-08  7.34028195e-01  1.05533788e-08  1.60256841e+00  1.05533788e-08  1.80000000e+00  1.05533788e-08 -9.21157213e-05  1.05533788e-08  7.35873436e-01  1.05533788e-08  1.62934280e+00  1.05533788e-08  1.64106103e+00                                 
 1.26588370e-08  7.89944443e-01  1.26588370e-08  7.34029091e-01  1.26588370e-08  1.59956345e+00  1.26588370e-08  1.80000000e+00  1.26588370e-08  7.35691619e-05  1.26588370e-08  7.35674295e-01  1.26588370e-08  1.62916988e+00  1.26588370e-08  1.64080647e+00                                 
 1.55970755e-08  7.89980413e-01  1.55970755e-08  7.34029919e-01  1.55970755e-08  1.59329025e+00  1.55970755e-08  1.80000000e+00  1.55970755e-08 -8.31780165e-05  1.55970755e-08  7.35643854e-01  1.55970755e-08  1.62912963e+00  1.55970755e-08  1.64043746e+00                                 
 1.91681141e-08  7.90012024e-01  1.91681141e-08  7.34030095e-01  1.91681141e-08  1.58348617e+00  1.91681141e-08  1.80000000e+00  1.91681141e-08  7.49295018e-05  1.91681141e-08  7.35781042e-01  1.91681141e-08  1.62923179e+00  1.91681141e-08  1.64001952e+00                                 
 2.43920017e-08  7.90026402e-01  2.43920017e-08  7.34030671e-01  2.43920017e-08  1.56753033e+00  2.43920017e-08  1.80000000e+00  2.43920017e-08 -8.07632977e-05  2.43920017e-08  7.35986645e-01  2.43920017e-08  1.62938130e+00  2.43920017e-08  1.63947066e+00                                 
 3.18427871e-08  7.90029739e-01  3.18427871e-08  7.34030469e-01  3.18427871e-08  1.54371852e+00  3.18427871e-08  1.80000000e+00  3.18427871e-08  7.44938311e-05  3.18427871e-08  7.36252675e-01  3.18427871e-08  1.62958376e+00  3.18427871e-08  1.63882844e+00                                 
 4.49439041e-08  7.90026252e-01  4.49439041e-08  7.34030526e-01  4.49439041e-08  1.50104881e+00  4.49439041e-08  1.80000000e+00  4.49439041e-08 -8.03551856e-05  4.49439041e-08  7.36530083e-01  4.49439041e-08  1.62978740e+00  4.49439041e-08  1.63798315e+00                                 
 6.70289047e-08  7.90024448e-01  6.70289047e-08  7.34030217e-01  6.70289047e-08  1.42863306e+00  6.70289047e-08  1.80000000e+00  6.70289047e-08  7.40886656e-05  6.70289047e-08  7.36772251e-01  6.70289047e-08  1.62997000e+00  6.70289047e-08  1.63711573e+00                                 
 1.11198906e-07  7.90022593e-01  1.11198906e-07  7.34030422e-01  1.11198906e-07  1.28396179e+00  1.11198906e-07  1.80000000e+00  1.11198906e-07 -8.02017737e-05  1.11198906e-07  7.36878237e-01  1.11198906e-07  1.63003990e+00  1.11198906e-07  1.63636036e+00                                 
 1.75948775e-07  7.90022814e-01  1.75948775e-07  7.34030207e-01  1.75948775e-07  1.07475974e+00  1.75948775e-07  1.80000000e+00  1.75948775e-07  7.42573381e-05  1.75948775e-07  7.36890708e-01  1.75948775e-07  1.63004592e+00  1.75948775e-07  1.63610255e+00                                 
 2.79980584e-07  7.90022459e-01  2.79980584e-07  7.34030418e-01  2.79980584e-07  8.01334235e-01  2.79980584e-07  1.80000000e+00  2.79980584e-07 -7.80624535e-05  2.79980584e-07  7.36878171e-01  2.79980584e-07  1.63002742e+00  2.79980584e-07  1.63605167e+00                                 
 3.74544423e-07  7.90023118e-01  3.74544423e-07  7.34030242e-01  3.74544423e-07  7.27112904e-01  3.74544423e-07  1.80000000e+00  3.74544423e-07  7.75314954e-05  3.74544423e-07  7.36893541e-01  3.74544423e-07  1.63003919e+00  3.74544423e-07  1.63605636e+00                                 
 4.51735563e-07  7.90021506e-01  4.51735563e-07  7.34030349e-01  4.51735563e-07  7.43482142e-01  4.51735563e-07  1.80000000e+00  4.51735563e-07 -7.68789577e-05  4.51735563e-07  7.36877967e-01  4.51735563e-07  1.63002066e+00  4.51735563e-07  1.63605031e+00                                 
 4.92042827e-07  7.90024073e-01  4.92042827e-07  7.34030295e-01  4.92042827e-07  7.39995873e-01  4.92042827e-07  1.80000000e+00  4.92042827e-07  7.71413239e-05  4.92042827e-07  7.36891163e-01  4.92042827e-07  1.63003257e+00  4.92042827e-07  1.63605087e+00                                 
 5.41508878e-07  7.90021296e-01  5.41508878e-07  7.34030342e-01  5.41508878e-07  7.39690566e-01  5.41508878e-07  1.80000000e+00  5.41508878e-07 -7.66988331e-05  5.41508878e-07  7.36879147e-01  5.41508878e-07  1.63001817e+00  5.41508878e-07  1.63604618e+00                                 
 6.00577684e-07  7.90023857e-01  6.00577684e-07  7.34030281e-01  6.00577684e-07  7.39870374e-01  6.00577684e-07  1.80000000e+00  6.00577684e-07  7.70720222e-05  6.00577684e-07  7.36891222e-01  6.00577684e-07  1.63002842e+00  6.00577684e-07  1.63604681e+00                                 
 6.94329658e-07  7.90021462e-01  6.94329658e-07  7.34030349e-01  6.94329658e-07  7.39698574e-01  6.94329658e-07  1.80000000e+00  6.94329658e-07 -7.68092709e-05  6.94329658e-07  7.36879024e-01  6.94329658e-07  1.63001215e+00  6.94329658e-07  1.63604028e+00                                 
 8.81833608e-07  7.90023767e-01  8.81833608e-07  7.34030279e-01  8.81833608e-07  7.39869210e-01  8.81833608e-07  1.80000000e+00  8.81833608e-07  7.70466631e-05  8.81833608e-07  7.36891282e-01  8.81833608e-07  1.63001758e+00  8.81833608e-07  1.63603592e+00                                 
 1.25684151e-06  7.90021506e-01  1.25684151e-06  7.34030349e-01  1.25684151e-06  7.39711103e-01  1.25684151e-06  1.80000000e+00  1.25684151e-06 -7.68530834e-05  1.25684151e-06  7.36878999e-01  1.25684151e-06  1.62999033e+00  1.25684151e-06  1.63601853e+00                                 
 2.00685731e-06  7.90023746e-01  2.00685731e-06  7.34030279e-01  2.00685731e-06  7.39871057e-01  2.00685731e-06  1.80000000e+00  2.00685731e-06  7.70381960e-05  2.00685731e-06  7.36891295e-01  2.00685731e-06  1.62997397e+00  2.00685731e-06  1.63599237e+00                                 
 3.20685731e-06  7.90021517e-01  3.20685731e-06  7.34030349e-01  3.20685731e-06  7.39711936e-01  3.20685731e-06  1.80000000e+00  3.20685731e-06 -7.67902305e-05  3.20685731e-06  7.36878991e-01  3.20685731e-06  1.62991472e+00  3.20685731e-06  1.63594306e+00                                 
 4.40685731e-06  7.90023736e-01  4.40685731e-06  7.34030279e-01  4.40685731e-06  7.39869520e-01  4.40685731e-06  1.80000000e+00  4.40685731e-06  7.70249609e-05  4.40685731e-06  7.36891298e-01  4.40685731e-06  1.62988097e+00  4.40685731e-06  1.63589953e+00                                 
 5.60685731e-06  7.90021525e-01  5.60685731e-06  7.34030349e-01  5.60685731e-06  7.39711180e-01  5.60685731e-06  1.80000000e+00  5.60685731e-06 -7.67147238e-05  5.60685731e-06  7.36878986e-01  5.60685731e-06  1.62982179e+00  5.60685731e-06  1.63585028e+00                                 
 6.00100000e-06  7.90023719e-01  6.00100000e-06  7.34030279e-01  6.00100000e-06  7.39867516e-01  6.00100000e-06  1.80000000e+00  6.00100000e-06  7.70136122e-05  6.00100000e-06  7.36891306e-01  6.00100000e-06  1.62981927e+00  6.00100000e-06  1.63583793e+00                                 
 6.00110000e-06  7.89984803e-01  6.00110000e-06  7.33790343e-01  6.00110000e-06  7.37934130e-01  6.00110000e-06  1.62000000e+00  6.00110000e-06 -9.51263502e-05  6.00110000e-06  7.35180647e-01  6.00110000e-06  1.62836264e+00  6.00110000e-06  1.63582442e+00                                 
 6.00130000e-06  7.90016293e-01  6.00130000e-06  7.33815398e-01  6.00130000e-06  7.38395793e-01  6.00130000e-06  1.26000000e+00  6.00130000e-06  2.77826135e-05  6.00130000e-06  7.35258713e-01  6.00130000e-06  1.62843139e+00  6.00130000e-06  1.63584303e+00                                 
 6.00170000e-06  7.90061363e-01  6.00170000e-06  7.33682418e-01  6.00170000e-06  7.50425714e-01  6.00170000e-06  5.40000000e-01  6.00170000e-06  1.32515198e+00  6.00170000e-06  7.32155792e-01  6.00170000e-06  1.58352615e+00  6.00170000e-06  1.63563896e+00                                 
 6.00200000e-06  7.90010816e-01  6.00200000e-06  7.31281610e-01  6.00200000e-06  7.83384100e-01  6.00200000e-06  0.00000000e+00  6.00200000e-06  1.83653595e+00  6.00200000e-06  7.06027229e-01  6.00200000e-06  1.29223740e+00  6.00200000e-06  1.63516684e+00                                 
 6.00204038e-06  7.90021833e-01  6.00204038e-06  7.31244336e-01  6.00204038e-06  7.79864639e-01  6.00204038e-06  0.00000000e+00  6.00204038e-06  1.81266641e+00  6.00204038e-06  7.05847523e-01  6.00204038e-06  1.24290736e+00  6.00204038e-06  1.63556680e+00                                 
 6.00212113e-06  7.90024692e-01  6.00212113e-06  7.31363368e-01  6.00212113e-06  7.73104201e-01  6.00212113e-06  0.00000000e+00  6.00212113e-06  1.79476986e+00  6.00212113e-06  7.07860247e-01  6.00212113e-06  1.15884093e+00  6.00212113e-06  1.63597632e+00                                 
 6.00228263e-06  7.90021205e-01  6.00228263e-06  7.31688947e-01  6.00228263e-06  7.67180670e-01  6.00228263e-06  0.00000000e+00  6.00228263e-06  1.80130456e+00  6.00228263e-06  7.12195121e-01  6.00228263e-06  1.03355211e+00  6.00228263e-06  1.63595933e+00                                 
 6.00248119e-06  7.90022827e-01  6.00248119e-06  7.32054540e-01  6.00248119e-06  7.62382654e-01  6.00248119e-06  0.00000000e+00  6.00248119e-06  1.79832056e+00  6.00248119e-06  7.15784596e-01  6.00248119e-06  9.16081966e-01  6.00248119e-06  1.63610671e+00                                 
 6.00271409e-06  7.90020945e-01  6.00271409e-06  7.32777324e-01  6.00271409e-06  7.54861328e-01  6.00271409e-06  0.00000000e+00  6.00271409e-06  1.80023049e+00  6.00271409e-06  7.22714278e-01  6.00271409e-06  8.23048528e-01  6.00271409e-06  1.63611074e+00                                 
 6.00312981e-06  7.90022659e-01  6.00312981e-06  7.33916038e-01  6.00312981e-06  7.43907705e-01  6.00312981e-06  0.00000000e+00  6.00312981e-06  1.79947029e+00  6.00312981e-06  7.32634563e-01  6.00312981e-06  7.52302564e-01  6.00312981e-06  1.63605108e+00                                 
 6.00342327e-06  7.90021391e-01  6.00342327e-06  7.34367605e-01  6.00342327e-06  7.41003169e-01  6.00342327e-06  0.00000000e+00  6.00342327e-06  1.80041703e+00  6.00342327e-06  7.36024092e-01  6.00342327e-06  7.44436656e-01  6.00342327e-06  1.63571756e+00                                 
 6.00377199e-06  7.90022906e-01  6.00377199e-06  7.34529547e-01  6.00377199e-06  7.40841032e-01  6.00377199e-06  0.00000000e+00  6.00377199e-06  1.79973243e+00  6.00377199e-06  7.36884459e-01  6.00377199e-06  7.41087827e-01  6.00377199e-06  1.63515570e+00                                 
 6.00414972e-06  7.90021866e-01  6.00414972e-06  7.34595172e-01  6.00414972e-06  7.40595119e-01  6.00414972e-06  0.00000000e+00  6.00414972e-06  1.80021077e+00  6.00414972e-06  7.37633576e-01  6.00414972e-06  7.40971148e-01  6.00414972e-06  1.63432524e+00                                 
 6.00490519e-06  7.90023160e-01  6.00490519e-06  7.34525765e-01  6.00490519e-06  7.42062057e-01  6.00490519e-06  0.00000000e+00  6.00490519e-06  1.79984133e+00  6.00490519e-06  7.37684569e-01  6.00490519e-06  7.41494613e-01  6.00490519e-06  1.63248220e+00                                 
