 time            v(vbep)         time            v(vben)         time            v(vout)         time            v(vphi1)        time            v(vphi2)        time            v(vref)         yes             currtemp       
 0.00000000e+00  6.82653150e-01  0.00000000e+00  6.27216739e-01  0.00000000e+00  9.82608656e-01  0.00000000e+00  0.00000000e+00  0.00000000e+00  1.79995225e+00  0.00000000e+00  6.27216739e-01  1.00000000e+00  3.00000000e+01 
 5.00000000e-12  6.82624668e-01  5.00000000e-12  6.27193143e-01  5.00000000e-12  9.83334069e-01  5.00000000e-12  1.80000000e-02  5.00000000e-12  1.80007830e+00  5.00000000e-12  6.27193143e-01                                 
 1.00000000e-11  6.82596942e-01  1.00000000e-11  6.27170162e-01  1.00000000e-11  9.83994939e-01  1.00000000e-11  3.60000000e-02  1.00000000e-11  1.80015382e+00  1.00000000e-11  6.27170162e-01                                 
 2.00000000e-11  6.82541951e-01  2.00000000e-11  6.27124379e-01  2.00000000e-11  9.85213357e-01  2.00000000e-11  7.20000000e-02  2.00000000e-11  1.80023939e+00  2.00000000e-11  6.27124379e-01                                 
 4.00000000e-11  6.82432763e-01  4.00000000e-11  6.27033172e-01  4.00000000e-11  9.87176385e-01  4.00000000e-11  1.44000000e-01  4.00000000e-11  1.80023342e+00  4.00000000e-11  6.27033172e-01                                 
 8.00000000e-11  6.82215460e-01  8.00000000e-11  6.26851578e-01  8.00000000e-11  9.89779073e-01  8.00000000e-11  2.88000000e-01  8.00000000e-11  1.80013558e+00  8.00000000e-11  6.26851578e-01                                 
 1.60000000e-10  6.81785494e-01  1.60000000e-10  6.26491652e-01  1.60000000e-10  9.92001770e-01  1.60000000e-10  5.76000000e-01  1.60000000e-10  1.80002498e+00  1.60000000e-10  6.26491652e-01                                 
 3.20000000e-10  6.80943032e-01  3.20000000e-10  6.25784385e-01  3.20000000e-10  9.84123142e-01  3.20000000e-10  1.15200000e+00  3.20000000e-10  1.80026544e+00  3.20000000e-10  6.25784385e-01                                 
 5.00000000e-10  6.80022143e-01  5.00000000e-10  6.25008058e-01  5.00000000e-10  1.08680767e+00  5.00000000e-10  1.80000000e+00  5.00000000e-10  1.47869721e-01  5.00000000e-10  6.25008058e-01                                 
 5.21253667e-10  6.79915427e-01  5.21253667e-10  6.24917861e-01  5.21253667e-10  1.11303029e+00  5.21253667e-10  1.80000000e+00  5.21253667e-10  3.63558533e-02  5.21253667e-10  6.24917861e-01                                 
 5.63761000e-10  6.79702723e-01  5.63761000e-10  6.24737986e-01  5.63761000e-10  1.16528407e+00  5.63761000e-10  1.80000000e+00  5.63761000e-10 -1.37833491e-02  5.63761000e-10  6.24737986e-01                                 
 6.48775668e-10  6.79281714e-01  6.48775668e-10  6.24381441e-01  6.48775668e-10  1.26036098e+00  6.48775668e-10  1.80000000e+00  6.48775668e-10  1.18183527e-02  6.48775668e-10  6.24381441e-01                                 
 7.68807736e-10  6.78697034e-01  7.68807736e-10  6.23885160e-01  7.68807736e-10  1.37952427e+00  7.68807736e-10  1.80000000e+00  7.68807736e-10 -8.97958779e-03  7.68807736e-10  6.23885160e-01                                 
 9.50790587e-10  6.77831457e-01  9.50790587e-10  6.23148069e-01  9.50790587e-10  1.52854368e+00  9.50790587e-10  1.80000000e+00  9.50790587e-10  8.96011919e-03  9.50790587e-10  6.23148069e-01                                 
 1.31475629e-09  6.76170546e-01  1.31475629e-09  6.21725950e-01  1.31475629e-09  1.72061005e+00  1.31475629e-09  1.80000000e+00  1.31475629e-09 -7.82120992e-03  1.31475629e-09  6.21725950e-01                                 
 1.69534687e-09  6.74526567e-01  1.69534687e-09  6.20308270e-01  1.69534687e-09  1.81436698e+00  1.69534687e-09  1.80000000e+00  1.69534687e-09  7.76428378e-03  1.69534687e-09  6.20308270e-01                                 
 2.04228948e-09  6.73102973e-01  2.04228948e-09  6.19072688e-01  2.04228948e-09  1.84773520e+00  2.04228948e-09  1.80000000e+00  2.04228948e-09 -7.16259140e-03  2.04228948e-09  6.19072688e-01                                 
 2.41620391e-09  6.71641258e-01  2.41620391e-09  6.17796569e-01  2.41620391e-09  1.86165463e+00  2.41620391e-09  1.80000000e+00  2.41620391e-09  6.87601567e-03  2.41620391e-09  6.17796569e-01                                 
 2.88618079e-09  6.69900446e-01  2.88618079e-09  6.16267231e-01  2.88618079e-09  1.86596602e+00  2.88618079e-09  1.80000000e+00  2.88618079e-09 -6.53794967e-03  2.88618079e-09  6.16267231e-01                                 
 3.55960891e-09  6.67571639e-01  3.55960891e-09  6.14205681e-01  3.55960891e-09  1.86598860e+00  3.55960891e-09  1.80000000e+00  3.55960891e-09  6.38065399e-03  3.55960891e-09  6.14205681e-01                                 
 4.54590708e-09  6.64461529e-01  4.54590708e-09  6.11425792e-01  4.54590708e-09  1.86284204e+00  4.54590708e-09  1.80000000e+00  4.54590708e-09 -6.22466781e-03  4.54590708e-09  6.11425792e-01                                 
 6.24237192e-09  6.59775511e-01  6.24237192e-09  6.07184027e-01  6.24237192e-09  1.85858385e+00  6.24237192e-09  1.80000000e+00  6.24237192e-09  6.17662787e-03  6.24237192e-09  6.07184027e-01                                 
 9.63530160e-09  6.52166721e-01  9.63530160e-09  6.00176221e-01  9.63530160e-09  1.85082501e+00  9.63530160e-09  1.80000000e+00  9.63530160e-09 -6.11230621e-03  9.63530160e-09  6.00176221e-01                                 
 1.27585654e-08  6.46633684e-01  1.27585654e-08  5.94988370e-01  1.27585654e-08  1.84488075e+00  1.27585654e-08  1.80000000e+00  1.27585654e-08  6.10118727e-03  1.27585654e-08  5.94988370e-01                                 
 1.47746251e-08  6.43573884e-01  1.47746251e-08  5.92091384e-01  1.47746251e-08  1.84116886e+00  1.47746251e-08  1.80000000e+00  1.47746251e-08 -6.01683891e-03  1.47746251e-08  5.92091384e-01                                 
 1.61443967e-08  6.41669183e-01  1.61443967e-08  5.90279561e-01  1.61443967e-08  1.83913080e+00  1.61443967e-08  1.80000000e+00  1.61443967e-08  5.95237273e-03  1.61443967e-08  5.90279561e-01                                 
 1.78955154e-08  6.39402125e-01  1.78955154e-08  5.88115872e-01  1.78955154e-08  1.83603154e+00  1.78955154e-08  1.80000000e+00  1.78955154e-08 -5.86314222e-03  1.78955154e-08  5.88115872e-01                                 
 1.99466890e-08  6.36948847e-01  1.99466890e-08  5.85766968e-01  1.99466890e-08  1.83303823e+00  1.99466890e-08  1.80000000e+00  1.99466890e-08  5.82751570e-03  1.99466890e-08  5.85766968e-01                                 
 2.26669912e-08  6.33966416e-01  2.26669912e-08  5.82903839e-01  2.26669912e-08  1.82859262e+00  2.26669912e-08  1.80000000e+00  2.26669912e-08 -5.76410812e-03  2.26669912e-08  5.82903839e-01                                 
 2.61473809e-08  6.30496862e-01  2.61473809e-08  5.79568448e-01  2.61473809e-08  1.82379422e+00  2.61473809e-08  1.80000000e+00  2.61473809e-08  5.75208849e-03  2.61473809e-08  5.79568448e-01                                 
 3.08028411e-08  6.26284972e-01  3.08028411e-08  5.75524930e-01  3.08028411e-08  1.81753711e+00  3.08028411e-08  1.80000000e+00  3.08028411e-08 -5.70654923e-03  3.08028411e-08  5.75524930e-01                                 
 3.78973535e-08  6.20536920e-01  3.78973535e-08  5.70029284e-01  3.78973535e-08  1.80997155e+00  3.78973535e-08  1.80000000e+00  3.78973535e-08  5.71197718e-03  3.78973535e-08  5.70029284e-01                                 
 4.78958841e-08  6.13832201e-01  4.78958841e-08  5.63595942e-01  4.78958841e-08  1.80101606e+00  4.78958841e-08  1.80000000e+00  4.78958841e-08 -5.67870143e-03  4.78958841e-08  5.63595942e-01                                 
 5.72484948e-08  6.07018984e-01  5.72484948e-08  5.57318898e-01  5.72484948e-08  1.78444553e+00  5.72484948e-08  1.80000000e+00  5.72484948e-08  5.68737163e-03  5.72484948e-08  5.57318898e-01                                 
 7.00433695e-08  5.98860585e-01  7.00433695e-08  5.49835189e-01  7.00433695e-08  1.75882065e+00  7.00433695e-08  1.80000000e+00  7.00433695e-08 -5.65787503e-03  7.00433695e-08  5.49835189e-01                                 
 8.34234096e-08  5.91874931e-01  8.34234096e-08  5.43403435e-01  8.34234096e-08  1.73468831e+00  8.34234096e-08  1.80000000e+00  8.34234096e-08  5.67076861e-03  8.34234096e-08  5.43403435e-01                                 
 1.09215779e-07  5.80578591e-01  1.09215779e-07  5.33054208e-01  1.09215779e-07  1.68774690e+00  1.09215779e-07  1.80000000e+00  1.09215779e-07 -5.64503343e-03  1.09215779e-07  5.33054208e-01                                 
 1.34183968e-07  5.79162780e-01  1.34183968e-07  5.30824930e-01  1.34183968e-07  1.66900480e+00  1.34183968e-07  1.80000000e+00  1.34183968e-07  5.66416419e-03  1.34183968e-07  5.30824930e-01                                 
 1.64847586e-07  5.81326749e-01  1.64847586e-07  5.31370711e-01  1.64847586e-07  1.65242107e+00  1.64847586e-07  1.80000000e+00  1.64847586e-07 -5.63648562e-03  1.64847586e-07  5.31370711e-01                                 
 1.84934649e-07  5.78198205e-01  1.84934649e-07  5.28232814e-01  1.84934649e-07  1.62945851e+00  1.84934649e-07  1.80000000e+00  1.84934649e-07  5.65379802e-03  1.84934649e-07  5.28232814e-01                                 
 2.08142820e-07  5.71981763e-01  2.08142820e-07  5.22632410e-01  2.08142820e-07  1.60049218e+00  2.08142820e-07  1.80000000e+00  2.08142820e-07 -5.62662889e-03  2.08142820e-07  5.22632410e-01                                 
 2.41561739e-07  5.62757697e-01  2.41561739e-07  5.14481404e-01  2.41561739e-07  1.55850010e+00  2.41561739e-07  1.80000000e+00  2.41561739e-07  5.64569770e-03  2.41561739e-07  5.14481404e-01                                 
 2.75837819e-07  5.53534926e-01  2.75837819e-07  5.06444110e-01  2.75837819e-07  1.51538480e+00  2.75837819e-07  1.80000000e+00  2.75837819e-07 -5.62012463e-03  2.75837819e-07  5.06444110e-01                                 
 3.42612579e-07  5.36302411e-01  3.42612579e-07  4.91668729e-01  3.42612579e-07  1.43110529e+00  3.42612579e-07  1.80000000e+00  3.42612579e-07  5.64088752e-03  3.42612579e-07  4.91668729e-01                                 
 4.50362161e-07  4.99353619e-01  4.50362161e-07  4.61232525e-01  4.50362161e-07  1.28549028e+00  4.50362161e-07  1.80000000e+00  4.50362161e-07 -5.61774655e-03  4.50362161e-07  4.61232525e-01                                 
 5.50101015e-07  4.69346735e-01  5.50101015e-07  4.36868382e-01  5.50101015e-07  1.15312482e+00  5.50101015e-07  1.80000000e+00  5.50101015e-07  5.63897456e-03  5.50101015e-07  4.36868382e-01                                 
 5.62708960e-07  4.63201939e-01  5.62708960e-07  4.31938703e-01  5.62708960e-07  1.13423274e+00  5.62708960e-07  1.80000000e+00  5.62708960e-07  1.36974060e-06  5.62708960e-07  4.31938703e-01                                 
 5.87924852e-07  4.50412821e-01  5.87924852e-07  4.21688440e-01  5.87924852e-07  1.09553252e+00  5.87924852e-07  1.80000000e+00  5.87924852e-07 -3.03553577e-06  5.87924852e-07  4.21688440e-01                                 
 6.38356634e-07  4.57495005e-01  6.38356634e-07  4.27358879e-01  6.38356634e-07  1.04973883e+00  6.38356634e-07  1.80000000e+00  6.38356634e-07  3.46102919e-06  6.38356634e-07  4.27358879e-01                                 
 6.50964580e-07  4.83426437e-01  6.50964580e-07  4.48095992e-01  6.50964580e-07  1.06176415e+00  6.50964580e-07  1.80000000e+00  6.50964580e-07  3.30465812e-06  6.50964580e-07  4.48095992e-01                                 
 6.76180471e-07  6.06574954e-01  6.76180471e-07  5.47029976e-01  6.76180471e-07  1.15431363e+00  6.76180471e-07  1.80000000e+00  6.76180471e-07  1.32283499e-05  6.76180471e-07  5.47029976e-01                                 
 6.82484444e-07  6.59691768e-01  6.82484444e-07  5.93762193e-01  6.82484444e-07  1.19893877e+00  6.82484444e-07  1.80000000e+00  6.82484444e-07  1.61216953e-05  6.82484444e-07  5.93762193e-01                                 
 6.95092390e-07  7.15765802e-01  6.95092390e-07  6.55624067e-01  6.95092390e-07  1.24190819e+00  6.95092390e-07  1.80000000e+00  6.95092390e-07  4.80660039e-06  6.95092390e-07  6.55624067e-01                                 
 7.20308281e-07  7.57469404e-01  7.20308281e-07  6.99790104e-01  7.20308281e-07  1.25523752e+00  7.20308281e-07  1.80000000e+00  7.20308281e-07  3.07137337e-06  7.20308281e-07  6.99790104e-01                                 
 7.56044635e-07  7.89132676e-01  7.56044635e-07  7.27769217e-01  7.56044635e-07  1.24905443e+00  7.56044635e-07  1.80000000e+00  7.56044635e-07  8.63374370e-07  7.56044635e-07  7.27769217e-01                                 
 7.94788941e-07  7.92799321e-01  7.94788941e-07  7.31218622e-01  7.94788941e-07  1.21214904e+00  7.94788941e-07  1.80000000e+00  7.94788941e-07 -4.82136036e-07  7.94788941e-07  7.31218622e-01                                 
 8.40990157e-07  7.92802655e-01  8.40990157e-07  7.30936855e-01  8.40990157e-07  1.16447214e+00  8.40990157e-07  1.80000000e+00  8.40990157e-07  4.27881000e-07  8.40990157e-07  7.30936855e-01                                 
 8.91030635e-07  7.93157303e-01  8.91030635e-07  7.31504810e-01  8.91030635e-07  1.11235760e+00  8.91030635e-07  1.80000000e+00  8.91030635e-07 -4.30691348e-07  8.91030635e-07  7.31504810e-01                                 
 8.99322226e-07  7.93038881e-01  8.99322226e-07  7.31284917e-01  8.99322226e-07  1.10376738e+00  8.99322226e-07  1.80000000e+00  8.99322226e-07 -5.21667724e-08  8.99322226e-07  7.31284917e-01                                 
 9.15905410e-07  7.93062720e-01  9.15905410e-07  7.31286968e-01  9.15905410e-07  1.08651493e+00  9.15905410e-07  1.80000000e+00  9.15905410e-07  2.84095747e-08  9.15905410e-07  7.31286968e-01                                 
 9.49071776e-07  7.93336515e-01  9.49071776e-07  7.31533172e-01  9.49071776e-07  1.05246775e+00  9.49071776e-07  1.80000000e+00  9.49071776e-07 -5.94972178e-10  9.49071776e-07  7.31533172e-01                                 
 9.90545861e-07  7.81865031e-01  9.90545861e-07  7.21671074e-01  9.90545861e-07  1.00055364e+00  9.90545861e-07  1.80000000e+00  9.90545861e-07 -1.15782536e-06  9.90545861e-07  7.21671074e-01                                 
 1.03441451e-06  7.68963835e-01  1.03441451e-06  7.10094614e-01  1.03441451e-06  9.49867188e-01  1.03441451e-06  1.80000000e+00  1.03441451e-06  4.49854879e-08  1.03441451e-06  7.10094614e-01                                 
 1.09137921e-06  7.80696141e-01  1.09137921e-06  7.20591551e-01  1.09137921e-06  9.16606000e-01  1.09137921e-06  1.80000000e+00  1.09137921e-06  1.16910799e-06  1.09137921e-06  7.20591551e-01                                 
 1.15076171e-06  7.86298664e-01  1.15076171e-06  7.25524662e-01  1.15076171e-06  8.80963908e-01  1.15076171e-06  1.80000000e+00  1.15076171e-06 -3.41606963e-07  1.15076171e-06  7.25524662e-01                                 
 1.22680803e-06  7.77359583e-01  1.22680803e-06  7.17658162e-01  1.22680803e-06  8.26451763e-01  1.22680803e-06  1.80000000e+00  1.22680803e-06  3.51256907e-07  1.22680803e-06  7.17658162e-01                                 
 1.32309856e-06  7.78683148e-01  1.32309856e-06  7.18835969e-01  1.32309856e-06  7.78322228e-01  1.32309856e-06  1.80000000e+00  1.32309856e-06  3.34574954e-07  1.32309856e-06  7.18835969e-01                                 
 1.42549640e-06  7.84215599e-01  1.42549640e-06  7.23699721e-01  1.42549640e-06  7.48080008e-01  1.42549640e-06  1.80000000e+00  1.42549640e-06  6.73228594e-07  1.42549640e-06  7.23699721e-01                                 
 1.58443645e-06  7.77075297e-01  1.58443645e-06  7.17416981e-01  1.58443645e-06  7.15474420e-01  1.58443645e-06  1.80000000e+00  1.58443645e-06  6.30811951e-08  1.58443645e-06  7.17416981e-01                                 
 1.74308433e-06  7.81992001e-01  1.74308433e-06  7.21745856e-01  1.74308433e-06  7.10021406e-01  1.74308433e-06  1.80000000e+00  1.74308433e-06  1.05968188e-06  1.74308433e-06  7.21745856e-01                                 
 1.76333716e-06  7.82591924e-01  1.76333716e-06  7.22282357e-01  1.76333716e-06  7.10098362e-01  1.76333716e-06  1.80000000e+00  1.76333716e-06  5.74605124e-07  1.76333716e-06  7.22282357e-01                                 
 1.80384282e-06  7.81639487e-01  1.80384282e-06  7.21452896e-01  1.80384282e-06  7.11958204e-01  1.80384282e-06  1.80000000e+00  1.80384282e-06  4.22889051e-07  1.80384282e-06  7.21452896e-01                                 
 1.88485413e-06  7.78715042e-01  1.88485413e-06  7.18864392e-01  1.88485413e-06  7.18779494e-01  1.88485413e-06  1.80000000e+00  1.88485413e-06  5.46317299e-07  1.88485413e-06  7.18864392e-01                                 
 1.98132974e-06  7.81162468e-01  1.98132974e-06  7.21026441e-01  1.98132974e-06  7.21894624e-01  1.98132974e-06  1.80000000e+00  1.98132974e-06  5.98895339e-07  1.98132974e-06  7.21026441e-01                                 
 2.08001620e-06  7.80940823e-01  2.08001620e-06  7.20835787e-01  2.08001620e-06  7.20481320e-01  2.08001620e-06  1.80000000e+00  2.08001620e-06  4.24221361e-07  2.08001620e-06  7.20835787e-01                                 
 2.26763204e-06  7.79574132e-01  2.26763204e-06  7.19624783e-01  2.26763204e-06  7.19986903e-01  2.26763204e-06  1.80000000e+00  2.26763204e-06  5.85456652e-07  2.26763204e-06  7.19624783e-01                                 
 2.46432118e-06  7.81444241e-01  2.46432118e-06  7.21277150e-01  2.46432118e-06  7.21242320e-01  2.46432118e-06  1.80000000e+00  2.46432118e-06  4.91071159e-07  2.46432118e-06  7.21277150e-01                                 
 2.79244215e-06  7.79502105e-01  2.79244215e-06  7.19562778e-01  2.79244215e-06  7.19763904e-01  2.79244215e-06  1.80000000e+00  2.79244215e-06  5.22785351e-07  2.79244215e-06  7.19562778e-01                                 
 3.31309574e-06  7.81325921e-01  3.31309574e-06  7.21172413e-01  3.31309574e-06  7.21196003e-01  3.31309574e-06  1.80000000e+00  3.31309574e-06  5.29630049e-07  3.31309574e-06  7.21172413e-01                                 
 4.03868095e-06  7.79645216e-01  4.03868095e-06  7.19690286e-01  4.03868095e-06  7.19867822e-01  4.03868095e-06  1.80000000e+00  4.03868095e-06  4.98930790e-07  4.03868095e-06  7.19690286e-01                                 
 5.03868095e-06  7.81203037e-01  5.03868095e-06  7.21063578e-01  5.03868095e-06  7.21099670e-01  5.03868095e-06  1.80000000e+00  5.03868095e-06  5.45508599e-07  5.03868095e-06  7.21063578e-01                                 
 6.03868095e-06  7.79764436e-01  6.03868095e-06  7.19795956e-01  6.03868095e-06  7.19965620e-01  6.03868095e-06  1.80000000e+00  6.03868095e-06  4.86657098e-07  6.03868095e-06  7.19795956e-01                                 
 7.03868095e-06  7.81077768e-01  7.03868095e-06  7.20952837e-01  7.03868095e-06  7.20994593e-01  7.03868095e-06  1.80000000e+00  7.03868095e-06  5.56771536e-07  7.03868095e-06  7.20952837e-01                                 
 8.03868095e-06  7.79901080e-01  8.03868095e-06  7.19917044e-01  8.03868095e-06  7.20082819e-01  8.03868095e-06  1.80000000e+00  8.03868095e-06  4.76479627e-07  8.03868095e-06  7.19917044e-01                                 
 9.03868095e-06  7.80938896e-01  9.03868095e-06  7.20830223e-01  9.03868095e-06  7.20874170e-01  9.03868095e-06  1.80000000e+00  9.03868095e-06  5.65806190e-07  9.03868095e-06  7.20830223e-01                                 
 1.00005000e-05  7.80051120e-01  1.00005000e-05  7.20049865e-01  1.00005000e-05  7.20214855e-01  1.00005000e-05  1.80000000e+00  1.00005000e-05  4.68501524e-07  1.00005000e-05  7.20049865e-01                                 
 1.00005500e-05  7.80049903e-01  1.00005500e-05  7.20048756e-01  1.00005500e-05  7.13191532e-01  1.00005500e-05  1.62000000e+00  1.00005500e-05 -1.16212601e-04  1.00005500e-05  7.20048756e-01                                 
