 time            v(vbep)         time            v(vben)         time            v(vout)         time            v(vphi1)        time            v(vphi2)        time            v(vref)         time            v(voutc)        time            v(voutcc)       yes             currtemp       
 0.00000000e+00  6.71479961e-01  0.00000000e+00  5.98580845e-01  0.00000000e+00  1.37229996e+00  0.00000000e+00  0.00000000e+00  0.00000000e+00  1.79999998e+00  0.00000000e+00  5.97392542e-01  0.00000000e+00  1.37229995e+00  0.00000000e+00  1.38075740e+00  1.00000000e+00  9.40000000e+01 
 1.00000000e-11  6.71505307e-01  1.00000000e-11  5.98652569e-01  1.00000000e-11  1.37301631e+00  1.00000000e-11  1.80000000e-02  1.00000000e-11  1.80024321e+00  1.00000000e-11  5.97898232e-01  1.00000000e-11  1.37274383e+00  1.00000000e-11  1.38077053e+00                                 
 2.00000000e-11  6.71511992e-01  2.00000000e-11  5.98695872e-01  2.00000000e-11  1.37343623e+00  2.00000000e-11  3.60000000e-02  2.00000000e-11  1.80033555e+00  2.00000000e-11  5.98268490e-01  2.00000000e-11  1.37307252e+00  2.00000000e-11  1.38077504e+00                                 
 4.00000000e-11  6.71511677e-01  4.00000000e-11  5.98751086e-01  4.00000000e-11  1.37391421e+00  4.00000000e-11  7.20000000e-02  4.00000000e-11  1.80036344e+00  4.00000000e-11  5.98803699e-01  4.00000000e-11  1.37355257e+00  4.00000000e-11  1.38077598e+00                                 
 8.00000000e-11  6.71499878e-01  8.00000000e-11  5.98782367e-01  8.00000000e-11  1.37394579e+00  8.00000000e-11  1.44000000e-01  8.00000000e-11  1.80016109e+00  8.00000000e-11  5.99208319e-01  8.00000000e-11  1.37392031e+00  8.00000000e-11  1.38076616e+00                                 
 1.60000000e-10  6.71497141e-01  1.60000000e-10  5.98787406e-01  1.60000000e-10  1.37362824e+00  1.60000000e-10  2.88000000e-01  1.60000000e-10  1.80000369e+00  1.60000000e-10  5.99294983e-01  1.60000000e-10  1.37395369e+00  1.60000000e-10  1.38075782e+00                                 
 3.20000000e-10  6.71491663e-01  3.20000000e-10  5.98775420e-01  3.20000000e-10  1.37329607e+00  3.20000000e-10  5.76000000e-01  3.20000000e-10  1.79998644e+00  3.20000000e-10  5.99174702e-01  3.20000000e-10  1.37366421e+00  3.20000000e-10  1.38075287e+00                                 
 6.40000000e-10  6.71411056e-01  6.40000000e-10  5.98266781e-01  6.40000000e-10  1.37154343e+00  6.40000000e-10  1.15200000e+00  6.40000000e-10  1.80625706e+00  6.40000000e-10  5.95415725e-01  6.40000000e-10  1.37511913e+00  6.40000000e-10  1.38076732e+00                                 
 1.00000000e-09  6.71997049e-01  1.00000000e-09  5.98824263e-01  1.00000000e-09  1.35226036e+00  1.00000000e-09  1.80000000e+00  1.00000000e-09  1.20253434e-01  1.00000000e-09  6.08953850e-01  1.00000000e-09  1.38092364e+00  1.00000000e-09  1.38079424e+00                                 
 1.03858802e-09  6.72087484e-01  1.03858802e-09  5.98785810e-01  1.03858802e-09  1.35012672e+00  1.03858802e-09  1.80000000e+00  1.03858802e-09  3.00118906e-02  1.03858802e-09  6.11021715e-01  1.03858802e-09  1.38169411e+00  1.03858802e-09  1.38079541e+00                                 
 1.11576407e-09  6.72276190e-01  1.11576407e-09  5.98767583e-01  1.11576407e-09  1.34789492e+00  1.11576407e-09  1.80000000e+00  1.11576407e-09 -1.31753663e-02  1.11576407e-09  6.13371643e-01  1.11576407e-09  1.38338587e+00  1.11576407e-09  1.38080145e+00                                 
 1.27011616e-09  6.72372204e-01  1.27011616e-09  5.98606662e-01  1.27011616e-09  1.34517910e+00  1.27011616e-09  1.80000000e+00  1.27011616e-09  1.00719085e-02  1.27011616e-09  6.12194453e-01  1.27011616e-09  1.38268025e+00  1.27011616e-09  1.38077424e+00                                 
 1.48420022e-09  6.72279658e-01  1.48420022e-09  5.98603915e-01  1.48420022e-09  1.34421007e+00  1.48420022e-09  1.80000000e+00  1.48420022e-09 -7.87180861e-03  1.48420022e-09  6.11060559e-01  1.48420022e-09  1.38147244e+00  1.48420022e-09  1.38082505e+00                                 
 1.70918494e-09  6.72120908e-01  1.70918494e-09  5.98601257e-01  1.70918494e-09  1.34381137e+00  1.70918494e-09  1.80000000e+00  1.70918494e-09  6.41351512e-03  1.70918494e-09  6.09563918e-01  1.70918494e-09  1.38039699e+00  1.70918494e-09  1.38087281e+00                                 
 2.15915437e-09  6.71801460e-01  2.15915437e-09  5.98575029e-01  2.15915437e-09  1.34233626e+00  2.15915437e-09  1.80000000e+00  2.15915437e-09 -5.79280357e-03  2.15915437e-09  6.06971202e-01  2.15915437e-09  1.37800718e+00  2.15915437e-09  1.38102447e+00                                 
 2.82309185e-09  6.71531359e-01  2.82309185e-09  5.98588942e-01  2.82309185e-09  1.33960110e+00  2.82309185e-09  1.80000000e+00  2.82309185e-09  5.38178153e-03  2.82309185e-09  6.04055508e-01  2.82309185e-09  1.37568143e+00  2.82309185e-09  1.38121529e+00                                 
 4.15096681e-09  6.71302256e-01  4.15096681e-09  5.98554799e-01  4.15096681e-09  1.33192468e+00  4.15096681e-09  1.80000000e+00  4.15096681e-09 -5.20881524e-03  4.15096681e-09  5.99878009e-01  4.15096681e-09  1.37196696e+00  4.15096681e-09  1.38145869e+00                                 
 5.57842666e-09  6.71281355e-01  5.57842666e-09  5.98578138e-01  5.57842666e-09  1.32308702e+00  5.57842666e-09  1.80000000e+00  5.57842666e-09  5.04472908e-03  5.57842666e-09  5.97775430e-01  5.57842666e-09  1.37033081e+00  5.57842666e-09  1.38147644e+00                                 
 6.79207017e-09  6.71289736e-01  6.79207017e-09  5.98553385e-01  6.79207017e-09  1.31434660e+00  6.79207017e-09  1.80000000e+00  6.79207017e-09 -4.84948049e-03  6.79207017e-09  5.96663718e-01  6.79207017e-09  1.36923928e+00  6.79207017e-09  1.38137106e+00                                 
 8.17100508e-09  6.71340345e-01  8.17100508e-09  5.98584199e-01  8.17100508e-09  1.30387814e+00  8.17100508e-09  1.80000000e+00  8.17100508e-09  4.70385109e-03  8.17100508e-09  5.96325092e-01  8.17100508e-09  1.36908955e+00  8.17100508e-09  1.38117330e+00                                 
 9.88203386e-09  6.71377667e-01  9.88203386e-09  5.98560085e-01  9.88203386e-09  1.28920658e+00  9.88203386e-09  1.80000000e+00  9.88203386e-09 -4.56454750e-03  9.88203386e-09  5.95908195e-01  9.88203386e-09  1.36858871e+00  9.88203386e-09  1.38089903e+00                                 
 1.21301890e-08  6.71439354e-01  1.21301890e-08  5.98592012e-01  1.21301890e-08  1.26919170e+00  1.21301890e-08  1.80000000e+00  1.21301890e-08  4.49189266e-03  1.21301890e-08  5.96105498e-01  1.21301890e-08  1.36887769e+00  1.21301890e-08  1.38053125e+00                                 
 1.49892986e-08  6.71464246e-01  1.49892986e-08  5.98565481e-01  1.49892986e-08  1.24198565e+00  1.49892986e-08  1.80000000e+00  1.49892986e-08 -4.40038992e-03  1.49892986e-08  5.96062255e-01  1.49892986e-08  1.36869056e+00  1.49892986e-08  1.38011600e+00                                 
 1.89953693e-08  6.71496340e-01  1.89953693e-08  5.98595613e-01  1.89953693e-08  1.20344617e+00  1.89953693e-08  1.80000000e+00  1.89953693e-08  4.37297142e-03  1.89953693e-08  5.96518667e-01  1.89953693e-08  1.36919037e+00  1.89953693e-08  1.37963624e+00                                 
 2.50179253e-08  6.71488069e-01  2.50179253e-08  5.98567027e-01  2.50179253e-08  1.14443084e+00  2.50179253e-08  1.80000000e+00  2.50179253e-08 -4.31748673e-03  2.50179253e-08  5.96617120e-01  2.50179253e-08  1.36912459e+00  2.50179253e-08  1.37912316e+00                                 
 3.31161158e-08  6.71494694e-01  3.31161158e-08  5.98595640e-01  3.31161158e-08  1.06611665e+00  3.31161158e-08  1.80000000e+00  3.31161158e-08  4.31661616e-03  3.31161158e-08  5.97088711e-01  3.31161158e-08  1.36964186e+00  3.31161158e-08  1.37869846e+00                                 
 4.67777717e-08  6.71475406e-01  4.67777717e-08  5.98566554e-01  4.67777717e-08  9.35680752e-01  4.67777717e-08  1.80000000e+00  4.67777717e-08 -4.27854651e-03  4.67777717e-08  5.97117020e-01  4.67777717e-08  1.36952901e+00  4.67777717e-08  1.37837060e+00                                 
 7.38545216e-08  6.71488475e-01  7.38545216e-08  5.98595352e-01  7.38545216e-08  7.03052212e-01  7.38545216e-08  1.80000000e+00  7.38545216e-08  4.30008059e-03  7.38545216e-08  5.97472794e-01  7.38545216e-08  1.36995865e+00  7.38545216e-08  1.37823354e+00                                 
 9.63056597e-08  6.71476808e-01  9.63056597e-08  5.98567051e-01  9.63056597e-08  6.08870783e-01  9.63056597e-08  1.80000000e+00  9.63056597e-08 -4.25153527e-03  9.63056597e-08  5.97302231e-01  9.63056597e-08  1.36968596e+00  9.63056597e-08  1.37826769e+00                                 
 1.19526614e-07  6.71479448e-01  1.19526614e-07  5.98594339e-01  1.19526614e-07  5.98180515e-01  1.19526614e-07  1.80000000e+00  1.19526614e-07  4.28955621e-03  1.19526614e-07  5.97492539e-01  1.19526614e-07  1.36997578e+00  1.19526614e-07  1.37828363e+00                                 
 1.31361447e-07  6.71476684e-01  1.31361447e-07  5.98567265e-01  1.31361447e-07  5.96645687e-01  1.31361447e-07  1.80000000e+00  1.31361447e-07 -4.22730967e-03  1.31361447e-07  5.97294457e-01  1.31361447e-07  1.36967905e+00  1.31361447e-07  1.37828674e+00                                 
 1.50269492e-07  6.71483805e-01  1.50269492e-07  5.98594404e-01  1.50269492e-07  5.96667915e-01  1.50269492e-07  1.80000000e+00  1.50269492e-07  4.26413828e-03  1.50269492e-07  5.97492725e-01  1.50269492e-07  1.36997459e+00  1.50269492e-07  1.37828596e+00                                 
 1.88085580e-07  6.71475598e-01  1.88085580e-07  5.98567248e-01  1.88085580e-07  5.95893479e-01  1.88085580e-07  1.80000000e+00  1.88085580e-07 -4.21271180e-03  1.88085580e-07  5.97292362e-01  1.88085580e-07  1.36967558e+00  1.88085580e-07  1.37828637e+00                                 
 2.50056840e-07  6.71484568e-01  2.50056840e-07  5.98594447e-01  2.50056840e-07  5.96446406e-01  2.50056840e-07  1.80000000e+00  2.50056840e-07  4.25627788e-03  2.50056840e-07  5.97492845e-01  2.50056840e-07  1.36997124e+00  2.50056840e-07  1.37828266e+00                                 
 3.70586626e-07  6.71475238e-01  3.70586626e-07  5.98567227e-01  3.70586626e-07  5.95908094e-01  3.70586626e-07  1.80000000e+00  3.70586626e-07 -4.20823861e-03  3.70586626e-07  5.97292136e-01  3.70586626e-07  1.36966935e+00  3.70586626e-07  1.37828017e+00                                 
 5.86085882e-07  6.71484746e-01  5.86085882e-07  5.98594457e-01  5.86085882e-07  5.96435042e-01  5.86085882e-07  1.80000000e+00  5.86085882e-07  4.25388932e-03  5.86085882e-07  5.97492965e-01  5.86085882e-07  1.36996008e+00  5.86085882e-07  1.37827146e+00                                 
 9.83233598e-07  6.71475142e-01  9.83233598e-07  5.98567222e-01  9.83233598e-07  5.95909868e-01  9.83233598e-07  1.80000000e+00  9.83233598e-07 -4.20692876e-03  9.83233598e-07  5.97292070e-01  9.83233598e-07  1.36964885e+00  9.83233598e-07  1.37825972e+00                                 
 1.72398141e-06  6.71484797e-01  1.72398141e-06  5.98594461e-01  1.72398141e-06  5.96435520e-01  1.72398141e-06  1.80000000e+00  1.72398141e-06  4.25317542e-03  1.72398141e-06  5.97493000e-01  1.72398141e-06  1.36992211e+00  1.72398141e-06  1.37823351e+00                                 
 2.92398141e-06  6.71475113e-01  2.92398141e-06  5.98567220e-01  2.92398141e-06  5.95910294e-01  2.92398141e-06  1.80000000e+00  2.92398141e-06 -4.20652933e-03  2.92398141e-06  5.97292051e-01  2.92398141e-06  1.36958407e+00  2.92398141e-06  1.37819502e+00                                 
 4.12398141e-06  6.71484819e-01  4.12398141e-06  5.98594462e-01  4.12398141e-06  5.96433793e-01  4.12398141e-06  1.80000000e+00  4.12398141e-06  4.25286781e-03  4.12398141e-06  5.97493016e-01  4.12398141e-06  1.36984206e+00  4.12398141e-06  1.37815355e+00                                 
 5.32398141e-06  6.71475092e-01  5.32398141e-06  5.98567218e-01  5.32398141e-06  5.95908628e-01  5.32398141e-06  1.80000000e+00  5.32398141e-06 -4.20621893e-03  5.32398141e-06  5.97292035e-01  5.32398141e-06  1.36950402e+00  5.32398141e-06  1.37811508e+00                                 
 6.00100000e-06  6.71484848e-01  6.00100000e-06  5.98594464e-01  6.00100000e-06  5.96433015e-01  6.00100000e-06  1.80000000e+00  6.00100000e-06  4.25244140e-03  6.00100000e-06  5.97493036e-01  6.00100000e-06  1.36977946e+00  6.00100000e-06  1.37809100e+00                                 
 6.00110000e-06  6.71427170e-01  6.00110000e-06  5.98343226e-01  6.00110000e-06  5.94623015e-01  6.00110000e-06  1.62000000e+00  6.00110000e-06  3.27780956e-04  6.00110000e-06  5.95884580e-01  6.00110000e-06  1.36834868e+00  6.00110000e-06  1.37808143e+00                                 
 6.00130000e-06  6.71461329e-01  6.00130000e-06  5.98334627e-01  6.00130000e-06  5.94452068e-01  6.00130000e-06  1.26000000e+00  6.00130000e-06 -3.27327228e-04  6.00130000e-06  5.95524740e-01  6.00130000e-06  1.36803391e+00  6.00130000e-06  1.37809633e+00                                 
 6.00164746e-06  6.71533391e-01  6.00164746e-06  5.98524410e-01  6.00164746e-06  5.96364004e-01  6.00164746e-06  6.34576310e-01  6.00164746e-06  3.83965341e-02  6.00164746e-06  5.95572612e-01  6.00164746e-06  1.36455161e+00  6.00164746e-06  1.37807076e+00                                 
 6.00200000e-06  6.71459032e-01  6.00200000e-06  5.97302860e-01  6.00200000e-06  6.29451824e-01  6.00200000e-06  0.00000000e+00  6.00200000e-06  1.61890642e+00  6.00200000e-06  5.82884239e-01  6.00200000e-06  1.15159860e+00  6.00200000e-06  1.37748836e+00                                 
 6.00204637e-06  6.71476808e-01  6.00204637e-06  5.96622334e-01  6.00204637e-06  6.37375250e-01  6.00204637e-06  0.00000000e+00  6.00204637e-06  1.73454866e+00  6.00204637e-06  5.75160346e-01  6.00204637e-06  1.07525841e+00  6.00204637e-06  1.37748795e+00                                 
 6.00213911e-06  6.71481687e-01  6.00213911e-06  5.95652988e-01  6.00213911e-06  6.42349741e-01  6.00213911e-06  0.00000000e+00  6.00213911e-06  1.81437555e+00  6.00213911e-06  5.64182797e-01  6.00213911e-06  9.24959044e-01  6.00213911e-06  1.37792677e+00                                 
 6.00232458e-06  6.71477216e-01  6.00232458e-06  5.96114288e-01  6.00232458e-06  6.26175798e-01  6.00232458e-06  0.00000000e+00  6.00232458e-06  1.78797136e+00  6.00232458e-06  5.69495043e-01  6.00232458e-06  7.22349114e-01  6.00232458e-06  1.37847277e+00                                 
 6.00251061e-06  6.71479951e-01  6.00251061e-06  5.97369208e-01  6.00251061e-06  6.10666753e-01  6.00251061e-06  0.00000000e+00  6.00251061e-06  1.80598904e+00  6.00251061e-06  5.82916365e-01  6.00251061e-06  6.41851804e-01  6.00251061e-06  1.37849418e+00                                 
 6.00265664e-06  6.71477395e-01  6.00265664e-06  5.98006923e-01  6.00265664e-06  6.03614084e-01  6.00265664e-06  0.00000000e+00  6.00265664e-06  1.79692922e+00  6.00265664e-06  5.88910699e-01  6.00265664e-06  6.16811110e-01  6.00265664e-06  1.37830428e+00                                 
 6.00285223e-06  6.71479833e-01  6.00285223e-06  5.98607337e-01  6.00285223e-06  5.99350533e-01  6.00285223e-06  0.00000000e+00  6.00285223e-06  1.80197818e+00  6.00285223e-06  5.94576982e-01  6.00285223e-06  6.04440817e-01  6.00285223e-06  1.37735915e+00                                 
 6.00305936e-06  6.71478062e-01  6.00305936e-06  5.98829206e-01  6.00305936e-06  5.97773367e-01  6.00305936e-06  0.00000000e+00  6.00305936e-06  1.79883637e+00  6.00305936e-06  5.96303859e-01  6.00305936e-06  5.99175034e-01  6.00305936e-06  1.37617754e+00                                 
 6.00338723e-06  6.71480142e-01  6.00338723e-06  5.99010458e-01  6.00338723e-06  5.97499587e-01  6.00338723e-06  0.00000000e+00  6.00338723e-06  1.80092911e+00  6.00338723e-06  5.98092168e-01  6.00338723e-06  5.97864121e-01  6.00338723e-06  1.37384084e+00                                 
 6.00382047e-06  6.71478713e-01  6.00382047e-06  5.98991218e-01  6.00382047e-06  5.98445149e-01  6.00382047e-06  0.00000000e+00  6.00382047e-06  1.79928130e+00  6.00382047e-06  5.98112671e-01  6.00382047e-06  5.98041321e-01  6.00382047e-06  1.37057746e+00                                 
 6.00458003e-06  6.71480531e-01  6.00458003e-06  5.98973097e-01  6.00458003e-06  6.00584836e-01  6.00458003e-06  0.00000000e+00  6.00458003e-06  1.80066355e+00  6.00458003e-06  5.98640506e-01  6.00458003e-06  6.00511456e-01  6.00458003e-06  1.36435903e+00                                 
 6.00581347e-06  6.71479106e-01  6.00581347e-06  5.98861119e-01  6.00581347e-06  6.04398322e-01  6.00581347e-06  0.00000000e+00  6.00581347e-06  1.79941319e+00  6.00581347e-06  5.98358150e-01  6.00581347e-06  6.03926632e-01  6.00581347e-06  1.35374651e+00                                 
 6.00828036e-06  6.71480696e-01  6.00828036e-06  5.98739895e-01  6.00828036e-06  6.11967890e-01  6.00828036e-06  0.00000000e+00  6.00828036e-06  1.80059372e+00  6.00828036e-06  5.98592458e-01  6.00828036e-06  6.11850332e-01  6.00828036e-06  1.33135522e+00                                 
 6.01321413e-06  6.71479198e-01  6.01321413e-06  5.98570066e-01  6.01321413e-06  6.26934885e-01  6.01321413e-06  0.00000000e+00  6.01321413e-06  1.79944242e+00  6.01321413e-06  5.98035082e-01  6.01321413e-06  6.26410969e-01  6.01321413e-06  1.28549612e+00                                 
 6.02121353e-06  6.71480705e-01  6.02121353e-06  5.98576656e-01  6.02121353e-06  6.50393378e-01  6.02121353e-06  0.00000000e+00  6.02121353e-06  1.80057586e+00  6.02121353e-06  5.98035824e-01  6.02121353e-06  6.50235015e-01  6.02121353e-06  1.20984878e+00                                 
 6.03526386e-06  6.71479208e-01  6.03526386e-06  5.98563166e-01  6.03526386e-06  6.89747484e-01  6.03526386e-06  0.00000000e+00  6.03526386e-06  1.79945150e+00  6.03526386e-06  5.97420605e-01  6.03526386e-06  6.89122948e-01  6.03526386e-06  1.07637496e+00                                 
 6.05022944e-06  6.71480709e-01  6.05022944e-06  5.98591006e-01  6.05022944e-06  7.28915653e-01  6.05022944e-06  0.00000000e+00  6.05022944e-06  1.80056731e+00  6.05022944e-06  5.97609497e-01  6.05022944e-06  7.28737275e-01  6.05022944e-06  9.45785564e-01                                 
 6.06812824e-06  6.71479212e-01  6.06812824e-06  5.98567720e-01  6.06812824e-06  7.72462846e-01  6.06812824e-06  0.00000000e+00  6.06812824e-06  1.79945588e+00  6.06812824e-06  5.97246337e-01  6.06812824e-06  7.71663816e-01  6.06812824e-06  8.37058132e-01                                 
 6.09231026e-06  6.71480708e-01  6.09231026e-06  5.98593453e-01  6.09231026e-06  8.25691269e-01  6.09231026e-06  0.00000000e+00  6.09231026e-06  1.80056026e+00  6.09231026e-06  5.97542131e-01  6.09231026e-06  8.25609106e-01  6.09231026e-06  8.05520318e-01                                 
 6.10906281e-06  6.71479215e-01  6.10906281e-06  5.98567983e-01  6.10906281e-06  8.59132804e-01  6.10906281e-06  0.00000000e+00  6.10906281e-06  1.79945868e+00  6.10906281e-06  5.97226273e-01  6.10906281e-06  8.58150721e-01  6.10906281e-06  8.34766823e-01                                 
 6.12077948e-06  6.71480706e-01  6.12077948e-06  5.98593953e-01  6.12077948e-06  8.80841607e-01  6.12077948e-06  0.00000000e+00  6.12077948e-06  1.80055198e+00  6.12077948e-06  5.97543602e-01  6.12077948e-06  8.80769944e-01  6.12077948e-06  8.56569717e-01                                 
 6.13452859e-06  6.71479217e-01  6.13452859e-06  5.98567512e-01  6.13452859e-06  9.04858661e-01  6.13452859e-06  0.00000000e+00  6.13452859e-06  1.79946499e+00  6.13452859e-06  5.97222502e-01  6.13452859e-06  9.03742513e-01  6.13452859e-06  8.81203271e-01                                 
 6.16202682e-06  6.71480703e-01  6.16202682e-06  5.98594311e-01  6.16202682e-06  9.47987785e-01  6.16202682e-06  0.00000000e+00  6.16202682e-06  1.80054520e+00  6.16202682e-06  5.97547531e-01  6.16202682e-06  9.47963309e-01  6.16202682e-06  9.26296614e-01                                 
