 time            v(vbep)         time            v(vben)         time            v(vout)         time            v(vphi1)        time            v(vphi2)        time            v(vref)         time            v(voutc)        time            v(voutcc)       yes             currtemp       
 0.00000000e+00  7.94467440e-01  0.00000000e+00  7.39105510e-01  0.00000000e+00  1.64401643e+00  0.00000000e+00  0.00000000e+00  0.00000000e+00  1.80000000e+00  0.00000000e+00  7.42057182e-01  0.00000000e+00  1.64401642e+00  0.00000000e+00  1.64993463e+00  1.00000000e+00  1.30000000e+01 
 1.00000000e-11  7.94491643e-01  1.00000000e-11  7.39176309e-01  1.00000000e-11  1.64481222e+00  1.00000000e-11  1.80000000e-02  1.00000000e-11  1.80024796e+00  1.00000000e-11  7.42582680e-01  1.00000000e-11  1.64448209e+00  1.00000000e-11  1.64994569e+00                                 
 2.00000000e-11  7.94498278e-01  2.00000000e-11  7.39220844e-01  2.00000000e-11  1.64531996e+00  2.00000000e-11  3.60000000e-02  2.00000000e-11  1.80034837e+00  2.00000000e-11  7.42975293e-01  2.00000000e-11  1.64483914e+00  2.00000000e-11  1.64994965e+00                                 
 4.00000000e-11  7.94498090e-01  4.00000000e-11  7.39279386e-01  4.00000000e-11  1.64595651e+00  4.00000000e-11  7.20000000e-02  4.00000000e-11  1.80038984e+00  4.00000000e-11  7.43551028e-01  4.00000000e-11  1.64537791e+00  4.00000000e-11  1.64995016e+00                                 
 8.00000000e-11  7.94486148e-01  8.00000000e-11  7.39315815e-01  8.00000000e-11  1.64615471e+00  8.00000000e-11  1.44000000e-01  8.00000000e-11  1.80019009e+00  8.00000000e-11  7.43997614e-01  8.00000000e-11  1.64583954e+00  8.00000000e-11  1.64993900e+00                                 
 1.60000000e-10  7.94482931e-01  1.60000000e-10  7.39322542e-01  1.60000000e-10  1.64584736e+00  1.60000000e-10  2.88000000e-01  1.60000000e-10  1.80000543e+00  1.60000000e-10  7.44053068e-01  1.60000000e-10  1.64593119e+00  1.60000000e-10  1.64992853e+00                                 
 3.20000000e-10  7.94479765e-01  3.20000000e-10  7.39324988e-01  3.20000000e-10  1.64551157e+00  3.20000000e-10  5.76000000e-01  3.20000000e-10  1.80000384e+00  3.20000000e-10  7.43963812e-01  3.20000000e-10  1.64573837e+00  3.20000000e-10  1.64992558e+00                                 
 6.40000000e-10  7.94402152e-01  6.40000000e-10  7.39028935e-01  6.40000000e-10  1.64178839e+00  6.40000000e-10  1.15200000e+00  6.40000000e-10  1.81290037e+00  6.40000000e-10  7.42618413e-01  6.40000000e-10  1.65081992e+00  6.40000000e-10  1.64995517e+00                                 
 9.99422070e-10  7.94974828e-01  9.99422070e-10  7.39156830e-01  9.99422070e-10  1.61364941e+00  9.99422070e-10  1.79895973e+00  9.99422070e-10  8.33626289e-02  9.99422070e-10  7.48504316e-01  9.99422070e-10  1.64524833e+00  9.99422070e-10  1.64987661e+00                                 
 1.00000000e-09  7.94976298e-01  1.00000000e-09  7.39157354e-01  1.00000000e-09  1.61359587e+00  1.00000000e-09  1.80000000e+00  1.00000000e-09  7.86352908e-02  1.00000000e-09  7.48538642e-01  1.00000000e-09  1.64521113e+00  1.00000000e-09  1.64987620e+00                                 
 1.00115586e-09  7.94970831e-01  1.00115586e-09  7.39145427e-01  1.00115586e-09  1.61343008e+00  1.00115586e-09  1.80000000e+00  1.00115586e-09  7.03295448e-02  1.00115586e-09  7.48551347e-01  1.00115586e-09  1.64510565e+00  1.00115586e-09  1.64987396e+00                                 
 1.00346758e-09  7.94962111e-01  1.00346758e-09  7.39130970e-01  1.00346758e-09  1.61317682e+00  1.00346758e-09  1.80000000e+00  1.00346758e-09  5.54982347e-02  1.00346758e-09  7.48629934e-01  1.00346758e-09  1.64496774e+00  1.00346758e-09  1.64987356e+00                                 
 1.00809101e-09  7.94947940e-01  1.00809101e-09  7.39129018e-01  1.00809101e-09  1.61299045e+00  1.00809101e-09  1.80000000e+00  1.00809101e-09  3.43458022e-02  1.00809101e-09  7.49008888e-01  1.00809101e-09  1.64500816e+00  1.00809101e-09  1.64988575e+00                                 
 1.01733789e-09  7.94933177e-01  1.01733789e-09  7.39168929e-01  1.01733789e-09  1.61323230e+00  1.01733789e-09  1.80000000e+00  1.01733789e-09  1.27708820e-02  1.01733789e-09  7.50114248e-01  1.01733789e-09  1.64568882e+00  1.01733789e-09  1.64992409e+00                                 
 1.03583163e-09  7.94940255e-01  1.03583163e-09  7.39256857e-01  1.03583163e-09  1.61401880e+00  1.03583163e-09  1.80000000e+00  1.03583163e-09  1.59755515e-03  1.03583163e-09  7.52030223e-01  1.03583163e-09  1.64724047e+00  1.03583163e-09  1.64996753e+00                                 
 1.07281913e-09  7.94992453e-01  1.07281913e-09  7.39295332e-01  1.07281913e-09  1.61431857e+00  1.07281913e-09  1.80000000e+00  1.07281913e-09  8.71084510e-04  1.07281913e-09  7.53599598e-01  1.07281913e-09  1.64863678e+00  1.07281913e-09  1.64995515e+00                                 
 1.14679411e-09  7.95083658e-01  1.14679411e-09  7.39214097e-01  1.14679411e-09  1.61320552e+00  1.14679411e-09  1.80000000e+00  1.14679411e-09  5.18226463e-04  1.14679411e-09  7.54189905e-01  1.14679411e-09  1.64914951e+00  1.14679411e-09  1.64993176e+00                                 
 1.29474408e-09  7.95209778e-01  1.29474408e-09  7.39148213e-01  1.29474408e-09  1.61078183e+00  1.29474408e-09  1.80000000e+00  1.29474408e-09  3.50091387e-04  1.29474408e-09  7.54719443e-01  1.29474408e-09  1.64959096e+00  1.29474408e-09  1.64994323e+00                                 
 1.55809158e-09  7.95221238e-01  1.55809158e-09  7.39126922e-01  1.55809158e-09  1.60868610e+00  1.55809158e-09  1.80000000e+00  1.55809158e-09 -9.82906462e-06  1.55809158e-09  7.54210533e-01  1.55809158e-09  1.64915614e+00  1.55809158e-09  1.64993766e+00                                 
 1.86960213e-09  7.95036727e-01  1.86960213e-09  7.39107487e-01  1.86960213e-09  1.60955730e+00  1.86960213e-09  1.80000000e+00  1.86960213e-09 -2.85947624e-06  1.86960213e-09  7.53065900e-01  1.86960213e-09  1.64818395e+00  1.86960213e-09  1.64995976e+00                                 
 2.17085203e-09  7.94842969e-01  2.17085203e-09  7.39098638e-01  2.17085203e-09  1.61084114e+00  2.17085203e-09  1.80000000e+00  2.17085203e-09 -7.78164072e-05  2.17085203e-09  7.52057341e-01  2.17085203e-09  1.64732657e+00  2.17085203e-09  1.64997508e+00                                 
 2.57246163e-09  7.94641312e-01  2.57246163e-09  7.39085249e-01  2.57246163e-09  1.61237638e+00  2.57246163e-09  1.80000000e+00  2.57246163e-09 -1.65748298e-05  2.57246163e-09  7.50741857e-01  2.57246163e-09  1.64620841e+00  2.57246163e-09  1.65001033e+00                                 
 3.29769312e-09  7.94446646e-01  3.29769312e-09  7.39078853e-01  3.29769312e-09  1.61426050e+00  3.29769312e-09  1.80000000e+00  3.29769312e-09 -7.19713061e-05  3.29769312e-09  7.48648883e-01  3.29769312e-09  1.64442777e+00  3.29769312e-09  1.65005816e+00                                 
 4.74815610e-09  7.94349201e-01  4.74815610e-09  7.39078654e-01  4.74815610e-09  1.61572403e+00  4.74815610e-09  1.80000000e+00  4.74815610e-09 -1.37002996e-05  4.74815610e-09  7.45447159e-01  4.74815610e-09  1.64170555e+00  4.74815610e-09  1.65012029e+00                                 
 6.78250097e-09  7.94376306e-01  6.78250097e-09  7.39093493e-01  6.78250097e-09  1.61465231e+00  6.78250097e-09  1.80000000e+00  6.78250097e-09 -6.02294572e-05  6.78250097e-09  7.42843150e-01  6.78250097e-09  1.63949206e+00  6.78250097e-09  1.65007895e+00                                 
 8.49625154e-09  7.94369214e-01  8.49625154e-09  7.39098849e-01  8.49625154e-09  1.61351020e+00  8.49625154e-09  1.80000000e+00  8.49625154e-09  6.21883360e-06  8.49625154e-09  7.41762760e-01  8.49625154e-09  1.63857454e+00  8.49625154e-09  1.64995923e+00                                 
 1.04693329e-08  7.94365714e-01  1.04693329e-08  7.39104167e-01  1.04693329e-08  1.61242594e+00  1.04693329e-08  1.80000000e+00  1.04693329e-08 -3.68634128e-05  1.04693329e-08  7.41174560e-01  1.04693329e-08  1.63807198e+00  1.04693329e-08  1.64975408e+00                                 
 1.24527015e-08  7.94385105e-01  1.24527015e-08  7.39103659e-01  1.24527015e-08  1.61032041e+00  1.24527015e-08  1.80000000e+00  1.24527015e-08  1.81909238e-05  1.24527015e-08  7.40941628e-01  1.24527015e-08  1.63786945e+00  1.24527015e-08  1.64952402e+00                                 
 1.54139647e-08  7.94423051e-01  1.54139647e-08  7.39105801e-01  1.54139647e-08  1.60497877e+00  1.54139647e-08  1.80000000e+00  1.54139647e-08 -2.91421989e-05  1.54139647e-08  7.40888892e-01  1.54139647e-08  1.63781281e+00  1.54139647e-08  1.64916262e+00                                 
 1.88351693e-08  7.94450904e-01  1.88351693e-08  7.39104601e-01  1.88351693e-08  1.59666162e+00  1.88351693e-08  1.80000000e+00  1.88351693e-08  2.14591949e-05  1.88351693e-08  7.40980821e-01  1.88351693e-08  1.63787594e+00  1.88351693e-08  1.64876867e+00                                 
 2.40845039e-08  7.94470997e-01  2.40845039e-08  7.39106470e-01  2.40845039e-08  1.58198188e+00  2.40845039e-08  1.80000000e+00  2.40845039e-08 -2.72639708e-05  2.40845039e-08  7.41180459e-01  2.40845039e-08  1.63802216e+00  2.40845039e-08  1.64821873e+00                                 
 3.10779149e-08  7.94472793e-01  3.10779149e-08  7.39105036e-01  3.10779149e-08  1.56129182e+00  3.10779149e-08  1.80000000e+00  3.10779149e-08  2.17039241e-05  3.10779149e-08  7.41404037e-01  3.10779149e-08  1.63818762e+00  3.10779149e-08  1.64760676e+00                                 
 4.33075167e-08  7.94472381e-01  4.33075167e-08  7.39106361e-01  4.33075167e-08  1.52422540e+00  4.33075167e-08  1.80000000e+00  4.33075167e-08 -2.71126317e-05  4.33075167e-08  7.41675597e-01  4.33075167e-08  1.63838777e+00  4.33075167e-08  1.64677628e+00                                 
 6.40578604e-08  7.94468391e-01  6.40578604e-08  7.39104803e-01  6.40578604e-08  1.46066605e+00  6.40578604e-08  1.80000000e+00  6.40578604e-08  2.14743468e-05  6.40578604e-08  7.41906932e-01  6.40578604e-08  1.63855707e+00  6.40578604e-08  1.64586922e+00                                 
 1.05558548e-07  7.94468576e-01  1.05558548e-07  7.39106236e-01  1.05558548e-07  1.33334144e+00  1.05558548e-07  1.80000000e+00  1.05558548e-07 -2.70714058e-05  1.05558548e-07  7.42048846e-01  1.05558548e-07  1.63865591e+00  1.05558548e-07  1.64500807e+00                                 
 1.72888158e-07  7.94466584e-01  1.72888158e-07  7.39104787e-01  1.72888158e-07  1.12911950e+00  1.72888158e-07  1.80000000e+00  1.72888158e-07  2.16261264e-05  1.72888158e-07  7.42057169e-01  1.72888158e-07  1.63865441e+00  1.72888158e-07  1.64463899e+00                                 
 2.71920218e-07  7.94468260e-01  2.71920218e-07  7.39106229e-01  2.71920218e-07  8.53320524e-01  2.71920218e-07  1.80000000e+00  2.71920218e-07 -2.59669187e-05  2.71920218e-07  7.42056898e-01  2.71920218e-07  1.63864808e+00  2.71920218e-07  1.64457323e+00                                 
 3.67467148e-07  7.94466970e-01  3.67467148e-07  7.39104812e-01  3.67467148e-07  7.38551524e-01  3.67467148e-07  1.80000000e+00  3.67467148e-07  2.47913275e-05  3.67467148e-07  7.42057474e-01  3.67467148e-07  1.63864528e+00  3.67467148e-07  1.64457614e+00                                 
 4.60530896e-07  7.94467484e-01  4.60530896e-07  7.39106200e-01  4.60530896e-07  7.47178817e-01  4.60530896e-07  1.80000000e+00  4.60530896e-07 -2.43608141e-05  4.60530896e-07  7.42058788e-01  4.60530896e-07  1.63864224e+00  4.60530896e-07  1.64457031e+00                                 
 4.97453279e-07  7.94467412e-01  4.97453279e-07  7.39104781e-01  4.97453279e-07  7.45491366e-01  4.97453279e-07  1.80000000e+00  4.97453279e-07  2.45980632e-05  4.97453279e-07  7.42054519e-01  4.97453279e-07  1.63863766e+00  4.97453279e-07  1.64457105e+00                                 
 5.53312342e-07  7.94467661e-01  5.53312342e-07  7.39106269e-01  5.53312342e-07  7.44881960e-01  5.53312342e-07  1.80000000e+00  5.53312342e-07 -2.42698043e-05  5.53312342e-07  7.42059521e-01  5.53312342e-07  1.63863919e+00  5.53312342e-07  1.64456569e+00                                 
 6.60559566e-07  7.94467148e-01  6.60559566e-07  7.39104740e-01  6.60559566e-07  7.45215482e-01  6.60559566e-07  1.80000000e+00  6.60559566e-07  2.45851482e-05  6.60559566e-07  7.42054975e-01  6.60559566e-07  1.63863166e+00  6.60559566e-07  1.64456463e+00                                 
 8.61712047e-07  7.94467763e-01  8.61712047e-07  7.39106284e-01  8.61712047e-07  7.44913316e-01  8.61712047e-07  1.80000000e+00  8.61712047e-07 -2.42593960e-05  8.61712047e-07  7.42059329e-01  8.61712047e-07  1.63862696e+00  8.61712047e-07  1.64455367e+00                                 
 1.07401620e-06  7.94467089e-01  1.07401620e-06  7.39104733e-01  1.07401620e-06  7.45191613e-01  1.07401620e-06  1.80000000e+00  1.07401620e-06  2.45724760e-05  1.07401620e-06  7.42055088e-01  1.07401620e-06  1.63861556e+00  1.07401620e-06  1.64454844e+00                                 
 1.49862452e-06  7.94467803e-01  1.49862452e-06  7.39106289e-01  1.49862452e-06  7.44921328e-01  1.49862452e-06  1.80000000e+00  1.49862452e-06 -2.42542730e-05  1.49862452e-06  7.42059252e-01  1.49862452e-06  1.63860192e+00  1.49862452e-06  1.64452876e+00                                 
 2.20656004e-06  7.94467069e-01  2.20656004e-06  7.39104731e-01  2.20656004e-06  7.45185437e-01  2.20656004e-06  1.80000000e+00  2.20656004e-06  2.45663325e-05  2.20656004e-06  7.42055128e-01  2.20656004e-06  1.63857116e+00  2.20656004e-06  1.64450409e+00                                 
 3.31478315e-06  7.94467815e-01  3.31478315e-06  7.39106292e-01  3.31478315e-06  7.44916590e-01  3.31478315e-06  1.80000000e+00  3.31478315e-06 -2.42783982e-05  3.31478315e-06  7.42059231e-01  3.31478315e-06  1.63853067e+00  3.31478315e-06  1.64445766e+00                                 
 4.51478315e-06  7.94467061e-01  4.51478315e-06  7.39104730e-01  4.51478315e-06  7.45187287e-01  4.51478315e-06  1.80000000e+00  4.51478315e-06  2.45683649e-05  4.51478315e-06  7.42055144e-01  4.51478315e-06  1.63848077e+00  4.51478315e-06  1.64441384e+00                                 
 5.71478315e-06  7.94467823e-01  5.71478315e-06  7.39106293e-01  5.71478315e-06  7.44921518e-01  5.71478315e-06  1.80000000e+00  5.71478315e-06 -2.42668421e-05  5.71478315e-06  7.42059214e-01  5.71478315e-06  1.63843678e+00  5.71478315e-06  1.64436394e+00                                 
 6.00100000e-06  7.94467040e-01  6.00100000e-06  7.39104727e-01  6.00100000e-06  7.45185207e-01  6.00100000e-06  1.80000000e+00  6.00100000e-06  2.45686774e-05  6.00100000e-06  7.42055185e-01  6.00100000e-06  1.63842268e+00  6.00100000e-06  1.64435581e+00                                 
 6.00110000e-06  7.94429926e-01  6.00110000e-06  7.38866251e-01  6.00110000e-06  7.43232153e-01  6.00110000e-06  1.62000000e+00  6.00110000e-06 -9.88913109e-05  6.00110000e-06  7.40337269e-01  6.00110000e-06  1.63696137e+00  6.00110000e-06  1.64434210e+00                                 
 6.00130000e-06  7.94461614e-01  6.00130000e-06  7.38895289e-01  6.00130000e-06  7.43714008e-01  6.00130000e-06  1.26000000e+00  6.00130000e-06  3.28157291e-05  6.00130000e-06  7.40443384e-01  6.00130000e-06  1.63705411e+00  6.00130000e-06  1.64436104e+00                                 
 6.00170000e-06  7.94504797e-01  6.00170000e-06  7.38813413e-01  6.00170000e-06  7.54566966e-01  6.00170000e-06  5.40000000e-01  6.00170000e-06  1.23657299e+00  6.00170000e-06  7.37928353e-01  6.00170000e-06  1.59843001e+00  6.00170000e-06  1.64417900e+00                                 
 6.00200000e-06  7.94456302e-01  6.00200000e-06  7.36445100e-01  6.00200000e-06  7.88148215e-01  6.00200000e-06  0.00000000e+00  6.00200000e-06  1.82218788e+00  6.00200000e-06  7.11926380e-01  6.00200000e-06  1.31819076e+00  6.00200000e-06  1.64364845e+00                                 
 6.00204158e-06  7.94466956e-01  6.00204158e-06  7.36380454e-01  6.00204158e-06  7.85264095e-01  6.00204158e-06  0.00000000e+00  6.00204158e-06  1.80712635e+00  6.00204158e-06  7.11400529e-01  6.00204158e-06  1.26718578e+00  6.00204158e-06  1.64404292e+00                                 
 6.00212473e-06  7.94469145e-01  6.00212473e-06  7.36456258e-01  6.00212473e-06  7.78896117e-01  6.00212473e-06  0.00000000e+00  6.00212473e-06  1.79602241e+00  6.00212473e-06  7.12880780e-01  6.00212473e-06  1.17954575e+00  6.00212473e-06  1.64447183e+00                                 
 6.00229104e-06  7.94465974e-01  6.00229104e-06  7.36796866e-01  6.00229104e-06  7.72248804e-01  6.00229104e-06  0.00000000e+00  6.00229104e-06  1.80064734e+00  6.00229104e-06  7.17398562e-01  6.00229104e-06  1.05032677e+00  6.00229104e-06  1.64447309e+00                                 
 6.00249183e-06  7.94467539e-01  6.00249183e-06  7.37170018e-01  6.00249183e-06  7.67526625e-01  6.00249183e-06  0.00000000e+00  6.00249183e-06  1.79876406e+00  6.00249183e-06  7.21116142e-01  6.00249183e-06  9.33300433e-01  6.00249183e-06  1.64462102e+00                                 
 6.00273262e-06  7.94465705e-01  6.00273262e-06  7.37849478e-01  6.00273262e-06  7.60516157e-01  6.00273262e-06  0.00000000e+00  6.00273262e-06  1.79998048e+00  6.00273262e-06  7.27573841e-01  6.00273262e-06  8.35712434e-01  6.00273262e-06  1.64463155e+00                                 
 6.00312263e-06  7.94467447e-01  6.00312263e-06  7.38901108e-01  6.00312263e-06  7.50231783e-01  6.00312263e-06  0.00000000e+00  6.00312263e-06  1.79961045e+00  6.00312263e-06  7.36886153e-01  6.00312263e-06  7.62823018e-01  6.00312263e-06  1.64461072e+00                                 
 6.00341157e-06  7.94466140e-01  6.00341157e-06  7.39382338e-01  6.00341157e-06  7.46683752e-01  6.00341157e-06  0.00000000e+00  6.00341157e-06  1.80027982e+00  6.00341157e-06  7.40673684e-01  6.00341157e-06  7.51291744e-01  6.00341157e-06  1.64434570e+00                                 
 6.00374660e-06  7.94467689e-01  6.00374660e-06  7.39578965e-01  6.00374660e-06  7.46197054e-01  6.00374660e-06  0.00000000e+00  6.00374660e-06  1.79983768e+00  6.00374660e-06  7.41850529e-01  6.00374660e-06  7.46865054e-01  6.00374660e-06  1.64389094e+00                                 
 6.00412864e-06  7.94466613e-01  6.00412864e-06  7.39663978e-01  6.00412864e-06  7.45783598e-01  6.00412864e-06  0.00000000e+00  6.00412864e-06  1.80013218e+00  6.00412864e-06  7.42687852e-01  6.00412864e-06  7.46242035e-01  6.00412864e-06  1.64314607e+00                                 
 6.00487070e-06  7.94467973e-01  6.00487070e-06  7.39608028e-01  6.00487070e-06  7.47091976e-01  6.00487070e-06  0.00000000e+00  6.00487070e-06  1.79990957e+00  6.00487070e-06  7.42819891e-01  6.00487070e-06  7.46554824e-01  6.00487070e-06  1.64150037e+00                                 
 6.00594257e-06  7.94466907e-01  6.00594257e-06  7.39509864e-01  6.00594257e-06  7.48425457e-01  6.00594257e-06  0.00000000e+00  6.00594257e-06  1.80009200e+00  6.00594257e-06  7.43157334e-01  6.00594257e-06  7.48480730e-01  6.00594257e-06  1.63880629e+00                                 
 6.00808632e-06  7.94468021e-01  6.00808632e-06  7.39338650e-01  6.00808632e-06  7.52585523e-01  6.00808632e-06  0.00000000e+00  6.00808632e-06  1.79993069e+00  6.00808632e-06  7.43059654e-01  6.00808632e-06  7.51987039e-01  6.00808632e-06  1.63321493e+00                                 
 6.01237380e-06  7.94466888e-01  6.01237380e-06  7.39180284e-01  6.01237380e-06  7.60185335e-01  6.01237380e-06  0.00000000e+00  6.01237380e-06  1.80008163e+00  6.01237380e-06  7.43131803e-01  6.01237380e-06  7.60165285e-01  6.01237380e-06  1.62191119e+00                                 
 6.02094876e-06  7.94467994e-01  6.02094876e-06  7.39073517e-01  6.02094876e-06  7.76400423e-01  6.02094876e-06  0.00000000e+00  6.02094876e-06  1.79993518e+00  6.02094876e-06  7.42659920e-01  6.02094876e-06  7.75716921e-01  6.02094876e-06  1.59977423e+00                                 
