 time            v(vbep)         time            v(vben)         time            v(vout)         time            v(vphi1)        time            v(vphi2)        time            v(vref)         time            v(voutc)        time            v(voutcc)       yes             currtemp       
 0.00000000e+00  7.25160396e-01  0.00000000e+00  6.60000191e-01  0.00000000e+00  1.50670504e+00  0.00000000e+00  0.00000000e+00  0.00000000e+00  1.79999999e+00  0.00000000e+00  6.60991459e-01  0.00000000e+00  1.50670503e+00  0.00000000e+00  1.51402719e+00  1.00000000e+00  5.90000000e+01 
 1.00000000e-11  7.25185504e-01  1.00000000e-11  6.60072473e-01  1.00000000e-11  1.50747262e+00  1.00000000e-11  1.80000000e-02  1.00000000e-11  1.80025348e+00  1.00000000e-11  6.61525665e-01  1.00000000e-11  1.50717671e+00  1.00000000e-11  1.51403942e+00                                 
 2.00000000e-11  7.25192348e-01  2.00000000e-11  6.60117310e-01  2.00000000e-11  1.50793502e+00  2.00000000e-11  3.60000000e-02  2.00000000e-11  1.80035287e+00  2.00000000e-11  6.61920867e-01  2.00000000e-11  1.50753113e+00  2.00000000e-11  1.51404350e+00                                 
 4.00000000e-11  7.25192353e-01  4.00000000e-11  6.60176013e-01  4.00000000e-11  1.50848032e+00  4.00000000e-11  7.20000000e-02  4.00000000e-11  1.80038949e+00  4.00000000e-11  6.62498325e-01  4.00000000e-11  1.50805678e+00  4.00000000e-11  1.51404389e+00                                 
 8.00000000e-11  7.25180747e-01  8.00000000e-11  6.60213051e-01  8.00000000e-11  1.50856398e+00  8.00000000e-11  1.44000000e-01  8.00000000e-11  1.80018416e+00  8.00000000e-11  6.62947583e-01  8.00000000e-11  1.50847813e+00  8.00000000e-11  1.51403322e+00                                 
 1.60000000e-10  7.25178011e-01  1.60000000e-10  6.60223114e-01  1.60000000e-10  1.50822634e+00  1.60000000e-10  2.88000000e-01  1.60000000e-10  1.80000563e+00  1.60000000e-10  6.63038930e-01  1.60000000e-10  1.50852252e+00  1.60000000e-10  1.51402401e+00                                 
 3.20000000e-10  7.25173508e-01  3.20000000e-10  6.60214825e-01  3.20000000e-10  1.50784038e+00  3.20000000e-10  5.76000000e-01  3.20000000e-10  1.79998262e+00  3.20000000e-10  6.62875821e-01  3.20000000e-10  1.50817783e+00  3.20000000e-10  1.51401897e+00                                 
 6.40000000e-10  7.25090268e-01  6.40000000e-10  6.59794932e-01  6.40000000e-10  1.50610267e+00  6.40000000e-10  1.15200000e+00  6.40000000e-10  1.81011025e+00  6.40000000e-10  6.60174899e-01  6.40000000e-10  1.51214064e+00  6.40000000e-10  1.51404487e+00                                 
 1.00000000e-09  7.25672666e-01  1.00000000e-09  6.60161273e-01  1.00000000e-09  1.48488640e+00  1.00000000e-09  1.80000000e+00  1.00000000e-09  1.01610637e-01  1.00000000e-09  6.75122998e-01  1.00000000e-09  1.51650762e+00  1.00000000e-09  1.51403874e+00                                 
 1.03705458e-09  7.25741162e-01  1.03705458e-09  6.60178213e-01  1.03705458e-09  1.48352180e+00  1.03705458e-09  1.80000000e+00  1.03705458e-09  2.36725534e-02  1.03705458e-09  6.78321153e-01  1.03705458e-09  1.51828535e+00  1.03705458e-09  1.51406588e+00                                 
 1.11116374e-09  7.25902911e-01  1.11116374e-09  6.60222365e-01  1.11116374e-09  1.48178680e+00  1.11116374e-09  1.80000000e+00  1.11116374e-09 -1.11250285e-02  1.11116374e-09  6.82398704e-01  1.11116374e-09  1.52145583e+00  1.11116374e-09  1.51408296e+00                                 
 1.25938205e-09  7.26034307e-01  1.25938205e-09  6.60078197e-01  1.25938205e-09  1.47873270e+00  1.25938205e-09  1.80000000e+00  1.25938205e-09  8.88944090e-03  1.25938205e-09  6.82480571e-01  1.25938205e-09  1.52180752e+00  1.25938205e-09  1.51403503e+00                                 
 1.44759270e-09  7.26006878e-01  1.44759270e-09  6.60060022e-01  1.44759270e-09  1.47789593e+00  1.44759270e-09  1.80000000e+00  1.44759270e-09 -6.79488583e-03  1.44759270e-09  6.81587791e-01  1.44759270e-09  1.52083070e+00  1.44759270e-09  1.51407097e+00                                 
 1.65831054e-09  7.25907626e-01  1.65831054e-09  6.60057167e-01  1.65831054e-09  1.47762213e+00  1.65831054e-09  1.80000000e+00  1.65831054e-09  5.65817286e-03  1.65831054e-09  6.80021490e-01  1.65831054e-09  1.51967920e+00  1.65831054e-09  1.51409843e+00                                 
 2.00944685e-09  7.25660189e-01  2.00944685e-09  6.60012006e-01  2.00944685e-09  1.47727608e+00  2.00944685e-09  1.80000000e+00  2.00944685e-09 -5.05153046e-03  2.00944685e-09  6.77388852e-01  2.00944685e-09  1.51726927e+00  2.00944685e-09  1.51421807e+00                                 
 2.51339118e-09  7.25391897e-01  2.51339118e-09  6.60015187e-01  2.51339118e-09  1.47708471e+00  2.51339118e-09  1.80000000e+00  2.51339118e-09  4.58047429e-03  2.51339118e-09  6.74230023e-01  2.51339118e-09  1.51471192e+00  2.51339118e-09  1.51438775e+00                                 
 3.23607066e-09  7.25141142e-01  3.23607066e-09  6.59968732e-01  3.23607066e-09  1.47598260e+00  3.23607066e-09  1.80000000e+00  3.23607066e-09 -4.39877003e-03  3.23607066e-09  6.70003971e-01  3.23607066e-09  1.51096298e+00  3.23607066e-09  1.51463150e+00                                 
 4.36492630e-09  7.24997170e-01  4.36492630e-09  6.59985537e-01  4.36492630e-09  1.47414918e+00  4.36492630e-09  1.80000000e+00  4.36492630e-09  4.19168021e-03  4.36492630e-09  6.65581263e-01  4.36492630e-09  1.50731761e+00  4.36492630e-09  1.51487869e+00                                 
 6.01710270e-09  7.24941542e-01  6.01710270e-09  6.59959940e-01  6.01710270e-09  1.46957996e+00  6.01710270e-09  1.80000000e+00  6.01710270e-09 -4.11917715e-03  6.01710270e-09  6.61410382e-01  6.01710270e-09  1.50363758e+00  6.01710270e-09  1.51497798e+00                                 
 7.47363976e-09  7.24979909e-01  7.47363976e-09  6.59995319e-01  7.47363976e-09  1.46451937e+00  7.47363976e-09  1.80000000e+00  7.47363976e-09  3.99109763e-03  7.47363976e-09  6.59956235e-01  7.47363976e-09  1.50252428e+00  7.47363976e-09  1.51485035e+00                                 
 8.90133174e-09  7.25011227e-01  8.90133174e-09  6.59972624e-01  8.90133174e-09  1.45786801e+00  8.90133174e-09  1.80000000e+00  8.90133174e-09 -3.88827908e-03  8.90133174e-09  6.58960895e-01  8.90133174e-09  1.50155338e+00  8.90133174e-09  1.51463037e+00                                 
 1.04050521e-08  7.25066085e-01  1.04050521e-08  6.60006296e-01  1.04050521e-08  1.45026382e+00  1.04050521e-08  1.80000000e+00  1.04050521e-08  3.78107485e-03  1.04050521e-08  6.58873936e-01  1.04050521e-08  1.50159060e+00  1.04050521e-08  1.51434581e+00                                 
 1.24718887e-08  7.25103016e-01  1.24718887e-08  6.59981702e-01  1.24718887e-08  1.43799930e+00  1.24718887e-08  1.80000000e+00  1.24718887e-08 -3.71023738e-03  1.24718887e-08  6.58592490e-01  1.24718887e-08  1.50122217e+00  1.24718887e-08  1.51394603e+00                                 
 1.49531173e-08  7.25149589e-01  1.49531173e-08  6.60013277e-01  1.49531173e-08  1.42252841e+00  1.49531173e-08  1.80000000e+00  1.49531173e-08  3.65055483e-03  1.49531173e-08  6.59015402e-01  1.49531173e-08  1.50167767e+00  1.49531173e-08  1.51348658e+00                                 
 1.83790594e-08  7.25161533e-01  1.83790594e-08  6.59985914e-01  1.83790594e-08  1.39945442e+00  1.83790594e-08  1.80000000e+00  1.83790594e-08 -3.60741416e-03  1.83790594e-08  6.59129824e-01  1.83790594e-08  1.50163967e+00  1.83790594e-08  1.51293718e+00                                 
 2.29100638e-08  7.25179212e-01  2.29100638e-08  6.60015433e-01  2.29100638e-08  1.36856153e+00  2.29100638e-08  1.80000000e+00  2.29100638e-08  3.57666588e-03  2.29100638e-08  6.59792701e-01  2.29100638e-08  1.50229117e+00  2.29100638e-08  1.51235201e+00                                 
 3.03613096e-08  7.25165837e-01  3.03613096e-08  6.59986593e-01  3.03613096e-08  1.31651901e+00  3.03613096e-08  1.80000000e+00  3.03613096e-08 -3.55658054e-03  3.03613096e-08  6.60054403e-01  3.03613096e-08  1.50237862e+00  3.03613096e-08  1.51167527e+00                                 
 4.31095821e-08  7.25170117e-01  4.31095821e-08  6.60015110e-01  4.31095821e-08  1.22788515e+00  4.31095821e-08  1.80000000e+00  4.31095821e-08  3.54622973e-03  4.31095821e-08  6.60764186e-01  4.31095821e-08  1.50307404e+00  4.31095821e-08  1.51102968e+00                                 
 6.66892034e-08  7.25155713e-01  6.66892034e-08  6.59985790e-01  6.66892034e-08  1.06424677e+00  6.66892034e-08  1.80000000e+00  6.66892034e-08 -3.53922982e-03  6.66892034e-08  6.60821193e-01  6.66892034e-08  1.50300497e+00  6.66892034e-08  1.51061133e+00                                 
 9.89004091e-08  7.25164710e-01  9.89004091e-08  6.60014578e-01  9.89004091e-08  8.46786290e-01  9.89004091e-08  1.80000000e+00  9.89004091e-08  3.53727988e-03  9.89004091e-08  6.61108734e-01  9.89004091e-08  1.50335893e+00  9.89004091e-08  1.51053077e+00                                 
 1.29172047e-07  7.25159137e-01  1.29172047e-07  6.59985847e-01  1.29172047e-07  7.02731862e-01  1.29172047e-07  1.80000000e+00  1.29172047e-07 -3.52422184e-03  1.29172047e-07  6.60870792e-01  1.29172047e-07  1.50304565e+00  1.29172047e-07  1.51053003e+00                                 
 1.52758507e-07  7.25161769e-01  1.52758507e-07  6.60014783e-01  1.52758507e-07  6.66978903e-01  1.52758507e-07  1.80000000e+00  1.52758507e-07  3.53262140e-03  1.52758507e-07  6.61118889e-01  1.52758507e-07  1.50336552e+00  1.52758507e-07  1.51053052e+00                                 
 1.74992863e-07  7.25156449e-01  1.74992863e-07  6.59985385e-01  1.74992863e-07  6.62676011e-01  1.74992863e-07  1.80000000e+00  1.74992863e-07 -3.51053283e-03  1.74992863e-07  6.60869687e-01  1.74992863e-07  1.50304344e+00  1.74992863e-07  1.51053177e+00                                 
 1.98061673e-07  7.25163955e-01  1.98061673e-07  6.60014974e-01  1.98061673e-07  6.62148199e-01  1.98061673e-07  1.80000000e+00  1.98061673e-07  3.52079708e-03  1.98061673e-07  6.61114173e-01  1.98061673e-07  1.50335982e+00  1.98061673e-07  1.51052903e+00                                 
 2.21919136e-07  7.25156483e-01  2.21919136e-07  6.59985393e-01  2.21919136e-07  6.61971554e-01  2.21919136e-07  1.80000000e+00  2.21919136e-07 -3.49895804e-03  2.21919136e-07  6.60869177e-01  2.21919136e-07  1.50304157e+00  2.21919136e-07  1.51052864e+00                                 
 2.69634063e-07  7.25164407e-01  2.69634063e-07  6.60014973e-01  2.69634063e-07  6.62055733e-01  2.69634063e-07  1.80000000e+00  2.69634063e-07  3.51225461e-03  2.69634063e-07  6.61113658e-01  2.69634063e-07  1.50335687e+00  2.69634063e-07  1.51052562e+00                                 
 3.65063915e-07  7.25156334e-01  3.65063915e-07  6.59985403e-01  3.65063915e-07  6.61956765e-01  3.65063915e-07  1.80000000e+00  3.65063915e-07 -3.49470192e-03  3.65063915e-07  6.60869238e-01  3.65063915e-07  1.50303699e+00  3.65063915e-07  1.51052337e+00                                 
 5.55923620e-07  7.25164484e-01  5.55923620e-07  6.60014968e-01  5.55923620e-07  6.62059376e-01  5.55923620e-07  1.80000000e+00  5.55923620e-07  3.51012197e-03  5.55923620e-07  6.61113624e-01  5.55923620e-07  1.50334745e+00  5.55923620e-07  1.51051625e+00                                 
 9.37643029e-07  7.25156296e-01  9.37643029e-07  6.59985406e-01  9.37643029e-07  6.61955233e-01  9.37643029e-07  1.80000000e+00  9.37643029e-07 -3.49364313e-03  9.37643029e-07  6.60869254e-01  9.37643029e-07  1.50301829e+00  9.37643029e-07  1.51050466e+00                                 
 1.70108185e-06  7.25164504e-01  1.70108185e-06  6.60014967e-01  1.70108185e-06  6.62060084e-01  1.70108185e-06  1.80000000e+00  1.70108185e-06  3.50958909e-03  1.70108185e-06  6.61113617e-01  1.70108185e-06  1.50330998e+00  1.70108185e-06  1.51047884e+00                                 
 2.90108185e-06  7.25156286e-01  2.90108185e-06  6.59985407e-01  2.90108185e-06  6.61954854e-01  2.90108185e-06  1.80000000e+00  2.90108185e-06 -3.49336392e-03  2.90108185e-06  6.60869257e-01  2.90108185e-06  1.50295410e+00  2.90108185e-06  1.51044055e+00                                 
 4.10108185e-06  7.25164511e-01  4.10108185e-06  6.60014966e-01  4.10108185e-06  6.62060370e-01  4.10108185e-06  1.80000000e+00  4.10108185e-06  3.50936390e-03  4.10108185e-06  6.61113614e-01  4.10108185e-06  1.50323155e+00  4.10108185e-06  1.51040051e+00                                 
 5.30108185e-06  7.25156278e-01  5.30108185e-06  6.59985407e-01  5.30108185e-06  6.61954569e-01  5.30108185e-06  1.80000000e+00  5.30108185e-06 -3.49314630e-03  5.30108185e-06  6.60869261e-01  5.30108185e-06  1.50287573e+00  5.30108185e-06  1.51036226e+00                                 
 6.00100000e-06  7.25164522e-01  6.00100000e-06  6.60014965e-01  6.00100000e-06  6.62060745e-01  6.00100000e-06  1.80000000e+00  6.00100000e-06  3.50905726e-03  6.00100000e-06  6.61113610e-01  6.00100000e-06  1.50316949e+00  6.00100000e-06  1.51033854e+00                                 
 6.00110000e-06  7.25111953e-01  6.00110000e-06  6.59762607e-01  6.00110000e-06  6.60198707e-01  6.00110000e-06  1.62000000e+00  6.00110000e-06  2.10337927e-04  6.00110000e-06  6.59432281e-01  6.00110000e-06  1.50168316e+00  6.00110000e-06  1.51032777e+00                                 
 6.00130000e-06  7.25144499e-01  6.00130000e-06  6.59759713e-01  6.00130000e-06  6.60298502e-01  6.00130000e-06  1.26000000e+00  6.00130000e-06 -2.44831389e-04  6.00130000e-06  6.59197903e-01  6.00130000e-06  1.50147681e+00  6.00130000e-06  1.51034412e+00                                 
 6.00165591e-06  7.25208650e-01  6.00165591e-06  6.59957153e-01  6.00165591e-06  6.62295308e-01  6.00165591e-06  6.19365607e-01  6.00165591e-06  4.56994380e-03  6.00165591e-06  6.59535306e-01  6.00165591e-06  1.49848005e+00  6.00165591e-06  1.51032052e+00                                 
 6.00200000e-06  7.25146491e-01  6.00200000e-06  6.58529805e-01  6.00200000e-06  6.94606491e-01  6.00200000e-06  0.00000000e+00  6.00200000e-06  1.60188179e+00  6.00200000e-06  6.44465460e-01  6.00200000e-06  1.30502790e+00  6.00200000e-06  1.50974192e+00                                 
 6.00204109e-06  7.25161854e-01  6.00204109e-06  6.58065720e-01  6.00204109e-06  7.01326937e-01  6.00204109e-06  0.00000000e+00  6.00204109e-06  1.72285944e+00  6.00204109e-06  6.39199495e-01  6.00204109e-06  1.24312572e+00  6.00204109e-06  1.50975181e+00                                 
 6.00212328e-06  7.25162870e-01  6.00212328e-06  6.57245017e-01  6.00212328e-06  7.06250524e-01  6.00212328e-06  0.00000000e+00  6.00212328e-06  1.81327123e+00  6.00212328e-06  6.30126055e-01  6.00212328e-06  1.11542637e+00  6.00212328e-06  1.51012350e+00                                 
 6.00228765e-06  7.25158415e-01  6.00228765e-06  6.57121654e-01  6.00228765e-06  6.97196365e-01  6.00228765e-06  0.00000000e+00  6.00228765e-06  1.78949525e+00  6.00228765e-06  6.29564753e-01  6.00228765e-06  9.12853753e-01  6.00228765e-06  1.51060259e+00                                 
 6.00244478e-06  7.25160945e-01  6.00244478e-06  6.57769193e-01  6.00244478e-06  6.88929294e-01  6.00244478e-06  0.00000000e+00  6.00244478e-06  1.80376761e+00  6.00244478e-06  6.36930674e-01  6.00244478e-06  7.93940907e-01  6.00244478e-06  1.51057782e+00                                 
 6.00262942e-06  7.25157659e-01  6.00262942e-06  6.58658686e-01  6.00262942e-06  6.76760588e-01  6.00262942e-06  0.00000000e+00  6.00262942e-06  1.79683449e+00  6.00262942e-06  6.45800954e-01  6.00262942e-06  7.14835735e-01  6.00262942e-06  1.51078661e+00                                 
 6.00285462e-06  7.25160716e-01  6.00285462e-06  6.59662199e-01  6.00285462e-06  6.67497779e-01  6.00285462e-06  0.00000000e+00  6.00285462e-06  1.80189347e+00  6.00285462e-06  6.55342254e-01  6.00285462e-06  6.79664407e-01  6.00285462e-06  1.51052538e+00                                 
 6.00308136e-06  7.25158095e-01  6.00308136e-06  6.60100083e-01  6.00308136e-06  6.64436418e-01  6.00308136e-06  0.00000000e+00  6.00308136e-06  1.79885183e+00  6.00308136e-06  6.58601820e-01  6.00308136e-06  6.67689798e-01  6.00308136e-06  1.50997433e+00                                 
 6.00332808e-06  7.25160916e-01  6.00332808e-06  6.60390744e-01  6.00332808e-06  6.62978558e-01  6.00332808e-06  0.00000000e+00  6.00332808e-06  1.80082978e+00  6.00332808e-06  6.61011140e-01  6.00332808e-06  6.64569447e-01  6.00332808e-06  1.50895711e+00                                 
 6.00367637e-06  7.25158755e-01  6.00367637e-06  6.60459759e-01  6.00367637e-06  6.63390529e-01  6.00367637e-06  0.00000000e+00  6.00367637e-06  1.79941563e+00  6.00367637e-06  6.61441421e-01  6.00367637e-06  6.63036221e-01  6.00367637e-06  1.50734749e+00                                 
 6.00422282e-06  7.25161252e-01  6.00422282e-06  6.60494931e-01  6.00422282e-06  6.64208357e-01  6.00422282e-06  0.00000000e+00  6.00422282e-06  1.80051381e+00  6.00422282e-06  6.62248735e-01  6.00422282e-06  6.64324183e-01  6.00422282e-06  1.50439972e+00                                 
 6.00513885e-06  7.25159232e-01  6.00513885e-06  6.60397382e-01  6.00513885e-06  6.66975763e-01  6.00513885e-06  0.00000000e+00  6.00513885e-06  1.79956522e+00  6.00513885e-06  6.62045274e-01  6.00513885e-06  6.66321924e-01  6.00513885e-06  1.49913717e+00                                 
 6.00676984e-06  7.25161425e-01  6.00676984e-06  6.60309979e-01  6.00676984e-06  6.71317733e-01  6.00676984e-06  0.00000000e+00  6.00676984e-06  1.80043276e+00  6.00676984e-06  6.62452407e-01  6.00676984e-06  6.71318773e-01  6.00676984e-06  1.48910907e+00                                 
 6.01003184e-06  7.25159340e-01  6.01003184e-06  6.60094876e-01  6.01003184e-06  6.81050951e-01  6.01003184e-06  0.00000000e+00  6.01003184e-06  1.79960437e+00  6.01003184e-06  6.61945870e-01  6.01003184e-06  6.80340745e-01  6.01003184e-06  1.46825910e+00                                 
 6.01655583e-06  7.25161437e-01  6.01655583e-06  6.59990401e-01  6.01655583e-06  6.99155847e-01  6.01655583e-06  0.00000000e+00  6.01655583e-06  1.80041266e+00  6.01655583e-06  6.61934392e-01  6.01655583e-06  6.99146386e-01  6.01655583e-06  1.42515905e+00                                 
 6.02960380e-06  7.25159353e-01  6.02960380e-06  6.59974553e-01  6.02960380e-06  7.34604481e-01  6.02960380e-06  0.00000000e+00  6.02960380e-06  1.79961288e+00  6.02960380e-06  6.61137567e-01  6.02960380e-06  7.33776866e-01  6.02960380e-06  1.34335665e+00                                 
 6.04397042e-06  7.25161435e-01  6.04397042e-06  6.60009917e-01  6.04397042e-06  7.70476974e-01  6.04397042e-06  0.00000000e+00  6.04397042e-06  1.80040540e+00  6.04397042e-06  6.61271071e-01  6.04397042e-06  7.70516801e-01  6.04397042e-06  1.26247272e+00                                 
 6.07270366e-06  7.25159358e-01  6.07270366e-06  6.59986034e-01  6.07270366e-06  8.35871313e-01  6.07270366e-06  0.00000000e+00  6.07270366e-06  1.79961459e+00  6.07270366e-06  6.60814884e-01  6.07270366e-06  8.34569426e-01  6.07270366e-06  1.12089260e+00                                 
 6.11471926e-06  7.25161434e-01  6.11471926e-06  6.60014331e-01  6.11471926e-06  9.15019938e-01  6.11471926e-06  0.00000000e+00  6.11471926e-06  1.80039948e+00  6.11471926e-06  6.61152577e-01  6.11471926e-06  9.15352438e-01  6.11471926e-06  9.80662825e-01                                 
 6.19875044e-06  7.25159360e-01  6.19875044e-06  6.59986044e-01  6.19875044e-06  1.02996577e+00  6.19875044e-06  0.00000000e+00  6.19875044e-06  1.79961058e+00  6.19875044e-06  6.60812591e-01  6.19875044e-06  1.02744331e+00  6.19875044e-06  9.77270060e-01                                 
 6.25318089e-06  7.25161433e-01  6.25318089e-06  6.60014458e-01  6.25318089e-06  1.07885074e+00  6.25318089e-06  0.00000000e+00  6.25318089e-06  1.80039441e+00  6.25318089e-06  6.61161501e-01  6.25318089e-06  1.07991132e+00  6.25318089e-06  1.06177628e+00                                 
