 time            v(vbep)         time            v(vben)         time            v(vout)         time            v(vphi1)        time            v(vphi2)        time            v(vref)         yes             currtemp       
 0.00000000e+00  6.85295985e-01  0.00000000e+00  6.29482187e-01  0.00000000e+00  1.11008302e+00  0.00000000e+00  0.00000000e+00  0.00000000e+00  1.79994364e+00  0.00000000e+00  5.00000000e-01  1.00000000e+00  3.20000000e+01 
 5.00000000e-12  6.85260513e-01  5.00000000e-12  6.29452944e-01  5.00000000e-12  1.11083611e+00  5.00000000e-12  1.80000000e-02  5.00000000e-12  1.80004873e+00  5.00000000e-12  5.00000000e-01                                 
 1.00000000e-11  6.85226267e-01  1.00000000e-11  6.29424575e-01  1.00000000e-11  1.11152024e+00  1.00000000e-11  3.60000000e-02  1.00000000e-11  1.80010480e+00  1.00000000e-11  5.00000000e-01                                 
 2.00000000e-11  6.85158569e-01  2.00000000e-11  6.29368096e-01  2.00000000e-11  1.11278335e+00  2.00000000e-11  7.20000000e-02  2.00000000e-11  1.80015980e+00  2.00000000e-11  5.00000000e-01                                 
 4.00000000e-11  6.85024534e-01  4.00000000e-11  6.29255661e-01  4.00000000e-11  1.11481948e+00  4.00000000e-11  1.44000000e-01  4.00000000e-11  1.80013865e+00  4.00000000e-11  5.00000000e-01                                 
 8.00000000e-11  6.84758001e-01  8.00000000e-11  6.29031993e-01  8.00000000e-11  1.11761004e+00  8.00000000e-11  2.88000000e-01  8.00000000e-11  1.80007688e+00  8.00000000e-11  5.00000000e-01                                 
 1.60000000e-10  6.84231674e-01  1.60000000e-10  6.28589446e-01  1.60000000e-10  1.12029834e+00  1.60000000e-10  5.76000000e-01  1.60000000e-10  1.80001437e+00  1.60000000e-10  5.00000000e-01                                 
 3.20000000e-10  6.83204151e-01  3.20000000e-10  6.27722734e-01  3.20000000e-10  1.11360112e+00  3.20000000e-10  1.15200000e+00  3.20000000e-10  1.80038174e+00  3.20000000e-10  5.00000000e-01                                 
 5.00000000e-10  6.82086716e-01  5.00000000e-10  6.26775813e-01  5.00000000e-10  1.27231785e+00  5.00000000e-10  1.80000000e+00  5.00000000e-10  1.14323471e-01  5.00000000e-10  5.00000000e-01                                 
 5.21392824e-10  6.81956811e-01  5.21392824e-10  6.26665417e-01  5.21392824e-10  1.30929342e+00  5.21392824e-10  1.80000000e+00  5.21392824e-10  2.22259926e-02  5.21392824e-10  5.00000000e-01                                 
 5.64178472e-10  6.81698035e-01  5.64178472e-10  6.26445366e-01  5.64178472e-10  1.37688448e+00  5.64178472e-10  1.80000000e+00  5.64178472e-10 -1.04031277e-02  5.64178472e-10  5.00000000e-01                                 
 6.49749769e-10  6.81186753e-01  6.49749769e-10  6.26009906e-01  6.49749769e-10  1.48767610e+00  6.49749769e-10  1.80000000e+00  6.49749769e-10  8.72208497e-03  6.49749769e-10  5.00000000e-01                                 
 7.71912817e-10  6.80470946e-01  7.71912817e-10  6.25398710e-01  7.71912817e-10  1.61361723e+00  7.71912817e-10  1.80000000e+00  7.71912817e-10 -7.59981826e-03  7.71912817e-10  5.00000000e-01                                 
 9.63106504e-10  6.79382385e-01  9.63106504e-10  6.24465830e-01  9.63106504e-10  1.75762949e+00  9.63106504e-10  1.80000000e+00  9.63106504e-10  7.15011800e-03  9.63106504e-10  5.00000000e-01                                 
 1.34549388e-09  6.77312002e-01  1.34549388e-09  6.22680526e-01  1.34549388e-09  1.91668764e+00  1.34549388e-09  1.80000000e+00  1.34549388e-09 -6.76531347e-03  1.34549388e-09  5.00000000e-01                                 
 1.62771421e-09  6.75868939e-01  1.62771421e-09  6.21427418e-01  1.62771421e-09  1.96348230e+00  1.62771421e-09  1.80000000e+00  1.62771421e-09  6.51776025e-03  1.62771421e-09  5.00000000e-01                                 
 1.97566963e-09  6.74178169e-01  1.97566963e-09  6.19950450e-01  1.97566963e-09  1.98692274e+00  1.97566963e-09  1.80000000e+00  1.97566963e-09 -6.17861063e-03  1.97566963e-09  5.00000000e-01                                 
 2.30520439e-09  6.72659180e-01  2.30520439e-09  6.18615572e-01  2.30520439e-09  1.99404259e+00  2.30520439e-09  1.80000000e+00  2.30520439e-09  5.97229807e-03  2.30520439e-09  5.00000000e-01                                 
 2.87263696e-09  6.70208215e-01  2.87263696e-09  6.16446589e-01  2.87263696e-09  1.99607165e+00  2.87263696e-09  1.80000000e+00  2.87263696e-09 -5.77234754e-03  2.87263696e-09  5.00000000e-01                                 
 3.53743432e-09  6.67569731e-01  3.53743432e-09  6.14091123e-01  3.53743432e-09  1.99411533e+00  3.53743432e-09  1.80000000e+00  3.53743432e-09  5.69173333e-03  3.53743432e-09  5.00000000e-01                                 
 4.82485395e-09  6.63031832e-01  4.82485395e-09  6.09994481e-01  4.82485395e-09  1.98975314e+00  4.82485395e-09  1.80000000e+00  4.82485395e-09 -5.59149793e-03  4.82485395e-09  5.00000000e-01                                 
 6.75577452e-09  6.57308448e-01  6.75577452e-09  6.04749626e-01  6.75577452e-09  1.98436247e+00  6.75577452e-09  1.80000000e+00  6.75577452e-09  5.59061343e-03  6.75577452e-09  5.00000000e-01                                 
 9.37701767e-09  6.50994290e-01  9.37701767e-09  5.98871108e-01  9.37701767e-09  1.97846821e+00  9.37701767e-09  1.80000000e+00  9.37701767e-09 -5.51868770e-03  9.37701767e-09  5.00000000e-01                                 
 1.07808023e-08  6.48130480e-01  1.07808023e-08  5.96173695e-01  1.07808023e-08  1.97585851e+00  1.07808023e-08  1.80000000e+00  1.07808023e-08  5.49485002e-03  1.07808023e-08  5.00000000e-01                                 
 1.24853948e-08  6.45001215e-01  1.24853948e-08  5.93207959e-01  1.24853948e-08  1.97298260e+00  1.24853948e-08  1.80000000e+00  1.24853948e-08 -5.41927795e-03  1.24853948e-08  5.00000000e-01                                 
 1.43503254e-08  6.41934166e-01  1.43503254e-08  5.90283845e-01  1.43503254e-08  1.97024580e+00  1.43503254e-08  1.80000000e+00  1.43503254e-08  5.40411184e-03  1.43503254e-08  5.00000000e-01                                 
 1.75019274e-08  6.37400106e-01  1.75019274e-08  5.85933154e-01  1.75019274e-08  1.96617170e+00  1.75019274e-08  1.80000000e+00  1.75019274e-08 -5.35395968e-03  1.75019274e-08  5.00000000e-01                                 
 2.10483576e-08  6.33052669e-01  2.10483576e-08  5.81731814e-01  2.10483576e-08  1.96238195e+00  2.10483576e-08  1.80000000e+00  2.10483576e-08  5.35711470e-03  2.10483576e-08  5.00000000e-01                                 
 2.70224328e-08  6.26975413e-01  2.70224328e-08  5.75816651e-01  2.70224328e-08  1.95719959e+00  2.70224328e-08  1.80000000e+00  2.70224328e-08 -5.31949360e-03  2.70224328e-08  5.00000000e-01                                 
 3.50227626e-08  6.20508577e-01  3.50227626e-08  5.69472645e-01  3.50227626e-08  1.95189795e+00  3.50227626e-08  1.80000000e+00  3.50227626e-08  5.33478903e-03  3.50227626e-08  5.00000000e-01                                 
 5.10234220e-08  6.10803929e-01  5.10234220e-08  5.59882299e-01  5.10234220e-08  1.94091580e+00  5.10234220e-08  1.80000000e+00  5.10234220e-08 -5.30499774e-03  5.10234220e-08  5.00000000e-01                                 
 6.83774807e-08  6.02730710e-01  6.83774807e-08  5.51943960e-01  6.83774807e-08  1.92259989e+00  6.83774807e-08  1.80000000e+00  6.83774807e-08  5.32575380e-03  6.83774807e-08  5.00000000e-01                                 
 9.62427490e-08  5.89757978e-01  9.62427490e-08  5.39804217e-01  9.62427490e-08  1.89155747e+00  9.62427490e-08  1.80000000e+00  9.62427490e-08 -5.29788368e-03  9.62427490e-08  5.00000000e-01                                 
 1.16149793e-07  5.79683130e-01  1.16149793e-07  5.30803993e-01  1.16149793e-07  1.86090000e+00  1.16149793e-07  1.80000000e+00  1.16149793e-07  5.31914494e-03  1.16149793e-07  5.00000000e-01                                 
 1.37914218e-07  5.70792669e-01  1.37914218e-07  5.22837519e-01  1.37914218e-07  1.82453007e+00  1.37914218e-07  1.80000000e+00  1.37914218e-07 -5.29053698e-03  1.37914218e-07  5.00000000e-01                                 
 1.59665867e-07  5.63616313e-01  1.59665867e-07  5.16376460e-01  1.59665867e-07  1.78681536e+00  1.59665867e-07  1.80000000e+00  1.59665867e-07  5.31225854e-03  1.59665867e-07  5.00000000e-01                                 
 1.82975448e-07  5.67059098e-01  1.82975448e-07  5.18346749e-01  1.82975448e-07  1.78509073e+00  1.82975448e-07  1.80000000e+00  1.82975448e-07 -5.28337943e-03  1.82975448e-07  5.00000000e-01                                 
 2.03863303e-07  5.70098867e-01  2.03863303e-07  5.20121832e-01  2.03863303e-07  1.77161531e+00  2.03863303e-07  1.80000000e+00  2.03863303e-07  5.30530790e-03  2.03863303e-07  5.00000000e-01                                 
 2.24158521e-07  5.66261294e-01  2.24158521e-07  5.16525157e-01  2.24158521e-07  1.74779218e+00  2.24158521e-07  1.80000000e+00  2.24158521e-07 -5.27637215e-03  2.24158521e-07  5.00000000e-01                                 
 2.44688114e-07  5.62006703e-01  2.44688114e-07  5.12642436e-01  2.44688114e-07  1.72349733e+00  2.44688114e-07  1.80000000e+00  2.44688114e-07  5.29785442e-03  2.44688114e-07  5.00000000e-01                                 
 2.64167345e-07  5.57220789e-01  2.64167345e-07  5.08407389e-01  2.64167345e-07  1.70032056e+00  2.64167345e-07  1.80000000e+00  2.64167345e-07 -5.26892354e-03  2.64167345e-07  5.00000000e-01                                 
 3.03125807e-07  5.47493836e-01  3.03125807e-07  4.99921472e-01  3.03125807e-07  1.65274675e+00  3.03125807e-07  1.80000000e+00  3.03125807e-07  5.29202728e-03  3.03125807e-07  5.00000000e-01                                 
 3.56352733e-07  5.34345372e-01  3.56352733e-07  4.88636065e-01  3.56352733e-07  1.58557224e+00  3.56352733e-07  1.80000000e+00  3.56352733e-07 -5.26560577e-03  3.56352733e-07  5.00000000e-01                                 
 4.40274322e-07  5.12646339e-01  4.40274322e-07  4.70435226e-01  4.40274322e-07  1.48222425e+00  4.40274322e-07  1.80000000e+00  4.40274322e-07  5.28972679e-03  4.40274322e-07  5.00000000e-01                                 
 5.29375946e-07  4.82291754e-01  5.29375946e-07  4.45681892e-01  5.29375946e-07  1.35900872e+00  5.29375946e-07  1.80000000e+00  5.29375946e-07 -5.26396087e-03  5.29375946e-07  5.00000000e-01                                 
 6.50767853e-07  4.48450984e-01  6.50767853e-07  4.18383872e-01  6.50767853e-07  1.19967608e+00  6.50767853e-07  1.80000000e+00  6.50767853e-07  5.28833758e-03  6.50767853e-07  5.00000000e-01                                 
 6.64929853e-07  4.50211874e-01  6.64929853e-07  4.19794804e-01  6.64929853e-07  1.18566841e+00  6.64929853e-07  1.80000000e+00  6.64929853e-07  1.99222721e-06  6.64929853e-07  5.00000000e-01                                 
 6.93253855e-07  4.82403603e-01  6.93253855e-07  4.45548361e-01  6.93253855e-07  1.18627470e+00  6.93253855e-07  1.80000000e+00  6.93253855e-07  1.54103068e-07  6.93253855e-07  5.00000000e-01                                 
 7.44170609e-07  7.24092808e-01  7.44170609e-07  6.65746469e-01  7.44170609e-07  1.36338485e+00  7.44170609e-07  1.80000000e+00  7.44170609e-07  6.04533612e-06  7.44170609e-07  5.00000000e-01                                 
 7.77162267e-07  7.76493530e-01  7.77162267e-07  7.16157234e-01  7.77162267e-07  1.38116520e+00  7.77162267e-07  1.80000000e+00  7.77162267e-07 -2.32706112e-06  7.77162267e-07  5.00000000e-01                                 
 8.09087336e-07  7.94689994e-01  8.09087336e-07  7.31660291e-01  8.09087336e-07  1.36231382e+00  8.09087336e-07  1.80000000e+00  8.09087336e-07  4.05269038e-06  8.09087336e-07  5.00000000e-01                                 
 8.44987308e-07  7.96133397e-01  8.44987308e-07  7.32962489e-01  8.44987308e-07  1.32874480e+00  8.44987308e-07  1.80000000e+00  8.44987308e-07 -2.60558102e-06  8.44987308e-07  5.00000000e-01                                 
 8.83606393e-07  7.95263093e-01  8.83606393e-07  7.32151212e-01  8.83606393e-07  1.28459034e+00  8.83606393e-07  1.80000000e+00  8.83606393e-07  3.60884236e-06  8.83606393e-07  5.00000000e-01                                 
 9.30854614e-07  7.95957495e-01  9.30854614e-07  7.32807149e-01  9.30854614e-07  1.23805033e+00  9.30854614e-07  1.80000000e+00  9.30854614e-07 -2.31364710e-06  9.30854614e-07  5.00000000e-01                                 
 9.87504319e-07  7.79447791e-01  9.87504319e-07  7.18696913e-01  9.87504319e-07  1.15995769e+00  9.87504319e-07  1.80000000e+00  9.87504319e-07  3.03974980e-06  9.87504319e-07  5.00000000e-01                                 
 1.04700366e-06  7.59026587e-01  1.04700366e-06  7.00394660e-01  1.04700366e-06  1.07966119e+00  1.04700366e-06  1.80000000e+00  1.04700366e-06 -2.29526536e-06  1.04700366e-06  5.00000000e-01                                 
 1.11328304e-06  7.72519420e-01  1.11328304e-06  7.12496593e-01  1.11328304e-06  1.02089291e+00  1.11328304e-06  1.80000000e+00  1.11328304e-06  3.70619871e-06  1.11328304e-06  5.00000000e-01                                 
 1.18445050e-06  7.93932534e-01  1.18445050e-06  7.31105512e-01  1.18445050e-06  9.75992929e-01  1.18445050e-06  1.80000000e+00  1.18445050e-06 -2.05954091e-06  1.18445050e-06  5.00000000e-01                                 
 1.25295934e-06  7.70906185e-01  1.25295934e-06  7.11136278e-01  1.25295934e-06  9.00432258e-01  1.25295934e-06  1.80000000e+00  1.25295934e-06  2.75914647e-06  1.25295934e-06  5.00000000e-01                                 
 1.32172002e-06  7.63209780e-01  1.32172002e-06  7.04165727e-01  1.32172002e-06  8.50221561e-01  1.32172002e-06  1.80000000e+00  1.32172002e-06 -1.72285252e-06  1.32172002e-06  5.00000000e-01                                 
 1.38746085e-06  7.84294816e-01  1.38746085e-06  7.22909566e-01  1.38746085e-06  8.27293186e-01  1.38746085e-06  1.80000000e+00  1.38746085e-06  3.32433667e-06  1.38746085e-06  5.00000000e-01                                 
 1.39864934e-06  7.85501390e-01  1.39864934e-06  7.23962235e-01  1.39864934e-06  8.22498128e-01  1.39864934e-06  1.80000000e+00  1.39864934e-06  7.16371565e-07  1.39864934e-06  5.00000000e-01                                 
 1.42102632e-06  7.86392154e-01  1.42102632e-06  7.24736515e-01  1.42102632e-06  8.10190971e-01  1.42102632e-06  1.80000000e+00  1.42102632e-06  5.39856682e-07  1.42102632e-06  5.00000000e-01                                 
 1.46578028e-06  7.77829261e-01  1.46578028e-06  7.17318968e-01  1.46578028e-06  7.77239635e-01  1.46578028e-06  1.80000000e+00  1.46578028e-06  3.83503816e-07  1.46578028e-06  5.00000000e-01                                 
 1.52729174e-06  7.69768810e-01  1.52729174e-06  7.10107513e-01  1.52729174e-06  7.36671570e-01  1.52729174e-06  1.80000000e+00  1.52729174e-06  6.07610780e-07  1.52729174e-06  5.00000000e-01                                 
 1.59311827e-06  7.80154724e-01  1.59311827e-06  7.19329043e-01  1.59311827e-06  7.11046358e-01  1.59311827e-06  1.80000000e+00  1.59311827e-06  7.87626358e-07  1.59311827e-06  5.00000000e-01                                 
 1.68516053e-06  7.79852268e-01  1.68516053e-06  7.19087495e-01  1.68516053e-06  6.63521320e-01  1.68516053e-06  1.80000000e+00  1.68516053e-06  3.98825445e-07  1.68516053e-06  5.00000000e-01                                 
 1.77630955e-06  7.73324087e-01  1.77630955e-06  7.13299679e-01  1.77630955e-06  6.13371648e-01  1.77630955e-06  1.80000000e+00  1.77630955e-06  6.76619379e-07  1.77630955e-06  5.00000000e-01                                 
 1.94256204e-06  7.80377566e-01  1.94256204e-06  7.19534275e-01  1.94256204e-06  5.49065861e-01  1.94256204e-06  1.80000000e+00  1.94256204e-06  5.65986434e-07  1.94256204e-06  5.00000000e-01                                 
 2.10734674e-06  7.76065459e-01  2.10734674e-06  7.15746160e-01  2.10734674e-06  5.05706294e-01  2.10734674e-06  1.80000000e+00  2.10734674e-06  5.82427249e-07  2.10734674e-06  5.00000000e-01                                 
 2.13285711e-06  7.75663521e-01  2.13285711e-06  7.15387244e-01  2.13285711e-06  5.03232038e-01  2.13285711e-06  1.80000000e+00  2.13285711e-06  5.79574321e-07  2.13285711e-06  5.00000000e-01                                 
 2.18387783e-06  7.76882288e-01  2.18387783e-06  7.16461616e-01  2.18387783e-06  5.00485765e-01  2.18387783e-06  1.80000000e+00  2.18387783e-06  6.33612428e-07  2.18387783e-06  5.00000000e-01                                 
 2.28591929e-06  7.78788116e-01  2.28591929e-06  7.18144598e-01  2.28591929e-06  4.95809009e-01  2.28591929e-06  1.80000000e+00  2.28591929e-06  5.75065363e-07  2.28591929e-06  5.00000000e-01                                 
 2.30455069e-06  7.78140709e-01  2.30455069e-06  7.17576319e-01  2.30455069e-06  4.94261926e-01  2.30455069e-06  1.80000000e+00  2.30455069e-06  5.67054667e-07  2.30455069e-06  5.00000000e-01                                 
 2.34181349e-06  7.77055280e-01  2.34181349e-06  7.16619118e-01  2.34181349e-06  4.91630408e-01  2.34181349e-06  1.80000000e+00  2.34181349e-06  5.73569858e-07  2.34181349e-06  5.00000000e-01                                 
 2.41633908e-06  7.77128517e-01  2.41633908e-06  7.16681060e-01  2.41633908e-06  4.89599229e-01  2.41633908e-06  1.80000000e+00  2.41633908e-06  6.08345600e-07  2.41633908e-06  5.00000000e-01                                 
 2.56539027e-06  7.78047126e-01  2.56539027e-06  7.17492739e-01  2.56539027e-06  4.97255579e-01  2.56539027e-06  1.80000000e+00  2.56539027e-06  5.83652039e-07  2.56539027e-06  5.00000000e-01                                 
 2.71546276e-06  7.76989042e-01  2.71546276e-06  7.16559409e-01  2.71546276e-06  5.03285261e-01  2.71546276e-06  1.80000000e+00  2.71546276e-06  5.85689968e-07  2.71546276e-06  5.00000000e-01                                 
 2.91368445e-06  7.77842801e-01  2.91368445e-06  7.17311614e-01  2.91368445e-06  4.98652862e-01  2.91368445e-06  1.80000000e+00  2.91368445e-06  6.00828644e-07  2.91368445e-06  5.00000000e-01                                 
 3.10439635e-06  7.77358705e-01  3.10439635e-06  7.16886394e-01  3.10439635e-06  4.99879486e-01  3.10439635e-06  1.80000000e+00  3.10439635e-06  5.78127466e-07  3.10439635e-06  5.00000000e-01                                 
 3.44393893e-06  7.77513823e-01  3.44393893e-06  7.17021432e-01  3.44393893e-06  5.00906742e-01  3.44393893e-06  1.80000000e+00  3.44393893e-06  6.02657314e-07  3.44393893e-06  5.00000000e-01                                 
 3.82286224e-06  7.77577563e-01  3.82286224e-06  7.17079378e-01  3.82286224e-06  4.99369924e-01  3.82286224e-06  1.80000000e+00  3.82286224e-06  5.79310283e-07  3.82286224e-06  5.00000000e-01                                 
 4.35497816e-06  7.77354447e-01  4.35497816e-06  7.16880967e-01  4.35497816e-06  5.00911866e-01  4.35497816e-06  1.80000000e+00  4.35497816e-06  6.00724607e-07  4.35497816e-06  5.00000000e-01                                 
 5.12835762e-06  7.77675159e-01  5.12835762e-06  7.17165285e-01  5.12835762e-06  4.99522581e-01  5.12835762e-06  1.80000000e+00  5.12835762e-06  5.81138515e-07  5.12835762e-06  5.00000000e-01                                 
 6.12835762e-06  7.77292084e-01  6.12835762e-06  7.16826049e-01  6.12835762e-06  5.00756336e-01  6.12835762e-06  1.80000000e+00  6.12835762e-06  5.99194284e-07  6.12835762e-06  5.00000000e-01                                 
 7.12835762e-06  7.77722481e-01  7.12835762e-06  7.17206883e-01  7.12835762e-06  4.99681005e-01  7.12835762e-06  1.80000000e+00  7.12835762e-06  5.82595231e-07  7.12835762e-06  5.00000000e-01                                 
 8.12835762e-06  7.77250305e-01  8.12835762e-06  7.16789292e-01  8.12835762e-06  5.00588287e-01  8.12835762e-06  1.80000000e+00  8.12835762e-06  5.97648023e-07  8.12835762e-06  5.00000000e-01                                 
