 time            v(vbep)         time            v(vben)         time            v(vout)         time            v(vphi1)        time            v(vphi2)        time            v(vref)         time            v(voutc)        time            v(voutcc)       yes             currtemp       
 0.00000000e+00  8.38327976e-01  0.00000000e+00  7.89205029e-01  0.00000000e+00  1.73202529e+00  0.00000000e+00  0.00000000e+00  0.00000000e+00  1.80000000e+00  0.00000000e+00  7.93068535e-01  0.00000000e+00  1.73202528e+00  0.00000000e+00  1.73691934e+00  1.00000000e+00 -1.70000000e+01 
 1.00000000e-11  8.38349636e-01  1.00000000e-11  7.89271104e-01  1.00000000e-11  1.73285019e+00  1.00000000e-11  1.80000000e-02  1.00000000e-11  1.80024303e+00  1.00000000e-11  7.93583991e-01  1.00000000e-11  1.73248287e+00  1.00000000e-11  1.73692909e+00                                 
 2.00000000e-11  8.38355735e-01  2.00000000e-11  7.89312847e-01  2.00000000e-11  1.73341265e+00  2.00000000e-11  3.60000000e-02  2.00000000e-11  1.80034544e+00  2.00000000e-11  7.93974499e-01  2.00000000e-11  1.73284283e+00  2.00000000e-11  1.73693297e+00                                 
 4.00000000e-11  8.38355738e-01  4.00000000e-11  7.89367556e-01  4.00000000e-11  1.73417071e+00  4.00000000e-11  7.20000000e-02  4.00000000e-11  1.80039461e+00  4.00000000e-11  7.94554084e-01  4.00000000e-11  1.73340142e+00  4.00000000e-11  1.73693396e+00                                 
 8.00000000e-11  8.38344782e-01  8.00000000e-11  7.89399813e-01  8.00000000e-11  1.73455900e+00  8.00000000e-11  1.44000000e-01  8.00000000e-11  1.80020537e+00  8.00000000e-11  7.95024520e-01  8.00000000e-11  1.73394158e+00  8.00000000e-11  1.73692288e+00                                 
 1.60000000e-10  8.38341406e-01  1.60000000e-10  7.89399055e-01  1.60000000e-10  1.73436448e+00  1.60000000e-10  2.88000000e-01  1.60000000e-10  1.80001639e+00  1.60000000e-10  7.95096590e-01  1.60000000e-10  1.73417321e+00  1.60000000e-10  1.73690966e+00                                 
 3.20000000e-10  8.38339083e-01  3.20000000e-10  7.89396865e-01  3.20000000e-10  1.73407398e+00  3.20000000e-10  5.76000000e-01  3.20000000e-10  1.80002285e+00  3.20000000e-10  7.95061161e-01  3.20000000e-10  1.73418143e+00  3.20000000e-10  1.73690730e+00                                 
 6.40000000e-10  8.38269604e-01  6.40000000e-10  7.89199267e-01  6.40000000e-10  1.72700611e+00  6.40000000e-10  1.15200000e+00  6.40000000e-10  1.81354862e+00  6.40000000e-10  7.94720430e-01  6.40000000e-10  1.73857229e+00  6.40000000e-10  1.73693441e+00                                 
 9.95089708e-10  8.38659827e-01  9.95089708e-10  7.89206914e-01  9.95089708e-10  1.69573690e+00  9.95089708e-10  1.79116148e+00  9.95089708e-10  7.44341127e-02  9.95089708e-10  7.94917142e-01  9.95089708e-10  1.72650774e+00  9.95089708e-10  1.73680844e+00                                 
 1.00000000e-09  8.38676011e-01  1.00000000e-09  7.89236415e-01  1.00000000e-09  1.69542903e+00  1.00000000e-09  1.80000000e+00  1.00000000e-09  4.22045799e-02  1.00000000e-09  7.95315101e-01  1.00000000e-09  1.72640444e+00  1.00000000e-09  1.73681974e+00                                 
 1.00982058e-09  8.38659051e-01  1.00982058e-09  7.89249820e-01  1.00982058e-09  1.69538348e+00  1.00982058e-09  1.80000000e+00  1.00982058e-09  2.01535927e-02  1.00982058e-09  7.96193334e-01  1.00982058e-09  1.72688713e+00  1.00982058e-09  1.73685369e+00                                 
 1.02946175e-09  8.38657673e-01  1.02946175e-09  7.89304782e-01  1.02946175e-09  1.69569291e+00  1.02946175e-09  1.80000000e+00  1.02946175e-09  1.55698246e-04  1.02946175e-09  7.97851839e-01  1.02946175e-09  1.72810081e+00  1.02946175e-09  1.73690943e+00                                 
 1.06874408e-09  8.38749449e-01  1.06874408e-09  7.89350913e-01  1.06874408e-09  1.69544712e+00  1.06874408e-09  1.80000000e+00  1.06874408e-09  1.59882904e-03  1.06874408e-09  7.99308514e-01  1.06874408e-09  1.72944114e+00  1.06874408e-09  1.73692128e+00                                 
 1.14730875e-09  8.38926551e-01  1.14730875e-09  7.89268355e-01  1.14730875e-09  1.69165320e+00  1.14730875e-09  1.80000000e+00  1.14730875e-09  2.91405668e-05  1.14730875e-09  7.99427276e-01  1.14730875e-09  1.72952923e+00  1.14730875e-09  1.73688966e+00                                 
 1.30443808e-09  8.39100915e-01  1.30443808e-09  7.89219277e-01  1.30443808e-09  1.68502773e+00  1.30443808e-09  1.80000000e+00  1.30443808e-09  6.28496399e-04  1.30443808e-09  8.00165010e-01  1.30443808e-09  1.73015148e+00  1.30443808e-09  1.73691491e+00                                 
 1.52383260e-09  8.39104586e-01  1.52383260e-09  7.89203078e-01  1.52383260e-09  1.68193460e+00  1.52383260e-09  1.80000000e+00  1.52383260e-09 -3.50610984e-04  1.52383260e-09  8.00273082e-01  1.52383260e-09  1.73022567e+00  1.52383260e-09  1.73690469e+00                                 
 1.78550104e-09  8.38943093e-01  1.78550104e-09  7.89197345e-01  1.78550104e-09  1.68343923e+00  1.78550104e-09  1.80000000e+00  1.78550104e-09  2.99960191e-04  1.78550104e-09  8.00002167e-01  1.78550104e-09  1.73000481e+00  1.78550104e-09  1.73691677e+00                                 
 2.04018836e-09  8.38779284e-01  2.04018836e-09  7.89194510e-01  2.04018836e-09  1.68564332e+00  2.04018836e-09  1.80000000e+00  2.04018836e-09 -3.25234628e-04  2.04018836e-09  7.99616665e-01  2.04018836e-09  1.72966958e+00  2.04018836e-09  1.73691090e+00                                 
 2.42690572e-09  8.38561546e-01  2.42690572e-09  7.89192917e-01  2.42690572e-09  1.68906192e+00  2.42690572e-09  1.80000000e+00  2.42690572e-09  2.38109550e-04  2.42690572e-09  7.99104494e-01  2.42690572e-09  1.72924512e+00  2.42690572e-09  1.73691745e+00                                 
 3.11173754e-09  8.38331835e-01  3.11173754e-09  7.89187880e-01  3.11173754e-09  1.69407415e+00  3.11173754e-09  1.80000000e+00  3.11173754e-09 -2.90082949e-04  3.11173754e-09  7.98162995e-01  3.11173754e-09  1.72844155e+00  3.11173754e-09  1.73690929e+00                                 
 4.48140117e-09  8.38182415e-01  4.48140117e-09  7.89188187e-01  4.48140117e-09  1.70149874e+00  4.48140117e-09  1.80000000e+00  4.48140117e-09  2.26030246e-04  4.48140117e-09  7.96624745e-01  4.48140117e-09  1.72715003e+00  4.48140117e-09  1.73689233e+00                                 
 7.22072843e-09  8.38239795e-01  7.22072843e-09  7.89192984e-01  7.22072843e-09  1.70855608e+00  7.22072843e-09  1.80000000e+00  7.22072843e-09 -2.72995046e-04  7.22072843e-09  7.94472397e-01  7.22072843e-09  1.72532409e+00  7.22072843e-09  1.73678517e+00                                 
 1.03292236e-08  8.38288469e-01  1.03292236e-08  7.89201854e-01  1.03292236e-08  1.70986882e+00  1.03292236e-08  1.80000000e+00  1.03292236e-08  2.31160660e-04  1.03292236e-08  7.93318395e-01  1.03292236e-08  1.72435528e+00  1.03292236e-08  1.73659817e+00                                 
 1.31647911e-08  8.38301018e-01  1.31647911e-08  7.89202561e-01  1.31647911e-08  1.70876232e+00  1.31647911e-08  1.80000000e+00  1.31647911e-08 -2.60012131e-04  1.31647911e-08  7.92818656e-01  1.31647911e-08  1.72392158e+00  1.31647911e-08  1.73637678e+00                                 
 1.59661145e-08  8.38297852e-01  1.59661145e-08  7.89205549e-01  1.59661145e-08  1.70786217e+00  1.59661145e-08  1.80000000e+00  1.59661145e-08  2.34671248e-04  1.59661145e-08  7.92650835e-01  1.59661145e-08  1.72378125e+00  1.59661145e-08  1.73615034e+00                                 
 1.98641180e-08  8.38300873e-01  1.98641180e-08  7.89204059e-01  1.98641180e-08  1.70696359e+00  1.98641180e-08  1.80000000e+00  1.98641180e-08 -2.45413203e-04  1.98641180e-08  7.92531371e-01  1.98641180e-08  1.72366161e+00  1.98641180e-08  1.73582026e+00                                 
 2.49895071e-08  8.38313767e-01  2.49895071e-08  7.89206080e-01  2.49895071e-08  1.70401531e+00  2.49895071e-08  1.80000000e+00  2.49895071e-08  2.38322559e-04  2.49895071e-08  7.92569275e-01  2.49895071e-08  1.72368418e+00  2.49895071e-08  1.73540765e+00                                 
 3.23775814e-08  8.38329241e-01  3.23775814e-08  7.89204165e-01  3.23775814e-08  1.69645966e+00  3.23775814e-08  1.80000000e+00  3.23775814e-08 -2.40258921e-04  3.23775814e-08  7.92603606e-01  3.23775814e-08  1.72368177e+00  3.23775814e-08  1.73484066e+00                                 
 4.30415592e-08  8.38328530e-01  4.30415592e-08  7.89206136e-01  4.30415592e-08  1.68341938e+00  4.30415592e-08  1.80000000e+00  4.30415592e-08  2.37505462e-04  4.30415592e-08  7.92726797e-01  4.30415592e-08  1.72376344e+00  4.30415592e-08  1.73411326e+00                                 
 5.91623788e-08  8.38331589e-01  5.91623788e-08  7.89204121e-01  5.91623788e-08  1.66217062e+00  5.91623788e-08  1.80000000e+00  5.91623788e-08 -2.39238316e-04  5.91623788e-08  7.92801865e-01  5.91623788e-08  1.72378482e+00  5.91623788e-08  1.73316375e+00                                 
 8.59476216e-08  8.38326845e-01  8.59476216e-08  7.89206056e-01  8.59476216e-08  1.62466254e+00  8.59476216e-08  1.80000000e+00  8.59476216e-08  2.36940686e-04  8.59476216e-08  7.92944888e-01  8.59476216e-08  1.72387413e+00  8.59476216e-08  1.73194705e+00                                 
 1.39518107e-07  8.38330261e-01  1.39518107e-07  7.89204051e-01  1.39518107e-07  1.54576995e+00  1.39518107e-07  1.80000000e+00  1.39518107e-07 -2.38973289e-04  1.39518107e-07  7.93015773e-01  1.39518107e-07  1.72388498e+00  1.39518107e-07  1.73040193e+00                                 
 2.46659079e-07  8.38325964e-01  2.46659079e-07  7.89206021e-01  2.46659079e-07  1.38713397e+00  2.46659079e-07  1.80000000e+00  2.46659079e-07  2.36843807e-04  2.46659079e-07  7.93086369e-01  2.46659079e-07  1.72392124e+00  2.46659079e-07  1.72916076e+00                                 
 4.43365728e-07  8.38329992e-01  4.43365728e-07  7.89204044e-01  4.43365728e-07  1.10349164e+00  4.43365728e-07  1.80000000e+00  4.43365728e-07 -2.38728080e-04  4.43365728e-07  7.93052234e-01  4.43365728e-07  1.72386935e+00  4.43365728e-07  1.72877544e+00                                 
 7.14378523e-07  8.38325975e-01  7.14378523e-07  7.89206016e-01  7.14378523e-07  8.29979961e-01  7.14378523e-07  1.80000000e+00  7.14378523e-07  2.37415017e-04  7.14378523e-07  7.93083947e-01  7.14378523e-07  1.72389219e+00  7.14378523e-07  1.72881142e+00                                 
 9.94673510e-07  8.38329982e-01  9.94673510e-07  7.89204046e-01  9.94673510e-07  7.83941512e-01  9.94673510e-07  1.80000000e+00  9.94673510e-07 -2.37468739e-04  9.94673510e-07  7.93054002e-01  9.94673510e-07  1.72384717e+00  9.94673510e-07  1.72878535e+00                                 
 1.15741360e-06  8.38325902e-01  1.15741360e-06  7.89206006e-01  1.15741360e-06  8.01063267e-01  1.15741360e-06  1.80000000e+00  1.15741360e-06  2.37605860e-04  1.15741360e-06  7.93082834e-01  1.15741360e-06  1.72387190e+00  1.15741360e-06  1.72878388e+00                                 
 1.25102439e-06  8.38330126e-01  1.25102439e-06  7.89204064e-01  1.25102439e-06  7.96983595e-01  1.25102439e-06  1.80000000e+00  1.25102439e-06 -2.37492164e-04  1.25102439e-06  7.93053980e-01  1.25102439e-06  1.72383610e+00  1.25102439e-06  1.72877581e+00                                 
 1.34238164e-06  8.38325816e-01  1.34238164e-06  7.89205991e-01  1.34238164e-06  7.96977566e-01  1.34238164e-06  1.80000000e+00  1.34238164e-06  2.37618235e-04  1.34238164e-06  7.93083226e-01  1.34238164e-06  1.72386425e+00  1.34238164e-06  1.72877603e+00                                 
 1.43164914e-06  8.38330136e-01  1.43164914e-06  7.89204079e-01  1.43164914e-06  7.96975692e-01  1.43164914e-06  1.80000000e+00  1.43164914e-06 -2.38250035e-04  1.43164914e-06  7.93053828e-01  1.43164914e-06  1.72382815e+00  1.43164914e-06  1.72876813e+00                                 
 1.58340050e-06  8.38325821e-01  1.58340050e-06  7.89205986e-01  1.58340050e-06  7.97007859e-01  1.58340050e-06  1.80000000e+00  1.58340050e-06  2.37667060e-04  1.58340050e-06  7.93083286e-01  1.58340050e-06  1.72385388e+00  1.58340050e-06  1.72876563e+00                                 
 1.88690322e-06  8.38330131e-01  1.88690322e-06  7.89204080e-01  1.88690322e-06  7.97002085e-01  1.88690322e-06  1.80000000e+00  1.88690322e-06 -2.37276003e-04  1.88690322e-06  7.93053797e-01  1.88690322e-06  1.72380847e+00  1.88690322e-06  1.72874854e+00                                 
 2.49390867e-06  8.38325823e-01  2.49390867e-06  7.89205985e-01  2.49390867e-06  7.97004658e-01  2.49390867e-06  1.80000000e+00  2.49390867e-06  2.37716695e-04  2.49390867e-06  7.93083298e-01  2.49390867e-06  1.72381454e+00  2.49390867e-06  1.72872642e+00                                 
 3.69390867e-06  8.38330129e-01  3.69390867e-06  7.89204081e-01  3.69390867e-06  7.97003321e-01  3.69390867e-06  1.80000000e+00  3.69390867e-06 -2.37259378e-04  3.69390867e-06  7.93053792e-01  3.69390867e-06  1.72373031e+00  3.69390867e-06  1.72867063e+00                                 
 4.89390867e-06  8.38325824e-01  4.89390867e-06  7.89205981e-01  4.89390867e-06  7.97004684e-01  4.89390867e-06  1.80000000e+00  4.89390867e-06  2.37458067e-04  4.89390867e-06  7.93083290e-01  4.89390867e-06  1.72371074e+00  4.89390867e-06  1.72862296e+00                                 
 6.00100000e-06  8.38330128e-01  6.00100000e-06  7.89204083e-01  6.00100000e-06  7.97003708e-01  6.00100000e-06  1.80000000e+00  6.00100000e-06 -2.38101700e-04  6.00100000e-06  7.93053795e-01  6.00100000e-06  1.72363061e+00  6.00100000e-06  1.72857124e+00                                 
 6.00110000e-06  8.38297311e-01  6.00110000e-06  7.88985280e-01  6.00110000e-06  7.94949158e-01  6.00110000e-06  1.62000000e+00  6.00110000e-06 -1.10894682e-04  6.00110000e-06  7.91194260e-01  6.00110000e-06  1.72206296e+00  6.00110000e-06  1.72855772e+00                                 
 6.00130000e-06  8.38325869e-01  6.00130000e-06  7.89048873e-01  6.00130000e-06  7.95710204e-01  6.00130000e-06  1.26000000e+00  6.00130000e-06  6.16717118e-05  6.00130000e-06  7.91546345e-01  6.00130000e-06  1.72236374e+00  6.00130000e-06  1.72858223e+00                                 
 6.00170000e-06  8.38353994e-01  6.00170000e-06  7.89082180e-01  6.00170000e-06  7.96968405e-01  6.00170000e-06  5.40000000e-01  6.00170000e-06  3.21628985e-02  6.00170000e-06  7.90587843e-01  6.00170000e-06  1.71526442e+00  6.00170000e-06  1.72852641e+00                                 
 6.00200000e-06  8.38323548e-01  6.00200000e-06  7.86804294e-01  6.00200000e-06  8.46172919e-01  6.00200000e-06  0.00000000e+00  6.00200000e-06  1.59231513e+00  6.00200000e-06  7.61625310e-01  6.00200000e-06  1.51076422e+00  6.00200000e-06  1.72765444e+00                                 
 6.00205084e-06  8.38330512e-01  6.00205084e-06  7.86789206e-01  6.00205084e-06  8.43992734e-01  6.00205084e-06  0.00000000e+00  6.00205084e-06  1.73268195e+00  6.00205084e-06  7.61154426e-01  6.00205084e-06  1.45198485e+00  6.00205084e-06  1.72793725e+00                                 
 6.00215253e-06  8.38326860e-01  6.00215253e-06  7.86941081e-01  6.00215253e-06  8.34639285e-01  6.00215253e-06  0.00000000e+00  6.00215253e-06  1.81945705e+00  6.00215253e-06  7.62876013e-01  6.00215253e-06  1.34002957e+00  6.00215253e-06  1.72845574e+00                                 
 6.00230648e-06  8.38326690e-01  6.00230648e-06  7.87594037e-01  6.00230648e-06  8.21887772e-01  6.00230648e-06  0.00000000e+00  6.00230648e-06  1.78764802e+00  6.00230648e-06  7.70802220e-01  6.00230648e-06  1.21691676e+00  6.00230648e-06  1.72860701e+00                                 
 6.00247496e-06  8.38327688e-01  6.00247496e-06  7.87917536e-01  6.00247496e-06  8.18351859e-01  6.00247496e-06  0.00000000e+00  6.00247496e-06  1.80582364e+00  6.00247496e-06  7.74402757e-01  6.00247496e-06  1.12737820e+00  6.00247496e-06  1.72867832e+00                                 
 6.00271185e-06  8.38326064e-01  6.00271185e-06  7.88241249e-01  6.00271185e-06  8.12699868e-01  6.00271185e-06  0.00000000e+00  6.00271185e-06  1.79547408e+00  6.00271185e-06  7.77654425e-01  6.00271185e-06  1.03333294e+00  6.00271185e-06  1.72875433e+00                                 
 6.00296649e-06  8.38328041e-01  6.00296649e-06  7.88577870e-01  6.00296649e-06  8.10444408e-01  6.00296649e-06  0.00000000e+00  6.00296649e-06  1.80267509e+00  6.00296649e-06  7.81066209e-01  6.00296649e-06  9.57326878e-01  6.00296649e-06  1.72884120e+00                                 
 6.00347576e-06  8.38326388e-01  6.00347576e-06  7.89033192e-01  6.00347576e-06  8.04691636e-01  6.00347576e-06  0.00000000e+00  6.00347576e-06  1.79728625e+00  6.00347576e-06  7.85464739e-01  6.00347576e-06  8.49236318e-01  6.00347576e-06  1.72888047e+00                                 
 6.00407157e-06  8.38328610e-01  6.00407157e-06  7.89593160e-01  6.00407157e-06  7.98541600e-01  6.00407157e-06  0.00000000e+00  6.00407157e-06  1.80211522e+00  6.00407157e-06  7.91882599e-01  6.00407157e-06  8.04056904e-01  6.00407157e-06  1.72877491e+00                                 
 6.00452769e-06  8.38326780e-01  6.00452769e-06  7.89642545e-01  6.00452769e-06  7.97542385e-01  6.00452769e-06  0.00000000e+00  6.00452769e-06  1.79828842e+00  6.00452769e-06  7.92558355e-01  6.00452769e-06  7.98425328e-01  6.00452769e-06  1.72853022e+00                                 
 6.00511043e-06  8.38328850e-01  6.00511043e-06  7.89678636e-01  6.00511043e-06  7.97335331e-01  6.00511043e-06  0.00000000e+00  6.00511043e-06  1.80146106e+00  6.00511043e-06  7.93675055e-01  6.00511043e-06  7.97791164e-01  6.00511043e-06  1.72811125e+00                                 
 6.00574368e-06  8.38326990e-01  6.00574368e-06  7.89570178e-01  6.00574368e-06  7.97720640e-01  6.00574368e-06  0.00000000e+00  6.00574368e-06  1.79874534e+00  6.00574368e-06  7.93264931e-01  6.00574368e-06  7.97331203e-01  6.00574368e-06  1.72753766e+00                                 
 6.00701017e-06  8.38328933e-01  6.00701017e-06  7.89486382e-01  6.00701017e-06  7.98467380e-01  6.00701017e-06  0.00000000e+00  6.00701017e-06  1.80116972e+00  6.00701017e-06  7.93893310e-01  6.00701017e-06  7.98604128e-01  6.00701017e-06  1.72629583e+00                                 
 6.00954316e-06  8.38327044e-01  6.00954316e-06  7.89306863e-01  6.00954316e-06  8.00517942e-01  6.00954316e-06  0.00000000e+00  6.00954316e-06  1.79887833e+00  6.00954316e-06  7.93499010e-01  6.00954316e-06  8.00043224e-01  6.00954316e-06  1.72361990e+00                                 
 6.01460914e-06  8.38328912e-01  6.01460914e-06  7.89256170e-01  6.01460914e-06  8.04839966e-01  6.01460914e-06  0.00000000e+00  6.01460914e-06  1.80110669e+00  6.01460914e-06  7.93974846e-01  6.01460914e-06  8.04906858e-01  6.01460914e-06  1.71824791e+00                                 
 6.02474110e-06  8.38327040e-01  6.02474110e-06  7.89181895e-01  6.02474110e-06  8.14152521e-01  6.02474110e-06  0.00000000e+00  6.02474110e-06  1.79890937e+00  6.02474110e-06  7.93374591e-01  6.02474110e-06  8.13591552e-01  6.02474110e-06  1.70747972e+00                                 
 6.04243841e-06  8.38328911e-01  6.04243841e-06  7.89218615e-01  6.04243841e-06  8.29806661e-01  6.04243841e-06  0.00000000e+00  6.04243841e-06  1.80109056e+00  6.04243841e-06  7.93667072e-01  6.04243841e-06  8.29894448e-01  6.04243841e-06  1.68775446e+00                                 
 6.07783302e-06  8.38327041e-01  6.07783302e-06  7.89186924e-01  6.07783302e-06  8.59291851e-01  6.07783302e-06  0.00000000e+00  6.07783302e-06  1.79891748e+00  6.07783302e-06  7.92995802e-01  6.07783302e-06  8.58436383e-01  6.07783302e-06  1.64472780e+00                                 
 6.14862224e-06  8.38328911e-01  6.14862224e-06  7.89221762e-01  6.14862224e-06  9.10825056e-01  6.14862224e-06  0.00000000e+00  6.14862224e-06  1.80108535e+00  6.14862224e-06  7.93319323e-01  6.14862224e-06  9.11228463e-01  6.14862224e-06  1.55293380e+00                                 
