 time            v(vbep)         time            v(vben)         time            v(vout)         time            v(vphi1)        time            v(vphi2)        time            v(vref)         time            v(voutc)        time            v(voutcc)       yes             currtemp       
 0.00000000e+00  8.12131332e-01  0.00000000e+00  7.59279798e-01  0.00000000e+00  1.68206581e+00  0.00000000e+00  0.00000000e+00  0.00000000e+00  1.80000000e+00  0.00000000e+00  7.62609939e-01  0.00000000e+00  1.68206580e+00  0.00000000e+00  1.68758910e+00  1.00000000e+00  1.00000000e+00 
 1.00000000e-11  8.12154689e-01  1.00000000e-11  7.59349569e-01  1.00000000e-11  1.68287310e+00  1.00000000e-11  1.80000000e-02  1.00000000e-11  1.80024631e+00  1.00000000e-11  7.63132132e-01  1.00000000e-11  1.68252897e+00  1.00000000e-11  1.68760230e+00                                 
 2.00000000e-11  8.12161135e-01  2.00000000e-11  7.59393473e-01  2.00000000e-11  1.68340042e+00  2.00000000e-11  3.60000000e-02  2.00000000e-11  1.80034740e+00  2.00000000e-11  7.63524057e-01  2.00000000e-11  1.68288725e+00  2.00000000e-11  1.68760786e+00                                 
 4.00000000e-11  8.12160969e-01  4.00000000e-11  7.59450996e-01  4.00000000e-11  1.68407863e+00  4.00000000e-11  7.20000000e-02  4.00000000e-11  1.80039130e+00  4.00000000e-11  7.64100717e-01  4.00000000e-11  1.68343282e+00  4.00000000e-11  1.68761059e+00                                 
 8.00000000e-11  8.12149267e-01  8.00000000e-11  7.59485626e-01  8.00000000e-11  1.68433662e+00  8.00000000e-11  1.44000000e-01  8.00000000e-11  1.80019446e+00  8.00000000e-11  7.64552852e-01  8.00000000e-11  1.68391904e+00  8.00000000e-11  1.68760019e+00                                 
 1.60000000e-10  8.12145934e-01  1.60000000e-10  7.59488626e-01  1.60000000e-10  1.68405794e+00  1.60000000e-10  2.88000000e-01  1.60000000e-10  1.80000816e+00  1.60000000e-10  7.64608405e-01  1.60000000e-10  1.68405095e+00  1.60000000e-10  1.68758880e+00                                 
 3.20000000e-10  8.12143095e-01  3.20000000e-10  7.59489465e-01  3.20000000e-10  1.68373787e+00  3.20000000e-10  5.76000000e-01  3.20000000e-10  1.80001117e+00  3.20000000e-10  7.64542898e-01  3.20000000e-10  1.68392565e+00  3.20000000e-10  1.68758636e+00                                 
 6.40000000e-10  8.12068719e-01  6.40000000e-10  7.59238850e-01  6.40000000e-10  1.67884562e+00  6.40000000e-10  1.15200000e+00  6.40000000e-10  1.81328092e+00  6.40000000e-10  7.63655857e-01  6.40000000e-10  1.68887678e+00  6.40000000e-10  1.68761544e+00                                 
 9.97511725e-10  8.12564217e-01  9.97511725e-10  7.59312771e-01  9.97511725e-10  1.64977657e+00  9.97511725e-10  1.79552110e+00  9.97511725e-10  7.98040975e-02  9.97511725e-10  7.67114295e-01  9.97511725e-10  1.68058796e+00  9.97511725e-10  1.68751789e+00                                 
 1.00000000e-09  8.12572825e-01  1.00000000e-09  7.59322400e-01  1.00000000e-09  1.64958505e+00  1.00000000e-09  1.80000000e+00  1.00000000e-09  6.12854586e-02  1.00000000e-09  7.67292794e-01  1.00000000e-09  1.68048168e+00  1.00000000e-09  1.68752025e+00                                 
 1.00497655e-09  8.12558166e-01  1.00497655e-09  7.59313663e-01  1.00497655e-09  1.64934820e+00  1.00497655e-09  1.80000000e+00  1.00497655e-09  3.99744493e-02  1.00497655e-09  7.67660067e-01  1.00497655e-09  1.68051145e+00  1.00497655e-09  1.68753189e+00                                 
 1.01492965e-09  8.12537635e-01  1.01492965e-09  7.59334159e-01  1.01492965e-09  1.64936584e+00  1.01492965e-09  1.80000000e+00  1.01492965e-09  1.27554723e-02  1.01492965e-09  7.68635066e-01  1.01492965e-09  1.68100156e+00  1.01492965e-09  1.68756625e+00                                 
 1.03483585e-09  8.12538711e-01  1.03483585e-09  7.59421132e-01  1.03483585e-09  1.65018048e+00  1.03483585e-09  1.80000000e+00  1.03483585e-09  9.98251926e-04  1.03483585e-09  7.70567191e-01  1.03483585e-09  1.68256319e+00  1.03483585e-09  1.68761743e+00                                 
 1.07464825e-09  8.12608857e-01  1.07464825e-09  7.59450667e-01  1.07464825e-09  1.65032419e+00  1.07464825e-09  1.80000000e+00  1.07464825e-09  1.11770030e-03  1.07464825e-09  7.71989129e-01  1.07464825e-09  1.68384444e+00  1.07464825e-09  1.68760610e+00                                 
 1.15427305e-09  8.12739173e-01  1.15427305e-09  7.59362478e-01  1.15427305e-09  1.64828217e+00  1.15427305e-09  1.80000000e+00  1.15427305e-09  3.61491716e-04  1.15427305e-09  7.72417797e-01  1.15427305e-09  1.68420665e+00  1.15427305e-09  1.68758422e+00                                 
 1.31352265e-09  8.12893006e-01  1.31352265e-09  7.59305037e-01  1.31352265e-09  1.64425016e+00  1.31352265e-09  1.80000000e+00  1.31352265e-09  4.16109979e-04  1.31352265e-09  7.73078941e-01  1.31352265e-09  1.68476011e+00  1.31352265e-09  1.68760053e+00                                 
 1.57446901e-09  8.12885288e-01  1.57446901e-09  7.59289384e-01  1.57446901e-09  1.64191637e+00  1.57446901e-09  1.80000000e+00  1.57446901e-09 -1.39475310e-04  1.57446901e-09  7.72791441e-01  1.57446901e-09  1.68450879e+00  1.57446901e-09  1.68759170e+00                                 
 1.85787526e-09  8.12704609e-01  1.85787526e-09  7.59276343e-01  1.85787526e-09  1.64324023e+00  1.85787526e-09  1.80000000e+00  1.85787526e-09  9.80934596e-05  1.85787526e-09  7.72058421e-01  1.85787526e-09  1.68389057e+00  1.85787526e-09  1.68760622e+00                                 
 2.14249912e-09  8.12519546e-01  2.14249912e-09  7.59272029e-01  2.14249912e-09  1.64490754e+00  2.14249912e-09  1.80000000e+00  2.14249912e-09 -1.59023720e-04  2.14249912e-09  7.71348771e-01  2.14249912e-09  1.68328582e+00  2.14249912e-09  1.68760808e+00                                 
 2.54216097e-09  8.12311733e-01  2.54216097e-09  7.59261706e-01  2.54216097e-09  1.64716049e+00  2.54216097e-09  1.80000000e+00  2.54216097e-09  7.04914028e-05  2.54216097e-09  7.70387394e-01  2.54216097e-09  1.68247363e+00  2.54216097e-09  1.68762647e+00                                 
 3.34115874e-09  8.12091936e-01  3.34115874e-09  7.59256388e-01  3.34115874e-09  1.65053094e+00  3.34115874e-09  1.80000000e+00  3.34115874e-09 -1.43207883e-04  3.34115874e-09  7.68628304e-01  3.34115874e-09  1.68097838e+00  3.34115874e-09  1.68764434e+00                                 
 4.93915430e-09  8.12000272e-01  4.93915430e-09  7.59256039e-01  4.93915430e-09  1.65436873e+00  4.93915430e-09  1.80000000e+00  4.93915430e-09  6.95532318e-05  4.93915430e-09  7.65909026e-01  4.93915430e-09  1.67867438e+00  4.93915430e-09  1.68765928e+00                                 
 7.28535305e-09  8.12054584e-01  7.28535305e-09  7.59269576e-01  7.28535305e-09  1.65522053e+00  7.28535305e-09  1.80000000e+00  7.28535305e-09 -1.30968306e-04  7.28535305e-09  7.63526852e-01  7.28535305e-09  1.67665072e+00  7.28535305e-09  1.68757298e+00                                 
 9.27729745e-09  8.12070118e-01  9.27729745e-09  7.59274247e-01  9.27729745e-09  1.65404000e+00  9.27729745e-09  1.80000000e+00  9.27729745e-09  7.74622734e-05  9.27729745e-09  7.62544429e-01  9.27729745e-09  1.67581941e+00  9.27729745e-09  1.68743142e+00                                 
 1.15707248e-08  8.12067255e-01  1.15707248e-08  7.59279199e-01  1.15707248e-08  1.65295610e+00  1.15707248e-08  1.80000000e+00  1.15707248e-08 -1.11608845e-04  1.15707248e-08  7.61991904e-01  1.15707248e-08  1.67534473e+00  1.15707248e-08  1.68720968e+00                                 
 1.38171392e-08  8.12066598e-01  1.38171392e-08  7.59278561e-01  1.38171392e-08  1.65205544e+00  1.38171392e-08  1.80000000e+00  1.38171392e-08  9.01973612e-05  1.38171392e-08  7.61785234e-01  1.38171392e-08  1.67516651e+00  1.38171392e-08  1.68697646e+00                                 
 1.72303279e-08  8.12093811e-01  1.72303279e-08  7.59280450e-01  1.72303279e-08  1.64878306e+00  1.72303279e-08  1.80000000e+00  1.72303279e-08 -1.00236988e-04  1.72303279e-08  7.61704552e-01  1.72303279e-08  1.67508316e+00  1.72303279e-08  1.68660565e+00                                 
 2.11536630e-08  8.12116001e-01  2.11536630e-08  7.59279030e-01  2.11536630e-08  1.64259746e+00  2.11536630e-08  1.80000000e+00  2.11536630e-08  9.32485072e-05  2.11536630e-08  7.61770128e-01  2.11536630e-08  1.67512549e+00  2.11536630e-08  1.68620344e+00                                 
 2.72702487e-08  8.12133367e-01  2.72702487e-08  7.59280732e-01  2.72702487e-08  1.63050624e+00  2.72702487e-08  1.80000000e+00  2.72702487e-08 -9.71471434e-05  2.72702487e-08  7.61904036e-01  2.72702487e-08  1.67521219e+00  2.72702487e-08  1.68562309e+00                                 
 3.53966033e-08  8.12134974e-01  3.53966033e-08  7.59279252e-01  3.53966033e-08  1.61299438e+00  3.53966033e-08  1.80000000e+00  3.53966033e-08  9.28916507e-05  3.53966033e-08  7.62079725e-01  3.53966033e-08  1.67533729e+00  3.53966033e-08  1.68496445e+00                                 
 4.91329822e-08  8.12134950e-01  4.91329822e-08  7.59280639e-01  4.91329822e-08  1.58221840e+00  4.91329822e-08  1.80000000e+00  4.91329822e-08 -9.69125495e-05  4.91329822e-08  7.62271985e-01  4.91329822e-08  1.67546521e+00  4.91329822e-08  1.68406344e+00                                 
 7.15831162e-08  8.12131979e-01  7.15831162e-08  7.59279088e-01  7.15831162e-08  1.53069288e+00  7.15831162e-08  1.80000000e+00  7.15831162e-08  9.24138422e-05  7.15831162e-08  7.62462184e-01  7.15831162e-08  1.67559766e+00  7.15831162e-08  1.68304295e+00                                 
 1.16483384e-07  8.12132481e-01  1.16483384e-07  7.59280537e-01  1.16483384e-07  1.42653718e+00  1.16483384e-07  1.80000000e+00  1.16483384e-07 -9.68421511e-05  1.16483384e-07  7.62584472e-01  1.16483384e-07  1.67567041e+00  1.16483384e-07  1.68194456e+00                                 
 2.05556199e-07  8.12130476e-01  2.05556199e-07  7.59279062e-01  2.05556199e-07  1.22180917e+00  2.05556199e-07  1.80000000e+00  2.05556199e-07  9.24086146e-05  2.05556199e-07  7.62617764e-01  2.05556199e-07  1.67568514e+00  2.05556199e-07  1.68128728e+00                                 
 3.09867210e-07  8.12132190e-01  3.09867210e-07  7.59280535e-01  3.09867210e-07  9.88149100e-01  3.09867210e-07  1.80000000e+00  3.09867210e-07 -9.62485241e-05  3.09867210e-07  7.62604609e-01  3.09867210e-07  1.67566541e+00  3.09867210e-07  1.68121006e+00                                 
 4.53685268e-07  8.12130515e-01  4.53685268e-07  7.59279062e-01  4.53685268e-07  7.85038956e-01  4.53685268e-07  1.80000000e+00  4.53685268e-07  9.42445001e-05  4.53685268e-07  7.62613840e-01  4.53685268e-07  1.67566973e+00  4.53685268e-07  1.68120619e+00                                 
 5.51316924e-07  8.12132261e-01  5.51316924e-07  7.59280553e-01  5.51316924e-07  7.61921290e-01  5.51316924e-07  1.80000000e+00  5.51316924e-07 -9.43053798e-05  5.51316924e-07  7.62608105e-01  5.51316924e-07  1.67565815e+00  5.51316924e-07  1.68120024e+00                                 
 6.23467462e-07  8.12130007e-01  6.23467462e-07  7.59279006e-01  6.23467462e-07  7.66591108e-01  6.23467462e-07  1.80000000e+00  6.23467462e-07  9.44458270e-05  6.23467462e-07  7.62612007e-01  6.23467462e-07  1.67566122e+00  6.23467462e-07  1.68120043e+00                                 
 6.87360415e-07  8.12132902e-01  6.87360415e-07  7.59280619e-01  6.87360415e-07  7.65797562e-01  6.87360415e-07  1.80000000e+00  6.87360415e-07 -9.42536194e-05  6.87360415e-07  7.62607484e-01  6.87360415e-07  1.67565202e+00  6.87360415e-07  1.68119382e+00                                 
 7.55549431e-07  8.12129639e-01  7.55549431e-07  7.59278960e-01  7.55549431e-07  7.66122066e-01  7.55549431e-07  1.80000000e+00  7.55549431e-07  9.43378257e-05  7.55549431e-07  7.62612583e-01  7.55549431e-07  1.67565629e+00  7.55549431e-07  1.68119479e+00                                 
 8.46086049e-07  8.12133083e-01  8.46086049e-07  7.59280645e-01  8.46086049e-07  7.65871905e-01  8.46086049e-07  1.80000000e+00  8.46086049e-07 -9.43827752e-05  8.46086049e-07  7.62607193e-01  8.46086049e-07  1.67564526e+00  8.46086049e-07  1.68118736e+00                                 
 9.64013156e-07  8.12129555e-01  9.64013156e-07  7.59278947e-01  9.64013156e-07  7.66084190e-01  9.64013156e-07  1.80000000e+00  9.64013156e-07  9.42737614e-05  9.64013156e-07  7.62612752e-01  9.64013156e-07  1.67564788e+00  9.64013156e-07  1.68118623e+00                                 
 1.12839881e-06  8.12133124e-01  1.12839881e-06  7.59280653e-01  1.12839881e-06  7.65903673e-01  1.12839881e-06  1.80000000e+00  1.12839881e-06 -9.43482543e-05  1.12839881e-06  7.62607086e-01  1.12839881e-06  1.67563360e+00  1.12839881e-06  1.68117582e+00                                 
 1.36332353e-06  8.12129534e-01  1.36332353e-06  7.59278942e-01  1.36332353e-06  7.66070910e-01  1.36332353e-06  1.80000000e+00  1.36332353e-06  9.42410608e-05  1.36332353e-06  7.62612819e-01  1.36332353e-06  1.67563155e+00  1.36332353e-06  1.68116988e+00                                 
 1.70215828e-06  8.12133134e-01  1.70215828e-06  7.59280656e-01  1.70215828e-06  7.65915156e-01  1.70215828e-06  1.80000000e+00  1.70215828e-06 -9.43349498e-05  1.70215828e-06  7.62607043e-01  1.70215828e-06  1.67561001e+00  1.70215828e-06  1.68115232e+00                                 
 2.20468483e-06  8.12129530e-01  2.20468483e-06  7.59278940e-01  2.20468483e-06  7.66065698e-01  2.20468483e-06  1.80000000e+00  2.20468483e-06  9.42256455e-05  2.20468483e-06  7.62612848e-01  2.20468483e-06  1.67559704e+00  2.20468483e-06  1.68113541e+00                                 
 3.00192645e-06  8.12133136e-01  3.00192645e-06  7.59280657e-01  3.00192645e-06  7.65918876e-01  3.00192645e-06  1.80000000e+00  3.00192645e-06 -9.43554282e-05  3.00192645e-06  7.62607024e-01  3.00192645e-06  1.67555664e+00  3.00192645e-06  1.68109909e+00                                 
 4.20192645e-06  8.12129529e-01  4.20192645e-06  7.59278940e-01  4.20192645e-06  7.66063502e-01  4.20192645e-06  1.80000000e+00  4.20192645e-06  9.42191753e-05  4.20192645e-06  7.62612859e-01  4.20192645e-06  1.67551507e+00  4.20192645e-06  1.68105361e+00                                 
 5.40192645e-06  8.12133137e-01  5.40192645e-06  7.59280658e-01  5.40192645e-06  7.65924578e-01  5.40192645e-06  1.80000000e+00  5.40192645e-06 -9.42357960e-05  5.40192645e-06  7.62607016e-01  5.40192645e-06  1.67545817e+00  5.40192645e-06  1.68100084e+00                                 
 6.00100000e-06  8.12129528e-01  6.00100000e-06  7.59278939e-01  6.00100000e-06  7.66066385e-01  6.00100000e-06  1.80000000e+00  6.00100000e-06  9.42039429e-05  6.00100000e-06  7.62612872e-01  6.00100000e-06  1.67544130e+00  6.00100000e-06  1.68097998e+00                                 
 6.00110000e-06  8.12096288e-01  6.00110000e-06  7.59046290e-01  6.00110000e-06  7.64048676e-01  6.00110000e-06  1.62000000e+00  6.00110000e-06 -9.28175147e-05  6.00110000e-06  7.60831027e-01  6.00110000e-06  1.67392816e+00  6.00110000e-06  1.68096500e+00                                 
 6.00130000e-06  8.12127268e-01  6.00130000e-06  7.59090888e-01  6.00130000e-06  7.64644639e-01  6.00130000e-06  1.26000000e+00  6.00130000e-06  3.51155076e-05  6.00130000e-06  7.61039961e-01  6.00130000e-06  1.67410793e+00  6.00130000e-06  1.68098561e+00                                 
 6.00170000e-06  8.12163599e-01  6.00170000e-06  7.59155414e-01  6.00170000e-06  7.70820231e-01  6.00170000e-06  5.40000000e-01  6.00170000e-06  7.54654000e-01  6.00170000e-06  7.60292859e-01  6.00170000e-06  1.65646231e+00  6.00170000e-06  1.68088598e+00                                 
 6.00200000e-06  8.12122788e-01  6.00200000e-06  7.56925418e-01  6.00200000e-06  8.08089599e-01  6.00200000e-06  0.00000000e+00  6.00200000e-06  1.74367842e+00  6.00200000e-06  7.34656812e-01  6.00200000e-06  1.42179952e+00  6.00200000e-06  1.68015813e+00                                 
 6.00204459e-06  8.12131928e-01  6.00204459e-06  7.56791035e-01  6.00204459e-06  8.07713185e-01  6.00204459e-06  0.00000000e+00  6.00204459e-06  1.77888903e+00  6.00204459e-06  7.33120871e-01  6.00204459e-06  1.36599577e+00  6.00204459e-06  1.68047800e+00                                 
 6.00213376e-06  8.12131659e-01  6.00213376e-06  7.56720863e-01  6.00213376e-06  8.02587083e-01  6.00213376e-06  0.00000000e+00  6.00213376e-06  1.80356446e+00  6.00213376e-06  7.32620214e-01  6.00213376e-06  1.26533777e+00  6.00213376e-06  1.68096904e+00                                 
 6.00231210e-06  8.12129817e-01  6.00231210e-06  7.57156119e-01  6.00231210e-06  7.92442106e-01  6.00231210e-06  0.00000000e+00  6.00231210e-06  1.79614971e+00  6.00231210e-06  7.38096549e-01  6.00231210e-06  1.12159069e+00  6.00231210e-06  1.68108164e+00                                 
 6.00255422e-06  8.12131012e-01  6.00255422e-06  7.57638940e-01  6.00255422e-06  7.87097295e-01  6.00255422e-06  0.00000000e+00  6.00255422e-06  1.80179078e+00  6.00255422e-06  7.43137516e-01  6.00255422e-06  9.90548298e-01  6.00255422e-06  1.68121233e+00                                 
 6.00283231e-06  8.12129459e-01  6.00283231e-06  7.58171149e-01  6.00283231e-06  7.81337479e-01  6.00283231e-06  0.00000000e+00  6.00283231e-06  1.79804928e+00  6.00283231e-06  7.48007126e-01  6.00283231e-06  8.81562849e-01  6.00283231e-06  1.68127146e+00                                 
 6.00315113e-06  8.12131259e-01  6.00315113e-06  7.58882170e-01  6.00315113e-06  7.74558928e-01  6.00315113e-06  0.00000000e+00  6.00315113e-06  1.80090613e+00  6.00315113e-06  7.54707094e-01  6.00315113e-06  8.07982653e-01  6.00315113e-06  1.68130458e+00                                 
 6.00360536e-06  8.12129898e-01  6.00360536e-06  7.59562411e-01  6.00360536e-06  7.67671107e-01  6.00360536e-06  0.00000000e+00  6.00360536e-06  1.79911498e+00  6.00360536e-06  7.60808439e-01  6.00360536e-06  7.72002426e-01  6.00360536e-06  1.68111130e+00                                 
 6.00399646e-06  8.12131689e-01  6.00399646e-06  7.59778954e-01  6.00399646e-06  7.66925219e-01  6.00399646e-06  0.00000000e+00  6.00399646e-06  1.80074369e+00  6.00399646e-06  7.62592753e-01  6.00399646e-06  7.67959380e-01  6.00399646e-06  1.68075827e+00                                 
 6.00446496e-06  8.12130310e-01  6.00446496e-06  7.59804851e-01  6.00446496e-06  7.66623021e-01  6.00446496e-06  0.00000000e+00  6.00446496e-06  1.79939716e+00  6.00446496e-06  7.62993366e-01  6.00446496e-06  7.66779399e-01  6.00446496e-06  1.68012076e+00                                 
 6.00501254e-06  8.12131949e-01  6.00501254e-06  7.59771964e-01  6.00501254e-06  7.67383948e-01  6.00501254e-06  0.00000000e+00  6.00501254e-06  1.80052835e+00  6.00501254e-06  7.63337395e-01  6.00501254e-06  7.67182427e-01  6.00501254e-06  1.67926320e+00                                 
 6.00610770e-06  8.12130559e-01  6.00610770e-06  7.59644720e-01  6.00610770e-06  7.68408719e-01  6.00610770e-06  0.00000000e+00  6.00610770e-06  1.79952299e+00  6.00610770e-06  7.63373888e-01  6.00610770e-06  7.68264143e-01  6.00610770e-06  1.67732759e+00                                 
 6.00829802e-06  8.12132067e-01  6.00829802e-06  7.59494933e-01  6.00829802e-06  7.71567005e-01  6.00829802e-06  0.00000000e+00  6.00829802e-06  1.80047107e+00  6.00829802e-06  7.63603563e-01  6.00829802e-06  7.71252273e-01  6.00829802e-06  1.67324694e+00                                 
 6.01267867e-06  8.12130598e-01  6.01267867e-06  7.59339994e-01  6.01267867e-06  7.77631250e-01  6.01267867e-06  0.00000000e+00  6.01267867e-06  1.79954992e+00  6.01267867e-06  7.63440200e-01  6.01267867e-06  7.77409007e-01  6.01267867e-06  1.66498666e+00                                 
 6.02143997e-06  8.12132070e-01  6.02143997e-06  7.59268736e-01  6.02143997e-06  7.90660436e-01  6.02143997e-06  0.00000000e+00  6.02143997e-06  1.80045775e+00  6.02143997e-06  7.63335923e-01  6.02143997e-06  7.90281061e-01  6.02143997e-06  1.64867989e+00                                 
