 time            v(vbep)         time            v(vben)         time            v(vout)         time            v(vphi1)        time            v(vphi2)        time            v(vref)         yes             currtemp       
 0.00000000e+00  6.66579810e-01  0.00000000e+00  6.09509811e-01  0.00000000e+00  1.01700174e+00  0.00000000e+00  0.00000000e+00  0.00000000e+00  1.79995073e+00  0.00000000e+00  6.09509811e-01  1.00000000e+00  3.90000000e+01 
 5.00000000e-12  6.66550069e-01  5.00000000e-12  6.09485191e-01  5.00000000e-12  1.01773238e+00  5.00000000e-12  1.80000000e-02  5.00000000e-12  1.80007756e+00  5.00000000e-12  6.09485191e-01                                 
 1.00000000e-11  6.66521137e-01  1.00000000e-11  6.09461225e-01  1.00000000e-11  1.01839772e+00  1.00000000e-11  3.60000000e-02  1.00000000e-11  1.80015333e+00  1.00000000e-11  6.09461225e-01                                 
 2.00000000e-11  6.66463768e-01  2.00000000e-11  6.09413480e-01  2.00000000e-11  1.01962496e+00  2.00000000e-11  7.20000000e-02  2.00000000e-11  1.80023872e+00  2.00000000e-11  6.09413480e-01                                 
 4.00000000e-11  6.66349881e-01  4.00000000e-11  6.09318372e-01  4.00000000e-11  1.02160268e+00  4.00000000e-11  1.44000000e-01  4.00000000e-11  1.80023102e+00  4.00000000e-11  6.09318372e-01                                 
 8.00000000e-11  6.66123238e-01  8.00000000e-11  6.09129020e-01  8.00000000e-11  1.02423891e+00  8.00000000e-11  2.88000000e-01  8.00000000e-11  1.80013283e+00  8.00000000e-11  6.09129020e-01                                 
 1.60000000e-10  6.65674845e-01  1.60000000e-10  6.08753756e-01  1.60000000e-10  1.02644631e+00  1.60000000e-10  5.76000000e-01  1.60000000e-10  1.80002086e+00  1.60000000e-10  6.08753756e-01                                 
 3.20000000e-10  6.64796455e-01  3.20000000e-10  6.08016484e-01  3.20000000e-10  1.01906004e+00  3.20000000e-10  1.15200000e+00  3.20000000e-10  1.80027640e+00  3.20000000e-10  6.08016484e-01                                 
 5.00000000e-10  6.63836572e-01  5.00000000e-10  6.07207429e-01  5.00000000e-10  1.12388805e+00  5.00000000e-10  1.80000000e+00  5.00000000e-10  1.53964661e-01  5.00000000e-10  6.07207429e-01                                 
 5.21435048e-10  6.63724412e-01  5.21435048e-10  6.07112646e-01  5.21435048e-10  1.15045232e+00  5.21435048e-10  1.80000000e+00  5.21435048e-10  3.86516146e-02  5.21435048e-10  6.07112646e-01                                 
 5.64305144e-10  6.63500872e-01  5.64305144e-10  6.06923634e-01  5.64305144e-10  1.20338229e+00  5.64305144e-10  1.80000000e+00  5.64305144e-10 -1.44083975e-02  5.64305144e-10  6.06923634e-01                                 
 6.50045337e-10  6.63058497e-01  6.50045337e-10  6.06549042e-01  6.50045337e-10  1.29913544e+00  6.50045337e-10  1.80000000e+00  6.50045337e-10  1.22723564e-02  6.50045337e-10  6.06549042e-01                                 
 7.70229735e-10  6.62448712e-01  7.70229735e-10  6.06031502e-01  7.70229735e-10  1.41679801e+00  7.70229735e-10  1.80000000e+00  7.70229735e-10 -9.26656209e-03  7.70229735e-10  6.06031502e-01                                 
 9.52324552e-10  6.61546776e-01  9.52324552e-10  6.05263508e-01  9.52324552e-10  1.56186810e+00  9.52324552e-10  1.80000000e+00  9.52324552e-10  9.19786509e-03  9.52324552e-10  6.05263508e-01                                 
 1.31651419e-09  6.59816797e-01  1.31651419e-09  6.03782307e-01  1.31651419e-09  1.74500877e+00  1.31651419e-09  1.80000000e+00  1.31651419e-09 -8.03003075e-03  1.31651419e-09  6.03782307e-01                                 
 1.67421577e-09  6.58206723e-01  1.67421577e-09  6.02394114e-01  1.67421577e-09  1.82812077e+00  1.67421577e-09  1.80000000e+00  1.67421577e-09  7.91750736e-03  1.67421577e-09  6.02394114e-01                                 
 2.02167887e-09  6.56719366e-01  2.02167887e-09  6.01103630e-01  2.02167887e-09  1.86028890e+00  2.02167887e-09  1.80000000e+00  2.02167887e-09 -7.28994446e-03  2.02167887e-09  6.01103630e-01                                 
 2.38832726e-09  6.55224283e-01  2.38832726e-09  5.99798810e-01  2.38832726e-09  1.87331762e+00  2.38832726e-09  1.80000000e+00  2.38832726e-09  6.97718656e-03  2.38832726e-09  5.99798810e-01                                 
 2.87260270e-09  6.53355013e-01  2.87260270e-09  5.98157000e-01  2.87260270e-09  1.87739219e+00  2.87260270e-09  1.80000000e+00  2.87260270e-09 -6.63207631e-03  2.87260270e-09  5.98157000e-01                                 
 3.53827242e-09  6.50959031e-01  3.53827242e-09  5.96036195e-01  3.53827242e-09  1.87714961e+00  3.53827242e-09  1.80000000e+00  3.53827242e-09  6.46378438e-03  3.53827242e-09  5.96036195e-01                                 
 4.55233198e-09  6.47636691e-01  4.55233198e-09  5.93066472e-01  4.55233198e-09  1.87379726e+00  4.55233198e-09  1.80000000e+00  4.55233198e-09 -6.30420629e-03  4.55233198e-09  5.93066472e-01                                 
 6.24847246e-09  6.42781491e-01  6.24847246e-09  5.88670362e-01  6.24847246e-09  1.86946122e+00  6.24847246e-09  1.80000000e+00  6.24847246e-09  6.25382530e-03  6.24847246e-09  5.88670362e-01                                 
 9.64075342e-09  6.34908545e-01  9.64075342e-09  5.81416920e-01  9.64075342e-09  1.86145890e+00  9.64075342e-09  1.80000000e+00  9.64075342e-09 -6.18544759e-03  9.64075342e-09  5.81416920e-01                                 
 1.22040270e-08  6.30147345e-01  1.22040270e-08  5.76954476e-01  1.22040270e-08  1.85658888e+00  1.22040270e-08  1.80000000e+00  1.22040270e-08  6.16456099e-03  1.22040270e-08  5.76954476e-01                                 
 1.39848207e-08  6.27254489e-01  1.39848207e-08  5.74219825e-01  1.39848207e-08  1.85319230e+00  1.39848207e-08  1.80000000e+00  1.39848207e-08 -6.06844023e-03  1.39848207e-08  5.74219825e-01                                 
 1.54292997e-08  6.25104251e-01  1.54292997e-08  5.72177150e-01  1.54292997e-08  1.85100561e+00  1.54292997e-08  1.80000000e+00  1.54292997e-08  6.00579584e-03  1.54292997e-08  5.72177150e-01                                 
 1.71928497e-08  6.22676609e-01  1.71928497e-08  5.69861756e-01  1.71928497e-08  1.84783497e+00  1.71928497e-08  1.80000000e+00  1.71928497e-08 -5.91348232e-03  1.71928497e-08  5.69861756e-01                                 
 1.91598277e-08  6.20185832e-01  1.91598277e-08  5.67476979e-01  1.91598277e-08  1.84493964e+00  1.91598277e-08  1.80000000e+00  1.91598277e-08  5.87349685e-03  1.91598277e-08  5.67476979e-01                                 
 2.16193604e-08  6.17335623e-01  2.16193604e-08  5.64738466e-01  2.16193604e-08  1.84075986e+00  2.16193604e-08  1.80000000e+00  2.16193604e-08 -5.80305685e-03  2.16193604e-08  5.64738466e-01                                 
 2.50686059e-08  6.13726367e-01  2.50686059e-08  5.61260352e-01  2.50686059e-08  1.83570420e+00  2.50686059e-08  1.80000000e+00  2.50686059e-08  5.78982659e-03  2.50686059e-08  5.61260352e-01                                 
 2.91860768e-08  6.09857618e-01  2.91860768e-08  5.57527974e-01  2.91860768e-08  1.82949607e+00  2.91860768e-08  1.80000000e+00  2.91860768e-08 -5.73952875e-03  2.91860768e-08  5.57527974e-01                                 
 3.55545441e-08  6.04471205e-01  3.55545441e-08  5.52349536e-01  3.55545441e-08  1.82170862e+00  3.55545441e-08  1.80000000e+00  3.55545441e-08  5.74282445e-03  3.55545441e-08  5.52349536e-01                                 
 4.60614391e-08  5.96761169e-01  4.60614391e-08  5.44976243e-01  4.60614391e-08  1.81075247e+00  4.60614391e-08  1.80000000e+00  4.60614391e-08 -5.70928269e-03  4.60614391e-08  5.44976243e-01                                 
 5.73106045e-08  5.89164695e-01  5.73106045e-08  5.37845588e-01  5.73106045e-08  1.79949648e+00  5.73106045e-08  1.80000000e+00  5.73106045e-08  5.72138611e-03  5.73106045e-08  5.37845588e-01                                 
 6.94447233e-08  5.80804187e-01  6.94447233e-08  5.30223323e-01  6.94447233e-08  1.77440166e+00  6.94447233e-08  1.80000000e+00  6.94447233e-08 -5.69059995e-03  6.94447233e-08  5.30223323e-01                                 
 8.44745889e-08  5.72645913e-01  8.44745889e-08  5.22722233e-01  8.44745889e-08  1.74529444e+00  8.44745889e-08  1.80000000e+00  8.44745889e-08  5.70464349e-03  8.44745889e-08  5.22722233e-01                                 
 1.00371548e-07  5.65085586e-01  1.00371548e-07  5.15815596e-01  1.00371548e-07  1.71713043e+00  1.00371548e-07  1.80000000e+00  1.00371548e-07 -5.67524500e-03  1.00371548e-07  5.15815596e-01                                 
 1.25581696e-07  5.56937045e-01  1.25581696e-07  5.08153485e-01  1.25581696e-07  1.67731818e+00  1.25581696e-07  1.80000000e+00  1.25581696e-07  5.69338201e-03  1.25581696e-07  5.08153485e-01                                 
 1.55665978e-07  5.60255959e-01  1.55665978e-07  5.09554247e-01  1.55665978e-07  1.67181249e+00  1.55665978e-07  1.80000000e+00  1.55665978e-07 -5.66409461e-03  1.55665978e-07  5.09554247e-01                                 
 1.77082921e-07  5.60918356e-01  1.77082921e-07  5.09312543e-01  1.77082921e-07  1.65303922e+00  1.77082921e-07  1.80000000e+00  1.77082921e-07  5.68306759e-03  1.77082921e-07  5.09312543e-01                                 
 1.98298030e-07  5.55314907e-01  1.98298030e-07  5.04206584e-01  1.98298030e-07  1.62432838e+00  1.98298030e-07  1.80000000e+00  1.98298030e-07 -5.65457011e-03  1.98298030e-07  5.04206584e-01                                 
 2.17479972e-07  5.50542625e-01  2.17479972e-07  4.99882098e-01  2.17479972e-07  1.59906789e+00  2.17479972e-07  1.80000000e+00  2.17479972e-07  5.67169017e-03  2.17479972e-07  4.99882098e-01                                 
 2.38196399e-07  5.45021412e-01  2.38196399e-07  4.94975951e-01  2.38196399e-07  1.57488251e+00  2.38196399e-07  1.80000000e+00  2.38196399e-07 -5.64296020e-03  2.38196399e-07  4.94975951e-01                                 
 2.73887236e-07  5.35230684e-01  2.73887236e-07  4.86418315e-01  2.73887236e-07  1.52795732e+00  2.73887236e-07  1.80000000e+00  2.73887236e-07  5.66272676e-03  2.73887236e-07  4.86418315e-01                                 
 3.19962366e-07  5.23182272e-01  3.19962366e-07  4.76020681e-01  3.19962366e-07  1.47109420e+00  3.19962366e-07  1.80000000e+00  3.19962366e-07 -5.63711337e-03  3.19962366e-07  4.76020681e-01                                 
 4.12112625e-07  4.95988127e-01  4.12112625e-07  4.53245340e-01  4.12112625e-07  1.34877830e+00  4.12112625e-07  1.80000000e+00  4.12112625e-07  5.65887276e-03  4.12112625e-07  4.53245340e-01                                 
 5.42754889e-07  4.55007012e-01  5.42754889e-07  4.19762504e-01  5.42754889e-07  1.17609400e+00  5.42754889e-07  1.80000000e+00  5.42754889e-07 -5.63506345e-03  5.42754889e-07  4.19762504e-01                                 
 6.74359627e-07  7.10884138e-01  6.74359627e-07  6.51890440e-01  6.74359627e-07  1.28114994e+00  6.74359627e-07  1.80000000e+00  6.74359627e-07  5.66600529e-03  6.74359627e-07  6.51890440e-01                                 
 8.00085726e-07  9.11034772e-01  8.00085726e-07  8.03129635e-01  8.00085726e-07  1.34181965e+00  8.00085726e-07  1.80000000e+00  8.00085726e-07 -5.63404467e-03  8.00085726e-07  8.03129635e-01                                 
 8.12532949e-07  9.31487994e-01  8.12532949e-07  8.13387339e-01  8.12532949e-07  1.34393417e+00  8.12532949e-07  1.80000000e+00  8.12532949e-07  6.39495504e-07  8.12532949e-07  8.13387339e-01                                 
 8.37427394e-07  9.73544135e-01  8.37427394e-07  8.32163796e-01  8.37427394e-07  1.35553819e+00  8.37427394e-07  1.80000000e+00  8.37427394e-07  6.03371061e-06  8.37427394e-07  8.32163796e-01                                 
 8.59405446e-07  9.85433983e-01  8.59405446e-07  8.37267504e-01  8.59405446e-07  1.34591909e+00  8.59405446e-07  1.80000000e+00  8.59405446e-07 -3.21091093e-06  8.59405446e-07  8.37267504e-01                                 
 8.86807423e-07  9.79379243e-01  8.86807423e-07  8.34769654e-01  8.86807423e-07  1.31112250e+00  8.86807423e-07  1.80000000e+00  8.86807423e-07  3.05744212e-06  8.86807423e-07  8.34769654e-01                                 
 9.22719052e-07  9.82252388e-01  9.22719052e-07  8.35930124e-01  9.22719052e-07  1.27664102e+00  9.22719052e-07  1.80000000e+00  9.22719052e-07 -2.08066281e-06  9.22719052e-07  8.35930124e-01                                 
 9.55754442e-07  9.79137338e-01  9.55754442e-07  8.34719671e-01  9.55754442e-07  1.23951139e+00  9.55754442e-07  1.80000000e+00  9.55754442e-07  2.45407188e-06  9.55754442e-07  8.34719671e-01                                 
 1.01593233e-06  9.79572567e-01  1.01593233e-06  8.34835929e-01  1.01593233e-06  1.17688838e+00  1.01593233e-06  1.80000000e+00  1.01593233e-06 -1.74554625e-06  1.01593233e-06  8.34835929e-01                                 
 1.08834625e-06  9.77000227e-01  1.08834625e-06  8.33868487e-01  1.08834625e-06  1.09954280e+00  1.08834625e-06  1.80000000e+00  1.08834625e-06  2.35082602e-06  1.08834625e-06  8.33868487e-01                                 
 1.20654092e-06  9.75665773e-01  1.20654092e-06  8.33252403e-01  1.20654092e-06  9.84057367e-01  1.20654092e-06  1.80000000e+00  1.20654092e-06 -1.56167663e-06  1.20654092e-06  8.33252403e-01                                 
 1.40514488e-06  9.71131273e-01  1.40514488e-06  8.31469467e-01  1.40514488e-06  8.65760345e-01  1.40514488e-06  1.80000000e+00  1.40514488e-06  2.78724446e-06  1.40514488e-06  8.31469467e-01                                 
 1.61581015e-06  9.67904768e-01  1.61581015e-06  8.30042628e-01  1.61581015e-06  8.17848284e-01  1.61581015e-06  1.80000000e+00  1.61581015e-06 -1.18656739e-06  1.61581015e-06  8.30042628e-01                                 
 1.64927248e-06  9.67029353e-01  1.64927248e-06  8.29717086e-01  1.64927248e-06  8.15068331e-01  1.64927248e-06  1.80000000e+00  1.64927248e-06  8.52128464e-07  1.64927248e-06  8.29717086e-01                                 
 1.71619715e-06  9.65677314e-01  1.71619715e-06  8.29146100e-01  1.71619715e-06  8.20083073e-01  1.71619715e-06  1.80000000e+00  1.71619715e-06  1.02881287e-06  1.71619715e-06  8.29146100e-01                                 
 1.82691920e-06  9.63716143e-01  1.82691920e-06  8.28312666e-01  1.82691920e-06  8.29369680e-01  1.82691920e-06  1.80000000e+00  1.82691920e-06  8.19562135e-07  1.82691920e-06  8.28312666e-01                                 
 1.93831706e-06  9.61602854e-01  1.93831706e-06  8.27408364e-01  1.93831706e-06  8.25105030e-01  1.93831706e-06  1.80000000e+00  1.93831706e-06  9.12261422e-07  1.93831706e-06  8.27408364e-01                                 
 2.06520281e-06  9.59359440e-01  2.06520281e-06  8.26438173e-01  2.06520281e-06  8.26914299e-01  2.06520281e-06  1.80000000e+00  2.06520281e-06  8.98072359e-07  2.06520281e-06  8.26438173e-01                                 
 2.30333868e-06  9.55015513e-01  2.30333868e-06  8.24538163e-01  2.30333868e-06  8.23248839e-01  2.30333868e-06  1.80000000e+00  2.30333868e-06  8.62366065e-07  2.30333868e-06  8.24538163e-01                                 
 2.56378837e-06  9.50416423e-01  2.56378837e-06  8.22487383e-01  2.56378837e-06  8.22507186e-01  2.56378837e-06  1.80000000e+00  2.56378837e-06  9.23824875e-07  2.56378837e-06  8.22487383e-01                                 
 2.96781560e-06  9.43253548e-01  2.96781560e-06  8.19221280e-01  2.96781560e-06  8.18322499e-01  2.96781560e-06  1.80000000e+00  2.96781560e-06  8.45482578e-07  2.96781560e-06  8.19221280e-01                                 
 3.51859981e-06  9.33895687e-01  3.51859981e-06  8.14807128e-01  3.51859981e-06  8.14649438e-01  3.51859981e-06  1.80000000e+00  3.51859981e-06  9.34037022e-07  3.51859981e-06  8.14807128e-01                                 
 4.27620837e-06  9.20771557e-01  4.27620837e-06  8.08340653e-01  4.27620837e-06  8.07687762e-01  4.27620837e-06  1.80000000e+00  4.27620837e-06  8.37744008e-07  4.27620837e-06  8.08340653e-01                                 
 4.40120837e-06  9.18427968e-01  4.40120837e-06  8.07149517e-01  4.40120837e-06  8.06587822e-01  4.40120837e-06  1.80000000e+00  4.40120837e-06  8.86279373e-07  4.40120837e-06  8.07149517e-01                                 
 4.65120837e-06  9.13026357e-01  4.65120837e-06  8.04366442e-01  4.65120837e-06  8.03837239e-01  4.65120837e-06  1.80000000e+00  4.65120837e-06  8.72630921e-07  4.65120837e-06  8.04366442e-01                                 
 4.69495669e-06  9.11880098e-01  4.69495669e-06  8.03768695e-01  4.69495669e-06  8.03180616e-01  4.69495669e-06  1.80000000e+00  4.69495669e-06  8.70525995e-07  4.69495669e-06  8.03768695e-01                                 
 4.78245334e-06  9.09358753e-01  4.78245334e-06  8.02444823e-01  4.78245334e-06  8.01717905e-01  4.78245334e-06  1.80000000e+00  4.78245334e-06  8.62010020e-07  4.78245334e-06  8.02444823e-01                                 
 4.95744665e-06  9.00667737e-01  4.95744665e-06  7.97789887e-01  4.95744665e-06  7.96370995e-01  4.95744665e-06  1.80000000e+00  4.95744665e-06  7.98493670e-07  4.95744665e-06  7.97789887e-01                                 
 5.00119497e-06  8.96208752e-01  5.00119497e-06  7.95346546e-01  5.00119497e-06  7.93385195e-01  5.00119497e-06  1.80000000e+00  5.00119497e-06  7.37805002e-07  5.00119497e-06  7.95346546e-01                                 
 5.01213206e-06  8.94967577e-01  5.01213206e-06  7.94659643e-01  5.01213206e-06  7.92541117e-01  5.01213206e-06  1.80000000e+00  5.01213206e-06  7.16615883e-07  5.01213206e-06  7.94659643e-01                                 
 5.03400622e-06  8.92147649e-01  5.03400622e-06  7.93089003e-01  5.03400622e-06  7.90586860e-01  5.03400622e-06  1.80000000e+00  5.03400622e-06  6.60534338e-07  5.03400622e-06  7.93089003e-01                                 
 5.07775454e-06  8.82063462e-01  5.07775454e-06  7.87356709e-01  5.07775454e-06  7.83048143e-01  5.07775454e-06  1.80000000e+00  5.07775454e-06  3.45247907e-07  5.07775454e-06  7.87356709e-01                                 
 5.16525120e-06  7.98622613e-01  5.16525120e-06  7.31507051e-01  5.16525120e-06  7.14443142e-01  5.16525120e-06  1.80000000e+00  5.16525120e-06 -2.17211649e-06  5.16525120e-06  7.31507051e-01                                 
 5.17524702e-06  7.84147502e-01  5.17524702e-06  7.19723446e-01  5.17524702e-06  7.02551911e-01  5.17524702e-06  1.80000000e+00  5.17524702e-06 -2.07517591e-06  5.17524702e-06  7.19723446e-01                                 
 5.19523866e-06  7.61158664e-01  5.19523866e-06  6.99804938e-01  5.19523866e-06  6.84607198e-01  5.19523866e-06  1.80000000e+00  5.19523866e-06 -9.01659517e-07  5.19523866e-06  6.99804938e-01                                 
 5.22204003e-06  7.46244211e-01  5.22204003e-06  6.86269044e-01  5.22204003e-06  6.75854734e-01  5.22204003e-06  1.80000000e+00  5.22204003e-06  4.59387281e-07  5.22204003e-06  6.86269044e-01                                 
 5.25351511e-06  7.47470313e-01  5.25351511e-06  6.87264255e-01  5.25351511e-06  6.82154790e-01  5.25351511e-06  1.80000000e+00  5.25351511e-06  1.63224564e-06  5.25351511e-06  6.87264255e-01                                 
 5.29300935e-06  7.65311562e-01  5.29300935e-06  7.03494833e-01  5.29300935e-06  7.02530967e-01  5.29300935e-06  1.80000000e+00  5.29300935e-06  2.22188835e-06  5.29300935e-06  7.03494833e-01                                 
 5.34880456e-06  7.74926842e-01  5.34880456e-06  7.11833300e-01  5.34880456e-06  7.12920923e-01  5.34880456e-06  1.80000000e+00  5.34880456e-06  3.65171296e-07  5.34880456e-06  7.11833300e-01                                 
 5.41008809e-06  7.68962714e-01  5.41008809e-06  7.06729940e-01  5.41008809e-06  7.06897389e-01  5.41008809e-06  1.80000000e+00  5.41008809e-06  1.04276999e-06  5.41008809e-06  7.06729940e-01                                 
