 time            v(vbep)         time            v(vben)         time            v(vout)         time            v(vphi1)        time            v(vphi2)        time            v(vref)         yes             currtemp       
 0.00000000e+00  6.46003599e-01  0.00000000e+00  5.87132371e-01  0.00000000e+00  9.67494549e-01  0.00000000e+00  0.00000000e+00  0.00000000e+00  1.79995683e+00  0.00000000e+00  5.00000000e-01  1.00000000e+00  4.90000000e+01 
 5.00000000e-12  6.45974905e-01  5.00000000e-12  5.87108605e-01  5.00000000e-12  9.68249351e-01  5.00000000e-12  1.80000000e-02  5.00000000e-12  1.80006092e+00  5.00000000e-12  5.00000000e-01                                 
 1.00000000e-11  6.45946935e-01  1.00000000e-11  5.87085451e-01  1.00000000e-11  9.68932818e-01  1.00000000e-11  3.60000000e-02  1.00000000e-11  1.80011505e+00  1.00000000e-11  5.00000000e-01                                 
 2.00000000e-11  6.45891429e-01  2.00000000e-11  5.87039319e-01  2.00000000e-11  9.70187243e-01  2.00000000e-11  7.20000000e-02  2.00000000e-11  1.80016612e+00  2.00000000e-11  5.00000000e-01                                 
 4.00000000e-11  6.45781163e-01  4.00000000e-11  5.86947405e-01  4.00000000e-11  9.72177776e-01  4.00000000e-11  1.44000000e-01  4.00000000e-11  1.80013966e+00  4.00000000e-11  5.00000000e-01                                 
 8.00000000e-11  6.45561675e-01  8.00000000e-11  5.86764368e-01  8.00000000e-11  9.74787690e-01  8.00000000e-11  2.88000000e-01  8.00000000e-11  1.80007519e+00  8.00000000e-11  5.00000000e-01                                 
 1.60000000e-10  6.45127177e-01  1.60000000e-10  5.86401429e-01  1.60000000e-10  9.77158235e-01  1.60000000e-10  5.76000000e-01  1.60000000e-10  1.80001560e+00  1.60000000e-10  5.00000000e-01                                 
 3.20000000e-10  6.44275052e-01  3.20000000e-10  5.85687644e-01  3.20000000e-10  9.70812728e-01  3.20000000e-10  1.15200000e+00  3.20000000e-10  1.80039948e+00  3.20000000e-10  5.00000000e-01                                 
 5.00000000e-10  6.43342426e-01  5.00000000e-10  5.84903270e-01  5.00000000e-10  1.12907338e+00  5.00000000e-10  1.80000000e+00  5.00000000e-10  1.22036292e-01  5.00000000e-10  5.00000000e-01                                 
 5.21751315e-10  6.43231737e-01  5.21751315e-10  5.84809940e-01  5.21751315e-10  1.16686855e+00  5.21751315e-10  1.80000000e+00  5.21751315e-10  2.45535910e-02  5.21751315e-10  5.00000000e-01                                 
 5.65253945e-10  6.43011095e-01  5.65253945e-10  5.84623801e-01  5.65253945e-10  1.23721807e+00  5.65253945e-10  1.80000000e+00  5.65253945e-10 -1.13914031e-02  5.65253945e-10  5.00000000e-01                                 
 6.52259206e-10  6.42574271e-01  6.52259206e-10  5.84254760e-01  6.52259206e-10  1.35688178e+00  6.52259206e-10  1.80000000e+00  6.52259206e-10  9.40992423e-03  6.52259206e-10  5.00000000e-01                                 
 7.74422648e-10  6.41970742e-01  7.74422648e-10  5.83743729e-01  7.74422648e-10  1.49642177e+00  7.74422648e-10  1.80000000e+00  7.74422648e-10 -8.14272573e-03  7.74422648e-10  5.00000000e-01                                 
 9.67364388e-10  6.41039933e-01  9.67364388e-10  5.82952987e-01  9.67364388e-10  1.66443395e+00  9.67364388e-10  1.80000000e+00  9.67364388e-10  7.62053598e-03  9.67364388e-10  5.00000000e-01                                 
 1.35324787e-09  6.39254885e-01  1.35324787e-09  5.81427982e-01  1.35324787e-09  1.85803676e+00  1.35324787e-09  1.80000000e+00  1.35324787e-09 -7.19252464e-03  1.35324787e-09  5.00000000e-01                                 
 1.64167118e-09  6.37983326e-01  1.64167118e-09  5.80334691e-01  1.64167118e-09  1.91848408e+00  1.64167118e-09  1.80000000e+00  1.64167118e-09  6.91542826e-03  1.64167118e-09  5.00000000e-01                                 
 1.98438306e-09  6.36535613e-01  1.98438306e-09  5.79083133e-01  1.98438306e-09  1.94857051e+00  1.98438306e-09  1.80000000e+00  1.98438306e-09 -6.52904922e-03  1.98438306e-09  5.00000000e-01                                 
 2.29951908e-09  6.35260529e-01  2.29951908e-09  5.77974880e-01  2.29951908e-09  1.95840860e+00  2.29951908e-09  1.80000000e+00  2.29951908e-09  6.28155589e-03  2.29951908e-09  5.00000000e-01                                 
 2.81659439e-09  6.33273269e-01  2.81659439e-09  5.76237021e-01  2.81659439e-09  1.96242159e+00  2.81659439e-09  1.80000000e+00  2.81659439e-09 -6.04132363e-03  2.81659439e-09  5.00000000e-01                                 
 3.41627900e-09  6.31115747e-01  3.41627900e-09  5.74335860e-01  3.41627900e-09  1.96145267e+00  3.41627900e-09  1.80000000e+00  3.41627900e-09  5.93668945e-03  3.41627900e-09  5.00000000e-01                                 
 4.52221275e-09  6.27485425e-01  4.52221275e-09  5.71105375e-01  4.52221275e-09  1.95806573e+00  4.52221275e-09  1.80000000e+00  4.52221275e-09 -5.81235831e-03  4.52221275e-09  5.00000000e-01                                 
 6.09777709e-09  6.22948937e-01  6.09777709e-09  5.67015379e-01  6.09777709e-09  1.95378514e+00  6.09777709e-09  1.80000000e+00  6.09777709e-09  5.79899846e-03  6.09777709e-09  5.00000000e-01                                 
 9.24890576e-09  6.15451002e-01  9.24890576e-09  5.60143520e-01  9.24890576e-09  1.94598008e+00  9.24890576e-09  1.80000000e+00  9.24890576e-09 -5.72526643e-03  9.24890576e-09  5.00000000e-01                                 
 1.08235558e-08  6.12322670e-01  1.08235558e-08  5.57233470e-01  1.08235558e-08  1.94279418e+00  1.08235558e-08  1.80000000e+00  1.08235558e-08  5.70624299e-03  1.08235558e-08  5.00000000e-01                                 
 1.20734412e-08  6.10049642e-01  1.20734412e-08  5.55106356e-01  1.20734412e-08  1.94032065e+00  1.20734412e-08  1.80000000e+00  1.20734412e-08 -5.60430699e-03  1.20734412e-08  5.00000000e-01                                 
 1.35581705e-08  6.07548915e-01  1.35581705e-08  5.52755259e-01  1.35581705e-08  1.93766061e+00  1.35581705e-08  1.80000000e+00  1.35581705e-08  5.57686585e-03  1.35581705e-08  5.00000000e-01                                 
 1.58376496e-08  6.04054704e-01  1.58376496e-08  5.49453527e-01  1.58376496e-08  1.93366653e+00  1.58376496e-08  1.80000000e+00  1.58376496e-08 -5.51087683e-03  1.58376496e-08  5.00000000e-01                                 
 1.88168084e-08  5.99986893e-01  1.88168084e-08  5.45589821e-01  1.88168084e-08  1.92892248e+00  1.88168084e-08  1.80000000e+00  1.88168084e-08  5.51028109e-03  1.88168084e-08  5.00000000e-01                                 
 2.25814223e-08  5.95448947e-01  2.25814223e-08  5.41262464e-01  2.25814223e-08  1.92328570e+00  2.25814223e-08  1.80000000e+00  2.25814223e-08 -5.46057735e-03  2.25814223e-08  5.00000000e-01                                 
 2.81521178e-08  5.89630492e-01  2.81521178e-08  5.35697696e-01  2.81521178e-08  1.91600761e+00  2.81521178e-08  1.80000000e+00  2.81521178e-08  5.47288148e-03  2.81521178e-08  5.00000000e-01                                 
 3.68671365e-08  5.81873690e-01  3.68671365e-08  5.28289929e-01  3.68671365e-08  1.90440107e+00  3.68671365e-08  1.80000000e+00  3.68671365e-08 -5.43599174e-03  3.68671365e-08  5.00000000e-01                                 
 4.84810526e-08  5.71395537e-01  4.84810526e-08  5.18628193e-01  4.84810526e-08  1.88036145e+00  4.84810526e-08  1.80000000e+00  4.84810526e-08  5.45605076e-03  4.84810526e-08  5.00000000e-01                                 
 6.62142161e-08  5.59465528e-01  6.62142161e-08  5.07538863e-01  6.62142161e-08  1.84120827e+00  6.62142161e-08  1.80000000e+00  6.62142161e-08 -5.42391414e-03  6.62142161e-08  5.00000000e-01                                 
 8.44417025e-08  5.49538617e-01  8.44417025e-08  4.98368033e-01  8.44417025e-08  1.80701085e+00  8.44417025e-08  1.80000000e+00  8.44417025e-08  5.44698791e-03  8.44417025e-08  5.00000000e-01                                 
 1.12245519e-07  5.40623493e-01  1.12245519e-07  4.89727905e-01  1.12245519e-07  1.76423543e+00  1.12245519e-07  1.80000000e+00  1.12245519e-07 -5.41623252e-03  1.12245519e-07  5.00000000e-01                                 
 1.48204741e-07  5.41754904e-01  1.48204741e-07  4.88989263e-01  1.48204741e-07  1.74959033e+00  1.48204741e-07  1.80000000e+00  1.48204741e-07  5.44210057e-03  1.48204741e-07  5.00000000e-01                                 
 1.72521129e-07  5.40319340e-01  1.72521129e-07  4.86935418e-01  1.72521129e-07  1.72477170e+00  1.72521129e-07  1.80000000e+00  1.72521129e-07 -5.41074144e-03  1.72521129e-07  5.00000000e-01                                 
 1.97949414e-07  5.34302394e-01  1.97949414e-07  4.81342327e-01  1.97949414e-07  1.69229155e+00  1.97949414e-07  1.80000000e+00  1.97949414e-07  5.43532731e-03  1.97949414e-07  5.00000000e-01                                 
 2.19968115e-07  5.28810606e-01  2.19968115e-07  4.76357119e-01  2.19968115e-07  1.66540756e+00  2.19968115e-07  1.80000000e+00  2.19968115e-07 -5.40386411e-03  2.19968115e-07  5.00000000e-01                                 
 2.44384263e-07  5.21880285e-01  2.44384263e-07  4.70237786e-01  2.44384263e-07  1.63494542e+00  2.44384263e-07  1.80000000e+00  2.44384263e-07  5.42819107e-03  2.44384263e-07  5.00000000e-01                                 
 2.80330511e-07  5.11838858e-01  2.80330511e-07  4.61478112e-01  2.80330511e-07  1.58887936e+00  2.80330511e-07  1.80000000e+00  2.80330511e-07 -5.39821269e-03  2.80330511e-07  5.00000000e-01                                 
 3.40191644e-07  4.96052978e-01  3.40191644e-07  4.47892407e-01  3.40191644e-07  1.51305255e+00  3.40191644e-07  1.80000000e+00  3.40191644e-07  5.42455673e-03  3.40191644e-07  5.00000000e-01                                 
 4.47610504e-07  4.59366303e-01  4.47610504e-07  4.17525945e-01  4.47610504e-07  1.36634002e+00  4.47610504e-07  1.80000000e+00  4.47610504e-07 -5.39622997e-03  4.47610504e-07  5.00000000e-01                                 
 5.37561947e-07  4.39491321e-01  5.37561947e-07  4.01141567e-01  5.37561947e-07  1.25344373e+00  5.37561947e-07  1.80000000e+00  5.37561947e-07  5.42301599e-03  5.37561947e-07  5.00000000e-01                                 
 6.19773207e-07  4.07507194e-01  6.19773207e-07  3.75392463e-01  6.19773207e-07  1.13595903e+00  6.19773207e-07  1.80000000e+00  6.19773207e-07 -5.39448701e-03  6.19773207e-07  5.00000000e-01                                 
 7.03944151e-07  6.97958988e-01  7.03944151e-07  6.36738634e-01  7.03944151e-07  1.32606190e+00  7.03944151e-07  1.80000000e+00  7.03944151e-07  5.42519986e-03  7.03944151e-07  5.00000000e-01                                 
 7.65963838e-07  7.65111567e-01  7.65963838e-07  6.98977909e-01  7.65963838e-07  1.32742146e+00  7.65963838e-07  1.80000000e+00  7.65963838e-07 -5.39419990e-03  7.65963838e-07  5.00000000e-01                                 
 8.26237407e-07  7.74669100e-01  8.26237407e-07  7.06808444e-01  8.26237407e-07  1.27091406e+00  8.26237407e-07  1.80000000e+00  8.26237407e-07  5.42061289e-03  8.26237407e-07  5.00000000e-01                                 
 8.74974059e-07  7.75081343e-01  8.74974059e-07  7.07163492e-01  8.74974059e-07  1.22248593e+00  8.74974059e-07  1.80000000e+00  8.74974059e-07 -5.39084420e-03  8.74974059e-07  5.00000000e-01                                 
 9.27742114e-07  7.72805348e-01  9.27742114e-07  7.05307967e-01  9.27742114e-07  1.16232250e+00  9.27742114e-07  1.80000000e+00  9.27742114e-07  5.41675686e-03  9.27742114e-07  5.00000000e-01                                 
 9.72611485e-07  7.46849184e-01  9.72611485e-07  6.83346229e-01  9.72611485e-07  1.09349265e+00  9.72611485e-07  1.80000000e+00  9.72611485e-07 -5.38779471e-03  9.72611485e-07  5.00000000e-01                                 
 1.02172427e-06  7.19217479e-01  1.02172427e-06  6.57731055e-01  1.02172427e-06  1.01551694e+00  1.02172427e-06  1.80000000e+00  1.02172427e-06  5.41283339e-03  1.02172427e-06  5.00000000e-01                                 
 1.02868173e-06  7.23679929e-01  1.02868173e-06  6.61988323e-01  1.02868173e-06  1.01405306e+00  1.02868173e-06  1.80000000e+00  1.02868173e-06  5.32341584e-06  1.02868173e-06  5.00000000e-01                                 
 1.04259665e-06  7.32512983e-01  1.04259665e-06  6.70224822e-01  1.04259665e-06  1.00973626e+00  1.04259665e-06  1.80000000e+00  1.04259665e-06 -1.07922772e-06  1.04259665e-06  5.00000000e-01                                 
 1.07042650e-06  7.49288791e-01  1.07042650e-06  6.85356655e-01  1.07042650e-06  9.99882395e-01  1.07042650e-06  1.80000000e+00  1.07042650e-06  5.26528440e-06  1.07042650e-06  5.00000000e-01                                 
 1.12608619e-06  7.63217594e-01  1.12608619e-06  6.97387965e-01  1.12608619e-06  9.65761695e-01  1.12608619e-06  1.80000000e+00  1.12608619e-06 -1.57779903e-06  1.12608619e-06  5.00000000e-01                                 
 1.18745066e-06  7.53784031e-01  1.18745066e-06  6.89337394e-01  1.18745066e-06  9.12573900e-01  1.18745066e-06  1.80000000e+00  1.18745066e-06  4.65351737e-06  1.18745066e-06  5.00000000e-01                                 
 1.26864290e-06  7.43982477e-01  1.26864290e-06  6.80676281e-01  1.26864290e-06  8.52302026e-01  1.26864290e-06  1.80000000e+00  1.26864290e-06 -1.53724367e-06  1.26864290e-06  5.00000000e-01                                 
 1.34465050e-06  7.55312357e-01  1.34465050e-06  6.90634386e-01  1.34465050e-06  8.16909113e-01  1.34465050e-06  1.80000000e+00  1.34465050e-06  5.04847981e-06  1.34465050e-06  5.00000000e-01                                 
 1.36069551e-06  7.56589554e-01  1.36069551e-06  6.91742448e-01  1.36069551e-06  8.08726827e-01  1.36069551e-06  1.80000000e+00  1.36069551e-06  1.71722401e-06  1.36069551e-06  5.00000000e-01                                 
 1.39278555e-06  7.55945760e-01  1.39278555e-06  6.91198926e-01  1.39278555e-06  7.89614369e-01  1.39278555e-06  1.80000000e+00  1.39278555e-06  1.56047989e-06  1.39278555e-06  5.00000000e-01                                 
 1.45696562e-06  7.48995589e-01  1.45696562e-06  6.85136690e-01  1.45696562e-06  7.47422651e-01  1.45696562e-06  1.80000000e+00  1.45696562e-06  1.57532459e-06  1.45696562e-06  5.00000000e-01                                 
 1.56914304e-06  7.52312702e-01  1.56914304e-06  6.88032896e-01  1.56914304e-06  6.89841244e-01  1.56914304e-06  1.80000000e+00  1.56914304e-06  1.76184353e-06  1.56914304e-06  5.00000000e-01                                 
 1.67726322e-06  7.54276530e-01  1.67726322e-06  6.89754685e-01  1.67726322e-06  6.35664112e-01  1.67726322e-06  1.80000000e+00  1.67726322e-06  1.56539325e-06  1.67726322e-06  5.00000000e-01                                 
 1.86160359e-06  7.49433697e-01  1.86160359e-06  6.85514330e-01  1.86160359e-06  5.49270716e-01  1.86160359e-06  1.80000000e+00  1.86160359e-06  1.69180482e-06  1.86160359e-06  5.00000000e-01                                 
 2.09035727e-06  7.54604750e-01  2.09035727e-06  6.90033959e-01  2.09035727e-06  4.99874915e-01  2.09035727e-06  1.80000000e+00  2.09035727e-06  1.64111067e-06  2.09035727e-06  5.00000000e-01                                 
 2.12781698e-06  7.52997907e-01  2.12781698e-06  6.88640387e-01  2.12781698e-06  4.95800443e-01  2.12781698e-06  1.80000000e+00  2.12781698e-06  1.61744517e-06  2.12781698e-06  5.00000000e-01                                 
 2.20273642e-06  7.51235662e-01  2.20273642e-06  6.87099698e-01  2.20273642e-06  4.89970604e-01  2.20273642e-06  1.80000000e+00  2.20273642e-06  1.64377492e-06  2.20273642e-06  5.00000000e-01                                 
 2.33298176e-06  7.52569794e-01  2.33298176e-06  6.88263772e-01  2.33298176e-06  4.90025172e-01  2.33298176e-06  1.80000000e+00  2.33298176e-06  1.66835064e-06  2.33298176e-06  5.00000000e-01                                 
 2.35018820e-06  7.52689655e-01  2.35018820e-06  6.88369149e-01  2.35018820e-06  4.91526109e-01  2.35018820e-06  1.80000000e+00  2.35018820e-06  1.65710304e-06  2.35018820e-06  5.00000000e-01                                 
 2.38460109e-06  7.52527079e-01  2.38460109e-06  6.88228705e-01  2.38460109e-06  4.94912703e-01  2.38460109e-06  1.80000000e+00  2.38460109e-06  1.63635613e-06  2.38460109e-06  5.00000000e-01                                 
 2.45342685e-06  7.51795039e-01  2.45342685e-06  6.87589061e-01  2.45342685e-06  4.99285605e-01  2.45342685e-06  1.80000000e+00  2.45342685e-06  1.64092160e-06  2.45342685e-06  5.00000000e-01                                 
 2.59107838e-06  7.52292805e-01  2.59107838e-06  6.88022821e-01  2.59107838e-06  5.01000347e-01  2.59107838e-06  1.80000000e+00  2.59107838e-06  1.65978105e-06  2.59107838e-06  5.00000000e-01                                 
 2.75893253e-06  7.52199153e-01  2.75893253e-06  6.87942453e-01  2.75893253e-06  4.99932577e-01  2.75893253e-06  1.80000000e+00  2.75893253e-06  1.63594483e-06  2.75893253e-06  5.00000000e-01                                 
 3.09464085e-06  7.52030388e-01  3.09464085e-06  6.87793744e-01  3.09464085e-06  5.00235434e-01  3.09464085e-06  1.80000000e+00  3.09464085e-06  1.65939650e-06  3.09464085e-06  5.00000000e-01                                 
 3.76484954e-06  7.52307882e-01  3.76484954e-06  6.88037237e-01  3.76484954e-06  5.00261985e-01  3.76484954e-06  1.80000000e+00  3.76484954e-06  1.63743560e-06  3.76484954e-06  5.00000000e-01                                 
 4.76484954e-06  7.51979493e-01  4.76484954e-06  6.87749376e-01  4.76484954e-06  5.00086644e-01  4.76484954e-06  1.80000000e+00  4.76484954e-06  1.65824109e-06  4.76484954e-06  5.00000000e-01                                 
 5.76484954e-06  7.52342735e-01  5.76484954e-06  6.88067570e-01  5.76484954e-06  5.00363390e-01  5.76484954e-06  1.80000000e+00  5.76484954e-06  1.63849805e-06  5.76484954e-06  5.00000000e-01                                 
 6.76484954e-06  7.51949106e-01  6.76484954e-06  6.87722917e-01  6.76484954e-06  4.99999314e-01  6.76484954e-06  1.80000000e+00  6.76484954e-06  1.65708648e-06  6.76484954e-06  5.00000000e-01                                 
 7.76484954e-06  7.52368026e-01  7.76484954e-06  6.88089544e-01  7.76484954e-06  5.00437143e-01  7.76484954e-06  1.80000000e+00  7.76484954e-06  1.63973122e-06  7.76484954e-06  5.00000000e-01                                 
 8.76484954e-06  7.51928435e-01  8.76484954e-06  6.87704953e-01  8.76484954e-06  4.99938478e-01  8.76484954e-06  1.80000000e+00  8.76484954e-06  1.65578870e-06  8.76484954e-06  5.00000000e-01                                 
 9.76484954e-06  7.52383639e-01  9.76484954e-06  6.88103067e-01  9.76484954e-06  5.00485696e-01  9.76484954e-06  1.80000000e+00  9.76484954e-06  1.64107966e-06  9.76484954e-06  5.00000000e-01                                 
 1.00005000e-05  7.51918533e-01  1.00005000e-05  6.87696568e-01  1.00005000e-05  4.99881054e-01  1.00005000e-05  1.80000000e+00  1.00005000e-05  1.65214808e-06  1.00005000e-05  5.00000000e-01                                 
 1.00005500e-05  7.51918647e-01  1.00005500e-05  6.87696669e-01  1.00005500e-05  4.92097022e-01  1.00005500e-05  1.62000000e+00  1.00005500e-05 -7.94997056e-05  1.00005500e-05  5.00000000e-01                                 
 1.00006500e-05  7.51918897e-01  1.00006500e-05  6.87696883e-01  1.00006500e-05  4.78296852e-01  1.00006500e-05  1.26000000e+00  1.00006500e-05 -6.32669684e-05  1.00006500e-05  5.00000000e-01                                 
 1.00008500e-05  7.51919450e-01  1.00008500e-05  6.87697355e-01  1.00008500e-05  4.76018060e-01  1.00008500e-05  5.40000000e-01  1.00008500e-05 -2.67856059e-03  1.00008500e-05  5.00000000e-01                                 
 1.00010000e-05  7.51919791e-01  1.00010000e-05  6.87697671e-01  1.00010000e-05  4.37620954e-01  1.00010000e-05  0.00000000e+00  1.00010000e-05  1.58233850e+00  1.00010000e-05  5.00000000e-01                                 
