 time            v(vbep)         time            v(vben)         time            v(vout)         time            v(vphi1)        time            v(vphi2)        time            v(vref)         time            v(voutc)        time            v(voutcc)       yes             currtemp       
 0.00000000e+00  6.80702976e-01  0.00000000e+00  6.09155227e-01  0.00000000e+00  1.39942616e+00  0.00000000e+00  0.00000000e+00  0.00000000e+00  1.79999998e+00  0.00000000e+00  6.08369715e-01  0.00000000e+00  1.39942616e+00  0.00000000e+00  1.40767939e+00  1.00000000e+00  8.80000000e+01 
 1.00000000e-11  6.80728241e-01  1.00000000e-11  6.09227971e-01  1.00000000e-11  1.40016074e+00  1.00000000e-11  1.80000000e-02  1.00000000e-11  1.80024895e+00  1.00000000e-11  6.08889076e-01  1.00000000e-11  1.39988269e+00  1.00000000e-11  1.40769267e+00                                 
 2.00000000e-11  6.80734947e-01  2.00000000e-11  6.09272195e-01  2.00000000e-11  1.40059319e+00  2.00000000e-11  3.60000000e-02  2.00000000e-11  1.80034432e+00  2.00000000e-11  6.09270516e-01  2.00000000e-11  1.40022194e+00  2.00000000e-11  1.40769722e+00                                 
 4.00000000e-11  6.80734698e-01  4.00000000e-11  6.09329030e-01  4.00000000e-11  1.40108864e+00  4.00000000e-11  7.20000000e-02  4.00000000e-11  1.80037512e+00  4.00000000e-11  6.09824200e-01  4.00000000e-11  1.40071962e+00  4.00000000e-11  1.40769815e+00                                 
 8.00000000e-11  6.80722960e-01  8.00000000e-11  6.09362344e-01  8.00000000e-11  1.40112837e+00  8.00000000e-11  1.44000000e-01  8.00000000e-11  1.80016990e+00  8.00000000e-11  6.10248472e-01  8.00000000e-11  1.40110572e+00  8.00000000e-11  1.40768808e+00                                 
 1.60000000e-10  6.80720225e-01  1.60000000e-10  6.09368754e-01  1.60000000e-10  1.40079799e+00  1.60000000e-10  2.88000000e-01  1.60000000e-10  1.80000448e+00  1.60000000e-10  6.10341484e-01  1.60000000e-10  1.40114030e+00  1.60000000e-10  1.40767939e+00                                 
 3.20000000e-10  6.80714897e-01  3.20000000e-10  6.09355632e-01  3.20000000e-10  1.40043918e+00  3.20000000e-10  5.76000000e-01  3.20000000e-10  1.79998241e+00  3.20000000e-10  6.10193973e-01  3.20000000e-10  1.40081328e+00  3.20000000e-10  1.40767418e+00                                 
 6.40000000e-10  6.80633898e-01  6.40000000e-10  6.08866484e-01  6.40000000e-10  1.39877895e+00  6.40000000e-10  1.15200000e+00  6.40000000e-10  1.80711234e+00  6.40000000e-10  6.06677978e-01  6.40000000e-10  1.40288678e+00  6.40000000e-10  1.40769192e+00                                 
 1.00000000e-09  6.81161484e-01  1.00000000e-09  6.09399173e-01  1.00000000e-09  1.38092732e+00  1.00000000e-09  1.80000000e+00  1.00000000e-09  1.16502299e-01  1.00000000e-09  6.22840035e-01  1.00000000e-09  1.41032884e+00  1.00000000e-09  1.40772098e+00                                 
 1.03823678e-09  6.81248166e-01  1.03823678e-09  6.09372487e-01  1.03823678e-09  1.37904187e+00  1.03823678e-09  1.80000000e+00  1.03823678e-09  2.87231039e-02  1.03823678e-09  6.25505106e-01  1.03823678e-09  1.41160874e+00  1.03823678e-09  1.40772707e+00                                 
 1.11471035e-09  6.81437619e-01  1.11471035e-09  6.09361969e-01  1.11471035e-09  1.37678110e+00  1.11471035e-09  1.80000000e+00  1.11471035e-09 -1.28201873e-02  1.11471035e-09  6.28638924e-01  1.11471035e-09  1.41396336e+00  1.11471035e-09  1.40773167e+00                                 
 1.26765749e-09  6.81554692e-01  1.26765749e-09  6.09194114e-01  1.26765749e-09  1.37355529e+00  1.26765749e-09  1.80000000e+00  1.26765749e-09  9.84513692e-03  1.26765749e-09  6.27740325e-01  1.26765749e-09  1.41349906e+00  1.26765749e-09  1.40769552e+00                                 
 1.45820158e-09  6.81499978e-01  1.45820158e-09  6.09189580e-01  1.45820158e-09  1.37245922e+00  1.45820158e-09  1.80000000e+00  1.45820158e-09 -7.49864473e-03  1.45820158e-09  6.26490625e-01  1.45820158e-09  1.41219851e+00  1.45820158e-09  1.40774401e+00                                 
 1.66760578e-09  6.81374546e-01  1.66760578e-09  6.09189300e-01  1.66760578e-09  1.37195060e+00  1.66760578e-09  1.80000000e+00  1.66760578e-09  6.05815357e-03  1.66760578e-09  6.24787743e-01  1.66760578e-09  1.41093949e+00  1.66760578e-09  1.40779579e+00                                 
 2.05637261e-09  6.81096492e-01  2.05637261e-09  6.09157068e-01  2.05637261e-09  1.37083909e+00  2.05637261e-09  1.80000000e+00  2.05637261e-09 -5.40045306e-03  2.05637261e-09  6.21852915e-01  2.05637261e-09  1.40826302e+00  2.05637261e-09  1.40795832e+00                                 
 2.67916520e-09  6.80810292e-01  2.67916520e-09  6.09169053e-01  2.67916520e-09  1.36887867e+00  2.67916520e-09  1.80000000e+00  2.67916520e-09  4.99023485e-03  2.67916520e-09  6.18148894e-01  2.67916520e-09  1.40525047e+00  2.67916520e-09  1.40820361e+00                                 
 3.80475575e-09  6.80561363e-01  3.80475575e-09  6.09127248e-01  3.80475575e-09  1.36348727e+00  3.80475575e-09  1.80000000e+00  3.80475575e-09 -4.81784455e-03  3.80475575e-09  6.12978927e-01  3.80475575e-09  1.40069281e+00  3.80475575e-09  1.40854109e+00                                 
 5.29548380e-09  6.80506018e-01  5.29548380e-09  6.09148079e-01  5.29548380e-09  1.35553885e+00  5.29548380e-09  1.80000000e+00  5.29548380e-09  4.66374985e-03  5.29548380e-09  6.09411851e-01  5.29548380e-09  1.39779823e+00  5.29548380e-09  1.40868206e+00                                 
 6.58537842e-09  6.80509353e-01  6.58537842e-09  6.09121235e-01  6.58537842e-09  1.34730157e+00  6.58537842e-09  1.80000000e+00  6.58537842e-09 -4.50576923e-03  6.58537842e-09  6.07628457e-01  6.58537842e-09  1.39614497e+00  6.58537842e-09  1.40860200e+00                                 
 8.04998649e-09  6.80561916e-01  8.04998649e-09  6.09154595e-01  8.04998649e-09  1.33722335e+00  8.04998649e-09  1.80000000e+00  8.04998649e-09  4.37459596e-03  8.04998649e-09  6.06975027e-01  8.04998649e-09  1.39571990e+00  8.04998649e-09  1.40838081e+00                                 
 9.40104529e-09  6.80589882e-01  9.40104529e-09  6.09129906e-01  9.40104529e-09  1.32654401e+00  9.40104529e-09  1.80000000e+00  9.40104529e-09 -4.22524732e-03  9.40104529e-09  6.06453262e-01  9.40104529e-09  1.39513983e+00  9.40104529e-09  1.40813228e+00                                 
 1.14572894e-08  6.80651777e-01  1.14572894e-08  6.09164520e-01  1.14572894e-08  1.30967585e+00  1.14572894e-08  1.80000000e+00  1.14572894e-08  4.14488251e-03  1.14572894e-08  6.06582700e-01  1.14572894e-08  1.39536251e+00  1.14572894e-08  1.40773252e+00                                 
 1.37249147e-08  6.80675292e-01  1.37249147e-08  6.09137964e-01  1.37249147e-08  1.28955587e+00  1.37249147e-08  1.80000000e+00  1.37249147e-08 -4.05255515e-03  1.37249147e-08  6.06492667e-01  1.37249147e-08  1.39514483e+00  1.37249147e-08  1.40732026e+00                                 
 1.72084096e-08  6.80714001e-01  1.72084096e-08  6.09169970e-01  1.72084096e-08  1.25816409e+00  1.72084096e-08  1.80000000e+00  1.72084096e-08  4.01460619e-03  1.72084096e-08  6.07012148e-01  1.72084096e-08  1.39568621e+00  1.72084096e-08  1.40677363e+00                                 
 2.15164795e-08  6.80710293e-01  2.15164795e-08  6.09140817e-01  2.15164795e-08  1.21815312e+00  2.15164795e-08  1.80000000e+00  2.15164795e-08 -3.95958254e-03  2.15164795e-08  6.07125651e-01  2.15164795e-08  1.39564061e+00  2.15164795e-08  1.40625124e+00                                 
 2.94448977e-08  6.80720311e-01  2.94448977e-08  6.09171075e-01  2.94448977e-08  1.14500247e+00  2.94448977e-08  1.80000000e+00  2.94448977e-08  3.95186756e-03  2.94448977e-08  6.07799359e-01  2.94448977e-08  1.39631175e+00  2.94448977e-08  1.40561300e+00                                 
 3.99274336e-08  6.80701692e-01  3.99274336e-08  6.09140693e-01  3.99274336e-08  1.04858108e+00  3.99274336e-08  1.80000000e+00  3.99274336e-08 -3.92062220e-03  3.99274336e-08  6.07907814e-01  3.99274336e-08  1.39627277e+00  3.99274336e-08  1.40518749e+00                                 
 5.90474548e-08  6.80708427e-01  5.90474548e-08  6.09170293e-01  5.90474548e-08  8.76946978e-01  5.90474548e-08  1.80000000e+00  5.90474548e-08  3.92737583e-03  5.90474548e-08  6.08390373e-01  5.90474548e-08  1.39679889e+00  5.90474548e-08  1.40493535e+00                                 
 8.34331079e-08  6.80701213e-01  8.34331079e-08  6.09140294e-01  8.34331079e-08  6.89091154e-01  8.34331079e-08  1.80000000e+00  8.34331079e-08 -3.89893363e-03  8.34331079e-08  6.08237289e-01  8.34331079e-08  1.39655056e+00  8.34331079e-08  1.40493001e+00                                 
 1.04957388e-07  6.80708411e-01  1.04957388e-07  6.09170838e-01  1.04957388e-07  6.18335394e-01  1.04957388e-07  1.80000000e+00  1.04957388e-07  3.92273124e-03  1.04957388e-07  6.08497300e-01  1.04957388e-07  1.39689138e+00  1.04957388e-07  1.40495972e+00                                 
 1.25885504e-07  6.80693727e-01  1.25885504e-07  6.09139262e-01  1.25885504e-07  6.09929625e-01  1.25885504e-07  1.80000000e+00  1.25885504e-07 -3.87877395e-03  1.25885504e-07  6.08250861e-01  1.25885504e-07  1.39656262e+00  1.25885504e-07  1.40497624e+00                                 
 1.40256382e-07  6.80709909e-01  1.40256382e-07  6.09171139e-01  1.40256382e-07  6.08067546e-01  1.40256382e-07  1.80000000e+00  1.40256382e-07  3.90353054e-03  1.40256382e-07  6.08490566e-01  1.40256382e-07  1.39688473e+00  1.40256382e-07  1.40497738e+00                                 
 1.58672794e-07  6.80696208e-01  1.58672794e-07  6.09139288e-01  1.58672794e-07  6.08025416e-01  1.58672794e-07  1.80000000e+00  1.58672794e-07 -3.85802138e-03  1.58672794e-07  6.08250392e-01  1.58672794e-07  1.39656153e+00  1.58672794e-07  1.40497947e+00                                 
 1.95505618e-07  6.80709402e-01  1.95505618e-07  6.09171132e-01  1.95505618e-07  6.07413905e-01  1.95505618e-07  1.80000000e+00  1.95505618e-07  3.88992494e-03  1.95505618e-07  6.08489188e-01  1.95505618e-07  1.39688163e+00  1.95505618e-07  1.40497772e+00                                 
 2.50862113e-07  6.80696708e-01  2.50862113e-07  6.09139323e-01  2.50862113e-07  6.07791535e-01  2.50862113e-07  1.80000000e+00  2.50862113e-07 -3.85051015e-03  2.50862113e-07  6.08250234e-01  2.50862113e-07  1.39655858e+00  2.50862113e-07  1.40497689e+00                                 
 3.48938282e-07  6.80709165e-01  3.48938282e-07  6.09171115e-01  3.48938282e-07  6.07436620e-01  3.48938282e-07  1.80000000e+00  3.48938282e-07  3.88520586e-03  3.48938282e-07  6.08489143e-01  3.48938282e-07  1.39687665e+00  3.48938282e-07  1.40497281e+00                                 
 5.17528861e-07  6.80696832e-01  5.17528861e-07  6.09139332e-01  5.17528861e-07  6.07771868e-01  5.17528861e-07  1.80000000e+00  5.17528861e-07 -3.84783933e-03  5.17528861e-07  6.08250254e-01  5.17528861e-07  1.39655017e+00  5.17528861e-07  1.40496843e+00                                 
 7.99929792e-07  6.80709096e-01  7.99929792e-07  6.09171109e-01  7.99929792e-07  6.07441459e-01  7.99929792e-07  1.80000000e+00  7.99929792e-07  3.88362606e-03  7.99929792e-07  6.08489133e-01  7.99929792e-07  1.39686232e+00  7.99929792e-07  1.40495853e+00                                 
 1.30088255e-06  6.80696871e-01  1.30088255e-06  6.09139336e-01  1.30088255e-06  6.07766031e-01  1.30088255e-06  1.80000000e+00  1.30088255e-06 -3.84692297e-03  1.30088255e-06  6.08250260e-01  1.30088255e-06  1.39652535e+00  1.30088255e-06  1.40494362e+00                                 
 2.30278806e-06  6.80709075e-01  2.30278806e-06  6.09171108e-01  2.30278806e-06  6.07442750e-01  2.30278806e-06  1.80000000e+00  2.30278806e-06  3.88312688e-03  2.30278806e-06  6.08489131e-01  2.30278806e-06  1.39681464e+00  2.30278806e-06  1.40491093e+00                                 
 3.50278806e-06  6.80696884e-01  3.50278806e-06  6.09139336e-01  3.50278806e-06  6.07764188e-01  3.50278806e-06  1.80000000e+00  3.50278806e-06 -3.84661996e-03  3.50278806e-06  6.08250262e-01  3.50278806e-06  1.39645546e+00  3.50278806e-06  1.40487380e+00                                 
 4.70278806e-06  6.80709063e-01  4.70278806e-06  6.09171107e-01  4.70278806e-06  6.07443713e-01  4.70278806e-06  1.80000000e+00  4.70278806e-06  3.88284906e-03  4.70278806e-06  6.08489129e-01  4.70278806e-06  1.39673844e+00  4.70278806e-06  1.40483482e+00                                 
 5.90278806e-06  6.80696895e-01  5.90278806e-06  6.09139337e-01  5.90278806e-06  6.07761551e-01  5.90278806e-06  1.80000000e+00  5.90278806e-06 -3.84634030e-03  5.90278806e-06  6.08250263e-01  5.90278806e-06  1.39637934e+00  5.90278806e-06  1.40479777e+00                                 
 6.00100000e-06  6.80708991e-01  6.00100000e-06  6.09171101e-01  6.00100000e-06  6.07449371e-01  6.00100000e-06  1.80000000e+00  6.00100000e-06  3.88101356e-03  6.00100000e-06  6.08489122e-01  6.00100000e-06  1.39669725e+00  6.00100000e-06  1.40479372e+00                                 
 6.00110000e-06  6.80653047e-01  6.00110000e-06  6.08918435e-01  6.00110000e-06  6.05686286e-01  6.00110000e-06  1.62000000e+00  6.00110000e-06  2.81474702e-04  6.00110000e-06  6.06861739e-01  6.00110000e-06  1.39525362e+00  6.00110000e-06  1.40478364e+00                                 
 6.00130000e-06  6.80687542e-01  6.00130000e-06  6.08909360e-01  6.00130000e-06  6.05681452e-01  6.00130000e-06  1.26000000e+00  6.00130000e-06 -2.94506572e-04  6.00130000e-06  6.06507239e-01  6.00130000e-06  1.39494385e+00  6.00130000e-06  1.40479862e+00                                 
 6.00164857e-06  6.80757848e-01  6.00164857e-06  6.09100483e-01  6.00164857e-06  6.07721174e-01  6.00164857e-06  6.32582826e-01  6.00164857e-06  2.82811728e-02  6.00164857e-06  6.06605377e-01  6.00164857e-06  1.39150952e+00  6.00164857e-06  1.40477348e+00                                 
 6.00200000e-06  6.80684839e-01  6.00200000e-06  6.07853989e-01  6.00200000e-06  6.40534624e-01  6.00200000e-06  0.00000000e+00  6.00200000e-06  1.61505031e+00  6.00200000e-06  5.93649757e-01  6.00200000e-06  1.18234870e+00  6.00200000e-06  1.40419698e+00                                 
 6.00204654e-06  6.80702191e-01  6.00204654e-06  6.07190094e-01  6.00204654e-06  6.48466489e-01  6.00204654e-06  0.00000000e+00  6.00204654e-06  1.73329274e+00  6.00204654e-06  5.86123182e-01  6.00204654e-06  1.10647180e+00  6.00204654e-06  1.40419911e+00                                 
 6.00213963e-06  6.80706150e-01  6.00213963e-06  6.06219960e-01  6.00213963e-06  6.53592943e-01  6.00213963e-06  0.00000000e+00  6.00213963e-06  1.81481570e+00  6.00213963e-06  5.75206493e-01  6.00213963e-06  9.56151600e-01  6.00213963e-06  1.40464052e+00                                 
 6.00232581e-06  6.80701553e-01  6.00232581e-06  6.06586177e-01  6.00232581e-06  6.38767207e-01  6.00232581e-06  0.00000000e+00  6.00232581e-06  1.78776330e+00  6.00232581e-06  5.79584154e-01  6.00232581e-06  7.47522229e-01  6.00232581e-06  1.40514600e+00                                 
 6.00251163e-06  6.80704060e-01  6.00251163e-06  6.07814631e-01  6.00251163e-06  6.23476255e-01  6.00251163e-06  0.00000000e+00  6.00251163e-06  1.80594651e+00  6.00251163e-06  5.92747413e-01  6.00251163e-06  6.59621194e-01  6.00251163e-06  1.40519100e+00                                 
 6.00266022e-06  6.80701327e-01  6.00266022e-06  6.08498167e-01  6.00266022e-06  6.15648191e-01  6.00266022e-06  0.00000000e+00  6.00266022e-06  1.79684994e+00  6.00266022e-06  5.99211936e-01  6.00266022e-06  6.30878676e-01  6.00266022e-06  1.40508814e+00                                 
 6.00286590e-06  6.80703715e-01  6.00286590e-06  6.09158727e-01  6.00286590e-06  6.10909634e-01  6.00286590e-06  0.00000000e+00  6.00286590e-06  1.80205456e+00  6.00286590e-06  6.05379072e-01  6.00286590e-06  6.16297265e-01  6.00286590e-06  1.40421425e+00                                 
 6.00306917e-06  6.80701718e-01  6.00306917e-06  6.09394696e-01  6.00306917e-06  6.09188418e-01  6.00306917e-06  0.00000000e+00  6.00306917e-06  1.79880613e+00  6.00306917e-06  6.07180843e-01  6.00306917e-06  6.10823468e-01  6.00306917e-06  1.40315563e+00                                 
 6.00338926e-06  6.80703759e-01  6.00338926e-06  6.09588696e-01  6.00338926e-06  6.08872750e-01  6.00338926e-06  0.00000000e+00  6.00338926e-06  1.80094358e+00  6.00338926e-06  6.09015011e-01  6.00338926e-06  6.09259048e-01  6.00338926e-06  1.40102291e+00                                 
 6.00380433e-06  6.80702087e-01  6.00380433e-06  6.09580115e-01  6.00380433e-06  6.09669400e-01  6.00380433e-06  0.00000000e+00  6.00380433e-06  1.79927956e+00  6.00380433e-06  6.09099596e-01  6.00380433e-06  6.09315941e-01  6.00380433e-06  1.39808628e+00                                 
 6.00455445e-06  6.80703846e-01  6.00455445e-06  6.09563018e-01  6.00455445e-06  6.11780613e-01  6.00455445e-06  0.00000000e+00  6.00455445e-06  1.80066315e+00  6.00455445e-06  6.09631063e-01  6.00455445e-06  6.11664954e-01  6.00455445e-06  1.39229326e+00                                 
 6.00572132e-06  6.80702188e-01  6.00572132e-06  6.09456112e-01  6.00572132e-06  6.15313891e-01  6.00572132e-06  0.00000000e+00  6.00572132e-06  1.79941722e+00  6.00572132e-06  6.09384322e-01  6.00572132e-06  6.14870375e-01  6.00572132e-06  1.38285653e+00                                 
 6.00805507e-06  6.80703772e-01  6.00805507e-06  6.09334607e-01  6.00805507e-06  6.22472122e-01  6.00805507e-06  0.00000000e+00  6.00805507e-06  1.80058873e+00  6.00805507e-06  6.09607278e-01  6.00805507e-06  6.22309956e-01  6.00805507e-06  1.36290370e+00                                 
 6.01272257e-06  6.80702165e-01  6.01272257e-06  6.09154702e-01  6.01272257e-06  6.36539647e-01  6.01272257e-06  0.00000000e+00  6.01272257e-06  1.79945246e+00  6.01272257e-06  6.09076890e-01  6.01272257e-06  6.36055128e-01  6.01272257e-06  1.32186962e+00                                 
 6.02023702e-06  6.80703769e-01  6.02023702e-06  6.09147998e-01  6.02023702e-06  6.58538259e-01  6.02023702e-06  0.00000000e+00  6.02023702e-06  1.80056983e+00  6.02023702e-06  6.09048799e-01  6.02023702e-06  6.58337720e-01  6.02023702e-06  1.25454712e+00                                 
 6.03526592e-06  6.80702178e-01  6.03526592e-06  6.09138493e-01  6.03526592e-06  7.00396052e-01  6.03526592e-06  0.00000000e+00  6.03526592e-06  1.79945711e+00  6.03526592e-06  6.08410550e-01  6.03526592e-06  6.99814072e-01  6.03526592e-06  1.11928782e+00                                 
 6.04920776e-06  6.80703771e-01  6.04920776e-06  6.09163856e-01  6.04920776e-06  7.36717101e-01  6.04920776e-06  0.00000000e+00  6.04920776e-06  1.80056124e+00  6.04920776e-06  6.08578631e-01  6.04920776e-06  7.36493236e-01  6.04920776e-06  1.00462988e+00                                 
 6.06893695e-06  6.80702183e-01  6.06893695e-06  6.09143414e-01  6.06893695e-06  7.84262620e-01  6.06893695e-06  0.00000000e+00  6.06893695e-06  1.79946145e+00  6.06893695e-06  6.08233510e-01  6.06893695e-06  7.83488767e-01  6.06893695e-06  8.79690761e-01                                 
 6.09806548e-06  6.80703770e-01  6.09806548e-06  6.09166649e-01  6.09806548e-06  8.46769402e-01  6.09806548e-06  0.00000000e+00  6.09806548e-06  1.80055440e+00  6.09806548e-06  6.08504435e-01  6.09806548e-06  8.46601841e-01  6.09806548e-06  8.26423814e-01                                 
 6.11673675e-06  6.80702184e-01  6.11673675e-06  6.09143609e-01  6.11673675e-06  8.82322910e-01  6.11673675e-06  0.00000000e+00  6.11673675e-06  1.79946330e+00  6.11673675e-06  6.08215884e-01  6.11673675e-06  8.81323579e-01  6.11673675e-06  8.57457154e-01                                 
 6.12907925e-06  6.80703767e-01  6.12907925e-06  6.09167167e-01  6.12907925e-06  9.04020372e-01  6.12907925e-06  0.00000000e+00  6.12907925e-06  1.80054648e+00  6.12907925e-06  6.08507603e-01  6.12907925e-06  9.03846827e-01  6.12907925e-06  8.79235830e-01                                 
