 time            v(vbep)         time            v(vben)         time            v(vout)         time            v(vphi1)        time            v(vphi2)        time            v(vref)         yes             currtemp       
 0.00000000e+00  6.22801859e-01  0.00000000e+00  5.61407582e-01  0.00000000e+00  1.07179116e+00  0.00000000e+00  0.00000000e+00  0.00000000e+00  1.79994714e+00  0.00000000e+00  5.61407582e-01  1.00000000e+00  6.30000000e+01 
 5.00000000e-12  6.22769125e-01  5.00000000e-12  5.61380538e-01  5.00000000e-12  1.07252944e+00  5.00000000e-12  1.80000000e-02  5.00000000e-12  1.80007591e+00  5.00000000e-12  5.61380538e-01                                 
 1.00000000e-11  6.22737323e-01  1.00000000e-11  5.61354237e-01  1.00000000e-11  1.07319905e+00  1.00000000e-11  3.60000000e-02  1.00000000e-11  1.80015234e+00  1.00000000e-11  5.61354237e-01                                 
 2.00000000e-11  6.22674290e-01  2.00000000e-11  5.61301849e-01  2.00000000e-11  1.07443047e+00  2.00000000e-11  7.20000000e-02  2.00000000e-11  1.80023716e+00  2.00000000e-11  5.61301849e-01                                 
 4.00000000e-11  6.22549202e-01  4.00000000e-11  5.61197501e-01  4.00000000e-11  1.07639428e+00  4.00000000e-11  1.44000000e-01  4.00000000e-11  1.80022427e+00  4.00000000e-11  5.61197501e-01                                 
 8.00000000e-11  6.22300293e-01  8.00000000e-11  5.60989775e-01  8.00000000e-11  1.07899188e+00  8.00000000e-11  2.88000000e-01  8.00000000e-11  1.80012356e+00  8.00000000e-11  5.60989775e-01                                 
 1.60000000e-10  6.21807935e-01  1.60000000e-10  5.60578152e-01  1.60000000e-10  1.08113159e+00  1.60000000e-10  5.76000000e-01  1.60000000e-10  1.80001442e+00  1.60000000e-10  5.60578152e-01                                 
 3.20000000e-10  6.20843707e-01  3.20000000e-10  5.59769662e-01  3.20000000e-10  1.07466951e+00  3.20000000e-10  1.15200000e+00  3.20000000e-10  1.80031279e+00  3.20000000e-10  5.59769662e-01                                 
 5.00000000e-10  6.19790474e-01  5.00000000e-10  5.58882783e-01  5.00000000e-10  1.18398969e+00  5.00000000e-10  1.80000000e+00  5.00000000e-10  1.70580438e-01  5.00000000e-10  5.58882783e-01                                 
 5.21961836e-10  6.19664429e-01  5.21961836e-10  5.58776364e-01  5.21961836e-10  1.21145581e+00  5.21961836e-10  1.80000000e+00  5.21961836e-10  4.48445113e-02  5.21961836e-10  5.58776364e-01                                 
 5.65885507e-10  6.19413248e-01  5.65885507e-10  5.58564171e-01  5.65885507e-10  1.26614951e+00  5.65885507e-10  1.80000000e+00  5.65885507e-10 -1.60152788e-02  5.65885507e-10  5.58564171e-01                                 
 6.53732849e-10  6.18916376e-01  6.53732849e-10  5.58143789e-01  6.53732849e-10  1.36385007e+00  6.53732849e-10  1.80000000e+00  6.53732849e-10  1.34225655e-02  6.53732849e-10  5.58143789e-01                                 
 7.74436057e-10  6.18245317e-01  7.74436057e-10  5.57574690e-01  7.74436057e-10  1.47867533e+00  7.74436057e-10  1.80000000e+00  7.74436057e-10 -9.96567588e-03  7.74436057e-10  5.57574690e-01                                 
 9.57536111e-10  6.17252005e-01  9.57536111e-10  5.56729508e-01  9.57536111e-10  1.61693640e+00  9.57536111e-10  1.80000000e+00  9.57536111e-10  9.78286532e-03  9.57536111e-10  5.56729508e-01                                 
 1.32373622e-09  6.15348240e-01  1.32373622e-09  5.55100553e-01  1.32373622e-09  1.78478208e+00  1.32373622e-09  1.80000000e+00  1.32373622e-09 -8.52226248e-03  1.32373622e-09  5.55100553e-01                                 
 1.64780812e-09  6.13749428e-01  1.64780812e-09  5.53723204e-01  1.64780812e-09  1.85180162e+00  1.64780812e-09  1.80000000e+00  1.64780812e-09  8.28876191e-03  1.64780812e-09  5.53723204e-01                                 
 2.01267066e-09  6.12036513e-01  2.01267066e-09  5.52238392e-01  2.01267066e-09  1.88216123e+00  2.01267066e-09  1.80000000e+00  2.01267066e-09 -7.61383671e-03  2.01267066e-09  5.52238392e-01                                 
 2.36338864e-09  6.10469556e-01  2.36338864e-09  5.50871927e-01  2.36338864e-09  1.89277399e+00  2.36338864e-09  1.80000000e+00  2.36338864e-09  7.23101532e-03  2.36338864e-09  5.50871927e-01                                 
 2.88720713e-09  6.08258814e-01  2.88720713e-09  5.48931313e-01  2.88720713e-09  1.89605379e+00  2.88720713e-09  1.80000000e+00  2.88720713e-09 -6.86730837e-03  2.88720713e-09  5.48931313e-01                                 
 3.54146925e-09  6.05691193e-01  3.54146925e-09  5.46659150e-01  3.54146925e-09  1.89518633e+00  3.54146925e-09  1.80000000e+00  3.54146925e-09  6.67434959e-03  3.54146925e-09  5.46659150e-01                                 
 4.65472160e-09  6.01734864e-01  4.65472160e-09  5.43122047e-01  4.65472160e-09  1.89123754e+00  4.65472160e-09  1.80000000e+00  4.65472160e-09 -6.50607715e-03  4.65472160e-09  5.43122047e-01                                 
 6.38639188e-09  5.96399803e-01  6.38639188e-09  5.38287107e-01  6.38639188e-09  1.88653340e+00  6.38639188e-09  1.80000000e+00  6.38639188e-09  6.45636210e-03  6.38639188e-09  5.38287107e-01                                 
 9.84973244e-09  5.87781531e-01  9.84973244e-09  5.30338916e-01  9.84973244e-09  1.87786069e+00  9.84973244e-09  1.80000000e+00  9.84973244e-09 -6.37577301e-03  9.84973244e-09  5.30338916e-01                                 
 1.16285605e-08  5.84169444e-01  1.16285605e-08  5.26954222e-01  1.16285605e-08  1.87463574e+00  1.16285605e-08  1.80000000e+00  1.16285605e-08  6.32826824e-03  1.16285605e-08  5.26954222e-01                                 
 1.28793234e-08  5.81862232e-01  1.28793234e-08  5.24778808e-01  1.28793234e-08  1.87203142e+00  1.28793234e-08  1.80000000e+00  1.28793234e-08 -6.18579410e-03  1.28793234e-08  5.24778808e-01                                 
 1.46409585e-08  5.78876554e-01  1.46409585e-08  5.21949798e-01  1.46409585e-08  1.86929827e+00  1.46409585e-08  1.80000000e+00  1.46409585e-08  6.13526824e-03  1.46409585e-08  5.21949798e-01                                 
 1.62582217e-08  5.76369018e-01  1.62582217e-08  5.19562178e-01  1.62582217e-08  1.86634079e+00  1.62582217e-08  1.80000000e+00  1.62582217e-08 -6.02353755e-03  1.62582217e-08  5.19562178e-01                                 
 1.84520943e-08  5.73260942e-01  1.84520943e-08  5.16589372e-01  1.84520943e-08  1.86318361e+00  1.84520943e-08  1.80000000e+00  1.84520943e-08  5.98844175e-03  1.84520943e-08  5.16589372e-01                                 
 2.06823740e-08  5.70392218e-01  2.06823740e-08  5.13833224e-01  2.06823740e-08  1.85952048e+00  2.06823740e-08  1.80000000e+00  2.06823740e-08 -5.90229777e-03  2.06823740e-08  5.13833224e-01                                 
 2.43334909e-08  5.66191694e-01  2.43334909e-08  5.09779691e-01  2.43334909e-08  1.85437579e+00  2.43334909e-08  1.80000000e+00  2.43334909e-08  5.89215513e-03  2.43334909e-08  5.09779691e-01                                 
 2.81930309e-08  5.62278903e-01  2.81930309e-08  5.05988392e-01  2.81930309e-08  1.84830414e+00  2.81930309e-08  1.80000000e+00  2.81930309e-08 -5.83177963e-03  2.81930309e-08  5.05988392e-01                                 
 3.59121108e-08  5.55494921e-01  3.59121108e-08  4.99409227e-01  3.59121108e-08  1.83730002e+00  3.59121108e-08  1.80000000e+00  3.59121108e-08  5.84143273e-03  3.59121108e-08  4.99409227e-01                                 
 4.70963143e-08  5.46959105e-01  4.70963143e-08  4.91213715e-01  4.70963143e-08  1.82345968e+00  4.70963143e-08  1.80000000e+00  4.70963143e-08 -5.80254484e-03  4.70963143e-08  4.91213715e-01                                 
 5.85425888e-08  5.39178258e-01  5.85425888e-08  4.83851551e-01  5.85425888e-08  1.81283345e+00  5.85425888e-08  1.80000000e+00  5.85425888e-08  5.81905169e-03  5.85425888e-08  4.83851551e-01                                 
 7.27217599e-08  5.28540121e-01  7.27217599e-08  4.74206634e-01  7.27217599e-08  1.78931848e+00  7.27217599e-08  1.80000000e+00  7.27217599e-08 -5.78325888e-03  7.27217599e-08  4.74206634e-01                                 
 8.77532475e-08  5.20059115e-01  8.77532475e-08  4.66413684e-01  8.77532475e-08  1.75896615e+00  8.77532475e-08  1.80000000e+00  8.77532475e-08  5.80144402e-03  8.77532475e-08  4.66413684e-01                                 
 1.06163034e-07  5.11020303e-01  1.06163034e-07  4.58159466e-01  1.06163034e-07  1.72513996e+00  1.06163034e-07  1.80000000e+00  1.06163034e-07 -5.76724027e-03  1.06163034e-07  4.58159466e-01                                 
 1.32293785e-07  5.03813870e-01  1.32293785e-07  4.51163192e-01  1.32293785e-07  1.68788990e+00  1.32293785e-07  1.80000000e+00  1.32293785e-07  5.79067459e-03  1.32293785e-07  4.51163192e-01                                 
 1.67763899e-07  5.05602479e-01  1.67763899e-07  4.51107358e-01  1.67763899e-07  1.67113831e+00  1.67763899e-07  1.80000000e+00  1.67763899e-07 -5.75660427e-03  1.67763899e-07  4.51107358e-01                                 
 1.90643688e-07  5.04588713e-01  1.90643688e-07  4.49488090e-01  1.90643688e-07  1.64909438e+00  1.90643688e-07  1.80000000e+00  1.90643688e-07  5.78053151e-03  1.90643688e-07  4.49488090e-01                                 
 2.15165087e-07  4.99921740e-01  2.15165087e-07  4.45020078e-01  2.15165087e-07  1.61707720e+00  2.15165087e-07  1.80000000e+00  2.15165087e-07 -5.74665198e-03  2.15165087e-07  4.45020078e-01                                 
 2.38616518e-07  4.94988510e-01  2.38616518e-07  4.40453782e-01  2.38616518e-07  1.58805935e+00  2.38616518e-07  1.80000000e+00  2.38616518e-07  5.76989367e-03  2.38616518e-07  4.40453782e-01                                 
 2.64185588e-07  4.88077721e-01  2.64185588e-07  4.34337085e-01  2.64185588e-07  1.55604486e+00  2.64185588e-07  1.80000000e+00  2.64185588e-07 -5.73647483e-03  2.64185588e-07  4.34337085e-01                                 
 3.10235951e-07  4.75857082e-01  3.10235951e-07  4.23664004e-01  3.10235951e-07  1.49638169e+00  3.10235951e-07  1.80000000e+00  3.10235951e-07  5.76212228e-03  3.10235951e-07  4.23664004e-01                                 
 3.71390020e-07  4.60374294e-01  3.71390020e-07  4.10347660e-01  3.71390020e-07  1.41837063e+00  3.71390020e-07  1.80000000e+00  3.71390020e-07 -5.73155419e-03  3.71390020e-07  4.10347660e-01                                 
 4.93698157e-07  4.19807762e-01  4.93698157e-07  3.76787143e-01  4.93698157e-07  1.25059792e+00  4.93698157e-07  1.80000000e+00  4.93698157e-07  5.75873780e-03  4.93698157e-07  3.76787143e-01                                 
 5.89353154e-07  4.01149247e-01  5.89353154e-07  3.61365887e-01  5.89353154e-07  1.13316671e+00  5.89353154e-07  1.80000000e+00  5.89353154e-07 -5.72868073e-03  5.89353154e-07  3.61365887e-01                                 
 6.73999247e-07  3.76084750e-01  6.73999247e-07  3.41134897e-01  6.73999247e-07  1.02542111e+00  6.73999247e-07  1.80000000e+00  6.73999247e-07  5.75569751e-03  6.73999247e-07  3.41134897e-01                                 
 6.84937311e-07  3.78132322e-01  6.84937311e-07  3.42775363e-01  6.84937311e-07  1.01782422e+00  6.84937311e-07  1.80000000e+00  6.84937311e-07  6.26224631e-06  6.84937311e-07  3.42775363e-01                                 
 7.06813439e-07  3.96413504e-01  7.06813439e-07  3.57427673e-01  7.06813439e-07  1.01541926e+00  7.06813439e-07  1.80000000e+00  7.06813439e-07  2.86117841e-06  7.06813439e-07  3.57427673e-01                                 
 7.50565695e-07  6.34781587e-01  7.50565695e-07  5.68587678e-01  7.50565695e-07  1.19917001e+00  7.50565695e-07  1.80000000e+00  7.50565695e-07  2.62768091e-05  7.50565695e-07  5.68587678e-01                                 
 7.96882114e-07  7.26918320e-01  7.96882114e-07  6.60034141e-01  7.96882114e-07  1.24246485e+00  7.96882114e-07  1.80000000e+00  7.96882114e-07 -9.90203817e-06  7.96882114e-07  6.60034141e-01                                 
 8.46186137e-07  7.61263037e-01  8.46186137e-07  6.88490911e-01  8.46186137e-07  1.21949660e+00  8.46186137e-07  1.80000000e+00  8.46186137e-07  1.90293609e-05  8.46186137e-07  6.88490911e-01                                 
 8.95999902e-07  7.62886752e-01  8.95999902e-07  6.89820572e-01  8.95999902e-07  1.17267340e+00  8.95999902e-07  1.80000000e+00  8.95999902e-07 -1.29176392e-05  8.95999902e-07  6.89820572e-01                                 
 9.47394048e-07  7.61765581e-01  9.47394048e-07  6.88890067e-01  9.47394048e-07  1.11395454e+00  9.47394048e-07  1.80000000e+00  9.47394048e-07  1.84915019e-05  9.47394048e-07  6.88890067e-01                                 
 9.94808095e-07  7.32396913e-01  9.94808095e-07  6.64950486e-01  9.94808095e-07  1.04368377e+00  9.94808095e-07  1.80000000e+00  9.94808095e-07 -1.54597240e-05  9.94808095e-07  6.64950486e-01                                 
 1.04419862e-06  6.85396638e-01  1.04419862e-06  6.21722988e-01  1.04419862e-06  9.54909620e-01  1.04419862e-06  1.80000000e+00  1.04419862e-06  1.66398192e-05  1.04419862e-06  6.21722988e-01                                 
 1.09483651e-06  7.17640762e-01  1.09483651e-06  6.51798982e-01  1.09483651e-06  9.50077844e-01  1.09483651e-06  1.80000000e+00  1.09483651e-06 -7.10518239e-06  1.09483651e-06  6.51798982e-01                                 
 1.14191698e-06  7.41860805e-01  1.14191698e-06  6.72813679e-01  1.14191698e-06  9.36391375e-01  1.14191698e-06  1.80000000e+00  1.14191698e-06  1.58234346e-05  1.14191698e-06  6.72813679e-01                                 
 1.20093459e-06  7.40385697e-01  1.20093459e-06  6.71663474e-01  1.20093459e-06  8.98382154e-01  1.20093459e-06  1.80000000e+00  1.20093459e-06 -9.52372698e-06  1.20093459e-06  6.71663474e-01                                 
 1.26207247e-06  7.21054559e-01  1.26207247e-06  6.54870712e-01  1.26207247e-06  8.41414982e-01  1.26207247e-06  1.80000000e+00  1.26207247e-06  1.43414139e-05  1.26207247e-06  6.54870712e-01                                 
 1.33362199e-06  7.27128460e-01  1.33362199e-06  6.60246456e-01  1.33362199e-06  8.06233754e-01  1.33362199e-06  1.80000000e+00  1.33362199e-06 -7.42109611e-06  1.33362199e-06  6.60246456e-01                                 
 1.40706538e-06  7.39099357e-01  1.40706538e-06  6.70514770e-01  1.40706538e-06  7.73711662e-01  1.40706538e-06  1.80000000e+00  1.40706538e-06  1.46675900e-05  1.40706538e-06  6.70514770e-01                                 
 1.49729274e-06  7.28757810e-01  1.49729274e-06  6.61701778e-01  1.49729274e-06  7.19900076e-01  1.49729274e-06  1.80000000e+00  1.49729274e-06 -8.57844791e-06  1.49729274e-06  6.61701778e-01                                 
 1.59870201e-06  7.26283452e-01  1.59870201e-06  6.59473375e-01  1.59870201e-06  6.81176589e-01  1.59870201e-06  1.80000000e+00  1.59870201e-06  1.52004663e-05  1.59870201e-06  6.59473375e-01                                 
 1.71562335e-06  7.38022592e-01  1.71562335e-06  6.69648895e-01  1.71562335e-06  6.71691877e-01  1.71562335e-06  1.80000000e+00  1.71562335e-06 -7.80324767e-06  1.71562335e-06  6.69648895e-01                                 
 1.86921111e-06  7.23861760e-01  1.86921111e-06  6.57362635e-01  1.86921111e-06  6.42860142e-01  1.86921111e-06  1.80000000e+00  1.86921111e-06  1.43375396e-05  1.86921111e-06  6.57362635e-01                                 
 2.00837120e-06  7.34807607e-01  2.00837120e-06  6.66896234e-01  2.00837120e-06  6.64469377e-01  2.00837120e-06  1.80000000e+00  2.00837120e-06 -6.84055552e-06  2.00837120e-06  6.66896234e-01                                 
 2.16800906e-06  7.29765395e-01  2.16800906e-06  6.62546779e-01  2.16800906e-06  6.66291284e-01  2.16800906e-06  1.80000000e+00  2.16800906e-06  1.37664592e-05  2.16800906e-06  6.62546779e-01                                 
 2.32869025e-06  7.30418709e-01  2.32869025e-06  6.63110917e-01  2.32869025e-06  6.60438100e-01  2.32869025e-06  1.80000000e+00  2.32869025e-06 -6.71779620e-06  2.32869025e-06  6.63110917e-01                                 
 2.49222622e-06  7.32841289e-01  2.49222622e-06  6.65203724e-01  2.49222622e-06  6.65650848e-01  2.49222622e-06  1.80000000e+00  2.49222622e-06  1.38467474e-05  2.49222622e-06  6.65203724e-01                                 
 2.67037616e-06  7.29375895e-01  2.67037616e-06  6.62208699e-01  2.67037616e-06  6.62827913e-01  2.67037616e-06  1.80000000e+00  2.67037616e-06 -6.87702496e-06  2.67037616e-06  6.62208699e-01                                 
 2.90645167e-06  7.32282938e-01  2.90645167e-06  6.64719452e-01  2.90645167e-06  6.64246102e-01  2.90645167e-06  1.80000000e+00  2.90645167e-06  1.39781397e-05  2.90645167e-06  6.64719452e-01                                 
 3.32355886e-06  7.30334893e-01  3.32355886e-06  6.63044207e-01  3.32355886e-06  6.63924822e-01  3.32355886e-06  1.80000000e+00  3.32355886e-06 -6.94171940e-06  3.32355886e-06  6.63044207e-01                                 
 3.79775885e-06  7.31457381e-01  3.79775885e-06  6.64006260e-01  3.79775885e-06  6.63418625e-01  3.79775885e-06  1.80000000e+00  3.79775885e-06  1.40003824e-05  3.79775885e-06  6.64006260e-01                                 
 4.59947665e-06  7.31021054e-01  4.59947665e-06  6.63639441e-01  4.59947665e-06  6.64585402e-01  4.59947665e-06  1.80000000e+00  4.59947665e-06 -6.94726409e-06  4.59947665e-06  6.63639441e-01                                 
 5.59947665e-06  7.30985241e-01  5.59947665e-06  6.63597932e-01  5.59947665e-06  6.62970018e-01  5.59947665e-06  1.80000000e+00  5.59947665e-06  1.39973097e-05  5.59947665e-06  6.63597932e-01                                 
 6.59947665e-06  7.31444782e-01  6.59947665e-06  6.64006136e-01  6.59947665e-06  6.64983014e-01  6.59947665e-06  1.80000000e+00  6.59947665e-06 -6.94008281e-06  6.59947665e-06  6.64006136e-01                                 
 7.59947665e-06  7.30556847e-01  7.59947665e-06  6.63227113e-01  7.59947665e-06  6.62566802e-01  7.59947665e-06  1.80000000e+00  7.59947665e-06  1.39861352e-05  7.59947665e-06  6.63227113e-01                                 
 8.59947665e-06  7.31859122e-01  8.59947665e-06  6.64364058e-01  8.59947665e-06  6.65370870e-01  8.59947665e-06  1.80000000e+00  8.59947665e-06 -6.92496097e-06  8.59947665e-06  6.64364058e-01                                 
 9.59947665e-06  7.30137105e-01  9.59947665e-06  6.62863491e-01  9.59947665e-06  6.62172783e-01  9.59947665e-06  1.80000000e+00  9.59947665e-06  1.39671092e-05  9.59947665e-06  6.62863491e-01                                 
 1.00005000e-05  7.32524742e-01  1.00005000e-05  6.64937707e-01  1.00005000e-05  6.65988936e-01  1.00005000e-05  1.80000000e+00  1.00005000e-05 -6.88053810e-06  1.00005000e-05  6.64937707e-01                                 
 1.00005500e-05  7.32425055e-01  1.00005500e-05  6.64871998e-01  1.00005500e-05  6.58996008e-01  1.00005500e-05  1.62000000e+00  1.00005500e-05 -1.28671066e-04  1.00005500e-05  6.64871998e-01                                 
 1.00006500e-05  7.32276927e-01  1.00006500e-05  6.64753193e-01  1.00006500e-05  6.47636442e-01  1.00006500e-05  1.26000000e+00  1.00006500e-05 -9.32338899e-05  1.00006500e-05  6.64753193e-01                                 
 1.00008500e-05  7.32051927e-01  1.00008500e-05  6.64555230e-01  1.00008500e-05  6.39584036e-01  1.00008500e-05  5.40000000e-01  1.00008500e-05  1.07174064e-03  1.00008500e-05  6.64555230e-01                                 
 1.00010000e-05  7.31909156e-01  1.00010000e-05  6.64435420e-01  1.00010000e-05  6.90242157e-01  1.00010000e-05  0.00000000e+00  1.00010000e-05  1.53006201e+00  1.00010000e-05  6.64435420e-01                                 
 1.00010252e-05  7.31890281e-01  1.00010252e-05  6.64417783e-01  1.00010252e-05  7.10955566e-01  1.00010252e-05  0.00000000e+00  1.00010252e-05  1.69828347e+00  1.00010252e-05  6.64417783e-01                                 
