 time            v(vbep)         time            v(vben)         time            v(vout)         time            v(vphi1)        time            v(vphi2)        time            v(vref)         yes             currtemp       
 0.00000000e+00  5.83595385e-01  0.00000000e+00  5.20821231e-01  0.00000000e+00  2.42053412e-01  0.00000000e+00  0.00000000e+00  0.00000000e+00  1.79997125e+00  0.00000000e+00  5.20821231e-01  1.00000000e+00  7.10000000e+01 
 5.00000000e-12  5.83579153e-01  5.00000000e-12  5.20807734e-01  5.00000000e-12  2.42568056e-01  5.00000000e-12  1.80000000e-02  5.00000000e-12  1.80007768e+00  5.00000000e-12  5.20807734e-01                                 
 1.00000000e-11  5.83563117e-01  1.00000000e-11  5.20794508e-01  1.00000000e-11  2.42987186e-01  1.00000000e-11  3.60000000e-02  1.00000000e-11  1.80013589e+00  1.00000000e-11  5.20794508e-01                                 
 2.00000000e-11  5.83531143e-01  2.00000000e-11  5.20768123e-01  2.00000000e-11  2.43681853e-01  2.00000000e-11  7.20000000e-02  2.00000000e-11  1.80019343e+00  2.00000000e-11  5.20768123e-01                                 
 4.00000000e-11  5.83467374e-01  4.00000000e-11  5.20715479e-01  4.00000000e-11  2.44499587e-01  4.00000000e-11  1.44000000e-01  4.00000000e-11  1.80016196e+00  4.00000000e-11  5.20715479e-01                                 
 8.00000000e-11  5.83340182e-01  8.00000000e-11  5.20610438e-01  8.00000000e-11  2.45204546e-01  8.00000000e-11  2.88000000e-01  8.00000000e-11  1.80008340e+00  8.00000000e-11  5.20610438e-01                                 
 1.60000000e-10  5.83087241e-01  1.60000000e-10  5.20401341e-01  1.60000000e-10  2.45874890e-01  1.60000000e-10  5.76000000e-01  1.60000000e-10  1.80004305e+00  1.60000000e-10  5.20401341e-01                                 
 3.20000000e-10  5.82586947e-01  3.20000000e-10  5.19987009e-01  3.20000000e-10  2.51468549e-01  3.20000000e-10  1.15200000e+00  3.20000000e-10  1.80032746e+00  3.20000000e-10  5.19987009e-01                                 
 5.00000000e-10  5.82032838e-01  5.00000000e-10  5.19526921e-01  5.00000000e-10  4.98262794e-01  5.00000000e-10  1.80000000e+00  5.00000000e-10  1.83818725e-01  5.00000000e-10  5.19526921e-01                                 
 5.22413452e-10  5.81964555e-01  5.22413452e-10  5.19470129e-01  5.22413452e-10  5.56327671e-01  5.22413452e-10  1.80000000e+00  5.22413452e-10  4.50055562e-02  5.22413452e-10  5.19470129e-01                                 
 5.67240357e-10  5.81828268e-01  5.67240357e-10  5.19356739e-01  5.67240357e-10  6.63469052e-01  5.67240357e-10  1.80000000e+00  5.67240357e-10 -1.66647262e-02  5.67240357e-10  5.19356739e-01                                 
 6.56894166e-10  5.81557376e-01  6.56894166e-10  5.19131136e-01  6.56894166e-10  8.33591524e-01  6.56894166e-10  1.80000000e+00  6.56894166e-10  1.47148338e-02  6.56894166e-10  5.19131136e-01                                 
 7.74159355e-10  5.81206362e-01  7.74159355e-10  5.18838368e-01  7.74159355e-10  1.00410404e+00  7.74159355e-10  1.80000000e+00  7.74159355e-10 -1.05898752e-02  7.74159355e-10  5.18838368e-01                                 
 9.61640930e-10  5.80652695e-01  9.61640930e-10  5.18375587e-01  9.61640930e-10  1.22107403e+00  9.61640930e-10  1.80000000e+00  9.61640930e-10  1.08850604e-02  9.61640930e-10  5.18375587e-01                                 
 1.28694456e-09  5.79713130e-01  1.28694456e-09  5.17587520e-01  1.28694456e-09  1.49445810e+00  1.28694456e-09  1.80000000e+00  1.28694456e-09 -9.02521367e-03  1.28694456e-09  5.17587520e-01                                 
 1.86744273e-09  5.78098884e-01  1.86744273e-09  5.16225718e-01  1.86744273e-09  1.73359464e+00  1.86744273e-09  1.80000000e+00  1.86744273e-09  9.32206041e-03  1.86744273e-09  5.16225718e-01                                 
 2.16973172e-09  5.77288403e-01  2.16973172e-09  5.15538205e-01  2.16973172e-09  1.77380929e+00  2.16973172e-09  1.80000000e+00  2.16973172e-09 -8.40675597e-03  2.16973172e-09  5.15538205e-01                                 
 2.50815067e-09  5.76403759e-01  2.50815067e-09  5.14785005e-01  2.50815067e-09  1.79377773e+00  2.50815067e-09  1.80000000e+00  2.50815067e-09  8.02793506e-03  2.50815067e-09  5.14785005e-01                                 
 2.88696176e-09  5.75440523e-01  2.88696176e-09  5.13961650e-01  2.88696176e-09  1.80206854e+00  2.88696176e-09  1.80000000e+00  2.88696176e-09 -7.48143547e-03  2.88696176e-09  5.13961650e-01                                 
 3.53815844e-09  5.73846557e-01  3.53815844e-09  5.12591980e-01  3.53815844e-09  1.80572386e+00  3.53815844e-09  1.80000000e+00  3.53815844e-09  7.29891986e-03  3.53815844e-09  5.12591980e-01                                 
 4.27705446e-09  5.72125503e-01  4.27705446e-09  5.11103225e-01  4.27705446e-09  1.80450325e+00  4.27705446e-09  1.80000000e+00  4.27705446e-09 -7.03491326e-03  4.27705446e-09  5.11103225e-01                                 
 5.63960882e-09  5.69164310e-01  5.63960882e-09  5.08519242e-01  5.63960882e-09  1.80196777e+00  5.63960882e-09  1.80000000e+00  5.63960882e-09  6.97188319e-03  5.63960882e-09  5.08519242e-01                                 
 7.70004989e-09  5.65124333e-01  7.70004989e-09  5.04950868e-01  7.70004989e-09  1.79664228e+00  7.70004989e-09  1.80000000e+00  7.70004989e-09 -6.84602532e-03  7.70004989e-09  5.04950868e-01                                 
 9.27749737e-09  5.62331056e-01  9.27749737e-09  5.02455573e-01  9.27749737e-09  1.79345214e+00  9.27749737e-09  1.80000000e+00  9.27749737e-09  6.79913576e-03  9.27749737e-09  5.02455573e-01                                 
 1.10696071e-08  5.59414606e-01  1.10696071e-08  4.99828219e-01  1.10696071e-08  1.78938724e+00  1.10696071e-08  1.80000000e+00  1.10696071e-08 -6.67486940e-03  1.10696071e-08  4.99828219e-01                                 
 1.26228410e-08  5.57078288e-01  1.26228410e-08  4.97707940e-01  1.26228410e-08  1.78652325e+00  1.26228410e-08  1.80000000e+00  1.26228410e-08  6.61943592e-03  1.26228410e-08  4.97707940e-01                                 
 1.41497240e-08  5.54932350e-01  1.41497240e-08  4.95748850e-01  1.41497240e-08  1.78323871e+00  1.41497240e-08  1.80000000e+00  1.41497240e-08 -6.48946349e-03  1.41497240e-08  4.95748850e-01                                 
 1.57851264e-08  5.52781053e-01  1.57851264e-08  4.93774053e-01  1.57851264e-08  1.78035176e+00  1.57851264e-08  1.80000000e+00  1.57851264e-08  6.43745784e-03  1.57851264e-08  4.93774053e-01                                 
 1.75948009e-08  5.50558916e-01  1.75948009e-08  4.91723009e-01  1.75948009e-08  1.77665051e+00  1.75948009e-08  1.80000000e+00  1.75948009e-08 -6.32669632e-03  1.75948009e-08  4.91723009e-01                                 
 2.01725377e-08  5.47645754e-01  2.01725377e-08  4.89017020e-01  2.01725377e-08  1.77213318e+00  2.01725377e-08  1.80000000e+00  2.01725377e-08  6.30611863e-03  2.01725377e-08  4.89017020e-01                                 
 2.31495301e-08  5.44602032e-01  2.31495301e-08  4.86168514e-01  2.31495301e-08  1.76654967e+00  2.31495301e-08  1.80000000e+00  2.31495301e-08 -6.22724578e-03  2.31495301e-08  4.86168514e-01                                 
 2.80467562e-08  5.40199197e-01  2.80467562e-08  4.82010173e-01  2.80467562e-08  1.75849615e+00  2.80467562e-08  1.80000000e+00  2.80467562e-08  6.23242093e-03  2.80467562e-08  4.82010173e-01                                 
 3.41522272e-08  5.35521787e-01  3.41522272e-08  4.77545069e-01  3.41522272e-08  1.74847351e+00  3.41522272e-08  1.80000000e+00  3.41522272e-08 -6.17700389e-03  3.41522272e-08  4.77545069e-01                                 
 4.63631694e-08  5.27882967e-01  4.63631694e-08  4.70175802e-01  4.63631694e-08  1.73012395e+00  4.63631694e-08  1.80000000e+00  4.63631694e-08  6.19957275e-03  4.63631694e-08  4.70175802e-01                                 
 7.07850537e-08  5.16526498e-01  7.07850537e-08  4.59099859e-01  7.07850537e-08  1.69554260e+00  7.07850537e-08  1.80000000e+00  7.07850537e-08 -6.15994545e-03  7.07850537e-08  4.59099859e-01                                 
 1.11225583e-07  5.02034724e-01  1.11225583e-07  4.45142696e-01  1.11225583e-07  1.64235543e+00  1.11225583e-07  1.80000000e+00  1.11225583e-07  6.19120808e-03  1.11225583e-07  4.45142696e-01                                 
 1.52932177e-07  4.87962919e-01  1.52932177e-07  4.32163521e-01  1.52932177e-07  1.58702381e+00  1.52932177e-07  1.80000000e+00  1.52932177e-07 -6.15336206e-03  1.52932177e-07  4.32163521e-01                                 
 2.19179828e-07  4.68337889e-01  2.19179828e-07  4.14494902e-01  2.19179828e-07  1.50102598e+00  2.19179828e-07  1.80000000e+00  2.19179828e-07  6.18616192e-03  2.19179828e-07  4.14494902e-01                                 
 2.90143474e-07  4.49247406e-01  2.90143474e-07  3.97778386e-01  2.90143474e-07  1.40851118e+00  2.90143474e-07  1.80000000e+00  2.90143474e-07 -6.14940503e-03  2.90143474e-07  3.97778386e-01                                 
 4.08701766e-07  4.14933104e-01  4.08701766e-07  3.68853473e-01  4.08701766e-07  1.25141785e+00  4.08701766e-07  1.80000000e+00  4.08701766e-07  6.18313277e-03  4.08701766e-07  3.68853473e-01                                 
 5.97425889e-07  6.23315680e-01  5.97425889e-07  5.58491905e-01  5.97425889e-07  1.25022557e+00  5.97425889e-07  1.80000000e+00  5.97425889e-07 -6.14206508e-03  5.97425889e-07  5.58491905e-01                                 
 7.55263331e-07  7.33942298e-01  7.55263331e-07  6.62326588e-01  7.55263331e-07  1.19066372e+00  7.55263331e-07  1.80000000e+00  7.55263331e-07  6.18042342e-03  7.55263331e-07  6.62326588e-01                                 
 7.74790541e-07  7.34847036e-01  7.74790541e-07  6.63081432e-01  7.74790541e-07  1.17039436e+00  7.74790541e-07  1.80000000e+00  7.74790541e-07  6.61635787e-06  7.74790541e-07  6.63081432e-01                                 
 8.13844961e-07  7.35673596e-01  8.13844961e-07  6.63758956e-01  8.13844961e-07  1.13058317e+00  8.13844961e-07  1.80000000e+00  8.13844961e-07  2.79391001e-06  8.13844961e-07  6.63758956e-01                                 
 8.72469504e-07  7.26436822e-01  8.72469504e-07  6.56128840e-01  8.72469504e-07  1.06365724e+00  8.72469504e-07  1.80000000e+00  8.72469504e-07  5.87385142e-06  8.72469504e-07  6.56128840e-01                                 
 9.39478561e-07  7.07012985e-01  9.39478561e-07  6.39294183e-01  9.39478561e-07  9.87327333e-01  9.39478561e-07  1.80000000e+00  9.39478561e-07  2.35911537e-06  9.39478561e-07  6.39294183e-01                                 
 1.01635223e-06  7.16663727e-01  1.01635223e-06  6.47742832e-01  1.01635223e-06  9.40087420e-01  1.01635223e-06  1.80000000e+00  1.01635223e-06  7.94879905e-06  1.01635223e-06  6.47742832e-01                                 
 1.09613679e-06  7.30059705e-01  1.09613679e-06  6.59141523e-01  1.09613679e-06  8.99886794e-01  1.09613679e-06  1.80000000e+00  1.09613679e-06  2.64628119e-06  1.09613679e-06  6.59141523e-01                                 
 1.10666354e-06  7.26568040e-01  1.10666354e-06  6.56239235e-01  1.10666354e-06  8.90177918e-01  1.10666354e-06  1.80000000e+00  1.10666354e-06  4.21446253e-06  1.10666354e-06  6.56239235e-01                                 
 1.12771704e-06  7.18316152e-01  1.12771704e-06  6.49218203e-01  1.12771704e-06  8.69711202e-01  1.12771704e-06  1.80000000e+00  1.12771704e-06  3.95325136e-06  1.12771704e-06  6.49218203e-01                                 
 1.16982403e-06  7.11313665e-01  1.16982403e-06  6.43084154e-01  1.16982403e-06  8.37814479e-01  1.16982403e-06  1.80000000e+00  1.16982403e-06  5.23400844e-06  1.16982403e-06  6.43084154e-01                                 
 1.23104171e-06  7.20590475e-01  1.23104171e-06  6.51141013e-01  1.23104171e-06  8.09996461e-01  1.23104171e-06  1.80000000e+00  1.23104171e-06  5.39819673e-06  1.23104171e-06  6.51141013e-01                                 
 1.30876825e-06  7.21899818e-01  1.30876825e-06  6.52275780e-01  1.30876825e-06  7.66528059e-01  1.30876825e-06  1.80000000e+00  1.30876825e-06  4.68137081e-06  1.30876825e-06  6.52275780e-01                                 
 1.39079575e-06  7.15787495e-01  1.39079575e-06  6.47005936e-01  1.39079575e-06  7.17090462e-01  1.39079575e-06  1.80000000e+00  1.39079575e-06  5.07122996e-06  1.39079575e-06  6.47005936e-01                                 
 1.53663293e-06  7.20608171e-01  1.53663293e-06  6.51160814e-01  1.53663293e-06  6.68879587e-01  1.53663293e-06  1.80000000e+00  1.53663293e-06  5.33340847e-06  1.53663293e-06  6.51160814e-01                                 
 1.68364224e-06  7.19031590e-01  1.68364224e-06  6.49816509e-01  1.68364224e-06  6.44265474e-01  1.68364224e-06  1.80000000e+00  1.68364224e-06  5.06795505e-06  1.68364224e-06  6.49816509e-01                                 
 1.70348713e-06  7.18007227e-01  1.70348713e-06  6.48930900e-01  1.70348713e-06  6.41606536e-01  1.70348713e-06  1.80000000e+00  1.70348713e-06  5.14347746e-06  1.70348713e-06  6.48930900e-01                                 
 1.74317691e-06  7.17757436e-01  1.74317691e-06  6.48710429e-01  1.74317691e-06  6.39405516e-01  1.74317691e-06  1.80000000e+00  1.74317691e-06  5.36659995e-06  1.74317691e-06  6.48710429e-01                                 
 1.82255647e-06  7.19941838e-01  1.82255647e-06  6.50592714e-01  1.82255647e-06  6.48044974e-01  1.82255647e-06  1.80000000e+00  1.82255647e-06  5.39570766e-06  1.82255647e-06  6.50592714e-01                                 
 1.91093157e-06  7.18973555e-01  1.91093157e-06  6.49763310e-01  1.91093157e-06  6.51182868e-01  1.91093157e-06  1.80000000e+00  1.91093157e-06  5.16420080e-06  1.91093157e-06  6.49763310e-01                                 
 2.02232405e-06  7.18477280e-01  2.02232405e-06  6.49332186e-01  2.02232405e-06  6.48760208e-01  2.02232405e-06  1.80000000e+00  2.02232405e-06  5.37786184e-06  2.02232405e-06  6.49332186e-01                                 
 2.18704912e-06  7.19668035e-01  2.18704912e-06  6.50359271e-01  2.18704912e-06  6.50973199e-01  2.18704912e-06  1.80000000e+00  2.18704912e-06  5.23206490e-06  2.18704912e-06  6.50359271e-01                                 
 2.35182752e-06  7.18414842e-01  2.35182752e-06  6.49279914e-01  2.35182752e-06  6.49170796e-01  2.35182752e-06  1.80000000e+00  2.35182752e-06  5.30665239e-06  2.35182752e-06  6.49279914e-01                                 
 2.68138433e-06  7.19496674e-01  2.68138433e-06  6.50210982e-01  2.68138433e-06  6.50610093e-01  2.68138433e-06  1.80000000e+00  2.68138433e-06  5.28242112e-06  2.68138433e-06  6.50210982e-01                                 
 3.22741252e-06  7.18588855e-01  3.22741252e-06  6.49430472e-01  3.22741252e-06  6.49408718e-01  3.22741252e-06  1.80000000e+00  3.22741252e-06  5.28404061e-06  3.22741252e-06  6.49430472e-01                                 
 4.08867531e-06  7.19374903e-01  4.08867531e-06  6.50105974e-01  4.08867531e-06  6.50458566e-01  4.08867531e-06  1.80000000e+00  4.08867531e-06  5.29421139e-06  4.08867531e-06  6.50105974e-01                                 
 5.08867531e-06  7.18683912e-01  5.08867531e-06  6.49512532e-01  5.08867531e-06  6.49521730e-01  5.08867531e-06  1.80000000e+00  5.08867531e-06  5.27666828e-06  5.08867531e-06  6.49512532e-01                                 
 6.08867531e-06  7.19285665e-01  6.08867531e-06  6.50029091e-01  6.08867531e-06  6.50354461e-01  6.08867531e-06  1.80000000e+00  6.08867531e-06  5.30018758e-06  6.08867531e-06  6.50029091e-01                                 
 7.08867531e-06  7.18775821e-01  7.08867531e-06  6.49591823e-01  7.08867531e-06  6.49626933e-01  7.08867531e-06  1.80000000e+00  7.08867531e-06  5.27149035e-06  7.08867531e-06  6.49591823e-01                                 
 8.08867531e-06  7.19194253e-01  8.08867531e-06  6.49950367e-01  8.08867531e-06  6.50250988e-01  8.08867531e-06  1.80000000e+00  8.08867531e-06  5.30456013e-06  8.08867531e-06  6.49950367e-01                                 
 9.08867531e-06  7.18877678e-01  9.08867531e-06  6.49680312e-01  9.08867531e-06  6.49734752e-01  9.08867531e-06  1.80000000e+00  9.08867531e-06  5.26795959e-06  9.08867531e-06  6.49680312e-01                                 
 1.00005000e-05  7.19100612e-01  1.00005000e-05  6.49870049e-01  1.00005000e-05  6.50145293e-01  1.00005000e-05  1.80000000e+00  1.00005000e-05  5.30734424e-06  1.00005000e-05  6.49870049e-01                                 
 1.00005500e-05  7.19101807e-01  1.00005500e-05  6.49870943e-01  1.00005500e-05  6.43278419e-01  1.00005500e-05  1.62000000e+00  1.00005500e-05 -1.24956681e-04  1.00005500e-05  6.49870943e-01                                 
 1.00006500e-05  7.19103859e-01  1.00006500e-05  6.49872650e-01  1.00006500e-05  6.31861444e-01  1.00006500e-05  1.26000000e+00  1.00006500e-05 -9.50171904e-05  1.00006500e-05  6.49872650e-01                                 
 1.00008500e-05  7.19107617e-01  1.00008500e-05  6.49875889e-01  1.00008500e-05  6.23417759e-01  1.00008500e-05  5.40000000e-01  1.00008500e-05  7.00056247e-03  1.00008500e-05  6.49875889e-01                                 
 1.00010000e-05  7.19110259e-01  1.00010000e-05  6.49878146e-01  1.00010000e-05  5.64313518e-01  1.00010000e-05  0.00000000e+00  1.00010000e-05  1.53575049e+00  1.00010000e-05  6.49878146e-01                                 
 1.00010250e-05  7.19110661e-01  1.00010250e-05  6.49878502e-01  1.00010250e-05  5.39023684e-01  1.00010250e-05  0.00000000e+00  1.00010250e-05  1.69700638e+00  1.00010250e-05  6.49878502e-01                                 
 1.00010750e-05  7.19111514e-01  1.00010750e-05  6.49879230e-01  1.00010750e-05  5.02260723e-01  1.00010750e-05  0.00000000e+00  1.00010750e-05  1.81948671e+00  1.00010750e-05  6.49879230e-01                                 
 1.00011751e-05  7.19113246e-01  1.00011751e-05  6.49880700e-01  1.00011751e-05  4.84411076e-01  1.00011751e-05  0.00000000e+00  1.00011751e-05  1.78945737e+00  1.00011751e-05  6.49880700e-01                                 
 1.00013188e-05  7.19115578e-01  1.00013188e-05  6.49882728e-01  1.00013188e-05  4.91232170e-01  1.00013188e-05  0.00000000e+00  1.00013188e-05  1.80716745e+00  1.00013188e-05  6.49882728e-01                                 
 1.00014731e-05  7.19117958e-01  1.00014731e-05  6.49884787e-01  1.00014731e-05  4.91442275e-01  1.00014731e-05  0.00000000e+00  1.00014731e-05  1.79533498e+00  1.00014731e-05  6.49884787e-01                                 
 1.00017451e-05  7.19121933e-01  1.00017451e-05  6.49888232e-01  1.00017451e-05  4.93098479e-01  1.00017451e-05  0.00000000e+00  1.00017451e-05  1.80375885e+00  1.00017451e-05  6.49888232e-01                                 
 1.00022321e-05  7.19128663e-01  1.00022321e-05  6.49894057e-01  1.00022321e-05  4.93007981e-01  1.00022321e-05  0.00000000e+00  1.00022321e-05  1.79668853e+00  1.00022321e-05  6.49894057e-01                                 
 1.00028280e-05  7.19136535e-01  1.00028280e-05  6.49900861e-01  1.00028280e-05  4.93402438e-01  1.00028280e-05  0.00000000e+00  1.00028280e-05  1.80296800e+00  1.00028280e-05  6.49900861e-01                                 
 1.00040199e-05  7.19151698e-01  1.00040199e-05  6.49913946e-01  1.00040199e-05  4.93346299e-01  1.00040199e-05  0.00000000e+00  1.00040199e-05  1.79717318e+00  1.00040199e-05  6.49913946e-01                                 
 1.00064036e-05  7.19179860e-01  1.00064036e-05  6.49938241e-01  1.00064036e-05  4.94331421e-01  1.00064036e-05  0.00000000e+00  1.00064036e-05  1.80274388e+00  1.00064036e-05  6.49938241e-01                                 
 1.00111710e-05  7.19226567e-01  1.00111710e-05  6.49978563e-01  1.00111710e-05  4.95911100e-01  1.00111710e-05  0.00000000e+00  1.00111710e-05  1.79728302e+00  1.00111710e-05  6.49978563e-01                                 
