 time            v(vbep)         time            v(vben)         time            v(vout)         time            v(vphi1)        time            v(vphi2)        time            v(vref)         time            v(voutc)        time            v(voutcc)       yes             currtemp       
 0.00000000e+00  7.91505546e-01  0.00000000e+00  7.35723481e-01  0.00000000e+00  1.64029011e+00  0.00000000e+00  0.00000000e+00  0.00000000e+00  1.80000000e+00  0.00000000e+00  7.38610768e-01  0.00000000e+00  1.64029011e+00  0.00000000e+00  1.64626723e+00  1.00000000e+00  1.50000000e+01 
 1.00000000e-11  7.91529866e-01  1.00000000e-11  7.35794396e-01  1.00000000e-11  1.64108623e+00  1.00000000e-11  1.80000000e-02  1.00000000e-11  1.80024853e+00  1.00000000e-11  7.39137161e-01  1.00000000e-11  1.64075661e+00  1.00000000e-11  1.64628095e+00                                 
 2.00000000e-11  7.91536528e-01  2.00000000e-11  7.35839013e-01  2.00000000e-11  1.64159268e+00  2.00000000e-11  3.60000000e-02  2.00000000e-11  1.80034900e+00  2.00000000e-11  7.39530294e-01  2.00000000e-11  1.64111401e+00  2.00000000e-11  1.64628647e+00                                 
 4.00000000e-11  7.91536343e-01  4.00000000e-11  7.35897717e-01  4.00000000e-11  1.64222571e+00  4.00000000e-11  7.20000000e-02  4.00000000e-11  1.80039027e+00  4.00000000e-11  7.40106718e-01  4.00000000e-11  1.64165292e+00  4.00000000e-11  1.64628886e+00                                 
 8.00000000e-11  7.91524381e-01  8.00000000e-11  7.35934484e-01  8.00000000e-11  1.64241786e+00  8.00000000e-11  1.44000000e-01  8.00000000e-11  1.80018991e+00  8.00000000e-11  7.40553688e-01  8.00000000e-11  1.64211307e+00  8.00000000e-11  1.64627829e+00                                 
 1.60000000e-10  7.91521188e-01  1.60000000e-10  7.35941817e-01  1.60000000e-10  1.64210767e+00  1.60000000e-10  2.88000000e-01  1.60000000e-10  1.80000508e+00  1.60000000e-10  7.40609743e-01  1.60000000e-10  1.64220126e+00  1.60000000e-10  1.64626780e+00                                 
 3.20000000e-10  7.91517968e-01  3.20000000e-10  7.35944296e-01  3.20000000e-10  1.64176927e+00  3.20000000e-10  5.76000000e-01  3.20000000e-10  1.80000258e+00  3.20000000e-10  7.40515284e-01  3.20000000e-10  1.64199945e+00  3.20000000e-10  1.64626480e+00                                 
 6.40000000e-10  7.91439846e-01  6.40000000e-10  7.35643521e-01  6.40000000e-10  1.63814996e+00  6.40000000e-10  1.15200000e+00  6.40000000e-10  1.81281724e+00  6.40000000e-10  7.39125567e-01  6.40000000e-10  1.64706763e+00  6.40000000e-10  1.64629430e+00                                 
 9.99791657e-10  7.92026379e-01  9.99791657e-10  7.35779836e-01  9.99791657e-10  1.61005564e+00  9.99791657e-10  1.79962498e+00  9.99791657e-10  8.39876678e-02  9.99791657e-10  7.45435771e-01  9.99791657e-10  1.64191515e+00  9.99791657e-10  1.64621875e+00                                 
 1.00000000e-09  7.92026644e-01  1.00000000e-09  7.35779463e-01  1.00000000e-09  1.61003527e+00  1.00000000e-09  1.80000000e+00  1.00000000e-09  8.22537442e-02  1.00000000e-09  7.45446717e-01  1.00000000e-09  1.64190018e+00  1.00000000e-09  1.64621842e+00                                 
 1.00041669e-09  7.92023957e-01  1.00041669e-09  7.35772963e-01  1.00041669e-09  1.60996036e+00  1.00041669e-09  1.80000000e+00  1.00041669e-09  7.89293132e-02  1.00041669e-09  7.45440034e-01  1.00041669e-09  1.64184727e+00  1.00041669e-09  1.64621664e+00                                 
 1.00125006e-09  7.92020364e-01  1.00125006e-09  7.35764225e-01  1.00125006e-09  1.60983025e+00  1.00125006e-09  1.80000000e+00  1.00125006e-09  7.25566796e-02  1.00125006e-09  7.45440283e-01  1.00125006e-09  1.64175815e+00  1.00125006e-09  1.64621462e+00                                 
 1.00291680e-09  7.92013789e-01  1.00291680e-09  7.35752787e-01  1.00291680e-09  1.60963150e+00  1.00291680e-09  1.80000000e+00  1.00291680e-09  6.12734403e-02  1.00291680e-09  7.45485269e-01  1.00291680e-09  1.64164002e+00  1.00291680e-09  1.64621350e+00                                 
 1.00625029e-09  7.92002385e-01  1.00625029e-09  7.35745325e-01  1.00625029e-09  1.60941859e+00  1.00625029e-09  1.80000000e+00  1.00625029e-09  4.35832997e-02  1.00625029e-09  7.45706953e-01  1.00625029e-09  1.64158896e+00  1.00625029e-09  1.64621934e+00                                 
 1.01291726e-09  7.91987722e-01  1.01291726e-09  7.35764225e-01  1.01291726e-09  1.60944158e+00  1.01291726e-09  1.80000000e+00  1.01291726e-09  2.18033897e-02  1.01291726e-09  7.46438900e-01  1.01291726e-09  1.64193420e+00  1.01291726e-09  1.64624536e+00                                 
 1.02625120e-09  7.91983358e-01  1.02625120e-09  7.35834843e-01  1.02625120e-09  1.61002144e+00  1.02625120e-09  1.80000000e+00  1.02625120e-09  5.11773563e-03  1.02625120e-09  7.48040478e-01  1.02625120e-09  1.64312583e+00  1.02625120e-09  1.64629241e+00                                 
 1.05291909e-09  7.92015188e-01  1.05291909e-09  7.35913336e-01  1.05291909e-09  1.61069846e+00  1.05291909e-09  1.80000000e+00  1.05291909e-09  6.23341924e-04  1.05291909e-09  7.49964882e-01  1.05291909e-09  1.64478248e+00  1.05291909e-09  1.64630929e+00                                 
 1.10625486e-09  7.92086700e-01  1.10625486e-09  7.35882025e-01  1.10625486e-09  1.61026556e+00  1.10625486e-09  1.80000000e+00  1.10625486e-09  8.77268967e-04  1.10625486e-09  7.50952152e-01  1.10625486e-09  1.64566899e+00  1.10625486e-09  1.64627726e+00                                 
 1.21292640e-09  7.92195106e-01  1.21292640e-09  7.35790007e-01  1.21292640e-09  1.60855840e+00  1.21292640e-09  1.80000000e+00  1.21292640e-09  2.80223694e-04  1.21292640e-09  7.51481634e-01  1.21292640e-09  1.64610758e+00  1.21292640e-09  1.64627889e+00                                 
 1.42626949e-09  7.92289504e-01  1.42626949e-09  7.35756836e-01  1.42626949e-09  1.60595500e+00  1.42626949e-09  1.80000000e+00  1.42626949e-09  2.79284435e-04  1.42626949e-09  7.51585986e-01  1.42626949e-09  1.64619619e+00  1.42626949e-09  1.64627911e+00                                 
 1.69770838e-09  7.92187664e-01  1.69770838e-09  7.35735272e-01  1.69770838e-09  1.60553668e+00  1.69770838e-09  1.80000000e+00  1.69770838e-09 -1.45316778e-04  1.69770838e-09  7.50558150e-01  1.69770838e-09  1.64531827e+00  1.69770838e-09  1.64628726e+00                                 
 2.01648865e-09  7.91980880e-01  2.01648865e-09  7.35723223e-01  2.01648865e-09  1.60681862e+00  2.01648865e-09  1.80000000e+00  2.01648865e-09  7.40910868e-05  2.01648865e-09  7.49439577e-01  2.01648865e-09  1.64437160e+00  2.01648865e-09  1.64631000e+00                                 
 2.34452688e-09  7.91785839e-01  2.34452688e-09  7.35708809e-01  2.34452688e-09  1.60804075e+00  2.34452688e-09  1.80000000e+00  2.34452688e-09 -1.55193614e-04  2.34452688e-09  7.48257074e-01  2.34452688e-09  1.64336255e+00  2.34452688e-09  1.64633521e+00                                 
 2.87874507e-09  7.91578951e-01  2.87874507e-09  7.35700083e-01  2.87874507e-09  1.60971335e+00  2.87874507e-09  1.80000000e+00  2.87874507e-09  5.58784122e-05  2.87874507e-09  7.46553218e-01  2.87874507e-09  1.64191637e+00  2.87874507e-09  1.64638139e+00                                 
 3.91399326e-09  7.91415427e-01  3.91399326e-09  7.35693015e-01  3.91399326e-09  1.61136347e+00  3.91399326e-09  1.80000000e+00  3.91399326e-09 -1.42868369e-04  3.91399326e-09  7.43727035e-01  3.91399326e-09  1.63950892e+00  3.91399326e-09  1.64644861e+00                                 
 5.98448966e-09  7.91397462e-01  5.98448966e-09  7.35705762e-01  5.98448966e-09  1.61118639e+00  5.98448966e-09  1.80000000e+00  5.98448966e-09  5.95288143e-05  5.98448966e-09  7.40143309e-01  5.98448966e-09  1.63646492e+00  5.98448966e-09  1.64647377e+00                                 
 7.81276936e-09  7.91406279e-01  7.81276936e-09  7.35714645e-01  7.81276936e-09  1.60973057e+00  7.81276936e-09  1.80000000e+00  7.81276936e-09 -1.19926093e-04  7.81276936e-09  7.38561533e-01  7.81276936e-09  1.63511801e+00  7.81276936e-09  1.64637261e+00                                 
 9.48549593e-09  7.91395105e-01  9.48549593e-09  7.35720614e-01  9.48549593e-09  1.60890515e+00  9.48549593e-09  1.80000000e+00  9.48549593e-09  8.02763288e-05  9.48549593e-09  7.37888510e-01  9.48549593e-09  1.63454811e+00  9.48549593e-09  1.64621533e+00                                 
 1.13335633e-08  7.91408232e-01  1.13335633e-08  7.35721123e-01  1.13335633e-08  1.60721943e+00  1.13335633e-08  1.80000000e+00  1.13335633e-08 -1.01283047e-04  1.13335633e-08  7.37511871e-01  1.13335633e-08  1.63422147e+00  1.13335633e-08  1.64600061e+00                                 
 1.38298584e-08  7.91442446e-01  1.38298584e-08  7.35723442e-01  1.38298584e-08  1.60323031e+00  1.38298584e-08  1.80000000e+00  1.38298584e-08  8.61486302e-05  1.38298584e-08  7.37394667e-01  1.38298584e-08  1.63411632e+00  1.38298584e-08  1.64569251e+00                                 
 1.69629365e-08  7.91477341e-01  1.69629365e-08  7.35722408e-01  1.69629365e-08  1.59589724e+00  1.69629365e-08  1.80000000e+00  1.69629365e-08 -9.41672021e-05  1.69629365e-08  7.37419414e-01  1.69629365e-08  1.63412055e+00  1.69629365e-08  1.64530725e+00                                 
 2.12159098e-08  7.91502776e-01  2.12159098e-08  7.35724275e-01  2.12159098e-08  1.58397633e+00  2.12159098e-08  1.80000000e+00  2.12159098e-08  8.67942869e-05  2.12159098e-08  7.37607020e-01  2.12159098e-08  1.63426305e+00  2.12159098e-08  1.64482834e+00                                 
 2.70711314e-08  7.91511152e-01  2.70711314e-08  7.35723056e-01  2.70711314e-08  1.56612763e+00  2.70711314e-08  1.80000000e+00  2.70711314e-08 -9.21971624e-05  2.70711314e-08  7.37811159e-01  2.70711314e-08  1.63440969e+00  2.70711314e-08  1.64425314e+00                                 
 3.67462670e-08  7.91511648e-01  3.67462670e-08  7.35724387e-01  3.67462670e-08  1.53568498e+00  3.67462670e-08  1.80000000e+00  3.67462670e-08  8.61404890e-05  3.67462670e-08  7.38109456e-01  3.67462670e-08  1.63463680e+00  3.67462670e-08  1.64349559e+00                                 
 5.26451966e-08  7.91507881e-01  5.26451966e-08  7.35722827e-01  5.26451966e-08  1.48486679e+00  5.26451966e-08  1.80000000e+00  5.26451966e-08 -9.18799047e-05  5.26451966e-08  7.38353075e-01  5.26451966e-08  1.63481209e+00  5.26451966e-08  1.64262123e+00                                 
 8.27931862e-08  7.91506833e-01  8.27931862e-08  7.35724189e-01  8.27931862e-08  1.38810314e+00  8.27931862e-08  1.80000000e+00  8.27931862e-08  8.58044265e-05  8.27931862e-08  7.38571016e-01  8.27931862e-08  1.63497566e+00  8.27931862e-08  1.64171295e+00                                 
 1.43089166e-07  7.91505066e-01  1.43089166e-07  7.35722777e-01  1.43089166e-07  1.19575977e+00  1.43089166e-07  1.80000000e+00  1.43089166e-07 -9.16909695e-05  1.43089166e-07  7.38606794e-01  1.43089166e-07  1.63498900e+00  1.43089166e-07  1.64109494e+00                                 
 2.17677336e-07  7.91505992e-01  2.17677336e-07  7.35724186e-01  2.17677336e-07  9.63256478e-01  2.17677336e-07  1.80000000e+00  2.17677336e-07  8.61862673e-05  2.17677336e-07  7.38619049e-01  2.17677336e-07  1.63499732e+00  2.17677336e-07  1.64098660e+00                                 
 3.13268405e-07  7.91505236e-01  3.13268405e-07  7.35722779e-01  3.13268405e-07  7.66473827e-01  3.13268405e-07  1.80000000e+00  3.13268405e-07 -8.87450513e-05  3.13268405e-07  7.38600092e-01  3.13268405e-07  1.63497394e+00  3.13268405e-07  1.64097076e+00                                 
 3.92715888e-07  7.91506021e-01  3.92715888e-07  7.35724219e-01  3.92715888e-07  7.35736913e-01  3.92715888e-07  1.80000000e+00  3.92715888e-07  8.86767619e-05  3.92715888e-07  7.38624234e-01  3.92715888e-07  1.63499428e+00  3.92715888e-07  1.64097161e+00                                 
 4.44764736e-07  7.91504333e-01  4.44764736e-07  7.35722669e-01  4.44764736e-07  7.42242972e-01  4.44764736e-07  1.80000000e+00  4.44764736e-07 -8.81484638e-05  4.44764736e-07  7.38597831e-01  4.44764736e-07  1.63496694e+00  4.44764736e-07  1.64096772e+00                                 
 4.89642087e-07  7.91507120e-01  4.89642087e-07  7.35724340e-01  4.89642087e-07  7.41376078e-01  4.89642087e-07  1.80000000e+00  4.89642087e-07  8.84704906e-05  4.89642087e-07  7.38623008e-01  4.89642087e-07  1.63498940e+00  4.89642087e-07  1.64096671e+00                                 
 5.38747524e-07  7.91503871e-01  5.38747524e-07  7.35722602e-01  5.38747524e-07  7.41632863e-01  5.38747524e-07  1.80000000e+00  5.38747524e-07 -8.81666263e-05  5.38747524e-07  7.38598785e-01  5.38747524e-07  1.63496407e+00  5.38747524e-07  1.64096360e+00                                 
 6.01460892e-07  7.91507244e-01  6.01460892e-07  7.35724371e-01  6.01460892e-07  7.41463571e-01  6.01460892e-07  1.80000000e+00  6.01460892e-07  8.84241329e-05  6.01460892e-07  7.38622621e-01  6.01460892e-07  1.63498472e+00  6.01460892e-07  1.64096238e+00                                 
 6.92271046e-07  7.91503855e-01  6.92271046e-07  7.35722590e-01  6.92271046e-07  7.41592855e-01  6.92271046e-07  1.80000000e+00  6.92271046e-07 -8.81504838e-05  6.92271046e-07  7.38599001e-01  6.92271046e-07  1.63495826e+00  6.92271046e-07  1.64095758e+00                                 
 8.20828586e-07  7.91507226e-01  8.20828586e-07  7.35724376e-01  8.20828586e-07  7.41490994e-01  8.20828586e-07  1.80000000e+00  8.20828586e-07  8.83841144e-05  8.20828586e-07  7.38622497e-01  8.20828586e-07  1.63497604e+00  8.20828586e-07  1.64095385e+00                                 
 1.01724896e-06  7.91503878e-01  1.01724896e-06  7.35722588e-01  1.01724896e-06  7.41580744e-01  1.01724896e-06  1.80000000e+00  1.01724896e-06 -8.81307566e-05  1.01724896e-06  7.38599078e-01  1.01724896e-06  1.63494565e+00  1.01724896e-06  1.64094491e+00                                 
 1.31860791e-06  7.91507207e-01  1.31860791e-06  7.35724376e-01  1.31860791e-06  7.41500277e-01  1.31860791e-06  1.80000000e+00  1.31860791e-06  8.83680401e-05  1.31860791e-06  7.38622450e-01  1.31860791e-06  1.63495659e+00  1.31860791e-06  1.64093447e+00                                 
 1.78720720e-06  7.91503892e-01  1.78720720e-06  7.35722588e-01  1.78720720e-06  7.41576485e-01  1.78720720e-06  1.80000000e+00  1.78720720e-06 -8.81212918e-05  1.78720720e-06  7.38599106e-01  1.78720720e-06  1.63491561e+00  1.78720720e-06  1.64091491e+00                                 
 2.52977498e-06  7.91507198e-01  2.52977498e-06  7.35724377e-01  2.52977498e-06  7.41503750e-01  2.52977498e-06  1.80000000e+00  2.52977498e-06  8.83614153e-05  2.52977498e-06  7.38622434e-01  2.52977498e-06  1.63490927e+00  2.52977498e-06  1.64088725e+00                                 
 3.72977498e-06  7.91503898e-01  3.72977498e-06  7.35722587e-01  3.72977498e-06  7.41574579e-01  3.72977498e-06  1.80000000e+00  3.72977498e-06 -8.81249754e-05  3.72977498e-06  7.38599117e-01  3.72977498e-06  1.63483971e+00  3.72977498e-06  1.64083913e+00                                 
 4.92977498e-06  7.91507193e-01  4.92977498e-06  7.35724377e-01  4.92977498e-06  7.41508402e-01  4.92977498e-06  1.80000000e+00  4.92977498e-06  8.83352405e-05  4.92977498e-06  7.38622423e-01  4.92977498e-06  1.63481543e+00  4.92977498e-06  1.64079359e+00                                 
 6.00100000e-06  7.91503902e-01  6.00100000e-06  7.35722586e-01  6.00100000e-06  7.41577276e-01  6.00100000e-06  1.80000000e+00  6.00100000e-06 -8.80267362e-05  6.00100000e-06  7.38599123e-01  6.00100000e-06  1.63475100e+00  6.00100000e-06  1.64075057e+00                                 
 6.00110000e-06  7.91466233e-01  6.00110000e-06  7.35483543e-01  6.00110000e-06  7.39644285e-01  6.00110000e-06  1.62000000e+00  6.00110000e-06 -1.07275159e-04  6.00110000e-06  7.36898961e-01  6.00110000e-06  1.63330602e+00  6.00110000e-06  1.64073888e+00                                 
 6.00130000e-06  7.91498322e-01  6.00130000e-06  7.35510070e-01  6.00130000e-06  7.40116664e-01  6.00130000e-06  1.26000000e+00  6.00130000e-06  3.87227160e-05  6.00130000e-06  7.36989632e-01  6.00130000e-06  1.63338582e+00  6.00130000e-06  1.64075798e+00                                 
 6.00170000e-06  7.91543031e-01  6.00170000e-06  7.35387064e-01  6.00170000e-06  7.51867981e-01  6.00170000e-06  5.40000000e-01  6.00170000e-06  1.29730491e+00  6.00170000e-06  7.34001384e-01  6.00170000e-06  1.58998550e+00  6.00170000e-06  1.64055832e+00                                 
 6.00200000e-06  7.91493421e-01  6.00200000e-06  7.32995327e-01  6.00200000e-06  7.85041973e-01  6.00200000e-06  0.00000000e+00  6.00200000e-06  1.83198083e+00  6.00200000e-06  7.07904111e-01  6.00200000e-06  1.30155480e+00  6.00200000e-06  1.64007187e+00                                 
 6.00204082e-06  7.91504311e-01  6.00204082e-06  7.32949874e-01  6.00204082e-06  7.81706427e-01  6.00204082e-06  0.00000000e+00  6.00204082e-06  1.81087047e+00  6.00204082e-06  7.07621047e-01  6.00204082e-06  1.25156333e+00  6.00204082e-06  1.64047070e+00                                 
 6.00212245e-06  7.91506966e-01  6.00212245e-06  7.33056478e-01  6.00212245e-06  7.75052009e-01  6.00212245e-06  0.00000000e+00  6.00212245e-06  1.79515179e+00  6.00212245e-06  7.09480620e-01  6.00212245e-06  1.16615626e+00  6.00212245e-06  1.64088534e+00                                 
 6.00228571e-06  7.91503643e-01  6.00228571e-06  7.33389057e-01  6.00228571e-06  7.68878719e-01  6.00228571e-06  0.00000000e+00  6.00228571e-06  1.80111263e+00  6.00228571e-06  7.13897336e-01  6.00228571e-06  1.03936711e+00  6.00228571e-06  1.64087244e+00                                 
 6.00248398e-06  7.91505309e-01  6.00248398e-06  7.33756307e-01  6.00248398e-06  7.64125662e-01  6.00248398e-06  0.00000000e+00  6.00248398e-06  1.79845645e+00  6.00248398e-06  7.17517826e-01  6.00248398e-06  9.22492812e-01  6.00248398e-06  1.64101942e+00                                 
 6.00271982e-06  7.91503496e-01  6.00271982e-06  7.34465904e-01  6.00271982e-06  7.56779216e-01  6.00271982e-06  0.00000000e+00  6.00271982e-06  1.80015545e+00  6.00271982e-06  7.24298518e-01  6.00271982e-06  8.27526789e-01  6.00271982e-06  1.64102500e+00                                 
 6.00312578e-06  7.91505293e-01  6.00312578e-06  7.35575869e-01  6.00312578e-06  7.46035744e-01  6.00312578e-06  0.00000000e+00  6.00312578e-06  1.79950883e+00  6.00312578e-06  7.34021373e-01  6.00312578e-06  7.55863875e-01  6.00312578e-06  1.64098121e+00                                 
 6.00341653e-06  7.91504046e-01  6.00341653e-06  7.36039410e-01  6.00341653e-06  7.42897945e-01  6.00341653e-06  0.00000000e+00  6.00341653e-06  1.80037698e+00  6.00341653e-06  7.37562918e-01  6.00341653e-06  7.46739505e-01  6.00341653e-06  1.64067559e+00                                 
 6.00375934e-06  7.91505607e-01  6.00375934e-06  7.36214731e-01  6.00375934e-06  7.42618824e-01  6.00375934e-06  0.00000000e+00  6.00375934e-06  1.79976421e+00  6.00375934e-06  7.38536527e-01  6.00375934e-06  7.43008639e-01  6.00375934e-06  1.64015729e+00                                 
 6.00413750e-06  7.91504585e-01  6.00413750e-06  7.36287959e-01  6.00413750e-06  7.42311663e-01  6.00413750e-06  0.00000000e+00  6.00413750e-06  1.80018723e+00  6.00413750e-06  7.39320265e-01  6.00413750e-06  7.42719312e-01  6.00413750e-06  1.63936240e+00                                 
 6.00489381e-06  7.91505948e-01  6.00489381e-06  7.36222778e-01  6.00489381e-06  7.43731141e-01  6.00489381e-06  0.00000000e+00  6.00489381e-06  1.79986154e+00  6.00489381e-06  7.39400444e-01  6.00489381e-06  7.43170906e-01  6.00489381e-06  1.63758197e+00                                 
 6.00605521e-06  7.91504954e-01  6.00605521e-06  7.36120540e-01  6.00605521e-06  7.45299242e-01  6.00605521e-06  0.00000000e+00  6.00605521e-06  1.80013746e+00  6.00605521e-06  7.39766339e-01  6.00605521e-06  7.45359532e-01  6.00605521e-06  1.63450619e+00                                 
