 time            v(vbep)         time            v(vben)         time            v(vout)         time            v(vphi1)        time            v(vphi2)        time            v(vref)         yes             currtemp       
 0.00000000e+00  6.64705846e-01  0.00000000e+00  6.07454867e-01  0.00000000e+00  1.01546301e+00  0.00000000e+00  0.00000000e+00  0.00000000e+00  1.79995066e+00  0.00000000e+00  6.07454867e-01  1.00000000e+00  4.00000000e+01 
 5.00000000e-12  6.64676044e-01  5.00000000e-12  6.07430198e-01  5.00000000e-12  1.01619356e+00  5.00000000e-12  1.80000000e-02  5.00000000e-12  1.80007759e+00  5.00000000e-12  6.07430198e-01                                 
 1.00000000e-11  6.64647052e-01  1.00000000e-11  6.07406183e-01  1.00000000e-11  1.01685865e+00  1.00000000e-11  3.60000000e-02  1.00000000e-11  1.80015343e+00  1.00000000e-11  6.07406183e-01                                 
 2.00000000e-11  6.64589564e-01  2.00000000e-11  6.07358343e-01  2.00000000e-11  1.01808511e+00  2.00000000e-11  7.20000000e-02  2.00000000e-11  1.80023886e+00  2.00000000e-11  6.07358343e-01                                 
 4.00000000e-11  6.64475440e-01  4.00000000e-11  6.07263044e-01  4.00000000e-11  1.02005999e+00  4.00000000e-11  1.44000000e-01  4.00000000e-11  1.80023098e+00  4.00000000e-11  6.07263044e-01                                 
 8.00000000e-11  6.64248324e-01  8.00000000e-11  6.07073313e-01  8.00000000e-11  1.02268872e+00  8.00000000e-11  2.88000000e-01  8.00000000e-11  1.80013250e+00  8.00000000e-11  6.07073313e-01                                 
 1.60000000e-10  6.63798989e-01  1.60000000e-10  6.06697292e-01  1.60000000e-10  1.02488369e+00  1.60000000e-10  5.76000000e-01  1.60000000e-10  1.80002050e+00  1.60000000e-10  6.06697292e-01                                 
 3.20000000e-10  6.62918737e-01  3.20000000e-10  6.05958518e-01  3.20000000e-10  1.01754347e+00  3.20000000e-10  1.15200000e+00  3.20000000e-10  1.80027678e+00  3.20000000e-10  6.05958518e-01                                 
 5.00000000e-10  6.61956789e-01  5.00000000e-10  6.05147793e-01  5.00000000e-10  1.12288601e+00  5.00000000e-10  1.80000000e+00  5.00000000e-10  1.54620625e-01  5.00000000e-10  6.05147793e-01                                 
 5.21457072e-10  6.61844271e-01  5.21457072e-10  6.05052715e-01  5.21457072e-10  1.14956261e+00  5.21457072e-10  1.80000000e+00  5.21457072e-10  3.88853576e-02  5.21457072e-10  6.05052715e-01                                 
 5.64371215e-10  6.61620017e-01  5.64371215e-10  6.04863116e-01  5.64371215e-10  1.20271685e+00  5.64371215e-10  1.80000000e+00  5.64371215e-10 -1.44702860e-02  5.64371215e-10  6.04863116e-01                                 
 6.50199501e-10  6.61176228e-01  6.50199501e-10  6.04487359e-01  6.50199501e-10  1.29886888e+00  6.50199501e-10  1.80000000e+00  6.50199501e-10  1.23207285e-02  6.50199501e-10  6.04487359e-01                                 
 7.70398472e-10  6.60565043e-01  7.70398472e-10  6.03968675e-01  7.70398472e-10  1.41687432e+00  7.70398472e-10  1.80000000e+00  7.70398472e-10 -9.29344671e-03  7.70398472e-10  6.03968675e-01                                 
 9.52571098e-10  6.59660745e-01  9.52571098e-10  6.03198737e-01  9.52571098e-10  1.56235792e+00  9.52571098e-10  1.80000000e+00  9.52571098e-10  9.22470385e-03  9.52571098e-10  6.03198737e-01                                 
 1.31691635e-09  6.57926196e-01  1.31691635e-09  6.01713753e-01  1.31691635e-09  1.74587683e+00  1.31691635e-09  1.80000000e+00  1.31691635e-09 -8.05011463e-03  1.31691635e-09  6.01713753e-01                                 
 1.67408660e-09  6.56314836e-01  1.67408660e-09  6.00324578e-01  1.67408660e-09  1.82893078e+00  1.67408660e-09  1.80000000e+00  1.67408660e-09  7.93581017e-03  1.67408660e-09  6.00324578e-01                                 
 2.02099661e-09  6.54826269e-01  2.02099661e-09  5.99033181e-01  2.02099661e-09  1.86108551e+00  2.02099661e-09  1.80000000e+00  2.02099661e-09 -7.30399580e-03  2.02099661e-09  5.99033181e-01                                 
 2.38713944e-09  6.53329490e-01  2.38713944e-09  5.97727029e-01  2.38713944e-09  1.87412425e+00  2.38713944e-09  1.80000000e+00  2.38713944e-09  6.98903112e-03  2.38713944e-09  5.97727029e-01                                 
 2.87096863e-09  6.51457059e-01  2.87096863e-09  5.96082640e-01  2.87096863e-09  1.87820628e+00  2.87096863e-09  1.80000000e+00  2.87096863e-09 -6.64183023e-03  2.87096863e-09  5.96082640e-01                                 
 3.53568832e-09  6.49057949e-01  3.53568832e-09  5.93959337e-01  3.53568832e-09  1.87796513e+00  3.53568832e-09  1.80000000e+00  3.53568832e-09  6.47242848e-03  3.53568832e-09  5.93959337e-01                                 
 4.54816900e-09  6.45731114e-01  4.54816900e-09  5.90986003e-01  4.54816900e-09  1.87460884e+00  4.54816900e-09  1.80000000e+00  4.54816900e-09 -6.31186909e-03  4.54816900e-09  5.90986003e-01                                 
 6.24042243e-09  6.40871535e-01  6.24042243e-09  5.86586586e-01  6.24042243e-09  1.87027317e+00  6.24042243e-09  1.80000000e+00  6.24042243e-09  6.26112219e-03  6.24042243e-09  5.86586586e-01                                 
 9.62492927e-09  6.32988014e-01  9.62492927e-09  5.79324584e-01  9.62492927e-09  1.86224399e+00  9.62492927e-09  1.80000000e+00  9.62492927e-09 -6.19222935e-03  9.62492927e-09  5.79324584e-01                                 
 1.21461019e-08  6.28281285e-01  1.21461019e-08  5.74914196e-01  1.21461019e-08  1.85743524e+00  1.21461019e-08  1.80000000e+00  1.21461019e-08  6.17040187e-03  1.21461019e-08  5.74914196e-01                                 
 1.39064202e-08  6.25402282e-01  1.39064202e-08  5.72193503e-01  1.39064202e-08  1.85405502e+00  1.39064202e-08  1.80000000e+00  1.39064202e-08 -6.07304836e-03  1.39064202e-08  5.72193503e-01                                 
 1.53577836e-08  6.23226833e-01  1.53577836e-08  5.70127513e-01  1.53577836e-08  1.85184579e+00  1.53577836e-08  1.80000000e+00  1.53577836e-08  6.01054869e-03  1.53577836e-08  5.70127513e-01                                 
 1.71189657e-08  6.20786614e-01  1.71189657e-08  5.67800748e-01  1.71189657e-08  1.84866531e+00  1.71189657e-08  1.80000000e+00  1.71189657e-08 -5.91776957e-03  1.71189657e-08  5.67800748e-01                                 
 1.90788021e-08  6.18288824e-01  1.90788021e-08  5.65409847e-01  1.90788021e-08  1.84577225e+00  1.90788021e-08  1.80000000e+00  1.90788021e-08  5.87737772e-03  1.90788021e-08  5.65409847e-01                                 
 2.15177875e-08  6.15443520e-01  2.15177875e-08  5.62676683e-01  2.15177875e-08  1.84161431e+00  2.15177875e-08  1.80000000e+00  2.15177875e-08 -5.80625201e-03  2.15177875e-08  5.62676683e-01                                 
 2.49598381e-08  6.11817475e-01  2.49598381e-08  5.59183086e-01  2.49598381e-08  1.83656121e+00  2.49598381e-08  1.80000000e+00  2.49598381e-08  5.79288103e-03  2.49598381e-08  5.59183086e-01                                 
 2.90362756e-08  6.07961734e-01  2.90362756e-08  5.55463698e-01  2.90362756e-08  1.83039630e+00  2.90362756e-08  1.80000000e+00  2.90362756e-08 -5.74210579e-03  2.90362756e-08  5.55463698e-01                                 
 3.54037154e-08  6.02542975e-01  3.54037154e-08  5.50254105e-01  3.54037154e-08  1.82257824e+00  3.54037154e-08  1.80000000e+00  3.54037154e-08  5.74539764e-03  3.54037154e-08  5.50254105e-01                                 
 4.57525123e-08  5.94889530e-01  4.57525123e-08  5.42935946e-01  4.57525123e-08  1.81170595e+00  4.57525123e-08  1.80000000e+00  4.57525123e-08 -5.71157043e-03  4.57525123e-08  5.42935946e-01                                 
 5.68162540e-08  5.87407454e-01  5.68162540e-08  5.35903926e-01  5.68162540e-08  1.80077349e+00  5.68162540e-08  1.80000000e+00  5.68162540e-08  5.72356349e-03  5.68162540e-08  5.35903926e-01                                 
 6.88370050e-08  5.79010256e-01  6.88370050e-08  5.28251661e-01  6.88370050e-08  1.77593864e+00  6.88370050e-08  1.80000000e+00  6.88370050e-08 -5.69258597e-03  6.88370050e-08  5.28251661e-01                                 
 8.36779785e-08  5.70883590e-01  8.36779785e-08  5.20776936e-01  8.36779785e-08  1.74703564e+00  8.36779785e-08  1.80000000e+00  8.36779785e-08  5.70656185e-03  8.36779785e-08  5.20776936e-01                                 
 9.93927529e-08  5.63343059e-01  9.93927529e-08  5.13885215e-01  9.93927529e-08  1.71919185e+00  9.93927529e-08  1.80000000e+00  9.93927529e-08 -5.67697165e-03  9.93927529e-08  5.13885215e-01                                 
 1.24387952e-07  5.54928821e-01  1.24387952e-07  5.06009204e-01  1.24387952e-07  1.67887715e+00  1.24387952e-07  1.80000000e+00  1.24387952e-07  5.69506776e-03  1.24387952e-07  5.06009204e-01                                 
 1.53526291e-07  5.58173061e-01  1.53526291e-07  5.07373863e-01  1.53526291e-07  1.67409024e+00  1.53526291e-07  1.80000000e+00  1.53526291e-07 -5.66551267e-03  1.53526291e-07  5.07373863e-01                                 
 1.74687821e-07  5.59011998e-01  1.74687821e-07  5.07269039e-01  1.74687821e-07  1.65599819e+00  1.74687821e-07  1.80000000e+00  1.74687821e-07  5.68454166e-03  1.74687821e-07  5.07269039e-01                                 
 1.95781290e-07  5.53693795e-01  1.95781290e-07  5.02382044e-01  1.95781290e-07  1.62739043e+00  1.95781290e-07  1.80000000e+00  1.95781290e-07 -5.65587388e-03  1.95781290e-07  5.02382044e-01                                 
 2.14634790e-07  5.49221531e-01  2.14634790e-07  4.98295459e-01  2.14634790e-07  1.60299762e+00  2.14634790e-07  1.80000000e+00  2.14634790e-07  5.67301379e-03  2.14634790e-07  4.98295459e-01                                 
 2.34982782e-07  5.43771156e-01  2.34982782e-07  4.93445444e-01  2.34982782e-07  1.57917135e+00  2.34982782e-07  1.80000000e+00  2.34982782e-07 -5.64408051e-03  2.34982782e-07  4.93445444e-01                                 
 2.69756740e-07  5.34197984e-01  2.69756740e-07  4.85064269e-01  2.69756740e-07  1.53349008e+00  2.69756740e-07  1.80000000e+00  2.69756740e-07  5.66385380e-03  2.69756740e-07  4.85064269e-01                                 
 3.15145571e-07  5.22319451e-01  3.15145571e-07  4.74792506e-01  3.15145571e-07  1.47740923e+00  3.15145571e-07  1.80000000e+00  3.15145571e-07 -5.63808978e-03  3.15145571e-07  4.74792506e-01                                 
 4.05923233e-07  4.95808798e-01  4.05923233e-07  4.52537470e-01  4.05923233e-07  1.35721992e+00  4.05923233e-07  1.80000000e+00  4.05923233e-07  5.65992352e-03  4.05923233e-07  4.52537470e-01                                 
 5.33880329e-07  4.58681650e-01  5.33880329e-07  4.22077827e-01  5.33880329e-07  1.19081388e+00  5.33880329e-07  1.80000000e+00  5.33880329e-07 -5.63592781e-03  5.33880329e-07  4.22077827e-01                                 
 5.49252389e-07  4.51676475e-01  5.49252389e-07  4.16439846e-01  5.49252389e-07  1.16702347e+00  5.49252389e-07  1.80000000e+00  5.49252389e-07 -2.17123063e-06  5.49252389e-07  4.16439846e-01                                 
 5.79996509e-07  4.36459704e-01  5.79996509e-07  4.04213690e-01  5.79996509e-07  1.12009193e+00  5.79996509e-07  1.80000000e+00  5.79996509e-07  1.29620219e-06  5.79996509e-07  4.04213690e-01                                 
 6.41484749e-07  4.31841902e-01  6.41484749e-07  4.00492224e-01  6.41484749e-07  1.05218014e+00  6.41484749e-07  1.80000000e+00  6.41484749e-07 -7.00732156e-07  6.41484749e-07  4.00492224e-01                                 
 6.56856808e-07  4.55889115e-01  6.56856808e-07  4.19732414e-01  6.56856808e-07  1.05949644e+00  6.56856808e-07  1.80000000e+00  6.56856808e-07  3.06778469e-06  6.56856808e-07  4.19732414e-01                                 
 6.87600928e-07  6.04066012e-01  6.87600928e-07  5.40105865e-01  6.87600928e-07  1.16988573e+00  6.87600928e-07  1.80000000e+00  6.87600928e-07  1.50888870e-05  6.87600928e-07  5.40105865e-01                                 
 7.33825918e-07  7.41423165e-01  7.33825918e-07  6.80893850e-01  7.33825918e-07  1.25644229e+00  7.33825918e-07  1.80000000e+00  7.33825918e-07 -2.94558571e-07  7.33825918e-07  6.80893850e-01                                 
 7.85462273e-07  7.83117579e-01  7.85462273e-07  7.18345604e-01  7.85462273e-07  1.24044160e+00  7.85462273e-07  1.80000000e+00  7.85462273e-07  4.84753716e-06  7.85462273e-07  7.18345604e-01                                 
 8.37589408e-07  7.85906472e-01  8.37589408e-07  7.20487607e-01  8.37589408e-07  1.19112111e+00  8.37589408e-07  1.80000000e+00  8.37589408e-07 -3.73528110e-06  8.37589408e-07  7.20487607e-01                                 
 8.84904062e-07  7.84704028e-01  8.84904062e-07  7.19646807e-01  8.84904062e-07  1.13818263e+00  8.84904062e-07  1.80000000e+00  8.84904062e-07  4.36287073e-06  8.84904062e-07  7.19646807e-01                                 
 9.33481360e-07  7.85516531e-01  9.33481360e-07  7.20172087e-01  9.33481360e-07  1.09083649e+00  9.33481360e-07  1.80000000e+00  9.33481360e-07 -3.38939181e-06  9.33481360e-07  7.20172087e-01                                 
 9.81365395e-07  7.60840267e-01  9.81365395e-07  6.99350604e-01  9.81365395e-07  1.01725845e+00  9.81365395e-07  1.80000000e+00  9.81365395e-07  1.87437609e-06  9.81365395e-07  6.99350604e-01                                 
 1.03371232e-06  7.41374021e-01  1.03371232e-06  6.81049588e-01  1.03371232e-06  9.54814112e-01  1.03371232e-06  1.80000000e+00  1.03371232e-06 -2.52769328e-06  1.03371232e-06  6.81049588e-01                                 
 1.04040348e-06  7.43640931e-01  1.04040348e-06  6.83405824e-01  1.04040348e-06  9.50835590e-01  1.04040348e-06  1.80000000e+00  1.04040348e-06  1.32951961e-06  1.04040348e-06  6.83405824e-01                                 
 1.05378581e-06  7.51288876e-01  1.05378581e-06  6.90489212e-01  1.05378581e-06  9.46909195e-01  1.05378581e-06  1.80000000e+00  1.05378581e-06  2.43320638e-06  1.05378581e-06  6.90489212e-01                                 
 1.08055045e-06  7.65084138e-01  1.08055045e-06  7.02866564e-01  1.08055045e-06  9.38973932e-01  1.08055045e-06  1.80000000e+00  1.08055045e-06  1.10739070e-06  1.08055045e-06  7.02866564e-01                                 
 1.13407974e-06  7.74113040e-01  1.13407974e-06  7.10720542e-01  1.13407974e-06  9.08620490e-01  1.13407974e-06  1.80000000e+00  1.13407974e-06  8.95741874e-07  1.13407974e-06  7.10720542e-01                                 
 1.19510302e-06  7.66332906e-01  1.19510302e-06  7.03998168e-01  1.19510302e-06  8.62525032e-01  1.19510302e-06  1.80000000e+00  1.19510302e-06 -1.20238588e-07  1.19510302e-06  7.03998168e-01                                 
 1.27505347e-06  7.59574484e-01  1.27505347e-06  6.98012339e-01  1.27505347e-06  8.09292844e-01  1.27505347e-06  1.80000000e+00  1.27505347e-06  1.16073554e-06  1.27505347e-06  6.98012339e-01                                 
 1.36051255e-06  7.69061651e-01  1.36051255e-06  7.06357366e-01  1.36051255e-06  7.72965660e-01  1.36051255e-06  1.80000000e+00  1.36051255e-06  8.30367322e-07  1.36051255e-06  7.06357366e-01                                 
 1.48193904e-06  7.65458510e-01  1.48193904e-06  7.03239626e-01  1.48193904e-06  7.25744786e-01  1.48193904e-06  1.80000000e+00  1.48193904e-06  7.04120312e-07  1.48193904e-06  7.03239626e-01                                 
 1.60027816e-06  7.62900313e-01  1.60027816e-06  7.00954306e-01  1.60027816e-06  7.02871232e-01  1.60027816e-06  1.80000000e+00  1.60027816e-06  1.01832874e-06  1.60027816e-06  7.00954306e-01                                 
 1.73564106e-06  7.68915089e-01  1.73564106e-06  7.06249081e-01  1.73564106e-06  6.96551735e-01  1.73564106e-06  1.80000000e+00  1.73564106e-06  1.05431758e-06  1.73564106e-06  7.06249081e-01                                 
 1.88175058e-06  7.62845361e-01  1.88175058e-06  7.00915928e-01  1.88175058e-06  6.93397505e-01  1.88175058e-06  1.80000000e+00  1.88175058e-06  7.24983751e-07  1.88175058e-06  7.00915928e-01                                 
 2.09081510e-06  7.67107236e-01  2.09081510e-06  7.04668402e-01  2.09081510e-06  7.08460336e-01  2.09081510e-06  1.80000000e+00  2.09081510e-06  1.34443462e-06  2.09081510e-06  7.04668402e-01                                 
 2.28848814e-06  7.65322470e-01  2.28848814e-06  7.03104207e-01  2.28848814e-06  7.01758972e-01  2.28848814e-06  1.80000000e+00  2.28848814e-06  5.40934112e-07  2.28848814e-06  7.03104207e-01                                 
 2.49577002e-06  7.64807930e-01  2.49577002e-06  7.02652256e-01  2.49577002e-06  7.02958787e-01  2.49577002e-06  1.80000000e+00  2.49577002e-06  1.39909654e-06  2.49577002e-06  7.02652256e-01                                 
 2.74154919e-06  7.67035172e-01  2.74154919e-06  7.04603634e-01  2.74154919e-06  7.05105406e-01  2.74154919e-06  1.80000000e+00  2.74154919e-06  5.82863866e-07  2.74154919e-06  7.04603634e-01                                 
 2.79387383e-06  7.65405197e-01  2.79387383e-06  7.03178575e-01  2.79387383e-06  7.03112636e-01  2.79387383e-06  1.80000000e+00  2.79387383e-06  9.02314855e-07  2.79387383e-06  7.03178575e-01                                 
 2.89852311e-06  7.65210106e-01  2.89852311e-06  7.03004112e-01  2.89852311e-06  7.03027838e-01  2.89852311e-06  1.80000000e+00  2.89852311e-06  1.03433080e-06  2.89852311e-06  7.03004112e-01                                 
 3.10782167e-06  7.66147481e-01  3.10782167e-06  7.03828925e-01  3.10782167e-06  7.04064287e-01  3.10782167e-06  1.80000000e+00  3.10782167e-06  9.29093686e-07  3.10782167e-06  7.03828925e-01                                 
 3.43916651e-06  7.65026066e-01  3.43916651e-06  7.02843247e-01  3.43916651e-06  7.02853397e-01  3.43916651e-06  1.80000000e+00  3.43916651e-06  9.99685046e-07  3.43916651e-06  7.02843247e-01                                 
 4.10185618e-06  7.66170508e-01  4.10185618e-06  7.03848624e-01  4.10185618e-06  7.04075680e-01  4.10185618e-06  1.80000000e+00  4.10185618e-06  9.51574821e-07  4.10185618e-06  7.03848624e-01                                 
 5.09264605e-06  7.65041066e-01  5.09264605e-06  7.02856765e-01  5.09264605e-06  7.02874869e-01  5.09264605e-06  1.80000000e+00  5.09264605e-06  9.87092862e-07  5.09264605e-06  7.02856765e-01                                 
 6.09264605e-06  7.66145913e-01  6.09264605e-06  7.03826762e-01  6.09264605e-06  7.04046389e-01  6.09264605e-06  1.80000000e+00  6.09264605e-06  9.61426785e-07  6.09264605e-06  7.03826762e-01                                 
 7.09264605e-06  7.65075184e-01  7.09264605e-06  7.02886977e-01  7.09264605e-06  7.02913126e-01  7.09264605e-06  1.80000000e+00  7.09264605e-06  9.77549949e-07  7.09264605e-06  7.02886977e-01                                 
 8.09264605e-06  7.66104017e-01  8.09264605e-06  7.03789822e-01  8.09264605e-06  7.04000776e-01  8.09264605e-06  1.80000000e+00  8.09264605e-06  9.70632135e-07  8.09264605e-06  7.03789822e-01                                 
 9.09264605e-06  7.65125989e-01  9.09264605e-06  7.02931854e-01  9.09264605e-06  7.02967077e-01  9.09264605e-06  1.80000000e+00  9.09264605e-06  9.68754583e-07  9.09264605e-06  7.02931854e-01                                 
 1.00005000e-05  7.66044111e-01  1.00005000e-05  7.03737105e-01  1.00005000e-05  7.03938091e-01  1.00005000e-05  1.80000000e+00  1.00005000e-05  9.79347736e-07  1.00005000e-05  7.03737105e-01                                 
 1.00005500e-05  7.66044302e-01  1.00005500e-05  7.03737280e-01  1.00005500e-05  6.96923781e-01  1.00005500e-05  1.62000000e+00  1.00005500e-05 -1.19624080e-04  1.00005500e-05  7.03737280e-01                                 
 1.00006500e-05  7.66044708e-01  1.00006500e-05  7.03737644e-01  1.00006500e-05  6.86218035e-01  1.00006500e-05  1.26000000e+00  1.00006500e-05 -7.56747867e-05  1.00006500e-05  7.03737644e-01                                 
