 time            v(vbep)         time            v(vben)         time            v(vout)         time            v(vphi1)        time            v(vphi2)        time            v(vref)         yes             currtemp       
 0.00000000e+00  7.81138745e-01  0.00000000e+00  7.27651121e-01  0.00000000e+00  1.00762052e+00  0.00000000e+00  0.00000000e+00  0.00000000e+00  1.79939496e+00  0.00000000e+00  5.00000000e-01  1.00000000e+00  1.30000000e+01 
 5.00000000e-12  7.80850471e-01  5.00000000e-12  7.27478348e-01  5.00000000e-12  1.00834491e+00  5.00000000e-12  1.80000000e-02  5.00000000e-12  1.79962750e+00  5.00000000e-12  5.00000000e-01                                 
 1.00000000e-11  7.80619810e-01  1.00000000e-11  7.27338917e-01  1.00000000e-11  1.00899778e+00  1.00000000e-11  3.60000000e-02  1.00000000e-11  1.79978627e+00  1.00000000e-11  5.00000000e-01                                 
 2.00000000e-11  7.80224968e-01  2.00000000e-11  7.27072436e-01  2.00000000e-11  1.01019092e+00  2.00000000e-11  7.20000000e-02  2.00000000e-11  1.80000307e+00  2.00000000e-11  5.00000000e-01                                 
 4.00000000e-11  7.79609050e-01  4.00000000e-11  7.26554952e-01  4.00000000e-11  1.01205662e+00  4.00000000e-11  1.44000000e-01  4.00000000e-11  1.80011753e+00  4.00000000e-11  5.00000000e-01                                 
 8.00000000e-11  7.78474319e-01  8.00000000e-11  7.25531081e-01  8.00000000e-11  1.01442611e+00  8.00000000e-11  2.88000000e-01  8.00000000e-11  1.80006749e+00  8.00000000e-11  5.00000000e-01                                 
 1.60000000e-10  7.76262724e-01  1.60000000e-10  7.23536748e-01  1.60000000e-10  1.01647657e+00  1.60000000e-10  5.76000000e-01  1.60000000e-10  1.80000887e+00  1.60000000e-10  5.00000000e-01                                 
 3.20000000e-10  7.72058814e-01  3.20000000e-10  7.19741414e-01  3.20000000e-10  1.00873850e+00  3.20000000e-10  1.15200000e+00  3.20000000e-10  1.80037007e+00  3.20000000e-10  5.00000000e-01                                 
 5.00000000e-10  7.67675334e-01  5.00000000e-10  7.15777746e-01  5.00000000e-10  1.19276520e+00  5.00000000e-10  1.80000000e+00  5.00000000e-10  1.05917562e-01  5.00000000e-10  5.00000000e-01                                 
 5.21044741e-10  7.67190857e-01  5.21044741e-10  7.15339001e-01  5.21044741e-10  1.23438926e+00  5.21044741e-10  1.80000000e+00  5.21044741e-10  1.97705896e-02  5.21044741e-10  5.00000000e-01                                 
 5.63134224e-10  7.66228836e-01  5.63134224e-10  7.14466722e-01  5.63134224e-10  1.31050718e+00  5.63134224e-10  1.80000000e+00  5.63134224e-10 -9.30227227e-03  5.63134224e-10  5.00000000e-01                                 
 6.47313190e-10  7.64355863e-01  6.47313190e-10  7.12768137e-01  6.47313190e-10  1.43606690e+00  6.47313190e-10  1.80000000e+00  6.47313190e-10  7.95088668e-03  6.47313190e-10  5.00000000e-01                                 
 7.69815823e-10  7.61751413e-01  7.69815823e-10  7.10402394e-01  7.69815823e-10  1.58223922e+00  7.69815823e-10  1.80000000e+00  7.69815823e-10 -6.96669104e-03  7.69815823e-10  5.00000000e-01                                 
 9.59357776e-10  7.57982248e-01  9.59357776e-10  7.06971066e-01  9.59357776e-10  1.74862824e+00  9.59357776e-10  1.80000000e+00  9.59357776e-10  6.59950220e-03  9.59357776e-10  5.00000000e-01                                 
 1.33844168e-09  7.51261797e-01  1.33844168e-09  7.00827289e-01  1.33844168e-09  1.93530524e+00  1.33844168e-09  1.80000000e+00  1.33844168e-09 -6.25250399e-03  1.33844168e-09  5.00000000e-01                                 
 1.60803254e-09  7.47098829e-01  1.60803254e-09  6.96997537e-01  1.60803254e-09  1.99016997e+00  1.60803254e-09  1.80000000e+00  1.60803254e-09  6.03900563e-03  1.60803254e-09  5.00000000e-01                                 
 1.91127011e-09  7.42903435e-01  1.91127011e-09  6.93117048e-01  1.91127011e-09  2.01697711e+00  1.91127011e-09  1.80000000e+00  1.91127011e-09 -5.70639526e-03  1.91127011e-09  5.00000000e-01                                 
 2.23189006e-09  7.38937538e-01  2.23189006e-09  6.89430634e-01  2.23189006e-09  2.02665675e+00  2.23189006e-09  1.80000000e+00  2.23189006e-09  5.52604757e-03  2.23189006e-09  5.00000000e-01                                 
 2.73092908e-09  7.33532140e-01  2.73092908e-09  6.84374705e-01  2.73092908e-09  2.02822502e+00  2.73092908e-09  1.80000000e+00  2.73092908e-09 -5.33711717e-03  2.73092908e-09  5.00000000e-01                                 
 3.34655633e-09  7.27882761e-01  3.34655633e-09  6.79051675e-01  3.34655633e-09  2.02395046e+00  3.34655633e-09  1.80000000e+00  3.34655633e-09  5.25788721e-03  3.34655633e-09  5.00000000e-01                                 
 4.39900537e-09  7.20039705e-01  4.39900537e-09  6.71596975e-01  4.39900537e-09  2.01617515e+00  4.39900537e-09  1.80000000e+00  4.39900537e-09 -5.16209765e-03  4.39900537e-09  5.00000000e-01                                 
 6.00577734e-09  7.10959254e-01  6.00577734e-09  6.62875359e-01  6.00577734e-09  2.00718935e+00  6.00577734e-09  1.80000000e+00  6.00577734e-09  5.15025307e-03  6.00577734e-09  5.00000000e-01                                 
 9.21932130e-09  6.98325638e-01  9.21932130e-09  6.50602907e-01  9.21932130e-09  1.99501705e+00  9.21932130e-09  1.80000000e+00  9.21932130e-09 -5.09235449e-03  9.21932130e-09  5.00000000e-01                                 
 1.06504719e-08  6.94263196e-01  1.06504719e-08  6.46618898e-01  1.06504719e-08  1.99114113e+00  1.06504719e-08  1.80000000e+00  1.06504719e-08  5.07419156e-03  1.06504719e-08  5.00000000e-01                                 
 1.25300581e-08  6.89701913e-01  1.25300581e-08  6.42131213e-01  1.25300581e-08  1.98679474e+00  1.25300581e-08  1.80000000e+00  1.25300581e-08 -5.01434314e-03  1.25300581e-08  5.00000000e-01                                 
 1.45309644e-08  6.85567281e-01  1.45309644e-08  6.38051685e-01  1.45309644e-08  1.98289996e+00  1.45309644e-08  1.80000000e+00  1.45309644e-08  5.00353728e-03  1.45309644e-08  5.00000000e-01                                 
 1.82743108e-08  6.79178214e-01  1.82743108e-08  6.31728876e-01  1.82743108e-08  1.97685269e+00  1.82743108e-08  1.80000000e+00  1.82743108e-08 -4.96488515e-03  1.82743108e-08  5.00000000e-01                                 
 2.18013092e-08  6.74317354e-01  2.18013092e-08  6.26904088e-01  2.18013092e-08  1.97230093e+00  2.18013092e-08  1.80000000e+00  2.18013092e-08  4.96704386e-03  2.18013092e-08  5.00000000e-01                                 
 2.88553060e-08  6.66597619e-01  2.88553060e-08  6.19221491e-01  2.88553060e-08  1.96503362e+00  2.88553060e-08  1.80000000e+00  2.88553060e-08 -4.93692024e-03  2.88553060e-08  5.00000000e-01                                 
 3.69518789e-08  6.59878394e-01  3.69518789e-08  6.12516144e-01  3.69518789e-08  1.95875588e+00  3.69518789e-08  1.80000000e+00  3.69518789e-08  4.94996626e-03  3.69518789e-08  5.00000000e-01                                 
 5.31450248e-08  6.49990991e-01  5.31450248e-08  6.02625333e-01  5.31450248e-08  1.94947570e+00  5.31450248e-08  1.80000000e+00  5.31450248e-08 -4.92468826e-03  5.31450248e-08  5.00000000e-01                                 
 7.87467029e-08  6.39399728e-01  7.87467029e-08  5.92003165e-01  7.87467029e-08  1.93956614e+00  7.87467029e-08  1.80000000e+00  7.87467029e-08  4.94361318e-03  7.87467029e-08  5.00000000e-01                                 
 1.21233658e-07  6.28379602e-01  1.21233658e-07  5.80814868e-01  1.21233658e-07  1.93065646e+00  1.21233658e-07  1.80000000e+00  1.21233658e-07 -4.92063935e-03  1.21233658e-07  5.00000000e-01                                 
 1.65027923e-07  6.21452313e-01  1.65027923e-07  5.73596347e-01  1.65027923e-07  1.92725198e+00  1.65027923e-07  1.80000000e+00  1.65027923e-07  4.94071602e-03  1.65027923e-07  5.00000000e-01                                 
 2.05461248e-07  6.16314544e-01  2.05461248e-07  5.68302502e-01  2.05461248e-07  1.91695301e+00  2.05461248e-07  1.80000000e+00  2.05461248e-07 -4.91756653e-03  2.05461248e-07  5.00000000e-01                                 
 2.40010708e-07  6.09854516e-01  2.40010708e-07  5.62316904e-01  2.40010708e-07  1.89484576e+00  2.40010708e-07  1.80000000e+00  2.40010708e-07  4.93720037e-03  2.40010708e-07  5.00000000e-01                                 
 2.67512082e-07  5.99635997e-01  2.67512082e-07  5.53621635e-01  2.67512082e-07  1.86450750e+00  2.67512082e-07  1.80000000e+00  2.67512082e-07 -4.91356435e-03  2.67512082e-07  5.00000000e-01                                 
 2.96086757e-07  5.91174511e-01  2.96086757e-07  5.46372418e-01  2.96086757e-07  1.82400660e+00  2.96086757e-07  1.80000000e+00  2.96086757e-07  4.93266725e-03  2.96086757e-07  5.00000000e-01                                 
 3.18183013e-07  5.86059758e-01  3.18183013e-07  5.41946836e-01  3.18183013e-07  1.79041556e+00  3.18183013e-07  1.80000000e+00  3.18183013e-07 -4.90839132e-03  3.18183013e-07  5.00000000e-01                                 
 3.41077365e-07  5.92499519e-01  3.41077365e-07  5.46682656e-01  3.41077365e-07  1.79863815e+00  3.41077365e-07  1.80000000e+00  3.41077365e-07  4.92743814e-03  3.41077365e-07  5.00000000e-01                                 
 3.60076932e-07  5.95338281e-01  3.60076932e-07  5.48628245e-01  3.60076932e-07  1.78487715e+00  3.60076932e-07  1.80000000e+00  3.60076932e-07 -4.90249776e-03  3.60076932e-07  5.00000000e-01                                 
 3.80425656e-07  5.88942760e-01  3.80425656e-07  5.43249665e-01  3.80425656e-07  1.75804709e+00  3.80425656e-07  1.80000000e+00  3.80425656e-07  4.92060431e-03  3.80425656e-07  5.00000000e-01                                 
 3.97249685e-07  5.85708417e-01  3.97249685e-07  5.40447788e-01  3.97249685e-07  1.73920471e+00  3.97249685e-07  1.80000000e+00  3.97249685e-07 -4.89557276e-03  3.97249685e-07  5.00000000e-01                                 
 4.15142772e-07  5.82224113e-01  4.15142772e-07  5.37447359e-01  4.15142772e-07  1.71913431e+00  4.15142772e-07  1.80000000e+00  4.15142772e-07  4.91326549e-03  4.15142772e-07  5.00000000e-01                                 
 4.47260449e-07  5.75176827e-01  4.47260449e-07  5.31469843e-01  4.47260449e-07  1.68126697e+00  4.47260449e-07  1.80000000e+00  4.47260449e-07 -4.89001357e-03  4.47260449e-07  5.00000000e-01                                 
 4.91950177e-07  5.64991072e-01  4.91950177e-07  5.22926977e-01  4.91950177e-07  1.62730239e+00  4.91950177e-07  1.80000000e+00  4.91950177e-07  4.90985383e-03  4.91950177e-07  5.00000000e-01                                 
 5.64257385e-07  5.51034098e-01  5.64257385e-07  5.11257881e-01  5.64257385e-07  1.54429471e+00  5.64257385e-07  1.80000000e+00  5.64257385e-07 -4.88781005e-03  5.64257385e-07  5.00000000e-01                                 
 6.42022439e-07  5.25240910e-01  6.42022439e-07  4.90328901e-01  6.42022439e-07  1.43868726e+00  6.42022439e-07  1.80000000e+00  6.42022439e-07  4.90805568e-03  6.42022439e-07  5.00000000e-01                                 
 7.21890647e-07  4.95910605e-01  7.21890647e-07  4.66736847e-01  7.21890647e-07  1.32914117e+00  7.21890647e-07  1.80000000e+00  7.21890647e-07 -4.88624460e-03  7.21890647e-07  5.00000000e-01                                 
 8.19907855e-07  4.96682644e-01  8.19907855e-07  4.67347087e-01  8.19907855e-07  1.22678443e+00  8.19907855e-07  1.80000000e+00  8.19907855e-07  4.90691673e-03  8.19907855e-07  5.00000000e-01                                 
 8.23944404e-07  4.99138810e-01  8.23944404e-07  4.69315005e-01  8.23944404e-07  1.22545186e+00  8.23944404e-07  1.80000000e+00  8.23944404e-07  4.42759115e-06  8.23944404e-07  5.00000000e-01                                 
 8.32017500e-07  5.06243547e-01  8.32017500e-07  4.75004715e-01  8.32017500e-07  1.22397048e+00  8.32017500e-07  1.80000000e+00  8.32017500e-07 -3.41634092e-06  8.32017500e-07  5.00000000e-01                                 
 8.48163694e-07  5.40028454e-01  8.48163694e-07  5.02029929e-01  8.48163694e-07  1.23924739e+00  8.48163694e-07  1.80000000e+00  8.48163694e-07  5.39710424e-06  8.48163694e-07  5.00000000e-01                                 
 8.64596241e-07  6.18995653e-01  8.64596241e-07  5.65243196e-01  8.64596241e-07  1.29754214e+00  8.64596241e-07  1.80000000e+00  8.64596241e-07 -1.04537805e-06  8.64596241e-07  5.00000000e-01                                 
 8.90736047e-07  7.48706949e-01  8.90736047e-07  6.92661379e-01  8.90736047e-07  1.39456735e+00  8.90736047e-07  1.80000000e+00  8.90736047e-07  6.72356018e-06  8.90736047e-07  5.00000000e-01                                 
 9.15526956e-07  7.89444107e-01  9.15526956e-07  7.34734022e-01  9.15526956e-07  1.40833200e+00  9.15526956e-07  1.80000000e+00  9.15526956e-07 -4.03945859e-06  9.15526956e-07  5.00000000e-01                                 
 9.41575406e-07  8.10600527e-01  9.41575406e-07  7.53486231e-01  9.41575406e-07  1.40060473e+00  9.41575406e-07  1.80000000e+00  9.41575406e-07  5.28959894e-06  9.41575406e-07  5.00000000e-01                                 
 9.83744312e-07  8.17424188e-01  9.83744312e-07  7.59651180e-01  9.83744312e-07  1.36447430e+00  9.83744312e-07  1.80000000e+00  9.83744312e-07 -4.66612261e-06  9.83744312e-07  5.00000000e-01                                 
 1.02359925e-06  8.20003410e-01  1.02359925e-06  7.61629620e-01  1.02359925e-06  1.32462641e+00  1.02359925e-06  1.80000000e+00  1.02359925e-06  4.99904992e-06  1.02359925e-06  5.00000000e-01                                 
 1.07426982e-06  8.25643113e-01  1.07426982e-06  7.66503409e-01  1.07426982e-06  1.27829950e+00  1.07426982e-06  1.80000000e+00  1.07426982e-06 -4.49428466e-06  1.07426982e-06  5.00000000e-01                                 
 1.12584269e-06  8.10914285e-01  1.12584269e-06  7.53858567e-01  1.12584269e-06  1.21009180e+00  1.12584269e-06  1.80000000e+00  1.12584269e-06  4.43810590e-06  1.12584269e-06  5.00000000e-01                                 
 1.13305638e-06  8.05776413e-01  1.13305638e-06  7.49424276e-01  1.13305638e-06  1.19812439e+00  1.13305638e-06  1.80000000e+00  1.13305638e-06 -2.49580209e-07  1.13305638e-06  5.00000000e-01                                 
 1.14748376e-06  7.97329233e-01  1.14748376e-06  7.41815559e-01  1.14748376e-06  1.17493800e+00  1.14748376e-06  1.80000000e+00  1.14748376e-06 -1.83664453e-07  1.14748376e-06  5.00000000e-01                                 
 1.17633852e-06  7.95417680e-01  1.17633852e-06  7.40000342e-01  1.17633852e-06  1.14226500e+00  1.17633852e-06  1.80000000e+00  1.17633852e-06  3.73570906e-07  1.17633852e-06  5.00000000e-01                                 
 1.22968063e-06  8.07788624e-01  1.22968063e-06  7.51172506e-01  1.22968063e-06  1.09774699e+00  1.22968063e-06  1.80000000e+00  1.22968063e-06  2.48214556e-07  1.22968063e-06  5.00000000e-01                                 
 1.27927125e-06  8.10522080e-01  1.27927125e-06  7.53579158e-01  1.27927125e-06  1.04750906e+00  1.27927125e-06  1.80000000e+00  1.27927125e-06  1.52233280e-07  1.27927125e-06  5.00000000e-01                                 
 1.35585343e-06  8.02231200e-01  1.35585343e-06  7.46237033e-01  1.35585343e-06  9.62843310e-01  1.35585343e-06  1.80000000e+00  1.35585343e-06  3.28467358e-08  1.35585343e-06  5.00000000e-01                                 
 1.45608313e-06  8.04434985e-01  1.45608313e-06  7.48180241e-01  1.45608313e-06  8.85688178e-01  1.45608313e-06  1.80000000e+00  1.45608313e-06  3.14980341e-07  1.45608313e-06  5.00000000e-01                                 
 1.56229378e-06  8.08970728e-01  1.56229378e-06  7.52229411e-01  1.56229378e-06  8.20107001e-01  1.56229378e-06  1.80000000e+00  1.56229378e-06  6.98209418e-08  1.56229378e-06  5.00000000e-01                                 
 1.72579534e-06  8.01618592e-01  1.72579534e-06  7.45662509e-01  1.72579534e-06  7.24375852e-01  1.72579534e-06  1.80000000e+00  1.72579534e-06  1.93760324e-07  1.72579534e-06  5.00000000e-01                                 
 1.88995923e-06  8.08189725e-01  1.88995923e-06  7.51532068e-01  1.88995923e-06  6.51839211e-01  1.88995923e-06  1.80000000e+00  1.88995923e-06  1.78730748e-07  1.88995923e-06  5.00000000e-01                                 
 2.10489951e-06  8.03674372e-01  2.10489951e-06  7.47517592e-01  2.10489951e-06  5.56473783e-01  2.10489951e-06  1.80000000e+00  2.10489951e-06  1.17367201e-07  2.10489951e-06  5.00000000e-01                                 
 2.35462892e-06  8.06085440e-01  2.35462892e-06  7.49665493e-01  2.35462892e-06  5.04226770e-01  2.35462892e-06  1.80000000e+00  2.35462892e-06  2.17865684e-07  2.35462892e-06  5.00000000e-01                                 
 2.39127272e-06  8.06823288e-01  2.39127272e-06  7.50321537e-01  2.39127272e-06  5.02928625e-01  2.39127272e-06  1.80000000e+00  2.39127272e-06  1.76236039e-07  2.39127272e-06  5.00000000e-01                                 
 2.46456032e-06  8.05442002e-01  2.46456032e-06  7.49098623e-01  2.46456032e-06  4.98282960e-01  2.46456032e-06  1.80000000e+00  2.46456032e-06  1.22539548e-07  2.46456032e-06  5.00000000e-01                                 
 2.61113553e-06  8.04784267e-01  2.61113553e-06  7.48506288e-01  2.61113553e-06  4.93605196e-01  2.61113553e-06  1.80000000e+00  2.61113553e-06  1.91682961e-07  2.61113553e-06  5.00000000e-01                                 
 2.80317463e-06  8.06425051e-01  2.80317463e-06  7.49971064e-01  2.80317463e-06  4.93568431e-01  2.80317463e-06  1.80000000e+00  2.80317463e-06  1.41319860e-07  2.80317463e-06  5.00000000e-01                                 
 3.00171671e-06  8.04419329e-01  3.00171671e-06  7.48182584e-01  3.00171671e-06  4.99433745e-01  3.00171671e-06  1.80000000e+00  3.00171671e-06  1.67031482e-07  3.00171671e-06  5.00000000e-01                                 
 3.26327410e-06  8.06385254e-01  3.26327410e-06  7.49933753e-01  3.26327410e-06  5.03427996e-01  3.26327410e-06  1.80000000e+00  3.26327410e-06  1.62454393e-07  3.26327410e-06  5.00000000e-01                                 
 3.63885839e-06  8.04642806e-01  3.63885839e-06  7.48383594e-01  3.63885839e-06  4.96886438e-01  3.63885839e-06  1.80000000e+00  3.63885839e-06  1.53042143e-07  3.63885839e-06  5.00000000e-01                                 
 4.00954748e-06  8.06100131e-01  4.00954748e-06  7.49679557e-01  4.00954748e-06  5.02581283e-01  4.00954748e-06  1.80000000e+00  4.00954748e-06  1.72657770e-07  4.00954748e-06  5.00000000e-01                                 
 4.60329168e-06  8.04926169e-01  4.60329168e-06  7.48637146e-01  4.60329168e-06  4.98418368e-01  4.60329168e-06  1.80000000e+00  4.60329168e-06  1.45779541e-07  4.60329168e-06  5.00000000e-01                                 
 5.44043675e-06  8.05900918e-01  5.44043675e-06  7.49502128e-01  5.44043675e-06  5.01433511e-01  5.44043675e-06  1.80000000e+00  5.44043675e-06  1.76621225e-07  5.44043675e-06  5.00000000e-01                                 
 6.44043675e-06  8.05087472e-01  6.44043675e-06  7.48781212e-01  6.44043675e-06  4.99228913e-01  6.44043675e-06  1.80000000e+00  6.44043675e-06  1.43252000e-07  6.44043675e-06  5.00000000e-01                                 
 7.44043675e-06  8.05754067e-01  7.44043675e-06  7.49371354e-01  7.44043675e-06  5.00742665e-01  7.44043675e-06  1.80000000e+00  7.44043675e-06  1.78523970e-07  7.44043675e-06  5.00000000e-01                                 
 8.44043675e-06  8.05237375e-01  8.44043675e-06  7.48914950e-01  8.44043675e-06  4.99838097e-01  8.44043675e-06  1.80000000e+00  8.44043675e-06  1.41729003e-07  8.44043675e-06  5.00000000e-01                                 
 9.44043675e-06  8.05606368e-01  9.44043675e-06  7.49239828e-01  9.44043675e-06  5.00207859e-01  9.44043675e-06  1.80000000e+00  9.44043675e-06  1.79658012e-07  9.44043675e-06  5.00000000e-01                                 
