 time            v(vbep)         time            v(vben)         time            v(vout)         time            v(vphi1)        time            v(vphi2)        time            v(vref)         yes             currtemp       
 0.00000000e+00  6.99303772e-01  0.00000000e+00  6.46059581e-01  0.00000000e+00  3.48023951e-01  0.00000000e+00  0.00000000e+00  0.00000000e+00  1.79995657e+00  0.00000000e+00  6.46059581e-01  1.00000000e+00  1.80000000e+01 
 5.00000000e-12  6.99280838e-01  5.00000000e-12  6.46040522e-01  5.00000000e-12  3.48530738e-01  5.00000000e-12  1.80000000e-02  5.00000000e-12  1.80006064e+00  5.00000000e-12  6.46040522e-01                                 
 1.00000000e-11  6.99258394e-01  1.00000000e-11  6.46021915e-01  1.00000000e-11  3.48946846e-01  1.00000000e-11  3.60000000e-02  1.00000000e-11  1.80011955e+00  1.00000000e-11  6.46021915e-01                                 
 2.00000000e-11  6.99213783e-01  2.00000000e-11  6.45984827e-01  2.00000000e-11  3.49642696e-01  2.00000000e-11  7.20000000e-02  2.00000000e-11  1.80018113e+00  2.00000000e-11  6.45984827e-01                                 
 4.00000000e-11  6.99125045e-01  4.00000000e-11  6.45910902e-01  4.00000000e-11  3.50490242e-01  4.00000000e-11  1.44000000e-01  4.00000000e-11  1.80016203e+00  4.00000000e-11  6.45910902e-01                                 
 8.00000000e-11  6.98948318e-01  8.00000000e-11  6.45763610e-01  8.00000000e-11  3.51271701e-01  8.00000000e-11  2.88000000e-01  8.00000000e-11  1.80009210e+00  8.00000000e-11  6.45763610e-01                                 
 1.60000000e-10  6.98598069e-01  1.60000000e-10  6.45471264e-01  1.60000000e-10  3.52020226e-01  1.60000000e-10  5.76000000e-01  1.60000000e-10  1.80004857e+00  1.60000000e-10  6.45471264e-01                                 
 3.20000000e-10  6.97909737e-01  3.20000000e-10  6.44895230e-01  3.20000000e-10  3.47812037e-01  3.20000000e-10  1.15200000e+00  3.20000000e-10  1.80013824e+00  3.20000000e-10  6.44895230e-01                                 
 5.00000000e-10  6.97154139e-01  5.00000000e-10  6.44260559e-01  5.00000000e-10  5.53679141e-01  5.00000000e-10  1.80000000e+00  5.00000000e-10  1.46167385e-01  5.00000000e-10  6.44260559e-01                                 
 5.21240182e-10  6.97066396e-01  5.21240182e-10  6.44186686e-01  5.21240182e-10  6.01831192e-01  5.21240182e-10  1.80000000e+00  5.21240182e-10  3.24592914e-02  5.21240182e-10  6.44186686e-01                                 
 5.63720547e-10  6.96891425e-01  5.63720547e-10  6.44039304e-01  5.63720547e-10  6.90875011e-01  5.63720547e-10  1.80000000e+00  5.63720547e-10 -1.31410414e-02  5.63720547e-10  6.44039304e-01                                 
 6.48681277e-10  6.96544599e-01  6.48681277e-10  6.43746786e-01  6.48681277e-10  8.34998631e-01  6.48681277e-10  1.80000000e+00  6.48681277e-10  1.17236859e-02  6.48681277e-10  6.43746786e-01                                 
 7.66001884e-10  6.96072341e-01  7.66001884e-10  6.43347671e-01  7.66001884e-10  9.93684488e-01  7.66001884e-10  1.80000000e+00  7.66001884e-10 -8.91399636e-03  7.66001884e-10  6.43347671e-01                                 
 9.50002695e-10  6.95346665e-01  9.50002695e-10  6.42732595e-01  9.50002695e-10  1.19874810e+00  9.50002695e-10  1.80000000e+00  9.50002695e-10  9.20607388e-03  9.50002695e-10  6.42732595e-01                                 
 1.28219229e-09  6.94080303e-01  1.28219229e-09  6.41654149e-01  1.28219229e-09  1.47719578e+00  1.28219229e-09  1.80000000e+00  1.28219229e-09 -7.79591775e-03  1.28219229e-09  6.41654149e-01                                 
 1.84980718e-09  6.92035347e-01  1.84980718e-09  6.39899358e-01  1.84980718e-09  1.72743110e+00  1.84980718e-09  1.80000000e+00  1.84980718e-09  8.08644094e-03  1.84980718e-09  6.39899358e-01                                 
 2.20425519e-09  6.90828654e-01  2.20425519e-09  6.38856083e-01  2.20425519e-09  1.78070237e+00  2.20425519e-09  1.80000000e+00  2.20425519e-09 -7.45917163e-03  2.20425519e-09  6.38856083e-01                                 
 2.55755293e-09  6.89674063e-01  2.55755293e-09  6.37852690e-01  2.55755293e-09  1.80298174e+00  2.55755293e-09  1.80000000e+00  2.55755293e-09  7.20190760e-03  2.55755293e-09  6.37852690e-01                                 
 2.94801378e-09  6.88449526e-01  2.94801378e-09  6.36783145e-01  2.94801378e-09  1.81199574e+00  2.94801378e-09  1.80000000e+00  2.94801378e-09 -6.80442060e-03  2.94801378e-09  6.36783145e-01                                 
 3.56164436e-09  6.86623688e-01  3.56164436e-09  6.35178586e-01  3.56164436e-09  1.81563940e+00  3.56164436e-09  1.80000000e+00  3.56164436e-09  6.65013429e-03  3.56164436e-09  6.35178586e-01                                 
 4.33999795e-09  6.84462030e-01  4.33999795e-09  6.33264190e-01  4.33999795e-09  1.81404641e+00  4.33999795e-09  1.80000000e+00  4.33999795e-09 -6.46375702e-03  4.33999795e-09  6.33264190e-01                                 
 5.66163113e-09  6.81121352e-01  5.66163113e-09  6.30276707e-01  5.66163113e-09  1.81082627e+00  5.66163113e-09  1.80000000e+00  5.66163113e-09  6.40397817e-03  5.66163113e-09  6.30276707e-01                                 
 7.73906621e-09  6.76531688e-01  7.73906621e-09  6.26120176e-01  7.73906621e-09  1.80550876e+00  7.73906621e-09  1.80000000e+00  7.73906621e-09 -6.32098695e-03  7.73906621e-09  6.26120176e-01                                 
 1.18939364e-08  6.68992345e-01  1.18939364e-08  6.19187757e-01  1.18939364e-08  1.79644522e+00  1.18939364e-08  1.80000000e+00  1.18939364e-08  6.32352617e-03  1.18939364e-08  6.19187757e-01                                 
 1.45658601e-08  6.64984733e-01  1.45658601e-08  6.15455676e-01  1.45658601e-08  1.79054837e+00  1.45658601e-08  1.80000000e+00  1.45658601e-08 -6.25317539e-03  1.45658601e-08  6.15455676e-01                                 
 1.61370824e-08  6.62837682e-01  1.61370824e-08  6.13447765e-01  1.61370824e-08  1.78784471e+00  1.61370824e-08  1.80000000e+00  1.61370824e-08  6.20565914e-03  1.61370824e-08  6.13447765e-01                                 
 1.77562284e-08  6.60754065e-01  1.77562284e-08  6.11495357e-01  1.77562284e-08  1.78437137e+00  1.77562284e-08  1.80000000e+00  1.77562284e-08 -6.11218120e-03  1.77562284e-08  6.11495357e-01                                 
 1.95368190e-08  6.58591813e-01  1.95368190e-08  6.09466412e-01  1.95368190e-08  1.78111329e+00  1.95368190e-08  1.80000000e+00  1.95368190e-08  6.07280859e-03  1.95368190e-08  6.09466412e-01                                 
 2.24880902e-08  6.55253769e-01  2.24880902e-08  6.06331090e-01  2.24880902e-08  1.77477922e+00  2.24880902e-08  1.80000000e+00  2.24880902e-08 -6.01291055e-03  2.24880902e-08  6.06331090e-01                                 
 2.52350190e-08  6.52378659e-01  2.52350190e-08  6.03629678e-01  2.52350190e-08  1.76928148e+00  2.52350190e-08  1.80000000e+00  2.52350190e-08  5.99541547e-03  2.52350190e-08  6.03629678e-01                                 
 3.02761085e-08  6.47549756e-01  3.02761085e-08  5.99096217e-01  3.02761085e-08  1.75834798e+00  3.02761085e-08  1.80000000e+00  3.02761085e-08 -5.95166503e-03  3.02761085e-08  5.99096217e-01                                 
 3.53148708e-08  6.43194155e-01  3.53148708e-08  5.95014761e-01  3.53148708e-08  1.74762335e+00  3.53148708e-08  1.80000000e+00  3.53148708e-08  5.95244871e-03  3.53148708e-08  5.95014761e-01                                 
 4.53923953e-08  6.35561888e-01  4.53923953e-08  5.87879591e-01  4.53923953e-08  1.72558252e+00  4.53923953e-08  1.80000000e+00  4.53923953e-08 -5.91936180e-03  4.53923953e-08  5.87879591e-01                                 
 6.15594779e-08  6.25701972e-01  6.15594779e-08  5.78666924e-01  6.15594779e-08  1.69267474e+00  6.15594779e-08  1.80000000e+00  6.15594779e-08  5.93560571e-03  6.15594779e-08  5.78666924e-01                                 
 8.05548288e-08  6.18938262e-01  8.05548288e-08  5.72011089e-01  8.05548288e-08  1.66360687e+00  8.05548288e-08  1.80000000e+00  8.05548288e-08 -5.90626531e-03  8.05548288e-08  5.72011089e-01                                 
 1.04325861e-07  6.21000363e-01  1.04325861e-07  5.72323033e-01  1.04325861e-07  1.66694008e+00  1.04325861e-07  1.80000000e+00  1.04325861e-07  5.92817059e-03  1.04325861e-07  5.72323033e-01                                 
 1.21242074e-07  6.20388438e-01  1.21242074e-07  5.71061358e-01  1.21242074e-07  1.65039501e+00  1.21242074e-07  1.80000000e+00  1.21242074e-07 -5.89707167e-03  1.21242074e-07  5.71061358e-01                                 
 1.37570622e-07  6.15575572e-01  1.37570622e-07  5.66596335e-01  1.37570622e-07  1.62881070e+00  1.37570622e-07  1.80000000e+00  1.37570622e-07  5.91454634e-03  1.37570622e-07  5.66596335e-01                                 
 1.52590286e-07  6.12565165e-01  1.52590286e-07  5.63665626e-01  1.52590286e-07  1.60892885e+00  1.52590286e-07  1.80000000e+00  1.52590286e-07 -5.88339313e-03  1.52590286e-07  5.63665626e-01                                 
 1.68947883e-07  6.08314233e-01  1.68947883e-07  5.59756642e-01  1.68947883e-07  1.59077042e+00  1.68947883e-07  1.80000000e+00  1.68947883e-07  5.90110954e-03  1.68947883e-07  5.59756642e-01                                 
 1.97184879e-07  5.99458577e-01  1.97184879e-07  5.51911320e-01  1.97184879e-07  1.55269419e+00  1.97184879e-07  1.80000000e+00  1.97184879e-07 -5.87360921e-03  1.97184879e-07  5.51911320e-01                                 
 2.39320097e-07  5.87355362e-01  2.39320097e-07  5.41288845e-01  2.39320097e-07  1.50096126e+00  2.39320097e-07  1.80000000e+00  2.39320097e-07  5.89504586e-03  2.39320097e-07  5.41288845e-01                                 
 2.94981756e-07  5.71822935e-01  2.94981756e-07  5.27922056e-01  2.94981756e-07  1.42830617e+00  2.94981756e-07  1.80000000e+00  2.94981756e-07 -5.86922476e-03  2.94981756e-07  5.27922056e-01                                 
 4.06305073e-07  5.37068158e-01  4.06305073e-07  4.99009974e-01  4.06305073e-07  1.28401647e+00  4.06305073e-07  1.80000000e+00  4.06305073e-07  5.89217521e-03  4.06305073e-07  4.99009974e-01                                 
 4.34135903e-07  5.26896668e-01  4.34135903e-07  4.90755682e-01  4.34135903e-07  1.24478012e+00  4.34135903e-07  1.80000000e+00  4.34135903e-07  1.21957072e-07  4.34135903e-07  4.90755682e-01                                 
 4.89797562e-07  5.03458339e-01  4.89797562e-07  4.71842160e-01  4.89797562e-07  1.16486040e+00  4.89797562e-07  1.80000000e+00  4.89797562e-07 -1.89439411e-06  4.89797562e-07  4.71842160e-01                                 
 6.01120879e-07  7.16870322e-01  6.01120879e-07  6.61537411e-01  6.01120879e-07  1.25474125e+00  6.01120879e-07  1.80000000e+00  6.01120879e-07  7.45769763e-06  6.01120879e-07  6.61537411e-01                                 
 7.07038092e-07  8.09894906e-01  7.07038092e-07  7.50915883e-01  7.07038092e-07  1.23674080e+00  7.07038092e-07  1.80000000e+00  7.07038092e-07 -4.60745483e-06  7.07038092e-07  7.50915883e-01                                 
 8.11171571e-07  8.19582188e-01  8.11171571e-07  7.59037867e-01  8.11171571e-07  1.13613618e+00  8.11171571e-07  1.80000000e+00  8.11171571e-07  4.35998646e-06  8.11171571e-07  7.59037867e-01                                 
 8.22080197e-07  8.18441350e-01  8.22080197e-07  7.58098772e-01  8.22080197e-07  1.12497237e+00  8.22080197e-07  1.80000000e+00  8.22080197e-07 -3.92109629e-07  8.22080197e-07  7.58098772e-01                                 
 8.43897450e-07  8.08000284e-01  8.43897450e-07  7.49373193e-01  8.43897450e-07  1.09280897e+00  8.43897450e-07  1.80000000e+00  8.43897450e-07 -1.92886578e-06  8.43897450e-07  7.49373193e-01                                 
 8.47793869e-07  8.04276257e-01  8.47793869e-07  7.46158997e-01  8.47793869e-07  1.08513173e+00  8.47793869e-07  1.80000000e+00  8.47793869e-07 -2.09209669e-06  8.47793869e-07  7.46158997e-01                                 
 8.55586705e-07  7.96960877e-01  8.55586705e-07  7.39709088e-01  8.55586705e-07  1.06984657e+00  8.55586705e-07  1.80000000e+00  8.55586705e-07 -2.05218580e-06  8.55586705e-07  7.39709088e-01                                 
 8.71172379e-07  7.86412629e-01  8.71172379e-07  7.30131080e-01  8.71172379e-07  1.04298614e+00  8.71172379e-07  1.80000000e+00  8.71172379e-07 -1.11429773e-06  8.71172379e-07  7.30131080e-01                                 
 9.02343725e-07  7.84909117e-01  9.02343725e-07  7.28696928e-01  9.02343725e-07  1.00906015e+00  9.02343725e-07  1.80000000e+00  9.02343725e-07  3.99637979e-07  9.02343725e-07  7.28696928e-01                                 
 9.42523160e-07  7.97165555e-01  9.42523160e-07  7.39825279e-01  9.42523160e-07  9.81687495e-01  9.42523160e-07  1.80000000e+00  9.42523160e-07  3.17398036e-07  9.42523160e-07  7.39825279e-01                                 
 9.98194282e-07  8.04563794e-01  9.98194282e-07  7.46351573e-01  9.98194282e-07  9.40061995e-01  9.98194282e-07  1.80000000e+00  9.98194282e-07 -1.47404555e-07  9.98194282e-07  7.46351573e-01                                 
 1.06731826e-06  7.97497304e-01  1.06731826e-06  7.40149173e-01  1.06731826e-06  8.83302812e-01  1.06731826e-06  1.80000000e+00  1.06731826e-06 -3.92811034e-07  1.06731826e-06  7.40149173e-01                                 
 1.16867891e-06  7.93798938e-01  1.16867891e-06  7.36816461e-01  1.16867891e-06  8.17305077e-01  1.16867891e-06  1.80000000e+00  1.16867891e-06  2.26690660e-07  1.16867891e-06  7.36816461e-01                                 
 1.26607633e-06  8.03197147e-01  1.26607633e-06  7.45159427e-01  1.26607633e-06  7.83673906e-01  1.26607633e-06  1.80000000e+00  1.26607633e-06  2.61548413e-07  1.26607633e-06  7.45159427e-01                                 
 1.39972393e-06  7.94860274e-01  1.39972393e-06  7.37789828e-01  1.39972393e-06  7.45503038e-01  1.39972393e-06  1.80000000e+00  1.39972393e-06 -1.78413752e-07  1.39972393e-06  7.37789828e-01                                 
 1.53848872e-06  7.98066571e-01  1.53848872e-06  7.40630595e-01  1.53848872e-06  7.35148229e-01  1.53848872e-06  1.80000000e+00  1.53848872e-06  6.55977542e-07  1.53848872e-06  7.40630595e-01                                 
 1.55880132e-06  8.00085413e-01  1.55880132e-06  7.42424699e-01  1.55880132e-06  7.36051215e-01  1.55880132e-06  1.80000000e+00  1.55880132e-06  3.90880631e-07  1.55880132e-06  7.42424699e-01                                 
 1.59942652e-06  8.00769026e-01  1.59942652e-06  7.43036494e-01  1.59942652e-06  7.36934694e-01  1.59942652e-06  1.80000000e+00  1.59942652e-06  1.39689311e-07  1.59942652e-06  7.43036494e-01                                 
 1.68067692e-06  7.96055851e-01  1.68067692e-06  7.38853562e-01  1.68067692e-06  7.39231070e-01  1.68067692e-06  1.80000000e+00  1.68067692e-06  1.72482019e-07  1.68067692e-06  7.38853562e-01                                 
 1.75609872e-06  7.97638257e-01  1.75609872e-06  7.40256764e-01  1.75609872e-06  7.41632755e-01  1.75609872e-06  1.80000000e+00  1.75609872e-06  3.63382409e-07  1.75609872e-06  7.40256764e-01                                 
 1.76953132e-06  7.98572911e-01  1.76953132e-06  7.41088286e-01  1.76953132e-06  7.41908175e-01  1.76953132e-06  1.80000000e+00  1.76953132e-06  3.39713424e-07  1.76953132e-06  7.41088286e-01                                 
 1.79639651e-06  7.99651718e-01  1.79639651e-06  7.42046644e-01  1.79639651e-06  7.42195820e-01  1.79639651e-06  1.80000000e+00  1.79639651e-06  2.48090684e-07  1.79639651e-06  7.42046644e-01                                 
 1.85012689e-06  7.98414106e-01  1.85012689e-06  7.40954660e-01  1.85012689e-06  7.40922093e-01  1.85012689e-06  1.80000000e+00  1.85012689e-06  1.30551712e-07  1.85012689e-06  7.40954660e-01                                 
 1.95758765e-06  7.97100402e-01  1.95758765e-06  7.39781081e-01  1.95758765e-06  7.39862924e-01  1.95758765e-06  1.80000000e+00  1.95758765e-06  2.86609128e-07  1.95758765e-06  7.39781081e-01                                 
 2.10300423e-06  7.99216788e-01  2.10300423e-06  7.41662966e-01  2.10300423e-06  7.41797537e-01  2.10300423e-06  1.80000000e+00  2.10300423e-06  2.24833589e-07  2.10300423e-06  7.41662966e-01                                 
 2.37904192e-06  7.97194890e-01  2.37904192e-06  7.39867811e-01  2.37904192e-06  7.39905166e-01  2.37904192e-06  1.80000000e+00  2.37904192e-06  2.09145157e-07  2.37904192e-06  7.39867811e-01                                 
 2.73761310e-06  7.98893562e-01  2.73761310e-06  7.41375616e-01  2.73761310e-06  7.41504054e-01  2.73761310e-06  1.80000000e+00  2.73761310e-06  2.67586762e-07  2.73761310e-06  7.41375616e-01                                 
 3.30702152e-06  7.97511901e-01  3.30702152e-06  7.40151089e-01  3.30702152e-06  7.40202246e-01  3.30702152e-06  1.80000000e+00  3.30702152e-06  1.83763687e-07  3.30702152e-06  7.40151089e-01                                 
 4.22248401e-06  7.98677550e-01  4.22248401e-06  7.41183626e-01  4.22248401e-06  7.41300467e-01  4.22248401e-06  1.80000000e+00  4.22248401e-06  2.80682009e-07  4.22248401e-06  7.41183626e-01                                 
 5.22248401e-06  7.97683209e-01  5.22248401e-06  7.40303615e-01  5.22248401e-06  7.40364444e-01  5.22248401e-06  1.80000000e+00  5.22248401e-06  1.75746040e-07  5.22248401e-06  7.40303615e-01                                 
 6.22248401e-06  7.98513064e-01  6.22248401e-06  7.41037447e-01  6.22248401e-06  7.41144439e-01  6.22248401e-06  1.80000000e+00  6.22248401e-06  2.87124588e-07  6.22248401e-06  7.41037447e-01                                 
 7.22248401e-06  7.97852594e-01  7.22248401e-06  7.40454394e-01  7.22248401e-06  7.40525457e-01  7.22248401e-06  1.80000000e+00  7.22248401e-06  1.70491506e-07  7.22248401e-06  7.40454394e-01                                 
 8.22248401e-06  7.98345953e-01  8.22248401e-06  7.40889020e-01  8.22248401e-06  7.40985521e-01  8.22248401e-06  1.80000000e+00  8.22248401e-06  2.91182186e-07  8.22248401e-06  7.40889020e-01                                 
 9.22248401e-06  7.98020568e-01  9.22248401e-06  7.40603768e-01  9.22248401e-06  7.40685442e-01  9.22248401e-06  1.80000000e+00  9.22248401e-06  1.67625625e-07  9.22248401e-06  7.40603768e-01                                 
 1.00005000e-05  7.98159095e-01  1.00005000e-05  7.40723052e-01  1.00005000e-05  7.40807448e-01  1.00005000e-05  1.80000000e+00  1.00005000e-05  2.92920395e-07  1.00005000e-05  7.40723052e-01                                 
 1.00005500e-05  7.98160717e-01  1.00005500e-05  7.40724486e-01  1.00005500e-05  7.33820815e-01  1.00005500e-05  1.62000000e+00  1.00005500e-05 -1.11638758e-04  1.00005500e-05  7.40724486e-01                                 
 1.00006500e-05  7.98163982e-01  1.00006500e-05  7.40727379e-01  1.00006500e-05  7.23854625e-01  1.00006500e-05  1.26000000e+00  1.00006500e-05 -5.79526682e-05  1.00006500e-05  7.40727379e-01                                 
 1.00008500e-05  7.98170585e-01  1.00008500e-05  7.40733244e-01  1.00008500e-05  7.22161343e-01  1.00008500e-05  5.40000000e-01  1.00008500e-05 -1.57385704e-03  1.00008500e-05  7.40733244e-01                                 
 1.00010000e-05  7.98175471e-01  1.00010000e-05  7.40737610e-01  1.00010000e-05  6.78168569e-01  1.00010000e-05  0.00000000e+00  1.00010000e-05  1.49773409e+00  1.00010000e-05  7.40737610e-01                                 
 1.00010264e-05  7.98176282e-01  1.00010264e-05  7.40738348e-01  1.00010264e-05  6.44255119e-01  1.00010264e-05  0.00000000e+00  1.00010264e-05  1.68486241e+00  1.00010264e-05  7.40738348e-01                                 
 1.00010791e-05  7.98178025e-01  1.00010791e-05  7.40739878e-01  1.00010791e-05  5.91064942e-01  1.00010791e-05  0.00000000e+00  1.00010791e-05  1.82229102e+00  1.00010791e-05  7.40739878e-01                                 
