 time            v(vbep)         time            v(vben)         time            v(vout)         time            v(vphi1)        time            v(vphi2)        time            v(vref)         yes             currtemp       
 0.00000000e+00  7.78098518e-01  0.00000000e+00  7.23658874e-01  0.00000000e+00  1.00771549e+00  0.00000000e+00  0.00000000e+00  0.00000000e+00  1.79931419e+00  0.00000000e+00  5.00000000e-01  1.00000000e+00  1.70000000e+01 
 5.00000000e-12  7.77772892e-01  5.00000000e-12  7.23469550e-01  5.00000000e-12  1.00844128e+00  5.00000000e-12  1.80000000e-02  5.00000000e-12  1.79956635e+00  5.00000000e-12  5.00000000e-01                                 
 1.00000000e-11  7.77514923e-01  1.00000000e-11  7.23320185e-01  1.00000000e-11  1.00909593e+00  1.00000000e-11  3.60000000e-02  1.00000000e-11  1.79974088e+00  1.00000000e-11  5.00000000e-01                                 
 2.00000000e-11  7.77078172e-01  2.00000000e-11  7.23036508e-01  2.00000000e-11  1.01029319e+00  2.00000000e-11  7.20000000e-02  2.00000000e-11  1.79998085e+00  2.00000000e-11  5.00000000e-01                                 
 4.00000000e-11  7.76415297e-01  4.00000000e-11  7.22487556e-01  4.00000000e-11  1.01216969e+00  4.00000000e-11  1.44000000e-01  4.00000000e-11  1.80011397e+00  4.00000000e-11  5.00000000e-01                                 
 8.00000000e-11  7.75212000e-01  8.00000000e-11  7.21400781e-01  8.00000000e-11  1.01456659e+00  8.00000000e-11  2.88000000e-01  8.00000000e-11  1.80006945e+00  8.00000000e-11  5.00000000e-01                                 
 1.60000000e-10  7.72867464e-01  1.60000000e-10  7.19283302e-01  1.60000000e-10  1.01665174e+00  1.60000000e-10  5.76000000e-01  1.60000000e-10  1.80000856e+00  1.60000000e-10  5.00000000e-01                                 
 3.20000000e-10  7.68406734e-01  3.20000000e-10  7.15250154e-01  3.20000000e-10  1.00909416e+00  3.20000000e-10  1.15200000e+00  3.20000000e-10  1.80038042e+00  3.20000000e-10  5.00000000e-01                                 
 5.00000000e-10  7.63753526e-01  5.00000000e-10  7.11036624e-01  5.00000000e-10  1.19321634e+00  5.00000000e-10  1.80000000e+00  5.00000000e-10  1.07617591e-01  5.00000000e-10  5.00000000e-01                                 
 5.21111668e-10  7.63237749e-01  5.21111668e-10  7.10568984e-01  5.21111668e-10  1.23497278e+00  5.21111668e-10  1.80000000e+00  5.21111668e-10  2.02806864e-02  5.21111668e-10  5.00000000e-01                                 
 5.63335004e-10  7.62213531e-01  5.63335004e-10  7.09639063e-01  5.63335004e-10  1.31139543e+00  5.63335004e-10  1.80000000e+00  5.63335004e-10 -9.51709434e-03  5.63335004e-10  5.00000000e-01                                 
 6.47781676e-10  7.60219610e-01  6.47781676e-10  7.07828515e-01  6.47781676e-10  1.43751393e+00  6.47781676e-10  1.80000000e+00  6.47781676e-10  8.11093760e-03  6.47781676e-10  5.00000000e-01                                 
 7.70208571e-10  7.57458112e-01  7.70208571e-10  7.05317220e-01  7.70208571e-10  1.58373856e+00  7.70208571e-10  1.80000000e+00  7.70208571e-10 -7.09370386e-03  7.70208571e-10  5.00000000e-01                                 
 9.60080617e-10  7.53454202e-01  9.60080617e-10  7.01668530e-01  9.60080617e-10  1.75042546e+00  9.60080617e-10  1.80000000e+00  9.60080617e-10  6.71116860e-03  9.60080617e-10  5.00000000e-01                                 
 1.33982471e-09  7.46324489e-01  1.33982471e-09  6.95145704e-01  1.33982471e-09  1.93680482e+00  1.33982471e-09  1.80000000e+00  1.33982471e-09 -6.35521240e-03  1.33982471e-09  5.00000000e-01                                 
 1.60787919e-09  7.41951990e-01  1.60787919e-09  6.91120969e-01  1.60787919e-09  1.99086737e+00  1.60787919e-09  1.80000000e+00  1.60787919e-09  6.13034060e-03  1.60787919e-09  5.00000000e-01                                 
 1.91052279e-09  7.37536752e-01  1.91052279e-09  6.87035144e-01  1.91052279e-09  2.01724087e+00  1.91052279e-09  1.80000000e+00  1.91052279e-09 -5.78839186e-03  1.91052279e-09  5.00000000e-01                                 
 2.23062576e-09  7.33370621e-01  2.23062576e-09  6.83161164e-01  2.23062576e-09  2.02659313e+00  2.23062576e-09  1.80000000e+00  2.23062576e-09  5.60049246e-03  2.23062576e-09  5.00000000e-01                                 
 2.73069165e-09  7.27688059e-01  2.73069165e-09  6.77844030e-01  2.73069165e-09  2.02779639e+00  2.73069165e-09  1.80000000e+00  2.73069165e-09 -5.40709132e-03  2.73069165e-09  5.00000000e-01                                 
 3.34497515e-09  7.21795965e-01  3.34497515e-09  6.72290372e-01  3.34497515e-09  2.02323039e+00  3.34497515e-09  1.80000000e+00  3.34497515e-09  5.32456622e-03  3.34497515e-09  5.00000000e-01                                 
 4.39660995e-09  7.13636914e-01  4.39660995e-09  6.64532504e-01  4.39660995e-09  2.01512557e+00  4.39660995e-09  1.80000000e+00  4.39660995e-09 -5.22617880e-03  4.39660995e-09  5.00000000e-01                                 
 5.99771502e-09  7.04261587e-01  5.99771502e-09  6.55524351e-01  5.99771502e-09  2.00584280e+00  5.99771502e-09  1.80000000e+00  5.99771502e-09  5.21301846e-03  5.99771502e-09  5.00000000e-01                                 
 9.19992515e-09  6.91277314e-01  9.19992515e-09  6.42907017e-01  9.19992515e-09  1.99330923e+00  9.19992515e-09  1.80000000e+00  9.19992515e-09 -5.15401021e-03  9.19992515e-09  5.00000000e-01                                 
 1.06917564e-08  6.86939792e-01  1.06917564e-08  6.38651772e-01  1.06917564e-08  1.98916722e+00  1.06917564e-08  1.80000000e+00  1.06917564e-08  5.13726079e-03  1.06917564e-08  5.00000000e-01                                 
 1.25834153e-08  6.82261298e-01  1.25834153e-08  6.34046978e-01  1.25834153e-08  1.98470113e+00  1.25834153e-08  1.80000000e+00  1.25834153e-08 -5.07599874e-03  1.25834153e-08  5.00000000e-01                                 
 1.45967833e-08  6.78028197e-01  1.45967833e-08  6.29868882e-01  1.45967833e-08  1.98070923e+00  1.45967833e-08  1.80000000e+00  1.45967833e-08  5.06499958e-03  1.45967833e-08  5.00000000e-01                                 
 1.81571155e-08  6.71822746e-01  1.81571155e-08  6.23726368e-01  1.81571155e-08  1.97482380e+00  1.81571155e-08  1.80000000e+00  1.81571155e-08 -5.02441878e-03  1.81571155e-08  5.00000000e-01                                 
 2.16670339e-08  6.66857265e-01  2.16670339e-08  6.18797358e-01  2.16670339e-08  1.97016787e+00  2.16670339e-08  1.80000000e+00  2.16670339e-08  5.02641377e-03  2.16670339e-08  5.00000000e-01                                 
 2.86868706e-08  6.58982316e-01  2.86868706e-08  6.10959924e-01  2.86868706e-08  1.96274041e+00  2.86868706e-08  1.80000000e+00  2.86868706e-08 -4.99550616e-03  2.86868706e-08  5.00000000e-01                                 
 3.64536737e-08  6.52360620e-01  3.64536737e-08  6.04352048e-01  3.64536737e-08  1.95654583e+00  3.64536737e-08  1.80000000e+00  3.64536737e-08  5.00844511e-03  3.64536737e-08  5.00000000e-01                                 
 5.19872799e-08  6.42544834e-01  5.19872799e-08  5.94534035e-01  5.19872799e-08  1.94731586e+00  5.19872799e-08  1.80000000e+00  5.19872799e-08 -4.98240132e-03  5.19872799e-08  5.00000000e-01                                 
 7.64026101e-08  6.32008362e-01  7.64026101e-08  5.83969182e-01  7.64026101e-08  1.93744222e+00  7.64026101e-08  1.80000000e+00  7.64026101e-08  5.00160829e-03  7.64026101e-08  5.00000000e-01                                 
 1.23835892e-07  6.19356560e-01  1.23835892e-07  5.71134669e-01  1.23835892e-07  1.92708041e+00  1.23835892e-07  1.80000000e+00  1.23835892e-07 -4.97825739e-03  1.23835892e-07  5.00000000e-01                                 
 1.68783920e-07  6.12313883e-01  1.68783920e-07  5.63798174e-01  1.68783920e-07  1.92356304e+00  1.68783920e-07  1.80000000e+00  1.68783920e-07  4.99883906e-03  1.68783920e-07  5.00000000e-01                                 
 2.12196938e-07  6.06675435e-01  2.12196938e-07  5.58037526e-01  2.12196938e-07  1.90933749e+00  2.12196938e-07  1.80000000e+00  2.12196938e-07 -4.97525299e-03  2.12196938e-07  5.00000000e-01                                 
 2.50162728e-07  5.97835058e-01  2.50162728e-07  5.50105622e-01  2.50162728e-07  1.87786594e+00  2.50162728e-07  1.80000000e+00  2.50162728e-07  4.99547328e-03  2.50162728e-07  5.00000000e-01                                 
 2.78997220e-07  5.87163739e-01  2.78997220e-07  5.41046639e-01  2.78997220e-07  1.84152810e+00  2.78997220e-07  1.80000000e+00  2.78997220e-07 -4.97137414e-03  2.78997220e-07  5.00000000e-01                                 
 3.09860746e-07  5.78863793e-01  3.09860746e-07  5.33910495e-01  3.09860746e-07  1.80260039e+00  3.09860746e-07  1.80000000e+00  3.09860746e-07  4.99112886e-03  3.09860746e-07  5.00000000e-01                                 
 3.36207208e-07  5.82790913e-01  3.36207208e-07  5.36585008e-01  3.36207208e-07  1.79482414e+00  3.36207208e-07  1.80000000e+00  3.36207208e-07 -4.96638728e-03  3.36207208e-07  5.00000000e-01                                 
 3.63361897e-07  5.85695429e-01  3.63361897e-07  5.38448863e-01  3.63361897e-07  1.77945634e+00  3.63361897e-07  1.80000000e+00  3.63361897e-07  4.98613042e-03  3.63361897e-07  5.00000000e-01                                 
 3.89178234e-07  5.78579766e-01  3.89178234e-07  5.32420247e-01  3.89178234e-07  1.74383655e+00  3.89178234e-07  1.80000000e+00  3.89178234e-07 -4.96178714e-03  3.89178234e-07  5.00000000e-01                                 
 4.11951936e-07  5.74157744e-01  4.11951936e-07  5.28601636e-01  4.11951936e-07  1.72127241e+00  4.11951936e-07  1.80000000e+00  4.11951936e-07  4.98076252e-03  4.11951936e-07  5.00000000e-01                                 
 4.35378024e-07  5.69552022e-01  4.35378024e-07  5.24653098e-01  4.35378024e-07  1.69311576e+00  4.35378024e-07  1.80000000e+00  4.35378024e-07 -4.95616971e-03  4.35378024e-07  5.00000000e-01                                 
 4.75097914e-07  5.60331033e-01  4.75097914e-07  5.16894397e-01  4.75097914e-07  1.64664423e+00  4.75097914e-07  1.80000000e+00  4.75097914e-07  4.97628598e-03  4.75097914e-07  5.00000000e-01                                 
 5.24649777e-07  5.49234528e-01  5.24649777e-07  5.07629395e-01  5.24649777e-07  1.58775865e+00  5.24649777e-07  1.80000000e+00  5.24649777e-07 -4.95322352e-03  5.24649777e-07  5.00000000e-01                                 
 5.93937461e-07  5.30377423e-01  5.93937461e-07  4.92170369e-01  5.93937461e-07  1.50005516e+00  5.93937461e-07  1.80000000e+00  5.93937461e-07  4.97398500e-03  5.93937461e-07  5.00000000e-01                                 
 6.82137533e-07  5.03738155e-01  6.82137533e-07  4.70596810e-01  6.82137533e-07  1.38507695e+00  6.82137533e-07  1.80000000e+00  6.82137533e-07 -4.95157893e-03  6.82137533e-07  5.00000000e-01                                 
 7.97048180e-07  4.67109798e-01  7.97048180e-07  4.41208284e-01  7.97048180e-07  1.23300129e+00  7.97048180e-07  1.80000000e+00  7.97048180e-07  4.97266924e-03  7.97048180e-07  5.00000000e-01                                 
 8.03849636e-07  4.65812617e-01  8.03849636e-07  4.40173619e-01  8.03849636e-07  1.22437480e+00  8.03849636e-07  1.80000000e+00  8.03849636e-07  2.59881139e-06  8.03849636e-07  5.00000000e-01                                 
 8.17452549e-07  4.65383536e-01  8.17452549e-07  4.39839961e-01  8.17452549e-07  1.20972314e+00  8.17452549e-07  1.80000000e+00  8.17452549e-07 -2.19988594e-06  8.17452549e-07  5.00000000e-01                                 
 8.44658373e-07  4.94856578e-01  8.44658373e-07  4.63459447e-01  8.44658373e-07  1.20986493e+00  8.44658373e-07  1.80000000e+00  8.44658373e-07  3.48037153e-06  8.44658373e-07  5.00000000e-01                                 
 8.69290839e-07  6.05136669e-01  8.69290839e-07  5.51749376e-01  8.69290839e-07  1.28986398e+00  8.69290839e-07  1.80000000e+00  8.69290839e-07  6.94432836e-07  8.69290839e-07  5.00000000e-01                                 
 9.00771816e-07  7.52490404e-01  9.00771816e-07  6.96423811e-01  9.00771816e-07  1.39908019e+00  9.00771816e-07  1.80000000e+00  9.00771816e-07  4.92979142e-06  9.00771816e-07  5.00000000e-01                                 
 9.28630715e-07  7.93616127e-01  9.28630715e-07  7.37189839e-01  9.28630715e-07  1.40989096e+00  9.28630715e-07  1.80000000e+00  9.28630715e-07 -2.36687741e-06  9.28630715e-07  5.00000000e-01                                 
 9.58416173e-07  8.13002028e-01  9.58416173e-07  7.53884829e-01  9.58416173e-07  1.39747637e+00  9.58416173e-07  1.80000000e+00  9.58416173e-07  3.56164682e-06  9.58416173e-07  5.00000000e-01                                 
 9.98659866e-07  8.14979137e-01  9.98659866e-07  7.55798810e-01  9.98659866e-07  1.35873741e+00  9.98659866e-07  1.80000000e+00  9.98659866e-07 -2.98250997e-06  9.98659866e-07  5.00000000e-01                                 
 1.04590171e-06  8.15152186e-01  1.04590171e-06  7.55724135e-01  1.04590171e-06  1.31000153e+00  1.04590171e-06  1.80000000e+00  1.04590171e-06  3.36283741e-06  1.04590171e-06  5.00000000e-01                                 
 1.09037051e-06  8.16314981e-01  1.09037051e-06  7.56899204e-01  1.09037051e-06  1.26591954e+00  1.09037051e-06  1.80000000e+00  1.09037051e-06 -2.85865554e-06  1.09037051e-06  5.00000000e-01                                 
 1.14236290e-06  7.99737924e-01  1.14236290e-06  7.42402064e-01  1.14236290e-06  1.19642233e+00  1.14236290e-06  1.80000000e+00  1.14236290e-06  2.86102283e-06  1.14236290e-06  5.00000000e-01                                 
 1.14950200e-06  7.95445414e-01  1.14950200e-06  7.38689152e-01  1.14950200e-06  1.18513252e+00  1.14950200e-06  1.80000000e+00  1.14950200e-06 -1.46507648e-07  1.14950200e-06  5.00000000e-01                                 
 1.16378020e-06  7.89005123e-01  1.16378020e-06  7.32848162e-01  1.16378020e-06  1.16407563e+00  1.16378020e-06  1.80000000e+00  1.16378020e-06 -2.33226042e-08  1.16378020e-06  5.00000000e-01                                 
 1.19233660e-06  7.89520285e-01  1.19233660e-06  7.33255578e-01  1.19233660e-06  1.13447581e+00  1.19233660e-06  1.80000000e+00  1.19233660e-06  4.36181424e-07  1.19233660e-06  5.00000000e-01                                 
 1.24701604e-06  8.02299335e-01  1.24701604e-06  7.44771582e-01  1.24701604e-06  1.08966561e+00  1.24701604e-06  1.80000000e+00  1.24701604e-06  3.02353606e-07  1.24701604e-06  5.00000000e-01                                 
 1.30119478e-06  8.04603826e-01  1.30119478e-06  7.46793273e-01  1.30119478e-06  1.03521333e+00  1.30119478e-06  1.80000000e+00  1.30119478e-06  1.89143101e-07  1.30119478e-06  5.00000000e-01                                 
 1.38090562e-06  7.95976380e-01  1.38090562e-06  7.39163353e-01  1.38090562e-06  9.51193232e-01  1.38090562e-06  1.80000000e+00  1.38090562e-06  1.01192424e-07  1.38090562e-06  5.00000000e-01                                 
 1.48311750e-06  7.98883176e-01  1.48311750e-06  7.41729797e-01  1.48311750e-06  8.77169992e-01  1.48311750e-06  1.80000000e+00  1.48311750e-06  3.63520770e-07  1.48311750e-06  5.00000000e-01                                 
 1.59549166e-06  8.02973898e-01  1.59549166e-06  7.45379230e-01  1.59549166e-06  8.10555172e-01  1.59549166e-06  1.80000000e+00  1.59549166e-06  1.20698799e-07  1.59549166e-06  5.00000000e-01                                 
 1.77284982e-06  7.95659189e-01  1.77284982e-06  7.38851648e-01  1.77284982e-06  7.10110363e-01  1.77284982e-06  1.80000000e+00  1.77284982e-06  2.53455040e-07  1.77284982e-06  5.00000000e-01                                 
 1.94163396e-06  8.02561413e-01  1.94163396e-06  7.45007691e-01  1.94163396e-06  6.36657752e-01  1.94163396e-06  1.80000000e+00  1.94163396e-06  2.28988229e-07  1.94163396e-06  5.00000000e-01                                 
 2.17415861e-06  7.97439877e-01  2.17415861e-06  7.40457842e-01  2.17415861e-06  5.41716695e-01  2.17415861e-06  1.80000000e+00  2.17415861e-06  1.72927472e-07  2.17415861e-06  5.00000000e-01                                 
 2.42838386e-06  8.00581656e-01  2.42838386e-06  7.43256191e-01  2.42838386e-06  4.99366856e-01  2.42838386e-06  1.80000000e+00  2.42838386e-06  2.73240406e-07  2.42838386e-06  5.00000000e-01                                 
 2.47069559e-06  8.00965524e-01  2.47069559e-06  7.43596069e-01  2.47069559e-06  4.98129186e-01  2.47069559e-06  1.80000000e+00  2.47069559e-06  2.22445543e-07  2.47069559e-06  5.00000000e-01                                 
 2.55531903e-06  7.99288822e-01  2.55531903e-06  7.42111744e-01  2.55531903e-06  4.93928054e-01  2.55531903e-06  1.80000000e+00  2.55531903e-06  1.81274315e-07  2.55531903e-06  5.00000000e-01                                 
 2.72456591e-06  7.99280707e-01  2.72456591e-06  7.42099143e-01  2.72456591e-06  4.91047440e-01  2.72456591e-06  1.80000000e+00  2.72456591e-06  2.46355535e-07  2.72456591e-06  5.00000000e-01                                 
 2.90597091e-06  8.00355528e-01  2.90597091e-06  7.43058262e-01  2.90597091e-06  4.98080698e-01  2.90597091e-06  1.80000000e+00  2.90597091e-06  1.91835321e-07  2.90597091e-06  5.00000000e-01                                 
 3.11410807e-06  7.98681787e-01  3.11410807e-06  7.41567427e-01  3.11410807e-06  5.02751475e-01  3.11410807e-06  1.80000000e+00  3.11410807e-06  2.24474992e-07  3.11410807e-06  5.00000000e-01                                 
 3.36265112e-06  8.00506487e-01  3.36265112e-06  7.43190315e-01  3.36265112e-06  4.99012236e-01  3.36265112e-06  1.80000000e+00  3.36265112e-06  2.13555336e-07  3.36265112e-06  5.00000000e-01                                 
 3.39487133e-06  7.99956275e-01  3.39487133e-06  7.42703116e-01  3.39487133e-06  4.98364953e-01  3.39487133e-06  1.80000000e+00  3.39487133e-06  2.04266468e-07  3.39487133e-06  5.00000000e-01                                 
 3.45931174e-06  7.99240760e-01  3.45931174e-06  7.42066581e-01  3.45931174e-06  4.98665684e-01  3.45931174e-06  1.80000000e+00  3.45931174e-06  2.10725534e-07  3.45931174e-06  5.00000000e-01                                 
 3.58819257e-06  7.99746442e-01  3.58819257e-06  7.42515096e-01  3.58819257e-06  5.01059052e-01  3.58819257e-06  1.80000000e+00  3.58819257e-06  2.21993177e-07  3.58819257e-06  5.00000000e-01                                 
 3.84595422e-06  7.99599268e-01  3.84595422e-06  7.42385867e-01  3.84595422e-06  4.99893964e-01  3.84595422e-06  1.80000000e+00  3.84595422e-06  2.05765588e-07  3.84595422e-06  5.00000000e-01                                 
 4.15193038e-06  7.99518592e-01  4.15193038e-06  7.42312599e-01  4.15193038e-06  5.00031147e-01  4.15193038e-06  1.80000000e+00  4.15193038e-06  2.22272944e-07  4.15193038e-06  5.00000000e-01                                 
 4.76388271e-06  7.99741088e-01  4.76388271e-06  7.42511795e-01  4.76388271e-06  5.00393819e-01  4.76388271e-06  1.80000000e+00  4.76388271e-06  2.06622686e-07  4.76388271e-06  5.00000000e-01                                 
 5.76388271e-06  7.99451401e-01  5.76388271e-06  7.42252942e-01  5.76388271e-06  4.99860818e-01  5.76388271e-06  1.80000000e+00  5.76388271e-06  2.21396910e-07  5.76388271e-06  5.00000000e-01                                 
 6.76388271e-06  7.99786292e-01  6.76388271e-06  7.42551872e-01  6.76388271e-06  5.00483099e-01  6.76388271e-06  1.80000000e+00  6.76388271e-06  2.07461225e-07  6.76388271e-06  5.00000000e-01                                 
 7.76388271e-06  7.99410404e-01  7.76388271e-06  7.42216571e-01  7.76388271e-06  4.99797905e-01  7.76388271e-06  1.80000000e+00  7.76388271e-06  2.20441309e-07  7.76388271e-06  5.00000000e-01                                 
 8.76388271e-06  7.99822267e-01  8.76388271e-06  7.42583730e-01  8.76388271e-06  5.00523311e-01  8.76388271e-06  1.80000000e+00  8.76388271e-06  2.08521513e-07  8.76388271e-06  5.00000000e-01                                 
