 time            v(vbep)         time            v(vben)         time            v(vout)         time            v(vphi1)        time            v(vphi2)        time            v(vref)         yes             currtemp       
 0.00000000e+00  7.00744724e-01  0.00000000e+00  6.48585372e-01  0.00000000e+00  8.23650395e-02  0.00000000e+00  0.00000000e+00  0.00000000e+00  1.79997577e+00  0.00000000e+00  5.00000000e-01  1.00000000e+00  1.20000000e+01 
 5.00000000e-12  7.00728834e-01  5.00000000e-12  6.48572132e-01  5.00000000e-12  8.28227692e-02  5.00000000e-12  1.80000000e-02  5.00000000e-12  1.80005515e+00  5.00000000e-12  5.00000000e-01                                 
 1.00000000e-11  7.00713169e-01  1.00000000e-11  6.48559163e-01  1.00000000e-11  8.32334213e-02  1.00000000e-11  3.60000000e-02  1.00000000e-11  1.80009387e+00  1.00000000e-11  5.00000000e-01                                 
 2.00000000e-11  7.00681951e-01  2.00000000e-11  6.48533293e-01  2.00000000e-11  8.39871651e-02  2.00000000e-11  7.20000000e-02  2.00000000e-11  1.80012849e+00  2.00000000e-11  5.00000000e-01                                 
 4.00000000e-11  7.00619719e-01  4.00000000e-11  6.48481684e-01  4.00000000e-11  8.51806316e-02  4.00000000e-11  1.44000000e-01  4.00000000e-11  1.80010734e+00  4.00000000e-11  5.00000000e-01                                 
 8.00000000e-11  7.00495626e-01  8.00000000e-11  6.48378731e-01  8.00000000e-11  8.68232692e-02  8.00000000e-11  2.88000000e-01  8.00000000e-11  1.80006542e+00  8.00000000e-11  5.00000000e-01                                 
 1.60000000e-10  7.00249017e-01  1.60000000e-10  6.48173905e-01  1.60000000e-10  8.89300384e-02  1.60000000e-10  5.76000000e-01  1.60000000e-10  1.80002703e+00  1.60000000e-10  5.00000000e-01                                 
 3.20000000e-10  6.99761960e-01  3.20000000e-10  6.47768542e-01  3.20000000e-10  1.25314932e-01  3.20000000e-10  1.15200000e+00  3.20000000e-10  1.79998231e+00  3.20000000e-10  5.00000000e-01                                 
 5.00000000e-10  6.99223767e-01  5.00000000e-10  6.47319315e-01  5.00000000e-10  4.93042931e-01  5.00000000e-10  1.80000000e+00  5.00000000e-10  1.06358864e-01  5.00000000e-10  5.00000000e-01                                 
 5.21361639e-10  6.99160648e-01  5.21361639e-10  6.47266532e-01  5.21361639e-10  5.61912594e-01  5.21361639e-10  1.80000000e+00  5.21361639e-10  1.95316822e-02  5.21361639e-10  5.00000000e-01                                 
 5.64084916e-10  6.99034687e-01  5.64084916e-10  6.47161158e-01  5.64084916e-10  6.85353418e-01  5.64084916e-10  1.80000000e+00  5.64084916e-10 -9.30363344e-03  5.64084916e-10  5.00000000e-01                                 
 6.49531470e-10  6.98784441e-01  6.49531470e-10  6.46951594e-01  6.49531470e-10  8.72392634e-01  6.49531470e-10  1.80000000e+00  6.49531470e-10  7.98015232e-03  6.49531470e-10  5.00000000e-01                                 
 7.72705299e-10  6.98427577e-01  7.72705299e-10  6.46652244e-01  7.72705299e-10  1.07526091e+00  7.72705299e-10  1.80000000e+00  7.72705299e-10 -6.98632363e-03  7.72705299e-10  5.00000000e-01                                 
 9.63522773e-10  6.97883515e-01  9.63522773e-10  6.46194741e-01  9.63522773e-10  1.32752787e+00  9.63522773e-10  1.80000000e+00  9.63522773e-10  6.61163988e-03  9.63522773e-10  5.00000000e-01                                 
 1.32494052e-09  6.96880948e-01  1.32494052e-09  6.45348193e-01  1.32494052e-09  1.65843706e+00  1.32494052e-09  1.80000000e+00  1.32494052e-09 -6.26812309e-03  1.32494052e-09  5.00000000e-01                                 
 1.97369138e-09  6.95165963e-01  1.97369138e-09  6.43889900e-01  1.97369138e-09  1.88344920e+00  1.97369138e-09  1.80000000e+00  1.97369138e-09  6.22404122e-03  1.97369138e-09  5.00000000e-01                                 
 2.22953987e-09  6.94517901e-01  2.22953987e-09  6.43335417e-01  2.22953987e-09  1.90209640e+00  2.22953987e-09  1.80000000e+00  2.22953987e-09 -5.83178547e-03  2.22953987e-09  5.00000000e-01                                 
 2.54552216e-09  6.93737671e-01  2.54552216e-09  6.42665493e-01  2.54552216e-09  1.90953170e+00  2.54552216e-09  1.80000000e+00  2.54552216e-09  5.64414584e-03  2.54552216e-09  5.00000000e-01                                 
 2.89533886e-09  6.92898531e-01  2.89533886e-09  6.41942159e-01  2.89533886e-09  1.91282131e+00  2.89533886e-09  1.80000000e+00  2.89533886e-09 -5.38647434e-03  2.89533886e-09  5.00000000e-01                                 
 3.59497226e-09  6.91291506e-01  3.59497226e-09  6.40549066e-01  3.59497226e-09  1.91672002e+00  3.59497226e-09  1.80000000e+00  3.59497226e-09  5.32744758e-03  3.59497226e-09  5.00000000e-01                                 
 4.54428364e-09  6.89248128e-01  4.54428364e-09  6.38763224e-01  4.54428364e-09  1.91653871e+00  4.54428364e-09  1.80000000e+00  4.54428364e-09 -5.21900930e-03  4.54428364e-09  5.00000000e-01                                 
 6.44290640e-09  6.85552591e-01  6.44290640e-09  6.35495890e-01  6.44290640e-09  1.90767781e+00  6.44290640e-09  1.80000000e+00  6.44290640e-09  5.21896208e-03  6.44290640e-09  5.00000000e-01                                 
 9.01043149e-09  6.81212215e-01  9.01043149e-09  6.31600918e-01  9.01043149e-09  1.89560490e+00  9.01043149e-09  1.80000000e+00  9.01043149e-09 -5.15321528e-03  9.01043149e-09  5.00000000e-01                                 
 1.03695167e-08  6.79162712e-01  1.03695167e-08  6.29741057e-01  1.03695167e-08  1.89054946e+00  1.03695167e-08  1.80000000e+00  1.03695167e-08  5.13460266e-03  1.03695167e-08  5.00000000e-01                                 
 1.22621696e-08  6.76532973e-01  1.22621696e-08  6.27338125e-01  1.22621696e-08  1.88415087e+00  1.22621696e-08  1.80000000e+00  1.22621696e-08 -5.07173720e-03  1.22621696e-08  5.00000000e-01                                 
 1.42618993e-08  6.73999942e-01  1.42618993e-08  6.25006511e-01  1.42618993e-08  1.87807635e+00  1.42618993e-08  1.80000000e+00  1.42618993e-08  5.06274820e-03  1.42618993e-08  5.00000000e-01                                 
 1.76716121e-08  6.70160876e-01  1.76716121e-08  6.21442013e-01  1.76716121e-08  1.86894163e+00  1.76716121e-08  1.80000000e+00  1.76716121e-08 -5.02011763e-03  1.76716121e-08  5.00000000e-01                                 
 2.15862550e-08  6.66379759e-01  2.15862550e-08  6.17891794e-01  2.15862550e-08  1.85986456e+00  2.15862550e-08  1.80000000e+00  2.15862550e-08  5.02559777e-03  2.15862550e-08  5.00000000e-01                                 
 2.82613402e-08  6.61098597e-01  2.82613402e-08  6.12860610e-01  2.82613402e-08  1.84685523e+00  2.82613402e-08  1.80000000e+00  2.82613402e-08 -4.99333276e-03  2.82613402e-08  5.00000000e-01                                 
 3.82878904e-08  6.54951261e-01  3.82878904e-08  6.06905528e-01  3.82878904e-08  1.83087543e+00  3.82878904e-08  1.80000000e+00  3.82878904e-08  5.00916264e-03  3.82878904e-08  5.00000000e-01                                 
 5.83409907e-08  6.45700304e-01  5.83409907e-08  5.97860815e-01  5.83409907e-08  1.80257258e+00  5.83409907e-08  1.80000000e+00  5.83409907e-08 -4.98348052e-03  5.83409907e-08  5.00000000e-01                                 
 9.03784826e-08  6.35295898e-01  9.03784826e-08  5.87626723e-01  9.03784826e-08  1.76266585e+00  9.03784826e-08  1.80000000e+00  9.03784826e-08  5.00395039e-03  9.03784826e-08  5.00000000e-01                                 
 1.40362215e-07  6.23533286e-01  1.40362215e-07  5.76143434e-01  1.40362215e-07  1.70460090e+00  1.40362215e-07  1.80000000e+00  1.40362215e-07 -4.98004480e-03  1.40362215e-07  5.00000000e-01                                 
 1.86433851e-07  6.12751128e-01  1.86433851e-07  5.66167093e-01  1.86433851e-07  1.65020711e+00  1.86433851e-07  1.80000000e+00  1.86433851e-07  5.00121934e-03  1.86433851e-07  5.00000000e-01                                 
 2.64849493e-07  5.95863842e-01  2.64849493e-07  5.50987359e-01  2.64849493e-07  1.55700066e+00  2.64849493e-07  1.80000000e+00  2.64849493e-07 -4.97778735e-03  2.64849493e-07  5.00000000e-01                                 
 3.47556101e-07  5.80079920e-01  3.47556101e-07  5.37151733e-01  3.47556101e-07  1.45828461e+00  3.47556101e-07  1.80000000e+00  3.47556101e-07  4.99962289e-03  3.47556101e-07  5.00000000e-01                                 
 5.12969318e-07  5.47413795e-01  5.12969318e-07  5.09590483e-01  5.12969318e-07  1.25732470e+00  5.12969318e-07  1.80000000e+00  5.12969318e-07 -4.97661655e-03  5.12969318e-07  5.00000000e-01                                 
 5.52517533e-07  5.39365452e-01  5.52517533e-07  5.02981610e-01  5.52517533e-07  1.20848680e+00  5.52517533e-07  1.80000000e+00  5.52517533e-07 -3.24204084e-07  5.52517533e-07  5.00000000e-01                                 
 6.31613965e-07  5.21907348e-01  6.31613965e-07  4.88741527e-01  6.31613965e-07  1.10843480e+00  6.31613965e-07  1.80000000e+00  6.31613965e-07  4.42936034e-07  6.31613965e-07  5.00000000e-01                                 
 7.72955897e-07  4.92775390e-01  7.72955897e-07  4.65183685e-01  7.72955897e-07  9.40427196e-01  7.72955897e-07  1.80000000e+00  7.72955897e-07 -3.08397567e-07  7.72955897e-07  5.00000000e-01                                 
 7.96657759e-07  4.90576976e-01  7.96657759e-07  4.63407161e-01  7.96657759e-07  9.19749408e-01  7.96657759e-07  1.80000000e+00  7.96657759e-07  1.11889976e-07  7.96657759e-07  5.00000000e-01                                 
 8.44061485e-07  4.97119913e-01  8.44061485e-07  4.68612782e-01  8.44061485e-07  8.89539757e-01  8.44061485e-07  1.80000000e+00  8.44061485e-07  2.93086206e-07  8.44061485e-07  5.00000000e-01                                 
 8.96541037e-07  5.93211712e-01  8.96541037e-07  5.45353302e-01  8.96541037e-07  9.30207636e-01  8.96541037e-07  1.80000000e+00  8.96541037e-07  1.49469448e-06  8.96541037e-07  5.00000000e-01                                 
 9.46459672e-07  7.51070741e-01  9.46459672e-07  6.96416987e-01  9.46459672e-07  1.02823979e+00  9.46459672e-07  1.80000000e+00  9.46459672e-07  2.10697314e-06  9.46459672e-07  5.00000000e-01                                 
 9.57648829e-07  7.65065789e-01  9.57648829e-07  7.11201737e-01  9.57648829e-07  1.03136773e+00  9.57648829e-07  1.80000000e+00  9.57648829e-07  1.02795656e-06  9.57648829e-07  5.00000000e-01                                 
 9.80027142e-07  7.84404747e-01  9.80027142e-07  7.30068270e-01  9.80027142e-07  1.02759376e+00  9.80027142e-07  1.80000000e+00  9.80027142e-07  4.42017951e-07  9.80027142e-07  5.00000000e-01                                 
 1.02478377e-06  8.06995400e-01  1.02478377e-06  7.50814198e-01  1.02478377e-06  1.00284304e+00  1.02478377e-06  1.80000000e+00  1.02478377e-06  4.91507601e-07  1.02478377e-06  5.00000000e-01                                 
 1.07991000e-06  8.21058615e-01  1.07991000e-06  7.63072048e-01  1.07991000e-06  9.62977377e-01  1.07991000e-06  1.80000000e+00  1.07991000e-06  1.54642755e-07  1.07991000e-06  5.00000000e-01                                 
 1.14352301e-06  8.27600520e-01  1.14352301e-06  7.68515340e-01  1.14352301e-06  9.15759234e-01  1.14352301e-06  1.80000000e+00  1.14352301e-06  2.70920236e-07  1.14352301e-06  5.00000000e-01                                 
 1.20201515e-06  8.02836762e-01  1.20201515e-06  7.47215544e-01  1.20201515e-06  8.54033045e-01  1.20201515e-06  1.80000000e+00  1.20201515e-06 -4.76687163e-07  1.20201515e-06  5.00000000e-01                                 
 1.26273593e-06  7.83495351e-01  1.26273593e-06  7.29137317e-01  1.26273593e-06  7.99777121e-01  1.26273593e-06  1.80000000e+00  1.26273593e-06  3.42571127e-07  1.26273593e-06  5.00000000e-01                                 
 1.32372375e-06  8.09354279e-01  1.32372375e-06  7.52949502e-01  1.32372375e-06  7.88781055e-01  1.32372375e-06  1.80000000e+00  1.32372375e-06  4.87607935e-07  1.32372375e-06  5.00000000e-01                                 
 1.38216221e-06  8.22527914e-01  1.38216221e-06  7.64282984e-01  1.38216221e-06  7.68587212e-01  1.38216221e-06  1.80000000e+00  1.38216221e-06  1.25986612e-07  1.38216221e-06  5.00000000e-01                                 
 1.44925308e-06  8.03184909e-01  1.44925308e-06  7.47511665e-01  1.44925308e-06  7.17648717e-01  1.44925308e-06  1.80000000e+00  1.44925308e-06 -1.90999692e-07  1.44925308e-06  5.00000000e-01                                 
 1.52072858e-06  7.90422985e-01  1.52072858e-06  7.35663048e-01  1.52072858e-06  6.72347549e-01  1.52072858e-06  1.80000000e+00  1.52072858e-06  2.48407381e-07  1.52072858e-06  5.00000000e-01                                 
 1.58732837e-06  8.15150156e-01  1.58732837e-06  7.58025282e-01  1.58732837e-06  6.63325804e-01  1.58732837e-06  1.80000000e+00  1.58732837e-06  5.12860432e-07  1.58732837e-06  5.00000000e-01                                 
 1.66067190e-06  8.13712685e-01  1.66067190e-06  7.56762931e-01  1.66067190e-06  6.28719865e-01  1.66067190e-06  1.80000000e+00  1.66067190e-06 -2.08676769e-07  1.66067190e-06  5.00000000e-01                                 
 1.66948084e-06  8.10265431e-01  1.66948084e-06  7.53773813e-01  1.66948084e-06  6.21809929e-01  1.66948084e-06  1.80000000e+00  1.66948084e-06 -1.18410381e-07  1.66948084e-06  5.00000000e-01                                 
 1.68709872e-06  8.03508438e-01  1.68709872e-06  7.47753091e-01  1.68709872e-06  6.08269192e-01  1.68709872e-06  1.80000000e+00  1.68709872e-06 -8.80711984e-08  1.68709872e-06  5.00000000e-01                                 
 1.72233448e-06  8.00026177e-01  1.72233448e-06  7.44567949e-01  1.72233448e-06  5.90419091e-01  1.72233448e-06  1.80000000e+00  1.72233448e-06  2.37815832e-07  1.72233448e-06  5.00000000e-01                                 
 1.78896996e-06  8.09887372e-01  1.78896996e-06  7.53411161e-01  1.78896996e-06  5.71846890e-01  1.78896996e-06  1.80000000e+00  1.78896996e-06  2.49025440e-07  1.78896996e-06  5.00000000e-01                                 
 1.86317681e-06  8.08883074e-01  1.86317681e-06  7.52539375e-01  1.86317681e-06  5.43707398e-01  1.86317681e-06  1.80000000e+00  1.86317681e-06  4.36728359e-08  1.86317681e-06  5.00000000e-01                                 
 1.95005941e-06  8.03202938e-01  1.95005941e-06  7.47454666e-01  1.95005941e-06  5.18428497e-01  1.95005941e-06  1.80000000e+00  1.95005941e-06  1.70265122e-07  1.95005941e-06  5.00000000e-01                                 
 2.10579606e-06  8.09762599e-01  2.10579606e-06  7.53304853e-01  2.10579606e-06  5.07122697e-01  2.10579606e-06  1.80000000e+00  2.10579606e-06  1.84105115e-07  2.10579606e-06  5.00000000e-01                                 
 2.26158381e-06  8.05344949e-01  2.26158381e-06  7.49387589e-01  2.26158381e-06  4.94651018e-01  2.26158381e-06  1.80000000e+00  2.26158381e-06  7.92359041e-08  2.26158381e-06  5.00000000e-01                                 
 2.46384954e-06  8.07101072e-01  2.46384954e-06  7.50941371e-01  2.46384954e-06  4.97865002e-01  2.46384954e-06  1.80000000e+00  2.46384954e-06  2.29705034e-07  2.46384954e-06  5.00000000e-01                                 
 2.74895339e-06  8.07608898e-01  2.74895339e-06  7.51407890e-01  2.74895339e-06  5.03084188e-01  2.74895339e-06  1.80000000e+00  2.74895339e-06  7.14838227e-08  2.74895339e-06  5.00000000e-01                                 
 3.04486337e-06  8.05506977e-01  3.04486337e-06  7.49519202e-01  3.04486337e-06  4.97668061e-01  3.04486337e-06  1.80000000e+00  3.04486337e-06  2.16411724e-07  3.04486337e-06  5.00000000e-01                                 
 3.41314556e-06  8.08732498e-01  3.41314556e-06  7.52402787e-01  3.41314556e-06  5.02174885e-01  3.41314556e-06  1.80000000e+00  3.41314556e-06  9.41009160e-08  3.41314556e-06  5.00000000e-01                                 
 3.97533024e-06  8.04837222e-01  3.97533024e-06  7.48920930e-01  3.97533024e-06  4.98393479e-01  3.97533024e-06  1.80000000e+00  3.97533024e-06  1.94536048e-07  3.97533024e-06  5.00000000e-01                                 
 4.62594739e-06  8.09055537e-01  4.62594739e-06  7.52687153e-01  4.62594739e-06  5.01793281e-01  4.62594739e-06  1.80000000e+00  4.62594739e-06  1.12482404e-07  4.62594739e-06  5.00000000e-01                                 
 5.58050944e-06  8.04636417e-01  5.58050944e-06  7.48742083e-01  5.58050944e-06  4.98550132e-01  5.58050944e-06  1.80000000e+00  5.58050944e-06  1.79473943e-07  5.58050944e-06  5.00000000e-01                                 
 6.58050944e-06  8.09147761e-01  6.58050944e-06  7.52767692e-01  6.58050944e-06  5.01749725e-01  6.58050944e-06  1.80000000e+00  6.58050944e-06  1.24751543e-07  6.58050944e-06  5.00000000e-01                                 
 7.58050944e-06  8.04578009e-01  7.58050944e-06  7.48690743e-01  7.58050944e-06  4.98537109e-01  7.58050944e-06  1.80000000e+00  7.58050944e-06  1.67376866e-07  7.58050944e-06  5.00000000e-01                                 
 8.58050944e-06  8.09161771e-01  8.58050944e-06  7.52779073e-01  8.58050944e-06  5.01796872e-01  8.58050944e-06  1.80000000e+00  8.58050944e-06  1.36858177e-07  8.58050944e-06  5.00000000e-01                                 
 9.58050944e-06  8.04599236e-01  9.58050944e-06  7.48710893e-01  9.58050944e-06  4.98471742e-01  9.58050944e-06  1.80000000e+00  9.58050944e-06  1.55363153e-07  9.58050944e-06  5.00000000e-01                                 
 1.00005000e-05  8.09029361e-01  1.00005000e-05  7.52660296e-01  1.00005000e-05  5.01900244e-01  1.00005000e-05  1.80000000e+00  1.00005000e-05  1.56486986e-07  1.00005000e-05  5.00000000e-01                                 
 1.00005500e-05  8.09029324e-01  1.00005500e-05  7.52660301e-01  1.00005500e-05  4.93879237e-01  1.00005500e-05  1.62000000e+00  1.00005500e-05 -7.29957612e-05  1.00005500e-05  5.00000000e-01                                 
 1.00006500e-05  8.09029361e-01  1.00006500e-05  7.52660337e-01  1.00006500e-05  4.80173617e-01  1.00006500e-05  1.26000000e+00  1.00006500e-05 -5.25201061e-05  1.00006500e-05  5.00000000e-01                                 
 1.00008500e-05  8.09029482e-01  1.00008500e-05  7.52660416e-01  1.00008500e-05  4.79140444e-01  1.00008500e-05  5.40000000e-01  1.00008500e-05 -1.52893614e-03  1.00008500e-05  5.00000000e-01                                 
 1.00010000e-05  8.09029391e-01  1.00010000e-05  7.52660373e-01  1.00010000e-05  4.41350806e-01  1.00010000e-05  0.00000000e+00  1.00010000e-05  1.55855138e+00  1.00010000e-05  5.00000000e-01                                 
 1.00010165e-05  8.09029326e-01  1.00010165e-05  7.52660337e-01  1.00010165e-05  4.20249645e-01  1.00010165e-05  0.00000000e+00  1.00010165e-05  1.69118943e+00  1.00010165e-05  5.00000000e-01                                 
 1.00010495e-05  8.09029222e-01  1.00010495e-05  7.52660269e-01  1.00010495e-05  3.73344457e-01  1.00010495e-05  0.00000000e+00  1.00010495e-05  1.80732123e+00  1.00010495e-05  5.00000000e-01                                 
 1.00011155e-05  8.09029213e-01  1.00011155e-05  7.52660212e-01  1.00011155e-05  2.98553735e-01  1.00011155e-05  0.00000000e+00  1.00011155e-05  1.79362597e+00  1.00011155e-05  5.00000000e-01                                 
 1.00011978e-05  8.09029333e-01  1.00011978e-05  7.52660259e-01  1.00011978e-05  2.63958451e-01  1.00011978e-05  0.00000000e+00  1.00011978e-05  1.80096202e+00  1.00011978e-05  5.00000000e-01                                 
 1.00013270e-05  8.09029412e-01  1.00013270e-05  7.52660340e-01  1.00013270e-05  2.55178921e-01  1.00013270e-05  0.00000000e+00  1.00013270e-05  1.79880720e+00  1.00013270e-05  5.00000000e-01                                 
 1.00014811e-05  8.09029319e-01  1.00014811e-05  7.52660290e-01  1.00014811e-05  2.57085628e-01  1.00014811e-05  0.00000000e+00  1.00014811e-05  1.80043506e+00  1.00014811e-05  5.00000000e-01                                 
