 time            v(vbep)         time            v(vben)         time            v(vout)         time            v(vphi1)        time            v(vphi2)        time            v(vref)         time            v(voutc)        time            v(voutcc)       yes             currtemp       
 0.00000000e+00  7.03732787e-01  0.00000000e+00  6.35515924e-01  0.00000000e+00  1.46308823e+00  0.00000000e+00  0.00000000e+00  0.00000000e+00  1.79999999e+00  0.00000000e+00  6.35687344e-01  0.00000000e+00  1.46308822e+00  0.00000000e+00  1.47084422e+00  1.00000000e+00  7.30000000e+01 
 1.00000000e-11  7.03757917e-01  1.00000000e-11  6.35588987e-01  1.00000000e-11  1.46384603e+00  1.00000000e-11  1.80000000e-02  1.00000000e-11  1.80025369e+00  1.00000000e-11  6.36219972e-01  1.00000000e-11  1.46355777e+00  1.00000000e-11  1.47085802e+00                                 
 2.00000000e-11  7.03764691e-01  2.00000000e-11  6.35633935e-01  2.00000000e-11  1.46429728e+00  2.00000000e-11  3.60000000e-02  2.00000000e-11  1.80035228e+00  2.00000000e-11  6.36612983e-01  2.00000000e-11  1.46390898e+00  2.00000000e-11  1.47086288e+00                                 
 4.00000000e-11  7.03764599e-01  4.00000000e-11  6.35692400e-01  4.00000000e-11  1.46482247e+00  4.00000000e-11  7.20000000e-02  4.00000000e-11  1.80038715e+00  4.00000000e-11  6.37186441e-01  4.00000000e-11  1.46442788e+00  4.00000000e-11  1.47086411e+00                                 
 8.00000000e-11  7.03752979e-01  8.00000000e-11  6.35728401e-01  8.00000000e-11  1.46488567e+00  8.00000000e-11  1.44000000e-01  8.00000000e-11  1.80018083e+00  8.00000000e-11  6.37632472e-01  8.00000000e-11  1.46483910e+00  8.00000000e-11  1.47085373e+00                                 
 1.60000000e-10  7.03750248e-01  1.60000000e-10  6.35737334e-01  1.60000000e-10  1.46454903e+00  1.60000000e-10  2.88000000e-01  1.60000000e-10  1.80000595e+00  1.60000000e-10  6.37731810e-01  1.60000000e-10  1.46488060e+00  1.60000000e-10  1.47084465e+00                                 
 3.20000000e-10  7.03745324e-01  3.20000000e-10  6.35725492e-01  3.20000000e-10  1.46416398e+00  3.20000000e-10  5.76000000e-01  3.20000000e-10  1.79997984e+00  3.20000000e-10  6.37562689e-01  3.20000000e-10  1.46452390e+00  3.20000000e-10  1.47083930e+00                                 
 6.40000000e-10  7.03663147e-01  6.40000000e-10  6.35274201e-01  6.40000000e-10  1.46255486e+00  6.40000000e-10  1.15200000e+00  6.40000000e-10  1.80872393e+00  6.40000000e-10  6.34498536e-01  6.40000000e-10  1.46766750e+00  6.40000000e-10  1.47086192e+00                                 
 1.00000000e-09  7.04199294e-01  1.00000000e-09  6.35723538e-01  1.00000000e-09  1.44355484e+00  1.00000000e-09  1.80000000e+00  1.00000000e-09  1.08366904e-01  1.00000000e-09  6.51431664e-01  1.00000000e-09  1.47452783e+00  1.00000000e-09  1.47087737e+00                                 
 1.03755557e-09  7.04278592e-01  1.03755557e-09  6.35722315e-01  1.03755557e-09  1.44197748e+00  1.03755557e-09  1.80000000e+00  1.03755557e-09  2.59567739e-02  1.03755557e-09  6.54633770e-01  1.03755557e-09  1.47628236e+00  1.03755557e-09  1.47089527e+00                                 
 1.11266671e-09  7.04459713e-01  1.11266671e-09  6.35741368e-01  1.11266671e-09  1.43989234e+00  1.11266671e-09  1.80000000e+00  1.11266671e-09 -1.19352424e-02  1.11266671e-09  6.58603462e-01  1.11266671e-09  1.47935066e+00  1.11266671e-09  1.47090502e+00                                 
 1.26288899e-09  7.04594084e-01  1.26288899e-09  6.35581530e-01  1.26288899e-09  1.43649122e+00  1.26288899e-09  1.80000000e+00  1.26288899e-09  9.32862363e-03  1.26288899e-09  6.58324236e-01  1.26288899e-09  1.47940912e+00  1.26288899e-09  1.47085870e+00                                 
 1.44375312e-09  7.04562366e-01  1.44375312e-09  6.35569404e-01  1.44375312e-09  1.43548696e+00  1.44375312e-09  1.80000000e+00  1.44375312e-09 -7.05403152e-03  1.44375312e-09  6.57159390e-01  1.44375312e-09  1.47819186e+00  1.44375312e-09  1.47089940e+00                                 
 1.64804784e-09  7.04456183e-01  1.64804784e-09  6.35568691e-01  1.64804784e-09  1.43510833e+00  1.64804784e-09  1.80000000e+00  1.64804784e-09  5.74676952e-03  1.64804784e-09  6.55389185e-01  1.64804784e-09  1.47686875e+00  1.64804784e-09  1.47094099e+00                                 
 1.99434975e-09  7.04202745e-01  1.99434975e-09  6.35527770e-01  1.99434975e-09  1.43461102e+00  1.99434975e-09  1.80000000e+00  1.99434975e-09 -5.09435518e-03  1.99434975e-09  6.52427600e-01  1.99434975e-09  1.47417460e+00  1.99434975e-09  1.47108431e+00                                 
 2.54725679e-09  7.03910310e-01  2.54725679e-09  6.35533655e-01  2.54725679e-09  1.43403488e+00  2.54725679e-09  1.80000000e+00  2.54725679e-09  4.65653920e-03  2.54725679e-09  6.48548536e-01  2.54725679e-09  1.47100110e+00  2.54725679e-09  1.47131277e+00                                 
 3.37739687e-09  7.03654647e-01  3.37739687e-09  6.35486680e-01  3.37739687e-09  1.43194808e+00  3.37739687e-09  1.80000000e+00  3.37739687e-09 -4.47066937e-03  3.37739687e-09  6.43509447e-01  3.37739687e-09  1.46655563e+00  3.37739687e-09  1.47162449e+00                                 
 4.81794786e-09  7.03532125e-01  4.81794786e-09  6.35503184e-01  4.81794786e-09  1.42743415e+00  4.81794786e-09  1.80000000e+00  4.81794786e-09  4.30844768e-03  4.81794786e-09  6.38272373e-01  4.81794786e-09  1.46222062e+00  4.81794786e-09  1.47190227e+00                                 
 6.24575271e-09  7.03521817e-01  6.24575271e-09  6.35476038e-01  6.24575271e-09  1.42109529e+00  6.24575271e-09  1.80000000e+00  6.24575271e-09 -4.19824574e-03  6.24575271e-09  6.35300065e-01  6.24575271e-09  1.45956186e+00  6.24575271e-09  1.47190045e+00                                 
 7.47019326e-09  7.03566246e-01  7.47019326e-09  6.35509723e-01  7.47019326e-09  1.41499853e+00  7.47019326e-09  1.80000000e+00  7.47019326e-09  4.04723307e-03  7.47019326e-09  6.34355534e-01  7.47019326e-09  1.45888330e+00  7.47019326e-09  1.47174263e+00                                 
 8.80366820e-09  7.03597058e-01  8.80366820e-09  6.35486049e-01  8.80366820e-09  1.40691519e+00  8.80366820e-09  1.80000000e+00  8.80366820e-09 -3.92456518e-03  8.80366820e-09  6.33521538e-01  8.80366820e-09  1.45804741e+00  8.80366820e-09  1.47150044e+00                                 
 1.04067019e-08  7.03655355e-01  1.04067019e-08  6.35521311e-01  1.04067019e-08  1.39659000e+00  1.04067019e-08  1.80000000e+00  1.04067019e-08  3.82182716e-03  1.04067019e-08  6.33506960e-01  1.04067019e-08  1.45814440e+00  1.04067019e-08  1.47116380e+00                                 
 1.24917284e-08  7.03687826e-01  1.24917284e-08  6.35496532e-01  1.24917284e-08  1.38143541e+00  1.24917284e-08  1.80000000e+00  1.24917284e-08 -3.74397185e-03  1.24917284e-08  6.33305124e-01  1.24917284e-08  1.45784040e+00  1.24917284e-08  1.47072780e+00                                 
 1.50957913e-08  7.03731310e-01  1.50957913e-08  6.35529363e-01  1.50957913e-08  1.36186237e+00  1.50957913e-08  1.80000000e+00  1.50957913e-08  3.68678632e-03  1.50957913e-08  6.33782981e-01  1.50957913e-08  1.45834082e+00  1.50957913e-08  1.47022449e+00                                 
 1.86418148e-08  7.03736900e-01  1.86418148e-08  6.35501290e-01  1.86418148e-08  1.33373300e+00  1.86418148e-08  1.80000000e+00  1.86418148e-08 -3.63978704e-03  1.86418148e-08  6.33918019e-01  1.86418148e-08  1.45831852e+00  1.86418148e-08  1.46964800e+00                                 
 2.37244414e-08  7.03752298e-01  2.37244414e-08  6.35531746e-01  2.37244414e-08  1.29324919e+00  2.37244414e-08  1.80000000e+00  2.37244414e-08  3.61362002e-03  2.37244414e-08  6.34610147e-01  2.37244414e-08  1.45899452e+00  2.37244414e-08  1.46901432e+00                                 
 3.24243768e-08  7.03735690e-01  3.24243768e-08  6.35501959e-01  3.24243768e-08  1.22306799e+00  3.24243768e-08  1.80000000e+00  3.24243768e-08 -3.59244748e-03  3.24243768e-08  6.34886855e-01  3.24243768e-08  1.45909513e+00  3.24243768e-08  1.46831801e+00                                 
 4.58267586e-08  7.03741719e-01  4.58267586e-08  6.35531288e-01  4.58267586e-08  1.11598344e+00  4.58267586e-08  1.80000000e+00  4.58267586e-08  3.58508668e-03  4.58267586e-08  6.35534653e-01  4.58267586e-08  1.45974460e+00  4.58267586e-08  1.46780426e+00                                 
 7.26315223e-08  7.03726230e-01  7.26315223e-08  6.35501017e-01  7.26315223e-08  9.04645402e-01  7.26315223e-08  1.80000000e+00  7.26315223e-08 -3.57474776e-03  7.26315223e-08  6.35542903e-01  7.26315223e-08  1.45963788e+00  7.26315223e-08  1.46754203e+00                                 
 1.05831694e-07  7.03740932e-01  1.05831694e-07  6.35530807e-01  1.05831694e-07  6.98284889e-01  1.05831694e-07  1.80000000e+00  1.05831694e-07  3.58108272e-03  1.05831694e-07  6.35804194e-01  1.05831694e-07  1.45997161e+00  1.05831694e-07  1.46755934e+00                                 
 1.37710749e-07  7.03726344e-01  1.37710749e-07  6.35501382e-01  1.37710749e-07  6.32708142e-01  1.37710749e-07  1.80000000e+00  1.37710749e-07 -3.55700700e-03  1.37710749e-07  6.35578236e-01  1.37710749e-07  1.45966813e+00  1.37710749e-07  1.46757583e+00                                 
 1.66759815e-07  7.03735901e-01  1.66759815e-07  6.35530154e-01  1.66759815e-07  6.36350572e-01  1.66759815e-07  1.80000000e+00  1.66759815e-07  3.57452332e-03  1.66759815e-07  6.35802627e-01  1.66759815e-07  1.45996853e+00  1.66759815e-07  1.46757791e+00                                 
 1.86673609e-07  7.03729683e-01  1.86673609e-07  6.35501760e-01  1.86673609e-07  6.35451091e-01  1.86673609e-07  1.80000000e+00  1.86673609e-07 -3.54494159e-03  1.86673609e-07  6.35571008e-01  1.86673609e-07  1.45966063e+00  1.86673609e-07  1.46757618e+00                                 
 2.08900605e-07  7.03736380e-01  2.08900605e-07  6.35530071e-01  2.08900605e-07  6.36253397e-01  2.08900605e-07  1.80000000e+00  2.08900605e-07  3.56082206e-03  2.08900605e-07  6.35804286e-01  2.08900605e-07  1.45996834e+00  2.08900605e-07  1.46757501e+00                                 
 2.53354598e-07  7.03728936e-01  2.53354598e-07  6.35501763e-01  2.53354598e-07  6.35562691e-01  2.53354598e-07  1.80000000e+00  2.53354598e-07 -3.53532618e-03  2.53354598e-07  6.35570119e-01  2.53354598e-07  1.45965790e+00  2.53354598e-07  1.46757347e+00                                 
 3.13122595e-07  7.03736832e-01  3.13122595e-07  6.35530084e-01  3.13122595e-07  6.36202417e-01  3.13122595e-07  1.80000000e+00  3.13122595e-07  3.55520163e-03  3.13122595e-07  6.35804683e-01  3.13122595e-07  1.45996530e+00  3.13122595e-07  1.46757141e+00                                 
 4.31936573e-07  7.03728645e-01  4.31936573e-07  6.35501752e-01  4.31936573e-07  6.35583634e-01  4.31936573e-07  1.80000000e+00  4.31936573e-07 -3.53173253e-03  4.31936573e-07  6.35569899e-01  4.31936573e-07  1.45965214e+00  4.31936573e-07  1.46756786e+00                                 
 6.55724680e-07  7.03736980e-01  6.55724680e-07  6.35530090e-01  6.55724680e-07  6.36188929e-01  6.55724680e-07  1.80000000e+00  6.55724680e-07  3.55335728e-03  6.55724680e-07  6.35804785e-01  6.55724680e-07  1.45995457e+00  6.55724680e-07  1.46756063e+00                                 
 1.06748803e-06  7.03728566e-01  1.06748803e-06  6.35501748e-01  1.06748803e-06  6.35588782e-01  1.06748803e-06  1.80000000e+00  1.06748803e-06 -3.53075575e-03  1.06748803e-06  6.35569847e-01  1.06748803e-06  1.45963210e+00  1.06748803e-06  1.46754787e+00                                 
 1.89101472e-06  7.03737021e-01  1.89101472e-06  6.35530092e-01  1.89101472e-06  6.36185130e-01  1.89101472e-06  1.80000000e+00  1.89101472e-06  3.55283600e-03  1.89101472e-06  6.35804813e-01  1.89101472e-06  1.45991569e+00  1.89101472e-06  1.46752178e+00                                 
 3.09101472e-06  7.03728543e-01  3.09101472e-06  6.35501747e-01  3.09101472e-06  6.35590525e-01  3.09101472e-06  1.80000000e+00  3.09101472e-06 -3.53047123e-03  3.09101472e-06  6.35569832e-01  3.09101472e-06  1.45956837e+00  3.09101472e-06  1.46748424e+00                                 
 4.29101472e-06  7.03737040e-01  4.29101472e-06  6.35530092e-01  4.29101472e-06  6.36183017e-01  4.29101472e-06  1.80000000e+00  4.29101472e-06  3.55259809e-03  4.29101472e-06  6.35804825e-01  4.29101472e-06  1.45984012e+00  4.29101472e-06  1.46744629e+00                                 
 5.49101472e-06  7.03728524e-01  5.49101472e-06  6.35501746e-01  5.49101472e-06  6.35591842e-01  5.49101472e-06  1.80000000e+00  5.49101472e-06 -3.53023891e-03  5.49101472e-06  6.35569819e-01  5.49101472e-06  1.45949276e+00  5.49101472e-06  1.46740873e+00                                 
 6.00100000e-06  7.03737071e-01  6.00100000e-06  6.35530094e-01  6.00100000e-06  6.36180181e-01  6.00100000e-06  1.80000000e+00  6.00100000e-06  3.55219841e-03  6.00100000e-06  6.35804845e-01  6.00100000e-06  1.45978624e+00  6.00100000e-06  1.46739246e+00                                 
 6.00110000e-06  7.03681913e-01  6.00110000e-06  6.35278059e-01  6.00110000e-06  6.34330300e-01  6.00110000e-06  1.62000000e+00  6.00110000e-06  2.29526349e-04  6.00110000e-06  6.34155036e-01  6.00110000e-06  1.45832617e+00  6.00110000e-06  1.46738191e+00                                 
 6.00130000e-06  7.03715049e-01  6.00130000e-06  6.35272059e-01  6.00130000e-06  6.34279917e-01  6.00130000e-06  1.26000000e+00  6.00130000e-06 -2.61062645e-04  6.00130000e-06  6.33853422e-01  6.00130000e-06  1.45806203e+00  6.00130000e-06  1.46739739e+00                                 
 6.00165192e-06  7.03783021e-01  6.00165192e-06  6.35467814e-01  6.00165192e-06  6.36217995e-01  6.00165192e-06  6.26539146e-01  6.00165192e-06  1.21010286e-02  6.00165192e-06  6.34087646e-01  6.00165192e-06  1.45484084e+00  6.00165192e-06  1.46737316e+00                                 
 6.00200000e-06  7.03715709e-01  6.00200000e-06  6.34127714e-01  6.00200000e-06  6.68686945e-01  6.00200000e-06  0.00000000e+00  6.00200000e-06  1.60728602e+00  6.00200000e-06  6.20055832e-01  6.00200000e-06  1.25321840e+00  6.00200000e-06  1.46679913e+00                                 
 6.00204173e-06  7.03732057e-01  6.00204173e-06  6.33575266e-01  6.00204173e-06  6.76069205e-01  6.00204173e-06  0.00000000e+00  6.00204173e-06  1.72557044e+00  6.00204173e-06  6.13785349e-01  6.00204173e-06  1.18722051e+00  6.00204173e-06  1.46679601e+00                                 
 6.00212519e-06  7.03734687e-01  6.00212519e-06  6.32668309e-01  6.00212519e-06  6.81551530e-01  6.00212519e-06  0.00000000e+00  6.00212519e-06  1.81318982e+00  6.00212519e-06  6.03661195e-01  6.00212519e-06  1.05281338e+00  6.00212519e-06  1.46718371e+00                                 
 6.00229212e-06  7.03730216e-01  6.00229212e-06  6.32629507e-01  6.00229212e-06  6.71622060e-01  6.00229212e-06  0.00000000e+00  6.00229212e-06  1.78929332e+00  6.00229212e-06  6.03825338e-01  6.00229212e-06  8.44757561e-01  6.00229212e-06  1.46766815e+00                                 
 6.00245904e-06  7.03732899e-01  6.00245904e-06  6.33553905e-01  6.00245904e-06  6.59456067e-01  6.00245904e-06  0.00000000e+00  6.00245904e-06  1.80409727e+00  6.00245904e-06  6.14052247e-01  6.00245904e-06  7.31107298e-01  6.00245904e-06  1.46770301e+00                                 
 6.00263800e-06  7.03729871e-01  6.00263800e-06  6.34490640e-01  6.00263800e-06  6.47354533e-01  6.00263800e-06  0.00000000e+00  6.00263800e-06  1.79704930e+00  6.00263800e-06  6.23284025e-01  6.00263800e-06  6.72512260e-01  6.00263800e-06  1.46785047e+00                                 
 6.00285639e-06  7.03732790e-01  6.00285639e-06  6.35357570e-01  6.00285639e-06  6.40262101e-01  6.00285639e-06  0.00000000e+00  6.00285639e-06  1.80189329e+00  6.00285639e-06  6.31406448e-01  6.00285639e-06  6.48391455e-01  6.00285639e-06  1.46731791e+00                                 
 6.00307185e-06  7.03730467e-01  6.00307185e-06  6.35697872e-01  6.00307185e-06  6.37817053e-01  6.00307185e-06  0.00000000e+00  6.00307185e-06  1.79888745e+00  6.00307185e-06  6.33965635e-01  6.00307185e-06  6.40195832e-01  6.00307185e-06  1.46651269e+00                                 
 6.00333052e-06  7.03733063e-01  6.00333052e-06  6.35929751e-01  6.00333052e-06  6.37013261e-01  6.00333052e-06  0.00000000e+00  6.00333052e-06  1.80082382e+00  6.00333052e-06  6.35973330e-01  6.00333052e-06  6.37946418e-01  6.00333052e-06  1.46512804e+00                                 
 6.00371184e-06  7.03731169e-01  6.00371184e-06  6.35968679e-01  6.00371184e-06  6.37496343e-01  6.00371184e-06  0.00000000e+00  6.00371184e-06  1.79939763e+00  6.00371184e-06  6.36324384e-01  6.00371184e-06  6.37171824e-01  6.00371184e-06  1.46291855e+00                                 
 6.00432907e-06  7.03733490e-01  6.00432907e-06  6.35974423e-01  6.00432907e-06  6.38929088e-01  6.00432907e-06  0.00000000e+00  6.00432907e-06  1.80054201e+00  6.00432907e-06  6.36953429e-01  6.00432907e-06  6.38874355e-01  6.00432907e-06  1.45889552e+00                                 
 6.00535031e-06  7.03731678e-01  6.00535031e-06  6.35875139e-01  6.00535031e-06  6.41960528e-01  6.00535031e-06  0.00000000e+00  6.00535031e-06  1.79953319e+00  6.00535031e-06  6.36768888e-01  6.00535031e-06  6.41454333e-01  6.00535031e-06  1.45191413e+00                                 
 6.00736149e-06  7.03733726e-01  6.00736149e-06  6.35762123e-01  6.00736149e-06  6.47856554e-01  6.00736149e-06  0.00000000e+00  6.00736149e-06  1.80046985e+00  6.00736149e-06  6.37049287e-01  6.00736149e-06  6.47724402e-01  6.00736149e-06  1.43735063e+00                                 
 6.01138383e-06  7.03731821e-01  6.01138383e-06  6.35552725e-01  6.01138383e-06  6.59874683e-01  6.01138383e-06  0.00000000e+00  6.01138383e-06  1.79956583e+00  6.01138383e-06  6.36538719e-01  6.01138383e-06  6.59323768e-01  6.01138383e-06  1.40710948e+00                                 
 6.01942852e-06  7.03733746e-01  6.01942852e-06  6.35498883e-01  6.01942852e-06  6.82865666e-01  6.01942852e-06  0.00000000e+00  6.01942852e-06  1.80045276e+00  6.01942852e-06  6.36437103e-01  6.01942852e-06  6.82709125e-01  6.01942852e-06  1.34464822e+00                                 
 6.03194180e-06  7.03731826e-01  6.03194180e-06  6.35498959e-01  6.03194180e-06  7.17178034e-01  6.03194180e-06  0.00000000e+00  6.03194180e-06  1.79957361e+00  6.03194180e-06  6.35796736e-01  6.03194180e-06  7.16543400e-01  6.03194180e-06  1.24909982e+00                                 
 6.04675044e-06  7.03733744e-01  6.04675044e-06  6.35522445e-01  6.04675044e-06  7.54919031e-01  6.04675044e-06  0.00000000e+00  6.04675044e-06  1.80044506e+00  6.04675044e-06  6.35911774e-01  6.04675044e-06  7.54765531e-01  6.04675044e-06  1.14748260e+00                                 
 6.06828367e-06  7.03731830e-01  6.06828367e-06  6.35504962e-01  6.06828367e-06  8.05323443e-01  6.06828367e-06  0.00000000e+00  6.06828367e-06  1.79957629e+00  6.06828367e-06  6.35551006e-01  6.06828367e-06  8.04437097e-01  6.06828367e-06  1.01836593e+00                                 
 6.10199482e-06  7.03733743e-01  6.10199482e-06  6.35526709e-01  6.10199482e-06  8.73626926e-01  6.10199482e-06  0.00000000e+00  6.10199482e-06  1.80043893e+00  6.10199482e-06  6.35819002e-01  6.10199482e-06  8.73489688e-01  6.10199482e-06  9.02310639e-01                                 
 6.14012001e-06  7.03731831e-01  6.14012001e-06  6.35504959e-01  6.14012001e-06  9.37621670e-01  6.14012001e-06  0.00000000e+00  6.14012001e-06  1.79957497e+00  6.14012001e-06  6.35535542e-01  6.14012001e-06  9.36165006e-01  6.14012001e-06  9.08623303e-01                                 
 6.16588016e-06  7.03733741e-01  6.16588016e-06  6.35527252e-01  6.16588016e-06  9.73535372e-01  6.16588016e-06  0.00000000e+00  6.16588016e-06  1.80043377e+00  6.16588016e-06  6.35824871e-01  6.16588016e-06  9.73606667e-01  6.16588016e-06  9.48162209e-01                                 
