 time            v(vbep)         time            v(vben)         time            v(vout)         time            v(vphi1)        time            v(vphi2)        time            v(vref)         time            v(voutc)        time            v(voutcc)       yes             currtemp       
 0.00000000e+00  8.03079915e-01  0.00000000e+00  7.46931819e-01  0.00000000e+00  1.65271866e+00  0.00000000e+00  0.00000000e+00  0.00000000e+00  1.80000000e+00  0.00000000e+00  7.50018249e-01  0.00000000e+00  1.65271865e+00  0.00000000e+00  1.65861972e+00  1.00000000e+00  1.30000000e+01 
 5.00000000e-12  8.03101206e-01  5.00000000e-12  7.46986314e-01  5.00000000e-12  1.65335859e+00  5.00000000e-12  1.80000000e-02  5.00000000e-12  1.80018352e+00  5.00000000e-12  7.50412708e-01  5.00000000e-12  1.65306805e+00  5.00000000e-12  1.65863280e+00                                 
 1.00000000e-11  8.03110585e-01  1.00000000e-11  7.47022462e-01  1.00000000e-11  1.65383511e+00  1.00000000e-11  3.60000000e-02  1.00000000e-11  1.80026779e+00  1.00000000e-11  7.50724462e-01  1.00000000e-11  1.65334613e+00  1.00000000e-11  1.65864007e+00                                 
 2.00000000e-11  8.03116752e-01  2.00000000e-11  7.47072850e-01  2.00000000e-11  1.65454406e+00  2.00000000e-11  7.20000000e-02  2.00000000e-11  1.80032339e+00  2.00000000e-11  7.51213373e-01  2.00000000e-11  1.65378706e+00  2.00000000e-11  1.65864742e+00                                 
 4.00000000e-11  8.03104515e-01  4.00000000e-11  7.47109514e-01  4.00000000e-11  1.65508479e+00  4.00000000e-11  1.44000000e-01  4.00000000e-11  1.80019792e+00  4.00000000e-11  7.51687086e-01  4.00000000e-11  1.65423674e+00  4.00000000e-11  1.65864238e+00                                 
 8.00000000e-11  8.03090528e-01  8.00000000e-11  7.47112268e-01  8.00000000e-11  1.65502704e+00  8.00000000e-11  2.88000000e-01  8.00000000e-11  1.80002999e+00  8.00000000e-11  7.51812704e-01  8.00000000e-11  1.65441595e+00  8.00000000e-11  1.65862629e+00                                 
 1.60000000e-10  8.03091665e-01  1.60000000e-10  7.47098926e-01  1.60000000e-10  1.65457271e+00  1.60000000e-10  5.76000000e-01  1.60000000e-10  1.80001453e+00  1.60000000e-10  7.51616170e-01  1.60000000e-10  1.65432922e+00  1.60000000e-10  1.65862053e+00                                 
 3.20000000e-10  8.03029287e-01  3.20000000e-10  7.46658242e-01  3.20000000e-10  1.65016500e+00  3.20000000e-10  1.15200000e+00  3.20000000e-10  1.80067826e+00  3.20000000e-10  7.47731152e-01  3.20000000e-10  1.65111938e+00  3.20000000e-10  1.65858783e+00                                 
 5.00000000e-10  8.03149728e-01  5.00000000e-10  7.47071743e-01  5.00000000e-10  1.64387113e+00  5.00000000e-10  1.80000000e+00  5.00000000e-10  1.41673753e-01  5.00000000e-10  7.52208469e-01  5.00000000e-10  1.65462489e+00  5.00000000e-10  1.65866407e+00                                 
 5.20555186e-10  8.03139470e-01  5.20555186e-10  7.47120000e-01  5.20555186e-10  1.64332793e+00  5.20555186e-10  1.80000000e+00  5.20555186e-10  3.54616318e-02  5.20555186e-10  7.53631555e-01  5.20555186e-10  1.65546009e+00  5.20555186e-10  1.65866110e+00                                 
 5.61665558e-10  8.03176694e-01  5.61665558e-10  7.47207769e-01  5.61665558e-10  1.64311166e+00  5.61665558e-10  1.80000000e+00  5.61665558e-10 -1.33693774e-02  5.61665558e-10  7.55549498e-01  5.61665558e-10  1.65716459e+00  5.61665558e-10  1.65866213e+00                                 
 6.43886303e-10  8.03237407e-01  6.43886303e-10  7.47044442e-01  6.43886303e-10  1.64105820e+00  6.43886303e-10  1.80000000e+00  6.43886303e-10  1.09054784e-02  6.43886303e-10  7.54271277e-01  6.43886303e-10  1.65624730e+00  6.43886303e-10  1.65860175e+00                                 
 7.61996908e-10  8.03252645e-01  7.61996908e-10  7.47021972e-01  7.61996908e-10  1.64041166e+00  7.61996908e-10  1.80000000e+00  7.61996908e-10 -8.60657384e-03  7.61996908e-10  7.54994587e-01  7.61996908e-10  1.65672291e+00  7.61996908e-10  1.65863989e+00                                 
 9.38006019e-10  8.03323384e-01  9.38006019e-10  7.46989983e-01  9.38006019e-10  1.63917304e+00  9.38006019e-10  1.80000000e+00  9.38006019e-10  8.12646636e-03  9.38006019e-10  7.55608046e-01  9.38006019e-10  1.65739423e+00  9.38006019e-10  1.65861183e+00                                 
 1.29002424e-09  8.03356806e-01  1.29002424e-09  7.46925821e-01  1.29002424e-09  1.63558800e+00  1.29002424e-09  1.80000000e+00  1.29002424e-09 -7.37867972e-03  1.29002424e-09  7.55612692e-01  1.29002424e-09  1.65727666e+00  1.29002424e-09  1.65862531e+00                                 
 1.80056261e-09  8.03304890e-01  1.80056261e-09  7.46933971e-01  1.80056261e-09  1.63400867e+00  1.80056261e-09  1.80000000e+00  1.80056261e-09  7.19869987e-03  1.80056261e-09  7.55698051e-01  1.80056261e-09  1.65747084e+00  1.80056261e-09  1.65863183e+00                                 
 2.35238772e-09  8.03180018e-01  2.35238772e-09  7.46903315e-01  2.35238772e-09  1.63331155e+00  2.35238772e-09  1.80000000e+00  2.35238772e-09 -6.91391382e-03  2.35238772e-09  7.54867754e-01  2.35238772e-09  1.65663332e+00  2.35238772e-09  1.65866959e+00                                 
 2.89515781e-09  8.03118977e-01  2.89515781e-09  7.46930859e-01  2.89515781e-09  1.63336200e+00  2.89515781e-09  1.80000000e+00  2.89515781e-09  6.66961496e-03  2.89515781e-09  7.54798238e-01  2.89515781e-09  1.65668188e+00  2.89515781e-09  1.65870408e+00                                 
 3.71589161e-09  8.03057867e-01  3.71589161e-09  7.46904817e-01  3.71589161e-09  1.63232636e+00  3.71589161e-09  1.80000000e+00  3.71589161e-09 -6.50079752e-03  3.71589161e-09  7.53751308e-01  3.71589161e-09  1.65566176e+00  3.71589161e-09  1.65876506e+00                                 
 5.35735921e-09  8.03046868e-01  5.35735921e-09  7.46936383e-01  5.35735921e-09  1.63065193e+00  5.35735921e-09  1.80000000e+00  5.35735921e-09  6.42734631e-03  5.35735921e-09  7.52945397e-01  5.35735921e-09  1.65506257e+00  5.35735921e-09  1.65887604e+00                                 
 8.64029441e-09  8.03041908e-01  8.64029441e-09  7.46914851e-01  8.64029441e-09  1.62520002e+00  8.64029441e-09  1.80000000e+00  8.64029441e-09 -6.37977367e-03  8.64029441e-09  7.50810894e-01  8.64029441e-09  1.65309980e+00  8.64029441e-09  1.65901640e+00                                 
 1.32310369e-08  8.03061989e-01  1.32310369e-08  7.46945733e-01  1.32310369e-08  1.61681163e+00  1.32310369e-08  1.80000000e+00  1.32310369e-08  6.36355281e-03  1.32310369e-08  7.49950499e-01  1.32310369e-08  1.65245656e+00  1.32310369e-08  1.65904661e+00                                 
 1.67806745e-08  8.03057360e-01  1.67806745e-08  7.46918006e-01  1.67806745e-08  1.60871369e+00  1.67806745e-08  1.80000000e+00  1.67806745e-08 -6.31203972e-03  1.67806745e-08  7.49185457e-01  1.67806745e-08  1.65168724e+00  1.67806745e-08  1.65898459e+00                                 
 2.08569871e-08  8.03068202e-01  2.08569871e-08  7.46945734e-01  2.08569871e-08  1.59985157e+00  2.08569871e-08  1.80000000e+00  2.08569871e-08  6.30160474e-03  2.08569871e-08  7.49439654e-01  2.08569871e-08  1.65200781e+00  2.08569871e-08  1.65888872e+00                                 
 2.51060363e-08  8.03065740e-01  2.51060363e-08  7.46917932e-01  2.51060363e-08  1.58910239e+00  2.51060363e-08  1.80000000e+00  2.51060363e-08 -6.24843081e-03  2.51060363e-08  7.49051239e-01  2.51060363e-08  1.65156301e+00  2.51060363e-08  1.65878133e+00                                 
 3.15309044e-08  8.03081262e-01  3.15309044e-08  7.46945862e-01  3.15309044e-08  1.57240973e+00  3.15309044e-08  1.80000000e+00  3.15309044e-08  6.25477228e-03  3.15309044e-08  7.49556513e-01  3.15309044e-08  1.65209809e+00  3.15309044e-08  1.65864261e+00                                 
 3.89137907e-08  8.03077372e-01  3.89137907e-08  7.46917972e-01  3.89137907e-08  1.55109841e+00  3.89137907e-08  1.80000000e+00  3.89137907e-08 -6.21132909e-03  3.89137907e-08  7.49314901e-01  3.89137907e-08  1.65178054e+00  3.89137907e-08  1.65851543e+00                                 
 5.06113107e-08  8.03086561e-01  5.06113107e-08  7.46945829e-01  5.06113107e-08  1.51708263e+00  5.06113107e-08  1.80000000e+00  5.06113107e-08  6.22780529e-03  5.06113107e-08  7.49901817e-01  5.06113107e-08  1.65238747e+00  5.06113107e-08  1.65839077e+00                                 
 6.62213255e-08  8.03077500e-01  6.62213255e-08  7.46917878e-01  6.62213255e-08  1.47014252e+00  6.62213255e-08  1.80000000e+00  6.62213255e-08 -6.19283578e-03  6.62213255e-08  7.49660945e-01  6.62213255e-08  1.65207384e+00  6.62213255e-08  1.65830788e+00                                 
 9.23369062e-08  8.03084595e-01  9.23369062e-08  7.46945775e-01  9.23369062e-08  1.39236773e+00  9.23369062e-08  1.80000000e+00  9.23369062e-08  6.21514931e-03  9.23369062e-08  7.50168182e-01  9.23369062e-08  1.65261578e+00  9.23369062e-08  1.65827908e+00                                 
 1.40776485e-07  8.03075914e-01  1.40776485e-07  7.46917847e-01  1.40776485e-07  1.24795485e+00  1.40776485e-07  1.80000000e+00  1.40776485e-07 -6.18545420e-03  1.40776485e-07  7.49821041e-01  1.40776485e-07  1.65221243e+00  1.40776485e-07  1.65830177e+00                                 
 2.37655642e-07  8.03083974e-01  2.37655642e-07  7.46945770e-01  2.37655642e-07  9.66415415e-01  2.37655642e-07  1.80000000e+00  2.37655642e-07  6.21150363e-03  2.37655642e-07  7.50215084e-01  2.37655642e-07  1.65265314e+00  2.37655642e-07  1.65833703e+00                                 
 3.20111088e-07  8.03075810e-01  3.20111088e-07  7.46917840e-01  3.20111088e-07  7.88290961e-01  3.20111088e-07  1.80000000e+00  3.20111088e-07 -6.18194722e-03  3.20111088e-07  7.49819537e-01  3.20111088e-07  1.65220390e+00  3.20111088e-07  1.65832937e+00                                 
 3.98915204e-07  8.03084410e-01  3.98915204e-07  7.46945816e-01  3.98915204e-07  7.45353803e-01  3.98915204e-07  1.80000000e+00  3.98915204e-07  6.21005632e-03  3.98915204e-07  7.50218768e-01  3.98915204e-07  1.65264918e+00  3.98915204e-07  1.65832987e+00                                 
 4.72579477e-07  8.03074860e-01  4.72579477e-07  7.46917759e-01  4.72579477e-07  7.55608769e-01  4.72579477e-07  1.80000000e+00  4.72579477e-07 -6.17856176e-03  4.72579477e-07  7.49818941e-01  4.72579477e-07  1.65219714e+00  4.72579477e-07  1.65832418e+00                                 
 5.17305433e-07  8.03085202e-01  5.17305433e-07  7.46945893e-01  5.17305433e-07  7.53085213e-01  5.17305433e-07  1.80000000e+00  5.17305433e-07  6.20569037e-03  5.17305433e-07  7.50216326e-01  5.17305433e-07  1.65264212e+00  5.17305433e-07  1.65832423e+00                                 
 5.61216179e-07  8.03074721e-01  5.61216179e-07  7.46917715e-01  5.61216179e-07  7.53024669e-01  5.61216179e-07  1.80000000e+00  5.61216179e-07 -6.17314416e-03  5.61216179e-07  7.49820249e-01  5.61216179e-07  1.65219465e+00  5.61216179e-07  1.65831983e+00                                 
 6.19365910e-07  8.03085006e-01  6.19365910e-07  7.46945908e-01  6.19365910e-07  7.53325590e-01  6.19365910e-07  1.80000000e+00  6.19365910e-07  6.20089270e-03  6.19365910e-07  7.50216112e-01  6.19365910e-07  1.65263771e+00  6.19365910e-07  1.65832017e+00                                 
 6.93471121e-07  8.03074906e-01  6.93471121e-07  7.46917709e-01  6.93471121e-07  7.52980614e-01  6.93471121e-07  1.80000000e+00  6.93471121e-07 -6.16946540e-03  6.93471121e-07  7.49820264e-01  6.93471121e-07  1.65218925e+00  6.93471121e-07  1.65831437e+00                                 
 8.41681542e-07  8.03084886e-01  8.41681542e-07  7.46945910e-01  8.41681542e-07  7.53340948e-01  8.41681542e-07  1.80000000e+00  8.41681542e-07  6.19842877e-03  8.41681542e-07  7.50216104e-01  8.41681542e-07  1.65262854e+00  8.41681542e-07  1.65831105e+00                                 
 1.13810239e-06  8.03074964e-01  1.13810239e-06  7.46917708e-01  1.13810239e-06  7.52975801e-01  1.13810239e-06  1.80000000e+00  1.13810239e-06 -6.16805102e-03  1.13810239e-06  7.49820269e-01  1.13810239e-06  1.65217097e+00  1.13810239e-06  1.65829611e+00                                 
 1.73094407e-06  8.03084858e-01  1.73094407e-06  7.46945911e-01  1.73094407e-06  7.53342857e-01  1.73094407e-06  1.80000000e+00  1.73094407e-06  6.19782347e-03  1.73094407e-06  7.50216101e-01  1.73094407e-06  1.65259193e+00  1.73094407e-06  1.65827453e+00                                 
 2.73094407e-06  8.03074978e-01  2.73094407e-06  7.46917708e-01  2.73094407e-06  7.52974907e-01  2.73094407e-06  1.80000000e+00  2.73094407e-06 -6.16784912e-03  2.73094407e-06  7.49820270e-01  2.73094407e-06  1.65210540e+00  2.73094407e-06  1.65823066e+00                                 
 3.73094407e-06  8.03084847e-01  3.73094407e-06  7.46945911e-01  3.73094407e-06  7.53343478e-01  3.73094407e-06  1.80000000e+00  3.73094407e-06  6.19763587e-03  3.73094407e-06  7.50216100e-01  3.73094407e-06  1.65250959e+00  3.73094407e-06  1.65819236e+00                                 
 4.73094407e-06  8.03074989e-01  4.73094407e-06  7.46917708e-01  4.73094407e-06  7.52974327e-01  4.73094407e-06  1.80000000e+00  4.73094407e-06 -6.16775271e-03  4.73094407e-06  7.49820271e-01  4.73094407e-06  1.65202307e+00  4.73094407e-06  1.65814850e+00                                 
 5.73094407e-06  8.03084836e-01  5.73094407e-06  7.46945911e-01  5.73094407e-06  7.53344027e-01  5.73094407e-06  1.80000000e+00  5.73094407e-06  6.19739663e-03  5.73094407e-06  7.50216099e-01  5.73094407e-06  1.65242724e+00  5.73094407e-06  1.65811018e+00                                 
 6.73094407e-06  8.03075000e-01  6.73094407e-06  7.46917708e-01  6.73094407e-06  7.52973811e-01  6.73094407e-06  1.80000000e+00  6.73094407e-06 -6.16751585e-03  6.73094407e-06  7.49820273e-01  6.73094407e-06  1.65194072e+00  6.73094407e-06  1.65806632e+00                                 
 7.73094407e-06  8.03084825e-01  7.73094407e-06  7.46945911e-01  7.73094407e-06  7.53344514e-01  7.73094407e-06  1.80000000e+00  7.73094407e-06  6.19715739e-03  7.73094407e-06  7.50216097e-01  7.73094407e-06  1.65234493e+00  7.73094407e-06  1.65802804e+00                                 
 8.73094407e-06  8.03075011e-01  8.73094407e-06  7.46917708e-01  8.73094407e-06  7.52973355e-01  8.73094407e-06  1.80000000e+00  8.73094407e-06 -6.16727900e-03  8.73094407e-06  7.49820274e-01  8.73094407e-06  1.65185846e+00  8.73094407e-06  1.65798422e+00                                 
 9.73094407e-06  8.03084814e-01  9.73094407e-06  7.46945912e-01  9.73094407e-06  7.53344943e-01  9.73094407e-06  1.80000000e+00  9.73094407e-06  6.19691817e-03  9.73094407e-06  7.50216096e-01  9.73094407e-06  1.65226267e+00  9.73094407e-06  1.65794595e+00                                 
 1.00005000e-05  8.03075036e-01  1.00005000e-05  7.46917707e-01  1.00005000e-05  7.52972493e-01  1.00005000e-05  1.80000000e+00  1.00005000e-05 -6.16676923e-03  1.00005000e-05  7.49820278e-01  1.00005000e-05  1.65180624e+00  1.00005000e-05  1.65793209e+00                                 
 1.00005500e-05  8.03046255e-01  1.00005500e-05  7.46740630e-01  1.00005500e-05  7.51300065e-01  1.00005500e-05  1.62000000e+00  1.00005500e-05 -6.16547760e-04  1.00005500e-05  7.48417154e-01  1.00005500e-05  1.65062805e+00  1.00005500e-05  1.65791628e+00                                 
 1.00006500e-05  8.03074684e-01  1.00006500e-05  7.46742871e-01  1.00006500e-05  7.51562295e-01  1.00006500e-05  1.26000000e+00  1.00006500e-05  4.72026383e-04  1.00006500e-05  7.48294986e-01  1.00006500e-05  1.65053080e+00  1.00006500e-05  1.65793611e+00                                 
 1.00008500e-05  8.03104626e-01  1.00008500e-05  7.47000597e-01  1.00008500e-05  7.54190227e-01  1.00008500e-05  5.40000000e-01  1.00008500e-05 -1.75661349e-03  1.00008500e-05  7.50315296e-01  1.00008500e-05  1.65170913e+00  1.00008500e-05  1.65794011e+00                                 
 1.00010000e-05  8.03072110e-01  1.00010000e-05  7.45692274e-01  1.00010000e-05  7.75204526e-01  1.00010000e-05  0.00000000e+00  1.00010000e-05  1.48662734e+00  1.00010000e-05  7.34447650e-01  1.00010000e-05  1.58763685e+00  1.00010000e-05  1.65732257e+00                                 
 1.00010266e-05  8.03088079e-01  1.00010266e-05  7.45403220e-01  1.00010266e-05  7.82350699e-01  1.00010266e-05  0.00000000e+00  1.00010266e-05  1.68427924e+00  1.00010266e-05  7.30725357e-01  1.00010266e-05  1.56135643e+00  1.00010266e-05  1.65719819e+00                                 
 1.00010798e-05  8.03081700e-01  1.00010798e-05  7.44901147e-01  1.00010798e-05  7.88075504e-01  1.00010798e-05  0.00000000e+00  1.00010798e-05  1.82413479e+00  1.00010798e-05  7.24740246e-01  1.00010798e-05  1.50442785e+00  1.00010798e-05  1.65712143e+00                                 
 1.00011862e-05  8.03075273e-01  1.00011862e-05  7.44907841e-01  1.00011862e-05  7.79602601e-01  1.00011862e-05  0.00000000e+00  1.00011862e-05  1.78508287e+00  1.00011862e-05  7.25544649e-01  1.00011862e-05  1.40637215e+00  1.00011862e-05  1.65763138e+00                                 
 1.00013252e-05  8.03084071e-01  1.00013252e-05  7.45333444e-01  1.00013252e-05  7.75779853e-01  1.00013252e-05  0.00000000e+00  1.00013252e-05  1.80837130e+00  1.00013252e-05  7.31241786e-01  1.00013252e-05  1.31006679e+00  1.00013252e-05  1.65797551e+00                                 
 1.00015466e-05  8.03074776e-01  1.00015466e-05  7.45584741e-01  1.00015466e-05  7.70444725e-01  1.00015466e-05  0.00000000e+00  1.00015466e-05  1.79304257e+00  1.00015466e-05  7.33707988e-01  1.00015466e-05  1.18646825e+00  1.00015466e-05  1.65812990e+00                                 
 1.00019434e-05  8.03083670e-01  1.00019434e-05  7.46209311e-01  1.00019434e-05  7.65201872e-01  1.00019434e-05  0.00000000e+00  1.00019434e-05  1.80544211e+00  1.00019434e-05  7.39306021e-01  1.00019434e-05  1.03715491e+00  1.00019434e-05  1.65822207e+00                                 
 1.00024530e-05  8.03075321e-01  1.00024530e-05  7.46558303e-01  1.00024530e-05  7.62410716e-01  1.00024530e-05  0.00000000e+00  1.00024530e-05  1.79492685e+00  1.00024530e-05  7.41285310e-01  1.00024530e-05  9.02646438e-01  1.00024530e-05  1.65795039e+00                                 
 1.00030003e-05  8.03083724e-01  1.00030003e-05  7.47065365e-01  1.00030003e-05  7.58238931e-01  1.00030003e-05  0.00000000e+00  1.00030003e-05  1.80421316e+00  1.00030003e-05  7.46220014e-01  1.00030003e-05  8.15574899e-01  1.00030003e-05  1.65742171e+00                                 
 1.00039397e-05  8.03075837e-01  1.00039397e-05  7.47345468e-01  1.00039397e-05  7.55542430e-01  1.00039397e-05  0.00000000e+00  1.00039397e-05  1.79594634e+00  1.00039397e-05  7.49382133e-01  1.00039397e-05  7.57079085e-01  1.00039397e-05  1.65597983e+00                                 
 1.00048235e-05  8.03083707e-01  1.00048235e-05  7.47428896e-01  1.00048235e-05  7.55278127e-01  1.00048235e-05  0.00000000e+00  1.00048235e-05  1.80371886e+00  1.00048235e-05  7.51528812e-01  1.00048235e-05  7.56153984e-01  1.00048235e-05  1.65417973e+00                                 
 1.00056277e-05  8.03076122e-01  1.00056277e-05  7.47231402e-01  1.00056277e-05  7.57604714e-01  1.00056277e-05  0.00000000e+00  1.00056277e-05  1.79656559e+00  1.00056277e-05  7.50445039e-01  1.00056277e-05  7.55958386e-01  1.00056277e-05  1.65225237e+00                                 
 1.00065629e-05  8.03083537e-01  1.00065629e-05  7.47233999e-01  1.00065629e-05  7.58302102e-01  1.00065629e-05  0.00000000e+00  1.00065629e-05  1.80316088e+00  1.00065629e-05  7.51612596e-01  1.00065629e-05  7.58605256e-01  1.00065629e-05  1.64997629e+00                                 
 1.00084334e-05  8.03076298e-01  1.00084334e-05  7.47033655e-01  1.00084334e-05  7.62649817e-01  1.00084334e-05  0.00000000e+00  1.00084334e-05  1.79693783e+00  1.00084334e-05  7.50595283e-01  1.00084334e-05  7.60950775e-01  1.00084334e-05  1.64530045e+00                                 
