 time            v(vbep)         time            v(vben)         time            v(vout)         time            v(vphi1)        time            v(vphi2)        time            v(vref)         yes             currtemp       
 0.00000000e+00  5.86574429e-01  0.00000000e+00  5.23977374e-01  0.00000000e+00  1.39174781e-01  0.00000000e+00  0.00000000e+00  0.00000000e+00  1.79997704e+00  0.00000000e+00  5.00000000e-01  1.00000000e+00  7.00000000e+01 
 5.00000000e-12  5.86557718e-01  5.00000000e-12  5.23963481e-01  5.00000000e-12  1.39732101e-01  5.00000000e-12  1.80000000e-02  5.00000000e-12  1.80006757e+00  5.00000000e-12  5.00000000e-01                                 
 1.00000000e-11  5.86541218e-01  1.00000000e-11  5.23949869e-01  1.00000000e-11  1.40232899e-01  1.00000000e-11  3.60000000e-02  1.00000000e-11  1.80011231e+00  1.00000000e-11  5.00000000e-01                                 
 2.00000000e-11  5.86508323e-01  2.00000000e-11  5.23922716e-01  2.00000000e-11  1.41149545e-01  2.00000000e-11  7.20000000e-02  2.00000000e-11  1.80015180e+00  2.00000000e-11  5.00000000e-01                                 
 4.00000000e-11  5.86442722e-01  4.00000000e-11  5.23868542e-01  4.00000000e-11  1.42595571e-01  4.00000000e-11  1.44000000e-01  4.00000000e-11  1.80012395e+00  4.00000000e-11  5.00000000e-01                                 
 8.00000000e-11  5.86311887e-01  8.00000000e-11  5.23760456e-01  8.00000000e-11  1.44567138e-01  8.00000000e-11  2.88000000e-01  8.00000000e-11  1.80007418e+00  8.00000000e-11  5.00000000e-01                                 
 1.60000000e-10  5.86051744e-01  1.60000000e-10  5.23545327e-01  1.60000000e-10  1.47009924e-01  1.60000000e-10  5.76000000e-01  1.60000000e-10  1.80003180e+00  1.60000000e-10  5.00000000e-01                                 
 3.20000000e-10  5.85537369e-01  3.20000000e-10  5.23119161e-01  3.20000000e-10  1.73519541e-01  3.20000000e-10  1.15200000e+00  3.20000000e-10  1.80020540e+00  3.20000000e-10  5.00000000e-01                                 
 5.00000000e-10  5.84967940e-01  5.00000000e-10  5.22646129e-01  5.00000000e-10  4.77729647e-01  5.00000000e-10  1.80000000e+00  5.00000000e-10  1.32309969e-01  5.00000000e-10  5.00000000e-01                                 
 5.22431516e-10  5.84897732e-01  5.22431516e-10  5.22587706e-01  5.22431516e-10  5.41109250e-01  5.22431516e-10  1.80000000e+00  5.22431516e-10  2.74547662e-02  5.22431516e-10  5.00000000e-01                                 
 5.67294547e-10  5.84757611e-01  5.67294547e-10  5.22471065e-01  5.67294547e-10  6.57706265e-01  5.67294547e-10  1.80000000e+00  5.67294547e-10 -1.26283272e-02  5.67294547e-10  5.00000000e-01                                 
 6.57020610e-10  5.84479144e-01  6.57020610e-10  5.22239027e-01  6.57020610e-10  8.41419016e-01  6.57020610e-10  1.80000000e+00  6.57020610e-10  1.03540972e-02  6.57020610e-10  5.00000000e-01                                 
 7.79836015e-10  5.84101729e-01  7.79836015e-10  5.21924046e-01  7.79836015e-10  1.03020725e+00  7.79836015e-10  1.80000000e+00  7.79836015e-10 -8.80850277e-03  7.79836015e-10  5.00000000e-01                                 
 9.76128380e-10  5.83507216e-01  9.76128380e-10  5.21426743e-01  9.76128380e-10  1.26520675e+00  9.76128380e-10  1.80000000e+00  9.76128380e-10  8.20705395e-03  9.76128380e-10  5.00000000e-01                                 
 1.29923590e-09  5.82550986e-01  1.29923590e-09  5.20623990e-01  1.29923590e-09  1.54054887e+00  1.29923590e-09  1.80000000e+00  1.29923590e-09 -7.65475824e-03  1.29923590e-09  5.00000000e-01                                 
 1.91334009e-09  5.80805092e-01  1.91334009e-09  5.19149406e-01  1.91334009e-09  1.77513461e+00  1.91334009e-09  1.80000000e+00  1.91334009e-09  7.56155173e-03  1.91334009e-09  5.00000000e-01                                 
 2.18674967e-09  5.80056531e-01  2.18674967e-09  5.18513585e-01  2.18674967e-09  1.80373445e+00  2.18674967e-09  1.80000000e+00  2.18674967e-09 -7.01198434e-03  2.18674967e-09  5.00000000e-01                                 
 2.51140950e-09  5.79188903e-01  2.51140950e-09  5.17774051e-01  2.51140950e-09  1.81817638e+00  2.51140950e-09  1.80000000e+00  2.51140950e-09  6.73456728e-03  2.51140950e-09  5.00000000e-01                                 
 2.87768798e-09  5.78236387e-01  2.87768798e-09  5.16959022e-01  2.87768798e-09  1.82429399e+00  2.87768798e-09  1.80000000e+00  2.87768798e-09 -6.36692914e-03  2.87768798e-09  5.00000000e-01                                 
 3.61024492e-09  5.76408611e-01  3.61024492e-09  5.15386223e-01  3.61024492e-09  1.82630977e+00  3.61024492e-09  1.80000000e+00  3.61024492e-09  6.28301705e-03  3.61024492e-09  5.00000000e-01                                 
 4.37901166e-09  5.74592625e-01  4.37901166e-09  5.13812172e-01  4.37901166e-09  1.82482845e+00  4.37901166e-09  1.80000000e+00  4.37901166e-09 -6.09505147e-03  4.37901166e-09  5.00000000e-01                                 
 5.91654514e-09  5.71228002e-01  5.91654514e-09  5.10868149e-01  5.91654514e-09  1.82137597e+00  5.91654514e-09  1.80000000e+00  5.91654514e-09  6.08419169e-03  5.91654514e-09  5.00000000e-01                                 
 8.33734459e-09  5.66521639e-01  8.33734459e-09  5.06694013e-01  8.33734459e-09  1.81483974e+00  8.33734459e-09  1.80000000e+00  8.33734459e-09 -5.98655615e-03  8.33734459e-09  5.00000000e-01                                 
 9.87100988e-09  5.63852720e-01  9.87100988e-09  5.04298423e-01  9.87100988e-09  1.81102281e+00  9.87100988e-09  1.80000000e+00  9.87100988e-09  5.96980586e-03  9.87100988e-09  5.00000000e-01                                 
 1.12163123e-08  5.61674439e-01  1.12163123e-08  5.02329571e-01  1.12163123e-08  1.80793938e+00  1.12163123e-08  1.80000000e+00  1.12163123e-08 -5.85338267e-03  1.12163123e-08  5.00000000e-01                                 
 1.26739544e-08  5.59463914e-01  1.26739544e-08  5.00319759e-01  1.26739544e-08  1.80477672e+00  1.26739544e-08  1.80000000e+00  1.26739544e-08  5.82675650e-03  1.26739544e-08  5.00000000e-01                                 
 1.42355819e-08  5.57248872e-01  1.42355819e-08  4.98294336e-01  1.42355819e-08  1.80145942e+00  1.42355819e-08  1.80000000e+00  1.42355819e-08 -5.72723576e-03  1.42355819e-08  5.00000000e-01                                 
 1.57535294e-08  5.55231570e-01  1.57535294e-08  4.96439916e-01  1.57535294e-08  1.79845221e+00  1.57535294e-08  1.80000000e+00  1.57535294e-08  5.70108029e-03  1.57535294e-08  5.00000000e-01                                 
 1.77775863e-08  5.52725938e-01  1.77775863e-08  4.94123871e-01  1.77775863e-08  1.79446755e+00  1.77775863e-08  1.80000000e+00  1.77775863e-08 -5.61906828e-03  1.77775863e-08  5.00000000e-01                                 
 2.02921573e-08  5.49872154e-01  2.02921573e-08  4.91468706e-01  2.02921573e-08  1.78971463e+00  2.02921573e-08  1.80000000e+00  2.02921573e-08  5.61685287e-03  2.02921573e-08  5.00000000e-01                                 
 2.36764503e-08  5.46418881e-01  2.36764503e-08  4.88230676e-01  2.36764503e-08  1.78348960e+00  2.36764503e-08  1.80000000e+00  2.36764503e-08 -5.55487335e-03  2.36764503e-08  5.00000000e-01                                 
 2.85536932e-08  5.42077201e-01  2.85536932e-08  4.84120133e-01  2.85536932e-08  1.77517542e+00  2.85536932e-08  1.80000000e+00  2.85536932e-08  5.57041763e-03  2.85536932e-08  5.00000000e-01                                 
 3.63241457e-08  5.36287477e-01  3.63241457e-08  4.78575613e-01  3.63241457e-08  1.76270080e+00  3.63241457e-08  1.80000000e+00  3.63241457e-08 -5.52409707e-03  3.63241457e-08  5.00000000e-01                                 
 5.18650506e-08  5.27197891e-01  5.18650506e-08  4.69770186e-01  5.18650506e-08  1.73930947e+00  5.18650506e-08  1.80000000e+00  5.18650506e-08  5.55281124e-03  5.18650506e-08  5.00000000e-01                                 
 8.28973563e-08  5.14299919e-01  8.28973563e-08  4.57137547e-01  8.28973563e-08  1.69648470e+00  8.28973563e-08  1.80000000e+00  8.28973563e-08 -5.51513730e-03  8.28973563e-08  5.00000000e-01                                 
 1.24265398e-07  5.00375030e-01  1.24265398e-07  4.43836549e-01  1.24265398e-07  1.64194943e+00  1.24265398e-07  1.80000000e+00  1.24265398e-07  5.54775039e-03  1.24265398e-07  5.00000000e-01                                 
 1.72765122e-07  4.84628143e-01  1.72765122e-07  4.29439038e-01  1.72765122e-07  1.57752172e+00  1.72765122e-07  1.80000000e+00  1.72765122e-07 -5.51105453e-03  1.72765122e-07  5.00000000e-01                                 
 2.42381565e-07  4.64987338e-01  2.42381565e-07  4.11888426e-01  2.42381565e-07  1.48619029e+00  2.42381565e-07  1.80000000e+00  2.42381565e-07  5.54461696e-03  2.42381565e-07  5.00000000e-01                                 
 3.17951574e-07  4.44582099e-01  3.17951574e-07  3.94214136e-01  3.17951574e-07  1.38625705e+00  3.17951574e-07  1.80000000e+00  3.17951574e-07 -5.50852349e-03  3.17951574e-07  5.00000000e-01                                 
 4.54469184e-07  4.02947827e-01  4.54469184e-07  3.59517033e-01  4.54469184e-07  1.20043500e+00  4.54469184e-07  1.80000000e+00  4.54469184e-07  5.54272485e-03  4.54469184e-07  5.00000000e-01                                 
 4.79109955e-07  3.94102787e-01  4.79109955e-07  3.52320305e-01  4.79109955e-07  1.16569886e+00  4.79109955e-07  1.80000000e+00  4.79109955e-07  5.79317413e-06  4.79109955e-07  5.00000000e-01                                 
 5.28391497e-07  3.75775265e-01  5.28391497e-07  3.37455704e-01  5.28391497e-07  1.09666163e+00  5.28391497e-07  1.80000000e+00  5.28391497e-07  3.89566209e-06  5.28391497e-07  5.00000000e-01                                 
 5.91308543e-07  3.69928218e-01  5.91308543e-07  3.32634467e-01  5.91308543e-07  1.03023204e+00  5.91308543e-07  1.80000000e+00  5.91308543e-07  6.07048747e-06  5.91308543e-07  5.00000000e-01                                 
 6.06763859e-07  3.80222911e-01  6.06763859e-07  3.40858756e-01  6.06763859e-07  1.02596987e+00  6.06763859e-07  1.80000000e+00  6.06763859e-07  5.35778369e-06  6.06763859e-07  5.00000000e-01                                 
 6.37674492e-07  4.36555881e-01  6.37674492e-07  3.85838142e-01  6.37674492e-07  1.05022272e+00  6.37674492e-07  1.80000000e+00  6.37674492e-07  6.53108943e-06  6.37674492e-07  5.00000000e-01                                 
 6.99495758e-07  6.60183742e-01  6.99495758e-07  5.94648727e-01  6.99495758e-07  1.20185685e+00  6.99495758e-07  1.80000000e+00  6.99495758e-07  8.12269000e-06  6.99495758e-07  5.00000000e-01                                 
 7.04707560e-07  6.68982268e-01  7.04707560e-07  6.03808188e-01  7.04707560e-07  1.20534391e+00  7.04707560e-07  1.80000000e+00  7.04707560e-07  6.55928143e-06  7.04707560e-07  5.00000000e-01                                 
 7.15131165e-07  6.82267405e-01  7.15131165e-07  6.16829807e-01  7.15131165e-07  1.20722405e+00  7.15131165e-07  1.80000000e+00  7.15131165e-07  5.69861488e-06  7.15131165e-07  5.00000000e-01                                 
 7.35978374e-07  7.01493198e-01  7.35978374e-07  6.34614201e-01  7.35978374e-07  1.20313063e+00  7.35978374e-07  1.80000000e+00  7.35978374e-07  5.80494101e-06  7.35978374e-07  5.00000000e-01                                 
 7.61456244e-07  7.17069782e-01  7.61456244e-07  6.48537847e-01  7.61456244e-07  1.19095124e+00  7.61456244e-07  1.80000000e+00  7.61456244e-07  5.25949682e-06  7.61456244e-07  5.00000000e-01                                 
 7.96841363e-07  7.28715453e-01  7.96841363e-07  6.58481386e-01  7.96841363e-07  1.16418018e+00  7.96841363e-07  1.80000000e+00  7.96841363e-07  5.32799311e-06  7.96841363e-07  5.00000000e-01                                 
 8.53750069e-07  7.35131480e-01  8.53750069e-07  6.63834975e-01  8.53750069e-07  1.11075186e+00  8.53750069e-07  1.80000000e+00  8.53750069e-07  4.92403045e-06  8.53750069e-07  5.00000000e-01                                 
 9.14133444e-07  7.32606817e-01  9.14133444e-07  6.61741201e-01  9.14133444e-07  1.04834011e+00  9.14133444e-07  1.80000000e+00  9.14133444e-07  5.07422490e-06  9.14133444e-07  5.00000000e-01                                 
 9.28438004e-07  7.27919919e-01  9.28438004e-07  6.57848989e-01  9.28438004e-07  1.03105628e+00  9.28438004e-07  1.80000000e+00  9.28438004e-07  4.78549447e-06  9.28438004e-07  5.00000000e-01                                 
 9.57047123e-07  7.16824868e-01  9.57047123e-07  6.48354542e-01  9.57047123e-07  9.96180663e-01  9.57047123e-07  1.80000000e+00  9.57047123e-07  4.67344272e-06  9.57047123e-07  5.00000000e-01                                 
 1.01426536e-06  7.13317884e-01  1.01426536e-06  6.45242640e-01  1.01426536e-06  9.49357970e-01  1.01426536e-06  1.80000000e+00  1.01426536e-06  5.27878756e-06  1.01426536e-06  5.00000000e-01                                 
 1.08126911e-06  7.25938375e-01  1.08126911e-06  6.56155923e-01  1.08126911e-06  9.14719062e-01  1.08126911e-06  1.80000000e+00  1.08126911e-06  5.08830530e-06  1.08126911e-06  5.00000000e-01                                 
 1.16417494e-06  7.20032699e-01  1.16417494e-06  6.51122775e-01  1.16417494e-06  8.56618824e-01  1.16417494e-06  1.80000000e+00  1.16417494e-06  4.86859212e-06  1.16417494e-06  5.00000000e-01                                 
 1.24979838e-06  7.17346971e-01  1.24979838e-06  6.48777058e-01  1.24979838e-06  8.02514238e-01  1.24979838e-06  1.80000000e+00  1.24979838e-06  5.13901742e-06  1.24979838e-06  5.00000000e-01                                 
 1.37126400e-06  7.23663833e-01  1.37126400e-06  6.54228633e-01  1.37126400e-06  7.37307991e-01  1.37126400e-06  1.80000000e+00  1.37126400e-06  5.00927537e-06  1.37126400e-06  5.00000000e-01                                 
 1.54815870e-06  7.18132378e-01  1.54815870e-06  6.49468391e-01  1.54815870e-06  6.35271290e-01  1.54815870e-06  1.80000000e+00  1.54815870e-06  5.00447936e-06  1.54815870e-06  5.00000000e-01                                 
 1.73390871e-06  7.21524043e-01  1.73390871e-06  6.52392329e-01  1.73390871e-06  5.51341175e-01  1.73390871e-06  1.80000000e+00  1.73390871e-06  5.08810602e-06  1.73390871e-06  5.00000000e-01                                 
 1.99345879e-06  7.20443727e-01  1.99345879e-06  6.51469048e-01  1.99345879e-06  4.89634988e-01  1.99345879e-06  1.80000000e+00  1.99345879e-06  4.97168556e-06  1.99345879e-06  5.00000000e-01                                 
 2.03283628e-06  7.19632127e-01  2.03283628e-06  6.50766828e-01  2.03283628e-06  4.87334090e-01  2.03283628e-06  1.80000000e+00  2.03283628e-06  5.01468999e-06  2.03283628e-06  5.00000000e-01                                 
 2.11159125e-06  7.20369953e-01  2.11159125e-06  6.51400251e-01  2.11159125e-06  4.91504530e-01  2.11159125e-06  1.80000000e+00  2.11159125e-06  5.06614995e-06  2.11159125e-06  5.00000000e-01                                 
 2.13128000e-06  7.20799956e-01  2.13128000e-06  6.51771444e-01  2.13128000e-06  4.94718999e-01  2.13128000e-06  1.80000000e+00  2.13128000e-06  5.05064390e-06  2.13128000e-06  5.00000000e-01                                 
 2.17065749e-06  7.21024530e-01  2.17065749e-06  6.51966319e-01  2.17065749e-06  4.99034574e-01  2.17065749e-06  1.80000000e+00  2.17065749e-06  5.01968826e-06  2.17065749e-06  5.00000000e-01                                 
 2.24941246e-06  7.20221003e-01  2.24941246e-06  6.51274429e-01  2.24941246e-06  5.00278526e-01  2.24941246e-06  1.80000000e+00  2.24941246e-06  5.02462137e-06  2.24941246e-06  5.00000000e-01                                 
 2.40692241e-06  7.20599029e-01  2.40692241e-06  6.51598838e-01  2.40692241e-06  5.00194348e-01  2.40692241e-06  1.80000000e+00  2.40692241e-06  5.04244134e-06  2.40692241e-06  5.00000000e-01                                 
 2.65626408e-06  7.20576665e-01  2.65626408e-06  6.51581142e-01  2.65626408e-06  5.00360744e-01  2.65626408e-06  1.80000000e+00  2.65626408e-06  5.02043805e-06  2.65626408e-06  5.00000000e-01                                 
 3.03761185e-06  7.20394128e-01  3.03761185e-06  6.51422377e-01  3.03761185e-06  5.00026916e-01  3.03761185e-06  1.80000000e+00  3.03761185e-06  5.04184485e-06  3.03761185e-06  5.00000000e-01                                 
 3.80030740e-06  7.20680241e-01  3.80030740e-06  6.51670235e-01  3.80030740e-06  5.00465194e-01  3.80030740e-06  1.80000000e+00  3.80030740e-06  5.02179929e-06  3.80030740e-06  5.00000000e-01                                 
 4.80030740e-06  7.20341858e-01  4.80030740e-06  6.51377409e-01  4.80030740e-06  4.99970293e-01  4.80030740e-06  1.80000000e+00  4.80030740e-06  5.04070553e-06  4.80030740e-06  5.00000000e-01                                 
 5.80030740e-06  7.20719695e-01  5.80030740e-06  6.51704123e-01  5.80030740e-06  5.00509807e-01  5.80030740e-06  1.80000000e+00  5.80030740e-06  5.02294258e-06  5.80030740e-06  5.00000000e-01                                 
 6.80030740e-06  7.20306997e-01  6.80030740e-06  6.51347447e-01  6.80030740e-06  4.99930137e-01  6.80030740e-06  1.80000000e+00  6.80030740e-06  5.03944430e-06  6.80030740e-06  5.00000000e-01                                 
 7.80030740e-06  7.20749276e-01  7.80030740e-06  6.51729496e-01  7.80030740e-06  5.00544979e-01  7.80030740e-06  1.80000000e+00  7.80030740e-06  5.02430571e-06  7.80030740e-06  5.00000000e-01                                 
 8.80030740e-06  7.20282173e-01  8.80030740e-06  6.51326147e-01  8.80030740e-06  4.99900349e-01  8.80030740e-06  1.80000000e+00  8.80030740e-06  5.03799554e-06  8.80030740e-06  5.00000000e-01                                 
 9.80030740e-06  7.20768813e-01  9.80030740e-06  6.51746211e-01  9.80030740e-06  5.00569216e-01  9.80030740e-06  1.80000000e+00  9.80030740e-06  5.02582386e-06  9.80030740e-06  5.00000000e-01                                 
 1.00005000e-05  7.20265522e-01  1.00005000e-05  6.51312109e-01  1.00005000e-05  4.99878129e-01  1.00005000e-05  1.80000000e+00  1.00005000e-05  5.03323365e-06  1.00005000e-05  5.00000000e-01                                 
 1.00005500e-05  7.20265675e-01  1.00005500e-05  6.51312243e-01  1.00005500e-05  4.92320541e-01  1.00005500e-05  1.62000000e+00  1.00005500e-05 -7.94652768e-05  1.00005500e-05  5.00000000e-01                                 
 1.00006500e-05  7.20266000e-01  1.00006500e-05  6.51312520e-01  1.00006500e-05  4.78611867e-01  1.00006500e-05  1.26000000e+00  1.00006500e-05 -6.59712175e-05  1.00006500e-05  5.00000000e-01                                 
 1.00008500e-05  7.20266703e-01  1.00008500e-05  6.51313114e-01  1.00008500e-05  4.76541323e-01  1.00008500e-05  5.40000000e-01  1.00008500e-05  2.36449922e-02  1.00008500e-05  5.00000000e-01                                 
 1.00010000e-05  7.20267162e-01  1.00010000e-05  6.51313525e-01  1.00010000e-05  4.40236316e-01  1.00010000e-05  0.00000000e+00  1.00010000e-05  1.60044876e+00  1.00010000e-05  5.00000000e-01                                 
 1.00010250e-05  7.20267212e-01  1.00010250e-05  6.51313577e-01  1.00010250e-05  4.17403876e-01  1.00010250e-05  0.00000000e+00  1.00010250e-05  1.73282811e+00  1.00010250e-05  5.00000000e-01                                 
 1.00010751e-05  7.20267361e-01  1.00010751e-05  6.51313700e-01  1.00010751e-05  3.76479702e-01  1.00010751e-05  0.00000000e+00  1.00010751e-05  1.81893947e+00  1.00010751e-05  5.00000000e-01                                 
 1.00011751e-05  7.20267799e-01  1.00011751e-05  6.51314037e-01  1.00011751e-05  3.34210576e-01  1.00011751e-05  0.00000000e+00  1.00011751e-05  1.78636007e+00  1.00011751e-05  5.00000000e-01                                 
 1.00013072e-05  7.20268392e-01  1.00013072e-05  6.51314540e-01  1.00013072e-05  3.25941347e-01  1.00013072e-05  0.00000000e+00  1.00013072e-05  1.80877028e+00  1.00013072e-05  5.00000000e-01                                 
