 time            v(vbep)         time            v(vben)         time            v(vout)         time            v(vphi1)        time            v(vphi2)        time            v(vref)         yes             currtemp       
 0.00000000e+00  5.45560996e-01  0.00000000e+00  4.79795120e-01  0.00000000e+00  2.07266449e-01  0.00000000e+00  0.00000000e+00  0.00000000e+00  1.79998051e+00  0.00000000e+00  5.00000000e-01  1.00000000e+00  8.80000000e+01 
 5.00000000e-12  5.45546217e-01  5.00000000e-12  4.79782837e-01  5.00000000e-12  2.07879407e-01  5.00000000e-12  1.80000000e-02  5.00000000e-12  1.80007585e+00  5.00000000e-12  5.00000000e-01                                 
 1.00000000e-11  5.45531591e-01  1.00000000e-11  4.79770789e-01  1.00000000e-11  2.08429320e-01  1.00000000e-11  3.60000000e-02  1.00000000e-11  1.80012273e+00  1.00000000e-11  5.00000000e-01                                 
 2.00000000e-11  5.45502414e-01  2.00000000e-11  4.79746753e-01  2.00000000e-11  2.09432174e-01  2.00000000e-11  7.20000000e-02  2.00000000e-11  1.80016338e+00  2.00000000e-11  5.00000000e-01                                 
 4.00000000e-11  5.45444200e-01  4.00000000e-11  4.79698787e-01  4.00000000e-11  2.11000828e-01  4.00000000e-11  1.44000000e-01  4.00000000e-11  1.80013124e+00  4.00000000e-11  5.00000000e-01                                 
 8.00000000e-11  5.45328059e-01  8.00000000e-11  4.79603058e-01  8.00000000e-11  2.13099934e-01  8.00000000e-11  2.88000000e-01  8.00000000e-11  1.80007632e+00  8.00000000e-11  5.00000000e-01                                 
 1.60000000e-10  5.45096955e-01  1.60000000e-10  4.79412405e-01  1.60000000e-10  2.15558219e-01  1.60000000e-10  5.76000000e-01  1.60000000e-10  1.80003097e+00  1.60000000e-10  5.00000000e-01                                 
 3.20000000e-10  5.44639289e-01  3.20000000e-10  4.79034222e-01  3.20000000e-10  2.30138427e-01  3.20000000e-10  1.15200000e+00  3.20000000e-10  1.80031280e+00  3.20000000e-10  5.00000000e-01                                 
 5.00000000e-10  5.44131457e-01  5.00000000e-10  4.78613611e-01  5.00000000e-10  4.89140454e-01  5.00000000e-10  1.80000000e+00  5.00000000e-10  1.40677005e-01  5.00000000e-10  5.00000000e-01                                 
 5.22808452e-10  5.44067696e-01  5.22808452e-10  4.78560721e-01  5.22808452e-10  5.47194919e-01  5.22808452e-10  1.80000000e+00  5.22808452e-10  3.01591668e-02  5.22808452e-10  5.00000000e-01                                 
 5.68425356e-10  5.43940413e-01  5.68425356e-10  4.78455105e-01  5.68425356e-10  6.55590119e-01  5.68425356e-10  1.80000000e+00  5.68425356e-10 -1.36854922e-02  5.68425356e-10  5.00000000e-01                                 
 6.59659163e-10  5.43687276e-01  6.59659163e-10  4.78244871e-01  6.59659163e-10  8.30823463e-01  6.59659163e-10  1.80000000e+00  6.59659163e-10  1.10563765e-02  6.59659163e-10  5.00000000e-01                                 
 7.82756519e-10  5.43348664e-01  7.82756519e-10  4.77963254e-01  7.82756519e-10  1.00968255e+00  7.82756519e-10  1.80000000e+00  7.82756519e-10 -9.31826191e-03  7.82756519e-10  5.00000000e-01                                 
 9.81018947e-10  5.42810122e-01  9.81018947e-10  4.77514444e-01  9.81018947e-10  1.23172456e+00  9.81018947e-10  1.80000000e+00  9.81018947e-10  8.64641447e-03  9.81018947e-10  5.00000000e-01                                 
 1.29800085e-09  5.41965968e-01  1.29800085e-09  4.76808708e-01  1.29800085e-09  1.48602136e+00  1.29800085e-09  1.80000000e+00  1.29800085e-09 -8.01727315e-03  1.29800085e-09  5.00000000e-01                                 
 1.89030430e-09  5.40441010e-01  1.89030430e-09  4.75527043e-01  1.89030430e-09  1.71272556e+00  1.89030430e-09  1.80000000e+00  1.89030430e-09  7.90812035e-03  1.89030430e-09  5.00000000e-01                                 
 2.17727251e-09  5.39725707e-01  2.17727251e-09  4.74922828e-01  2.17727251e-09  1.74656237e+00  2.17727251e-09  1.80000000e+00  2.17727251e-09 -7.31511383e-03  2.17727251e-09  5.00000000e-01                                 
 2.51433090e-09  5.38903885e-01  2.51433090e-09  4.74226330e-01  2.51433090e-09  1.76439184e+00  2.51433090e-09  1.80000000e+00  2.51433090e-09  7.02898630e-03  2.51433090e-09  5.00000000e-01                                 
 2.89551313e-09  5.37997280e-01  2.89551313e-09  4.73455157e-01  2.89551313e-09  1.77211935e+00  2.89551313e-09  1.80000000e+00  2.89551313e-09 -6.62471541e-03  2.89551313e-09  5.00000000e-01                                 
 3.58219611e-09  5.36421109e-01  3.58219611e-09  4.72107608e-01  3.58219611e-09  1.77520772e+00  3.58219611e-09  1.80000000e+00  3.58219611e-09  6.53017891e-03  3.58219611e-09  5.00000000e-01                                 
 4.34451534e-09  5.34751230e-01  4.34451534e-09  4.70670611e-01  4.34451534e-09  1.77412024e+00  4.34451534e-09  1.80000000e+00  4.34451534e-09 -6.31046575e-03  4.34451534e-09  5.00000000e-01                                 
 5.76665669e-09  5.31832071e-01  5.76665669e-09  4.68136968e-01  5.76665669e-09  1.77167036e+00  5.76665669e-09  1.80000000e+00  5.76665669e-09  6.30312922e-03  5.76665669e-09  5.00000000e-01                                 
 7.96671488e-09  5.27740387e-01  7.96671488e-09  4.64542171e-01  7.96671488e-09  1.76684075e+00  7.96671488e-09  1.80000000e+00  7.96671488e-09 -6.18123050e-03  7.96671488e-09  5.00000000e-01                                 
 9.45603218e-09  5.25221738e-01  9.45603218e-09  4.62304573e-01  9.45603218e-09  1.76397060e+00  9.45603218e-09  1.80000000e+00  9.45603218e-09  6.17168564e-03  9.45603218e-09  5.00000000e-01                                 
 1.14342023e-08  5.22133369e-01  1.14342023e-08  4.59537681e-01  1.14342023e-08  1.76001516e+00  1.14342023e-08  1.80000000e+00  1.14342023e-08 -6.05822899e-03  1.14342023e-08  5.00000000e-01                                 
 1.35504063e-08  5.19109968e-01  1.35504063e-08  4.56805197e-01  1.35504063e-08  1.75603508e+00  1.35504063e-08  1.80000000e+00  1.35504063e-08  6.06197369e-03  1.35504063e-08  5.00000000e-01                                 
 1.58352445e-08  5.16123761e-01  1.58352445e-08  4.54084148e-01  1.58352445e-08  1.75161089e+00  1.58352445e-08  1.80000000e+00  1.58352445e-08 -5.96262384e-03  1.58352445e-08  5.00000000e-01                                 
 1.85001625e-08  5.12952162e-01  1.85001625e-08  4.51170720e-01  1.85001625e-08  1.74669684e+00  1.85001625e-08  1.80000000e+00  1.85001625e-08  5.97442587e-03  1.85001625e-08  5.00000000e-01                                 
 2.22296416e-08  5.08982994e-01  2.22296416e-08  4.47491427e-01  2.22296416e-08  1.73985190e+00  2.22296416e-08  1.80000000e+00  2.22296416e-08 -5.89508543e-03  2.22296416e-08  5.00000000e-01                                 
 2.80330897e-08  5.03664240e-01  2.80330897e-08  4.42504899e-01  2.80330897e-08  1.72988890e+00  2.80330897e-08  1.80000000e+00  2.80330897e-08  5.92800624e-03  2.80330897e-08  5.00000000e-01                                 
 3.81127422e-08  4.96154948e-01  3.81127422e-08  4.35365625e-01  3.81127422e-08  1.71340825e+00  3.81127422e-08  1.80000000e+00  3.81127422e-08 -5.86657752e-03  3.81127422e-08  5.00000000e-01                                 
 5.82720470e-08  4.84912285e-01  5.82720470e-08  4.24513837e-01  5.82720470e-08  1.68302081e+00  5.82720470e-08  1.80000000e+00  5.82720470e-08  5.91266367e-03  5.82720470e-08  5.00000000e-01                                 
 9.68618486e-08  4.67821870e-01  9.68618486e-08  4.08254386e-01  9.68618486e-08  1.62815647e+00  9.68618486e-08  1.80000000e+00  9.68618486e-08 -5.85867452e-03  9.68618486e-08  5.00000000e-01                                 
 1.45842657e-07  4.49354840e-01  1.45842657e-07  3.91238218e-01  1.45842657e-07  1.56070681e+00  1.45842657e-07  1.80000000e+00  1.45842657e-07  5.90793776e-03  1.45842657e-07  5.00000000e-01                                 
 2.07216381e-07  4.30367121e-01  2.07216381e-07  3.74086534e-01  2.07216381e-07  1.47844028e+00  2.07216381e-07  1.80000000e+00  2.07216381e-07 -5.85480760e-03  2.07216381e-07  5.00000000e-01                                 
 2.88586544e-07  4.06811662e-01  2.88586544e-07  3.53490256e-01  2.88586544e-07  1.36964512e+00  2.88586544e-07  1.80000000e+00  2.88586544e-07  5.90501391e-03  2.88586544e-07  5.00000000e-01                                 
 4.00855666e-07  3.71681994e-01  4.00855666e-07  3.23951716e-01  4.00855666e-07  1.21648393e+00  4.00855666e-07  1.80000000e+00  4.00855666e-07 -5.85261452e-03  4.00855666e-07  5.00000000e-01                                 
 5.07163723e-07  3.37215513e-01  5.07163723e-07  2.95698467e-01  5.07163723e-07  1.07712598e+00  5.07163723e-07  1.80000000e+00  5.07163723e-07  5.90313038e-03  5.07163723e-07  5.00000000e-01                                 
 5.33740737e-07  3.36540698e-01  5.33740737e-07  2.95080097e-01  5.33740737e-07  1.05291875e+00  5.33740737e-07  1.80000000e+00  5.33740737e-07  1.27299153e-05  5.33740737e-07  5.00000000e-01                                 
 5.86894765e-07  4.04294610e-01  5.86894765e-07  3.49104681e-01  5.86894765e-07  1.06876101e+00  5.86894765e-07  1.80000000e+00  5.86894765e-07  1.21347069e-05  5.86894765e-07  5.00000000e-01                                 
 6.62270387e-07  6.38986084e-01  6.62270387e-07  5.70002047e-01  6.62270387e-07  1.21820251e+00  6.62270387e-07  1.80000000e+00  6.62270387e-07  1.56311786e-05  6.62270387e-07  5.00000000e-01                                 
 7.08197024e-07  6.84714816e-01  7.08197024e-07  6.12855910e-01  7.08197024e-07  1.21441396e+00  7.08197024e-07  1.80000000e+00  7.08197024e-07  9.68196110e-06  7.08197024e-07  5.00000000e-01                                 
 7.52475951e-07  7.02637528e-01  7.52475951e-07  6.27879560e-01  7.52475951e-07  1.18357489e+00  7.52475951e-07  1.80000000e+00  7.52475951e-07  1.43942362e-05  7.52475951e-07  5.00000000e-01                                 
 7.97942680e-07  7.08500446e-01  7.97942680e-07  6.32822012e-01  7.97942680e-07  1.14313389e+00  7.97942680e-07  1.80000000e+00  7.97942680e-07  9.42887979e-06  7.97942680e-07  5.00000000e-01                                 
 8.48716342e-07  7.08912423e-01  8.48716342e-07  6.33042950e-01  8.48716342e-07  1.09196296e+00  8.48716342e-07  1.80000000e+00  8.48716342e-07  1.40216239e-05  8.48716342e-07  5.00000000e-01                                 
 9.10581164e-07  6.89053096e-01  9.10581164e-07  6.16629454e-01  9.10581164e-07  1.02030426e+00  9.10581164e-07  1.80000000e+00  9.10581164e-07  9.00774020e-06  9.10581164e-07  5.00000000e-01                                 
 9.75378071e-07  6.80410316e-01  9.75378071e-07  6.08842413e-01  9.75378071e-07  9.63102455e-01  9.75378071e-07  1.80000000e+00  9.75378071e-07  1.42205696e-05  9.75378071e-07  5.00000000e-01                                 
 1.05017885e-06  7.02204659e-01  1.05017885e-06  6.27657897e-01  1.05017885e-06  9.33091710e-01  1.05017885e-06  1.80000000e+00  1.05017885e-06  9.80150386e-06  1.05017885e-06  5.00000000e-01                                 
 1.11940658e-06  6.93869617e-01  1.11940658e-06  6.20576771e-01  1.11940658e-06  8.80574837e-01  1.11940658e-06  1.80000000e+00  1.11940658e-06  1.34887842e-05  1.11940658e-06  5.00000000e-01                                 
 1.19136944e-06  6.86780406e-01  1.19136944e-06  6.14608627e-01  1.19136944e-06  8.31290712e-01  1.19136944e-06  1.80000000e+00  1.19136944e-06  9.86137454e-06  1.19136944e-06  5.00000000e-01                                 
 1.29028096e-06  6.97316414e-01  1.29028096e-06  6.23477201e-01  1.29028096e-06  7.81309511e-01  1.29028096e-06  1.80000000e+00  1.29028096e-06  1.38087137e-05  1.29028096e-06  5.00000000e-01                                 
 1.41513952e-06  6.92215477e-01  1.41513952e-06  6.19283489e-01  1.41513952e-06  7.06015664e-01  1.41513952e-06  1.80000000e+00  1.41513952e-06  9.64043583e-06  1.41513952e-06  5.00000000e-01                                 
 1.53430657e-06  6.91028549e-01  1.53430657e-06  6.18135106e-01  1.53430657e-06  6.39836445e-01  1.53430657e-06  1.80000000e+00  1.53430657e-06  1.38336229e-05  1.53430657e-06  5.00000000e-01                                 
 1.73329163e-06  6.96414361e-01  1.73329163e-06  6.22829874e-01  1.73329163e-06  5.51050079e-01  1.73329163e-06  1.80000000e+00  1.73329163e-06  9.72443285e-06  1.73329163e-06  5.00000000e-01                                 
 1.95310088e-06  6.89483175e-01  1.95310088e-06  6.16814567e-01  1.95310088e-06  4.90919758e-01  1.95310088e-06  1.80000000e+00  1.95310088e-06  1.37237813e-05  1.95310088e-06  5.00000000e-01                                 
 1.98797430e-06  6.92206232e-01  1.98797430e-06  6.19203051e-01  1.98797430e-06  4.91285360e-01  1.98797430e-06  1.80000000e+00  1.98797430e-06  1.18245534e-05  1.98797430e-06  5.00000000e-01                                 
 2.05772114e-06  6.94684807e-01  2.05772114e-06  6.21316064e-01  2.05772114e-06  4.90815566e-01  2.05772114e-06  1.80000000e+00  2.05772114e-06  1.17429049e-05  2.05772114e-06  5.00000000e-01                                 
 2.16348611e-06  6.92503236e-01  2.16348611e-06  6.19462139e-01  2.16348611e-06  4.97764043e-01  2.16348611e-06  1.80000000e+00  2.16348611e-06  1.17300329e-05  2.16348611e-06  5.00000000e-01                                 
 2.27168546e-06  6.92984868e-01  2.27168546e-06  6.19870527e-01  2.27168546e-06  5.02302944e-01  2.27168546e-06  1.80000000e+00  2.27168546e-06  1.17762208e-05  2.27168546e-06  5.00000000e-01                                 
 2.46505979e-06  6.93829878e-01  2.46505979e-06  6.20590590e-01  2.46505979e-06  4.99227083e-01  2.46505979e-06  1.80000000e+00  2.46505979e-06  1.17368761e-05  2.46505979e-06  5.00000000e-01                                 
 2.64402686e-06  6.92402249e-01  2.64402686e-06  6.19375491e-01  2.64402686e-06  5.00261880e-01  2.64402686e-06  1.80000000e+00  2.64402686e-06  1.17529630e-05  2.64402686e-06  5.00000000e-01                                 
 2.91589839e-06  6.94025186e-01  2.91589839e-06  6.20754973e-01  2.91589839e-06  5.00570372e-01  2.91589839e-06  1.80000000e+00  2.91589839e-06  1.17613104e-05  2.91589839e-06  5.00000000e-01                                 
 3.32649824e-06  6.92443374e-01  3.32649824e-06  6.19411525e-01  3.32649824e-06  4.99836035e-01  3.32649824e-06  1.80000000e+00  3.32649824e-06  1.17363272e-05  3.32649824e-06  5.00000000e-01                                 
 3.92780108e-06  6.93930092e-01  3.92780108e-06  6.20673669e-01  3.92780108e-06  5.00703297e-01  3.92780108e-06  1.80000000e+00  3.92780108e-06  1.17718556e-05  3.92780108e-06  5.00000000e-01                                 
 4.92780108e-06  6.92531770e-01  4.92780108e-06  6.19487245e-01  4.92780108e-06  4.99805806e-01  4.92780108e-06  1.80000000e+00  4.92780108e-06  1.17299353e-05  4.92780108e-06  5.00000000e-01                                 
 5.92780108e-06  6.93853568e-01  5.92780108e-06  6.20608479e-01  5.92780108e-06  5.00694650e-01  5.92780108e-06  1.80000000e+00  5.92780108e-06  1.17763130e-05  5.92780108e-06  5.00000000e-01                                 
 6.92780108e-06  6.92618335e-01  6.92780108e-06  6.19561269e-01  6.92780108e-06  4.99829386e-01  6.92780108e-06  1.80000000e+00  6.92780108e-06  1.17257711e-05  6.92780108e-06  5.00000000e-01                                 
 7.92780108e-06  6.93762444e-01  7.92780108e-06  6.20530879e-01  7.92780108e-06  5.00653731e-01  7.92780108e-06  1.80000000e+00  7.92780108e-06  1.17801613e-05  7.92780108e-06  5.00000000e-01                                 
 8.92780108e-06  6.92717327e-01  8.92780108e-06  6.19645797e-01  8.92780108e-06  4.99884271e-01  8.92780108e-06  1.80000000e+00  8.92780108e-06  1.17222578e-05  8.92780108e-06  5.00000000e-01                                 
 9.92780108e-06  6.93660888e-01  9.92780108e-06  6.20444439e-01  9.92780108e-06  5.00586112e-01  9.92780108e-06  1.80000000e+00  9.92780108e-06  1.17833237e-05  9.92780108e-06  5.00000000e-01                                 
 1.00005000e-05  6.93414454e-01  1.00005000e-05  6.20239270e-01  1.00005000e-05  5.00511177e-01  1.00005000e-05  1.80000000e+00  1.00005000e-05  1.17165752e-05  1.00005000e-05  5.00000000e-01                                 
 1.00005500e-05  6.93413267e-01  1.00005500e-05  6.20238211e-01  1.00005500e-05  4.93153182e-01  1.00005500e-05  1.62000000e+00  1.00005500e-05 -7.52414123e-05  1.00005500e-05  5.00000000e-01                                 
 1.00006500e-05  6.93410954e-01  1.00006500e-05  6.20236120e-01  1.00006500e-05  4.79576690e-01  1.00006500e-05  1.26000000e+00  1.00006500e-05 -6.34416853e-05  1.00006500e-05  5.00000000e-01                                 
 1.00008500e-05  6.93406421e-01  1.00008500e-05  6.20232038e-01  1.00008500e-05  4.78613900e-01  1.00008500e-05  5.40000000e-01  1.00008500e-05  1.10325117e-01  1.00008500e-05  5.00000000e-01                                 
 1.00010000e-05  6.93402964e-01  1.00010000e-05  6.20228991e-01  1.00010000e-05  4.44028600e-01  1.00010000e-05  0.00000000e+00  1.00010000e-05  1.62659757e+00  1.00010000e-05  5.00000000e-01                                 
 1.00010248e-05  6.93402379e-01  1.00010248e-05  6.20228480e-01  1.00010248e-05  4.24690688e-01  1.00010248e-05  0.00000000e+00  1.00010248e-05  1.74192719e+00  1.00010248e-05  5.00000000e-01                                 
 1.00010743e-05  6.93401247e-01  1.00010743e-05  6.20227475e-01  1.00010743e-05  3.90561006e-01  1.00010743e-05  0.00000000e+00  1.00010743e-05  1.81676810e+00  1.00010743e-05  5.00000000e-01                                 
 1.00011733e-05  6.93399085e-01  1.00011733e-05  6.20225542e-01  1.00011733e-05  3.55815305e-01  1.00011733e-05  0.00000000e+00  1.00011733e-05  1.78803397e+00  1.00011733e-05  5.00000000e-01                                 
 1.00013265e-05  6.93395747e-01  1.00013265e-05  6.20222615e-01  1.00013265e-05  3.47654661e-01  1.00013265e-05  0.00000000e+00  1.00013265e-05  1.80827372e+00  1.00013265e-05  5.00000000e-01                                 
 1.00015744e-05  6.93390226e-01  1.00015744e-05  6.20217828e-01  1.00015744e-05  3.48041761e-01  1.00015744e-05  0.00000000e+00  1.00015744e-05  1.79299086e+00  1.00015744e-05  5.00000000e-01                                 
 1.00018055e-05  6.93384965e-01  1.00018055e-05  6.20213294e-01  1.00018055e-05  3.48215365e-01  1.00018055e-05  0.00000000e+00  1.00018055e-05  1.80568554e+00  1.00018055e-05  5.00000000e-01                                 
 1.00022359e-05  6.93375053e-01  1.00022359e-05  6.20204791e-01  1.00022359e-05  3.48055905e-01  1.00022359e-05  0.00000000e+00  1.00022359e-05  1.79486659e+00  1.00022359e-05  5.00000000e-01                                 
 1.00027569e-05  6.93363093e-01  1.00027569e-05  6.20194563e-01  1.00027569e-05  3.48279813e-01  1.00027569e-05  0.00000000e+00  1.00027569e-05  1.80468036e+00  1.00027569e-05  5.00000000e-01                                 
 1.00037988e-05  6.93339692e-01  1.00037988e-05  6.20174600e-01  1.00037988e-05  3.48528530e-01  1.00037988e-05  0.00000000e+00  1.00037988e-05  1.79550384e+00  1.00037988e-05  5.00000000e-01                                 
 1.00058825e-05  6.93294138e-01  1.00058825e-05  6.20135822e-01  1.00058825e-05  3.49863445e-01  1.00058825e-05  0.00000000e+00  1.00058825e-05  1.80438154e+00  1.00058825e-05  5.00000000e-01                                 
 1.00100500e-05  6.93204336e-01  1.00100500e-05  6.20059446e-01  1.00100500e-05  3.52792570e-01  1.00100500e-05  0.00000000e+00  1.00100500e-05  1.79564998e+00  1.00100500e-05  5.00000000e-01                                 
 1.00183850e-05  6.93044274e-01  1.00183850e-05  6.19923075e-01  1.00183850e-05  3.62346369e-01  1.00183850e-05  0.00000000e+00  1.00183850e-05  1.80430998e+00  1.00183850e-05  5.00000000e-01                                 
