 time            v(vbep)         time            v(vben)         time            v(vout)         time            v(vphi1)        time            v(vphi2)        time            v(vref)         yes             currtemp       
 0.00000000e+00  6.59486671e-01  0.00000000e+00  6.01692291e-01  0.00000000e+00  1.03757285e+00  0.00000000e+00  0.00000000e+00  0.00000000e+00  1.79994994e+00  0.00000000e+00  6.01692291e-01  1.00000000e+00  4.30000000e+01 
 5.00000000e-12  6.59456282e-01  5.00000000e-12  6.01667145e-01  5.00000000e-12  1.03830581e+00  5.00000000e-12  1.80000000e-02  5.00000000e-12  1.80007697e+00  5.00000000e-12  6.01667145e-01                                 
 1.00000000e-11  6.59426731e-01  1.00000000e-11  6.01642673e-01  1.00000000e-11  1.03897303e+00  1.00000000e-11  3.60000000e-02  1.00000000e-11  1.80015273e+00  1.00000000e-11  6.01642673e-01                                 
 2.00000000e-11  6.59368145e-01  2.00000000e-11  6.01593923e-01  2.00000000e-11  1.04020381e+00  2.00000000e-11  7.20000000e-02  2.00000000e-11  1.80023781e+00  2.00000000e-11  6.01593923e-01                                 
 4.00000000e-11  6.59251854e-01  4.00000000e-11  6.01496814e-01  4.00000000e-11  1.04218659e+00  4.00000000e-11  1.44000000e-01  4.00000000e-11  1.80022913e+00  4.00000000e-11  6.01496814e-01                                 
 8.00000000e-11  6.59020436e-01  8.00000000e-11  6.01303487e-01  8.00000000e-11  1.04483631e+00  8.00000000e-11  2.88000000e-01  8.00000000e-11  1.80013111e+00  8.00000000e-11  6.01303487e-01                                 
 1.60000000e-10  6.58562629e-01  1.60000000e-10  6.00920368e-01  1.60000000e-10  1.04704773e+00  1.60000000e-10  5.76000000e-01  1.60000000e-10  1.80001944e+00  1.60000000e-10  6.00920368e-01                                 
 3.20000000e-10  6.57665919e-01  3.20000000e-10  6.00167755e-01  3.20000000e-10  1.03985205e+00  3.20000000e-10  1.15200000e+00  3.20000000e-10  1.80028834e+00  3.20000000e-10  6.00167755e-01                                 
 5.00000000e-10  6.56686200e-01  5.00000000e-10  5.99342003e-01  5.00000000e-10  1.14504935e+00  5.00000000e-10  1.80000000e+00  5.00000000e-10  1.56753708e-01  5.00000000e-10  5.99342003e-01                                 
 5.21516492e-10  6.56571303e-01  5.21516492e-10  5.99244909e-01  5.21516492e-10  1.17163429e+00  5.21516492e-10  1.80000000e+00  5.21516492e-10  3.97112317e-02  5.21516492e-10  5.99244909e-01                                 
 5.64549476e-10  6.56342316e-01  5.64549476e-10  5.99051293e-01  5.64549476e-10  1.22459315e+00  5.64549476e-10  1.80000000e+00  5.64549476e-10 -1.46937833e-02  5.64549476e-10  5.99051293e-01                                 
 6.50615443e-10  6.55889209e-01  6.50615443e-10  5.98667613e-01  6.50615443e-10  1.32007376e+00  6.50615443e-10  1.80000000e+00  6.50615443e-10  1.24717646e-02  6.50615443e-10  5.98667613e-01                                 
 7.70873567e-10  6.55266698e-01  7.70873567e-10  5.98139262e-01  7.70873567e-10  1.43628139e+00  7.70873567e-10  1.80000000e+00  7.70873567e-10 -9.39669679e-03  7.70873567e-10  5.98139262e-01                                 
 9.52975328e-10  6.54346609e-01  9.52975328e-10  5.97355785e-01  9.52975328e-10  1.57851240e+00  9.52975328e-10  1.80000000e+00  9.52975328e-10  9.29826791e-03  9.52975328e-10  5.97355785e-01                                 
 1.31717885e-09  6.52582248e-01  1.31717885e-09  5.95845063e-01  1.31717885e-09  1.75627315e+00  1.31717885e-09  1.80000000e+00  1.31717885e-09 -8.12211447e-03  1.31717885e-09  5.95845063e-01                                 
 1.66471081e-09  6.50986300e-01  1.66471081e-09  5.94469053e-01  1.66471081e-09  1.83425542e+00  1.66471081e-09  1.80000000e+00  1.66471081e-09  7.98009367e-03  1.66471081e-09  5.94469053e-01                                 
 2.04733338e-09  6.49318453e-01  2.04733338e-09  5.93021681e-01  2.04733338e-09  1.86773691e+00  2.04733338e-09  1.80000000e+00  2.04733338e-09 -7.38670441e-03  2.04733338e-09  5.93021681e-01                                 
 2.39641254e-09  6.47871261e-01  2.39641254e-09  5.91758156e-01  2.39641254e-09  1.87859189e+00  2.39641254e-09  1.80000000e+00  2.39641254e-09  7.03840309e-03  2.39641254e-09  5.91758156e-01                                 
 2.91367897e-09  6.45843285e-01  2.91367897e-09  5.89976129e-01  2.91367897e-09  1.88221085e+00  2.91367897e-09  1.80000000e+00  2.91367897e-09 -6.70548346e-03  2.91367897e-09  5.89976129e-01                                 
 3.56343124e-09  6.43471196e-01  3.56343124e-09  5.87875204e-01  3.56343124e-09  1.88160970e+00  3.56343124e-09  1.80000000e+00  3.56343124e-09  6.52694390e-03  3.56343124e-09  5.87875204e-01                                 
 4.67773698e-09  6.39783160e-01  4.67773698e-09  5.84575629e-01  4.67773698e-09  1.87790418e+00  4.67773698e-09  1.80000000e+00  4.67773698e-09 -6.37526295e-03  4.67773698e-09  5.84575629e-01                                 
 6.39460590e-09  6.34848422e-01  6.39460590e-09  5.80101174e-01  6.39460590e-09  1.87353622e+00  6.39460590e-09  1.80000000e+00  6.39460590e-09  6.32505430e-03  6.39460590e-09  5.80101174e-01                                 
 9.82834374e-09  6.26853216e-01  9.82834374e-09  5.72725752e-01  9.82834374e-09  1.86541743e+00  9.82834374e-09  1.80000000e+00  9.82834374e-09 -6.25445687e-03  9.82834374e-09  5.72725752e-01                                 
 1.21079107e-08  6.22572327e-01  1.21079107e-08  5.68710928e-01  1.21079107e-08  1.86121006e+00  1.21079107e-08  1.80000000e+00  1.21079107e-08  6.22652981e-03  1.21079107e-08  5.68710928e-01                                 
 1.37182427e-08  6.19891129e-01  1.37182427e-08  5.66177047e-01  1.37182427e-08  1.85809680e+00  1.37182427e-08  1.80000000e+00  1.37182427e-08 -6.12026832e-03  1.37182427e-08  5.66177047e-01                                 
 1.52337554e-08  6.17574684e-01  1.52337554e-08  5.63977226e-01  1.52337554e-08  1.85581975e+00  1.52337554e-08  1.80000000e+00  1.52337554e-08  6.06049366e-03  1.52337554e-08  5.63977226e-01                                 
 1.69897696e-08  6.15100787e-01  1.69897696e-08  5.61617887e-01  1.69897696e-08  1.85267372e+00  1.69897696e-08  1.80000000e+00  1.69897696e-08 -5.96547809e-03  1.69897696e-08  5.61617887e-01                                 
 1.90000616e-08  6.12501962e-01  1.90000616e-08  5.59129248e-01  1.90000616e-08  1.84975256e+00  1.90000616e-08  1.80000000e+00  1.90000616e-08  5.92609886e-03  1.90000616e-08  5.59129248e-01                                 
 2.13635889e-08  6.09710209e-01  2.13635889e-08  5.56445656e-01  2.13635889e-08  1.84574968e+00  2.13635889e-08  1.80000000e+00  2.13635889e-08 -5.85176367e-03  2.13635889e-08  5.56445656e-01                                 
 2.49547900e-08  6.05896130e-01  2.49547900e-08  5.52766367e-01  2.49547900e-08  1.84050639e+00  2.49547900e-08  1.80000000e+00  2.49547900e-08  5.83976216e-03  2.49547900e-08  5.52766367e-01                                 
 2.87722966e-08  6.02274463e-01  2.87722966e-08  5.49264993e-01  2.87722966e-08  1.83454915e+00  2.87722966e-08  1.80000000e+00  2.87722966e-08 -5.78574729e-03  2.87722966e-08  5.49264993e-01                                 
 3.57138349e-08  5.96398172e-01  3.57138349e-08  5.43597931e-01  3.57138349e-08  1.82556154e+00  3.57138349e-08  1.80000000e+00  3.57138349e-08  5.79088275e-03  3.57138349e-08  5.43597931e-01                                 
 4.64009989e-08  5.88449569e-01  4.64009989e-08  5.36002430e-01  4.64009989e-08  1.81362127e+00  4.64009989e-08  1.80000000e+00  4.64009989e-08 -5.75658622e-03  4.64009989e-08  5.36002430e-01                                 
 5.62785163e-08  5.82129930e-01  5.62785163e-08  5.29999725e-01  5.62785163e-08  1.80570681e+00  5.62785163e-08  1.80000000e+00  5.62785163e-08  5.76807890e-03  5.62785163e-08  5.29999725e-01                                 
 6.76086311e-08  5.73885345e-01  6.76086311e-08  5.22504596e-01  6.76086311e-08  1.78367450e+00  6.76086311e-08  1.80000000e+00  6.76086311e-08 -5.73559477e-03  6.76086311e-08  5.22504596e-01                                 
 8.24444143e-08  5.65447946e-01  8.24444143e-08  5.14756039e-01  8.24444143e-08  1.75419039e+00  8.24444143e-08  1.80000000e+00  8.24444143e-08  5.74994342e-03  8.24444143e-08  5.14756039e-01                                 
 9.58245189e-08  5.58818154e-01  9.58245189e-08  5.08693357e-01  9.58245189e-08  1.73061688e+00  9.58245189e-08  1.80000000e+00  9.58245189e-08 -5.71826077e-03  9.58245189e-08  5.08693357e-01                                 
 1.22124581e-07  5.48641742e-01  1.22124581e-07  4.99312284e-01  1.22124581e-07  1.68506848e+00  1.22124581e-07  1.80000000e+00  1.22124581e-07  5.73687477e-03  1.22124581e-07  4.99312284e-01                                 
 1.48993737e-07  5.51076430e-01  1.48993737e-07  5.00099543e-01  1.48993737e-07  1.67979924e+00  1.48993737e-07  1.80000000e+00  1.48993737e-07 -5.70628903e-03  1.48993737e-07  5.00099543e-01                                 
 1.70440485e-07  5.52439183e-01  1.70440485e-07  5.00372794e-01  1.70440485e-07  1.66338078e+00  1.70440485e-07  1.80000000e+00  1.70440485e-07  5.72613085e-03  1.70440485e-07  5.00372794e-01                                 
 1.93013595e-07  5.47481054e-01  1.93013595e-07  4.95702271e-01  1.93013595e-07  1.63288934e+00  1.93013595e-07  1.80000000e+00  1.93013595e-07 -5.69697164e-03  1.93013595e-07  4.95702271e-01                                 
 2.12536475e-07  5.43472457e-01  2.12536475e-07  4.91950653e-01  2.12536475e-07  1.60930396e+00  2.12536475e-07  1.80000000e+00  2.12536475e-07  5.71505460e-03  2.12536475e-07  4.91950653e-01                                 
 2.33291378e-07  5.38039016e-01  2.33291378e-07  4.87092490e-01  2.33291378e-07  1.58437625e+00  2.33291378e-07  1.80000000e+00  2.33291378e-07 -5.68548070e-03  2.33291378e-07  4.87092490e-01                                 
 2.68967419e-07  5.28121203e-01  2.68967419e-07  4.78403133e-01  2.68967419e-07  1.53803272e+00  2.68967419e-07  1.80000000e+00  2.68967419e-07  5.70594771e-03  2.68967419e-07  4.78403133e-01                                 
 3.15078151e-07  5.16284328e-01  3.15078151e-07  4.68136056e-01  3.15078151e-07  1.48055219e+00  3.15078151e-07  1.80000000e+00  3.15078151e-07 -5.67951177e-03  3.15078151e-07  4.68136056e-01                                 
 4.00599395e-07  4.91073717e-01  4.00599395e-07  4.46948804e-01  4.00599395e-07  1.36757519e+00  4.00599395e-07  1.80000000e+00  4.00599395e-07  5.70189752e-03  4.00599395e-07  4.46948804e-01                                 
 4.84924685e-07  4.76050787e-01  4.84924685e-07  4.34239945e-01  4.84924685e-07  1.26658033e+00  4.84924685e-07  1.80000000e+00  4.84924685e-07 -5.67637478e-03  4.84924685e-07  4.34239945e-01                                 
 5.59934062e-07  4.44758806e-01  5.59934062e-07  4.08904450e-01  5.59934062e-07  1.15732552e+00  5.59934062e-07  1.80000000e+00  5.59934062e-07  5.69815057e-03  5.59934062e-07  4.08904450e-01                                 
 6.37117215e-07  4.19484401e-01  6.37117215e-07  3.88582266e-01  6.37117215e-07  1.05450565e+00  6.37117215e-07  1.80000000e+00  6.37117215e-07 -5.67294237e-03  6.37117215e-07  3.88582266e-01                                 
 6.49423298e-07  4.21887657e-01  6.49423298e-07  3.90509461e-01  6.49423298e-07  1.04379310e+00  6.49423298e-07  1.80000000e+00  6.49423298e-07 -1.28264586e-06  6.49423298e-07  3.90509461e-01                                 
 6.74035464e-07  4.49180591e-01  6.74035464e-07  4.12361126e-01  6.74035464e-07  1.04493542e+00  6.74035464e-07  1.80000000e+00  6.74035464e-07  6.32605296e-06  6.74035464e-07  4.12361126e-01                                 
 7.23259795e-07  7.01150885e-01  7.23259795e-07  6.40539492e-01  7.23259795e-07  1.23646523e+00  7.23259795e-07  1.80000000e+00  7.23259795e-07  1.57534661e-05  7.23259795e-07  6.40539492e-01                                 
 7.70847120e-07  7.69405935e-01  7.70847120e-07  7.05398436e-01  7.70847120e-07  1.25593073e+00  7.70847120e-07  1.80000000e+00  7.70847120e-07 -7.50938974e-06  7.70847120e-07  7.05398436e-01                                 
 8.22619512e-07  7.89844413e-01  8.22619512e-07  7.22094650e-01  8.22619512e-07  1.21741617e+00  8.22619512e-07  1.80000000e+00  8.22619512e-07  1.03702954e-05  8.22619512e-07  7.22094650e-01                                 
 8.67687208e-07  7.90699313e-01  8.67687208e-07  7.22854700e-01  8.67687208e-07  1.17534114e+00  8.67687208e-07  1.80000000e+00  8.67687208e-07 -8.94827837e-06  8.67687208e-07  7.22854700e-01                                 
 9.14894122e-07  7.89870648e-01  9.14894122e-07  7.22125737e-01  9.14894122e-07  1.12104257e+00  9.14894122e-07  1.80000000e+00  9.14894122e-07  9.90257306e-06  9.14894122e-07  7.22125737e-01                                 
 9.22770663e-07  7.87547986e-01  9.22770663e-07  7.20337121e-01  9.22770663e-07  1.11263703e+00  9.22770663e-07  1.80000000e+00  9.22770663e-07  1.53934440e-07  9.22770663e-07  7.20337121e-01                                 
 9.38523746e-07  7.74721874e-01  9.38523746e-07  7.09940540e-01  9.38523746e-07  1.08489943e+00  9.38523746e-07  1.80000000e+00  9.38523746e-07 -2.58695535e-06  9.38523746e-07  7.09940540e-01                                 
 9.58302549e-07  7.55166155e-01  9.58302549e-07  6.92956122e-01  9.58302549e-07  1.04545386e+00  9.58302549e-07  1.80000000e+00  9.58302549e-07 -8.41441611e-07  9.58302549e-07  6.92956122e-01                                 
 9.81363623e-07  7.45613087e-01  9.81363623e-07  6.84334627e-01  9.81363623e-07  1.01377419e+00  9.81363623e-07  1.80000000e+00  9.81363623e-07  1.85437537e-07  9.81363623e-07  6.84334627e-01                                 
 1.01744533e-06  7.39186545e-01  1.01744533e-06  6.78367438e-01  1.01744533e-06  9.75369826e-01  1.01744533e-06  1.80000000e+00  1.01744533e-06  3.71034105e-07  1.01744533e-06  6.78367438e-01                                 
 1.05458787e-06  7.52403724e-01  1.05458787e-06  6.90435528e-01  1.05458787e-06  9.56666368e-01  1.05458787e-06  1.80000000e+00  1.05458787e-06  2.76462126e-06  1.05458787e-06  6.90435528e-01                                 
 1.11864760e-06  7.72116667e-01  1.11864760e-06  7.07653323e-01  1.11864760e-06  9.26390596e-01  1.11864760e-06  1.80000000e+00  1.11864760e-06  2.20146762e-07  1.11864760e-06  7.07653323e-01                                 
 1.18298545e-06  7.62239720e-01  1.18298545e-06  6.99212045e-01  1.18298545e-06  8.74834975e-01  1.18298545e-06  1.80000000e+00  1.18298545e-06  7.74135191e-07  1.18298545e-06  6.99212045e-01                                 
 1.25960610e-06  7.53089020e-01  1.25960610e-06  6.91064446e-01  1.25960610e-06  8.20637935e-01  1.25960610e-06  1.80000000e+00  1.25960610e-06  4.60015614e-07  1.25960610e-06  6.91064446e-01                                 
 1.34063891e-06  7.64135915e-01  1.34063891e-06  7.00835910e-01  1.34063891e-06  7.85412488e-01  1.34063891e-06  1.80000000e+00  1.34063891e-06  1.99032669e-06  1.34063891e-06  7.00835910e-01                                 
 1.35607042e-06  7.65428530e-01  1.35607042e-06  7.01948122e-01  1.35607042e-06  7.78544519e-01  1.35607042e-06  1.80000000e+00  1.35607042e-06  1.13013547e-06  1.35607042e-06  7.01948122e-01                                 
 1.38693345e-06  7.65280077e-01  1.38693345e-06  7.01829239e-01  1.38693345e-06  7.63175826e-01  1.38693345e-06  1.80000000e+00  1.38693345e-06  7.70427408e-07  1.38693345e-06  7.01829239e-01                                 
 1.44865950e-06  7.58259920e-01  1.44865950e-06  6.95694641e-01  1.44865950e-06  7.32532617e-01  1.44865950e-06  1.80000000e+00  1.44865950e-06  7.45119925e-07  1.44865950e-06  6.95694641e-01                                 
 1.54571115e-06  7.60344537e-01  1.54571115e-06  6.97514254e-01  1.54571115e-06  7.10387149e-01  1.54571115e-06  1.80000000e+00  1.54571115e-06  1.48722953e-06  1.54571115e-06  6.97514254e-01                                 
 1.64653575e-06  7.63951716e-01  1.64653575e-06  7.00678842e-01  1.64653575e-06  6.99508735e-01  1.64653575e-06  1.80000000e+00  1.64653575e-06  8.92481943e-07  1.64653575e-06  7.00678842e-01                                 
 1.80321841e-06  7.58164516e-01  1.80321841e-06  6.95601280e-01  1.80321841e-06  6.82474420e-01  1.80321841e-06  1.80000000e+00  1.80321841e-06  1.21924810e-06  1.80321841e-06  6.95601280e-01                                 
 1.96073350e-06  7.63031991e-01  1.96073350e-06  6.99872067e-01  1.96073350e-06  6.98518963e-01  1.96073350e-06  1.80000000e+00  1.96073350e-06  1.29816016e-06  1.96073350e-06  6.99872067e-01                                 
 2.11364040e-06  7.60459789e-01  2.11364040e-06  6.97628923e-01  2.11364040e-06  7.01971263e-01  2.11364040e-06  1.80000000e+00  2.11364040e-06  9.79591941e-07  2.11364040e-06  6.97628923e-01                                 
 2.29722809e-06  7.60743506e-01  2.29722809e-06  6.97869969e-01  2.29722809e-06  6.94323988e-01  2.29722809e-06  1.80000000e+00  2.29722809e-06  1.32229326e-06  2.29722809e-06  6.97869969e-01                                 
 2.46295053e-06  7.62298437e-01  2.46295053e-06  6.99237448e-01  2.46295053e-06  7.00287217e-01  2.46295053e-06  1.80000000e+00  2.46295053e-06  1.06624013e-06  2.46295053e-06  6.99237448e-01                                 
 2.65218791e-06  7.59667588e-01  2.65218791e-06  6.96927197e-01  2.65218791e-06  6.97010245e-01  2.65218791e-06  1.80000000e+00  2.65218791e-06  1.19460566e-06  2.65218791e-06  6.96927197e-01                                 
 2.88758001e-06  7.62464815e-01  2.88758001e-06  6.99379843e-01  2.88758001e-06  6.99366544e-01  2.88758001e-06  1.80000000e+00  2.88758001e-06  1.18397700e-06  2.88758001e-06  6.99379843e-01                                 
 3.33412954e-06  7.59879248e-01  3.33412954e-06  6.97115399e-01  3.33412954e-06  6.97451590e-01  3.33412954e-06  1.80000000e+00  3.33412954e-06  1.11738798e-06  3.33412954e-06  6.97115399e-01                                 
 3.82472923e-06  7.62185535e-01  3.82472923e-06  6.99134979e-01  3.82472923e-06  6.99058984e-01  3.82472923e-06  1.80000000e+00  3.82472923e-06  1.22908006e-06  3.82472923e-06  6.99134979e-01                                 
 4.65406725e-06  7.60152842e-01  4.65406725e-06  6.97356721e-01  4.65406725e-06  6.97707355e-01  4.65406725e-06  1.80000000e+00  4.65406725e-06  1.08682442e-06  4.65406725e-06  6.97356721e-01                                 
 5.65406725e-06  7.61986857e-01  5.65406725e-06  6.98960991e-01  5.65406725e-06  6.98879873e-01  5.65406725e-06  1.80000000e+00  5.65406725e-06  1.24730025e-06  5.65406725e-06  6.98960991e-01                                 
 6.65406725e-06  7.60353084e-01  6.65406725e-06  6.97533012e-01  6.65406725e-06  6.97881955e-01  6.65406725e-06  1.80000000e+00  6.65406725e-06  1.07213848e-06  6.65406725e-06  6.97533012e-01                                 
 7.65406725e-06  7.61787105e-01  7.65406725e-06  6.98786082e-01  7.65406725e-06  6.98705177e-01  7.65406725e-06  1.80000000e+00  7.65406725e-06  1.26023485e-06  7.65406725e-06  6.98786082e-01                                 
 8.65406725e-06  7.60565886e-01  8.65406725e-06  6.97720123e-01  8.65406725e-06  6.98064234e-01  8.65406725e-06  1.80000000e+00  8.65406725e-06  1.06100591e-06  8.65406725e-06  6.97720123e-01                                 
 9.65406725e-06  7.61577698e-01  9.65406725e-06  6.98602704e-01  9.65406725e-06  6.98524576e-01  9.65406725e-06  1.80000000e+00  9.65406725e-06  1.26952652e-06  9.65406725e-06  6.98602704e-01                                 
 1.00005000e-05  7.60979997e-01  1.00005000e-05  6.98083610e-01  1.00005000e-05  6.98414647e-01  1.00005000e-05  1.80000000e+00  1.00005000e-05  1.04991600e-06  1.00005000e-05  6.98083610e-01                                 
