 time            v(vbep)         time            v(vben)         time            v(vout)         time            v(vphi1)        time            v(vphi2)        time            v(vref)         yes             currtemp       
 0.00000000e+00  5.54751969e-01  0.00000000e+00  4.89334865e-01  0.00000000e+00  2.82406093e-01  0.00000000e+00  0.00000000e+00  0.00000000e+00  1.79997023e+00  0.00000000e+00  4.89334865e-01  1.00000000e+00  8.60000000e+01 
 5.00000000e-12  5.54734802e-01  5.00000000e-12  4.89320602e-01  5.00000000e-12  2.82935598e-01  5.00000000e-12  1.80000000e-02  5.00000000e-12  1.80007908e+00  5.00000000e-12  4.89320602e-01                                 
 1.00000000e-11  5.54717848e-01  1.00000000e-11  4.89306629e-01  1.00000000e-11  2.83368532e-01  1.00000000e-11  3.60000000e-02  1.00000000e-11  1.80013874e+00  1.00000000e-11  4.89306629e-01                                 
 2.00000000e-11  5.54684046e-01  2.00000000e-11  4.89278755e-01  2.00000000e-11  2.84087705e-01  2.00000000e-11  7.20000000e-02  2.00000000e-11  1.80019750e+00  2.00000000e-11  4.89278755e-01                                 
 4.00000000e-11  5.54616637e-01  4.00000000e-11  4.89223143e-01  4.00000000e-11  2.84936969e-01  4.00000000e-11  1.44000000e-01  4.00000000e-11  1.80016360e+00  4.00000000e-11  4.89223143e-01                                 
 8.00000000e-11  5.54482199e-01  8.00000000e-11  4.89112190e-01  8.00000000e-11  2.85650714e-01  8.00000000e-11  2.88000000e-01  8.00000000e-11  1.80008022e+00  8.00000000e-11  4.89112190e-01                                 
 1.60000000e-10  5.54214894e-01  1.60000000e-10  4.88891360e-01  1.60000000e-10  2.86252316e-01  1.60000000e-10  5.76000000e-01  1.60000000e-10  1.80003806e+00  1.60000000e-10  4.88891360e-01                                 
 3.20000000e-10  5.53686327e-01  3.20000000e-10  4.88453880e-01  3.20000000e-10  2.88768743e-01  3.20000000e-10  1.15200000e+00  3.20000000e-10  1.80034437e+00  3.20000000e-10  4.88453880e-01                                 
 5.00000000e-10  5.53101065e-01  5.00000000e-10  4.87968203e-01  5.00000000e-10  5.22211257e-01  5.00000000e-10  1.80000000e+00  5.00000000e-10  1.93924268e-01  5.00000000e-10  4.87968203e-01                                 
 5.22764652e-10  5.53027825e-01  5.22764652e-10  4.87907321e-01  5.22764652e-10  5.78792013e-01  5.22764652e-10  1.80000000e+00  5.22764652e-10  4.87124521e-02  5.22764652e-10  4.87907321e-01                                 
 5.68293956e-10  5.52881654e-01  5.68293956e-10  4.87785771e-01  5.68293956e-10  6.83541068e-01  5.68293956e-10  1.80000000e+00  5.68293956e-10 -1.75472446e-02  5.68293956e-10  4.87785771e-01                                 
 6.59352563e-10  5.52591168e-01  6.59352563e-10  4.87543972e-01  6.59352563e-10  8.51037931e-01  6.59352563e-10  1.80000000e+00  6.59352563e-10  1.53782047e-02  6.59352563e-10  4.87543972e-01                                 
 7.77153513e-10  5.52218961e-01  7.77153513e-10  4.87233675e-01  7.77153513e-10  1.01865139e+00  7.77153513e-10  1.80000000e+00  7.77153513e-10 -1.09365609e-02  7.77153513e-10  4.87233675e-01                                 
 9.65993174e-10  5.51630461e-01  9.65993174e-10  4.86741988e-01  9.65993174e-10  1.23352325e+00  9.65993174e-10  1.80000000e+00  9.65993174e-10  1.12077148e-02  9.65993174e-10  4.86741988e-01                                 
 1.30657826e-09  5.50593407e-01  1.30657826e-09  4.85872395e-01  1.30657826e-09  1.50984280e+00  1.30657826e-09  1.80000000e+00  1.30657826e-09 -9.28690161e-03  1.30657826e-09  4.85872395e-01                                 
 1.88060730e-09  5.48911969e-01  1.88060730e-09  4.84454122e-01  1.88060730e-09  1.73162991e+00  1.88060730e-09  1.80000000e+00  1.88060730e-09  9.56072465e-03  1.88060730e-09  4.84454122e-01                                 
 2.17089150e-09  5.48091848e-01  2.17089150e-09  4.83758576e-01  2.17089150e-09  1.76810101e+00  2.17089150e-09  1.80000000e+00  2.17089150e-09 -8.55588914e-03  2.17089150e-09  4.83758576e-01                                 
 2.51363297e-09  5.47147716e-01  2.51363297e-09  4.82954902e-01  2.51363297e-09  1.78751090e+00  2.51363297e-09  1.80000000e+00  2.51363297e-09  8.16099401e-03  2.51363297e-09  4.82954902e-01                                 
 2.89593106e-09  5.46123953e-01  2.89593106e-09  4.82079927e-01  2.89593106e-09  1.79538968e+00  2.89593106e-09  1.80000000e+00  2.89593106e-09 -7.57720231e-03  2.89593106e-09  4.82079927e-01                                 
 3.56789112e-09  5.44393960e-01  3.56789112e-09  4.80593321e-01  3.56789112e-09  1.79875765e+00  3.56789112e-09  1.80000000e+00  3.56789112e-09  7.39792441e-03  3.56789112e-09  4.80593321e-01                                 
 4.31343650e-09  5.42570126e-01  4.31343650e-09  4.79015309e-01  4.31343650e-09  1.79723022e+00  4.31343650e-09  1.80000000e+00  4.31343650e-09 -7.11111162e-03  4.31343650e-09  4.79015309e-01                                 
 5.72362249e-09  5.39357439e-01  5.72362249e-09  4.76210653e-01  5.72362249e-09  1.79411080e+00  5.72362249e-09  1.80000000e+00  5.72362249e-09  7.05979785e-03  5.72362249e-09  4.76210653e-01                                 
 7.83197805e-09  5.35037223e-01  7.83197805e-09  4.72391924e-01  7.83197805e-09  1.78882493e+00  7.83197805e-09  1.80000000e+00  7.83197805e-09 -6.91824193e-03  7.83197805e-09  4.72391924e-01                                 
 9.23503634e-09  5.32434204e-01  9.23503634e-09  4.70065522e-01  9.23503634e-09  1.78597639e+00  9.23503634e-09  1.80000000e+00  9.23503634e-09  6.86280501e-03  9.23503634e-09  4.70065522e-01                                 
 1.08151367e-08  5.29715642e-01  1.08151367e-08  4.67617531e-01  1.08151367e-08  1.78228832e+00  1.08151367e-08  1.80000000e+00  1.08151367e-08 -6.71158722e-03  1.08151367e-08  4.67617531e-01                                 
 1.24115428e-08  5.27168048e-01  1.24115428e-08  4.65307325e-01  1.24115428e-08  1.77923930e+00  1.24115428e-08  1.80000000e+00  1.24115428e-08  6.66347609e-03  1.24115428e-08  4.65307325e-01                                 
 1.39258779e-08  5.24913393e-01  1.39258779e-08  4.63250267e-01  1.39258779e-08  1.77590938e+00  1.39258779e-08  1.80000000e+00  1.39258779e-08 -6.51706326e-03  1.39258779e-08  4.63250267e-01                                 
 1.55262340e-08  5.22682123e-01  1.55262340e-08  4.61203411e-01  1.55262340e-08  1.77300331e+00  1.55262340e-08  1.80000000e+00  1.55262340e-08  6.46829272e-03  1.55262340e-08  4.61203411e-01                                 
 1.73771204e-08  5.20274167e-01  1.73771204e-08  4.58982306e-01  1.73771204e-08  1.76913839e+00  1.73771204e-08  1.80000000e+00  1.73771204e-08 -6.34490719e-03  1.73771204e-08  4.58982306e-01                                 
 1.99073979e-08  5.17245223e-01  1.99073979e-08  4.56170649e-01  1.99073979e-08  1.76458003e+00  1.99073979e-08  1.80000000e+00  1.99073979e-08  6.33050743e-03  1.99073979e-08  4.56170649e-01                                 
 2.30766088e-08  5.13821351e-01  2.30766088e-08  4.52968205e-01  2.30766088e-08  1.75849505e+00  2.30766088e-08  1.80000000e+00  2.30766088e-08 -6.24186227e-03  2.30766088e-08  4.52968205e-01                                 
 2.78554906e-08  5.09292007e-01  2.78554906e-08  4.48692235e-01  2.78554906e-08  1.75040012e+00  2.78554906e-08  1.80000000e+00  2.78554906e-08  6.25508795e-03  2.78554906e-08  4.48692235e-01                                 
 3.46711771e-08  5.03829971e-01  3.46711771e-08  4.43478132e-01  3.46711771e-08  1.73893894e+00  3.46711771e-08  1.80000000e+00  3.46711771e-08 -6.19055829e-03  3.46711771e-08  4.43478132e-01                                 
 4.83025502e-08  4.95103309e-01  4.83025502e-08  4.35049703e-01  4.83025502e-08  1.71809486e+00  4.83025502e-08  1.80000000e+00  4.83025502e-08  6.22425294e-03  4.83025502e-08  4.35049703e-01                                 
 7.55652965e-08  4.82437052e-01  7.55652965e-08  4.22675322e-01  7.55652965e-08  1.67922664e+00  7.55652965e-08  1.80000000e+00  7.55652965e-08 -6.17433606e-03  7.55652965e-08  4.22675322e-01                                 
 1.18205843e-07  4.67163695e-01  1.18205843e-07  4.07984445e-01  1.18205843e-07  1.62246354e+00  1.18205843e-07  1.80000000e+00  1.18205843e-07  6.21619911e-03  1.18205843e-07  4.07984445e-01                                 
 1.63133251e-07  4.51709398e-01  1.63133251e-07  3.93794000e-01  1.63133251e-07  1.56180072e+00  1.63133251e-07  1.80000000e+00  1.63133251e-07 -6.16785115e-03  1.63133251e-07  3.93794000e-01                                 
 2.28818624e-07  4.31641394e-01  2.28818624e-07  3.75817217e-01  2.28818624e-07  1.47481127e+00  2.28818624e-07  1.80000000e+00  2.28818624e-07  6.21110081e-03  2.28818624e-07  3.75817217e-01                                 
 3.00881245e-07  4.11117974e-01  3.00881245e-07  3.57946979e-01  3.00881245e-07  1.37882638e+00  3.00881245e-07  1.80000000e+00  3.00881245e-07 -6.16369124e-03  3.00881245e-07  3.57946979e-01                                 
 4.26433274e-07  3.70829711e-01  4.26433274e-07  3.24213699e-01  4.26433274e-07  1.20785063e+00  4.26433274e-07  1.80000000e+00  4.26433274e-07  6.20796624e-03  4.26433274e-07  3.24213699e-01                                 
 4.53329187e-07  3.60834518e-01  4.53329187e-07  3.16050862e-01  4.53329187e-07  1.17014779e+00  4.53329187e-07  1.80000000e+00  4.53329187e-07  1.06961472e-05  4.53329187e-07  3.16050862e-01                                 
 5.07121014e-07  3.40115877e-01  5.07121014e-07  2.99196780e-01  5.07121014e-07  1.09621328e+00  5.07121014e-07  1.80000000e+00  5.07121014e-07  8.09262856e-06  5.07121014e-07  2.99196780e-01                                 
 6.14704666e-07  5.89782634e-01  6.14704666e-07  5.21433947e-01  6.14704666e-07  1.22450620e+00  6.14704666e-07  1.80000000e+00  6.14704666e-07  2.15579056e-05  6.14704666e-07  5.21433947e-01                                 
 7.23601580e-07  7.01295623e-01  7.23601580e-07  6.27820908e-01  7.23601580e-07  1.21743267e+00  7.23601580e-07  1.80000000e+00  7.23601580e-07  3.63920088e-06  7.23601580e-07  6.27820908e-01                                 
 8.29475643e-07  7.19485661e-01  8.29475643e-07  6.42653879e-01  8.29475643e-07  1.12364114e+00  8.29475643e-07  1.80000000e+00  8.29475643e-07  1.73131627e-05  8.29475643e-07  6.42653879e-01                                 
 8.43819684e-07  7.16351084e-01  8.43819684e-07  6.40174873e-01  8.43819684e-07  1.10763709e+00  8.43819684e-07  1.80000000e+00  8.43819684e-07  9.66429938e-06  8.43819684e-07  6.40174873e-01                                 
 8.72507767e-07  7.00629589e-01  8.72507767e-07  6.27323563e-01  8.72507767e-07  1.06581532e+00  8.72507767e-07  1.80000000e+00  8.72507767e-07  8.01083048e-06  8.72507767e-07  6.27323563e-01                                 
 9.11629641e-07  6.76169510e-01  9.11629641e-07  6.05986943e-01  9.11629641e-07  1.00944815e+00  9.11629641e-07  1.80000000e+00  9.11629641e-07  9.37716756e-06  9.11629641e-07  6.05986943e-01                                 
 9.56689622e-07  6.86057146e-01  9.56689622e-07  6.14724737e-01  9.56689622e-07  9.84388129e-01  9.56689622e-07  1.80000000e+00  9.56689622e-07  1.22261322e-05  9.56689622e-07  6.14724737e-01                                 
 1.01139971e-06  7.07001424e-01  1.01139971e-06  6.32565538e-01  1.01139971e-06  9.64789316e-01  1.01139971e-06  1.80000000e+00  1.01139971e-06  1.02195777e-05  1.01139971e-06  6.32565538e-01                                 
 1.07923475e-06  6.96298249e-01  1.07923475e-06  6.23640400e-01  1.07923475e-06  9.10240794e-01  1.07923475e-06  1.80000000e+00  1.07923475e-06  9.73034929e-06  1.07923475e-06  6.23640400e-01                                 
 1.14154710e-06  6.88747398e-01  1.14154710e-06  6.17091974e-01  1.14154710e-06  8.64504549e-01  1.14154710e-06  1.80000000e+00  1.14154710e-06  1.04517561e-05  1.14154710e-06  6.17091974e-01                                 
 1.22114392e-06  6.99776940e-01  1.22114392e-06  6.26561942e-01  1.22114392e-06  8.26325701e-01  1.22114392e-06  1.80000000e+00  1.22114392e-06  1.09971252e-05  1.22114392e-06  6.26561942e-01                                 
 1.23613429e-06  7.00466649e-01  1.23613429e-06  6.27136729e-01  1.23613429e-06  8.18053068e-01  1.23613429e-06  1.80000000e+00  1.23613429e-06  1.05206490e-05  1.23613429e-06  6.27136729e-01                                 
 1.26611505e-06  6.99367846e-01  1.26611505e-06  6.26219464e-01  1.26611505e-06  7.99363793e-01  1.26611505e-06  1.80000000e+00  1.26611505e-06  1.01507413e-05  1.26611505e-06  6.26219464e-01                                 
 1.32607655e-06  6.93377970e-01  1.32607655e-06  6.21117905e-01  1.32607655e-06  7.59311352e-01  1.32607655e-06  1.80000000e+00  1.32607655e-06  1.02604075e-05  1.32607655e-06  6.21117905e-01                                 
 1.44599955e-06  6.96928445e-01  1.44599955e-06  6.24141024e-01  1.44599955e-06  6.97554356e-01  1.44599955e-06  1.80000000e+00  1.44599955e-06  1.08174982e-05  1.44599955e-06  6.24141024e-01                                 
 1.56229416e-06  6.97490378e-01  1.56229416e-06  6.24631164e-01  1.56229416e-06  6.51777424e-01  1.56229416e-06  1.80000000e+00  1.56229416e-06  1.03229810e-05  1.56229416e-06  6.24631164e-01                                 
 1.73524151e-06  6.94280966e-01  1.73524151e-06  6.21884017e-01  1.73524151e-06  6.16026298e-01  1.73524151e-06  1.80000000e+00  1.73524151e-06  1.09131471e-05  1.73524151e-06  6.21884017e-01                                 
 1.76523286e-06  6.95957543e-01  1.76523286e-06  6.23318507e-01  1.76523286e-06  6.15164856e-01  1.76523286e-06  1.80000000e+00  1.76523286e-06  1.08315627e-05  1.76523286e-06  6.23318507e-01                                 
 1.82521556e-06  6.97278058e-01  1.82521556e-06  6.24445320e-01  1.82521556e-06  6.16459161e-01  1.82521556e-06  1.80000000e+00  1.82521556e-06  1.07536891e-05  1.82521556e-06  6.24445320e-01                                 
 1.94518096e-06  6.95578438e-01  1.94518096e-06  6.22998852e-01  1.94518096e-06  6.23996243e-01  1.94518096e-06  1.80000000e+00  1.94518096e-06  1.07295646e-05  1.94518096e-06  6.22998852e-01                                 
 2.06801044e-06  6.96372465e-01  2.06801044e-06  6.23673286e-01  2.06801044e-06  6.24323351e-01  2.06801044e-06  1.80000000e+00  2.06801044e-06  1.07751017e-05  2.06801044e-06  6.23673286e-01                                 
 2.20551498e-06  6.96564249e-01  2.20551498e-06  6.23839417e-01  2.20551498e-06  6.23468869e-01  2.20551498e-06  1.80000000e+00  2.20551498e-06  1.07082480e-05  2.20551498e-06  6.23839417e-01                                 
 2.46100637e-06  6.95803902e-01  2.46100637e-06  6.23189239e-01  2.46100637e-06  6.23891067e-01  2.46100637e-06  1.80000000e+00  2.46100637e-06  1.07628768e-05  2.46100637e-06  6.23189239e-01                                 
 2.74076556e-06  6.96771928e-01  2.74076556e-06  6.24015423e-01  2.74076556e-06  6.23776724e-01  2.74076556e-06  1.80000000e+00  2.74076556e-06  1.07315073e-05  2.74076556e-06  6.24015423e-01                                 
 3.21518842e-06  6.95726895e-01  3.21518842e-06  6.23124133e-01  3.21518842e-06  6.23722389e-01  3.21518842e-06  1.80000000e+00  3.21518842e-06  1.07414963e-05  3.21518842e-06  6.23124133e-01                                 
 3.86500894e-06  6.96775852e-01  3.86500894e-06  6.24018376e-01  3.86500894e-06  6.23848171e-01  3.86500894e-06  1.80000000e+00  3.86500894e-06  1.07462203e-05  3.86500894e-06  6.24018376e-01                                 
 4.83742402e-06  6.95742035e-01  4.83742402e-06  6.23137339e-01  4.83742402e-06  6.23686540e-01  4.83742402e-06  1.80000000e+00  4.83742402e-06  1.07310922e-05  4.83742402e-06  6.23137339e-01                                 
 5.83742402e-06  6.96753597e-01  5.83742402e-06  6.23999251e-01  5.83742402e-06  6.23868642e-01  5.83742402e-06  1.80000000e+00  5.83742402e-06  1.07543226e-05  5.83742402e-06  6.23999251e-01                                 
 6.83742402e-06  6.95772165e-01  6.83742402e-06  6.23163229e-01  6.83742402e-06  6.23678764e-01  6.83742402e-06  1.80000000e+00  6.83742402e-06  1.07232891e-05  6.83742402e-06  6.23163229e-01                                 
 7.83742402e-06  6.96717030e-01  7.83742402e-06  6.23967956e-01  7.83742402e-06  6.23867882e-01  7.83742402e-06  1.80000000e+00  7.83742402e-06  1.07618713e-05  7.83742402e-06  6.23967956e-01                                 
 8.83742402e-06  6.95815888e-01  8.83742402e-06  6.23200706e-01  8.83742402e-06  6.23687249e-01  8.83742402e-06  1.80000000e+00  8.83742402e-06  1.07160576e-05  8.83742402e-06  6.23200706e-01                                 
 9.83742402e-06  6.96668327e-01  9.83742402e-06  6.23926353e-01  9.83742402e-06  6.23853811e-01  9.83742402e-06  1.80000000e+00  9.83742402e-06  1.07687306e-05  9.83742402e-06  6.23926353e-01                                 
 1.00005000e-05  6.96035860e-01  1.00005000e-05  6.23388714e-01  1.00005000e-05  6.23796148e-01  1.00005000e-05  1.80000000e+00  1.00005000e-05  1.06979346e-05  1.00005000e-05  6.23388714e-01                                 
 1.00005500e-05  6.96035248e-01  1.00005500e-05  6.23388197e-01  1.00005500e-05  6.17024161e-01  1.00005500e-05  1.62000000e+00  1.00005500e-05 -1.23143166e-04  1.00005500e-05  6.23388197e-01                                 
 1.00006500e-05  6.96034054e-01  1.00006500e-05  6.23387174e-01  1.00006500e-05  6.05356724e-01  1.00006500e-05  1.26000000e+00  1.00006500e-05 -1.00405133e-04  1.00006500e-05  6.23387174e-01                                 
 1.00008500e-05  6.96031701e-01  1.00008500e-05  6.23385152e-01  1.00008500e-05  5.96002528e-01  1.00008500e-05  5.40000000e-01  1.00008500e-05  3.33858576e-02  1.00008500e-05  6.23385152e-01                                 
 1.00010000e-05  6.96029904e-01  1.00010000e-05  6.23383623e-01  1.00010000e-05  5.56763161e-01  1.00010000e-05  0.00000000e+00  1.00010000e-05  1.55200252e+00  1.00010000e-05  6.23383623e-01                                 
 1.00010248e-05  6.96029597e-01  1.00010248e-05  6.23383363e-01  1.00010248e-05  5.38121535e-01  1.00010248e-05  0.00000000e+00  1.00010248e-05  1.70340133e+00  1.00010248e-05  6.23383363e-01                                 
 1.00010744e-05  6.96029011e-01  1.00010744e-05  6.23382857e-01  1.00010744e-05  5.09484605e-01  1.00010744e-05  0.00000000e+00  1.00010744e-05  1.81852511e+00  1.00010744e-05  6.23382857e-01                                 
 1.00011735e-05  6.96027887e-01  1.00011735e-05  6.23381880e-01  1.00011735e-05  4.93283362e-01  1.00011735e-05  0.00000000e+00  1.00011735e-05  1.78974845e+00  1.00011735e-05  6.23381880e-01                                 
 1.00013150e-05  6.96026242e-01  1.00013150e-05  6.23380482e-01  1.00013150e-05  4.97593536e-01  1.00013150e-05  0.00000000e+00  1.00013150e-05  1.80683368e+00  1.00013150e-05  6.23380482e-01                                 
 1.00014688e-05  6.96024427e-01  1.00014688e-05  6.23378934e-01  1.00014688e-05  4.97236766e-01  1.00014688e-05  0.00000000e+00  1.00014688e-05  1.79544449e+00  1.00014688e-05  6.23378934e-01                                 
 1.00017510e-05  6.96021085e-01  1.00017510e-05  6.23376081e-01  1.00017510e-05  4.98212712e-01  1.00017510e-05  0.00000000e+00  1.00017510e-05  1.80370103e+00  1.00017510e-05  6.23376081e-01                                 
 1.00023153e-05  6.96014492e-01  1.00023153e-05  6.23370449e-01  1.00023153e-05  4.97908340e-01  1.00023153e-05  0.00000000e+00  1.00023153e-05  1.79666424e+00  1.00023153e-05  6.23370449e-01                                 
 1.00030700e-05  6.96006050e-01  1.00030700e-05  6.23363226e-01  1.00030700e-05  4.98255519e-01  1.00030700e-05  0.00000000e+00  1.00030700e-05  1.80306919e+00  1.00030700e-05  6.23363226e-01                                 
