 time            v(vbep)         time            v(vben)         time            v(vout)         time            v(vphi1)        time            v(vphi2)        time            v(vref)         yes             currtemp       
 0.00000000e+00  7.15759313e-01  0.00000000e+00  6.65590974e-01  0.00000000e+00  8.91296944e-02  0.00000000e+00  0.00000000e+00  0.00000000e+00  1.79998092e+00  0.00000000e+00  5.00000000e-01  1.00000000e+00  1.00000000e+00 
 5.00000000e-12  7.15746846e-01  5.00000000e-12  6.65580577e-01  5.00000000e-12  8.95996877e-02  5.00000000e-12  1.80000000e-02  5.00000000e-12  1.80005922e+00  5.00000000e-12  5.00000000e-01                                 
 1.00000000e-11  7.15734516e-01  1.00000000e-11  6.65570375e-01  1.00000000e-11  9.00201496e-02  1.00000000e-11  3.60000000e-02  1.00000000e-11  1.80009665e+00  1.00000000e-11  5.00000000e-01                                 
 2.00000000e-11  7.15709922e-01  2.00000000e-11  6.65550019e-01  2.00000000e-11  9.07897578e-02  2.00000000e-11  7.20000000e-02  2.00000000e-11  1.80012937e+00  2.00000000e-11  5.00000000e-01                                 
 4.00000000e-11  7.15660855e-01  4.00000000e-11  6.65509395e-01  4.00000000e-11  9.19979315e-02  4.00000000e-11  1.44000000e-01  4.00000000e-11  1.80010674e+00  4.00000000e-11  5.00000000e-01                                 
 8.00000000e-11  7.15562959e-01  8.00000000e-11  6.65428314e-01  8.00000000e-11  9.36368392e-02  8.00000000e-11  2.88000000e-01  8.00000000e-11  1.80006353e+00  8.00000000e-11  5.00000000e-01                                 
 1.60000000e-10  7.15368177e-01  1.60000000e-10  6.65266836e-01  1.60000000e-10  9.56921230e-02  1.60000000e-10  5.76000000e-01  1.60000000e-10  1.80002492e+00  1.60000000e-10  5.00000000e-01                                 
 3.20000000e-10  7.14982606e-01  3.20000000e-10  6.64946630e-01  3.20000000e-10  1.30570884e-01  3.20000000e-10  1.15200000e+00  3.20000000e-10  1.79995432e+00  3.20000000e-10  5.00000000e-01                                 
 5.00000000e-10  7.14555238e-01  5.00000000e-10  6.64590825e-01  5.00000000e-10  4.98284396e-01  5.00000000e-10  1.80000000e+00  5.00000000e-10  1.01636147e-01  5.00000000e-10  5.00000000e-01                                 
 5.21185051e-10  7.14505431e-01  5.21185051e-10  6.64549291e-01  5.21185051e-10  5.66722913e-01  5.21185051e-10  1.80000000e+00  5.21185051e-10  1.81818455e-02  5.21185051e-10  5.00000000e-01                                 
 5.63555152e-10  7.14405997e-01  5.63555152e-10  6.64466350e-01  5.63555152e-10  6.89014744e-01  5.63555152e-10  1.80000000e+00  5.63555152e-10 -8.70457635e-03  5.63555152e-10  5.00000000e-01                                 
 6.48295354e-10  7.14208228e-01  6.48295354e-10  6.64301234e-01  6.48295354e-10  8.73544192e-01  6.48295354e-10  1.80000000e+00  6.48295354e-10  7.52253598e-03  6.48295354e-10  5.00000000e-01                                 
 7.71804679e-10  7.13922567e-01  7.71804679e-10  6.64062391e-01  7.71804679e-10  1.07599242e+00  7.71804679e-10  1.80000000e+00  7.71804679e-10 -6.62211598e-03  7.71804679e-10  5.00000000e-01                                 
 9.61693698e-10  7.13489233e-01  9.61693698e-10  6.63699302e-01  9.61693698e-10  1.32696276e+00  9.61693698e-10  1.80000000e+00  9.61693698e-10  6.28501961e-03  9.61693698e-10  5.00000000e-01                                 
 1.32880928e-09  7.12670798e-01  1.32880928e-09  6.63011033e-01  1.32880928e-09  1.66341765e+00  1.32880928e-09  1.80000000e+00  1.32880928e-09 -5.97369598e-03  1.32880928e-09  5.00000000e-01                                 
 1.98279139e-09  7.11271850e-01  1.98279139e-09  6.61827165e-01  1.98279139e-09  1.88605978e+00  1.98279139e-09  1.80000000e+00  1.98279139e-09  5.93636784e-03  1.98279139e-09  5.00000000e-01                                 
 2.23477050e-09  7.10752075e-01  2.23477050e-09  6.61384881e-01  2.23477050e-09  1.90303696e+00  2.23477050e-09  1.80000000e+00  2.23477050e-09 -5.57292016e-03  2.23477050e-09  5.00000000e-01                                 
 2.54671396e-09  7.10122327e-01  2.54671396e-09  6.60847338e-01  2.54671396e-09  1.91026143e+00  2.54671396e-09  1.80000000e+00  2.54671396e-09  5.40155592e-03  2.54671396e-09  5.00000000e-01                                 
 2.89513065e-09  7.09436106e-01  2.89513065e-09  6.60259525e-01  2.89513065e-09  1.91484939e+00  2.89513065e-09  1.80000000e+00  2.89513065e-09 -5.16288928e-03  2.89513065e-09  5.00000000e-01                                 
 3.59196405e-09  7.08114133e-01  3.59196405e-09  6.59121273e-01  3.59196405e-09  1.91911284e+00  3.59196405e-09  1.80000000e+00  3.59196405e-09  5.10982819e-03  3.59196405e-09  5.00000000e-01                                 
 4.71480638e-09  7.06112158e-01  4.71480638e-09  6.57383318e-01  4.71480638e-09  1.91609333e+00  4.71480638e-09  1.80000000e+00  4.71480638e-09 -5.02065169e-03  4.71480638e-09  5.00000000e-01                                 
 6.96049105e-09  7.02502638e-01  6.96049105e-09  6.54210001e-01  6.96049105e-09  1.90318280e+00  6.96049105e-09  1.80000000e+00  6.96049105e-09  5.02792543e-03  6.96049105e-09  5.00000000e-01                                 
 9.24807578e-09  6.99268645e-01  9.24807578e-09  6.51324776e-01  9.24807578e-09  1.89218326e+00  9.24807578e-09  1.80000000e+00  9.24807578e-09 -4.96363987e-03  9.24807578e-09  5.00000000e-01                                 
 1.05839472e-08  6.97548904e-01  1.05839472e-08  6.49775334e-01  1.05839472e-08  1.88708822e+00  1.05839472e-08  1.80000000e+00  1.05839472e-08  4.94627175e-03  1.05839472e-08  5.00000000e-01                                 
 1.27773877e-08  6.94946617e-01  1.27773877e-08  6.47412812e-01  1.27773877e-08  1.87990156e+00  1.27773877e-08  1.80000000e+00  1.27773877e-08 -4.89202013e-03  1.27773877e-08  5.00000000e-01                                 
 1.49126099e-08  6.92646309e-01  1.49126099e-08  6.45306359e-01  1.49126099e-08  1.87385162e+00  1.49126099e-08  1.80000000e+00  1.49126099e-08  4.88609953e-03  1.49126099e-08  5.00000000e-01                                 
 1.88423272e-08  6.88902795e-01  1.88423272e-08  6.41843419e-01  1.88423272e-08  1.86432709e+00  1.88423272e-08  1.80000000e+00  1.88423272e-08 -4.84856139e-03  1.88423272e-08  5.00000000e-01                                 
 2.30473545e-08  6.85475043e-01  2.30473545e-08  6.38632689e-01  2.30473545e-08  1.85564090e+00  2.30473545e-08  1.80000000e+00  2.30473545e-08  4.85523102e-03  2.30473545e-08  5.00000000e-01                                 
 3.12884760e-08  6.79939583e-01  3.12884760e-08  6.33376380e-01  3.12884760e-08  1.84123649e+00  3.12884760e-08  1.80000000e+00  3.12884760e-08 -4.82656301e-03  3.12884760e-08  5.00000000e-01                                 
 4.31610250e-08  6.73696353e-01  4.31610250e-08  6.27364639e-01  4.31610250e-08  1.82345127e+00  4.31610250e-08  1.80000000e+00  4.31610250e-08  4.84269411e-03  4.31610250e-08  5.00000000e-01                                 
 6.69061228e-08  6.64403205e-01  6.69061228e-08  6.18319105e-01  6.69061228e-08  1.79200647e+00  6.69061228e-08  1.80000000e+00  6.69061228e-08 -4.81892062e-03  6.69061228e-08  5.00000000e-01                                 
 1.14396318e-07  6.51237805e-01  1.14396318e-07  6.05521945e-01  1.14396318e-07  1.73613564e+00  1.14396318e-07  1.80000000e+00  1.14396318e-07  4.83894788e-03  1.14396318e-07  5.00000000e-01                                 
 1.77767610e-07  6.36436230e-01  1.77767610e-07  5.91702930e-01  1.77767610e-07  1.66329661e+00  1.77767610e-07  1.80000000e+00  1.77767610e-07 -4.81664783e-03  1.77767610e-07  5.00000000e-01                                 
 2.39653616e-07  6.24219425e-01  2.39653616e-07  5.80581441e-01  2.39653616e-07  1.59246673e+00  2.39653616e-07  1.80000000e+00  2.39653616e-07  4.83704398e-03  2.39653616e-07  5.00000000e-01                                 
 3.43651426e-07  6.06801934e-01  3.43651426e-07  5.65057141e-01  3.43651426e-07  1.47367759e+00  3.43651426e-07  1.80000000e+00  3.43651426e-07 -4.81507084e-03  3.43651426e-07  5.00000000e-01                                 
 5.24666225e-07  5.77880314e-01  5.24666225e-07  5.40305460e-01  5.24666225e-07  1.26436564e+00  5.24666225e-07  1.80000000e+00  5.24666225e-07  4.83614129e-03  5.24666225e-07  5.00000000e-01                                 
 8.20600288e-07  5.29381071e-01  8.20600288e-07  5.00423666e-01  8.20600288e-07  9.27661753e-01  8.20600288e-07  1.80000000e+00  8.20600288e-07 -4.81453695e-03  8.20600288e-07  5.00000000e-01                                 
 8.79630750e-07  5.20373865e-01  8.79630750e-07  4.93153508e-01  8.79630750e-07  8.78168965e-01  8.79630750e-07  1.80000000e+00  8.79630750e-07 -2.33323320e-07  8.79630750e-07  5.00000000e-01                                 
 9.70059235e-07  5.13702784e-01  9.70059235e-07  4.87735600e-01  9.70059235e-07  8.12059373e-01  9.70059235e-07  1.80000000e+00  9.70059235e-07  3.06476685e-07  9.70059235e-07  5.00000000e-01                                 
 9.80329901e-07  5.14389126e-01  9.80329901e-07  4.88278065e-01  9.80329901e-07  8.06718535e-01  9.80329901e-07  1.80000000e+00  9.80329901e-07  8.90384180e-08  9.80329901e-07  5.00000000e-01                                 
 1.00087123e-06  5.17049081e-01  1.00087123e-06  4.90393651e-01  1.00087123e-06  7.97404608e-01  1.00087123e-06  1.80000000e+00  1.00087123e-06  1.35972065e-07  1.00087123e-06  5.00000000e-01                                 
 1.03723318e-06  5.32105903e-01  1.03723318e-06  5.02419036e-01  1.03723318e-06  7.90773141e-01  1.03723318e-06  1.80000000e+00  1.03723318e-06  3.02806060e-07  1.03723318e-06  5.00000000e-01                                 
 1.07209107e-06  5.72650048e-01  1.07209107e-06  5.34802096e-01  1.07209107e-06  8.07356496e-01  1.07209107e-06  1.80000000e+00  1.07209107e-06  7.15765368e-07  1.07209107e-06  5.00000000e-01                                 
 1.12092821e-06  7.38794585e-01  1.12092821e-06  6.84450365e-01  1.12092821e-06  9.15879478e-01  1.12092821e-06  1.80000000e+00  1.12092821e-06  2.50072174e-06  1.12092821e-06  5.00000000e-01                                 
 1.15998934e-06  7.94705144e-01  1.15998934e-06  7.42831465e-01  1.15998934e-06  9.31618585e-01  1.15998934e-06  1.80000000e+00  1.15998934e-06 -5.19232927e-07  1.15998934e-06  5.00000000e-01                                 
 1.20274104e-06  8.22495231e-01  1.20274104e-06  7.68732804e-01  1.20274104e-06  9.18782295e-01  1.20274104e-06  1.80000000e+00  1.20274104e-06  1.33427558e-06  1.20274104e-06  5.00000000e-01                                 
 1.25530567e-06  8.51364548e-01  1.25530567e-06  7.93216692e-01  1.25530567e-06  9.03073557e-01  1.25530567e-06  1.80000000e+00  1.25530567e-06 -4.49781600e-07  1.25530567e-06  5.00000000e-01                                 
 1.26240388e-06  8.56112764e-01  1.26240388e-06  7.96936657e-01  1.26240388e-06  9.00565916e-01  1.26240388e-06  1.80000000e+00  1.26240388e-06  3.32625844e-07  1.26240388e-06  5.00000000e-01                                 
 1.27660030e-06  8.67495292e-01  1.27660030e-06  8.05502093e-01  1.27660030e-06  8.98579083e-01  1.27660030e-06  1.80000000e+00  1.27660030e-06  6.50363627e-07  1.27660030e-06  5.00000000e-01                                 
 1.29577356e-06  8.79316624e-01  1.29577356e-06  8.13988939e-01  1.29577356e-06  8.93658528e-01  1.29577356e-06  1.80000000e+00  1.29577356e-06  2.53437868e-07  1.29577356e-06  5.00000000e-01                                 
 1.31434404e-06  8.67218923e-01  1.31434404e-06  8.05588541e-01  1.31434404e-06  8.71287425e-01  1.31434404e-06  1.80000000e+00  1.31434404e-06 -6.93445231e-07  1.31434404e-06  5.00000000e-01                                 
 1.33284114e-06  8.49414633e-01  1.33284114e-06  7.91652543e-01  1.33284114e-06  8.43772912e-01  1.33284114e-06  1.80000000e+00  1.33284114e-06 -3.35403547e-07  1.33284114e-06  5.00000000e-01                                 
 1.35041680e-06  8.38917334e-01  1.35041680e-06  7.83202278e-01  1.35041680e-06  8.23683723e-01  1.35041680e-06  1.80000000e+00  1.35041680e-06 -2.95900355e-07  1.35041680e-06  5.00000000e-01                                 
 1.35347066e-06  8.35315833e-01  1.35347066e-06  7.80094642e-01  1.35347066e-06  8.18891736e-01  1.35347066e-06  1.80000000e+00  1.35347066e-06 -5.54142362e-07  1.35347066e-06  5.00000000e-01                                 
 1.35957836e-06  8.29224226e-01  1.35957836e-06  7.74777209e-01  1.35957836e-06  8.09906550e-01  1.35957836e-06  1.80000000e+00  1.35957836e-06 -4.92999381e-07  1.35957836e-06  5.00000000e-01                                 
 1.37179377e-06  8.21658120e-01  1.37179377e-06  7.68052756e-01  1.37179377e-06  7.96254186e-01  1.37179377e-06  1.80000000e+00  1.37179377e-06 -1.98982546e-07  1.37179377e-06  5.00000000e-01                                 
 1.39622460e-06  8.16088477e-01  1.39622460e-06  7.62960775e-01  1.39622460e-06  7.78201042e-01  1.39622460e-06  1.80000000e+00  1.39622460e-06  1.67977646e-08  1.39622460e-06  5.00000000e-01                                 
 1.42265710e-06  8.19027080e-01  1.42265710e-06  7.65637275e-01  1.42265710e-06  7.67017671e-01  1.42265710e-06  1.80000000e+00  1.42265710e-06  2.31098530e-07  1.42265710e-06  5.00000000e-01                                 
 1.47552210e-06  8.26532268e-01  1.47552210e-06  7.72358383e-01  1.47552210e-06  7.47238820e-01  1.47552210e-06  1.80000000e+00  1.47552210e-06  7.88790094e-08  1.47552210e-06  5.00000000e-01                                 
 1.53676648e-06  8.23420637e-01  1.53676648e-06  7.69616537e-01  1.53676648e-06  7.15387310e-01  1.53676648e-06  1.80000000e+00  1.53676648e-06 -3.76693008e-09  1.53676648e-06  5.00000000e-01                                 
 1.63856608e-06  8.20476092e-01  1.63856608e-06  7.66942355e-01  1.63856608e-06  6.67465621e-01  1.63856608e-06  1.80000000e+00  1.63856608e-06  9.37955635e-08  1.63856608e-06  5.00000000e-01                                 
 1.74794154e-06  8.25678097e-01  1.74794154e-06  7.71617767e-01  1.74794154e-06  6.26122640e-01  1.74794154e-06  1.80000000e+00  1.74794154e-06  9.54647207e-08  1.74794154e-06  5.00000000e-01                                 
 1.93205012e-06  8.20544854e-01  1.93205012e-06  7.67013815e-01  1.93205012e-06  5.52283987e-01  1.93205012e-06  1.80000000e+00  1.93205012e-06  1.11271844e-09  1.93205012e-06  5.00000000e-01                                 
 2.12018041e-06  8.24456141e-01  2.12018041e-06  7.70525983e-01  2.12018041e-06  5.14636268e-01  2.12018041e-06  1.80000000e+00  2.12018041e-06  1.55696995e-07  2.12018041e-06  5.00000000e-01                                 
 2.38003816e-06  8.21874678e-01  2.38003816e-06  7.68215195e-01  2.38003816e-06  4.96897082e-01  2.38003816e-06  1.80000000e+00  2.38003816e-06 -3.63516309e-08  2.38003816e-06  5.00000000e-01                                 
 2.65680644e-06  8.23313824e-01  2.65680644e-06  7.69504525e-01  2.65680644e-06  4.98585000e-01  2.65680644e-06  1.80000000e+00  2.65680644e-06  1.70563743e-07  2.65680644e-06  5.00000000e-01                                 
 2.93909871e-06  8.22955383e-01  2.93909871e-06  7.69185396e-01  2.93909871e-06  5.01712109e-01  2.93909871e-06  1.80000000e+00  2.93909871e-06 -4.15867747e-08  2.93909871e-06  5.00000000e-01                                 
 3.27613179e-06  8.22454443e-01  3.27613179e-06  7.68734780e-01  3.27613179e-06  4.99680433e-01  3.27613179e-06  1.80000000e+00  3.27613179e-06  1.67237078e-07  3.27613179e-06  5.00000000e-01                                 
 3.34945325e-06  8.23199327e-01  3.34945325e-06  7.69402261e-01  3.34945325e-06  4.99829774e-01  3.34945325e-06  1.80000000e+00  3.34945325e-06  7.22753013e-08  3.34945325e-06  5.00000000e-01                                 
 3.49609618e-06  8.22775401e-01  3.49609618e-06  7.69024191e-01  3.49609618e-06  4.99486733e-01  3.49609618e-06  1.80000000e+00  3.49609618e-06  5.38919895e-08  3.49609618e-06  5.00000000e-01                                 
 3.78938204e-06  8.22900759e-01  3.78938204e-06  7.69134608e-01  3.78938204e-06  5.00622137e-01  3.78938204e-06  1.80000000e+00  3.78938204e-06  7.53429568e-08  3.78938204e-06  5.00000000e-01                                 
 4.31527922e-06  8.22923751e-01  4.31527922e-06  7.69157116e-01  4.31527922e-06  4.99856283e-01  4.31527922e-06  1.80000000e+00  4.31527922e-06  5.38554833e-08  4.31527922e-06  5.00000000e-01                                 
 5.11637294e-06  8.22820478e-01  5.11637294e-06  7.69062718e-01  5.11637294e-06  5.00251900e-01  5.11637294e-06  1.80000000e+00  5.11637294e-06  7.49473276e-08  5.11637294e-06  5.00000000e-01                                 
 6.11637294e-06  8.22977173e-01  6.11637294e-06  7.69204918e-01  6.11637294e-06  5.00117816e-01  6.11637294e-06  1.80000000e+00  6.11637294e-06  5.43140509e-08  6.11637294e-06  5.00000000e-01                                 
 7.11637294e-06  8.22776223e-01  7.11637294e-06  7.69023111e-01  7.11637294e-06  5.00046196e-01  7.11637294e-06  1.80000000e+00  7.11637294e-06  7.44218249e-08  7.11637294e-06  5.00000000e-01                                 
 8.11637294e-06  8.23018551e-01  8.11637294e-06  7.69241912e-01  8.11637294e-06  5.00290074e-01  8.11637294e-06  1.80000000e+00  8.11637294e-06  5.49399403e-08  8.11637294e-06  5.00000000e-01                                 
 9.11637294e-06  8.22738026e-01  9.11637294e-06  7.68988947e-01  9.11637294e-06  4.99910103e-01  9.11637294e-06  1.80000000e+00  9.11637294e-06  7.37004318e-08  9.11637294e-06  5.00000000e-01                                 
 1.00005000e-05  8.23055624e-01  1.00005000e-05  7.69275024e-01  1.00005000e-05  5.00393421e-01  1.00005000e-05  1.80000000e+00  1.00005000e-05  5.58096216e-08  1.00005000e-05  5.00000000e-01                                 
 1.00005500e-05  8.23054911e-01  1.00005500e-05  7.69274393e-01  1.00005500e-05  4.92358295e-01  1.00005500e-05  1.62000000e+00  1.00005500e-05 -6.96408374e-05  1.00005500e-05  5.00000000e-01                                 
 1.00006500e-05  8.23053507e-01  1.00006500e-05  7.69273139e-01  1.00006500e-05  4.78703628e-01  1.00006500e-05  1.26000000e+00  1.00006500e-05 -4.89791926e-05  1.00006500e-05  5.00000000e-01                                 
 1.00008500e-05  8.23050728e-01  1.00008500e-05  7.69270649e-01  1.00008500e-05  4.78140141e-01  1.00008500e-05  5.40000000e-01  1.00008500e-05 -7.95332062e-04  1.00008500e-05  5.00000000e-01                                 
 1.00010000e-05  8.23048513e-01  1.00010000e-05  7.69268702e-01  1.00010000e-05  4.41649828e-01  1.00010000e-05  0.00000000e+00  1.00010000e-05  1.55215357e+00  1.00010000e-05  5.00000000e-01                                 
 1.00010152e-05  8.23048228e-01  1.00010152e-05  7.69268471e-01  1.00010152e-05  4.22082757e-01  1.00010152e-05  0.00000000e+00  1.00010152e-05  1.68259274e+00  1.00010152e-05  5.00000000e-01                                 
 1.00010457e-05  8.23047677e-01  1.00010457e-05  7.69268012e-01  1.00010457e-05  3.76179572e-01  1.00010457e-05  0.00000000e+00  1.00010457e-05  1.80318735e+00  1.00010457e-05  5.00000000e-01                                 
 1.00011067e-05  8.23046790e-01  1.00011067e-05  7.69267174e-01  1.00011067e-05  2.96484433e-01  1.00011067e-05  0.00000000e+00  1.00011067e-05  1.79567132e+00  1.00011067e-05  5.00000000e-01                                 
 1.00011831e-05  8.23045872e-01  1.00011831e-05  7.69266276e-01  1.00011831e-05  2.54496875e-01  1.00011831e-05  0.00000000e+00  1.00011831e-05  1.79926286e+00  1.00011831e-05  5.00000000e-01                                 
 1.00012950e-05  8.23044495e-01  1.00012950e-05  7.69265036e-01  1.00012950e-05  2.42365463e-01  1.00012950e-05  0.00000000e+00  1.00012950e-05  1.79979964e+00  1.00012950e-05  5.00000000e-01                                 
