 time            v(vbep)         time            v(vben)         time            v(vout)         time            v(vphi1)        time            v(vphi2)        time            v(vref)         yes             currtemp       
 0.00000000e+00  6.70699980e-01  0.00000000e+00  6.13806091e-01  0.00000000e+00  1.15059955e+00  0.00000000e+00  0.00000000e+00  0.00000000e+00  1.79995031e+00  0.00000000e+00  5.00000000e-01  1.00000000e+00  3.80000000e+01 
 5.00000000e-12  6.70668002e-01  5.00000000e-12  6.13779658e-01  5.00000000e-12  1.15135777e+00  5.00000000e-12  1.80000000e-02  5.00000000e-12  1.80005486e+00  5.00000000e-12  5.00000000e-01                                 
 1.00000000e-11  6.70636978e-01  1.00000000e-11  6.13753959e-01  1.00000000e-11  1.15204788e+00  1.00000000e-11  3.60000000e-02  1.00000000e-11  1.80011001e+00  1.00000000e-11  5.00000000e-01                                 
 2.00000000e-11  6.70575528e-01  2.00000000e-11  6.13702774e-01  2.00000000e-11  1.15332486e+00  2.00000000e-11  7.20000000e-02  2.00000000e-11  1.80016346e+00  2.00000000e-11  5.00000000e-01                                 
 4.00000000e-11  6.70453650e-01  4.00000000e-11  6.13600837e-01  4.00000000e-11  1.15539725e+00  4.00000000e-11  1.44000000e-01  4.00000000e-11  1.80014096e+00  4.00000000e-11  5.00000000e-01                                 
 8.00000000e-11  6.70211173e-01  8.00000000e-11  6.13397950e-01  8.00000000e-11  1.15829151e+00  8.00000000e-11  2.88000000e-01  8.00000000e-11  1.80007964e+00  8.00000000e-11  5.00000000e-01                                 
 1.60000000e-10  6.69731785e-01  1.60000000e-10  6.12996101e-01  1.60000000e-10  1.16124009e+00  1.60000000e-10  5.76000000e-01  1.60000000e-10  1.80001679e+00  1.60000000e-10  5.00000000e-01                                 
 3.20000000e-10  6.68793861e-01  3.20000000e-10  6.12207511e-01  3.20000000e-10  1.15490448e+00  3.20000000e-10  1.15200000e+00  3.20000000e-10  1.80039243e+00  3.20000000e-10  5.00000000e-01                                 
 5.00000000e-10  6.67770760e-01  5.00000000e-10  6.11343546e-01  5.00000000e-10  1.30669404e+00  5.00000000e-10  1.80000000e+00  5.00000000e-10  1.16993093e-01  5.00000000e-10  5.00000000e-01                                 
 5.21501079e-10  6.67650986e-01  5.21501079e-10  6.11242128e-01  5.21501079e-10  1.34234745e+00  5.21501079e-10  1.80000000e+00  5.21501079e-10  2.30408973e-02  5.21501079e-10  5.00000000e-01                                 
 5.64503238e-10  6.67412315e-01  5.64503238e-10  6.11039916e-01  5.64503238e-10  1.40749668e+00  5.64503238e-10  1.80000000e+00  5.64503238e-10 -1.07458848e-02  5.64503238e-10  5.00000000e-01                                 
 6.50507555e-10  6.66940291e-01  6.50507555e-10  6.10639394e-01  6.50507555e-10  1.51396161e+00  6.50507555e-10  1.80000000e+00  6.50507555e-10  8.96547187e-03  6.50507555e-10  5.00000000e-01                                 
 7.72613466e-10  6.66282011e-01  7.72613466e-10  6.10079482e-01  7.72613466e-10  1.63377025e+00  7.72613466e-10  1.80000000e+00  7.72613466e-10 -7.79023503e-03  7.72613466e-10  5.00000000e-01                                 
 9.64331049e-10  6.65275342e-01  9.64331049e-10  6.09220250e-01  9.64331049e-10  1.77026278e+00  9.64331049e-10  1.80000000e+00  9.64331049e-10  7.31598981e-03  9.64331049e-10  5.00000000e-01                                 
 1.34776622e-09  6.63353152e-01  1.34776622e-09  6.07569801e-01  1.34776622e-09  1.91933000e+00  1.34776622e-09  1.80000000e+00  1.34776622e-09 -6.91768660e-03  1.34776622e-09  5.00000000e-01                                 
 1.64313126e-09  6.61949825e-01  1.64313126e-09  6.06356607e-01  1.64313126e-09  1.96378058e+00  1.64313126e-09  1.80000000e+00  1.64313126e-09  6.67020355e-03  1.64313126e-09  5.00000000e-01                                 
 1.98682841e-09  6.60393009e-01  1.98682841e-09  6.05002866e-01  1.98682841e-09  1.98407831e+00  1.98682841e-09  1.80000000e+00  1.98682841e-09 -6.31394554e-03  1.98682841e-09  5.00000000e-01                                 
 2.33128736e-09  6.58908006e-01  2.33128736e-09  6.03703994e-01  2.33128736e-09  1.99050608e+00  2.33128736e-09  1.80000000e+00  2.33128736e-09  6.10864094e-03  2.33128736e-09  5.00000000e-01                                 
 2.90854902e-09  6.56568949e-01  2.90854902e-09  6.01643806e-01  2.90854902e-09  1.99197520e+00  2.90854902e-09  1.80000000e+00  2.90854902e-09 -5.90246252e-03  2.90854902e-09  5.00000000e-01                                 
 3.61809492e-09  6.53919902e-01  3.61809492e-09  5.99289853e-01  3.61809492e-09  1.98991564e+00  3.61809492e-09  1.80000000e+00  3.61809492e-09  5.82586231e-03  3.61809492e-09  5.00000000e-01                                 
 4.95902947e-09  6.49462482e-01  4.95902947e-09  5.95283300e-01  4.95902947e-09  1.98565278e+00  4.95902947e-09  1.80000000e+00  4.95902947e-09 -5.72315997e-03  4.95902947e-09  5.00000000e-01                                 
 7.08247725e-09  6.43523021e-01  7.08247725e-09  5.89860946e-01  7.08247725e-09  1.98016813e+00  7.08247725e-09  1.80000000e+00  7.08247725e-09  5.72704574e-03  7.08247725e-09  5.00000000e-01                                 
 9.57648672e-09  6.37806930e-01  9.57648672e-09  5.84557840e-01  9.57648672e-09  1.97483885e+00  9.57648672e-09  1.80000000e+00  9.57648672e-09 -5.65095061e-03  9.57648672e-09  5.00000000e-01                                 
 1.12798296e-08  6.34478088e-01  1.12798296e-08  5.81433752e-01  1.12798296e-08  1.97183551e+00  1.12798296e-08  1.80000000e+00  1.12798296e-08  5.63543770e-03  1.12798296e-08  5.00000000e-01                                 
 1.32231057e-08  6.31097808e-01  1.32231057e-08  5.78238429e-01  1.32231057e-08  1.96874103e+00  1.32231057e-08  1.80000000e+00  1.32231057e-08 -5.56223617e-03  1.32231057e-08  5.00000000e-01                                 
 1.50327583e-08  6.28274763e-01  1.50327583e-08  5.75553192e-01  1.50327583e-08  1.96621788e+00  1.50327583e-08  1.80000000e+00  1.50327583e-08  5.54472080e-03  1.50327583e-08  5.00000000e-01                                 
 1.82996808e-08  6.23783800e-01  1.82996808e-08  5.71254144e-01  1.82996808e-08  1.96204829e+00  1.82996808e-08  1.80000000e+00  1.82996808e-08 -5.49255547e-03  1.82996808e-08  5.00000000e-01                                 
 2.18725812e-08  6.19573018e-01  2.18725812e-08  5.67194348e-01  2.18725812e-08  1.95804536e+00  2.18725812e-08  1.80000000e+00  2.18725812e-08  5.49632178e-03  2.18725812e-08  5.00000000e-01                                 
 2.83712452e-08  6.13193802e-01  2.83712452e-08  5.61000705e-01  2.83712452e-08  1.95060663e+00  2.83712452e-08  1.80000000e+00  2.83712452e-08 -5.45717947e-03  2.83712452e-08  5.00000000e-01                                 
 3.67757478e-08  6.06574988e-01  3.67757478e-08  5.54535614e-01  3.67757478e-08  1.93954887e+00  3.67757478e-08  1.80000000e+00  3.67757478e-08  5.47432864e-03  3.67757478e-08  5.00000000e-01                                 
 5.35847530e-08  5.95638044e-01  5.35847530e-08  5.43962242e-01  5.35847530e-08  1.92016437e+00  5.35847530e-08  1.80000000e+00  5.35847530e-08 -5.44275493e-03  5.35847530e-08  5.00000000e-01                                 
 6.92323105e-08  5.87116923e-01  6.92323105e-08  5.35859305e-01  6.92323105e-08  1.90492872e+00  6.92323105e-08  1.80000000e+00  6.92323105e-08  5.46449217e-03  6.92323105e-08  5.00000000e-01                                 
 8.66929237e-08  5.76333289e-01  8.66929237e-08  5.26112347e-01  8.66929237e-08  1.86960170e+00  8.66929237e-08  1.80000000e+00  8.66929237e-08 -5.43322258e-03  8.66929237e-08  5.00000000e-01                                 
 1.04950808e-07  5.67448898e-01  1.04950808e-07  5.18043771e-01  1.04950808e-07  1.83612611e+00  1.04950808e-07  1.80000000e+00  1.04950808e-07  5.45571292e-03  1.04950808e-07  5.00000000e-01                                 
 1.27252063e-07  5.58296360e-01  1.27252063e-07  5.09759242e-01  1.27252063e-07  1.79436976e+00  1.27252063e-07  1.80000000e+00  1.27252063e-07 -5.42528249e-03  1.27252063e-07  5.00000000e-01                                 
 1.53362263e-07  5.57161176e-01  1.53362263e-07  5.07823513e-01  1.53362263e-07  1.77526001e+00  1.53362263e-07  1.80000000e+00  1.53362263e-07  5.44947048e-03  1.53362263e-07  5.00000000e-01                                 
 1.83650475e-07  5.59700598e-01  1.83650475e-07  5.08778198e-01  1.83650475e-07  1.75839138e+00  1.83650475e-07  1.80000000e+00  1.83650475e-07 -5.41956529e-03  1.83650475e-07  5.00000000e-01                                 
 2.05516041e-07  5.56424150e-01  2.05516041e-07  5.05515079e-01  2.05516041e-07  1.73427077e+00  2.05516041e-07  1.80000000e+00  2.05516041e-07  5.44297785e-03  2.05516041e-07  5.00000000e-01                                 
 2.29901656e-07  5.50449570e-01  2.29901656e-07  5.00120147e-01  2.29901656e-07  1.70404123e+00  2.29901656e-07  1.80000000e+00  2.29901656e-07 -5.41283138e-03  2.29901656e-07  5.00000000e-01                                 
 2.62647080e-07  5.41675578e-01  2.62647080e-07  4.92394023e-01  2.62647080e-07  1.66322912e+00  2.62647080e-07  1.80000000e+00  2.62647080e-07  5.43727016e-03  2.62647080e-07  5.00000000e-01                                 
 3.05226414e-07  5.30910593e-01  3.05226414e-07  4.83018712e-01  3.05226414e-07  1.61150880e+00  3.05226414e-07  1.80000000e+00  3.05226414e-07 -5.40857504e-03  3.05226414e-07  5.00000000e-01                                 
 3.80223452e-07  5.10471888e-01  3.80223452e-07  4.65685988e-01  3.80223452e-07  1.51268836e+00  3.80223452e-07  1.80000000e+00  3.80223452e-07  5.43434062e-03  3.80223452e-07  5.00000000e-01                                 
 4.60227395e-07  4.95649811e-01  4.60227395e-07  4.53079624e-01  4.60227395e-07  1.41774390e+00  4.60227395e-07  1.80000000e+00  4.60227395e-07 -5.40646845e-03  4.60227395e-07  5.00000000e-01                                 
 5.35739606e-07  4.66173611e-01  5.35739606e-07  4.29130235e-01  5.35739606e-07  1.30881232e+00  5.35739606e-07  1.80000000e+00  5.35739606e-07  5.43213274e-03  5.35739606e-07  5.00000000e-01                                 
 6.14886059e-07  4.31784107e-01  6.14886059e-07  4.01469262e-01  6.14886059e-07  1.19355836e+00  6.14886059e-07  1.80000000e+00  6.14886059e-07 -5.40446173e-03  6.14886059e-07  5.00000000e-01                                 
 6.26937259e-07  4.26917957e-01  6.26937259e-07  3.97572534e-01  6.26937259e-07  1.17524006e+00  6.26937259e-07  1.80000000e+00  6.26937259e-07 -8.52956004e-07  6.26937259e-07  5.00000000e-01                                 
 6.51039659e-07  4.22393268e-01  6.51039659e-07  3.93954835e-01  6.51039659e-07  1.14499933e+00  6.51039659e-07  1.80000000e+00  6.51039659e-07  2.40546228e-06  6.51039659e-07  5.00000000e-01                                 
 6.83820852e-07  4.66458373e-01  6.83820852e-07  4.29236870e-01  6.83820852e-07  1.15244978e+00  6.83820852e-07  1.80000000e+00  6.83820852e-07  4.79818463e-07  6.83820852e-07  5.00000000e-01                                 
 7.17819887e-07  6.72199440e-01  7.17819887e-07  6.09619447e-01  7.17819887e-07  1.31310289e+00  7.17819887e-07  1.80000000e+00  7.17819887e-07  7.43025952e-06  7.17819887e-07  5.00000000e-01                                 
 7.46059237e-07  7.43035978e-01  7.46059237e-07  6.83307320e-01  7.46059237e-07  1.35401875e+00  7.46059237e-07  1.80000000e+00  7.46059237e-07 -1.89960272e-06  7.46059237e-07  5.00000000e-01                                 
 7.73459361e-07  7.72761430e-01  7.73459361e-07  7.10399137e-01  7.73459361e-07  1.35058964e+00  7.73459361e-07  1.80000000e+00  7.73459361e-07  4.94750220e-06  7.73459361e-07  5.00000000e-01                                 
 8.03902217e-07  7.84296741e-01  8.03902217e-07  7.20194651e-01  8.03902217e-07  1.33245671e+00  8.03902217e-07  1.80000000e+00  8.03902217e-07 -2.47131040e-06  8.03902217e-07  5.00000000e-01                                 
 8.36735083e-07  7.83842274e-01  8.36735083e-07  7.19857577e-01  8.36735083e-07  1.29457609e+00  8.36735083e-07  1.80000000e+00  8.36735083e-07  4.04350354e-06  8.36735083e-07  5.00000000e-01                                 
 8.83769627e-07  7.84992893e-01  8.83769627e-07  7.20771120e-01  8.83769627e-07  1.24862993e+00  8.83769627e-07  1.80000000e+00  8.83769627e-07 -2.21633992e-06  8.83769627e-07  5.00000000e-01                                 
 9.36078029e-07  7.83991148e-01  9.36078029e-07  7.19976634e-01  9.36078029e-07  1.18948790e+00  9.36078029e-07  1.80000000e+00  9.36078029e-07  3.85502871e-06  9.36078029e-07  5.00000000e-01                                 
 9.46799424e-07  7.84483248e-01  9.46799424e-07  7.20367669e-01  9.46799424e-07  1.17983566e+00  9.46799424e-07  1.80000000e+00  9.46799424e-07  9.46012480e-07  9.46799424e-07  5.00000000e-01                                 
 9.68242213e-07  7.84006498e-01  9.68242213e-07  7.19978193e-01  9.68242213e-07  1.15678937e+00  9.68242213e-07  1.80000000e+00  9.68242213e-07  7.59260839e-07  9.68242213e-07  5.00000000e-01                                 
 9.73602910e-07  7.82508507e-01  9.73602910e-07  7.18739097e-01  9.73602910e-07  1.14966636e+00  9.73602910e-07  1.80000000e+00  9.73602910e-07  6.77319101e-07  9.73602910e-07  5.00000000e-01                                 
 9.84324305e-07  7.77002140e-01  9.84324305e-07  7.14109520e-01  9.84324305e-07  1.13315129e+00  9.84324305e-07  1.80000000e+00  9.84324305e-07  3.65540979e-07  9.84324305e-07  5.00000000e-01                                 
 1.00576709e-06  7.62856488e-01  1.00576709e-06  7.01726726e-01  1.00576709e-06  1.09677065e+00  1.00576709e-06  1.80000000e+00  1.00576709e-06  4.20130730e-07  1.00576709e-06  5.00000000e-01                                 
 1.03802896e-06  7.54041988e-01  1.03802896e-06  6.93715879e-01  1.03802896e-06  1.05413785e+00  1.03802896e-06  1.80000000e+00  1.03802896e-06  8.82827135e-07  1.03802896e-06  5.00000000e-01                                 
 1.07841896e-06  7.62645271e-01  1.07841896e-06  7.01484907e-01  1.07841896e-06  1.02126932e+00  1.07841896e-06  1.80000000e+00  1.07841896e-06  1.12977074e-06  1.07841896e-06  5.00000000e-01                                 
 1.13498283e-06  7.75786555e-01  1.13498283e-06  7.13021000e-01  1.13498283e-06  9.80286616e-01  1.13498283e-06  1.80000000e+00  1.13498283e-06  9.30152333e-07  1.13498283e-06  5.00000000e-01                                 
 1.21008875e-06  7.68661886e-01  1.21008875e-06  7.06858916e-01  1.21008875e-06  9.14748684e-01  1.21008875e-06  1.80000000e+00  1.21008875e-06  6.66877779e-07  1.21008875e-06  5.00000000e-01                                 
 1.29483141e-06  7.63683915e-01  1.29483141e-06  7.02423501e-01  1.29483141e-06  8.54242192e-01  1.29483141e-06  1.80000000e+00  1.29483141e-06  9.66450585e-07  1.29483141e-06  5.00000000e-01                                 
 1.39154112e-06  7.72212614e-01  1.39154112e-06  7.09943854e-01  1.39154112e-06  8.03894428e-01  1.39154112e-06  1.80000000e+00  1.39154112e-06  8.82229746e-07  1.39154112e-06  5.00000000e-01                                 
 1.53320971e-06  7.67188903e-01  1.53320971e-06  7.05547870e-01  1.53320971e-06  7.20476342e-01  1.53320971e-06  1.80000000e+00  1.53320971e-06  7.90321452e-07  1.53320971e-06  5.00000000e-01                                 
 1.66978110e-06  7.67332689e-01  1.66978110e-06  7.05668521e-01  1.66978110e-06  6.49817583e-01  1.66978110e-06  1.80000000e+00  1.66978110e-06  9.29732167e-07  1.66978110e-06  5.00000000e-01                                 
 1.88141717e-06  7.70925470e-01  1.88141717e-06  7.08823769e-01  1.88141717e-06  5.55067383e-01  1.88141717e-06  1.80000000e+00  1.88141717e-06  8.17310119e-07  1.88141717e-06  5.00000000e-01                                 
 2.12809065e-06  7.65645107e-01  2.12809065e-06  7.04180237e-01  2.12809065e-06  4.93881410e-01  2.12809065e-06  1.80000000e+00  2.12809065e-06  8.75268854e-07  2.12809065e-06  5.00000000e-01                                 
 2.16085656e-06  7.67813587e-01  2.16085656e-06  7.06092010e-01  2.16085656e-06  4.94588495e-01  2.16085656e-06  1.80000000e+00  2.16085656e-06  9.07219921e-07  2.16085656e-06  5.00000000e-01                                 
 2.22638840e-06  7.70007340e-01  2.22638840e-06  7.08020778e-01  2.22638840e-06  4.93880025e-01  2.22638840e-06  1.80000000e+00  2.22638840e-06  8.62725251e-07  2.22638840e-06  5.00000000e-01                                 
 2.35745207e-06  7.67761626e-01  2.35745207e-06  7.06051915e-01  2.35745207e-06  4.87545856e-01  2.35745207e-06  1.80000000e+00  2.35745207e-06  8.34057770e-07  2.35745207e-06  5.00000000e-01                                 
 2.47965040e-06  7.68490929e-01  2.47965040e-06  7.06688757e-01  2.47965040e-06  4.96468664e-01  2.47965040e-06  1.80000000e+00  2.47965040e-06  8.97109361e-07  2.47965040e-06  5.00000000e-01                                 
 2.49983121e-06  7.68981055e-01  2.49983121e-06  7.07120568e-01  2.49983121e-06  4.99117002e-01  2.49983121e-06  1.80000000e+00  2.49983121e-06  8.76786752e-07  2.49983121e-06  5.00000000e-01                                 
 2.54019282e-06  7.69205833e-01  2.54019282e-06  7.07319801e-01  2.54019282e-06  5.01782501e-01  2.54019282e-06  1.80000000e+00  2.54019282e-06  8.48280990e-07  2.54019282e-06  5.00000000e-01                                 
 2.62091604e-06  7.68191043e-01  2.62091604e-06  7.06428485e-01  2.62091604e-06  5.00568003e-01  2.62091604e-06  1.80000000e+00  2.62091604e-06  8.52894828e-07  2.62091604e-06  5.00000000e-01                                 
 2.78236249e-06  7.68684567e-01  2.78236249e-06  7.06860626e-01  2.78236249e-06  4.99878992e-01  2.78236249e-06  1.80000000e+00  2.78236249e-06  8.72277166e-07  2.78236249e-06  5.00000000e-01                                 
 3.02165737e-06  7.68667989e-01  3.02165737e-06  7.06848074e-01  3.02165737e-06  5.00437721e-01  3.02165737e-06  1.80000000e+00  3.02165737e-06  8.48299554e-07  3.02165737e-06  5.00000000e-01                                 
 3.40147424e-06  7.68400934e-01  3.40147424e-06  7.06611462e-01  3.40147424e-06  4.99922789e-01  3.40147424e-06  1.80000000e+00  3.40147424e-06  8.71182454e-07  3.40147424e-06  5.00000000e-01                                 
 4.16110796e-06  7.68806616e-01  4.16110796e-06  7.06969674e-01  4.16110796e-06  5.00460997e-01  4.16110796e-06  1.80000000e+00  4.16110796e-06  8.50213357e-07  4.16110796e-06  5.00000000e-01                                 
 5.16110796e-06  7.68331500e-01  5.16110796e-06  7.06550527e-01  5.16110796e-06  4.99897469e-01  5.16110796e-06  1.80000000e+00  5.16110796e-06  8.69653808e-07  5.16110796e-06  5.00000000e-01                                 
 6.16110796e-06  7.68857988e-01  6.16110796e-06  7.07014661e-01  6.16110796e-06  5.00486065e-01  6.16110796e-06  1.80000000e+00  6.16110796e-06  8.51716444e-07  6.16110796e-06  5.00000000e-01                                 
 7.16110796e-06  7.68286590e-01  7.16110796e-06  7.06511157e-01  7.16110796e-06  4.99871414e-01  7.16110796e-06  1.80000000e+00  7.16110796e-06  8.68017026e-07  7.16110796e-06  5.00000000e-01                                 
 8.16110796e-06  7.68895147e-01  8.16110796e-06  7.07047148e-01  8.16110796e-06  5.00511654e-01  8.16110796e-06  1.80000000e+00  8.16110796e-06  8.53465695e-07  8.16110796e-06  5.00000000e-01                                 
 9.16110796e-06  7.68256139e-01  9.16110796e-06  7.06484515e-01  9.16110796e-06  4.99847638e-01  9.16110796e-06  1.80000000e+00  9.16110796e-06  8.66176676e-07  9.16110796e-06  5.00000000e-01                                 
 1.00005000e-05  7.68919343e-01  1.00005000e-05  7.07068227e-01  1.00005000e-05  5.00534083e-01  1.00005000e-05  1.80000000e+00  1.00005000e-05  8.55563670e-07  1.00005000e-05  5.00000000e-01                                 
