 time            v(vbep)         time            v(vben)         time            v(vout)         time            v(vphi1)        time            v(vphi2)        time            v(vref)         yes             currtemp       
 0.00000000e+00  7.79427918e-01  0.00000000e+00  7.34610898e-01  0.00000000e+00  1.04944902e-01  0.00000000e+00  0.00000000e+00  0.00000000e+00  1.79996335e+00  0.00000000e+00  7.34610898e-01  1.00000000e+00 -2.80000000e+01 
 5.00000000e-12  7.79410104e-01  5.00000000e-12  7.34596054e-01  5.00000000e-12  1.05380028e-01  5.00000000e-12  1.80000000e-02  5.00000000e-12  1.80005759e+00  5.00000000e-12  7.34596054e-01                                 
 1.00000000e-11  7.79392618e-01  1.00000000e-11  7.34581535e-01  1.00000000e-11  1.05730957e-01  1.00000000e-11  3.60000000e-02  1.00000000e-11  1.80011057e+00  1.00000000e-11  7.34581535e-01                                 
 2.00000000e-11  7.79357818e-01  2.00000000e-11  7.34552581e-01  2.00000000e-11  1.06312148e-01  2.00000000e-11  7.20000000e-02  2.00000000e-11  1.80016709e+00  2.00000000e-11  7.34552581e-01                                 
 4.00000000e-11  7.79288496e-01  4.00000000e-11  7.34494817e-01  4.00000000e-11  1.07026523e-01  4.00000000e-11  1.44000000e-01  4.00000000e-11  1.80015857e+00  4.00000000e-11  7.34494817e-01                                 
 8.00000000e-11  7.79150284e-01  8.00000000e-11  7.34379600e-01  8.00000000e-11  1.07832778e-01  8.00000000e-11  2.88000000e-01  8.00000000e-11  1.80011268e+00  8.00000000e-11  7.34379600e-01                                 
 1.60000000e-10  7.78875942e-01  1.60000000e-10  7.34150590e-01  1.60000000e-10  1.09050347e-01  1.60000000e-10  5.76000000e-01  1.60000000e-10  1.80008385e+00  1.60000000e-10  7.34150590e-01                                 
 3.20000000e-10  7.78335825e-01  3.20000000e-10  7.33698613e-01  3.20000000e-10  1.23089550e-01  3.20000000e-10  1.15200000e+00  3.20000000e-10  1.80008279e+00  3.20000000e-10  7.33698613e-01                                 
 5.00000000e-10  7.77741892e-01  5.00000000e-10  7.33199851e-01  5.00000000e-10  3.92752086e-01  5.00000000e-10  1.80000000e+00  5.00000000e-10  1.21118775e-01  5.00000000e-10  7.33199851e-01                                 
 5.20451743e-10  7.77675412e-01  5.20451743e-10  7.33143900e-01  5.20451743e-10  4.49626786e-01  5.20451743e-10  1.80000000e+00  5.20451743e-10  2.40938730e-02  5.20451743e-10  7.33143900e-01                                 
 5.61355230e-10  7.77542808e-01  5.61355230e-10  7.33032248e-01  5.61355230e-10  5.53523435e-01  5.61355230e-10  1.80000000e+00  5.61355230e-10 -1.03759270e-02  5.61355230e-10  7.33032248e-01                                 
 6.43162203e-10  7.77279736e-01  6.43162203e-10  7.32810479e-01  6.43162203e-10  7.14502565e-01  6.43162203e-10  1.80000000e+00  6.43162203e-10  9.46387508e-03  6.43162203e-10  7.32810479e-01                                 
 7.60327143e-10  7.76907798e-01  7.60327143e-10  7.32496341e-01  7.60327143e-10  8.79229912e-01  7.60327143e-10  1.80000000e+00  7.60327143e-10 -7.61858109e-03  7.60327143e-10  7.32496341e-01                                 
 9.41208202e-10  7.76344364e-01  9.41208202e-10  7.32019148e-01  9.41208202e-10  1.06524605e+00  9.41208202e-10  1.80000000e+00  9.41208202e-10  7.81582684e-03  9.41208202e-10  7.32019148e-01                                 
 1.19701091e-09  7.75568855e-01  1.19701091e-09  7.31359785e-01  1.19701091e-09  1.27443663e+00  1.19701091e-09  1.80000000e+00  1.19701091e-09 -6.67556698e-03  1.19701091e-09  7.31359785e-01                                 
 1.63693844e-09  7.74289315e-01  1.63693844e-09  7.30265584e-01  1.63693844e-09  1.51906760e+00  1.63693844e-09  1.80000000e+00  1.63693844e-09  6.96775521e-03  1.63693844e-09  7.30265584e-01                                 
 2.34489364e-09  7.72359098e-01  2.34489364e-09  7.28600653e-01  2.34489364e-09  1.67738080e+00  2.34489364e-09  1.80000000e+00  2.34489364e-09 -6.58447816e-03  2.34489364e-09  7.28600653e-01                                 
 2.70100227e-09  7.71443305e-01  2.70100227e-09  7.27804627e-01  2.70100227e-09  1.69491875e+00  2.70100227e-09  1.80000000e+00  2.70100227e-09  6.39805814e-03  2.70100227e-09  7.27804627e-01                                 
 3.13381723e-09  7.70374012e-01  3.13381723e-09  7.26870560e-01  3.13381723e-09  1.70468042e+00  3.13381723e-09  1.80000000e+00  3.13381723e-09 -6.12444668e-03  3.13381723e-09  7.26870560e-01                                 
 3.60026151e-09  7.69271076e-01  3.60026151e-09  7.25902041e-01  3.60026151e-09  1.71697526e+00  3.60026151e-09  1.80000000e+00  3.60026151e-09  5.99129756e-03  3.60026151e-09  7.25902041e-01                                 
 4.53315006e-09  7.67200006e-01  4.53315006e-09  7.24070459e-01  4.53315006e-09  1.72989299e+00  4.53315006e-09  1.80000000e+00  4.53315006e-09 -5.85207374e-03  4.53315006e-09  7.24070459e-01                                 
 6.39892717e-09  7.63498781e-01  6.39892717e-09  7.20759180e-01  6.39892717e-09  1.73141143e+00  6.39892717e-09  1.80000000e+00  6.39892717e-09  5.83277465e-03  6.39892717e-09  7.20759180e-01                                 
 8.67663550e-09  7.59597486e-01  8.67663550e-09  7.17220922e-01  8.67663550e-09  1.72594350e+00  8.67663550e-09  1.80000000e+00  8.67663550e-09 -5.77222878e-03  8.67663550e-09  7.17220922e-01                                 
 1.13860326e-08  7.55594328e-01  1.13860326e-08  7.13548426e-01  1.13860326e-08  1.72132889e+00  1.13860326e-08  1.80000000e+00  1.13860326e-08  5.76257876e-03  1.13860326e-08  7.13548426e-01                                 
 1.68048268e-08  7.48925800e-01  1.68048268e-08  7.07368208e-01  1.68048268e-08  1.71184926e+00  1.68048268e-08  1.80000000e+00  1.68048268e-08 -5.72317256e-03  1.68048268e-08  7.07368208e-01                                 
 2.20469447e-08  7.43648043e-01  2.20469447e-08  7.02437662e-01  2.20469447e-08  1.70206448e+00  2.20469447e-08  1.80000000e+00  2.20469447e-08  5.72974689e-03  2.20469447e-08  7.02437662e-01                                 
 2.38735895e-08  7.42005179e-01  2.38735895e-08  7.00898732e-01  2.38735895e-08  1.69807131e+00  2.38735895e-08  1.80000000e+00  2.38735895e-08 -5.66192976e-03  2.38735895e-08  7.00898732e-01                                 
 2.58800892e-08  7.40292529e-01  2.58800892e-08  6.99293147e-01  2.58800892e-08  1.69411193e+00  2.58800892e-08  1.80000000e+00  2.58800892e-08  5.64080287e-03  2.58800892e-08  6.99293147e-01                                 
 2.83523766e-08  7.38301294e-01  2.83523766e-08  6.97424889e-01  2.83523766e-08  1.68879331e+00  2.83523766e-08  1.80000000e+00  2.83523766e-08 -5.58635833e-03  2.83523766e-08  6.97424889e-01                                 
 3.27375483e-08  7.35051994e-01  3.27375483e-08  6.94372655e-01  3.27375483e-08  1.67987271e+00  3.27375483e-08  1.80000000e+00  3.27375483e-08  5.58775101e-03  3.27375483e-08  6.94372655e-01                                 
 3.73080706e-08  7.32012452e-01  3.73080706e-08  6.91511128e-01  3.73080706e-08  1.67048089e+00  3.73080706e-08  1.80000000e+00  3.73080706e-08 -5.54926385e-03  3.73080706e-08  6.91511128e-01                                 
 4.51320416e-08  7.27630259e-01  4.51320416e-08  6.87347713e-01  4.51320416e-08  1.65606102e+00  4.51320416e-08  1.80000000e+00  4.51320416e-08  5.55929837e-03  4.51320416e-08  6.87347713e-01                                 
 5.41696294e-08  7.24495083e-01  5.41696294e-08  6.84169443e-01  5.41696294e-08  1.64372716e+00  5.41696294e-08  1.80000000e+00  5.41696294e-08 -5.52879681e-03  5.41696294e-08  6.84169443e-01                                 
 7.22448050e-08  7.26860890e-01  7.22448050e-08  6.84902288e-01  7.22448050e-08  1.65719393e+00  7.22448050e-08  1.80000000e+00  7.22448050e-08  5.54834129e-03  7.22448050e-08  6.84902288e-01                                 
 8.55999194e-08  7.26246715e-01  8.55999194e-08  6.83747084e-01  8.55999194e-08  1.64139198e+00  8.55999194e-08  1.80000000e+00  8.55999194e-08 -5.52042919e-03  8.55999194e-08  6.83747084e-01                                 
 9.95733211e-08  7.20935991e-01  9.95733211e-08  6.78926391e-01  9.95733211e-08  1.62337268e+00  9.95733211e-08  1.80000000e+00  9.95733211e-08  5.53584109e-03  9.95733211e-08  6.78926391e-01                                 
 1.13510176e-07  7.17566981e-01  1.13510176e-07  6.75699198e-01  1.13510176e-07  1.60407781e+00  1.13510176e-07  1.80000000e+00  1.13510176e-07 -5.50863554e-03  1.13510176e-07  6.75699198e-01                                 
 1.27907430e-07  7.14607684e-01  1.27907430e-07  6.72833375e-01  1.27907430e-07  1.58950424e+00  1.27907430e-07  1.80000000e+00  1.27907430e-07  5.52469844e-03  1.27907430e-07  6.72833375e-01                                 
 1.52223970e-07  7.09087921e-01  1.52223970e-07  6.67677732e-01  1.52223970e-07  1.55921385e+00  1.52223970e-07  1.80000000e+00  1.52223970e-07 -5.49992013e-03  1.52223970e-07  6.67677732e-01                                 
 1.90833253e-07  7.01076455e-01  1.90833253e-07  6.60279385e-01  1.90833253e-07  1.51672386e+00  1.90833253e-07  1.80000000e+00  1.90833253e-07  5.51941594e-03  1.90833253e-07  6.60279385e-01                                 
 2.60790111e-07  6.89404261e-01  2.60790111e-07  6.49542430e-01  2.60790111e-07  1.43641418e+00  2.60790111e-07  1.80000000e+00  2.60790111e-07 -5.49637661e-03  2.60790111e-07  6.49542430e-01                                 
 3.55343678e-07  6.76616226e-01  3.55343678e-07  6.37946609e-01  3.55343678e-07  1.33466529e+00  3.55343678e-07  1.80000000e+00  3.55343678e-07  5.51750429e-03  3.55343678e-07  6.37946609e-01                                 
 5.44450813e-07  6.55822734e-01  5.44450813e-07  6.19533448e-01  5.44450813e-07  1.12410950e+00  5.44450813e-07  1.80000000e+00  5.44450813e-07 -5.49533018e-03  5.44450813e-07  6.19533448e-01                                 
 9.22665082e-07  6.20168895e-01  9.22665082e-07  5.89237651e-01  9.22665082e-07  7.92386878e-01  9.22665082e-07  1.80000000e+00  9.22665082e-07  5.51725182e-03  9.22665082e-07  5.89237651e-01                                 
 1.42334086e-06  5.86353181e-01  1.42334086e-06  5.61270606e-01  1.42334086e-06  5.76268156e-01  1.42334086e-06  1.80000000e+00  1.42334086e-06 -5.49450579e-03  1.42334086e-06  5.61270606e-01                                 
 1.45013377e-06  5.84804712e-01  1.45013377e-06  5.60005021e-01  1.45013377e-06  5.73971872e-01  1.45013377e-06  1.80000000e+00  1.45013377e-06 -7.17667426e-07  1.45013377e-06  5.60005021e-01                                 
 1.50371959e-06  5.81851326e-01  1.50371959e-06  5.57590534e-01  1.50371959e-06  5.68893269e-01  1.50371959e-06  1.80000000e+00  1.50371959e-06  6.16781024e-07  1.50371959e-06  5.57590534e-01                                 
 1.61089121e-06  5.77032911e-01  1.61089121e-06  5.53642484e-01  1.61089121e-06  5.61152992e-01  1.61089121e-06  1.80000000e+00  1.61089121e-06 -6.93258732e-07  1.61089121e-06  5.53642484e-01                                 
 1.82523447e-06  5.77182924e-01  1.82523447e-06  5.53604366e-01  1.82523447e-06  5.58011944e-01  1.82523447e-06  1.80000000e+00  1.82523447e-06  7.02310380e-07  1.82523447e-06  5.53604366e-01                                 
 1.85830001e-06  5.79383698e-01  1.85830001e-06  5.55343489e-01  1.85830001e-06  5.59781943e-01  1.85830001e-06  1.80000000e+00  1.85830001e-06  6.66729555e-08  1.85830001e-06  5.55343489e-01                                 
 1.92443110e-06  5.86583588e-01  1.92443110e-06  5.61061435e-01  1.92443110e-06  5.65933216e-01  1.92443110e-06  1.80000000e+00  1.92443110e-06  1.45140497e-07  1.92443110e-06  5.61061435e-01                                 
 2.01557293e-06  6.18131009e-01  2.01557293e-06  5.86235575e-01  2.01557293e-06  5.94074595e-01  2.01557293e-06  1.80000000e+00  2.01557293e-06  5.10608649e-07  2.01557293e-06  5.86235575e-01                                 
 2.03835839e-06  6.37149832e-01  2.03835839e-06  6.01426387e-01  2.03835839e-06  6.11101475e-01  2.03835839e-06  1.80000000e+00  2.03835839e-06  7.94529103e-07  2.03835839e-06  6.01426387e-01                                 
 2.08392930e-06  7.13109556e-01  2.08392930e-06  6.62967198e-01  2.08392930e-06  6.79068915e-01  2.08392930e-06  1.80000000e+00  2.08392930e-06  2.52774160e-06  2.08392930e-06  6.62967198e-01                                 
 2.09532203e-06  7.49575138e-01  2.09532203e-06  6.95246390e-01  2.09532203e-06  7.11531442e-01  2.09532203e-06  1.80000000e+00  2.09532203e-06  3.57877836e-06  2.09532203e-06  6.95246390e-01                                 
 2.11810749e-06  8.01936971e-01  2.11810749e-06  7.53249533e-01  2.11810749e-06  7.56907331e-01  2.11810749e-06  1.80000000e+00  2.11810749e-06  2.78426482e-06  2.11810749e-06  7.53249533e-01                                 
 2.16367840e-06  8.58655135e-01  2.16367840e-06  8.11595985e-01  2.16367840e-06  7.96503536e-01  2.16367840e-06  1.80000000e+00  2.16367840e-06  7.21404181e-07  2.16367840e-06  8.11595985e-01                                 
 2.20694605e-06  9.13709636e-01  2.20694605e-06  8.56438021e-01  2.20694605e-06  8.37189355e-01  2.20694605e-06  1.80000000e+00  2.20694605e-06  2.68975290e-06  2.20694605e-06  8.56438021e-01                                 
 2.25276862e-06  9.54721103e-01  2.25276862e-06  8.81991780e-01  2.25276862e-06  8.91496591e-01  2.25276862e-06  1.80000000e+00  2.25276862e-06  1.26038928e-08  2.25276862e-06  8.81991780e-01                                 
 2.28618522e-06  9.52570553e-01  2.28618522e-06  8.81041493e-01  2.28618522e-06  8.75426368e-01  2.28618522e-06  1.80000000e+00  2.28618522e-06 -6.29884200e-07  2.28618522e-06  8.81041493e-01                                 
 2.32233960e-06  9.52382782e-01  2.32233960e-06  8.80687961e-01  2.32233960e-06  8.83099949e-01  2.32233960e-06  1.80000000e+00  2.32233960e-06  8.80626477e-07  2.32233960e-06  8.80687961e-01                                 
 2.35991237e-06  9.53100849e-01  2.35991237e-06  8.81316463e-01  2.35991237e-06  8.80872292e-01  2.35991237e-06  1.80000000e+00  2.35991237e-06 -9.08455515e-07  2.35991237e-06  8.81316463e-01                                 
 2.43505791e-06  9.50817974e-01  2.43505791e-06  8.79833385e-01  2.43505791e-06  8.78096348e-01  2.43505791e-06  1.80000000e+00  2.43505791e-06  8.39564796e-07  2.43505791e-06  8.79833385e-01                                 
 2.51482932e-06  9.51674587e-01  2.51482932e-06  8.80505566e-01  2.51482932e-06  8.81377135e-01  2.51482932e-06  1.80000000e+00  2.51482932e-06 -7.64862767e-07  2.51482932e-06  8.80505566e-01                                 
 2.61958962e-06  9.48688206e-01  2.61958962e-06  8.78641595e-01  2.61958962e-06  8.75121623e-01  2.61958962e-06  1.80000000e+00  2.61958962e-06  6.70804240e-07  2.61958962e-06  8.78641595e-01                                 
 2.76271857e-06  9.48898486e-01  2.76271857e-06  8.78929450e-01  2.76271857e-06  8.80077839e-01  2.76271857e-06  1.80000000e+00  2.76271857e-06 -6.17090867e-07  2.76271857e-06  8.78929450e-01                                 
 2.94767510e-06  9.44731563e-01  2.94767510e-06  8.76366975e-01  2.94767510e-06  8.72015452e-01  2.94767510e-06  1.80000000e+00  2.94767510e-06  5.48041370e-07  2.94767510e-06  8.76366975e-01                                 
 3.22810000e-06  9.42769745e-01  3.22810000e-06  8.75378085e-01  3.22810000e-06  8.76354442e-01  3.22810000e-06  1.80000000e+00  3.22810000e-06 -5.29159630e-07  3.22810000e-06  8.75378085e-01                                 
 3.27741302e-06  9.40966947e-01  3.27741302e-06  8.74233028e-01  3.27741302e-06  8.72227141e-01  3.27741302e-06  1.80000000e+00  3.27741302e-06 -6.79893019e-08  3.27741302e-06  8.74233028e-01                                 
 3.37603907e-06  9.39290647e-01  3.37603907e-06  8.73221364e-01  3.37603907e-06  8.71389939e-01  3.37603907e-06  1.80000000e+00  3.37603907e-06  4.46095462e-08  3.37603907e-06  8.73221364e-01                                 
 3.57329116e-06  9.35596353e-01  3.57329116e-06  8.70981169e-01  3.57329116e-06  8.68894405e-01  3.57329116e-06  1.80000000e+00  3.57329116e-06 -7.58308778e-08  3.57329116e-06  8.70981169e-01                                 
 3.77730393e-06  9.30596108e-01  3.77730393e-06  8.67852014e-01  3.77730393e-06  8.65747277e-01  3.77730393e-06  1.80000000e+00  3.77730393e-06  3.15903021e-08  3.77730393e-06  8.67852014e-01                                 
 4.18532946e-06  9.05171893e-01  4.18532946e-06  8.50472587e-01  4.18532946e-06  8.47268735e-01  4.18532946e-06  1.80000000e+00  4.18532946e-06 -1.75823206e-07  4.18532946e-06  8.50472587e-01                                 
 4.56754956e-06  8.71364859e-01  4.56754956e-06  8.22983376e-01  4.56754956e-06  8.21660351e-01  4.56754956e-06  1.80000000e+00  4.56754956e-06 -5.10473607e-08  4.56754956e-06  8.22983376e-01                                 
 4.94869003e-06  8.61612459e-01  4.94869003e-06  8.14258853e-01  4.94869003e-06  8.14448437e-01  4.94869003e-06  1.80000000e+00  4.94869003e-06 -6.20635508e-09  4.94869003e-06  8.14258853e-01                                 
 5.34365479e-06  8.65323253e-01  5.34365479e-06  8.17579309e-01  5.34365479e-06  8.17510716e-01  5.34365479e-06  1.80000000e+00  5.34365479e-06  4.71992145e-08  5.34365479e-06  8.17579309e-01                                 
 5.77074957e-06  8.63632616e-01  5.77074957e-06  8.16100453e-01  5.77074957e-06  8.16088782e-01  5.77074957e-06  1.80000000e+00  5.77074957e-06 -4.38877767e-08  5.77074957e-06  8.16100453e-01                                 
 6.45161433e-06  8.64383151e-01  6.45161433e-06  8.16727425e-01  6.45161433e-06  8.16715531e-01  6.45161433e-06  1.80000000e+00  6.45161433e-06  6.12926783e-08  6.45161433e-06  8.16727425e-01                                 
 7.45161433e-06  8.64011031e-01  7.45161433e-06  8.16443775e-01  7.45161433e-06  8.16419254e-01  7.45161433e-06  1.80000000e+00  7.45161433e-06 -4.78379719e-08  7.45161433e-06  8.16443775e-01                                 
 8.45161433e-06  8.64174226e-01  8.45161433e-06  8.16537887e-01  8.45161433e-06  8.16531630e-01  8.45161433e-06  1.80000000e+00  8.45161433e-06  6.25943349e-08  8.45161433e-06  8.16537887e-01                                 
 9.45161433e-06  8.64176604e-01  9.45161433e-06  8.16593738e-01  9.45161433e-06  8.16565739e-01  9.45161433e-06  1.80000000e+00  9.45161433e-06 -4.80600966e-08  9.45161433e-06  8.16593738e-01                                 
 1.00005000e-05  8.64021608e-01  1.00005000e-05  8.16399516e-01  1.00005000e-05  8.16395636e-01  1.00005000e-05  1.80000000e+00  1.00005000e-05  6.14325507e-08  1.00005000e-05  8.16399516e-01                                 
 1.00005500e-05  8.64027526e-01  1.00005500e-05  8.16406921e-01  1.00005500e-05  8.09890989e-01  1.00005500e-05  1.62000000e+00  1.00005500e-05 -8.58957262e-05  1.00005500e-05  8.16406921e-01                                 
 1.00006500e-05  8.64040380e-01  1.00006500e-05  8.16421319e-01  1.00006500e-05  8.01804812e-01  1.00006500e-05  1.26000000e+00  1.00006500e-05 -2.69310668e-05  1.00006500e-05  8.16421319e-01                                 
 1.00008500e-05  8.64062912e-01  1.00008500e-05  8.16445802e-01  1.00008500e-05  8.04397392e-01  1.00008500e-05  5.40000000e-01  1.00008500e-05  4.63930118e-05  1.00008500e-05  8.16445802e-01                                 
 1.00010000e-05  8.64074765e-01  1.00010000e-05  8.16459758e-01  1.00010000e-05  6.44853911e-01  1.00010000e-05  0.00000000e+00  1.00010000e-05  1.46596755e+00  1.00010000e-05  8.16459758e-01                                 
 1.00010148e-05  8.64075735e-01  1.00010148e-05  8.16460888e-01  1.00010148e-05  6.01411634e-01  1.00010148e-05  0.00000000e+00  1.00010148e-05  1.62275675e+00  1.00010148e-05  8.16460888e-01                                 
