 time            v(vbep)         time            v(vben)         time            v(vout)         time            v(vphi1)        time            v(vphi2)        time            v(vref)         yes             currtemp       
 0.00000000e+00  6.81368920e-01  0.00000000e+00  6.27211557e-01  0.00000000e+00  8.66317724e-02  0.00000000e+00  0.00000000e+00  0.00000000e+00  1.79997423e+00  0.00000000e+00  5.00000000e-01  1.00000000e+00  2.30000000e+01 
 5.00000000e-12  6.81351767e-01  5.00000000e-12  6.27197274e-01  5.00000000e-12  8.70954925e-02  5.00000000e-12  1.80000000e-02  5.00000000e-12  1.80005511e+00  5.00000000e-12  5.00000000e-01                                 
 1.00000000e-11  6.81334869e-01  1.00000000e-11  6.27183289e-01  1.00000000e-11  8.75121018e-02  1.00000000e-11  3.60000000e-02  1.00000000e-11  1.80009488e+00  1.00000000e-11  5.00000000e-01                                 
 2.00000000e-11  6.81301206e-01  2.00000000e-11  6.27155397e-01  2.00000000e-11  8.82774797e-02  2.00000000e-11  7.20000000e-02  2.00000000e-11  1.80013064e+00  2.00000000e-11  5.00000000e-01                                 
 4.00000000e-11  6.81234113e-01  4.00000000e-11  6.27099758e-01  4.00000000e-11  8.94934475e-02  4.00000000e-11  1.44000000e-01  4.00000000e-11  1.80010934e+00  4.00000000e-11  5.00000000e-01                                 
 8.00000000e-11  6.81100343e-01  8.00000000e-11  6.26988782e-01  8.00000000e-11  9.11764779e-02  8.00000000e-11  2.88000000e-01  8.00000000e-11  1.80006723e+00  8.00000000e-11  5.00000000e-01                                 
 1.60000000e-10  6.80834580e-01  1.60000000e-10  6.26768049e-01  1.60000000e-10  9.33490716e-02  1.60000000e-10  5.76000000e-01  1.60000000e-10  1.80002858e+00  1.60000000e-10  5.00000000e-01                                 
 3.20000000e-10  6.80309963e-01  3.20000000e-10  6.26331402e-01  3.20000000e-10  1.29230199e-01  3.20000000e-10  1.15200000e+00  3.20000000e-10  1.80001712e+00  3.20000000e-10  5.00000000e-01                                 
 5.00000000e-10  6.79730662e-01  5.00000000e-10  6.25847794e-01  5.00000000e-10  4.90624215e-01  5.00000000e-10  1.80000000e+00  5.00000000e-10  1.11208404e-01  5.00000000e-10  5.00000000e-01                                 
 5.21547268e-10  6.79662162e-01  5.21547268e-10  6.25790499e-01  5.21547268e-10  5.59245576e-01  5.21547268e-10  1.80000000e+00  5.21547268e-10  2.09395751e-02  5.21547268e-10  5.00000000e-01                                 
 5.64641803e-10  6.79525477e-01  5.64641803e-10  6.25676130e-01  5.64641803e-10  6.82701160e-01  5.64641803e-10  1.80000000e+00  5.64641803e-10 -9.92330072e-03  5.64641803e-10  5.00000000e-01                                 
 6.50830874e-10  6.79254007e-01  6.50830874e-10  6.25448738e-01  6.50830874e-10  8.70835201e-01  6.50830874e-10  1.80000000e+00  6.50830874e-10  8.44206303e-03  6.50830874e-10  5.00000000e-01                                 
 7.73739010e-10  6.78871194e-01  7.73739010e-10  6.25127526e-01  7.73739010e-10  1.07286307e+00  7.73739010e-10  1.80000000e+00  7.73739010e-10 -7.35213561e-03  7.73739010e-10  5.00000000e-01                                 
 9.65516905e-10  6.78283701e-01  9.65516905e-10  6.24633324e-01  9.65516905e-10  1.32492713e+00  9.65516905e-10  1.80000000e+00  9.65516905e-10  6.93660774e-03  9.65516905e-10  5.00000000e-01                                 
 1.32169397e-09  6.77222855e-01  1.32169397e-09  6.23737183e-01  1.32169397e-09  1.64931658e+00  1.32169397e-09  1.80000000e+00  1.32169397e-09 -6.55999275e-03  1.32169397e-09  5.00000000e-01                                 
 1.96447817e-09  6.75400138e-01  1.96447817e-09  6.22186497e-01  1.96447817e-09  1.87513158e+00  1.96447817e-09  1.80000000e+00  1.96447817e-09  6.50725452e-03  1.96447817e-09  5.00000000e-01                                 
 2.22340996e-09  6.74697418e-01  2.22340996e-09  6.21584873e-01  2.22340996e-09  1.89515902e+00  2.22340996e-09  1.80000000e+00  2.22340996e-09 -6.08531665e-03  2.22340996e-09  5.00000000e-01                                 
 2.54210053e-09  6.73855146e-01  2.54210053e-09  6.20861149e-01  2.54210053e-09  1.90323235e+00  2.54210053e-09  1.80000000e+00  2.54210053e-09  5.88043682e-03  2.54210053e-09  5.00000000e-01                                 
 2.89316035e-09  6.72954689e-01  2.89316035e-09  6.20084316e-01  2.89316035e-09  1.90615125e+00  2.89316035e-09  1.80000000e+00  2.89316035e-09 -5.60242100e-03  2.89316035e-09  5.00000000e-01                                 
 3.59528000e-09  6.71232507e-01  3.59528000e-09  6.18589996e-01  3.59528000e-09  1.90901835e+00  3.59528000e-09  1.80000000e+00  3.59528000e-09  5.53692390e-03  3.59528000e-09  5.00000000e-01                                 
 4.47965797e-09  6.69198443e-01  4.47965797e-09  6.16810884e-01  4.47965797e-09  1.90944791e+00  4.47965797e-09  1.80000000e+00  4.47965797e-09 -5.41349027e-03  4.47965797e-09  5.00000000e-01                                 
 6.24841392e-09  6.65504704e-01  6.24841392e-09  6.13544364e-01  6.24841392e-09  1.90278333e+00  6.24841392e-09  1.80000000e+00  6.24841392e-09  5.40915259e-03  6.24841392e-09  5.00000000e-01                                 
 9.08611184e-09  6.60389776e-01  9.08611184e-09  6.08951711e-01  9.08611184e-09  1.89025803e+00  9.08611184e-09  1.80000000e+00  9.08611184e-09 -5.34203570e-03  9.08611184e-09  5.00000000e-01                                 
 1.05469141e-08  6.58072687e-01  1.05469141e-08  6.06845324e-01  1.05469141e-08  1.88525964e+00  1.05469141e-08  1.80000000e+00  1.05469141e-08  5.32425269e-03  1.05469141e-08  5.00000000e-01                                 
 1.22870161e-08  6.55528066e-01  1.22870161e-08  6.04516606e-01  1.22870161e-08  1.87966035e+00  1.22870161e-08  1.80000000e+00  1.22870161e-08 -5.25382095e-03  1.22870161e-08  5.00000000e-01                                 
 1.41819572e-08  6.52985826e-01  1.41819572e-08  6.02174699e-01  1.41819572e-08  1.87412151e+00  1.41819572e-08  1.80000000e+00  1.41819572e-08  5.24153544e-03  1.41819572e-08  5.00000000e-01                                 
 1.73357465e-08  6.49194345e-01  1.73357465e-08  5.98654878e-01  1.73357465e-08  1.86575966e+00  1.73357465e-08  1.80000000e+00  1.73357465e-08 -5.19409996e-03  1.73357465e-08  5.00000000e-01                                 
 2.11164046e-08  6.45259723e-01  2.11164046e-08  5.94965307e-01  2.11164046e-08  1.85690669e+00  2.11164046e-08  1.80000000e+00  2.11164046e-08  5.19902771e-03  2.11164046e-08  5.00000000e-01                                 
 2.70854856e-08  6.40118904e-01  2.70854856e-08  5.90078828e-01  2.70854856e-08  1.84486037e+00  2.70854856e-08  1.80000000e+00  2.70854856e-08 -5.16324928e-03  2.70854856e-08  5.00000000e-01                                 
 3.62175405e-08  6.34011605e-01  3.62175405e-08  5.84168508e-01  3.62175405e-08  1.82985460e+00  3.62175405e-08  1.80000000e+00  3.62175405e-08  5.17930007e-03  3.62175405e-08  5.00000000e-01                                 
 5.44816503e-08  6.24862180e-01  5.44816503e-08  5.75208661e-01  5.44816503e-08  1.80357456e+00  5.44816503e-08  1.80000000e+00  5.44816503e-08 -5.15151977e-03  5.44816503e-08  5.00000000e-01                                 
 8.27652849e-08  6.14619278e-01  8.27652849e-08  5.65142575e-01  8.27652849e-08  1.76710369e+00  8.27652849e-08  1.80000000e+00  8.27652849e-08  5.17301686e-03  8.27652849e-08  5.00000000e-01                                 
 1.30401094e-07  6.02814766e-01  1.30401094e-07  5.53485894e-01  1.30401094e-07  1.71072914e+00  1.30401094e-07  1.80000000e+00  1.30401094e-07 -5.14742158e-03  1.30401094e-07  5.00000000e-01                                 
 1.75468143e-07  5.91858773e-01  1.75468143e-07  5.43256556e-01  1.75468143e-07  1.65690363e+00  1.75468143e-07  1.80000000e+00  1.75468143e-07  5.16996410e-03  1.75468143e-07  5.00000000e-01                                 
 2.50564865e-07  5.73929885e-01  2.50564865e-07  5.27158507e-01  2.50564865e-07  1.56558766e+00  2.50564865e-07  1.80000000e+00  2.50564865e-07 -5.14492134e-03  2.50564865e-07  5.00000000e-01                                 
 3.30646554e-07  5.57227976e-01  3.30646554e-07  5.12515138e-01  3.30646554e-07  1.46814405e+00  3.30646554e-07  1.80000000e+00  3.30646554e-07  5.16817508e-03  3.30646554e-07  5.00000000e-01                                 
 4.53449719e-07  5.30384449e-01  4.53449719e-07  4.89816164e-01  4.53449719e-07  1.31580369e+00  4.53449719e-07  1.80000000e+00  4.53449719e-07 -5.14348496e-03  4.53449719e-07  5.00000000e-01                                 
 6.93683950e-07  4.75258798e-01  6.93683950e-07  4.44717829e-01  6.93683950e-07  1.01347103e+00  6.93683950e-07  1.80000000e+00  6.93683950e-07  5.16731047e-03  6.93683950e-07  5.00000000e-01                                 
 7.32679844e-07  4.72410519e-01  7.32679844e-07  4.42404324e-01  7.32679844e-07  9.73804468e-01  7.32679844e-07  1.80000000e+00  7.32679844e-07  7.56767454e-07  7.32679844e-07  5.00000000e-01                                 
 8.10671633e-07  6.83829773e-01  8.10671633e-07  6.25620810e-01  8.10671633e-07  1.09921273e+00  8.10671633e-07  1.80000000e+00  8.10671633e-07  2.45524785e-06  8.10671633e-07  5.00000000e-01                                 
 8.66291031e-07  7.68655028e-01  8.66291031e-07  7.11810063e-01  8.66291031e-07  1.12595731e+00  8.66291031e-07  1.80000000e+00  8.66291031e-07  2.52447708e-07  8.66291031e-07  5.00000000e-01                                 
 9.19926596e-07  7.94678826e-01  9.19926596e-07  7.35710683e-01  9.19926596e-07  1.09221581e+00  9.19926596e-07  1.80000000e+00  9.19926596e-07  9.72923817e-07  9.19926596e-07  5.00000000e-01                                 
 9.81766957e-07  8.02102138e-01  9.81766957e-07  7.42074428e-01  9.81766957e-07  1.03685843e+00  9.81766957e-07  1.80000000e+00  9.81766957e-07 -8.01149087e-08  9.81766957e-07  5.00000000e-01                                 
 1.04812515e-06  8.04414495e-01  1.04812515e-06  7.44076103e-01  1.04812515e-06  9.71186997e-01  1.04812515e-06  1.80000000e+00  1.04812515e-06  7.18109801e-07  1.04812515e-06  5.00000000e-01                                 
 1.05813067e-06  8.05011094e-01  1.05813067e-06  7.44558549e-01  1.05813067e-06  9.63875932e-01  1.05813067e-06  1.80000000e+00  1.05813067e-06  4.42163447e-07  1.05813067e-06  5.00000000e-01                                 
 1.07814171e-06  8.03263027e-01  1.07814171e-06  7.43097283e-01  1.07814171e-06  9.45551606e-01  1.07814171e-06  1.80000000e+00  1.07814171e-06  1.40101885e-07  1.07814171e-06  5.00000000e-01                                 
 1.11296988e-06  7.85616983e-01  1.11296988e-06  7.27699682e-01  1.11296988e-06  9.03905864e-01  1.11296988e-06  1.80000000e+00  1.11296988e-06 -1.48548873e-07  1.11296988e-06  5.00000000e-01                                 
 1.14854185e-06  7.75866981e-01  1.14854185e-06  7.18730482e-01  1.14854185e-06  8.70945600e-01  1.14854185e-06  1.80000000e+00  1.14854185e-06  4.08936815e-07  1.14854185e-06  5.00000000e-01                                 
 1.19388905e-06  7.91209887e-01  1.19388905e-06  7.32624830e-01  1.19388905e-06  8.54756401e-01  1.19388905e-06  1.80000000e+00  1.19388905e-06  6.79854262e-07  1.19388905e-06  5.00000000e-01                                 
 1.24965715e-06  7.97129878e-01  1.24965715e-06  7.37830574e-01  1.24965715e-06  8.25933752e-01  1.24965715e-06  1.80000000e+00  1.24965715e-06  1.42128154e-07  1.24965715e-06  5.00000000e-01                                 
 1.30801116e-06  7.89729982e-01  1.30801116e-06  7.31340375e-01  1.30801116e-06  7.86053213e-01  1.30801116e-06  1.80000000e+00  1.30801116e-06  3.31836541e-07  1.30801116e-06  5.00000000e-01                                 
 1.39321283e-06  7.86744100e-01  1.39321283e-06  7.28656118e-01  1.39321283e-06  7.37839435e-01  1.39321283e-06  1.80000000e+00  1.39321283e-06  2.74004188e-07  1.39321283e-06  5.00000000e-01                                 
 1.48514786e-06  7.94994558e-01  1.48514786e-06  7.35966742e-01  1.48514786e-06  6.97989726e-01  1.48514786e-06  1.80000000e+00  1.48514786e-06  4.93840006e-07  1.48514786e-06  5.00000000e-01                                 
 1.60860487e-06  7.88711746e-01  1.60860487e-06  7.30432420e-01  1.60860487e-06  6.32695308e-01  1.60860487e-06  1.80000000e+00  1.60860487e-06  9.61076799e-08  1.60860487e-06  5.00000000e-01                                 
 1.74587102e-06  7.90026747e-01  1.74587102e-06  7.31583426e-01  1.74587102e-06  5.72436201e-01  1.74587102e-06  1.80000000e+00  1.74587102e-06  5.61649628e-07  1.74587102e-06  5.00000000e-01                                 
 1.91920274e-06  7.93072586e-01  1.91920274e-06  7.34292006e-01  1.91920274e-06  5.21747064e-01  1.91920274e-06  1.80000000e+00  1.91920274e-06  1.21576013e-07  1.91920274e-06  5.00000000e-01                                 
 2.17282959e-06  7.87816215e-01  2.17282959e-06  7.29617350e-01  2.17282959e-06  4.91377560e-01  2.17282959e-06  1.80000000e+00  2.17282959e-06  5.00355754e-07  2.17282959e-06  5.00000000e-01                                 
 2.39686777e-06  7.93606946e-01  2.39686777e-06  7.34756154e-01  2.39686777e-06  5.02352452e-01  2.39686777e-06  1.80000000e+00  2.39686777e-06  1.89065007e-07  2.39686777e-06  5.00000000e-01                                 
 2.62832322e-06  7.88221120e-01  2.62832322e-06  7.29985228e-01  2.62832322e-06  4.99847541e-01  2.62832322e-06  1.80000000e+00  2.62832322e-06  4.27908049e-07  2.62832322e-06  5.00000000e-01                                 
 2.91686837e-06  7.92617914e-01  2.91686837e-06  7.33882565e-01  2.91686837e-06  5.00522723e-01  2.91686837e-06  1.80000000e+00  2.91686837e-06  2.45037660e-07  2.91686837e-06  5.00000000e-01                                 
 3.25469531e-06  7.89509906e-01  3.25469531e-06  7.31137043e-01  3.25469531e-06  4.99601350e-01  3.25469531e-06  1.80000000e+00  3.25469531e-06  3.93156372e-07  3.25469531e-06  5.00000000e-01                                 
 3.74400292e-06  7.91590041e-01  3.74400292e-06  7.32974460e-01  3.74400292e-06  5.00885402e-01  3.74400292e-06  1.80000000e+00  3.74400292e-06  2.63871251e-07  3.74400292e-06  5.00000000e-01                                 
 4.40741301e-06  7.90318315e-01  4.40741301e-06  7.31856020e-01  4.40741301e-06  4.99516104e-01  4.40741301e-06  1.80000000e+00  4.40741301e-06  3.84606762e-07  4.40741301e-06  5.00000000e-01                                 
 5.40741301e-06  7.91049083e-01  5.40741301e-06  7.32495777e-01  5.40741301e-06  5.00791758e-01  5.40741301e-06  1.80000000e+00  5.40741301e-06  2.67538344e-07  5.40741301e-06  5.00000000e-01                                 
 6.40741301e-06  7.90751598e-01  6.40741301e-06  7.32240333e-01  6.40741301e-06  4.99663932e-01  6.40741301e-06  1.80000000e+00  6.40741301e-06  3.83161986e-07  6.40741301e-06  5.00000000e-01                                 
 7.40741301e-06  7.90635197e-01  7.40741301e-06  7.32129172e-01  7.40741301e-06  5.00576085e-01  7.40741301e-06  1.80000000e+00  7.40741301e-06  2.67838957e-07  7.40741301e-06  5.00000000e-01                                 
 8.40741301e-06  7.91151273e-01  8.40741301e-06  7.32594180e-01  8.40741301e-06  4.99924491e-01  8.40741301e-06  1.80000000e+00  8.40741301e-06  3.83951344e-07  8.40741301e-06  5.00000000e-01                                 
 9.40741301e-06  7.90252204e-01  9.40741301e-06  7.31789670e-01  9.40741301e-06  5.00266824e-01  9.40741301e-06  1.80000000e+00  9.40741301e-06  2.66008475e-07  9.40741301e-06  5.00000000e-01                                 
 1.00005000e-05  7.91613436e-01  1.00005000e-05  7.33002497e-01  1.00005000e-05  5.00378169e-01  1.00005000e-05  1.80000000e+00  1.00005000e-05  3.88114637e-07  1.00005000e-05  5.00000000e-01                                 
 1.00005500e-05  7.91608886e-01  1.00005500e-05  7.32997493e-01  1.00005500e-05  4.92394672e-01  1.00005500e-05  1.62000000e+00  1.00005500e-05 -7.55281021e-05  1.00005500e-05  5.00000000e-01                                 
 1.00006500e-05  7.91597412e-01  1.00006500e-05  7.32987285e-01  1.00006500e-05  4.78611537e-01  1.00006500e-05  1.26000000e+00  1.00006500e-05 -5.61003485e-05  1.00006500e-05  5.00000000e-01                                 
 1.00008500e-05  7.91574837e-01  1.00008500e-05  7.32968255e-01  1.00008500e-05  4.77005966e-01  1.00008500e-05  5.40000000e-01  1.00008500e-05 -2.57810609e-03  1.00008500e-05  5.00000000e-01                                 
 1.00010000e-05  7.91559765e-01  1.00010000e-05  7.32955005e-01  1.00010000e-05  4.38447060e-01  1.00010000e-05  0.00000000e+00  1.00010000e-05  1.56540537e+00  1.00010000e-05  5.00000000e-01                                 
 1.00010182e-05  7.91557833e-01  1.00010182e-05  7.32953415e-01  1.00010182e-05  4.15811586e-01  1.00010182e-05  0.00000000e+00  1.00010182e-05  1.70077924e+00  1.00010182e-05  5.00000000e-01                                 
 1.00010547e-05  7.91554145e-01  1.00010547e-05  7.32950277e-01  1.00010547e-05  3.68259296e-01  1.00010547e-05  0.00000000e+00  1.00010547e-05  1.81161730e+00  1.00010547e-05  5.00000000e-01                                 
 1.00011276e-05  7.91547254e-01  1.00011276e-05  7.32944215e-01  1.00011276e-05  2.99700946e-01  1.00011276e-05  0.00000000e+00  1.00011276e-05  1.79127003e+00  1.00011276e-05  5.00000000e-01                                 
 1.00012180e-05  7.91539029e-01  1.00012180e-05  7.32937006e-01  1.00012180e-05  2.73152603e-01  1.00012180e-05  0.00000000e+00  1.00012180e-05  1.80304481e+00  1.00012180e-05  5.00000000e-01                                 
 1.00013743e-05  7.91525274e-01  1.00013743e-05  7.32924977e-01  1.00013743e-05  2.67853139e-01  1.00013743e-05  0.00000000e+00  1.00013743e-05  1.79736420e+00  1.00013743e-05  5.00000000e-01                                 
 1.00015309e-05  7.91511924e-01  1.00015309e-05  7.32913276e-01  1.00015309e-05  2.69691692e-01  1.00015309e-05  0.00000000e+00  1.00015309e-05  1.80162071e+00  1.00015309e-05  5.00000000e-01                                 
 1.00018443e-05  7.91486133e-01  1.00018443e-05  7.32890593e-01  1.00018443e-05  2.70017774e-01  1.00018443e-05  0.00000000e+00  1.00018443e-05  1.79865275e+00  1.00018443e-05  5.00000000e-01                                 
 1.00021546e-05  7.91461533e-01  1.00021546e-05  7.32868879e-01  1.00021546e-05  2.70089691e-01  1.00021546e-05  0.00000000e+00  1.00021546e-05  1.80107637e+00  1.00021546e-05  5.00000000e-01                                 
 1.00027754e-05  7.91414197e-01  1.00027754e-05  7.32826994e-01  1.00027754e-05  2.70389940e-01  1.00027754e-05  0.00000000e+00  1.00027754e-05  1.79903923e+00  1.00027754e-05  5.00000000e-01                                 
 1.00038911e-05  7.91332573e-01  1.00038911e-05  7.32754687e-01  1.00038911e-05  2.71178241e-01  1.00038911e-05  0.00000000e+00  1.00038911e-05  1.80089597e+00  1.00038911e-05  5.00000000e-01                                 
 1.00061225e-05  7.91172384e-01  1.00061225e-05  7.32612914e-01  1.00061225e-05  2.72074112e-01  1.00061225e-05  0.00000000e+00  1.00061225e-05  1.79912997e+00  1.00061225e-05  5.00000000e-01                                 
 1.00105854e-05  7.90849886e-01  1.00105854e-05  7.32327477e-01  1.00105854e-05  2.74671694e-01  1.00105854e-05  0.00000000e+00  1.00105854e-05  1.80085202e+00  1.00105854e-05  5.00000000e-01                                 
 1.00195111e-05  7.90253550e-01  1.00195111e-05  7.31798162e-01  1.00195111e-05  2.80565037e-01  1.00195111e-05  0.00000000e+00  1.00195111e-05  1.79915169e+00  1.00195111e-05  5.00000000e-01                                 
 1.00373625e-05  7.89554518e-01  1.00373625e-05  7.31174657e-01  1.00373625e-05  3.24761343e-01  1.00373625e-05  0.00000000e+00  1.00373625e-05  1.80084134e+00  1.00373625e-05  5.00000000e-01                                 
