 time            v(vbep)         time            v(vben)         time            v(vout)         time            v(vphi1)        time            v(vphi2)        time            v(vref)         yes             currtemp       
 0.00000000e+00  6.38194476e-01  0.00000000e+00  5.74495879e-01  0.00000000e+00  9.84337560e-01  0.00000000e+00  0.00000000e+00  0.00000000e+00  1.79982546e+00  0.00000000e+00  5.74495879e-01  1.00000000e+00  7.40000000e+01 
 5.00000000e-12  6.38098130e-01  5.00000000e-12  5.74421172e-01  5.00000000e-12  9.85074050e-01  5.00000000e-12  1.80000000e-02  5.00000000e-12  1.79996882e+00  5.00000000e-12  5.74421172e-01                                 
 1.00000000e-11  6.38010507e-01  1.00000000e-11  5.74351102e-01  1.00000000e-11  9.85740022e-01  1.00000000e-11  3.60000000e-02  1.00000000e-11  1.80006209e+00  1.00000000e-11  5.74351102e-01                                 
 2.00000000e-11  6.37842723e-01  2.00000000e-11  5.74212412e-01  2.00000000e-11  9.86958639e-01  2.00000000e-11  7.20000000e-02  2.00000000e-11  1.80017743e+00  2.00000000e-11  5.74212412e-01                                 
 4.00000000e-11  6.37521646e-01  4.00000000e-11  5.73937626e-01  4.00000000e-11  9.88870073e-01  4.00000000e-11  1.44000000e-01  4.00000000e-11  1.80019117e+00  4.00000000e-11  5.73937626e-01                                 
 8.00000000e-11  6.36886807e-01  8.00000000e-11  5.73393272e-01  8.00000000e-11  9.91266790e-01  8.00000000e-11  2.88000000e-01  8.00000000e-11  1.80008989e+00  8.00000000e-11  5.73393272e-01                                 
 1.60000000e-10  6.35644321e-01  1.60000000e-10  5.72325318e-01  1.60000000e-10  9.92848993e-01  1.60000000e-10  5.76000000e-01  1.60000000e-10  1.79996963e+00  1.60000000e-10  5.72325318e-01                                 
 3.20000000e-10  6.33258079e-01  3.20000000e-10  5.70267292e-01  3.20000000e-10  9.85651965e-01  3.20000000e-10  1.15200000e+00  3.20000000e-10  1.80026300e+00  3.20000000e-10  5.70267292e-01                                 
 5.00000000e-10  6.30722813e-01  5.00000000e-10  5.68068976e-01  5.00000000e-10  1.10085562e+00  5.00000000e-10  1.80000000e+00  5.00000000e-10  1.76564949e-01  5.00000000e-10  5.68068976e-01                                 
 5.22206165e-10  6.30421789e-01  5.22206165e-10  5.67807103e-01  5.22206165e-10  1.13013553e+00  5.22206165e-10  1.80000000e+00  5.22206165e-10  4.71780713e-02  5.22206165e-10  5.67807103e-01                                 
 5.66618495e-10  6.29823653e-01  5.66618495e-10  5.67286277e-01  5.66618495e-10  1.18876124e+00  5.66618495e-10  1.80000000e+00  5.66618495e-10 -1.64823797e-02  5.66618495e-10  5.67286277e-01                                 
 6.55443155e-10  6.28652087e-01  6.55443155e-10  5.66264315e-01  6.55443155e-10  1.29494763e+00  6.55443155e-10  1.80000000e+00  6.55443155e-10  1.37713278e-02  6.55443155e-10  5.66264315e-01                                 
 7.76715520e-10  6.27103939e-01  7.76715520e-10  5.64909857e-01  7.76715520e-10  1.42067020e+00  7.76715520e-10  1.80000000e+00  7.76715520e-10 -1.00638640e-02  7.76715520e-10  5.64909857e-01                                 
 9.61588089e-10  6.24849907e-01  9.61588089e-10  5.62929813e-01  9.61588089e-10  1.57478987e+00  9.61588089e-10  1.80000000e+00  9.61588089e-10  9.94647588e-03  9.61588089e-10  5.62929813e-01                                 
 1.33133323e-09  6.20681071e-01  1.33133323e-09  5.59243060e-01  1.33133323e-09  1.76443882e+00  1.33133323e-09  1.80000000e+00  1.33133323e-09 -8.57727206e-03  1.33133323e-09  5.59243060e-01                                 
 1.67333585e-09  6.17184568e-01  1.67333585e-09  5.56124485e-01  1.67333585e-09  1.84315412e+00  1.67333585e-09  1.80000000e+00  1.67333585e-09  8.37997663e-03  1.67333585e-09  5.56124485e-01                                 
 2.00958415e-09  6.14032061e-01  2.00958415e-09  5.53292241e-01  2.00958415e-09  1.87376176e+00  2.00958415e-09  1.80000000e+00  2.00958415e-09 -7.63150483e-03  2.00958415e-09  5.53292241e-01                                 
 2.36443355e-09  6.10967699e-01  2.36443355e-09  5.50521046e-01  2.36443355e-09  1.88568189e+00  2.36443355e-09  1.80000000e+00  2.36443355e-09  7.23227672e-03  2.36443355e-09  5.50521046e-01                                 
 2.84446667e-09  6.07184758e-01  2.84446667e-09  5.47076080e-01  2.84446667e-09  1.88830041e+00  2.84446667e-09  1.80000000e+00  2.84446667e-09 -6.83689516e-03  2.84446667e-09  5.47076080e-01                                 
 3.48902291e-09  6.02648515e-01  3.48902291e-09  5.42911326e-01  3.48902291e-09  1.88608484e+00  3.48902291e-09  1.80000000e+00  3.48902291e-09  6.62342913e-03  3.48902291e-09  5.42911326e-01                                 
 4.47648712e-09  5.96639476e-01  4.47648712e-09  5.37340681e-01  4.47648712e-09  1.88007516e+00  4.47648712e-09  1.80000000e+00  4.47648712e-09 -6.44177488e-03  4.47648712e-09  5.37340681e-01                                 
 6.08112496e-09  5.88620171e-01  6.08112496e-09  5.29818351e-01  6.08112496e-09  1.87253399e+00  6.08112496e-09  1.80000000e+00  6.08112496e-09  6.37766869e-03  6.08112496e-09  5.29818351e-01                                 
 9.29040065e-09  5.76550407e-01  9.29040065e-09  5.18333359e-01  9.29040065e-09  1.86057015e+00  9.29040065e-09  1.80000000e+00  9.29040065e-09 -6.29404976e-03  9.29040065e-09  5.18333359e-01                                 
 1.09379930e-08  5.71807084e-01  1.09379930e-08  5.13762183e-01  1.09379930e-08  1.85631061e+00  1.09379930e-08  1.80000000e+00  1.09379930e-08  6.23976194e-03  1.09379930e-08  5.13762183e-01                                 
 1.23881735e-08  5.68136342e-01  1.23881735e-08  5.10208158e-01  1.23881735e-08  1.85249366e+00  1.23881735e-08  1.80000000e+00  1.23881735e-08 -6.10925609e-03  1.23881735e-08  5.10208158e-01                                 
 1.40082417e-08  5.64469732e-01  1.40082417e-08  5.06645355e-01  1.40082417e-08  1.84929336e+00  1.40082417e-08  1.80000000e+00  1.40082417e-08  6.05178945e-03  1.40082417e-08  5.06645355e-01                                 
 1.57447016e-08  5.60950266e-01  1.57447016e-08  5.03214334e-01  1.57447016e-08  1.84563618e+00  1.57447016e-08  1.80000000e+00  1.57447016e-08 -5.94239402e-03  1.57447016e-08  5.03214334e-01                                 
 1.74854065e-08  5.57768952e-01  1.74854065e-08  5.00104299e-01  1.74854065e-08  1.84290440e+00  1.74854065e-08  1.80000000e+00  1.74854065e-08  5.89202701e-03  1.74854065e-08  5.00104299e-01                                 
 1.96913361e-08  5.54138958e-01  1.96913361e-08  4.96546418e-01  1.96913361e-08  1.83915560e+00  1.96913361e-08  1.80000000e+00  1.96913361e-08 -5.80179091e-03  1.96913361e-08  4.96546418e-01                                 
 2.27205125e-08  5.49734883e-01  2.27205125e-08  4.92217899e-01  2.27205125e-08  1.83526250e+00  2.27205125e-08  1.80000000e+00  2.27205125e-08  5.78636896e-03  2.27205125e-08  4.92217899e-01                                 
 2.64300118e-08  5.45051991e-01  2.64300118e-08  4.87602168e-01  2.64300118e-08  1.83052644e+00  2.64300118e-08  1.80000000e+00  2.64300118e-08 -5.72089487e-03  2.64300118e-08  4.87602168e-01                                 
 3.28343680e-08  5.38273537e-01  3.28343680e-08  4.80900260e-01  3.28343680e-08  1.82438426e+00  3.28343680e-08  1.80000000e+00  3.28343680e-08  5.73049399e-03  3.28343680e-08  4.80900260e-01                                 
 4.12761128e-08  5.31101090e-01  4.12761128e-08  4.73783383e-01  4.12761128e-08  1.81733377e+00  4.12761128e-08  1.80000000e+00  4.12761128e-08 -5.68369981e-03  4.12761128e-08  4.73783383e-01                                 
 5.81596026e-08  5.20358263e-01  5.81596026e-08  4.63059008e-01  5.81596026e-08  1.80785539e+00  5.81596026e-08  1.80000000e+00  5.81596026e-08  5.70811536e-03  5.81596026e-08  4.63059008e-01                                 
 9.19265821e-08  5.06490401e-01  9.19265821e-08  4.49026206e-01  9.19265821e-08  1.79681999e+00  9.19265821e-08  1.80000000e+00  9.19265821e-08 -5.67098259e-03  9.19265821e-08  4.49026206e-01                                 
 1.19846590e-07  4.98973389e-01  1.19846590e-07  4.41332182e-01  1.19846590e-07  1.79209037e+00  1.19846590e-07  1.80000000e+00  1.19846590e-07  5.70025095e-03  1.19846590e-07  4.41332182e-01                                 
 1.49563064e-07  4.92267109e-01  1.49563064e-07  4.34562772e-01  1.49563064e-07  1.78361830e+00  1.49563064e-07  1.80000000e+00  1.49563064e-07 -5.66195522e-03  1.49563064e-07  4.34562772e-01                                 
 1.80265931e-07  4.84452315e-01  1.80265931e-07  4.27143282e-01  1.80265931e-07  1.76329708e+00  1.80265931e-07  1.80000000e+00  1.80265931e-07  5.69106623e-03  1.80265931e-07  4.27143282e-01                                 
 2.09025367e-07  4.71144297e-01  2.09025367e-07  4.15644558e-01  2.09025367e-07  1.73226180e+00  2.09025367e-07  1.80000000e+00  2.09025367e-07 -5.65438459e-03  2.09025367e-07  4.15644558e-01                                 
 2.36372812e-07  4.60866839e-01  2.36372812e-07  4.06724274e-01  2.36372812e-07  1.68378375e+00  2.36372812e-07  1.80000000e+00  2.36372812e-07  5.68117745e-03  2.36372812e-07  4.06724274e-01                                 
 2.64617799e-07  4.58210904e-01  2.64617799e-07  4.03907574e-01  2.64617799e-07  1.65584125e+00  2.64617799e-07  1.80000000e+00  2.64617799e-07 -5.64327022e-03  2.64617799e-07  4.03907574e-01                                 
 2.90625922e-07  4.61388243e-01  2.90625922e-07  4.05813173e-01  2.90625922e-07  1.64243509e+00  2.90625922e-07  1.80000000e+00  2.90625922e-07  5.67284473e-03  2.90625922e-07  4.05813173e-01                                 
 3.09855272e-07  4.60952200e-01  3.09855272e-07  4.05039520e-01  3.09855272e-07  1.62170162e+00  3.09855272e-07  1.80000000e+00  3.09855272e-07 -5.63285804e-03  3.09855272e-07  4.05039520e-01                                 
 3.32931146e-07  4.58595915e-01  3.32931146e-07  4.02690684e-01  3.32931146e-07  1.59619212e+00  3.32931146e-07  1.80000000e+00  3.32931146e-07  5.66035213e-03  3.32931146e-07  4.02690684e-01                                 
 3.60939887e-07  4.56361832e-01  3.60939887e-07  4.00377210e-01  3.60939887e-07  1.56454161e+00  3.60939887e-07  1.80000000e+00  3.60939887e-07 -5.62276678e-03  3.60939887e-07  4.00377210e-01                                 
 3.90866881e-07  4.51007750e-01  3.90866881e-07  3.95600518e-01  3.90866881e-07  1.52929643e+00  3.90866881e-07  1.80000000e+00  3.90866881e-07  5.65117425e-03  3.90866881e-07  3.95600518e-01                                 
 4.48962025e-07  4.38008480e-01  4.48962025e-07  3.84392291e-01  4.48962025e-07  1.45533023e+00  4.48962025e-07  1.80000000e+00  4.48962025e-07 -5.61658432e-03  4.48962025e-07  3.84392291e-01                                 
 5.06735424e-07  4.25076076e-01  5.06735424e-07  3.73396620e-01  5.06735424e-07  1.38292153e+00  5.06735424e-07  1.80000000e+00  5.06735424e-07  5.64682692e-03  5.06735424e-07  3.73396620e-01                                 
 6.08562163e-07  4.03559278e-01  6.08562163e-07  3.55319667e-01  6.08562163e-07  1.25356812e+00  6.08562163e-07  1.80000000e+00  6.08562163e-07 -5.61312878e-03  6.08562163e-07  3.55319667e-01                                 
 6.27450464e-07  3.96472615e-01  6.27450464e-07  3.49547475e-01  6.27450464e-07  1.22731024e+00  6.27450464e-07  1.80000000e+00  6.27450464e-07  3.14388600e-06  6.27450464e-07  3.49547475e-01                                 
 6.65227065e-07  3.82698190e-01  6.65227065e-07  3.38339073e-01  6.65227065e-07  1.17425677e+00  6.65227065e-07  1.80000000e+00  6.65227065e-07  6.37325463e-06  6.65227065e-07  3.38339073e-01                                 
 7.40780269e-07  3.54428479e-01  7.40780269e-07  3.15451171e-01  7.40780269e-07  1.07083484e+00  7.40780269e-07  1.80000000e+00  7.40780269e-07  3.20672661e-06  7.40780269e-07  3.15451171e-01                                 
 8.41463048e-07  3.89667407e-01  8.41463048e-07  3.43596812e-01  8.41463048e-07  1.01358228e+00  8.41463048e-07  1.80000000e+00  8.41463048e-07  9.28321698e-06  8.41463048e-07  3.43596812e-01                                 
 8.58330963e-07  4.38426894e-01  8.58330963e-07  3.82598090e-01  8.58330963e-07  1.04397879e+00  8.58330963e-07  1.80000000e+00  8.58330963e-07  1.11328155e-05  8.58330963e-07  3.82598090e-01                                 
 8.92066794e-07  6.09469973e-01  8.92066794e-07  5.39506947e-01  8.92066794e-07  1.17352791e+00  8.92066794e-07  1.80000000e+00  8.92066794e-07  2.28857031e-05  8.92066794e-07  5.39506947e-01                                 
 9.00500752e-07  6.39778323e-01  9.00500752e-07  5.72939705e-01  9.00500752e-07  1.19460123e+00  9.00500752e-07  1.80000000e+00  9.00500752e-07  1.55626086e-05  9.00500752e-07  5.72939705e-01                                 
 9.17368668e-07  6.78411134e-01  9.17368668e-07  6.12036713e-01  9.17368668e-07  1.21453904e+00  9.17368668e-07  1.80000000e+00  9.17368668e-07  7.96414127e-06  9.17368668e-07  6.12036713e-01                                 
 9.51104499e-07  7.28327747e-01  9.51104499e-07  6.56118174e-01  9.51104499e-07  1.22603092e+00  9.51104499e-07  1.80000000e+00  9.51104499e-07  1.06920339e-05  9.51104499e-07  6.56118174e-01                                 
 9.87085181e-07  7.44418382e-01  9.87085181e-07  6.69096078e-01  9.87085181e-07  1.20413916e+00  9.87085181e-07  1.80000000e+00  9.87085181e-07  2.56643242e-06  9.87085181e-07  6.69096078e-01                                 
 1.02240065e-06  7.44401087e-01  1.02240065e-06  6.69037771e-01  1.02240065e-06  1.16627506e+00  1.02240065e-06  1.80000000e+00  1.02240065e-06  8.33749075e-06  1.02240065e-06  6.69037771e-01                                 
 1.06236870e-06  7.44495881e-01  1.06236870e-06  6.69153437e-01  1.06236870e-06  1.12551132e+00  1.06236870e-06  1.80000000e+00  1.06236870e-06  2.68183272e-06  1.06236870e-06  6.69153437e-01                                 
 1.10301118e-06  7.29993816e-01  1.10301118e-06  6.57594615e-01  1.10301118e-06  1.07093945e+00  1.10301118e-06  1.80000000e+00  1.10301118e-06  6.54303356e-06  1.10301118e-06  6.57594615e-01                                 
 1.10975594e-06  7.23980267e-01  1.10975594e-06  6.52660303e-01  1.10975594e-06  1.05918797e+00  1.10975594e-06  1.80000000e+00  1.10975594e-06  3.33866304e-06  1.10975594e-06  6.52660303e-01                                 
 1.12324546e-06  7.12117571e-01  1.12324546e-06  6.42582080e-01  1.12324546e-06  1.03564780e+00  1.12324546e-06  1.80000000e+00  1.12324546e-06  3.30420564e-06  1.12324546e-06  6.42582080e-01                                 
 1.15022449e-06  6.96927332e-01  1.15022449e-06  6.29122954e-01  1.15022449e-06  9.98389694e-01  1.15022449e-06  1.80000000e+00  1.15022449e-06  5.01382494e-06  1.15022449e-06  6.29122954e-01                                 
 1.19525714e-06  6.99707241e-01  1.19525714e-06  6.31588018e-01  1.19525714e-06  9.66613318e-01  1.19525714e-06  1.80000000e+00  1.19525714e-06  6.65841048e-06  1.19525714e-06  6.31588018e-01                                 
 1.24146896e-06  7.17160693e-01  1.24146896e-06  6.46846227e-01  1.24146896e-06  9.49714552e-01  1.24146896e-06  1.80000000e+00  1.24146896e-06  6.69485708e-06  1.24146896e-06  6.46846227e-01                                 
 1.30402754e-06  7.22445419e-01  1.30402754e-06  6.51341805e-01  1.30402754e-06  9.12822748e-01  1.30402754e-06  1.80000000e+00  1.30402754e-06  5.22212606e-06  1.30402754e-06  6.51341805e-01                                 
 1.37165548e-06  7.10147379e-01  1.37165548e-06  6.40835747e-01  1.37165548e-06  8.59306898e-01  1.37165548e-06  1.80000000e+00  1.37165548e-06  5.42148660e-06  1.37165548e-06  6.40835747e-01                                 
 1.45643757e-06  7.11303506e-01  1.45643757e-06  6.41822860e-01  1.45643757e-06  8.09526698e-01  1.45643757e-06  1.80000000e+00  1.45643757e-06  6.25796337e-06  1.45643757e-06  6.41822860e-01                                 
 1.54462822e-06  7.20157248e-01  1.54462822e-06  6.49405950e-01  1.54462822e-06  7.66638483e-01  1.54462822e-06  1.80000000e+00  1.54462822e-06  5.90250827e-06  1.54462822e-06  6.49405950e-01                                 
 1.67385248e-06  7.09835042e-01  1.67385248e-06  6.40566386e-01  1.67385248e-06  6.92939221e-01  1.67385248e-06  1.80000000e+00  1.67385248e-06  5.49201310e-06  1.67385248e-06  6.40566386e-01                                 
 1.80715150e-06  7.15698291e-01  1.80715150e-06  6.45604331e-01  1.80715150e-06  6.57415944e-01  1.80715150e-06  1.80000000e+00  1.80715150e-06  6.70386583e-06  1.80715150e-06  6.45604331e-01                                 
 1.95236759e-06  7.15774633e-01  1.95236759e-06  6.45697444e-01  1.95236759e-06  6.37372410e-01  1.95236759e-06  1.80000000e+00  1.95236759e-06  5.43327232e-06  1.95236759e-06  6.45697444e-01                                 
 2.13150425e-06  7.11777287e-01  2.13150425e-06  6.42230613e-01  2.13150425e-06  6.34213258e-01  2.13150425e-06  1.80000000e+00  2.13150425e-06  6.70954109e-06  2.13150425e-06  6.42230613e-01                                 
 2.15764300e-06  7.14213865e-01  2.15764300e-06  6.44340233e-01  2.15764300e-06  6.39427454e-01  2.15764300e-06  1.80000000e+00  2.15764300e-06  6.39375949e-06  2.15764300e-06  6.44340233e-01                                 
 2.20992049e-06  7.16200937e-01  2.20992049e-06  6.46048902e-01  2.20992049e-06  6.45234253e-01  2.20992049e-06  1.80000000e+00  2.20992049e-06  6.09490538e-06  2.20992049e-06  6.46048902e-01                                 
 2.31447548e-06  7.13497801e-01  2.31447548e-06  6.43730733e-01  2.31447548e-06  6.44036067e-01  2.31447548e-06  1.80000000e+00  2.31447548e-06  6.03645773e-06  2.31447548e-06  6.43730733e-01                                 
 2.49526296e-06  7.14716859e-01  2.49526296e-06  6.44774631e-01  2.49526296e-06  6.44868302e-01  2.49526296e-06  1.80000000e+00  2.49526296e-06  6.24084313e-06  2.49526296e-06  6.44774631e-01                                 
 2.68270024e-06  7.14820203e-01  2.68270024e-06  6.44868353e-01  2.68270024e-06  6.45155335e-01  2.68270024e-06  1.80000000e+00  2.68270024e-06  6.00867329e-06  2.68270024e-06  6.44868353e-01                                 
 3.05757481e-06  7.13875062e-01  3.05757481e-06  6.44051477e-01  3.05757481e-06  6.44104804e-01  3.05757481e-06  1.80000000e+00  3.05757481e-06  6.22503395e-06  3.05757481e-06  6.44051477e-01                                 
 3.65221224e-06  7.15166126e-01  3.65221224e-06  6.45164558e-01  3.65221224e-06  6.45478124e-01  3.65221224e-06  1.80000000e+00  3.65221224e-06  6.03172575e-06  3.65221224e-06  6.45164558e-01                                 
 4.56088487e-06  7.13688351e-01  4.56088487e-06  6.43891202e-01  4.56088487e-06  6.43930229e-01  4.56088487e-06  1.80000000e+00  4.56088487e-06  6.20647122e-06  4.56088487e-06  6.43891202e-01                                 
 5.56088487e-06  7.15278977e-01  5.56088487e-06  6.45260941e-01  5.56088487e-06  6.45583307e-01  5.56088487e-06  1.80000000e+00  5.56088487e-06  6.04741772e-06  5.56088487e-06  6.45260941e-01                                 
 6.56088487e-06  7.13597564e-01  6.56088487e-06  6.43813347e-01  6.56088487e-06  6.43845632e-01  6.56088487e-06  1.80000000e+00  6.56088487e-06  6.19052910e-06  6.56088487e-06  6.43813347e-01                                 
 7.56088487e-06  7.15349212e-01  7.56088487e-06  6.45320776e-01  7.56088487e-06  6.45648228e-01  7.56088487e-06  1.80000000e+00  7.56088487e-06  6.06413011e-06  7.56088487e-06  6.45320776e-01                                 
 8.56088487e-06  7.13542970e-01  8.56088487e-06  6.43766716e-01  8.56088487e-06  6.43795660e-01  8.56088487e-06  1.80000000e+00  8.56088487e-06  6.17322112e-06  8.56088487e-06  6.43766716e-01                                 
