 time            v(vbep)         time            v(vben)         time            v(vout)         time            v(vphi1)        time            v(vphi2)        time            v(vref)         time            v(voutc)        time            v(voutcc)       yes             currtemp       
 0.00000000e+00  7.87151167e-01  0.00000000e+00  7.28599699e-01  0.00000000e+00  1.62153175e+00  0.00000000e+00  0.00000000e+00  0.00000000e+00  1.80000000e+00  0.00000000e+00  7.31327335e-01  0.00000000e+00  1.62153174e+00  0.00000000e+00  1.62777484e+00  1.00000000e+00  2.40000000e+01 
 5.00000000e-12  7.87172834e-01  5.00000000e-12  7.28654063e-01  5.00000000e-12  1.62216579e+00  5.00000000e-12  1.80000000e-02  5.00000000e-12  1.80018402e+00  5.00000000e-12  7.31720933e-01  5.00000000e-12  1.62188078e+00  5.00000000e-12  1.62778780e+00                                 
 1.00000000e-11  7.87182364e-01  1.00000000e-11  7.28690107e-01  1.00000000e-11  1.62263240e+00  1.00000000e-11  3.60000000e-02  1.00000000e-11  1.80026809e+00  1.00000000e-11  7.32031359e-01  1.00000000e-11  1.62215781e+00  1.00000000e-11  1.62779482e+00                                 
 2.00000000e-11  7.87188638e-01  2.00000000e-11  7.28740397e-01  2.00000000e-11  1.62331831e+00  2.00000000e-11  7.20000000e-02  2.00000000e-11  1.80032275e+00  2.00000000e-11  7.32517680e-01  2.00000000e-11  1.62259617e+00  2.00000000e-11  1.62780163e+00                                 
 4.00000000e-11  7.87176284e-01  4.00000000e-11  7.28777275e-01  4.00000000e-11  1.62381508e+00  4.00000000e-11  1.44000000e-01  4.00000000e-11  1.80019541e+00  4.00000000e-11  7.32986795e-01  4.00000000e-11  1.62303878e+00  4.00000000e-11  1.62779597e+00                                 
 8.00000000e-11  7.87162324e-01  8.00000000e-11  7.28781623e-01  8.00000000e-11  1.62372316e+00  8.00000000e-11  2.88000000e-01  8.00000000e-11  1.80002952e+00  8.00000000e-11  7.33112588e-01  8.00000000e-11  1.62320821e+00  8.00000000e-11  1.62778030e+00                                 
 1.60000000e-10  7.87163316e-01  1.60000000e-10  7.28769693e-01  1.60000000e-10  1.62325462e+00  1.60000000e-10  5.76000000e-01  1.60000000e-10  1.80001261e+00  1.60000000e-10  7.32911806e-01  1.60000000e-10  1.62309739e+00  1.60000000e-10  1.62777483e+00                                 
 3.20000000e-10  7.87098937e-01  3.20000000e-10  7.28326593e-01  3.20000000e-10  1.61910858e+00  3.20000000e-10  1.15200000e+00  3.20000000e-10  1.80070476e+00  3.20000000e-10  7.29053479e-01  3.20000000e-10  1.61992468e+00  3.20000000e-10  1.62774332e+00                                 
 5.00000000e-10  7.87212768e-01  5.00000000e-10  7.28757073e-01  5.00000000e-10  1.61370166e+00  5.00000000e-10  1.80000000e+00  5.00000000e-10  1.48073167e-01  5.00000000e-10  7.34099009e-01  5.00000000e-10  1.62401832e+00  5.00000000e-10  1.62782317e+00                                 
 5.20727196e-10  7.87206760e-01  5.20727196e-10  7.28801663e-01  5.20727196e-10  1.61311960e+00  5.20727196e-10  1.80000000e+00  5.20727196e-10  3.78951147e-02  5.20727196e-10  7.35567506e-01  5.20727196e-10  1.62486439e+00  5.20727196e-10  1.62781787e+00                                 
 5.62181588e-10  7.87258158e-01  5.62181588e-10  7.28884207e-01  5.62181588e-10  1.61274651e+00  5.62181588e-10  1.80000000e+00  5.62181588e-10 -1.40425124e-02  5.62181588e-10  7.37542951e-01  5.62181588e-10  1.62659976e+00  5.62181588e-10  1.62781715e+00                                 
 6.45090371e-10  7.87335792e-01  6.45090371e-10  7.28723387e-01  6.45090371e-10  1.61031261e+00  6.45090371e-10  1.80000000e+00  6.45090371e-10  1.12989105e-02  6.45090371e-10  7.36519176e-01  6.45090371e-10  1.62591110e+00  6.45090371e-10  1.62776050e+00                                 
 7.63501819e-10  7.87353865e-01  7.63501819e-10  7.28697714e-01  7.63501819e-10  1.60940298e+00  7.63501819e-10  1.80000000e+00  7.63501819e-10 -8.91237786e-03  7.63501819e-10  7.37426072e-01  7.63501819e-10  1.62654328e+00  7.63501819e-10  1.62779456e+00                                 
 9.39944120e-10  7.87413464e-01  9.39944120e-10  7.28665695e-01  9.39944120e-10  1.60850664e+00  9.39944120e-10  1.80000000e+00  9.39944120e-10  8.33196579e-03  9.39944120e-10  7.38118481e-01  9.39944120e-10  1.62728966e+00  9.39944120e-10  1.62776602e+00                                 
 1.29282872e-09  7.87427482e-01  1.29282872e-09  7.28593587e-01  1.29282872e-09  1.60571510e+00  1.29282872e-09  1.80000000e+00  1.29282872e-09 -7.56337605e-03  1.29282872e-09  7.38016213e-01  1.29282872e-09  1.62707652e+00  1.29282872e-09  1.62778196e+00                                 
 1.78687094e-09  7.87375740e-01  1.78687094e-09  7.28603292e-01  1.78687094e-09  1.60419681e+00  1.78687094e-09  1.80000000e+00  1.78687094e-09  7.35913156e-03  1.78687094e-09  7.37962447e-01  1.78687094e-09  1.62715211e+00  1.78687094e-09  1.62779983e+00                                 
 2.40855966e-09  7.87243270e-01  2.40855966e-09  7.28568925e-01  2.40855966e-09  1.60291370e+00  2.40855966e-09  1.80000000e+00  2.40855966e-09 -7.08441814e-03  2.40855966e-09  7.36889412e-01  2.40855966e-09  1.62609817e+00  2.40855966e-09  1.62786135e+00                                 
 2.97048633e-09  7.87186437e-01  2.97048633e-09  7.28598708e-01  2.97048633e-09  1.60242835e+00  2.97048633e-09  1.80000000e+00  2.97048633e-09  6.83126812e-03  2.97048633e-09  7.36668773e-01  2.97048633e-09  1.62601704e+00  2.97048633e-09  1.62791590e+00                                 
 3.85740667e-09  7.87126191e-01  3.85740667e-09  7.28570025e-01  3.85740667e-09  1.60052315e+00  3.85740667e-09  1.80000000e+00  3.85740667e-09 -6.66517209e-03  3.85740667e-09  7.35346811e-01  3.85740667e-09  1.62475227e+00  3.85740667e-09  1.62800901e+00                                 
 5.42379986e-09  7.87117952e-01  5.42379986e-09  7.28603933e-01  5.42379986e-09  1.59764419e+00  5.42379986e-09  1.80000000e+00  5.42379986e-09  6.58134138e-03  5.42379986e-09  7.34319077e-01  5.42379986e-09  1.62396152e+00  5.42379986e-09  1.62814888e+00                                 
 8.55658623e-09  7.87108845e-01  8.55658623e-09  7.28580972e-01  8.55658623e-09  1.59003750e+00  8.55658623e-09  1.80000000e+00  8.55658623e-09 -6.52995462e-03  8.55658623e-09  7.31915956e-01  8.55658623e-09  1.62176043e+00  8.55658623e-09  1.62830605e+00                                 
 1.26113869e-08  7.87127629e-01  1.26113869e-08  7.28614584e-01  1.26113869e-08  1.57968799e+00  1.26113869e-08  1.80000000e+00  1.26113869e-08  6.50803031e-03  1.26113869e-08  7.31047297e-01  1.26113869e-08  1.62111152e+00  1.26113869e-08  1.62831120e+00                                 
 1.57588903e-08  7.87119308e-01  1.57588903e-08  7.28584704e-01  1.57588903e-08  1.57042393e+00  1.57588903e-08  1.80000000e+00  1.57588903e-08 -6.44749706e-03  1.57588903e-08  7.30272730e-01  1.57588903e-08  1.62032955e+00  1.57588903e-08  1.62822625e+00                                 
 1.93927446e-08  7.87137289e-01  1.93927446e-08  7.28614754e-01  1.93927446e-08  1.55977043e+00  1.93927446e-08  1.80000000e+00  1.93927446e-08  6.43281607e-03  1.93927446e-08  7.30553763e-01  1.93927446e-08  1.62067500e+00  1.93927446e-08  1.62810410e+00                                 
 2.32661896e-08  7.87135445e-01  2.32661896e-08  7.28584738e-01  2.32661896e-08  1.54674055e+00  2.32661896e-08  1.80000000e+00  2.32661896e-08 -6.37381665e-03  2.32661896e-08  7.30181586e-01  2.32661896e-08  1.62024042e+00  2.32661896e-08  1.62797037e+00                                 
 2.89991135e-08  7.87154313e-01  2.89991135e-08  7.28614914e-01  2.89991135e-08  1.52705841e+00  2.89991135e-08  1.80000000e+00  2.89991135e-08  6.37700205e-03  2.89991135e-08  7.30741511e-01  2.89991135e-08  1.62082482e+00  2.89991135e-08  1.62780410e+00                                 
 3.56176681e-08  7.87148701e-01  3.56176681e-08  7.28584784e-01  3.56176681e-08  1.50246869e+00  3.56176681e-08  1.80000000e+00  3.56176681e-08 -6.33013518e-03  3.56176681e-08  7.30531861e-01  3.56176681e-08  1.62053191e+00  3.56176681e-08  1.62765709e+00                                 
 4.59113753e-08  7.87159476e-01  4.59113753e-08  7.28614848e-01  4.59113753e-08  1.46420517e+00  4.59113753e-08  1.80000000e+00  4.59113753e-08  6.34468063e-03  4.59113753e-08  7.31171700e-01  4.59113753e-08  1.62118761e+00  4.59113753e-08  1.62752138e+00                                 
 5.97232743e-08  7.87148378e-01  5.97232743e-08  7.28584657e-01  5.97232743e-08  1.41156775e+00  5.97232743e-08  1.80000000e+00  5.97232743e-08 -6.30789405e-03  5.97232743e-08  7.30949115e-01  5.97232743e-08  1.62088787e+00  5.97232743e-08  1.62744045e+00                                 
 8.44906223e-08  7.87156755e-01  8.44906223e-08  7.28614767e-01  8.44906223e-08  1.31815108e+00  8.44906223e-08  1.80000000e+00  8.44906223e-08  6.32987869e-03  8.44906223e-08  7.31488371e-01  8.44906223e-08  1.62146136e+00  8.44906223e-08  1.62742717e+00                                 
 1.23616840e-07  7.87146342e-01  1.23616840e-07  7.28584617e-01  1.23616840e-07  1.17074797e+00  1.23616840e-07  1.80000000e+00  1.23616840e-07 -6.29922645e-03  1.23616840e-07  7.31123855e-01  1.23616840e-07  1.62104134e+00  1.23616840e-07  1.62746993e+00                                 
 2.01869274e-07  7.87156000e-01  2.01869274e-07  7.28614757e-01  2.01869274e-07  8.87150402e-01  2.01869274e-07  1.80000000e+00  2.01869274e-07  6.32522325e-03  2.01869274e-07  7.31529293e-01  2.01869274e-07  1.62149554e+00  2.01869274e-07  1.62751369e+00                                 
 2.86914277e-07  7.87146586e-01  2.86914277e-07  7.28584630e-01  2.86914277e-07  7.31511154e-01  2.86914277e-07  1.80000000e+00  2.86914277e-07 -6.29409524e-03  2.86914277e-07  7.31124560e-01  2.86914277e-07  1.62103584e+00  2.86914277e-07  1.62750811e+00                                 
 3.70488118e-07  7.87155621e-01  3.70488118e-07  7.28614771e-01  3.70488118e-07  7.34413005e-01  3.70488118e-07  1.80000000e+00  3.70488118e-07  6.32367766e-03  3.70488118e-07  7.31532671e-01  3.70488118e-07  1.62149145e+00  3.70488118e-07  1.62750857e+00                                 
 4.19198873e-07  7.87146220e-01  4.19198873e-07  7.28584534e-01  4.19198873e-07  7.34777386e-01  4.19198873e-07  1.80000000e+00  4.19198873e-07 -6.29011780e-03  4.19198873e-07  7.31121435e-01  4.19198873e-07  1.62102796e+00  4.19198873e-07  1.62750326e+00                                 
 4.66339870e-07  7.87156534e-01  4.66339870e-07  7.28614912e-01  4.66339870e-07  7.33657904e-01  4.66339870e-07  1.80000000e+00  4.66339870e-07  6.31844189e-03  4.66339870e-07  7.31532261e-01  4.66339870e-07  1.62148718e+00  4.66339870e-07  1.62750332e+00                                 
 5.18887842e-07  7.87145654e-01  5.18887842e-07  7.28584431e-01  5.18887842e-07  7.34327822e-01  5.18887842e-07  1.80000000e+00  5.18887842e-07 -6.28503088e-03  5.18887842e-07  7.31122837e-01  5.18887842e-07  1.62102528e+00  5.18887842e-07  1.62749922e+00                                 
 5.72931095e-07  7.87156703e-01  5.72931095e-07  7.28614970e-01  5.72931095e-07  7.34023992e-01  5.72931095e-07  1.80000000e+00  5.72931095e-07  6.31367609e-03  5.72931095e-07  7.31531373e-01  5.72931095e-07  1.62148216e+00  5.72931095e-07  1.62749934e+00                                 
 6.45242981e-07  7.87145654e-01  6.45242981e-07  7.28584400e-01  6.45242981e-07  7.34117234e-01  6.45242981e-07  1.80000000e+00  6.45242981e-07 -6.28092905e-03  6.45242981e-07  7.31123316e-01  6.45242981e-07  1.62102073e+00  6.45242981e-07  1.62749409e+00                                 
 7.45919345e-07  7.87156652e-01  7.45919345e-07  7.28614983e-01  7.45919345e-07  7.34121348e-01  7.45919345e-07  1.80000000e+00  7.45919345e-07  6.31064612e-03  7.45919345e-07  7.31531144e-01  7.45919345e-07  1.62147509e+00  7.45919345e-07  1.62749257e+00                                 
 9.00976284e-07  7.87145702e-01  9.00976284e-07  7.28584394e-01  9.00976284e-07  7.34067699e-01  9.00976284e-07  1.80000000e+00  9.00976284e-07 -6.27882572e-03  9.00976284e-07  7.31123434e-01  9.00976284e-07  1.62101072e+00  9.00976284e-07  1.62748395e+00                                 
 1.21109016e-06  7.87156620e-01  1.21109016e-06  7.28614987e-01  1.21109016e-06  7.34144785e-01  1.21109016e-06  1.80000000e+00  1.21109016e-06  6.30938248e-03  1.21109016e-06  7.31531086e-01  1.21109016e-06  1.62145662e+00  1.21109016e-06  1.62747421e+00                                 
 1.83131792e-06  7.87145720e-01  1.83131792e-06  7.28584393e-01  1.83131792e-06  7.34057182e-01  1.83131792e-06  1.80000000e+00  1.83131792e-06 -6.27807216e-03  1.83131792e-06  7.31123460e-01  1.83131792e-06  1.62097392e+00  1.83131792e-06  1.62744717e+00                                 
 2.83131792e-06  7.87156610e-01  2.83131792e-06  7.28614987e-01  2.83131792e-06  7.34150054e-01  2.83131792e-06  1.80000000e+00  2.83131792e-06  6.30907532e-03  2.83131792e-06  7.31531073e-01  2.83131792e-06  1.62139247e+00  2.83131792e-06  1.62741019e+00                                 
 3.83131792e-06  7.87145727e-01  3.83131792e-06  7.28584392e-01  3.83131792e-06  7.34053262e-01  3.83131792e-06  1.80000000e+00  3.83131792e-06 -6.27805689e-03  3.83131792e-06  7.31123470e-01  3.83131792e-06  1.62089479e+00  3.83131792e-06  1.62736817e+00                                 
 4.83131792e-06  7.87156603e-01  4.83131792e-06  7.28614987e-01  4.83131792e-06  7.34153828e-01  4.83131792e-06  1.80000000e+00  4.83131792e-06  6.30884106e-03  4.83131792e-06  7.31531063e-01  4.83131792e-06  1.62131333e+00  4.83131792e-06  1.62733120e+00                                 
 5.83131792e-06  7.87145734e-01  5.83131792e-06  7.28584392e-01  5.83131792e-06  7.34049554e-01  5.83131792e-06  1.80000000e+00  5.83131792e-06 -6.27780530e-03  5.83131792e-06  7.31123479e-01  5.83131792e-06  1.62081566e+00  5.83131792e-06  1.62728916e+00                                 
 6.83131792e-06  7.87156596e-01  6.83131792e-06  7.28614988e-01  6.83131792e-06  7.34157388e-01  6.83131792e-06  1.80000000e+00  6.83131792e-06  6.30858691e-03  6.83131792e-06  7.31531054e-01  6.83131792e-06  1.62123418e+00  6.83131792e-06  1.62725220e+00                                 
 7.83131792e-06  7.87145741e-01  7.83131792e-06  7.28584392e-01  7.83131792e-06  7.34046053e-01  7.83131792e-06  1.80000000e+00  7.83131792e-06 -6.27755372e-03  7.83131792e-06  7.31123489e-01  7.83131792e-06  1.62073652e+00  7.83131792e-06  1.62721016e+00                                 
 8.83131792e-06  7.87156589e-01  8.83131792e-06  7.28614988e-01  8.83131792e-06  7.34160751e-01  8.83131792e-06  1.80000000e+00  8.83131792e-06  6.30833277e-03  8.83131792e-06  7.31531045e-01  8.83131792e-06  1.62115504e+00  8.83131792e-06  1.62717321e+00                                 
 9.83131792e-06  7.87145748e-01  9.83131792e-06  7.28584391e-01  9.83131792e-06  7.34042745e-01  9.83131792e-06  1.80000000e+00  9.83131792e-06 -6.27730214e-03  9.83131792e-06  7.31123497e-01  9.83131792e-06  1.62065742e+00  9.83131792e-06  1.62713119e+00                                 
 1.00005000e-05  7.87156563e-01  1.00005000e-05  7.28614989e-01  1.00005000e-05  7.34171044e-01  1.00005000e-05  1.80000000e+00  1.00005000e-05  6.30746041e-03  1.00005000e-05  7.31531018e-01  1.00005000e-05  1.62110877e+00  1.00005000e-05  1.62712706e+00                                 
 1.00005500e-05  7.87119363e-01  1.00005500e-05  7.28408948e-01  1.00005500e-05  7.32225478e-01  1.00005500e-05  1.62000000e+00  1.00005500e-05  4.90072324e-04  1.00005500e-05  7.29768960e-01  1.00005500e-05  1.61952272e+00  1.00005500e-05  1.62710536e+00                                 
 1.00006500e-05  7.87144617e-01  1.00006500e-05  7.28398671e-01  1.00006500e-05  7.32384263e-01  1.00006500e-05  1.26000000e+00  1.00006500e-05 -4.41895070e-04  1.00006500e-05  7.29542936e-01  1.00006500e-05  1.61931843e+00  1.00006500e-05  1.62712933e+00                                 
 1.00008500e-05  7.87180973e-01  1.00008500e-05  7.28639328e-01  1.00008500e-05  7.34919763e-01  1.00008500e-05  5.40000000e-01  1.00008500e-05 -1.57984949e-03  1.00008500e-05  7.31269997e-01  1.00008500e-05  1.62001514e+00  1.00008500e-05  1.62712751e+00                                 
 1.00010000e-05  7.87142006e-01  1.00010000e-05  7.27462825e-01  1.00010000e-05  7.55606111e-01  1.00010000e-05  0.00000000e+00  1.00010000e-05  1.49233776e+00  1.00010000e-05  7.17279004e-01  1.00010000e-05  1.55868366e+00  1.00010000e-05  1.62655854e+00                                 
 1.00010261e-05  7.87159039e-01  1.00010261e-05  7.27169031e-01  1.00010261e-05  7.62240787e-01  1.00010261e-05  0.00000000e+00  1.00010261e-05  1.68479596e+00  1.00010261e-05  7.13609987e-01  1.00010261e-05  1.53281543e+00  1.00010261e-05  1.62642235e+00                                 
 1.00010784e-05  7.87154595e-01  1.00010784e-05  7.26616218e-01  1.00010784e-05  7.68070911e-01  1.00010784e-05  0.00000000e+00  1.00010784e-05  1.82317459e+00  1.00010784e-05  7.07133139e-01  1.00010784e-05  1.47555408e+00  1.00010784e-05  1.62631585e+00                                 
 1.00011828e-05  7.87147704e-01  1.00011828e-05  7.26550064e-01  1.00011828e-05  7.60600643e-01  1.00011828e-05  0.00000000e+00  1.00011828e-05  1.78570707e+00  1.00011828e-05  7.07222145e-01  1.00011828e-05  1.37574806e+00  1.00011828e-05  1.62682525e+00                                 
 1.00013159e-05  7.87155948e-01  1.00013159e-05  7.26924194e-01  1.00013159e-05  7.56860941e-01  1.00013159e-05  0.00000000e+00  1.00013159e-05  1.80779111e+00  1.00013159e-05  7.12474304e-01  1.00013159e-05  1.27960987e+00  1.00013159e-05  1.62717785e+00                                 
 1.00015317e-05  7.87146991e-01  1.00015317e-05  7.27135071e-01  1.00015317e-05  7.52142861e-01  1.00015317e-05  0.00000000e+00  1.00015317e-05  1.79347504e+00  1.00015317e-05  7.14418126e-01  1.00015317e-05  1.15204837e+00  1.00015317e-05  1.62734983e+00                                 
 1.00018953e-05  7.87155025e-01  1.00018953e-05  7.27737805e-01  1.00018953e-05  7.47069471e-01  1.00018953e-05  0.00000000e+00  1.00018953e-05  1.80498567e+00  1.00018953e-05  7.19728213e-01  1.00018953e-05  1.00317396e+00  1.00018953e-05  1.62740358e+00                                 
 1.00023731e-05  7.87147213e-01  1.00023731e-05  7.28140667e-01  1.00023731e-05  7.44016515e-01  1.00023731e-05  0.00000000e+00  1.00023731e-05  1.79532220e+00  1.00023731e-05  7.22109342e-01  1.00023731e-05  8.64643178e-01  1.00023731e-05  1.62705956e+00                                 
 1.00028863e-05  7.87154815e-01  1.00028863e-05  7.28747499e-01  1.00028863e-05  7.38744542e-01  1.00028863e-05  0.00000000e+00  1.00028863e-05  1.80383008e+00  1.00028863e-05  7.27942191e-01  1.00028863e-05  7.82480749e-01  1.00028863e-05  1.62642125e+00                                 
 1.00035070e-05  7.87147614e-01  1.00035070e-05  7.28991541e-01  1.00035070e-05  7.36945955e-01  1.00035070e-05  0.00000000e+00  1.00035070e-05  1.79644833e+00  1.00035070e-05  7.30228048e-01  1.00035070e-05  7.43370551e-01  1.00035070e-05  1.62522320e+00                                 
 1.00041173e-05  7.87154597e-01  1.00041173e-05  7.29142509e-01  1.00041173e-05  7.36055082e-01  1.00041173e-05  0.00000000e+00  1.00041173e-05  1.80314608e+00  1.00041173e-05  7.32539741e-01  1.00041173e-05  7.38003200e-01  1.00041173e-05  1.62370469e+00                                 
 1.00048214e-05  7.87147913e-01  1.00048214e-05  7.28997154e-01  1.00048214e-05  7.38174540e-01  1.00048214e-05  0.00000000e+00  1.00048214e-05  1.79713701e+00  1.00048214e-05  7.31886832e-01  1.00048214e-05  7.36782397e-01  1.00048214e-05  1.62162212e+00                                 
 1.00056335e-05  7.87154371e-01  1.00056335e-05  7.28984155e-01  1.00056335e-05  7.38957147e-01  1.00056335e-05  0.00000000e+00  1.00056335e-05  1.80261441e+00  1.00056335e-05  7.32937282e-01  1.00056335e-05  7.39137909e-01  1.00056335e-05  1.61909856e+00                                 
