 time            v(vbep)         time            v(vben)         time            v(vout)         time            v(vphi1)        time            v(vphi2)        time            v(vref)         yes             currtemp       
 0.00000000e+00  7.05187554e-01  0.00000000e+00  6.53393891e-01  0.00000000e+00  8.02687090e-02  0.00000000e+00  0.00000000e+00  0.00000000e+00  1.79997513e+00  0.00000000e+00  5.00000000e-01  1.00000000e+00  1.00000000e+01 
 5.00000000e-12  7.05171332e-01  5.00000000e-12  6.53380375e-01  5.00000000e-12  8.07226756e-02  5.00000000e-12  1.80000000e-02  5.00000000e-12  1.80005425e+00  5.00000000e-12  5.00000000e-01                                 
 1.00000000e-11  7.05155347e-01  1.00000000e-11  6.53367137e-01  1.00000000e-11  8.11299108e-02  1.00000000e-11  3.60000000e-02  1.00000000e-11  1.80009290e+00  1.00000000e-11  5.00000000e-01                                 
 2.00000000e-11  7.05123496e-01  2.00000000e-11  6.53340734e-01  2.00000000e-11  8.18774137e-02  2.00000000e-11  7.20000000e-02  2.00000000e-11  1.80012756e+00  2.00000000e-11  5.00000000e-01                                 
 4.00000000e-11  7.05060009e-01  4.00000000e-11  6.53288063e-01  4.00000000e-11  8.30609174e-02  4.00000000e-11  1.44000000e-01  4.00000000e-11  1.80010678e+00  4.00000000e-11  5.00000000e-01                                 
 8.00000000e-11  7.04933424e-01  8.00000000e-11  6.53182999e-01  8.00000000e-11  8.46894467e-02  8.00000000e-11  2.88000000e-01  8.00000000e-11  1.80006512e+00  8.00000000e-11  5.00000000e-01                                 
 1.60000000e-10  7.04681905e-01  1.60000000e-10  6.52974004e-01  1.60000000e-10  8.67778797e-02  1.60000000e-10  5.76000000e-01  1.60000000e-10  1.80002686e+00  1.60000000e-10  5.00000000e-01                                 
 3.20000000e-10  7.04185308e-01  3.20000000e-10  6.52560504e-01  3.20000000e-10  1.23470258e-01  3.20000000e-10  1.15200000e+00  3.20000000e-10  1.79997414e+00  3.20000000e-10  5.00000000e-01                                 
 5.00000000e-10  7.03636821e-01  5.00000000e-10  6.52102437e-01  5.00000000e-10  4.93124127e-01  5.00000000e-10  1.80000000e+00  5.00000000e-10  1.05463332e-01  5.00000000e-10  5.00000000e-01                                 
 5.21328298e-10  7.03572614e-01  5.21328298e-10  6.52048713e-01  5.21328298e-10  5.62128923e-01  5.21328298e-10  1.80000000e+00  5.21328298e-10  1.92791169e-02  5.21328298e-10  5.00000000e-01                                 
 5.63984894e-10  7.03444486e-01  5.63984894e-10  6.51941464e-01  5.63984894e-10  6.85728756e-01  5.63984894e-10  1.80000000e+00  5.63984894e-10 -9.18996368e-03  5.63984894e-10  5.00000000e-01                                 
 6.49298085e-10  7.03189974e-01  6.49298085e-10  6.51728200e-01  6.49298085e-10  8.72816575e-01  6.49298085e-10  1.80000000e+00  6.49298085e-10  7.89448912e-03  6.49298085e-10  5.00000000e-01                                 
 7.72538427e-10  7.02826355e-01  7.72538427e-10  6.51422991e-01  7.72538427e-10  1.07614419e+00  7.72538427e-10  1.80000000e+00  7.72538427e-10 -6.91792556e-03  7.72538427e-10  5.00000000e-01                                 
 9.63179397e-10  7.02273013e-01  9.63179397e-10  6.50957371e-01  9.63179397e-10  1.32879535e+00  9.63179397e-10  1.80000000e+00  9.63179397e-10  6.55030851e-03  9.63179397e-10  5.00000000e-01                                 
 1.32571796e-09  7.01249935e-01  1.32571796e-09  6.50092853e-01  1.32571796e-09  1.66130213e+00  1.32571796e-09  1.80000000e+00  1.32571796e-09 -6.21298938e-03  1.32571796e-09  5.00000000e-01                                 
 1.97512829e-09  6.99505525e-01  1.97512829e-09  6.48608239e-01  1.97512829e-09  1.88616644e+00  1.97512829e-09  1.80000000e+00  1.97512829e-09  6.17028403e-03  1.97512829e-09  5.00000000e-01                                 
 2.23040410e-09  6.98849110e-01  2.23040410e-09  6.48046061e-01  2.23040410e-09  1.90463780e+00  2.23040410e-09  1.80000000e+00  2.23040410e-09 -5.78336571e-03  2.23040410e-09  5.00000000e-01                                 
 2.54606787e-09  6.98058234e-01  2.54606787e-09  6.47366306e-01  2.54606787e-09  1.91198524e+00  2.54606787e-09  1.80000000e+00  2.54606787e-09  5.59896016e-03  2.54606787e-09  5.00000000e-01                                 
 2.89561034e-09  6.97207928e-01  2.89561034e-09  6.46632568e-01  2.89561034e-09  1.91530161e+00  2.89561034e-09  1.80000000e+00  2.89561034e-09 -5.34497544e-03  2.89561034e-09  5.00000000e-01                                 
 3.59469528e-09  6.95580805e-01  3.59469528e-09  6.45220479e-01  3.59469528e-09  1.91951706e+00  3.59469528e-09  1.80000000e+00  3.59469528e-09  5.28721283e-03  3.59469528e-09  5.00000000e-01                                 
 4.55234947e-09  6.93495070e-01  4.55234947e-09  6.43395394e-01  4.55234947e-09  1.91960054e+00  4.55234947e-09  1.80000000e+00  4.55234947e-09 -5.18093794e-03  4.55234947e-09  5.00000000e-01                                 
 6.46765785e-09  6.89731983e-01  6.46765785e-09  6.40063800e-01  6.46765785e-09  1.91070356e+00  6.46765785e-09  1.80000000e+00  6.46765785e-09  5.18101496e-03  6.46765785e-09  5.00000000e-01                                 
 9.12325035e-09  6.85221551e-01  9.12325035e-09  6.36009690e-01  9.12325035e-09  1.89827540e+00  9.12325035e-09  1.80000000e+00  9.12325035e-09 -5.11704540e-03  9.12325035e-09  5.00000000e-01                                 
 1.05111092e-08  6.83127939e-01  1.05111092e-08  6.34106307e-01  1.05111092e-08  1.89310577e+00  1.05111092e-08  1.80000000e+00  1.05111092e-08  5.09987837e-03  1.05111092e-08  5.00000000e-01                                 
 1.24588187e-08  6.80426600e-01  1.24588187e-08  6.31633416e-01  1.24588187e-08  1.88654276e+00  1.24588187e-08  1.80000000e+00  1.24588187e-08 -5.03895237e-03  1.24588187e-08  5.00000000e-01                                 
 1.45078531e-08  6.77842028e-01  1.45078531e-08  6.29250023e-01  1.45078531e-08  1.88031836e+00  1.45078531e-08  1.80000000e+00  1.45078531e-08  5.03097909e-03  1.45078531e-08  5.00000000e-01                                 
 1.80251463e-08  6.73911203e-01  1.80251463e-08  6.25593646e-01  1.80251463e-08  1.87092331e+00  1.80251463e-08  1.80000000e+00  1.80251463e-08 -4.98950427e-03  1.80251463e-08  5.00000000e-01                                 
 2.20741777e-08  6.70051115e-01  2.20741777e-08  6.21961713e-01  2.20741777e-08  1.86158578e+00  2.20741777e-08  1.80000000e+00  2.20741777e-08  4.99557277e-03  2.20741777e-08  5.00000000e-01                                 
 2.90134815e-08  6.64683791e-01  2.90134815e-08  6.16833591e-01  2.90134815e-08  1.84828388e+00  2.90134815e-08  1.80000000e+00  2.90134815e-08 -4.96403749e-03  2.90134815e-08  5.00000000e-01                                 
 3.90932618e-08  6.58675003e-01  3.90932618e-08  6.10993356e-01  3.90932618e-08  1.83255054e+00  3.90932618e-08  1.80000000e+00  3.90932618e-08  4.97979703e-03  3.90932618e-08  5.00000000e-01                                 
 5.92528223e-08  6.49559731e-01  5.92528223e-08  6.02066280e-01  5.92528223e-08  1.80450877e+00  5.92528223e-08  1.80000000e+00  5.92528223e-08 -4.95439573e-03  5.92528223e-08  5.00000000e-01                                 
 9.06741413e-08  6.39460529e-01  9.06741413e-08  5.92129210e-01  9.06741413e-08  1.76585266e+00  9.06741413e-08  1.80000000e+00  9.06741413e-08  4.97463519e-03  9.06741413e-08  5.00000000e-01                                 
 1.39799874e-07  6.28284322e-01  1.39799874e-07  5.81152326e-01  1.39799874e-07  1.70986298e+00  1.39799874e-07  1.80000000e+00  1.39799874e-07 -4.95094533e-03  1.39799874e-07  5.00000000e-01                                 
 1.86141056e-07  6.17692125e-01  1.86141056e-07  5.71317828e-01  1.86141056e-07  1.65609490e+00  1.86141056e-07  1.80000000e+00  1.86141056e-07  4.97192794e-03  1.86141056e-07  5.00000000e-01                                 
 2.64496149e-07  6.00845690e-01  2.64496149e-07  5.56171780e-01  2.64496149e-07  1.56426223e+00  2.64496149e-07  1.80000000e+00  2.64496149e-07 -4.94873316e-03  2.64496149e-07  5.00000000e-01                                 
 3.47660634e-07  5.85173545e-01  3.47660634e-07  5.42415977e-01  3.47660634e-07  1.46654754e+00  3.47660634e-07  1.80000000e+00  3.47660634e-07  4.97036048e-03  3.47660634e-07  5.00000000e-01                                 
 5.07216570e-07  5.54096763e-01  5.07216570e-07  5.16155780e-01  5.07216570e-07  1.27575860e+00  5.07216570e-07  1.80000000e+00  5.07216570e-07 -4.94756956e-03  5.07216570e-07  5.00000000e-01                                 
 7.84210078e-07  5.03859218e-01  7.84210078e-07  4.75034593e-01  7.84210078e-07  9.50756791e-01  7.84210078e-07  1.80000000e+00  7.84210078e-07  4.96974702e-03  7.84210078e-07  5.00000000e-01                                 
 8.02683567e-07  5.01579959e-01  8.02683567e-07  4.73195952e-01  8.02683567e-07  9.33535656e-01  8.02683567e-07  1.80000000e+00  8.02683567e-07  9.68290712e-07  8.02683567e-07  5.00000000e-01                                 
 8.39630546e-07  5.03489795e-01  8.39630546e-07  4.74697348e-01  8.39630546e-07  9.06495655e-01  8.39630546e-07  1.80000000e+00  8.39630546e-07 -6.72717073e-07  8.39630546e-07  5.00000000e-01                                 
 8.83672154e-07  5.43487947e-01  8.83672154e-07  5.06641528e-01  8.83672154e-07  9.06939631e-01  8.83672154e-07  1.80000000e+00  8.83672154e-07  1.64496927e-06  8.83672154e-07  5.00000000e-01                                 
 9.25498805e-07  7.06759053e-01  9.25498805e-07  6.48707172e-01  9.25498805e-07  1.01524899e+00  9.25498805e-07  1.80000000e+00  9.25498805e-07  2.16389036e-06  9.25498805e-07  5.00000000e-01                                 
 9.63044154e-07  7.77020846e-01  9.63044154e-07  7.23272812e-01  9.63044154e-07  1.04879020e+00  9.63044154e-07  1.80000000e+00  9.63044154e-07  5.30086071e-07  9.63044154e-07  5.00000000e-01                                 
 1.00290290e-06  8.03687101e-01  1.00290290e-06  7.48635981e-01  1.00290290e-06  1.03219351e+00  1.00290290e-06  1.80000000e+00  1.00290290e-06  4.91972310e-07  1.00290290e-06  5.00000000e-01                                 
 1.01122693e-06  8.07219394e-01  1.01122693e-06  7.51772890e-01  1.01122693e-06  1.02765758e+00  1.01122693e-06  1.80000000e+00  1.01122693e-06  4.87449369e-07  1.01122693e-06  5.00000000e-01                                 
 1.02787498e-06  8.12808247e-01  1.02787498e-06  7.56754197e-01  1.02787498e-06  1.01599564e+00  1.02787498e-06  1.80000000e+00  1.02787498e-06  2.47501052e-07  1.02787498e-06  5.00000000e-01                                 
 1.06117109e-06  8.21639370e-01  1.06117109e-06  7.64431208e-01  1.06117109e-06  9.90680383e-01  1.06117109e-06  1.80000000e+00  1.06117109e-06  3.39065681e-07  1.06117109e-06  5.00000000e-01                                 
 1.06949512e-06  8.23426374e-01  1.06949512e-06  7.65952454e-01  1.06949512e-06  9.84295701e-01  1.06949512e-06  1.80000000e+00  1.06949512e-06  2.73539180e-07  1.06949512e-06  5.00000000e-01                                 
 1.08614317e-06  8.26919008e-01  1.08614317e-06  7.68892370e-01  1.08614317e-06  9.71700983e-01  1.08614317e-06  1.80000000e+00  1.08614317e-06  2.55730213e-07  1.08614317e-06  5.00000000e-01                                 
 1.11943928e-06  8.34386256e-01  1.11943928e-06  7.75030699e-01  1.11943928e-06  9.48707164e-01  1.11943928e-06  1.80000000e+00  1.11943928e-06  2.83658705e-07  1.11943928e-06  5.00000000e-01                                 
 1.16511944e-06  8.20052232e-01  1.16511944e-06  7.63148891e-01  1.16511944e-06  9.01796023e-01  1.16511944e-06  1.80000000e+00  1.16511944e-06 -3.81570727e-07  1.16511944e-06  5.00000000e-01                                 
 1.20660443e-06  7.91151694e-01  1.20660443e-06  7.37022300e-01  1.20660443e-06  8.48786718e-01  1.20660443e-06  1.80000000e+00  1.20660443e-06 -2.44295880e-07  1.20660443e-06  5.00000000e-01                                 
 1.26104445e-06  7.96042508e-01  1.26104445e-06  7.41553879e-01  1.26104445e-06  8.19281401e-01  1.26104445e-06  1.80000000e+00  1.26104445e-06  5.79774640e-07  1.26104445e-06  5.00000000e-01                                 
 1.31090727e-06  8.18568942e-01  1.31090727e-06  7.61770458e-01  1.31090727e-06  8.10201016e-01  1.31090727e-06  1.80000000e+00  1.31090727e-06  2.69680043e-07  1.31090727e-06  5.00000000e-01                                 
 1.31838407e-06  8.20787238e-01  1.31838407e-06  7.63697550e-01  1.31838407e-06  8.07845189e-01  1.31838407e-06  1.80000000e+00  1.31838407e-06  3.14107033e-07  1.31838407e-06  5.00000000e-01                                 
 1.33333766e-06  8.24653061e-01  1.33333766e-06  7.66988838e-01  1.33333766e-06  8.02793726e-01  1.33333766e-06  1.80000000e+00  1.33333766e-06  2.79776713e-07  1.33333766e-06  5.00000000e-01                                 
 1.36324486e-06  8.21881098e-01  1.36324486e-06  7.64676701e-01  1.36324486e-06  7.84133188e-01  1.36324486e-06  1.80000000e+00  1.36324486e-06 -1.04118390e-07  1.36324486e-06  5.00000000e-01                                 
 1.39491421e-06  8.01241869e-01  1.39491421e-06  7.46422714e-01  1.39491421e-06  7.49657516e-01  1.39491421e-06  1.80000000e+00  1.39491421e-06 -4.42309178e-07  1.39491421e-06  5.00000000e-01                                 
 1.42815107e-06  7.92970527e-01  1.42815107e-06  7.38685431e-01  1.42815107e-06  7.26013345e-01  1.42815107e-06  1.80000000e+00  1.42815107e-06  3.31239139e-07  1.42815107e-06  5.00000000e-01                                 
 1.47001817e-06  8.13025701e-01  1.47001817e-06  7.56937660e-01  1.47001817e-06  7.23471419e-01  1.47001817e-06  1.80000000e+00  1.47001817e-06  5.14554008e-07  1.47001817e-06  5.00000000e-01                                 
 1.50992616e-06  8.19825425e-01  1.50992616e-06  7.62893178e-01  1.50992616e-06  7.10068092e-01  1.50992616e-06  1.80000000e+00  1.50992616e-06  3.46802421e-09  1.50992616e-06  5.00000000e-01                                 
 1.56539748e-06  8.06958775e-01  1.56539748e-06  7.51581188e-01  1.56539748e-06  6.72882988e-01  1.56539748e-06  1.80000000e+00  1.56539748e-06 -4.16910268e-08  1.56539748e-06  5.00000000e-01                                 
 1.62568023e-06  8.02188034e-01  1.62568023e-06  7.47217589e-01  1.62568023e-06  6.41898877e-01  1.62568023e-06  1.80000000e+00  1.62568023e-06  1.88987813e-07  1.62568023e-06  5.00000000e-01                                 
 1.69042957e-06  8.15898525e-01  1.69042957e-06  7.59478462e-01  1.69042957e-06  6.25798497e-01  1.69042957e-06  1.80000000e+00  1.69042957e-06  3.32054163e-07  1.69042957e-06  5.00000000e-01                                 
 1.77589368e-06  8.09835664e-01  1.77589368e-06  7.54153207e-01  1.77589368e-06  5.84707650e-01  1.77589368e-06  1.80000000e+00  1.77589368e-06 -1.49167939e-07  1.77589368e-06  5.00000000e-01                                 
 1.85502774e-06  8.04417408e-01  1.85502774e-06  7.49249155e-01  1.85502774e-06  5.50373659e-01  1.85502774e-06  1.80000000e+00  1.85502774e-06  3.05892319e-07  1.85502774e-06  5.00000000e-01                                 
 1.87045016e-06  8.07210854e-01  1.87045016e-06  7.51774051e-01  1.87045016e-06  5.47805251e-01  1.87045016e-06  1.80000000e+00  1.87045016e-06  2.47972514e-07  1.87045016e-06  5.00000000e-01                                 
 1.90129499e-06  8.12173527e-01  1.90129499e-06  7.56203831e-01  1.90129499e-06  5.42507456e-01  1.90129499e-06  1.80000000e+00  1.90129499e-06  2.21083491e-07  1.90129499e-06  5.00000000e-01                                 
 1.96298467e-06  8.12266423e-01  1.96298467e-06  7.56302081e-01  1.96298467e-06  5.27028074e-01  1.96298467e-06  1.80000000e+00  1.96298467e-06  4.95738178e-08  1.96298467e-06  5.00000000e-01                                 
 2.06575198e-06  8.06424594e-01  2.06575198e-06  7.51074758e-01  2.06575198e-06  5.07413573e-01  2.06575198e-06  1.80000000e+00  2.06575198e-06  1.35758320e-07  2.06575198e-06  5.00000000e-01                                 
 2.18730483e-06  8.12203146e-01  2.18730483e-06  7.56234673e-01  2.18730483e-06  5.04576734e-01  2.18730483e-06  1.80000000e+00  2.18730483e-06  1.81820051e-07  2.18730483e-06  5.00000000e-01                                 
 2.35653556e-06  8.08636129e-01  2.35653556e-06  7.53069730e-01  2.35653556e-06  4.94103974e-01  2.35653556e-06  1.80000000e+00  2.35653556e-06  5.07667614e-08  2.35653556e-06  5.00000000e-01                                 
 2.54452654e-06  8.09729016e-01  2.54452654e-06  7.54033423e-01  2.54452654e-06  4.98568714e-01  2.54452654e-06  1.80000000e+00  2.54452654e-06  2.12747878e-07  2.54452654e-06  5.00000000e-01                                 
 2.82079068e-06  8.10691740e-01  2.82079068e-06  7.54903855e-01  2.82079068e-06  5.03279168e-01  2.82079068e-06  1.80000000e+00  2.82079068e-06  4.95482923e-08  2.82079068e-06  5.00000000e-01                                 
 3.13333581e-06  8.08414559e-01  3.13333581e-06  7.52859410e-01  3.13333581e-06  4.96742093e-01  3.13333581e-06  1.80000000e+00  3.13333581e-06  1.97146832e-07  3.13333581e-06  5.00000000e-01                                 
 3.45526128e-06  8.11601829e-01  3.45526128e-06  7.55709840e-01  3.45526128e-06  5.02643162e-01  3.45526128e-06  1.80000000e+00  3.45526128e-06  7.38824383e-08  3.45526128e-06  5.00000000e-01                                 
 4.04961054e-06  8.07874107e-01  4.04961054e-06  7.52376670e-01  4.04961054e-06  4.98057818e-01  4.04961054e-06  1.80000000e+00  4.04961054e-06  1.74494690e-07  4.04961054e-06  5.00000000e-01                                 
 4.72508869e-06  8.11813011e-01  4.72508869e-06  7.55895611e-01  4.72508869e-06  5.01919971e-01  4.72508869e-06  1.80000000e+00  4.72508869e-06  9.06143559e-08  4.72508869e-06  5.00000000e-01                                 
 5.68077435e-06  8.07751410e-01  5.68077435e-06  7.52267730e-01  5.68077435e-06  4.98506171e-01  5.68077435e-06  1.80000000e+00  5.68077435e-06  1.60686088e-07  5.68077435e-06  5.00000000e-01                                 
 6.68077435e-06  8.11860911e-01  6.68077435e-06  7.55937104e-01  6.68077435e-06  5.01671045e-01  6.68077435e-06  1.80000000e+00  6.68077435e-06  1.01963109e-07  6.68077435e-06  5.00000000e-01                                 
 7.68077435e-06  8.07734070e-01  7.68077435e-06  7.52253147e-01  7.68077435e-06  4.98672418e-01  7.68077435e-06  1.80000000e+00  7.68077435e-06  1.49587399e-07  7.68077435e-06  5.00000000e-01                                 
 8.68077435e-06  8.11843676e-01  8.68077435e-06  7.55920921e-01  8.68077435e-06  5.01575375e-01  8.68077435e-06  1.80000000e+00  8.68077435e-06  1.12981487e-07  8.68077435e-06  5.00000000e-01                                 
 9.68077435e-06  8.07782171e-01  9.68077435e-06  7.52297311e-01  9.68077435e-06  4.98720175e-01  9.68077435e-06  1.80000000e+00  9.68077435e-06  1.38734590e-07  9.68077435e-06  5.00000000e-01                                 
 1.00005000e-05  8.11633768e-01  1.00005000e-05  7.55733138e-01  1.00005000e-05  5.01558455e-01  1.00005000e-05  1.80000000e+00  1.00005000e-05  1.34079233e-07  1.00005000e-05  5.00000000e-01                                 
 1.00005500e-05  8.11634724e-01  1.00005500e-05  7.55734051e-01  1.00005500e-05  4.93534594e-01  1.00005500e-05  1.62000000e+00  1.00005500e-05 -7.23781496e-05  1.00005500e-05  5.00000000e-01                                 
 1.00006500e-05  8.11636661e-01  1.00006500e-05  7.55735804e-01  1.00006500e-05  4.79840277e-01  1.00006500e-05  1.26000000e+00  1.00006500e-05 -5.18703942e-05  1.00006500e-05  5.00000000e-01                                 
 1.00008500e-05  8.11639979e-01  1.00008500e-05  7.55738777e-01  1.00008500e-05  4.78903975e-01  1.00008500e-05  5.40000000e-01  1.00008500e-05 -1.37239774e-03  1.00008500e-05  5.00000000e-01                                 
