 time            v(vbep)         time            v(vben)         time            v(vout)         time            v(vphi1)        time            v(vphi2)        time            v(vref)         yes             currtemp       
 0.00000000e+00  6.84186846e-01  0.00000000e+00  6.28562340e-01  0.00000000e+00  1.08389391e+00  0.00000000e+00  0.00000000e+00  0.00000000e+00  1.79994671e+00  0.00000000e+00  6.28562340e-01  1.00000000e+00  3.10000000e+01 
 5.00000000e-12  6.84154818e-01  5.00000000e-12  6.28535868e-01  5.00000000e-12  1.08462993e+00  5.00000000e-12  1.80000000e-02  5.00000000e-12  1.80007188e+00  5.00000000e-12  6.28535868e-01                                 
 1.00000000e-11  6.84123771e-01  1.00000000e-11  6.28510138e-01  1.00000000e-11  1.08530200e+00  1.00000000e-11  3.60000000e-02  1.00000000e-11  1.80014664e+00  1.00000000e-11  6.28510138e-01                                 
 2.00000000e-11  6.84062293e-01  2.00000000e-11  6.28458896e-01  2.00000000e-11  1.08654610e+00  2.00000000e-11  7.20000000e-02  2.00000000e-11  1.80023081e+00  2.00000000e-11  6.28458896e-01                                 
 4.00000000e-11  6.83940394e-01  4.00000000e-11  6.28356849e-01  4.00000000e-11  1.08857071e+00  4.00000000e-11  1.44000000e-01  4.00000000e-11  1.80022429e+00  4.00000000e-11  6.28356849e-01                                 
 8.00000000e-11  6.83697898e-01  8.00000000e-11  6.28153764e-01  8.00000000e-11  1.09133177e+00  8.00000000e-11  2.88000000e-01  8.00000000e-11  1.80013169e+00  8.00000000e-11  6.28153764e-01                                 
 1.60000000e-10  6.83218584e-01  1.60000000e-10  6.27751606e-01  1.60000000e-10  1.09370343e+00  1.60000000e-10  5.76000000e-01  1.60000000e-10  1.80002214e+00  1.60000000e-10  6.27751606e-01                                 
 3.20000000e-10  6.82281213e-01  3.20000000e-10  6.26962726e-01  3.20000000e-10  1.08578522e+00  3.20000000e-10  1.15200000e+00  3.20000000e-10  1.80029310e+00  3.20000000e-10  6.26962726e-01                                 
 5.00000000e-10  6.81259312e-01  5.00000000e-10  6.26098905e-01  5.00000000e-10  1.18236640e+00  5.00000000e-10  1.80000000e+00  5.00000000e-10  1.49057206e-01  5.00000000e-10  6.26098905e-01                                 
 5.21245831e-10  6.81141139e-01  5.21245831e-10  6.25998739e-01  5.21245831e-10  1.20705987e+00  5.21245831e-10  1.80000000e+00  5.21245831e-10  3.70236349e-02  5.21245831e-10  6.25998739e-01                                 
 5.63737492e-10  6.80905668e-01  5.63737492e-10  6.25799033e-01  5.63737492e-10  1.25623775e+00  5.63737492e-10  1.80000000e+00  5.63737492e-10 -1.39873303e-02  5.63737492e-10  6.25799033e-01                                 
 6.48720814e-10  6.80440019e-01  6.48720814e-10  6.25403510e-01  6.48720814e-10  1.34467940e+00  6.48720814e-10  1.80000000e+00  6.48720814e-10  1.18907500e-02  6.48720814e-10  6.25403510e-01                                 
 7.68823799e-10  6.79793665e-01  7.68823799e-10  6.24853178e-01  7.68823799e-10  1.45348455e+00  7.68823799e-10  1.80000000e+00  7.68823799e-10 -9.09343504e-03  7.68823799e-10  6.24853178e-01                                 
 9.49715592e-10  6.78844958e-01  9.49715592e-10  6.24042667e-01  9.49715592e-10  1.58588296e+00  9.49715592e-10  1.80000000e+00  9.49715592e-10  8.96541678e-03  9.49715592e-10  6.24042667e-01                                 
 1.31149918e-09  6.77030361e-01  1.31149918e-09  6.22483553e-01  1.31149918e-09  1.75187969e+00  1.31149918e-09  1.80000000e+00  1.31149918e-09 -7.88919537e-03  1.31149918e-09  6.22483553e-01                                 
 1.65781412e-09  6.75389172e-01  1.65781412e-09  6.21063338e-01  1.65781412e-09  1.82563002e+00  1.65781412e-09  1.80000000e+00  1.65781412e-09  7.74819494e-03  1.65781412e-09  6.21063338e-01                                 
 2.04029775e-09  6.73674186e-01  2.04029775e-09  6.19569308e-01  2.04029775e-09  1.85774621e+00  2.04029775e-09  1.80000000e+00  2.04029775e-09 -7.19696740e-03  2.04029775e-09  6.19569308e-01                                 
 2.40150541e-09  6.72139825e-01  2.40150541e-09  6.18224157e-01  2.40150541e-09  1.86847614e+00  2.40150541e-09  1.80000000e+00  2.40150541e-09  6.88293373e-03  2.40150541e-09  6.18224157e-01                                 
 2.92885291e-09  6.70031320e-01  2.92885291e-09  6.16363178e-01  2.92885291e-09  1.87180999e+00  2.92885291e-09  1.80000000e+00  2.92885291e-09 -6.57666811e-03  2.92885291e-09  6.16363178e-01                                 
 3.60070652e-09  6.67544257e-01  3.60070652e-09  6.14149999e-01  3.60070652e-09  1.87103860e+00  3.60070652e-09  1.80000000e+00  3.60070652e-09  6.41427042e-03  3.60070652e-09  6.14149999e-01                                 
 4.74036503e-09  6.63747280e-01  4.74036503e-09  6.10735882e-01  4.74036503e-09  1.86725966e+00  4.74036503e-09  1.80000000e+00  4.74036503e-09 -6.27423746e-03  4.74036503e-09  6.10735882e-01                                 
 6.54206690e-09  6.58589762e-01  6.54206690e-09  6.06034436e-01  6.54206690e-09  1.86266017e+00  6.54206690e-09  1.80000000e+00  6.54206690e-09  6.22929310e-03  6.54206690e-09  6.06034436e-01                                 
 1.01454706e-08  6.50364707e-01  1.01454706e-08  5.98404251e-01  1.01454706e-08  1.85477157e+00  1.01454706e-08  1.80000000e+00  1.01454706e-08 -6.16553890e-03  1.01454706e-08  5.98404251e-01                                 
 1.29050491e-08  6.45410727e-01  1.29050491e-08  5.93728809e-01  1.29050491e-08  1.85052097e+00  1.29050491e-08  1.80000000e+00  1.29050491e-08  6.14891080e-03  1.29050491e-08  5.93728809e-01                                 
 1.47407964e-08  6.42552148e-01  1.47407964e-08  5.91008145e-01  1.47407964e-08  1.84767242e+00  1.47407964e-08  1.80000000e+00  1.47407964e-08 -6.05701866e-03  1.47407964e-08  5.91008145e-01                                 
 1.61913579e-08  6.40485911e-01  1.61913579e-08  5.89032365e-01  1.61913579e-08  1.84610905e+00  1.61913579e-08  1.80000000e+00  1.61913579e-08  5.99714673e-03  1.61913579e-08  5.89032365e-01                                 
 1.79829911e-08  6.38129008e-01  1.79829911e-08  5.86769946e-01  1.79829911e-08  1.84373508e+00  1.79829911e-08  1.80000000e+00  1.79829911e-08 -5.90749415e-03  1.79829911e-08  5.86769946e-01                                 
 2.01085297e-08  6.35570467e-01  2.01085297e-08  5.84304056e-01  2.01085297e-08  1.84171994e+00  2.01085297e-08  1.80000000e+00  2.01085297e-08  5.87404724e-03  2.01085297e-08  5.84304056e-01                                 
 2.27233324e-08  6.32716882e-01  2.27233324e-08  5.81542423e-01  2.27233324e-08  1.83883863e+00  2.27233324e-08  1.80000000e+00  2.27233324e-08 -5.80714165e-03  2.27233324e-08  5.81542423e-01                                 
 2.65024586e-08  6.29050303e-01  2.65024586e-08  5.77978079e-01  2.65024586e-08  1.83558233e+00  2.65024586e-08  1.80000000e+00  2.65024586e-08  5.79823645e-03  2.65024586e-08  5.77978079e-01                                 
 3.04234063e-08  6.25701341e-01  3.04234063e-08  5.74708339e-01  3.04234063e-08  1.83145932e+00  3.04234063e-08  1.80000000e+00  3.04234063e-08 -5.74668011e-03  3.04234063e-08  5.74708339e-01                                 
 3.82653017e-08  6.19966430e-01  3.82653017e-08  5.69088961e-01  3.82653017e-08  1.82223819e+00  3.82653017e-08  1.80000000e+00  3.82653017e-08  5.75390716e-03  3.82653017e-08  5.69088961e-01                                 
 5.03842593e-08  6.12540202e-01  5.03842593e-08  5.61843725e-01  5.03842593e-08  1.80666683e+00  5.03842593e-08  1.80000000e+00  5.03842593e-08 -5.72226796e-03  5.03842593e-08  5.61843725e-01                                 
 7.01387968e-08  6.02042858e-01  7.01387968e-08  5.51805184e-01  7.01387968e-08  1.78745439e+00  7.01387968e-08  1.80000000e+00  7.01387968e-08  5.73921748e-03  7.01387968e-08  5.51805184e-01                                 
 8.47925117e-08  5.93216668e-01  8.47925117e-08  5.43814223e-01  8.47925117e-08  1.77284206e+00  8.47925117e-08  1.80000000e+00  8.47925117e-08 -5.70890386e-03  8.47925117e-08  5.43814223e-01                                 
 1.01432047e-07  5.85092778e-01  1.01432047e-07  5.36425825e-01  1.01432047e-07  1.74023341e+00  1.01432047e-07  1.80000000e+00  1.01432047e-07  5.72374170e-03  1.01432047e-07  5.36425825e-01                                 
 1.18505361e-07  5.77555800e-01  1.18505361e-07  5.29631881e-01  1.18505361e-07  1.71003848e+00  1.18505361e-07  1.80000000e+00  1.18505361e-07 -5.69502271e-03  1.18505361e-07  5.29631881e-01                                 
 1.36474818e-07  5.70869297e-01  1.36474818e-07  5.23594623e-01  1.36474818e-07  1.67995635e+00  1.36474818e-07  1.80000000e+00  1.36474818e-07  5.71102710e-03  1.36474818e-07  5.23594623e-01                                 
 1.59798253e-07  5.71303189e-01  1.59798253e-07  5.23078121e-01  1.59798253e-07  1.66662010e+00  1.59798253e-07  1.80000000e+00  1.59798253e-07 -5.68167101e-03  1.59798253e-07  5.23078121e-01                                 
 1.85831461e-07  5.74633531e-01  1.85831461e-07  5.24846295e-01  1.85831461e-07  1.65454738e+00  1.85831461e-07  1.80000000e+00  1.85831461e-07  5.70217669e-03  1.85831461e-07  5.24846295e-01                                 
 2.05172863e-07  5.71975170e-01  2.05172863e-07  5.22162748e-01  2.05172863e-07  1.63160019e+00  2.05172863e-07  1.80000000e+00  2.05172863e-07 -5.67302107e-03  2.05172863e-07  5.22162748e-01                                 
 2.26383020e-07  5.66634384e-01  2.26383020e-07  5.17361301e-01  2.26383020e-07  1.60669306e+00  2.26383020e-07  1.80000000e+00  2.26383020e-07  5.69076422e-03  2.26383020e-07  5.17361301e-01                                 
 2.54956344e-07  5.59229414e-01  2.54956344e-07  5.10813127e-01  2.54956344e-07  1.57017994e+00  2.54956344e-07  1.80000000e+00  2.54956344e-07 -5.66397157e-03  2.54956344e-07  5.10813127e-01                                 
 2.94563568e-07  5.49013603e-01  2.94563568e-07  5.01914639e-01  2.94563568e-07  1.52192702e+00  2.94563568e-07  1.80000000e+00  2.94563568e-07  5.68407608e-03  2.94563568e-07  5.01914639e-01                                 
 3.58289775e-07  5.33344189e-01  3.58289775e-07  4.88475822e-01  3.58289775e-07  1.44110980e+00  3.58289775e-07  1.80000000e+00  3.58289775e-07 -5.65942863e-03  3.58289775e-07  4.88475822e-01                                 
 4.71448158e-07  4.96306149e-01  4.71448158e-07  4.57942249e-01  4.71448158e-07  1.29107927e+00  4.71448158e-07  1.80000000e+00  4.71448158e-07  5.68113632e-03  4.71448158e-07  4.57942249e-01                                 
 5.73356836e-07  4.70815310e-01  5.73356836e-07  4.37154510e-01  5.73356836e-07  1.15924839e+00  5.73356836e-07  1.80000000e+00  5.73356836e-07 -5.65711590e-03  5.73356836e-07  4.37154510e-01                                 
 6.70900148e-07  4.74910025e-01  6.70900148e-07  4.40298941e-01  6.70900148e-07  1.06430380e+00  6.70900148e-07  1.80000000e+00  6.70900148e-07  5.67998942e-03  6.70900148e-07  4.40298941e-01                                 
 7.68625564e-07  7.48672359e-01  7.68625564e-07  6.90524689e-01  7.68625564e-07  1.22472471e+00  7.68625564e-07  1.80000000e+00  7.68625564e-07 -5.64372610e-03  7.68625564e-07  6.90524689e-01                                 
 8.73016960e-07  8.12491128e-01  8.73016960e-07  7.46522899e-01  8.73016960e-07  1.18280796e+00  8.73016960e-07  1.80000000e+00  8.73016960e-07  5.66932835e-03  8.73016960e-07  7.46522899e-01                                 
 8.84877829e-07  8.12588655e-01  8.84877829e-07  7.46599939e-01  8.84877829e-07  1.16774356e+00  8.84877829e-07  1.80000000e+00  8.84877829e-07  2.48046324e-06  8.84877829e-07  7.46599939e-01                                 
 9.08599567e-07  8.12607983e-01  9.08599567e-07  7.46614071e-01  9.08599567e-07  1.14266961e+00  9.08599567e-07  1.80000000e+00  9.08599567e-07 -2.47151818e-06  9.08599567e-07  7.46614071e-01                                 
 9.42916160e-07  8.10507341e-01  9.42916160e-07  7.44988303e-01  9.42916160e-07  1.10532370e+00  9.42916160e-07  1.80000000e+00  9.42916160e-07  2.25128665e-06  9.42916160e-07  7.44988303e-01                                 
 9.72596187e-07  7.82993180e-01  9.72596187e-07  7.22349283e-01  9.72596187e-07  1.04859634e+00  9.72596187e-07  1.80000000e+00  9.72596187e-07 -6.24349260e-06  9.72596187e-07  7.22349283e-01                                 
 1.00324936e-06  7.47884729e-01  1.00324936e-06  6.90115449e-01  1.00324936e-06  9.84966107e-01  1.00324936e-06  1.80000000e+00  1.00324936e-06  1.17983272e-06  1.00324936e-06  6.90115449e-01                                 
 1.03556406e-06  7.54946843e-01  1.03556406e-06  6.96746562e-01  1.03556406e-06  9.61963602e-01  1.03556406e-06  1.80000000e+00  1.03556406e-06  1.53853798e-08  1.03556406e-06  6.96746562e-01                                 
 1.06504119e-06  7.66952518e-01  1.06504119e-06  7.07869069e-01  1.06504119e-06  9.49158125e-01  1.06504119e-06  1.80000000e+00  1.06504119e-06  2.14362302e-06  1.06504119e-06  7.07869069e-01                                 
 1.10542227e-06  7.81982666e-01  1.10542227e-06  7.21345624e-01  1.10542227e-06  9.30194194e-01  1.10542227e-06  1.80000000e+00  1.10542227e-06 -1.60414581e-07  1.10542227e-06  7.21345624e-01                                 
 1.15987776e-06  7.86439082e-01  1.15987776e-06  7.25196367e-01  1.15987776e-06  8.95965605e-01  1.15987776e-06  1.80000000e+00  1.15987776e-06  9.80085892e-07  1.15987776e-06  7.25196367e-01                                 
 1.23635999e-06  7.78081000e-01  1.23635999e-06  7.17937297e-01  1.23635999e-06  8.39800777e-01  1.23635999e-06  1.80000000e+00  1.23635999e-06 -9.04336558e-07  1.23635999e-06  7.17937297e-01                                 
 1.32811938e-06  7.73273877e-01  1.32811938e-06  7.13617431e-01  1.32811938e-06  7.85340441e-01  1.32811938e-06  1.80000000e+00  1.32811938e-06  1.33983991e-06  1.32811938e-06  7.13617431e-01                                 
 1.44106460e-06  7.85164216e-01  1.44106460e-06  7.24116866e-01  1.44106460e-06  7.52518193e-01  1.44106460e-06  1.80000000e+00  1.44106460e-06 -8.06249026e-08  1.44106460e-06  7.24116866e-01                                 
 1.55408967e-06  7.75203036e-01  1.55408967e-06  7.15365949e-01  1.55408967e-06  7.21380292e-01  1.55408967e-06  1.80000000e+00  1.55408967e-06  6.81407215e-07  1.55408967e-06  7.15365949e-01                                 
 1.68730779e-06  7.78524746e-01  1.68730779e-06  7.18300577e-01  1.68730779e-06  7.11100609e-01  1.68730779e-06  1.80000000e+00  1.68730779e-06  4.58541177e-07  1.68730779e-06  7.18300577e-01                                 
 1.83122285e-06  7.81957862e-01  1.83122285e-06  7.21326111e-01  1.83122285e-06  7.11044176e-01  1.83122285e-06  1.80000000e+00  1.83122285e-06  7.36988904e-07  1.83122285e-06  7.21326111e-01                                 
 1.85917329e-06  7.79115313e-01  1.85917329e-06  7.18835335e-01  1.85917329e-06  7.10665509e-01  1.85917329e-06  1.80000000e+00  1.85917329e-06  3.69416151e-07  1.85917329e-06  7.18835335e-01                                 
 1.91507417e-06  7.76895707e-01  1.91507417e-06  7.16863555e-01  1.91507417e-06  7.13929232e-01  1.91507417e-06  1.80000000e+00  1.91507417e-06  6.38227247e-07  1.91507417e-06  7.16863555e-01                                 
 2.02687592e-06  7.80294118e-01  2.02687592e-06  7.19864901e-01  2.02687592e-06  7.21131523e-01  2.02687592e-06  1.80000000e+00  2.02687592e-06  6.19709635e-07  2.02687592e-06  7.19864901e-01                                 
 2.16732034e-06  7.78635751e-01  2.16732034e-06  7.18409112e-01  2.16732034e-06  7.18162581e-01  2.16732034e-06  1.80000000e+00  2.16732034e-06  4.31680884e-07  2.16732034e-06  7.18409112e-01                                 
 2.36836992e-06  7.78640600e-01  2.36836992e-06  7.18407348e-01  2.36836992e-06  7.18572778e-01  2.36836992e-06  1.80000000e+00  2.36836992e-06  6.77114013e-07  2.36836992e-06  7.18407348e-01                                 
 2.58773402e-06  7.79765095e-01  2.58773402e-06  7.19403918e-01  2.58773402e-06  7.19571940e-01  2.58773402e-06  1.80000000e+00  2.58773402e-06  4.51885201e-07  2.58773402e-06  7.19403918e-01                                 
 3.02646222e-06  7.78029011e-01  3.02646222e-06  7.17867784e-01  3.02646222e-06  7.17886480e-01  3.02646222e-06  1.80000000e+00  3.02646222e-06  6.38809908e-07  3.02646222e-06  7.17867784e-01                                 
 3.63740180e-06  7.79972654e-01  3.63740180e-06  7.19585674e-01  3.63740180e-06  7.19788713e-01  3.63740180e-06  1.80000000e+00  3.63740180e-06  4.82179851e-07  3.63740180e-06  7.19585674e-01                                 
 4.63740180e-06  7.77931857e-01  4.63740180e-06  7.17782407e-01  4.63740180e-06  7.17789033e-01  4.63740180e-06  1.80000000e+00  4.63740180e-06  6.16643984e-07  4.63740180e-06  7.17782407e-01                                 
 5.63740180e-06  7.80012858e-01  5.63740180e-06  7.19620565e-01  5.63740180e-06  7.19827256e-01  5.63740180e-06  1.80000000e+00  5.63740180e-06  4.99669778e-07  5.63740180e-06  7.19620565e-01                                 
 6.63740180e-06  7.77912652e-01  6.63740180e-06  7.17766065e-01  6.63740180e-06  7.17772392e-01  6.63740180e-06  1.80000000e+00  6.63740180e-06  5.98909443e-07  6.63740180e-06  7.17766065e-01                                 
 7.63740180e-06  7.80013087e-01  7.63740180e-06  7.19620552e-01  7.63740180e-06  7.19824590e-01  7.63740180e-06  1.80000000e+00  7.63740180e-06  5.17478530e-07  7.63740180e-06  7.19620552e-01                                 
 8.63740180e-06  7.77935452e-01  8.63740180e-06  7.17786721e-01  8.63740180e-06  7.17798171e-01  8.63740180e-06  1.80000000e+00  8.63740180e-06  5.81204490e-07  8.63740180e-06  7.17786721e-01                                 
 9.63740180e-06  7.79971581e-01  9.63740180e-06  7.19583586e-01  9.63740180e-06  7.19780377e-01  9.63740180e-06  1.80000000e+00  9.63740180e-06  5.34901507e-07  9.63740180e-06  7.19583586e-01                                 
 1.00005000e-05  7.78076489e-01  1.00005000e-05  7.17912180e-01  1.00005000e-05  7.17942567e-01  1.00005000e-05  1.80000000e+00  1.00005000e-05  5.50509071e-07  1.00005000e-05  7.17912180e-01                                 
 1.00005500e-05  7.78076363e-01  1.00005500e-05  7.17912043e-01  1.00005500e-05  7.10922663e-01  1.00005500e-05  1.62000000e+00  1.00005500e-05 -1.16377342e-04  1.00005500e-05  7.17912043e-01                                 
 1.00006500e-05  7.78076072e-01  1.00006500e-05  7.17911756e-01  1.00006500e-05  7.00481419e-01  1.00006500e-05  1.26000000e+00  1.00006500e-05 -6.88383099e-05  1.00006500e-05  7.17911756e-01                                 
 1.00008500e-05  7.78075392e-01  1.00008500e-05  7.17911127e-01  1.00008500e-05  6.96597473e-01  1.00008500e-05  5.40000000e-01  1.00008500e-05 -2.78441959e-03  1.00008500e-05  7.17911127e-01                                 
 1.00010000e-05  7.78074832e-01  1.00010000e-05  7.17910612e-01  1.00010000e-05  7.27947965e-01  1.00010000e-05  0.00000000e+00  1.00010000e-05  1.50690280e+00  1.00010000e-05  7.17910612e-01                                 
 1.00010259e-05  7.78074734e-01  1.00010259e-05  7.17910522e-01  1.00010259e-05  7.44697708e-01  1.00010259e-05  0.00000000e+00  1.00010259e-05  1.69070389e+00  1.00010259e-05  7.17910522e-01                                 
 1.00010778e-05  7.78074504e-01  1.00010778e-05  7.17910323e-01  1.00010778e-05  7.77871771e-01  1.00010778e-05  0.00000000e+00  1.00010778e-05  1.82439288e+00  1.00010778e-05  7.17910323e-01                                 
 1.00011816e-05  7.78073973e-01  1.00011816e-05  7.17909870e-01  1.00011816e-05  8.17776980e-01  1.00011816e-05  0.00000000e+00  1.00011816e-05  1.78688012e+00  1.00011816e-05  7.17909870e-01                                 
