 time            v(vbep)         time            v(vben)         time            v(vout)         time            v(vphi1)        time            v(vphi2)        time            v(vref)         time            v(voutc)        time            v(voutcc)       yes             currtemp       
 0.00000000e+00  6.74554657e-01  0.00000000e+00  6.02107316e-01  0.00000000e+00  1.37831005e+00  0.00000000e+00  0.00000000e+00  0.00000000e+00  1.79999998e+00  0.00000000e+00  6.01054516e-01  0.00000000e+00  1.37831004e+00  0.00000000e+00  1.38670282e+00  1.00000000e+00  9.20000000e+01 
 1.00000000e-11  6.74579974e-01  1.00000000e-11  6.02179449e-01  1.00000000e-11  1.37903235e+00  1.00000000e-11  1.80000000e-02  1.00000000e-11  1.80024552e+00  1.00000000e-11  6.01565400e-01  1.00000000e-11  1.37875858e+00  1.00000000e-11  1.38671451e+00                                 
 2.00000000e-11  6.74586666e-01  2.00000000e-11  6.02223112e-01  2.00000000e-11  1.37945629e+00  2.00000000e-11  3.60000000e-02  2.00000000e-11  1.80033906e+00  2.00000000e-11  6.01939933e-01  2.00000000e-11  1.37909114e+00  2.00000000e-11  1.38671825e+00                                 
 4.00000000e-11  6.74586373e-01  4.00000000e-11  6.02278952e-01  4.00000000e-11  1.37993973e+00  4.00000000e-11  7.20000000e-02  4.00000000e-11  1.80036806e+00  4.00000000e-11  6.02482242e-01  4.00000000e-11  1.37957762e+00  4.00000000e-11  1.38671834e+00                                 
 8.00000000e-11  6.74574594e-01  8.00000000e-11  6.02311007e-01  8.00000000e-11  1.37997322e+00  8.00000000e-11  1.44000000e-01  8.00000000e-11  1.80016439e+00  8.00000000e-11  6.02894522e-01  8.00000000e-11  1.37995191e+00  8.00000000e-11  1.38670834e+00                                 
 1.60000000e-10  6.74571858e-01  1.60000000e-10  6.02316490e-01  1.60000000e-10  1.37965005e+00  1.60000000e-10  2.88000000e-01  1.60000000e-10  1.80000370e+00  1.60000000e-10  6.02983154e-01  1.60000000e-10  1.37998485e+00  1.60000000e-10  1.38669989e+00                                 
 3.20000000e-10  6.74566430e-01  3.20000000e-10  6.02303829e-01  3.20000000e-10  1.37930740e+00  3.20000000e-10  5.76000000e-01  3.20000000e-10  1.79998458e+00  3.20000000e-10  6.02850431e-01  3.20000000e-10  1.37967948e+00  3.20000000e-10  1.38669482e+00                                 
 6.40000000e-10  6.74485693e-01  6.40000000e-10  6.01802239e-01  6.40000000e-10  1.37759474e+00  6.40000000e-10  1.15200000e+00  6.40000000e-10  1.80656279e+00  6.40000000e-10  5.99179990e-01  6.40000000e-10  1.38136793e+00  6.40000000e-10  1.38671056e+00                                 
 1.00000000e-09  6.75038061e-01  1.00000000e-09  6.02353457e-01  1.00000000e-09  1.35923235e+00  1.00000000e-09  1.80000000e+00  1.00000000e-09  1.18873434e-01  1.00000000e-09  6.13778101e-01  1.00000000e-09  1.38787220e+00  1.00000000e-09  1.38673869e+00                                 
 1.03846162e-09  6.75126377e-01  1.03846162e-09  6.02319156e-01  1.03846162e-09  1.35722382e+00  1.03846162e-09  1.80000000e+00  1.03846162e-09  2.95375638e-02  1.03846162e-09  6.16068284e-01  1.03846162e-09  1.38883287e+00  1.03846162e-09  1.38674145e+00                                 
 1.11538486e-09  6.75314508e-01  1.11538486e-09  6.02302907e-01  1.11538486e-09  1.35500835e+00  1.11538486e-09  1.80000000e+00  1.11538486e-09 -1.30557744e-02  1.11538486e-09  6.18686693e-01  1.11538486e-09  1.39075186e+00  1.11538486e-09  1.38674647e+00                                 
 1.26923133e-09  6.75416971e-01  1.26923133e-09  6.02138341e-01  1.26923133e-09  1.35212690e+00  1.26923133e-09  1.80000000e+00  1.26923133e-09  9.98517831e-03  1.26923133e-09  6.17526567e-01  1.26923133e-09  1.39006217e+00  1.26923133e-09  1.38671587e+00                                 
 1.47254250e-09  6.75339822e-01  1.47254250e-09  6.02134888e-01  1.47254250e-09  1.35115766e+00  1.47254250e-09  1.80000000e+00  1.47254250e-09 -7.72112688e-03  1.47254250e-09  6.16257140e-01  1.47254250e-09  1.38874110e+00  1.47254250e-09  1.38676625e+00                                 
 1.69033775e-09  6.75195165e-01  1.69033775e-09  6.02132840e-01  1.69033775e-09  1.35075259e+00  1.69033775e-09  1.80000000e+00  1.69033775e-09  6.26047685e-03  1.69033775e-09  6.14605109e-01  1.69033775e-09  1.38752972e+00  1.69033775e-09  1.38681631e+00                                 
 2.12009910e-09  6.74890426e-01  2.12009910e-09  6.02103522e-01  2.12009910e-09  1.34947525e+00  2.12009910e-09  1.80000000e+00  2.12009910e-09 -5.63419827e-03  2.12009910e-09  6.11726051e-01  2.12009910e-09  1.38489785e+00  2.12009910e-09  1.38697531e+00                                 
 2.76779319e-09  6.74617005e-01  2.76779319e-09  6.02116587e-01  2.76779319e-09  1.34709396e+00  2.76779319e-09  1.80000000e+00  2.76779319e-09  5.22370487e-03  2.76779319e-09  6.08429053e-01  2.76779319e-09  1.38224139e+00  2.76779319e-09  1.38718565e+00                                 
 4.06318137e-09  6.74379649e-01  4.06318137e-09  6.02079391e-01  4.06318137e-09  1.34012238e+00  4.06318137e-09  1.80000000e+00  4.06318137e-09 -5.05718512e-03  4.06318137e-09  6.03743960e-01  4.06318137e-09  1.37809617e+00  4.06318137e-09  1.38746134e+00                                 
 5.41182330e-09  6.74356528e-01  5.41182330e-09  6.02102945e-01  5.41182330e-09  1.33217480e+00  5.41182330e-09  1.80000000e+00  5.41182330e-09  4.88623090e-03  5.41182330e-09  6.01477104e-01  5.41182330e-09  1.37631607e+00  5.41182330e-09  1.38749909e+00                                 
 6.54002562e-09  6.74362237e-01  6.54002562e-09  6.02077072e-01  6.54002562e-09  1.32435201e+00  6.54002562e-09  1.80000000e+00  6.54002562e-09 -4.68854446e-03  6.54002562e-09  6.00286141e-01  6.54002562e-09  1.37516151e+00  6.54002562e-09  1.38740747e+00                                 
 7.83047032e-09  6.74411164e-01  7.83047032e-09  6.02108779e-01  7.83047032e-09  1.31490765e+00  7.83047032e-09  1.80000000e+00  7.83047032e-09  4.53559058e-03  7.83047032e-09  5.99907317e-01  7.83047032e-09  1.37497442e+00  7.83047032e-09  1.38722097e+00                                 
 9.43402986e-09  6.74447458e-01  9.43402986e-09  6.02084406e-01  9.43402986e-09  1.30152273e+00  9.43402986e-09  1.80000000e+00  9.43402986e-09 -4.39739153e-03  9.43402986e-09  5.99446795e-01  9.43402986e-09  1.37444168e+00  9.43402986e-09  1.38695361e+00                                 
 1.15430064e-08  6.74509965e-01  1.15430064e-08  6.02117646e-01  1.15430064e-08  1.28317547e+00  1.15430064e-08  1.80000000e+00  1.15430064e-08  4.31949002e-03  1.15430064e-08  5.99639296e-01  1.15430064e-08  1.37472293e+00  1.15430064e-08  1.38658853e+00                                 
 1.42090772e-08  6.74535878e-01  1.42090772e-08  6.02091098e-01  1.42090772e-08  1.25828503e+00  1.42090772e-08  1.80000000e+00  1.42090772e-08 -4.22996497e-03  1.42090772e-08  5.99584674e-01  1.42090772e-08  1.37453057e+00  1.42090772e-08  1.38617135e+00                                 
 1.79426760e-08  6.74569710e-01  1.79426760e-08  6.02122176e-01  1.79426760e-08  1.22300160e+00  1.79426760e-08  1.80000000e+00  1.79426760e-08  4.19782096e-03  1.79426760e-08  6.00059633e-01  1.79426760e-08  1.37504102e+00  1.79426760e-08  1.38568179e+00                                 
 2.35097824e-08  6.74562444e-01  2.35097824e-08  6.02093186e-01  2.35097824e-08  1.16929518e+00  2.35097824e-08  1.80000000e+00  2.35097824e-08 -4.14496747e-03  2.35097824e-08  6.00163928e-01  2.35097824e-08  1.37498332e+00  2.35097824e-08  1.38514738e+00                                 
 3.13930164e-08  6.74569815e-01  3.13930164e-08  6.02122807e-01  3.13930164e-08  1.09411638e+00  3.13930164e-08  1.80000000e+00  3.13930164e-08  4.14093548e-03  3.13930164e-08  6.00687288e-01  3.13930164e-08  1.37553782e+00  3.13930164e-08  1.38466866e+00                                 
 4.41216902e-08  6.74550960e-01  4.41216902e-08  6.02092511e-01  4.41216902e-08  9.73948904e-01  4.41216902e-08  1.80000000e+00  4.41216902e-08 -4.10637042e-03  4.41216902e-08  6.00731314e-01  4.41216902e-08  1.37544141e+00  4.41216902e-08  1.38429858e+00                                 
 6.95790378e-08  6.74561460e-01  6.95790378e-08  6.02122360e-01  6.95790378e-08  7.47553248e-01  6.95790378e-08  1.80000000e+00  6.95790378e-08  4.12243130e-03  6.95790378e-08  6.01130334e-01  6.95790378e-08  1.37590256e+00  6.95790378e-08  1.38411797e+00                                 
 9.19888902e-08  6.74553447e-01  9.19888902e-08  6.02092878e-01  9.19888902e-08  6.25776027e-01  9.19888902e-08  1.80000000e+00  9.19888902e-08 -4.08088176e-03  9.19888902e-08  6.00950604e-01  9.19888902e-08  1.37562668e+00  9.19888902e-08  1.38414669e+00                                 
 1.16504129e-07  6.74554059e-01  1.16504129e-07  6.02121713e-01  1.16504129e-07  6.01833489e-01  1.16504129e-07  1.80000000e+00  1.16504129e-07  4.11490646e-03  1.16504129e-07  6.01166054e-01  1.16504129e-07  1.37593363e+00  1.16504129e-07  1.38416717e+00                                 
 1.31357693e-07  6.74550993e-01  1.31357693e-07  6.02092713e-01  1.31357693e-07  6.01018048e-01  1.31357693e-07  1.80000000e+00  1.31357693e-07 -4.06040487e-03  1.31357693e-07  6.00947700e-01  1.31357693e-07  1.37562400e+00  1.31357693e-07  1.38417209e+00                                 
 1.49302036e-07  6.74558744e-01  1.49302036e-07  6.02121856e-01  1.49302036e-07  6.00047239e-01  1.49302036e-07  1.80000000e+00  1.49302036e-07  4.09309626e-03  1.49302036e-07  6.01162883e-01  1.49302036e-07  1.37592963e+00  1.49302036e-07  1.38417154e+00                                 
 1.75294615e-07  6.74550050e-01  1.75294615e-07  6.02092762e-01  1.75294615e-07  6.00074985e-01  1.75294615e-07  1.80000000e+00  1.75294615e-07 -4.04373917e-03  1.75294615e-07  6.00946436e-01  1.75294615e-07  1.37562173e+00  1.75294615e-07  1.38417224e+00                                 
 2.27279772e-07  6.74559404e-01  2.27279772e-07  6.02121858e-01  2.27279772e-07  5.99877147e-01  2.27279772e-07  1.80000000e+00  2.27279772e-07  4.08286839e-03  2.27279772e-07  6.01162688e-01  2.27279772e-07  1.37592678e+00  2.27279772e-07  1.38416927e+00                                 
 3.10938580e-07  6.74549830e-01  3.10938580e-07  6.02092767e-01  3.10938580e-07  6.00027986e-01  3.10938580e-07  1.80000000e+00  3.10938580e-07 -4.03825235e-03  3.10938580e-07  6.00946251e-01  3.10938580e-07  1.37561724e+00  3.10938580e-07  1.38416770e+00                                 
 4.78256197e-07  6.74559520e-01  4.78256197e-07  6.02121856e-01  4.78256197e-07  5.99895442e-01  4.78256197e-07  1.80000000e+00  4.78256197e-07  4.07969287e-03  4.78256197e-07  6.01162780e-01  4.78256197e-07  1.37591867e+00  4.78256197e-07  1.38416113e+00                                 
 8.12891430e-07  6.74549776e-01  8.12891430e-07  6.02092768e-01  8.12891430e-07  6.00020480e-01  8.12891430e-07  1.80000000e+00  8.12891430e-07 -4.03666665e-03  8.12891430e-07  6.00946205e-01  8.12891430e-07  1.37560091e+00  8.12891430e-07  1.38415141e+00                                 
 1.48216190e-06  6.74559546e-01  1.48216190e-06  6.02121856e-01  1.48216190e-06  5.99899427e-01  1.48216190e-06  1.80000000e+00  1.48216190e-06  4.07889949e-03  1.48216190e-06  6.01162803e-01  1.48216190e-06  1.37588609e+00  1.48216190e-06  1.38412857e+00                                 
 2.68216190e-06  6.74549762e-01  2.68216190e-06  6.02092768e-01  2.68216190e-06  6.00018253e-01  2.68216190e-06  1.80000000e+00  2.68216190e-06 -4.03626480e-03  2.68216190e-06  6.00946194e-01  2.68216190e-06  1.37554025e+00  2.68216190e-06  1.38409082e+00                                 
 3.88216190e-06  6.74559555e-01  3.88216190e-06  6.02121856e-01  3.88216190e-06  5.99899808e-01  3.88216190e-06  1.80000000e+00  3.88216190e-06  4.07860465e-03  3.88216190e-06  6.01162811e-01  3.88216190e-06  1.37580816e+00  3.88216190e-06  1.38405073e+00                                 
 5.08216190e-06  6.74549753e-01  5.08216190e-06  6.02092768e-01  5.08216190e-06  6.00016181e-01  5.08216190e-06  1.80000000e+00  5.08216190e-06 -4.03598687e-03  5.08216190e-06  6.00946185e-01  5.08216190e-06  1.37546226e+00  5.08216190e-06  1.38401292e+00                                 
 6.00100000e-06  6.74559566e-01  6.00100000e-06  6.02121856e-01  6.00100000e-06  5.99901309e-01  6.00100000e-06  1.80000000e+00  6.00100000e-06  4.07826460e-03  6.00100000e-06  6.01162820e-01  6.00100000e-06  1.37573929e+00  6.00100000e-06  1.38398194e+00                                 
 6.00110000e-06  6.74502694e-01  6.00110000e-06  6.01870033e-01  6.00110000e-06  5.98133215e-01  6.00110000e-06  1.62000000e+00  6.00110000e-06  3.07181333e-04  6.00110000e-06  5.99547718e-01  6.00110000e-06  1.37430458e+00  6.00110000e-06  1.38397214e+00                                 
 6.00130000e-06  6.74537246e-01  6.00130000e-06  6.01861198e-01  6.00130000e-06  5.98052661e-01  6.00130000e-06  1.26000000e+00  6.00130000e-06 -3.12428243e-04  6.00130000e-06  5.99188392e-01  6.00130000e-06  1.37399050e+00  6.00130000e-06  1.38398703e+00                                 
 6.00164780e-06  6.74608716e-01  6.00164780e-06  6.02051492e-01  6.00164780e-06  6.00048545e-01  6.00164780e-06  6.33963275e-01  6.00164780e-06  3.46272332e-02  6.00164780e-06  5.99253566e-01  6.00164780e-06  1.37052677e+00  6.00164780e-06  1.38396166e+00                                 
 6.00200000e-06  6.74534782e-01  6.00200000e-06  6.00830320e-01  6.00200000e-06  6.32938143e-01  6.00200000e-06  0.00000000e+00  6.00200000e-06  1.61756949e+00  6.00200000e-06  5.86575338e-01  6.00200000e-06  1.15987872e+00  6.00200000e-06  1.38338328e+00                                 
 6.00204643e-06  6.74552412e-01  6.00204643e-06  6.00153147e-01  6.00204643e-06  6.40903438e-01  6.00204643e-06  0.00000000e+00  6.00204643e-06  1.73410960e+00  6.00204643e-06  5.78892994e-01  6.00204643e-06  1.08387998e+00  6.00204643e-06  1.38338090e+00                                 
 6.00213928e-06  6.74556966e-01  6.00213928e-06  5.99179021e-01  6.00213928e-06  6.45997350e-01  6.00213928e-06  0.00000000e+00  6.00213928e-06  1.81452748e+00  6.00213928e-06  5.67885666e-01  6.00213928e-06  9.33879207e-01  6.00213928e-06  1.38381738e+00                                 
 6.00232499e-06  6.74552442e-01  6.00232499e-06  5.99609105e-01  6.00232499e-06  6.30250595e-01  6.00232499e-06  0.00000000e+00  6.00232499e-06  1.78790102e+00  6.00232499e-06  5.72894187e-01  6.00232499e-06  7.29831744e-01  6.00232499e-06  1.38435465e+00                                 
 6.00251093e-06  6.74555088e-01  6.00251093e-06  6.00859158e-01  6.00251093e-06  6.14790889e-01  6.00251093e-06  0.00000000e+00  6.00251093e-06  1.80598725e+00  6.00251093e-06  5.86275024e-01  6.00251093e-06  6.47356800e-01  6.00251093e-06  1.38438387e+00                                 
 6.00265821e-06  6.74552463e-01  6.00265821e-06  6.01512430e-01  6.00265821e-06  6.07503459e-01  6.00265821e-06  0.00000000e+00  6.00265821e-06  1.79689549e+00  6.00265821e-06  5.92424810e-01  6.00265821e-06  6.21227405e-01  6.00265821e-06  1.38422140e+00                                 
 6.00285651e-06  6.74554880e-01  6.00285651e-06  6.02128437e-01  6.00285651e-06  6.03125825e-01  6.00285651e-06  0.00000000e+00  6.00285651e-06  1.80200522e+00  6.00285651e-06  5.98214260e-01  6.00285651e-06  6.08295152e-01  6.00285651e-06  1.38329820e+00                                 
 6.00306296e-06  6.74553020e-01  6.00306296e-06  6.02353830e-01  6.00306296e-06  6.01515012e-01  6.00306296e-06  0.00000000e+00  6.00306296e-06  1.79882237e+00  6.00306296e-06  5.99953274e-01  6.00306296e-06  6.02968746e-01  6.00306296e-06  1.38215375e+00                                 
 6.00338822e-06  6.74555080e-01  6.00338822e-06  6.02537667e-01  6.00338822e-06  6.01234561e-01  6.00338822e-06  0.00000000e+00  6.00338822e-06  1.80093622e+00  6.00338822e-06  6.01742292e-01  6.00338822e-06  6.01602915e-01  6.00338822e-06  1.37988311e+00                                 
 6.00381693e-06  6.74553553e-01  6.00381693e-06  6.02521007e-01  6.00381693e-06  6.02137451e-01  6.00381693e-06  0.00000000e+00  6.00381693e-06  1.79927791e+00  6.00381693e-06  6.01775920e-01  6.00381693e-06  6.01746528e-01  6.00381693e-06  1.37671750e+00                                 
 6.00457299e-06  6.74555342e-01  6.00457299e-06  6.02503255e-01  6.00457299e-06  6.04252912e-01  6.00457299e-06  0.00000000e+00  6.00457299e-06  1.80066565e+00  6.00457299e-06  6.02303636e-01  6.00457299e-06  6.04170332e-01  6.00457299e-06  1.37064201e+00                                 
 6.00579124e-06  6.74553823e-01  6.00579124e-06  6.02392646e-01  6.00579124e-06  6.07973626e-01  6.00579124e-06  0.00000000e+00  6.00579124e-06  1.79941207e+00  6.00579124e-06  6.02030701e-01  6.00579124e-06  6.07510582e-01  6.00579124e-06  1.36036817e+00                                 
 6.00822772e-06  6.74555411e-01  6.00822772e-06  6.02271333e-01  6.00822772e-06  6.15395667e-01  6.00822772e-06  0.00000000e+00  6.00822772e-06  1.80059445e+00  6.00822772e-06  6.02262003e-01  6.00822772e-06  6.15268532e-01  6.00822772e-06  1.33867063e+00                                 
 6.01310070e-06  6.74553873e-01  6.01310070e-06  6.02098829e-01  6.01310070e-06  6.30037726e-01  6.01310070e-06  0.00000000e+00  6.01310070e-06  1.79944162e+00  6.01310070e-06  6.01710882e-01  6.01310070e-06  6.29524838e-01  6.01310070e-06  1.29418040e+00                                 
 6.02090491e-06  6.74555417e-01  6.02090491e-06  6.02102375e-01  6.02090491e-06  6.52699123e-01  6.02090491e-06  0.00000000e+00  6.02090491e-06  1.80057616e+00  6.02090491e-06  6.01706949e-01  6.02090491e-06  6.52533572e-01  6.02090491e-06  1.22166390e+00                                 
 6.03651332e-06  6.74553886e-01  6.03651332e-06  6.02090481e-01  6.03651332e-06  6.95687351e-01  6.03651332e-06  0.00000000e+00  6.03651332e-06  1.79945044e+00  6.03651332e-06  6.01065941e-01  6.03651332e-06  6.95074936e-01  6.03651332e-06  1.07605744e+00                                 
 6.05059216e-06  6.74555423e-01  6.05059216e-06  6.02117213e-01  6.05059216e-06  7.31713545e-01  6.05059216e-06  0.00000000e+00  6.05059216e-06  1.80056761e+00  6.05059216e-06  6.01265040e-01  6.05059216e-06  7.31530262e-01  6.05059216e-06  9.56195360e-01                                 
 6.07004037e-06  6.74553890e-01  6.07004037e-06  6.02094607e-01  6.07004037e-06  7.77651164e-01  6.07004037e-06  0.00000000e+00  6.07004037e-06  1.79945475e+00  6.07004037e-06  6.00907333e-01  6.07004037e-06  7.76868277e-01  6.07004037e-06  8.41045452e-01                                 
 6.09546497e-06  6.74555422e-01  6.09546497e-06  6.02119647e-01  6.09546497e-06  8.31251451e-01  6.09546497e-06  0.00000000e+00  6.09546497e-06  1.80056065e+00  6.09546497e-06  6.01199685e-01  6.09546497e-06  8.31171285e-01  6.09546497e-06  8.10323599e-01                                 
 6.11158956e-06  6.74553893e-01  6.11158956e-06  6.02094747e-01  6.11158956e-06  8.61786262e-01  6.11158956e-06  0.00000000e+00  6.11158956e-06  1.79945754e+00  6.11158956e-06  6.00890840e-01  6.11158956e-06  8.60837844e-01  6.11158956e-06  8.38258111e-01                                 
 6.12338593e-06  6.74555419e-01  6.12338593e-06  6.02120158e-01  6.12338593e-06  8.82455463e-01  6.12338593e-06  0.00000000e+00  6.12338593e-06  1.80055225e+00  6.12338593e-06  6.01202046e-01  6.12338593e-06  8.82386601e-01  6.12338593e-06  8.59109899e-01                                 
 6.13638958e-06  6.74553896e-01  6.13638958e-06  6.02094245e-01  6.13638958e-06  9.03862442e-01  6.13638958e-06  0.00000000e+00  6.13638958e-06  1.79946412e+00  6.13638958e-06  6.00887511e-01  6.13638958e-06  9.02808626e-01  6.13638958e-06  8.81342134e-01                                 
 6.16239689e-06  6.74555416e-01  6.16239689e-06  6.02120530e-01  6.16239689e-06  9.42261757e-01  6.16239689e-06  0.00000000e+00  6.16239689e-06  1.80054525e+00  6.16239689e-06  6.01206098e-01  6.16239689e-06  9.42237243e-01  6.16239689e-06  9.21741747e-01                                 
