 time            v(vbep)         time            v(vben)         time            v(vout)         time            v(vphi1)        time            v(vphi2)        time            v(vref)         yes             currtemp       
 0.00000000e+00  5.56564165e-01  0.00000000e+00  4.91322497e-01  0.00000000e+00  2.79958172e-01  0.00000000e+00  0.00000000e+00  0.00000000e+00  1.79997041e+00  0.00000000e+00  4.91322497e-01  1.00000000e+00  8.50000000e+01 
 5.00000000e-12  5.56547119e-01  5.00000000e-12  4.91308334e-01  5.00000000e-12  2.80486711e-01  5.00000000e-12  1.80000000e-02  5.00000000e-12  1.80007909e+00  5.00000000e-12  4.91308334e-01                                 
 1.00000000e-11  5.56530284e-01  1.00000000e-11  4.91294458e-01  1.00000000e-11  2.80918748e-01  1.00000000e-11  3.60000000e-02  1.00000000e-11  1.80013864e+00  1.00000000e-11  4.91294458e-01                                 
 2.00000000e-11  5.56496719e-01  2.00000000e-11  4.91266778e-01  2.00000000e-11  2.81636332e-01  2.00000000e-11  7.20000000e-02  2.00000000e-11  1.80019729e+00  2.00000000e-11  4.91266778e-01                                 
 4.00000000e-11  5.56429780e-01  4.00000000e-11  4.91211553e-01  4.00000000e-11  2.82483556e-01  4.00000000e-11  1.44000000e-01  4.00000000e-11  1.80016353e+00  4.00000000e-11  4.91211553e-01                                 
 8.00000000e-11  5.56296278e-01  8.00000000e-11  4.91101372e-01  8.00000000e-11  2.83196801e-01  8.00000000e-11  2.88000000e-01  8.00000000e-11  1.80008046e+00  8.00000000e-11  4.91101372e-01                                 
 1.60000000e-10  5.56030827e-01  1.60000000e-10  4.90882071e-01  1.60000000e-10  2.83803127e-01  1.60000000e-10  5.76000000e-01  1.60000000e-10  1.80003842e+00  1.60000000e-10  4.90882071e-01                                 
 3.20000000e-10  5.55505898e-01  3.20000000e-10  4.90447600e-01  3.20000000e-10  2.86487907e-01  3.20000000e-10  1.15200000e+00  3.20000000e-10  1.80034300e+00  3.20000000e-10  4.90447600e-01                                 
 5.00000000e-10  5.54924624e-01  5.00000000e-10  4.89965235e-01  5.00000000e-10  5.20731790e-01  5.00000000e-10  1.80000000e+00  5.00000000e-10  1.93239166e-01  5.00000000e-10  4.89965235e-01                                 
 5.22740759e-10  5.54851956e-01  5.22740759e-10  4.89904829e-01  5.22740759e-10  5.77399737e-01  5.22740759e-10  1.80000000e+00  5.22740759e-10  4.84591107e-02  5.22740759e-10  4.89904829e-01                                 
 5.68222276e-10  5.54706925e-01  5.68222276e-10  4.89784229e-01  5.68222276e-10  6.82285346e-01  5.68222276e-10  1.80000000e+00  5.68222276e-10 -1.74736935e-02  5.68222276e-10  4.89784229e-01                                 
 6.59185311e-10  5.54418697e-01  6.59185311e-10  4.89544314e-01  6.59185311e-10  8.49926696e-01  6.59185311e-10  1.80000000e+00  6.59185311e-10  1.53394952e-02  6.59185311e-10  4.89544314e-01                                 
 7.76941399e-10  5.54049119e-01  7.76941399e-10  4.89236216e-01  7.76941399e-10  1.01770998e+00  7.76941399e-10  1.80000000e+00  7.76941399e-10 -1.09180276e-02  7.76941399e-10  4.89236216e-01                                 
 9.65695171e-10  5.53464785e-01  9.65695171e-10  4.88748027e-01  9.65695171e-10  1.23273055e+00  9.65695171e-10  1.80000000e+00  9.65695171e-10  1.11903768e-02  9.65695171e-10  4.88748027e-01                                 
 1.30527186e-09  5.52437519e-01  1.30527186e-09  4.87886683e-01  1.30527186e-09  1.50888435e+00  1.30527186e-09  1.80000000e+00  1.30527186e-09 -9.27344014e-03  1.30527186e-09  4.87886683e-01                                 
 1.87973044e-09  5.50765478e-01  1.87973044e-09  4.86476440e-01  1.87973044e-09  1.73177661e+00  1.87973044e-09  1.80000000e+00  1.87973044e-09  9.54856697e-03  1.87973044e-09  4.86476440e-01                                 
 2.17072805e-09  5.49948482e-01  2.17072805e-09  4.85783600e-01  2.17072805e-09  1.76847428e+00  2.17072805e-09  1.80000000e+00  2.17072805e-09 -8.54961181e-03  2.17072805e-09  4.85783600e-01                                 
 2.51314729e-09  5.49011071e-01  2.51314729e-09  4.84985717e-01  2.51314729e-09  1.78791870e+00  2.51314729e-09  1.80000000e+00  2.51314729e-09  8.15536917e-03  2.51314729e-09  4.84985717e-01                                 
 2.89518579e-09  5.47994212e-01  2.89518579e-09  4.84116730e-01  2.89518579e-09  1.79582527e+00  2.89518579e-09  1.80000000e+00  2.89518579e-09 -7.57401299e-03  2.89518579e-09  4.84116730e-01                                 
 3.56576785e-09  5.46277930e-01  3.56576785e-09  4.82642084e-01  3.56576785e-09  1.79921917e+00  3.56576785e-09  1.80000000e+00  3.56576785e-09  7.39426803e-03  3.56576785e-09  4.82642084e-01                                 
 4.31073004e-09  5.44465851e-01  4.31073004e-09  4.81074468e-01  4.31073004e-09  1.79772483e+00  4.31073004e-09  1.80000000e+00  4.31073004e-09 -7.10904273e-03  4.31073004e-09  4.81074468e-01                                 
 5.71773445e-09  5.41277665e-01  5.71773445e-09  4.78291671e-01  5.71773445e-09  1.79465301e+00  5.71773445e-09  1.80000000e+00  5.71773445e-09  7.05671600e-03  5.71773445e-09  4.78291671e-01                                 
 7.82440140e-09  5.36982463e-01  7.82440140e-09  4.74495795e-01  7.82440140e-09  1.78936474e+00  7.82440140e-09  1.80000000e+00  7.82440140e-09 -6.91636385e-03  7.82440140e-09  4.74495795e-01                                 
 9.24034749e-09  5.34368800e-01  9.24034749e-09  4.72160287e-01  9.24034749e-09  1.78649606e+00  9.24034749e-09  1.80000000e+00  9.24034749e-09  6.86152021e-03  9.24034749e-09  4.72160287e-01                                 
 1.08328541e-08  5.31644027e-01  1.08328541e-08  4.69706987e-01  1.08328541e-08  1.78278958e+00  1.08328541e-08  1.80000000e+00  1.08328541e-08 -6.71227924e-03  1.08328541e-08  4.69706987e-01                                 
 1.24263219e-08  5.29115380e-01  1.24263219e-08  4.67414178e-01  1.24263219e-08  1.77975642e+00  1.24263219e-08  1.80000000e+00  1.24263219e-08  6.66344167e-03  1.24263219e-08  4.67414178e-01                                 
 1.39415453e-08  5.26871634e-01  1.39415453e-08  4.65367281e-01  1.39415453e-08  1.77643185e+00  1.39415453e-08  1.80000000e+00  1.39415453e-08 -6.51827616e-03  1.39415453e-08  4.65367281e-01                                 
 1.55432776e-08  5.24650427e-01  1.55432776e-08  4.63329851e-01  1.55432776e-08  1.77353090e+00  1.55432776e-08  1.80000000e+00  1.55432776e-08  6.46901468e-03  1.55432776e-08  4.63329851e-01                                 
 1.73933428e-08  5.22256263e-01  1.73933428e-08  4.61121665e-01  1.73933428e-08  1.76967540e+00  1.73933428e-08  1.80000000e+00  1.73933428e-08 -6.34670537e-03  1.73933428e-08  4.61121665e-01                                 
 1.99263075e-08  5.19239916e-01  1.99263075e-08  4.58321922e-01  1.99263075e-08  1.76512342e+00  1.99263075e-08  1.80000000e+00  1.99263075e-08  6.33167221e-03  1.99263075e-08  4.58321922e-01                                 
 2.30866298e-08  5.15842667e-01  2.30866298e-08  4.55144629e-01  2.30866298e-08  1.75906874e+00  2.30866298e-08  1.80000000e+00  2.30866298e-08 -6.24390787e-03  2.30866298e-08  4.55144629e-01                                 
 2.78728132e-08  5.11327687e-01  2.78728132e-08  4.50882595e-01  2.78728132e-08  1.75098125e+00  2.78728132e-08  1.80000000e+00  2.78728132e-08  6.25639057e-03  2.78728132e-08  4.50882595e-01                                 
 3.46520658e-08  5.05916512e-01  3.46520658e-08  4.45717706e-01  3.46520658e-08  1.73960185e+00  3.46520658e-08  1.80000000e+00  3.46520658e-08 -6.19269555e-03  3.46520658e-08  4.45717706e-01                                 
 4.82105711e-08  4.97258407e-01  4.82105711e-08  4.37357170e-01  4.82105711e-08  1.71889100e+00  4.82105711e-08  1.80000000e+00  4.82105711e-08  6.22547006e-03  4.82105711e-08  4.37357170e-01                                 
 7.53275816e-08  4.84677280e-01  7.53275816e-08  4.25067801e-01  7.53275816e-08  1.68026795e+00  7.53275816e-08  1.80000000e+00  7.53275816e-08 -6.17644100e-03  7.53275816e-08  4.25067801e-01                                 
 1.17152004e-07  4.69647784e-01  1.17152004e-07  4.10616957e-01  1.17152004e-07  1.62460290e+00  1.17152004e-07  1.80000000e+00  1.17152004e-07  6.21733958e-03  1.17152004e-07  4.10616957e-01                                 
 1.61505529e-07  4.54350946e-01  1.61505529e-07  3.96565975e-01  1.61505529e-07  1.56473976e+00  1.61505529e-07  1.80000000e+00  1.61505529e-07 -6.16986982e-03  1.61505529e-07  3.96565975e-01                                 
 2.26964586e-07  4.34368568e-01  2.26964586e-07  3.78651730e-01  2.26964586e-07  1.47816665e+00  2.26964586e-07  1.80000000e+00  2.26964586e-07  6.21221221e-03  2.26964586e-07  3.78651730e-01                                 
 2.98525411e-07  4.14050053e-01  2.98525411e-07  3.60945188e-01  2.98525411e-07  1.38298293e+00  2.98525411e-07  1.80000000e+00  2.98525411e-07 -6.16569900e-03  2.98525411e-07  3.60945188e-01                                 
 4.23219170e-07  3.74411974e-01  4.23219170e-07  3.27725124e-01  4.23219170e-07  1.21352064e+00  4.23219170e-07  1.80000000e+00  4.23219170e-07  6.20907072e-03  4.23219170e-07  3.27725124e-01                                 
 4.49165794e-07  3.64868098e-01  4.49165794e-07  3.19925093e-01  4.49165794e-07  1.17713887e+00  4.49165794e-07  1.80000000e+00  4.49165794e-07  1.02718011e-05  4.49165794e-07  3.19925093e-01                                 
 5.01059044e-07  3.44690557e-01  5.01059044e-07  3.03504927e-01  5.01059044e-07  1.10513200e+00  5.01059044e-07  1.80000000e+00  5.01059044e-07  7.54391585e-06  5.01059044e-07  3.03504927e-01                                 
 6.04845543e-07  5.78450700e-01  6.04845543e-07  5.09741276e-01  6.04845543e-07  1.22148003e+00  6.04845543e-07  1.80000000e+00  6.04845543e-07  2.07518403e-05  6.04845543e-07  5.09741276e-01                                 
 7.12068774e-07  7.00171600e-01  7.12068774e-07  6.27338404e-01  7.12068774e-07  1.22579444e+00  7.12068774e-07  1.80000000e+00  7.12068774e-07  4.01735697e-06  7.12068774e-07  6.27338404e-01                                 
 7.25031600e-07  7.03874969e-01  7.25031600e-07  6.30464697e-01  7.25031600e-07  1.21480419e+00  7.25031600e-07  1.80000000e+00  7.25031600e-07  1.02191079e-05  7.25031600e-07  6.30464697e-01                                 
 7.50957252e-07  7.09321522e-01  7.50957252e-07  6.34987811e-01  7.50957252e-07  1.19256999e+00  7.50957252e-07  1.80000000e+00  7.50957252e-07  9.96457853e-06  7.50957252e-07  6.34987811e-01                                 
 8.02808557e-07  7.13167834e-01  8.02808557e-07  6.38137558e-01  8.02808557e-07  1.14246732e+00  8.02808557e-07  1.80000000e+00  8.02808557e-07  9.59462559e-06  8.02808557e-07  6.38137558e-01                                 
 8.54203043e-07  7.10707907e-01  8.54203043e-07  6.36138061e-01  8.54203043e-07  1.08910760e+00  8.54203043e-07  1.80000000e+00  8.54203043e-07  9.44871852e-06  8.54203043e-07  6.36138061e-01                                 
 8.62514599e-07  7.08197865e-01  8.62514599e-07  6.34085605e-01  8.62514599e-07  1.07899489e+00  8.62514599e-07  1.80000000e+00  8.62514599e-07  8.96148134e-06  8.62514599e-07  6.34085605e-01                                 
 8.79137711e-07  7.00528634e-01  8.79137711e-07  6.27696462e-01  8.79137711e-07  1.05658042e+00  8.79137711e-07  1.80000000e+00  8.79137711e-07  8.21939819e-06  8.79137711e-07  6.27696462e-01                                 
 9.12383935e-07  6.87713929e-01  9.12383935e-07  6.16631467e-01  9.12383935e-07  1.01621016e+00  9.12383935e-07  1.80000000e+00  9.12383935e-07  9.39376552e-06  9.12383935e-07  6.16631467e-01                                 
 9.57266709e-07  6.93380692e-01  9.57266709e-07  6.21539649e-01  9.57266709e-07  9.86892785e-01  9.57266709e-07  1.80000000e+00  9.57266709e-07  1.07942770e-05  9.57266709e-07  6.21539649e-01                                 
 1.02073771e-06  7.03826363e-01  1.02073771e-06  6.30437721e-01  1.02073771e-06  9.51815658e-01  1.02073771e-06  1.80000000e+00  1.02073771e-06  9.66648739e-06  1.02073771e-06  6.30437721e-01                                 
 1.08737282e-06  6.96875507e-01  1.08737282e-06  6.24571216e-01  1.08737282e-06  9.02030844e-01  1.08737282e-06  1.80000000e+00  1.08737282e-06  9.59954605e-06  1.08737282e-06  6.24571216e-01                                 
 1.19024018e-06  6.95008758e-01  1.19024018e-06  6.22951006e-01  1.19024018e-06  8.36959778e-01  1.19024018e-06  1.80000000e+00  1.19024018e-06  1.01398833e-05  1.19024018e-06  6.22951006e-01                                 
 1.28596396e-06  7.01330669e-01  1.28596396e-06  6.28344622e-01  1.28596396e-06  7.86121418e-01  1.28596396e-06  1.80000000e+00  1.28596396e-06  1.00524167e-05  1.28596396e-06  6.28344622e-01                                 
 1.46752056e-06  6.94855818e-01  1.46752056e-06  6.22830247e-01  1.46752056e-06  6.84140342e-01  1.46752056e-06  1.80000000e+00  1.46752056e-06  9.78762288e-06  1.46752056e-06  6.22830247e-01                                 
 1.63586907e-06  6.99101992e-01  1.63586907e-06  6.26453076e-01  1.63586907e-06  6.33964271e-01  1.63586907e-06  1.80000000e+00  1.63586907e-06  1.05689054e-05  1.63586907e-06  6.26453076e-01                                 
 1.80940377e-06  6.97878882e-01  1.80940377e-06  6.25420733e-01  1.80940377e-06  6.16722619e-01  1.80940377e-06  1.80000000e+00  1.80940377e-06  9.85181427e-06  1.80940377e-06  6.25420733e-01                                 
 2.00393561e-06  6.96621693e-01  2.00393561e-06  6.24339367e-01  2.00393561e-06  6.25532005e-01  2.00393561e-06  1.80000000e+00  2.00393561e-06  1.06923547e-05  2.00393561e-06  6.24339367e-01                                 
 2.18347735e-06  6.99559540e-01  2.18347735e-06  6.26846609e-01  2.18347735e-06  6.28994417e-01  2.18347735e-06  1.80000000e+00  2.18347735e-06  9.91044027e-06  2.18347735e-06  6.26846609e-01                                 
 2.37273634e-06  6.95809541e-01  2.37273634e-06  6.23647629e-01  2.37273634e-06  6.21585155e-01  2.37273634e-06  1.80000000e+00  2.37273634e-06  1.05139724e-05  2.37273634e-06  6.23647629e-01                                 
 2.64752796e-06  6.99491711e-01  2.64752796e-06  6.26785794e-01  2.64752796e-06  6.28640881e-01  2.64752796e-06  1.80000000e+00  2.64752796e-06  1.00848749e-05  2.64752796e-06  6.26785794e-01                                 
 2.91733832e-06  6.96343193e-01  2.91733832e-06  6.24107426e-01  2.91733832e-06  6.23077490e-01  2.91733832e-06  1.80000000e+00  2.91733832e-06  1.03838624e-05  2.91733832e-06  6.24107426e-01                                 
 3.29613181e-06  6.98857773e-01  3.29613181e-06  6.26245949e-01  3.29613181e-06  6.27363961e-01  3.29613181e-06  1.80000000e+00  3.29613181e-06  1.01785708e-05  3.29613181e-06  6.26245949e-01                                 
 3.78659131e-06  6.96935536e-01  3.78659131e-06  6.24615115e-01  3.78659131e-06  6.24080594e-01  3.78659131e-06  1.80000000e+00  3.78659131e-06  1.03300410e-05  3.78659131e-06  6.24615115e-01                                 
 4.47913158e-06  6.98410781e-01  4.47913158e-06  6.25865352e-01  4.47913158e-06  6.26675380e-01  4.47913158e-06  1.80000000e+00  4.47913158e-06  1.02095795e-05  4.47913158e-06  6.25865352e-01                                 
 5.47913158e-06  6.97269185e-01  5.47913158e-06  6.24900475e-01  5.47913158e-06  6.24557508e-01  5.47913158e-06  1.80000000e+00  5.47913158e-06  1.03130477e-05  5.47913158e-06  6.24900475e-01                                 
 6.47913158e-06  6.98145085e-01  6.47913158e-06  6.25639048e-01  6.47913158e-06  6.26307277e-01  6.47913158e-06  1.80000000e+00  6.47913158e-06  1.02203008e-05  6.47913158e-06  6.25639048e-01                                 
 7.47913158e-06  6.97536617e-01  7.47913158e-06  6.25128756e-01  7.47913158e-06  6.24921573e-01  7.47913158e-06  1.80000000e+00  7.47913158e-06  1.03048830e-05  7.47913158e-06  6.25128756e-01                                 
 8.47913158e-06  6.97887432e-01  8.47913158e-06  6.25419495e-01  8.47913158e-06  6.25961240e-01  8.47913158e-06  1.80000000e+00  8.47913158e-06  1.02259559e-05  8.47913158e-06  6.25419495e-01                                 
 9.47913158e-06  6.97789891e-01  9.47913158e-06  6.25344742e-01  9.47913158e-06  6.25254263e-01  9.47913158e-06  1.80000000e+00  9.47913158e-06  1.03016606e-05  9.47913158e-06  6.25344742e-01                                 
 1.00005000e-05  6.97539385e-01  1.00005000e-05  6.25122827e-01  1.00005000e-05  6.25514771e-01  1.00005000e-05  1.80000000e+00  1.00005000e-05  1.02257478e-05  1.00005000e-05  6.25122827e-01                                 
 1.00005500e-05  6.97544788e-01  1.00005500e-05  6.25127901e-01  1.00005500e-05  6.18752790e-01  1.00005500e-05  1.62000000e+00  1.00005500e-05 -1.22985747e-04  1.00005500e-05  6.25127901e-01                                 
 1.00006500e-05  6.97556444e-01  1.00006500e-05  6.25137919e-01  1.00006500e-05  6.07144292e-01  1.00006500e-05  1.26000000e+00  1.00006500e-05 -9.95975395e-05  1.00006500e-05  6.25137919e-01                                 
 1.00008500e-05  6.97578101e-01  1.00008500e-05  6.25156102e-01  1.00008500e-05  5.97945940e-01  1.00008500e-05  5.40000000e-01  1.00008500e-05  3.09415548e-02  1.00008500e-05  6.25156102e-01                                 
 1.00010000e-05  6.97592276e-01  1.00010000e-05  6.25168293e-01  1.00010000e-05  5.57575231e-01  1.00010000e-05  0.00000000e+00  1.00010000e-05  1.55080052e+00  1.00010000e-05  6.25168293e-01                                 
 1.00010248e-05  6.97594537e-01  1.00010248e-05  6.25170193e-01  1.00010248e-05  5.38513326e-01  1.00010248e-05  0.00000000e+00  1.00010248e-05  1.70291676e+00  1.00010248e-05  6.25170193e-01                                 
 1.00010744e-05  6.97598967e-01  1.00010744e-05  6.25173952e-01  1.00010744e-05  5.09332127e-01  1.00010744e-05  0.00000000e+00  1.00010744e-05  1.81859890e+00  1.00010744e-05  6.25173952e-01                                 
 1.00011736e-05  6.97607478e-01  1.00011736e-05  6.25181227e-01  1.00011736e-05  4.92968373e-01  1.00011736e-05  0.00000000e+00  1.00011736e-05  1.78972226e+00  1.00011736e-05  6.25181227e-01                                 
 1.00013152e-05  6.97618925e-01  1.00013152e-05  6.25191045e-01  1.00013152e-05  4.97448646e-01  1.00013152e-05  0.00000000e+00  1.00013152e-05  1.80685884e+00  1.00013152e-05  6.25191045e-01                                 
 1.00014690e-05  6.97630543e-01  1.00014690e-05  6.25201035e-01  1.00014690e-05  4.97150152e-01  1.00014690e-05  0.00000000e+00  1.00014690e-05  1.79543599e+00  1.00014690e-05  6.25201035e-01                                 
 1.00017499e-05  6.97650171e-01  1.00017499e-05  6.25217927e-01  1.00017499e-05  4.98211431e-01  1.00017499e-05  0.00000000e+00  1.00017499e-05  1.80370541e+00  1.00017499e-05  6.25217927e-01                                 
 1.00023117e-05  6.97685402e-01  1.00023117e-05  6.25248273e-01  1.00023117e-05  4.98010651e-01  1.00023117e-05  0.00000000e+00  1.00023117e-05  1.79666421e+00  1.00023117e-05  6.25248273e-01                                 
 1.00030497e-05  6.97727233e-01  1.00030497e-05  6.25284223e-01  1.00030497e-05  4.98467952e-01  1.00030497e-05  0.00000000e+00  1.00030497e-05  1.80306399e+00  1.00030497e-05  6.25284223e-01                                 
 1.00045257e-05  6.97805087e-01  1.00045257e-05  6.25350881e-01  1.00045257e-05  4.98584114e-01  1.00045257e-05  0.00000000e+00  1.00045257e-05  1.79705019e+00  1.00045257e-05  6.25350881e-01                                 
 1.00074778e-05  6.97949916e-01  1.00074778e-05  6.25474517e-01  1.00074778e-05  4.99980554e-01  1.00074778e-05  0.00000000e+00  1.00074778e-05  1.80288282e+00  1.00074778e-05  6.25474517e-01                                 
