 time            v(vbep)         time            v(vben)         time            v(vout)         time            v(vphi1)        time            v(vphi2)        time            v(vref)         time            v(voutc)        time            v(voutcc)       yes             currtemp       
 0.00000000e+00  8.04793215e-01  0.00000000e+00  7.50897902e-01  0.00000000e+00  1.66530426e+00  0.00000000e+00  0.00000000e+00  0.00000000e+00  1.80000000e+00  0.00000000e+00  7.54071392e-01  0.00000000e+00  1.66530426e+00  0.00000000e+00  1.67099684e+00  1.00000000e+00  6.00000000e+00 
 1.00000000e-11  8.04816956e-01  1.00000000e-11  7.50968243e-01  1.00000000e-11  1.66610775e+00  1.00000000e-11  1.80000000e-02  1.00000000e-11  1.80024714e+00  1.00000000e-11  7.54595167e-01  1.00000000e-11  1.66576874e+00  1.00000000e-11  1.67101118e+00                                 
 2.00000000e-11  8.04823486e-01  2.00000000e-11  7.51012493e-01  2.00000000e-11  1.66662709e+00  2.00000000e-11  3.60000000e-02  2.00000000e-11  1.80034794e+00  2.00000000e-11  7.54987465e-01  2.00000000e-11  1.66612664e+00  2.00000000e-11  1.67101729e+00                                 
 4.00000000e-11  8.04823302e-01  4.00000000e-11  7.51070538e-01  4.00000000e-11  1.66728746e+00  4.00000000e-11  7.20000000e-02  4.00000000e-11  1.80039069e+00  4.00000000e-11  7.55563728e-01  4.00000000e-11  1.66666939e+00  4.00000000e-11  1.67102058e+00                                 
 8.00000000e-11  8.04811473e-01  8.00000000e-11  7.51105939e-01  8.00000000e-11  1.66751824e+00  8.00000000e-11  1.44000000e-01  8.00000000e-11  1.80019237e+00  8.00000000e-11  7.56012981e-01  8.00000000e-11  1.66714457e+00  8.00000000e-11  1.67101034e+00                                 
 1.60000000e-10  8.04808181e-01  1.60000000e-10  7.51110468e-01  1.60000000e-10  1.66722566e+00  1.60000000e-10  2.88000000e-01  1.60000000e-10  1.80000683e+00  1.60000000e-10  7.56067581e-01  1.60000000e-10  1.66725797e+00  1.60000000e-10  1.67099932e+00                                 
 3.20000000e-10  8.04805205e-01  3.20000000e-10  7.51112128e-01  3.20000000e-10  1.66689906e+00  3.20000000e-10  5.76000000e-01  3.20000000e-10  1.80000812e+00  3.20000000e-10  7.55992540e-01  3.20000000e-10  1.66710368e+00  3.20000000e-10  1.67099673e+00                                 
 6.40000000e-10  8.04729456e-01  6.40000000e-10  7.50841563e-01  6.40000000e-10  1.66256018e+00  6.40000000e-10  1.15200000e+00  6.40000000e-10  1.81314476e+00  6.40000000e-10  7.54901765e-01  6.40000000e-10  1.67214371e+00  6.40000000e-10  1.67102611e+00                                 
 9.98261061e-10  8.05257324e-01  9.98261061e-10  7.50937608e-01  9.98261061e-10  1.63392908e+00  9.98261061e-10  1.79686991e+00  9.98261061e-10  8.12774452e-02  9.98261061e-10  7.59363481e-01  9.98261061e-10  1.66500749e+00  9.98261061e-10  1.67093664e+00                                 
 1.00000000e-09  8.05263101e-01  1.00000000e-09  7.50943131e-01  1.00000000e-09  1.63378575e+00  1.00000000e-09  1.80000000e+00  1.00000000e-09  6.78340632e-02  1.00000000e-09  7.59483348e-01  1.00000000e-09  1.66492134e+00  1.00000000e-09  1.67093741e+00                                 
 1.00347788e-09  8.05251229e-01  1.00347788e-09  7.50929349e-01  1.00347788e-09  1.63352321e+00  1.00347788e-09  1.80000000e+00  1.00347788e-09  4.96434705e-02  1.00347788e-09  7.59684464e-01  1.00347788e-09  1.66484566e+00  1.00347788e-09  1.67094196e+00                                 
 1.01043363e-09  8.05232630e-01  1.01043363e-09  7.50931756e-01  1.01043363e-09  1.63335563e+00  1.01043363e-09  1.80000000e+00  1.01043363e-09  2.33514367e-02  1.01043363e-09  7.60295483e-01  1.01043363e-09  1.66502240e+00  1.01043363e-09  1.67096270e+00                                 
 1.02434514e-09  8.05219115e-01  1.02434514e-09  7.50999208e-01  1.02434514e-09  1.63391804e+00  1.02434514e-09  1.80000000e+00  1.02434514e-09  4.62519467e-03  1.02434514e-09  7.61887202e-01  1.02434514e-09  1.66617887e+00  1.02434514e-09  1.67101353e+00                                 
 1.05216816e-09  8.05249401e-01  1.05216816e-09  7.51077218e-01  1.05216816e-09  1.63467625e+00  1.05216816e-09  1.80000000e+00  1.05216816e-09  6.43650455e-04  1.05216816e-09  7.63801938e-01  1.05216816e-09  1.66783660e+00  1.05216816e-09  1.67103512e+00                                 
 1.10781419e-09  8.05340264e-01  1.10781419e-09  7.51040267e-01  1.10781419e-09  1.63402983e+00  1.10781419e-09  1.80000000e+00  1.10781419e-09  9.07769984e-04  1.10781419e-09  7.64651181e-01  1.10781419e-09  1.66860248e+00  1.10781419e-09  1.67100196e+00                                 
 1.21910626e-09  8.05475772e-01  1.21910626e-09  7.50947554e-01  1.21910626e-09  1.63147582e+00  1.21910626e-09  1.80000000e+00  1.21910626e-09  2.54890484e-04  1.21910626e-09  7.65177106e-01  1.21910626e-09  1.66903342e+00  1.21910626e-09  1.67100713e+00                                 
 1.44169039e-09  8.05579206e-01  1.44169039e-09  7.50920988e-01  1.44169039e-09  1.62796169e+00  1.44169039e-09  1.80000000e+00  1.44169039e-09  2.57551154e-04  1.44169039e-09  7.65448670e-01  1.44169039e-09  1.66926266e+00  1.44169039e-09  1.67100775e+00                                 
 1.74107671e-09  8.05448093e-01  1.74107671e-09  7.50899550e-01  1.74107671e-09  1.62784329e+00  1.74107671e-09  1.80000000e+00  1.74107671e-09 -1.68427871e-04  1.74107671e-09  7.64540933e-01  1.74107671e-09  1.66848659e+00  1.74107671e-09  1.67101308e+00                                 
 2.01727791e-09  8.05262934e-01  2.01727791e-09  7.50895356e-01  2.01727791e-09  1.62934522e+00  2.01727791e-09  1.80000000e+00  2.01727791e-09  8.60736246e-05  2.01727791e-09  7.63805055e-01  2.01727791e-09  1.66786680e+00  2.01727791e-09  1.67102577e+00                                 
 2.35893648e-09  8.05061512e-01  2.35893648e-09  7.50881903e-01  2.35893648e-09  1.63100374e+00  2.35893648e-09  1.80000000e+00  2.35893648e-09 -1.58055244e-04  2.35893648e-09  7.62806986e-01  2.35893648e-09  1.66701555e+00  2.35893648e-09  1.67104046e+00                                 
 2.88930643e-09  8.04858191e-01  2.88930643e-09  7.50876713e-01  2.88930643e-09  1.63323290e+00  2.88930643e-09  1.80000000e+00  2.88930643e-09  6.91193942e-05  2.88930643e-09  7.61458624e-01  2.88930643e-09  1.66587422e+00  2.88930643e-09  1.67106820e+00                                 
 3.95004634e-09  8.04693709e-01  3.95004634e-09  7.50869502e-01  3.95004634e-09  1.63605900e+00  3.95004634e-09  1.80000000e+00  3.95004634e-09 -1.45049576e-04  3.95004634e-09  7.59056998e-01  3.95004634e-09  1.66383076e+00  3.95004634e-09  1.67110543e+00                                 
 6.07152617e-09  8.04687127e-01  6.07152617e-09  7.50881825e-01  6.07152617e-09  1.63772119e+00  6.07152617e-09  1.80000000e+00  6.07152617e-09  7.13586818e-05  6.07152617e-09  7.55903040e-01  6.07152617e-09  1.66115599e+00  6.07152617e-09  1.67110060e+00                                 
 8.13597678e-09  8.04721688e-01  8.13597678e-09  7.50889422e-01  8.13597678e-09  1.63643896e+00  8.13597678e-09  1.80000000e+00  8.13597678e-09 -1.30797045e-04  8.13597678e-09  7.54279896e-01  8.13597678e-09  1.65977442e+00  8.13597678e-09  1.67098751e+00                                 
 9.94734710e-09  8.04717271e-01  9.94734710e-09  7.50896207e-01  9.94734710e-09  1.63539021e+00  9.94734710e-09  1.80000000e+00  9.94734710e-09  8.49246774e-05  9.94734710e-09  7.53619659e-01  9.94734710e-09  1.65921606e+00  9.94734710e-09  1.67083073e+00                                 
 1.19989598e-08  8.04712979e-01  1.19989598e-08  7.50895732e-01  1.19989598e-08  1.63443653e+00  1.19989598e-08  1.80000000e+00  1.19989598e-08 -1.09964128e-04  1.19989598e-08  7.53214744e-01  1.19989598e-08  1.65886518e+00  1.19989598e-08  1.67061419e+00                                 
 1.46278311e-08  8.04734296e-01  1.46278311e-08  7.50898737e-01  1.46278311e-08  1.63210011e+00  1.46278311e-08  1.80000000e+00  1.46278311e-08  9.38198385e-05  1.46278311e-08  7.53080640e-01  1.46278311e-08  1.65874651e+00  1.46278311e-08  1.67032033e+00                                 
 1.80492816e-08  8.04764130e-01  1.80492816e-08  7.50896571e-01  1.80492816e-08  1.62663368e+00  1.80492816e-08  1.80000000e+00  1.80492816e-08 -1.01651299e-04  1.80492816e-08  7.53058157e-01  1.80492816e-08  1.65871039e+00  1.80492816e-08  1.66993637e+00                                 
 2.25275105e-08  8.04787549e-01  2.25275105e-08  7.50899118e-01  2.25275105e-08  1.61717102e+00  2.25275105e-08  1.80000000e+00  2.25275105e-08  9.52524844e-05  2.25275105e-08  7.53203454e-01  2.25275105e-08  1.65881785e+00  2.25275105e-08  1.66947034e+00                                 
 2.88413766e-08  8.04797239e-01  2.88413766e-08  7.50896988e-01  2.88413766e-08  1.60199750e+00  2.88413766e-08  1.80000000e+00  2.88413766e-08 -9.96786184e-05  2.88413766e-08  7.53354549e-01  2.88413766e-08  1.65891856e+00  2.88413766e-08  1.66888520e+00                                 
 3.88030198e-08  8.04798011e-01  3.88030198e-08  7.50899210e-01  3.88030198e-08  1.57696394e+00  3.88030198e-08  1.80000000e+00  3.88030198e-08  9.47768159e-05  3.88030198e-08  7.53602501e-01  3.88030198e-08  1.65910286e+00  3.88030198e-08  1.66812604e+00                                 
 5.39930618e-08  8.04795549e-01  5.39930618e-08  7.50896829e-01  5.39930618e-08  1.53778039e+00  5.39930618e-08  1.80000000e+00  5.39930618e-08 -9.93101702e-05  5.39930618e-08  7.53787722e-01  5.39930618e-08  1.65922748e+00  5.39930618e-08  1.66725720e+00                                 
 8.43731456e-08  8.04794417e-01  8.43731456e-08  7.50899042e-01  8.43731456e-08  1.45853656e+00  8.43731456e-08  1.80000000e+00  8.43731456e-08  9.44126323e-05  8.43731456e-08  7.54010076e-01  8.43731456e-08  1.65938951e+00  8.43731456e-08  1.66620037e+00                                 
 1.45133313e-07  8.04792980e-01  1.45133313e-07  7.50896769e-01  1.45133313e-07  1.30018449e+00  1.45133313e-07  1.80000000e+00  1.45133313e-07 -9.92285897e-05  1.45133313e-07  7.54062006e-01  1.45133313e-07  1.65941046e+00  1.45133313e-07  1.66536132e+00                                 
 2.27123346e-07  8.04793498e-01  2.27123346e-07  7.50899036e-01  2.27123346e-07  1.09001815e+00  2.27123346e-07  1.80000000e+00  2.27123346e-07  9.45064650e-05  2.27123346e-07  7.54083827e-01  2.27123346e-07  1.65942523e+00  2.27123346e-07  1.66514244e+00                                 
 3.52383162e-07  8.04792940e-01  3.52383162e-07  7.50896768e-01  3.52383162e-07  8.22849380e-01  3.52383162e-07  1.80000000e+00  3.52383162e-07 -9.75464173e-05  3.52383162e-07  7.54057253e-01  3.52383162e-07  1.65939324e+00  3.52383162e-07  1.66510913e+00                                 
 4.58924740e-07  8.04793719e-01  4.58924740e-07  7.50899055e-01  4.58924740e-07  7.47219171e-01  4.58924740e-07  1.80000000e+00  4.58924740e-07  9.69151155e-05  4.58924740e-07  7.54086853e-01  4.58924740e-07  1.65941740e+00  4.58924740e-07  1.66511086e+00                                 
 5.59389737e-07  8.04792335e-01  5.59389737e-07  7.50896730e-01  5.59389737e-07  7.60606063e-01  5.59389737e-07  1.80000000e+00  5.59389737e-07 -9.65590943e-05  5.59389737e-07  7.54056851e-01  5.59389737e-07  1.65938462e+00  5.59389737e-07  1.66510497e+00                                 
 6.08345005e-07  8.04794286e-01  6.08345005e-07  7.50899080e-01  6.08345005e-07  7.57520460e-01  6.08345005e-07  1.80000000e+00  6.08345005e-07  9.66348082e-05  6.08345005e-07  7.54085081e-01  6.08345005e-07  1.65940985e+00  6.08345005e-07  1.66510408e+00                                 
 6.68990731e-07  8.04792205e-01  6.68990731e-07  7.50896732e-01  6.68990731e-07  7.57195332e-01  6.68990731e-07  1.80000000e+00  6.68990731e-07 -9.65564037e-05  6.68990731e-07  7.54057733e-01  6.68990731e-07  1.65938096e+00  6.68990731e-07  1.66510010e+00                                 
 7.51006221e-07  8.04794176e-01  7.51006221e-07  7.50899069e-01  7.51006221e-07  7.57380192e-01  7.51006221e-07  1.80000000e+00  7.51006221e-07  9.66177975e-05  7.51006221e-07  7.54085109e-01  7.51006221e-07  1.65940414e+00  7.51006221e-07  1.66509847e+00                                 
 8.75861770e-07  8.04792280e-01  8.75861770e-07  7.50896739e-01  8.75861770e-07  7.57203788e-01  8.75861770e-07  1.80000000e+00  8.75861770e-07 -9.65497278e-05  8.75861770e-07  7.54057665e-01  8.75861770e-07  1.65937258e+00  8.75861770e-07  1.66509180e+00                                 
 1.12557287e-06  8.04794136e-01  1.12557287e-06  7.50899067e-01  1.12557287e-06  7.57378903e-01  1.12557287e-06  1.80000000e+00  1.12557287e-06  9.66273114e-05  1.12557287e-06  7.54085147e-01  1.12557287e-06  1.65938912e+00  1.12557287e-06  1.66508342e+00                                 
 1.62499506e-06  8.04792299e-01  1.62499506e-06  7.50896740e-01  1.62499506e-06  7.57213917e-01  1.62499506e-06  1.80000000e+00  1.62499506e-06 -9.66235758e-05  1.62499506e-06  7.54057654e-01  1.62499506e-06  1.65934249e+00  1.62499506e-06  1.66506177e+00                                 
 2.62383946e-06  8.04794126e-01  2.62383946e-06  7.50899066e-01  2.62383946e-06  7.57380366e-01  2.62383946e-06  1.80000000e+00  2.62383946e-06  9.66193749e-05  2.62383946e-06  7.54085154e-01  2.62383946e-06  1.65932895e+00  2.62383946e-06  1.66502337e+00                                 
 3.82383946e-06  8.04792305e-01  3.82383946e-06  7.50896740e-01  3.82383946e-06  7.57217248e-01  3.82383946e-06  1.80000000e+00  3.82383946e-06 -9.64784243e-05  3.82383946e-06  7.54057645e-01  3.82383946e-06  1.65925414e+00  3.82383946e-06  1.66497361e+00                                 
 5.02383946e-06  8.04794121e-01  5.02383946e-06  7.50899065e-01  5.02383946e-06  7.57381768e-01  5.02383946e-06  1.80000000e+00  5.02383946e-06  9.65554730e-05  5.02383946e-06  7.54085151e-01  5.02383946e-06  1.65923248e+00  5.02383946e-06  1.66492710e+00                                 
 6.00100000e-06  8.04792311e-01  6.00100000e-06  7.50896740e-01  6.00100000e-06  7.57218856e-01  6.00100000e-06  1.80000000e+00  6.00100000e-06 -9.64208269e-05  6.00100000e-06  7.54057639e-01  6.00100000e-06  1.65916659e+00  6.00100000e-06  1.66488625e+00                                 
 6.00110000e-06  8.04756508e-01  6.00110000e-06  7.50661547e-01  6.00110000e-06  7.55262992e-01  6.00110000e-06  1.62000000e+00  6.00110000e-06 -1.06567605e-04  6.00110000e-06  7.52315924e-01  6.00110000e-06  1.65768868e+00  6.00110000e-06  1.66487402e+00                                 
 6.00130000e-06  8.04787829e-01  6.00130000e-06  7.50699686e-01  6.00130000e-06  7.55834770e-01  6.00130000e-06  1.26000000e+00  6.00130000e-06  4.40209443e-05  6.00130000e-06  7.52485002e-01  6.00130000e-06  1.65783508e+00  6.00130000e-06  1.66489437e+00                                 
 6.00170000e-06  8.04827132e-01  6.00170000e-06  7.50721350e-01  6.00170000e-06  7.63941160e-01  6.00170000e-06  5.40000000e-01  6.00170000e-06  9.71951969e-01  6.00170000e-06  7.51191174e-01  6.00170000e-06  1.63276183e+00  6.00170000e-06  1.66476369e+00                                 
 6.00200000e-06  8.04783164e-01  6.00200000e-06  7.48441860e-01  6.00200000e-06  7.99244575e-01  6.00200000e-06  0.00000000e+00  6.00200000e-06  1.78033793e+00  6.00200000e-06  7.25537494e-01  6.00200000e-06  1.37960660e+00  6.00200000e-06  1.66410621e+00                                 
 6.00204316e-06  8.04793027e-01  6.00204316e-06  7.48320940e-01  6.00204316e-06  7.98063556e-01  6.00204316e-06  0.00000000e+00  6.00204316e-06  1.79181953e+00  6.00204316e-06  7.24250108e-01  6.00204316e-06  1.32583173e+00  6.00204316e-06  1.66446324e+00                                 
 6.00212947e-06  8.04793797e-01  6.00212947e-06  7.48293933e-01  6.00212947e-06  7.92676884e-01  6.00212947e-06  0.00000000e+00  6.00212947e-06  1.79995132e+00  6.00212947e-06  7.24390071e-01  6.00212947e-06  1.23096652e+00  6.00212947e-06  1.66493305e+00                                 
 6.00230210e-06  8.04791421e-01  6.00230210e-06  7.48677387e-01  6.00230210e-06  7.84080749e-01  6.00230210e-06  0.00000000e+00  6.00230210e-06  1.79836366e+00  6.00230210e-06  7.29366374e-01  6.00230210e-06  1.09384550e+00  6.00230210e-06  1.66499572e+00                                 
 6.00251446e-06  8.04792856e-01  6.00251446e-06  7.49092533e-01  6.00251446e-06  7.79232967e-01  6.00251446e-06  0.00000000e+00  6.00251446e-06  1.80024421e+00  6.00251446e-06  7.33662511e-01  6.00251446e-06  9.74130514e-01  6.00251446e-06  1.66513461e+00                                 
 6.00277488e-06  8.04791181e-01  6.00277488e-06  7.49671935e-01  6.00277488e-06  7.73194412e-01  6.00277488e-06  0.00000000e+00  6.00277488e-06  1.79908108e+00  6.00277488e-06  7.39049814e-01  6.00277488e-06  8.67191238e-01  6.00277488e-06  1.66517311e+00                                 
 6.00311038e-06  8.04793020e-01  6.00311038e-06  7.50503143e-01  6.00311038e-06  7.65037800e-01  6.00311038e-06  0.00000000e+00  6.00311038e-06  1.80016585e+00  6.00311038e-06  7.46692177e-01  6.00311038e-06  7.91251018e-01  6.00311038e-06  1.66520220e+00                                 
 6.00347035e-06  8.04791681e-01  6.00347035e-06  7.51121679e-01  6.00347035e-06  7.59331797e-01  6.00347035e-06  0.00000000e+00  6.00347035e-06  1.79976508e+00  6.00347035e-06  7.52012125e-01  6.00347035e-06  7.65325158e-01  6.00347035e-06  1.66500734e+00                                 
 6.00381696e-06  8.04793397e-01  6.00381696e-06  7.51357026e-01  6.00381696e-06  7.58444325e-01  6.00381696e-06  0.00000000e+00  6.00381696e-06  1.80022262e+00  6.00381696e-06  7.53725800e-01  6.00381696e-06  7.59694194e-01  6.00381696e-06  1.66466352e+00                                 
 6.00424085e-06  8.04792170e-01  6.00424085e-06  7.51439909e-01  6.00424085e-06  7.57905393e-01  6.00424085e-06  0.00000000e+00  6.00424085e-06  1.79983001e+00  6.00424085e-06  7.54524942e-01  6.00424085e-06  7.58331557e-01  6.00424085e-06  1.66401434e+00                                 
 6.00479873e-06  8.04793703e-01  6.00479873e-06  7.51408185e-01  6.00479873e-06  7.58793574e-01  6.00479873e-06  0.00000000e+00  6.00479873e-06  1.80016808e+00  6.00479873e-06  7.54748438e-01  6.00479873e-06  7.58437551e-01  6.00479873e-06  1.66302306e+00                                 
 6.00591449e-06  8.04792502e-01  6.00591449e-06  7.51294987e-01  6.00591449e-06  7.59939472e-01  6.00591449e-06  0.00000000e+00  6.00591449e-06  1.79985458e+00  6.00591449e-06  7.54993387e-01  6.00591449e-06  7.59912185e-01  6.00591449e-06  1.66074744e+00                                 
 6.00785452e-06  8.04793855e-01  6.00785452e-06  7.51139793e-01  6.00785452e-06  7.63208994e-01  6.00785452e-06  0.00000000e+00  6.00785452e-06  1.80015507e+00  6.00785452e-06  7.55043752e-01  6.00785452e-06  7.62742631e-01  6.00785452e-06  1.65656809e+00                                 
 6.01173456e-06  8.04792557e-01  6.01173456e-06  7.50987565e-01  6.01173456e-06  7.69172716e-01  6.01173456e-06  0.00000000e+00  6.01173456e-06  1.79986094e+00  6.01173456e-06  7.55052998e-01  6.01173456e-06  7.69070040e-01  6.01173456e-06  1.64808495e+00                                 
 6.01949464e-06  8.04793866e-01  6.01949464e-06  7.50881322e-01  6.01949464e-06  7.82243696e-01  6.01949464e-06  0.00000000e+00  6.01949464e-06  1.80015163e+00  6.01949464e-06  7.54773368e-01  6.01949464e-06  7.81700655e-01  6.01949464e-06  1.63139156e+00                                 
 6.03501481e-06  8.04792564e-01  6.03501481e-06  7.50891517e-01  6.03501481e-06  8.06353452e-01  6.03501481e-06  0.00000000e+00  6.03501481e-06  1.79986201e+00  6.03501481e-06  7.54496254e-01  6.03501481e-06  8.06244998e-01  6.03501481e-06  1.59825240e+00                                 
 6.06605514e-06  8.04793864e-01  6.06605514e-06  7.50894991e-01  6.06605514e-06  8.51208063e-01  6.06605514e-06  0.00000000e+00  6.06605514e-06  1.80014957e+00  6.06605514e-06  7.54144175e-01  6.06605514e-06  8.50346487e-01  6.06605514e-06  1.53330518e+00                                 
