 time            v(vbep)         time            v(vben)         time            v(vout)         time            v(vphi1)        time            v(vphi2)        time            v(vref)         time            v(voutc)        time            v(voutcc)       yes             currtemp       
 0.00000000e+00  7.82588327e-01  0.00000000e+00  7.25542964e-01  0.00000000e+00  1.62210535e+00  0.00000000e+00  0.00000000e+00  0.00000000e+00  1.80000000e+00  0.00000000e+00  7.28231800e-01  0.00000000e+00  1.62210535e+00  0.00000000e+00  1.62827036e+00  1.00000000e+00  2.10000000e+01 
 1.00000000e-11  7.82612943e-01  1.00000000e-11  7.25614001e-01  1.00000000e-11  1.62289497e+00  1.00000000e-11  1.80000000e-02  1.00000000e-11  1.80024908e+00  1.00000000e-11  7.28759421e-01  1.00000000e-11  1.62257261e+00  1.00000000e-11  1.62828060e+00                                 
 2.00000000e-11  7.82619678e-01  2.00000000e-11  7.25658683e-01  2.00000000e-11  1.62339241e+00  2.00000000e-11  3.60000000e-02  2.00000000e-11  1.80034926e+00  2.00000000e-11  7.29152760e-01  2.00000000e-11  1.62292929e+00  2.00000000e-11  1.62828394e+00                                 
 4.00000000e-11  7.82619515e-01  4.00000000e-11  7.25717559e-01  4.00000000e-11  1.62400763e+00  4.00000000e-11  7.20000000e-02  4.00000000e-11  1.80038964e+00  4.00000000e-11  7.29728890e-01  4.00000000e-11  1.62346519e+00  4.00000000e-11  1.62828363e+00                                 
 8.00000000e-11  7.82607528e-01  8.00000000e-11  7.25754966e-01  8.00000000e-11  1.62417702e+00  8.00000000e-11  1.44000000e-01  8.00000000e-11  1.80018846e+00  8.00000000e-11  7.30174700e-01  8.00000000e-11  1.62391600e+00  8.00000000e-11  1.62827232e+00                                 
 1.60000000e-10  7.82604415e-01  1.60000000e-10  7.25763865e-01  1.60000000e-10  1.62385808e+00  1.60000000e-10  2.88000000e-01  1.60000000e-10  1.80000447e+00  1.60000000e-10  7.30233459e-01  1.60000000e-10  1.62399038e+00  1.60000000e-10  1.62826225e+00                                 
 3.20000000e-10  7.82601030e-01  3.20000000e-10  7.25766313e-01  3.20000000e-10  1.62351174e+00  3.20000000e-10  5.76000000e-01  3.20000000e-10  1.79999922e+00  3.20000000e-10  7.30127438e-01  3.20000000e-10  1.62375979e+00  3.20000000e-10  1.62825889e+00                                 
 6.40000000e-10  7.82521448e-01  6.40000000e-10  7.25444923e-01  6.40000000e-10  1.62032346e+00  6.40000000e-10  1.15200000e+00  6.40000000e-10  1.81255334e+00  6.40000000e-10  7.28529353e-01  6.40000000e-10  1.62879942e+00  6.40000000e-10  1.62828839e+00                                 
 1.00000000e-09  7.83133089e-01  1.00000000e-09  7.25608512e-01  1.00000000e-09  1.59287623e+00  1.00000000e-09  1.80000000e+00  1.00000000e-09  8.60733652e-02  1.00000000e-09  7.36010274e-01  1.00000000e-09  1.62493694e+00  1.00000000e-09  1.62822188e+00                                 
 1.03609113e-09  7.83128846e-01  1.03609113e-09  7.25653892e-01  1.03609113e-09  1.59254116e+00  1.03609113e-09  1.80000000e+00  1.03609113e-09  1.86025427e-02  1.03609113e-09  7.38654219e-01  1.03609113e-09  1.62634264e+00  1.03609113e-09  1.62826835e+00                                 
 1.10827339e-09  7.83186102e-01  1.10827339e-09  7.25728004e-01  1.10827339e-09  1.59285584e+00  1.10827339e-09  1.80000000e+00  1.10827339e-09 -8.94302126e-03  1.10827339e-09  7.42064168e-01  1.10827339e-09  1.62899524e+00  1.10827339e-09  1.62830254e+00                                 
 1.25263790e-09  7.83334191e-01  1.25263790e-09  7.25601319e-01  1.25263790e-09  1.59085821e+00  1.25263790e-09  1.80000000e+00  1.25263790e-09  7.82364391e-03  1.25263790e-09  7.42288670e-01  1.25263790e-09  1.62941238e+00  1.25263790e-09  1.62825808e+00                                 
 1.51678815e-09  7.83351431e-01  1.51678815e-09  7.25572223e-01  1.51678815e-09  1.58878530e+00  1.51678815e-09  1.80000000e+00  1.51678815e-09 -6.35181575e-03  1.51678815e-09  7.42003984e-01  1.51678815e-09  1.62897003e+00  1.51678815e-09  1.62829161e+00                                 
 1.75966369e-09  7.83245480e-01  1.75966369e-09  7.25566703e-01  1.75966369e-09  1.58908617e+00  1.75966369e-09  1.80000000e+00  1.75966369e-09  5.52636277e-03  1.75966369e-09  7.40864242e-01  1.75966369e-09  1.62817584e+00  1.75966369e-09  1.62828376e+00                                 
 2.12993454e-09  7.82990982e-01  2.12993454e-09  7.25530242e-01  2.12993454e-09  1.59006606e+00  2.12993454e-09  1.80000000e+00  2.12993454e-09 -5.05021261e-03  2.12993454e-09  7.39308031e-01  2.12993454e-09  1.62669509e+00  2.12993454e-09  1.62833681e+00                                 
 2.46642853e-09  7.82824361e-01  2.46642853e-09  7.25539315e-01  2.46642853e-09  1.59126318e+00  2.46642853e-09  1.80000000e+00  2.46642853e-09  4.46103053e-03  2.46642853e-09  7.38116258e-01  2.46642853e-09  1.62582283e+00  2.46642853e-09  1.62836175e+00                                 
 3.13941653e-09  7.82599319e-01  3.13941653e-09  7.25503882e-01  3.13941653e-09  1.59225289e+00  3.13941653e-09  1.80000000e+00  3.13941653e-09 -4.30724091e-03  3.13941653e-09  7.35616129e-01  3.13941653e-09  1.62356133e+00  3.13941653e-09  1.62844433e+00                                 
 4.25844062e-09  7.82492886e-01  4.25844062e-09  7.25525473e-01  4.25844062e-09  1.59306783e+00  4.25844062e-09  1.80000000e+00  4.25844062e-09  4.09441222e-03  4.25844062e-09  7.32710977e-01  4.25844062e-09  1.62121488e+00  4.25844062e-09  1.62852349e+00                                 
 6.49648881e-09  7.82470663e-01  6.49648881e-09  7.25514866e-01  6.49648881e-09  1.59109993e+00  6.49648881e-09  1.80000000e+00  6.49648881e-09 -4.09359587e-03  6.49648881e-09  7.28874701e-01  6.49648881e-09  1.61782716e+00  6.49648881e-09  1.62853925e+00                                 
 8.20468544e-09  7.82460947e-01  8.20468544e-09  7.25548269e-01  8.20468544e-09  1.59030775e+00  8.20468544e-09  1.80000000e+00  8.20468544e-09  3.97616578e-03  8.20468544e-09  7.27826394e-01  8.20468544e-09  1.61705880e+00  8.20468544e-09  1.62841044e+00                                 
 1.00738868e-08  7.82465944e-01  1.00738868e-08  7.25527374e-01  1.00738868e-08  1.58815883e+00  1.00738868e-08  1.80000000e+00  1.00738868e-08 -3.91523479e-03  1.00738868e-08  7.27018843e-01  1.00738868e-08  1.61624967e+00  1.00738868e-08  1.62820977e+00                                 
 1.18198687e-08  7.82499001e-01  1.18198687e-08  7.25553723e-01  1.18198687e-08  1.58551496e+00  1.18198687e-08  1.80000000e+00  1.18198687e-08  3.83327338e-03  1.18198687e-08  7.26998821e-01  1.18198687e-08  1.61634623e+00  1.18198687e-08  1.62798008e+00                                 
 1.46377117e-08  7.82537705e-01  1.46377117e-08  7.25529666e-01  1.46377117e-08  1.57833311e+00  1.46377117e-08  1.80000000e+00  1.46377117e-08 -3.78458632e-03  1.46377117e-08  7.26754076e-01  1.46377117e-08  1.61600991e+00  1.46377117e-08  1.62761253e+00                                 
 1.77672934e-08  7.82574023e-01  1.77672934e-08  7.25555209e-01  1.77672934e-08  1.56906509e+00  1.77672934e-08  1.80000000e+00  1.77672934e-08  3.74694103e-03  1.77672934e-08  7.27079429e-01  1.77672934e-08  1.61638644e+00  1.77672934e-08  1.62721271e+00                                 
 2.27072408e-08  7.82590366e-01  2.27072408e-08  7.25530671e-01  2.27072408e-08  1.55195886e+00  2.27072408e-08  1.80000000e+00  2.27072408e-08 -3.71497406e-03  2.27072408e-08  7.27118449e-01  2.27072408e-08  1.61628192e+00  2.27072408e-08  1.62666238e+00                                 
 2.89883671e-08  7.82598283e-01  2.89883671e-08  7.25555799e-01  2.89883671e-08  1.52982857e+00  2.89883671e-08  1.80000000e+00  2.89883671e-08  3.70026772e-03  2.89883671e-08  7.27589293e-01  2.89883671e-08  1.61677201e+00  2.89883671e-08  1.62607210e+00                                 
 4.14881962e-08  7.82591053e-01  4.14881962e-08  7.25530567e-01  4.14881962e-08  1.48416696e+00  4.14881962e-08  1.80000000e+00  4.14881962e-08 -3.68421123e-03  4.14881962e-08  7.27727936e-01  4.14881962e-08  1.61674517e+00  4.14881962e-08  1.62521116e+00                                 
 5.76710281e-08  7.82592727e-01  5.76710281e-08  7.25555522e-01  5.76710281e-08  1.42532395e+00  5.76710281e-08  1.80000000e+00  5.76710281e-08  3.68185228e-03  5.76710281e-08  7.28159799e-01  5.76710281e-08  1.61720430e+00  5.76710281e-08  1.62450031e+00                                 
 9.00366919e-08  7.82586768e-01  9.00366919e-08  7.25530429e-01  9.00366919e-08  1.30686566e+00  9.00366919e-08  1.80000000e+00  9.00366919e-08 -3.67235660e-03  9.00366919e-08  7.28106176e-01  9.00366919e-08  1.61702822e+00  9.00366919e-08  1.62379406e+00                                 
 1.46342856e-07  7.82590346e-01  1.46342856e-07  7.25555489e-01  1.46342856e-07  1.10366770e+00  1.46342856e-07  1.80000000e+00  1.46342856e-07  3.67582721e-03  1.46342856e-07  7.28338785e-01  1.46342856e-07  1.61733030e+00  1.46342856e-07  1.62342286e+00                                 
 2.28099603e-07  7.82586250e-01  2.28099603e-07  7.25530416e-01  2.28099603e-07  8.34912977e-01  2.28099603e-07  1.80000000e+00  2.28099603e-07 -3.66722176e-03  2.28099603e-07  7.28125397e-01  2.28099603e-07  1.61703086e+00  2.28099603e-07  1.62335457e+00                                 
 2.90222094e-07  7.82591088e-01  2.90222094e-07  7.25555542e-01  2.90222094e-07  7.33987963e-01  2.90222094e-07  1.80000000e+00  2.90222094e-07  3.67583276e-03  2.90222094e-07  7.28337668e-01  2.90222094e-07  1.61732161e+00  2.90222094e-07  1.62334804e+00                                 
 3.51060609e-07  7.82584963e-01  3.51060609e-07  7.25530375e-01  3.51060609e-07  7.30128848e-01  3.51060609e-07  1.80000000e+00  3.51060609e-07 -3.66120005e-03  3.51060609e-07  7.28128784e-01  3.51060609e-07  1.61702893e+00  3.51060609e-07  1.62335064e+00                                 
 3.81940060e-07  7.82591382e-01  3.81940060e-07  7.25555478e-01  3.81940060e-07  7.31158226e-01  3.81940060e-07  1.80000000e+00  3.81940060e-07  3.66989486e-03  3.81940060e-07  7.28334756e-01  3.81940060e-07  1.61731556e+00  3.81940060e-07  1.62334527e+00                                 
 4.24269539e-07  7.82585470e-01  4.24269539e-07  7.25530471e-01  4.24269539e-07  7.30732409e-01  4.24269539e-07  1.80000000e+00  4.24269539e-07 -3.65434746e-03  4.24269539e-07  7.28128331e-01  4.24269539e-07  1.61702582e+00  4.24269539e-07  1.62334672e+00                                 
 5.08928496e-07  7.82591119e-01  5.08928496e-07  7.25555439e-01  5.08928496e-07  7.31192993e-01  5.08928496e-07  1.80000000e+00  5.08928496e-07  3.66552534e-03  5.08928496e-07  7.28335369e-01  5.08928496e-07  1.61731115e+00  5.08928496e-07  1.62333999e+00                                 
 6.26510076e-07  7.82585577e-01  6.26510076e-07  7.25530483e-01  6.26510076e-07  7.30747524e-01  6.26510076e-07  1.80000000e+00  6.26510076e-07 -3.65186511e-03  6.26510076e-07  7.28128104e-01  6.26510076e-07  1.61701794e+00  6.26510076e-07  1.62333894e+00                                 
 8.61673238e-07  7.82591058e-01  8.61673238e-07  7.25555433e-01  8.61673238e-07  7.31183791e-01  8.61673238e-07  1.80000000e+00  8.61673238e-07  3.66395542e-03  8.61673238e-07  7.28335499e-01  8.61673238e-07  1.61729777e+00  8.61673238e-07  1.62332653e+00                                 
 1.33199956e-06  7.82585605e-01  1.33199956e-06  7.25530485e-01  1.33199956e-06  7.30751931e-01  1.33199956e-06  1.80000000e+00  1.33199956e-06 -3.65106144e-03  1.33199956e-06  7.28128041e-01  1.33199956e-06  1.61699098e+00  1.33199956e-06  1.62331206e+00                                 
 2.27265221e-06  7.82591044e-01  2.27265221e-06  7.25555432e-01  2.27265221e-06  7.31181619e-01  2.27265221e-06  1.80000000e+00  2.27265221e-06  3.66356305e-03  2.27265221e-06  7.28335529e-01  2.27265221e-06  1.61724395e+00  2.27265221e-06  1.62327278e+00                                 
 3.47265221e-06  7.82585614e-01  3.47265221e-06  7.25530486e-01  3.47265221e-06  7.30753210e-01  3.47265221e-06  1.80000000e+00  3.47265221e-06 -3.65085767e-03  3.47265221e-06  7.28128024e-01  3.47265221e-06  1.61690931e+00  3.47265221e-06  1.62323054e+00                                 
 4.67265221e-06  7.82591037e-01  4.67265221e-06  7.25555432e-01  4.67265221e-06  7.31180514e-01  4.67265221e-06  1.80000000e+00  4.67265221e-06  3.66336026e-03  4.67265221e-06  7.28335544e-01  4.67265221e-06  1.61715241e+00  4.67265221e-06  1.62318138e+00                                 
 5.87265221e-06  7.82585620e-01  5.87265221e-06  7.25530487e-01  5.87265221e-06  7.30754313e-01  5.87265221e-06  1.80000000e+00  5.87265221e-06 -3.65065956e-03  5.87265221e-06  7.28128009e-01  5.87265221e-06  1.61681770e+00  5.87265221e-06  1.62313909e+00                                 
 6.00100000e-06  7.82591004e-01  6.00100000e-06  7.25555430e-01  6.00100000e-06  7.31174986e-01  6.00100000e-06  1.80000000e+00  6.00100000e-06  3.66229959e-03  6.00100000e-06  7.28335619e-01  6.00100000e-06  1.61710174e+00  6.00100000e-06  1.62313075e+00                                 
 6.00110000e-06  7.82549287e-01  6.00110000e-06  7.25302177e-01  6.00110000e-06  7.29151263e-01  6.00110000e-06  1.62000000e+00  6.00110000e-06  1.84612011e-04  6.00110000e-06  7.26543037e-01  6.00110000e-06  1.61552345e+00  6.00110000e-06  1.62311946e+00                                 
 6.00130000e-06  7.82580352e-01  6.00130000e-06  7.25320931e-01  6.00130000e-06  7.29548429e-01  6.00130000e-06  1.26000000e+00  6.00130000e-06 -2.10980604e-04  6.00130000e-06  7.26585994e-01  6.00130000e-06  1.61555474e+00  6.00130000e-06  1.62313965e+00                                 
 6.00170000e-06  7.82629151e-01  6.00170000e-06  7.25095705e-01  6.00170000e-06  7.43435008e-01  6.00170000e-06  5.40000000e-01  6.00170000e-06  1.42121689e+00  6.00170000e-06  7.22422746e-01  6.00170000e-06  1.55967739e+00  6.00170000e-06  1.62289824e+00                                 
 6.00200000e-06  7.82575127e-01  6.00200000e-06  7.22673448e-01  6.00200000e-06  7.75277314e-01  6.00200000e-06  0.00000000e+00  6.00200000e-06  1.85278173e+00  6.00200000e-06  6.96388722e-01  6.00200000e-06  1.25309286e+00  6.00200000e-06  1.62253036e+00                                 
 6.00203907e-06  7.82586744e-01  6.00203907e-06  7.22677033e-01  6.00203907e-06  7.70966455e-01  6.00203907e-06  0.00000000e+00  6.00203907e-06  1.81922882e+00  6.00203907e-06  6.96710659e-01  6.00203907e-06  1.20562441e+00  6.00203907e-06  1.62292654e+00                                 
 6.00211722e-06  7.82590684e-01  6.00211722e-06  7.22851124e-01  6.00211722e-06  7.63710783e-01  6.00211722e-06  0.00000000e+00  6.00211722e-06  1.79347319e+00  6.00211722e-06  6.99377958e-01  6.00211722e-06  1.12535688e+00  6.00211722e-06  1.62330253e+00                                 
 6.00227352e-06  7.82586821e-01  6.00227352e-06  7.23162353e-01  6.00227352e-06  7.58680620e-01  6.00227352e-06  0.00000000e+00  6.00227352e-06  1.80193902e+00  6.00227352e-06  7.03484222e-01  6.00227352e-06  1.00396289e+00  6.00227352e-06  1.62326326e+00                                 
 6.00247572e-06  7.82588466e-01  6.00247572e-06  7.23557556e-01  6.00247572e-06  7.53352738e-01  6.00247572e-06  0.00000000e+00  6.00247572e-06  1.79783976e+00  6.00247572e-06  7.07292973e-01  6.00247572e-06  8.83531331e-01  6.00247572e-06  1.62340847e+00                                 
 6.00269871e-06  7.82586609e-01  6.00269871e-06  7.24359038e-01  6.00269871e-06  7.44864878e-01  6.00269871e-06  0.00000000e+00  6.00269871e-06  1.80050794e+00  6.00269871e-06  7.15039984e-01  6.00269871e-06  7.99961940e-01  6.00269871e-06  1.62340193e+00                                 
 6.00314468e-06  7.82588258e-01  6.00314468e-06  7.25575071e-01  6.00314468e-06  7.33673551e-01  6.00314468e-06  0.00000000e+00  6.00314468e-06  1.79935391e+00  6.00314468e-06  7.25332512e-01  6.00314468e-06  7.37365820e-01  6.00314468e-06  1.62325037e+00                                 
 6.00346857e-06  7.82587129e-01  6.00346857e-06  7.25980904e-01  6.00346857e-06  7.31698103e-01  6.00346857e-06  0.00000000e+00  6.00346857e-06  1.80054264e+00  6.00346857e-06  7.28132733e-01  6.00346857e-06  7.33684512e-01  6.00346857e-06  1.62274371e+00                                 
 6.00384518e-06  7.82588572e-01  6.00384518e-06  7.26076945e-01  6.00384518e-06  7.32010825e-01  6.00384518e-06  0.00000000e+00  6.00384518e-06  1.79962630e+00  6.00384518e-06  7.28540628e-01  6.00384518e-06  7.31791342e-01  6.00384518e-06  1.62195805e+00                                 
 6.00423713e-06  7.82587620e-01  6.00423713e-06  7.26108355e-01  6.00423713e-06  7.32055559e-01  6.00423713e-06  0.00000000e+00  6.00423713e-06  1.80029072e+00  6.00423713e-06  7.29153040e-01  6.00423713e-06  7.32290022e-01  6.00423713e-06  1.62092231e+00                                 
 6.00502103e-06  7.82588805e-01  6.00502103e-06  7.26020726e-01  6.00502103e-06  7.33752454e-01  6.00502103e-06  0.00000000e+00  6.00502103e-06  1.79977204e+00  6.00502103e-06  7.29115646e-01  6.00502103e-06  7.33176083e-01  6.00502103e-06  1.61869941e+00                                 
 6.00658883e-06  7.82587866e-01  6.00658883e-06  7.25898684e-01  6.00658883e-06  7.36424636e-01  6.00658883e-06  0.00000000e+00  6.00658883e-06  1.80022644e+00  6.00658883e-06  7.29514790e-01  6.00658883e-06  7.36450248e-01  6.00658883e-06  1.61381717e+00                                 
 6.00972443e-06  7.82588818e-01  6.00972443e-06  7.25690977e-01  6.00972443e-06  7.43369279e-01  6.00972443e-06  0.00000000e+00  6.00972443e-06  1.79980073e+00  6.00972443e-06  7.29248593e-01  6.00972443e-06  7.42702808e-01  6.00972443e-06  1.60378813e+00                                 
 6.01599563e-06  7.82587841e-01  6.01599563e-06  7.25545503e-01  6.01599563e-06  7.56290864e-01  6.01599563e-06  0.00000000e+00  6.01599563e-06  1.80021201e+00  6.01599563e-06  7.29216053e-01  6.01599563e-06  7.56279186e-01  6.01599563e-06  1.58386933e+00                                 
 6.02853804e-06  7.82588811e-01  6.02853804e-06  7.25514286e-01  6.02853804e-06  7.82145192e-01  6.02853804e-06  0.00000000e+00  6.02853804e-06  1.79980685e+00  6.02853804e-06  7.28581031e-01  6.02853804e-06  7.81354502e-01  6.02853804e-06  1.54545136e+00                                 
 6.05362285e-06  7.82587844e-01  6.05362285e-06  7.25553809e-01  6.05362285e-06  8.28316296e-01  6.05362285e-06  0.00000000e+00  6.05362285e-06  1.80020724e+00  6.05362285e-06  7.28451181e-01  6.05362285e-06  8.28383121e-01  6.05362285e-06  1.47351551e+00                                 
 6.10379248e-06  7.82588811e-01  6.10379248e-06  7.25530243e-01  6.10379248e-06  9.06403075e-01  6.10379248e-06  0.00000000e+00  6.10379248e-06  1.79980551e+00  6.10379248e-06  7.28093899e-01  6.10379248e-06  9.04472596e-01  6.10379248e-06  1.34381720e+00                                 
 6.20413173e-06  7.82587844e-01  6.20413173e-06  7.25555612e-01  6.20413173e-06  1.01472261e+00  6.20413173e-06  0.00000000e+00  6.20413173e-06  1.80020201e+00  6.20413173e-06  7.28347252e-01  6.20413173e-06  1.01582230e+00  6.20413173e-06  1.12606401e+00                                 
 6.31251788e-06  7.82588810e-01  6.31251788e-06  7.25530482e-01  6.31251788e-06  1.08424672e+00  6.31251788e-06  0.00000000e+00  6.31251788e-06  1.79980194e+00  6.31251788e-06  7.28107278e-01  6.31251788e-06  1.08226797e+00  6.31251788e-06  1.06033636e+00                                 
 6.42399354e-06  7.82587844e-01  6.42399354e-06  7.25555307e-01  6.42399354e-06  1.12443673e+00  6.42399354e-06  0.00000000e+00  6.42399354e-06  1.80019967e+00  6.42399354e-06  7.28350945e-01  6.42399354e-06  1.12552498e+00  6.42399354e-06  1.11957311e+00                                 
 6.52353042e-06  7.82588810e-01  6.52353042e-06  7.25530768e-01  6.52353042e-06  1.14593965e+00  6.52353042e-06  0.00000000e+00  6.52353042e-06  1.79980141e+00  6.52353042e-06  7.28108347e-01  6.52353042e-06  1.14469486e+00  6.52353042e-06  1.14452863e+00                                 
