 time            v(vbep)         time            v(vben)         time            v(vout)         time            v(vphi1)        time            v(vphi2)        time            v(vref)         yes             currtemp       
 0.00000000e+00  7.74243261e-01  0.00000000e+00  7.29755016e-01  0.00000000e+00  7.21718184e-02  0.00000000e+00  0.00000000e+00  0.00000000e+00  1.79998051e+00  0.00000000e+00  5.00000000e-01  1.00000000e+00 -3.00000000e+01 
 5.00000000e-12  7.74231231e-01  5.00000000e-12  7.29744976e-01  5.00000000e-12  7.26166377e-02  5.00000000e-12  1.80000000e-02  5.00000000e-12  1.80005529e+00  5.00000000e-12  5.00000000e-01                                 
 1.00000000e-11  7.74219340e-01  1.00000000e-11  7.29735122e-01  1.00000000e-11  7.30126584e-02  1.00000000e-11  3.60000000e-02  1.00000000e-11  1.80009066e+00  1.00000000e-11  5.00000000e-01                                 
 2.00000000e-11  7.74195627e-01  2.00000000e-11  7.29715462e-01  2.00000000e-11  7.37349971e-02  2.00000000e-11  7.20000000e-02  2.00000000e-11  1.80012157e+00  2.00000000e-11  5.00000000e-01                                 
 4.00000000e-11  7.74148328e-01  4.00000000e-11  7.29676230e-01  4.00000000e-11  7.48553308e-02  4.00000000e-11  1.44000000e-01  4.00000000e-11  1.80010024e+00  4.00000000e-11  5.00000000e-01                                 
 8.00000000e-11  7.74053979e-01  8.00000000e-11  7.29597941e-01  8.00000000e-11  7.63463377e-02  8.00000000e-11  2.88000000e-01  8.00000000e-11  1.80005741e+00  8.00000000e-11  5.00000000e-01                                 
 1.60000000e-10  7.73866339e-01  1.60000000e-10  7.29442084e-01  1.60000000e-10  7.81866198e-02  1.60000000e-10  5.76000000e-01  1.60000000e-10  1.80002026e+00  1.60000000e-10  5.00000000e-01                                 
 3.20000000e-10  7.73495212e-01  3.20000000e-10  7.29133234e-01  3.20000000e-10  1.15439593e-01  3.20000000e-10  1.15200000e+00  3.20000000e-10  1.79982129e+00  3.20000000e-10  5.00000000e-01                                 
 5.00000000e-10  7.73084334e-01  5.00000000e-10  7.28790386e-01  5.00000000e-10  4.98120583e-01  5.00000000e-10  1.80000000e+00  5.00000000e-10  8.84553092e-02  5.00000000e-10  5.00000000e-01                                 
 5.20709723e-10  7.73037557e-01  5.20709723e-10  7.28751286e-01  5.20709723e-10  5.66546380e-01  5.20709723e-10  1.80000000e+00  5.20709723e-10  1.46679694e-02  5.20709723e-10  5.00000000e-01                                 
 5.62129169e-10  7.72944177e-01  5.62129169e-10  7.28673208e-01  5.62129169e-10  6.87822084e-01  5.62129169e-10  1.80000000e+00  5.62129169e-10 -7.05930036e-03  5.62129169e-10  5.00000000e-01                                 
 6.44968062e-10  7.72758493e-01  6.44968062e-10  7.28517806e-01  6.44968062e-10  8.68216745e-01  6.44968062e-10  1.80000000e+00  6.44968062e-10  6.24307533e-03  6.44968062e-10  5.00000000e-01                                 
 7.70047639e-10  7.72480819e-01  7.70047639e-10  7.28285055e-01  7.70047639e-10  1.07180070e+00  7.70047639e-10  1.80000000e+00  7.70047639e-10 -5.56749088e-03  7.70047639e-10  5.00000000e-01                                 
 9.57204433e-10  7.72071264e-01  9.57204433e-10  7.27940976e-01  9.57204433e-10  1.31948504e+00  9.57204433e-10  1.80000000e+00  9.57204433e-10  5.33186968e-03  9.57204433e-10  5.00000000e-01                                 
 1.32760428e-09  7.71280851e-01  1.32760428e-09  7.27274335e-01  1.32760428e-09  1.66459573e+00  1.32760428e-09  1.80000000e+00  1.32760428e-09 -5.09355355e-03  1.32760428e-09  5.00000000e-01                                 
 2.01299078e-09  7.69883810e-01  2.01299078e-09  7.26087933e-01  2.01299078e-09  1.89819936e+00  2.01299078e-09  1.80000000e+00  2.01299078e-09  5.07693321e-03  2.01299078e-09  5.00000000e-01                                 
 2.25001041e-09  7.69419540e-01  2.25001041e-09  7.25691313e-01  2.25001041e-09  1.91262520e+00  2.25001041e-09  1.80000000e+00  2.25001041e-09 -4.78484191e-03  2.25001041e-09  5.00000000e-01                                 
 2.54719723e-09  7.68849988e-01  2.54719723e-09  7.25203231e-01  2.54719723e-09  1.91996678e+00  2.54719723e-09  1.80000000e+00  2.54719723e-09  4.65507626e-03  2.54719723e-09  5.00000000e-01                                 
 2.89292002e-09  7.68204218e-01  2.89292002e-09  7.24647839e-01  2.89292002e-09  1.92575702e+00  2.89292002e-09  1.80000000e+00  2.89292002e-09 -4.47028673e-03  2.89292002e-09  5.00000000e-01                                 
 3.58436560e-09  7.66962861e-01  3.58436560e-09  7.23574478e-01  3.58436560e-09  1.93107067e+00  3.58436560e-09  1.80000000e+00  3.58436560e-09  4.43281832e-03  3.58436560e-09  5.00000000e-01                                 
 4.96725675e-09  7.64657584e-01  4.96725675e-09  7.21562169e-01  4.96725675e-09  1.92568648e+00  4.96725675e-09  1.80000000e+00  4.96725675e-09 -4.37196727e-03  4.96725675e-09  5.00000000e-01                                 
 7.06431143e-09  7.61538166e-01  7.06431143e-09  7.18801930e-01  7.06431143e-09  1.91159175e+00  7.06431143e-09  1.80000000e+00  7.06431143e-09  4.38031355e-03  7.06431143e-09  5.00000000e-01                                 
 9.05961408e-09  7.58911065e-01  9.05961408e-09  7.16445719e-01  9.05961408e-09  1.90101228e+00  9.05961408e-09  1.80000000e+00  9.05961408e-09 -4.32488310e-03  9.05961408e-09  5.00000000e-01                                 
 1.04905226e-08  7.57193399e-01  1.04905226e-08  7.14890738e-01  1.04905226e-08  1.89476613e+00  1.04905226e-08  1.80000000e+00  1.04905226e-08  4.31650531e-03  1.04905226e-08  5.00000000e-01                                 
 1.23513576e-08  7.55133907e-01  1.23513576e-08  7.13012403e-01  1.23513576e-08  1.88813460e+00  1.23513576e-08  1.80000000e+00  1.23513576e-08 -4.26932451e-03  1.23513576e-08  5.00000000e-01                                 
 1.50752501e-08  7.52422844e-01  1.50752501e-08  7.10517189e-01  1.50752501e-08  1.87985968e+00  1.50752501e-08  1.80000000e+00  1.50752501e-08  4.27091199e-03  1.50752501e-08  5.00000000e-01                                 
 1.85016543e-08  7.49439844e-01  1.85016543e-08  7.07741420e-01  1.85016543e-08  1.87146643e+00  1.85016543e-08  1.80000000e+00  1.85016543e-08 -4.23968390e-03  1.85016543e-08  5.00000000e-01                                 
 2.41666159e-08  7.45285959e-01  2.41666159e-08  7.03825936e-01  2.41666159e-08  1.85991172e+00  2.41666159e-08  1.80000000e+00  2.41666159e-08  4.24826677e-03  2.41666159e-08  5.00000000e-01                                 
 3.20418041e-08  7.40520239e-01  3.20418041e-08  6.99285355e-01  3.20418041e-08  1.84670418e+00  3.20418041e-08  1.80000000e+00  3.20418041e-08 -4.22556386e-03  3.20418041e-08  5.00000000e-01                                 
 4.77910850e-08  7.32564624e-01  4.77910850e-08  6.91717004e-01  4.77910850e-08  1.82325249e+00  4.77910850e-08  1.80000000e+00  4.77910850e-08  4.23936790e-03  4.77910850e-08  5.00000000e-01                                 
 7.49590070e-08  7.21975381e-01  7.49590070e-08  6.81679307e-01  7.49590070e-08  1.78819511e+00  7.49590070e-08  1.80000000e+00  7.49590070e-08 -4.22087031e-03  7.49590070e-08  5.00000000e-01                                 
 1.13386388e-07  7.11427406e-01  1.13386388e-07  6.71655184e-01  1.13386388e-07  1.74414577e+00  1.13386388e-07  1.80000000e+00  1.13386388e-07  4.23652756e-03  1.13386388e-07  5.00000000e-01                                 
 1.53394430e-07  7.03213173e-01  1.53394430e-07  6.63875979e-01  1.53394430e-07  1.70014495e+00  1.53394430e-07  1.80000000e+00  1.53394430e-07 -4.21845640e-03  1.53394430e-07  5.00000000e-01                                 
 2.33152777e-07  6.90757492e-01  2.33152777e-07  6.52170267e-01  2.33152777e-07  1.61363725e+00  2.33152777e-07  1.80000000e+00  2.33152777e-07  4.23480672e-03  2.33152777e-07  5.00000000e-01                                 
 3.06315998e-07  6.82038338e-01  3.06315998e-07  6.44068828e-01  3.06315998e-07  1.53513284e+00  3.06315998e-07  1.80000000e+00  3.06315998e-07 -4.21719937e-03  3.06315998e-07  5.00000000e-01                                 
 4.52642438e-07  6.68115062e-01  4.52642438e-07  6.31321614e-01  4.52642438e-07  1.37775011e+00  4.52642438e-07  1.80000000e+00  4.52642438e-07  4.23389378e-03  4.52642438e-07  5.00000000e-01                                 
 7.45295318e-07  6.47013701e-01  7.45295318e-07  6.12483138e-01  7.45295318e-07  1.05528114e+00  7.45295318e-07  1.80000000e+00  7.45295318e-07 -4.21658188e-03  7.45295318e-07  5.00000000e-01                                 
 1.25167748e-06  6.21238992e-01  1.25167748e-06  5.90099656e-01  1.25167748e-06  7.02862993e-01  1.25167748e-06  1.80000000e+00  1.25167748e-06  4.23366289e-03  1.25167748e-06  5.00000000e-01                                 
 1.74095324e-06  6.04796534e-01  1.74095324e-06  5.76028549e-01  1.74095324e-06  5.36029605e-01  1.74095324e-06  1.80000000e+00  1.74095324e-06 -4.21653884e-03  1.74095324e-06  5.00000000e-01                                 
 1.76700922e-06  6.04105273e-01  1.76700922e-06  5.75437957e-01  1.76700922e-06  5.31068273e-01  1.76700922e-06  1.80000000e+00  1.76700922e-06 -4.17639303e-07  1.76700922e-06  5.00000000e-01                                 
 1.81912118e-06  6.02749577e-01  1.81912118e-06  5.74279512e-01  1.81912118e-06  5.22931809e-01  1.81912118e-06  1.80000000e+00  1.81912118e-06  4.15030402e-07  1.81912118e-06  5.00000000e-01                                 
 1.92334509e-06  6.00194982e-01  1.92334509e-06  5.72095332e-01  1.92334509e-06  5.13523497e-01  1.92334509e-06  1.80000000e+00  1.92334509e-06 -4.16746677e-07  1.92334509e-06  5.00000000e-01                                 
 2.13179293e-06  5.95698965e-01  2.13179293e-06  5.68241941e-01  2.13179293e-06  5.04973152e-01  2.13179293e-06  1.80000000e+00  2.13179293e-06  4.14883792e-07  2.13179293e-06  5.00000000e-01                                 
 2.35414185e-06  5.91838808e-01  2.35414185e-06  5.64908973e-01  2.35414185e-06  5.00837095e-01  2.35414185e-06  1.80000000e+00  2.35414185e-06 -4.13891724e-07  2.35414185e-06  5.00000000e-01                                 
 2.76622597e-06  5.87808604e-01  2.76622597e-06  5.61282017e-01  2.76622597e-06  4.97250540e-01  2.76622597e-06  1.80000000e+00  2.76622597e-06  4.19903377e-07  2.76622597e-06  5.00000000e-01                                 
 3.21742555e-06  5.93114792e-01  3.21742555e-06  5.65122175e-01  3.21742555e-06  5.02507108e-01  3.21742555e-06  1.80000000e+00  3.21742555e-06 -3.99699622e-07  3.21742555e-06  5.00000000e-01                                 
 3.33022545e-06  5.99361019e-01  3.33022545e-06  5.70016644e-01  3.33022545e-06  5.07617984e-01  3.33022545e-06  1.80000000e+00  3.33022545e-06  2.44544948e-08  3.33022545e-06  5.00000000e-01                                 
 3.35842542e-06  6.01187887e-01  3.35842542e-06  5.71452457e-01  3.35842542e-06  5.08943574e-01  3.35842542e-06  1.80000000e+00  3.35842542e-06  2.75819872e-08  3.35842542e-06  5.00000000e-01                                 
 3.41482537e-06  6.05614456e-01  3.41482537e-06  5.74942239e-01  3.41482537e-06  5.11632571e-01  3.41482537e-06  1.80000000e+00  3.41482537e-06  3.66510805e-08  3.41482537e-06  5.00000000e-01                                 
 3.52762527e-06  6.24366348e-01  3.52762527e-06  5.89840877e-01  3.52762527e-06  5.20657874e-01  3.52762527e-06  1.80000000e+00  3.52762527e-06  8.64508691e-08  3.52762527e-06  5.00000000e-01                                 
 3.55469491e-06  6.33285302e-01  3.55469491e-06  5.96952587e-01  3.55469491e-06  5.24953230e-01  3.55469491e-06  1.80000000e+00  3.55469491e-06  1.17051511e-07  3.55469491e-06  5.00000000e-01                                 
 3.60883419e-06  6.61504061e-01  3.60883419e-06  6.19511276e-01  3.60883419e-06  5.39699249e-01  3.60883419e-06  1.80000000e+00  3.60883419e-06  2.51622011e-07  3.60883419e-06  5.00000000e-01                                 
 3.62236901e-06  6.74053167e-01  3.62236901e-06  6.29580414e-01  3.62236901e-06  5.46804246e-01  3.62236901e-06  1.80000000e+00  3.62236901e-06  3.29448646e-07  3.62236901e-06  5.00000000e-01                                 
 3.64943866e-06  7.08619356e-01  3.64943866e-06  6.57661774e-01  3.64943866e-06  5.67541417e-01  3.64943866e-06  1.80000000e+00  3.64943866e-06  6.00679601e-07  3.64943866e-06  5.00000000e-01                                 
 3.65620607e-06  7.21533360e-01  3.65620607e-06  6.68423260e-01  3.65620607e-06  5.75738731e-01  3.65620607e-06  1.80000000e+00  3.65620607e-06  7.18740756e-07  3.65620607e-06  5.00000000e-01                                 
 3.66974089e-06  7.50515245e-01  3.66974089e-06  6.94041780e-01  3.66974089e-06  5.94246170e-01  3.66974089e-06  1.80000000e+00  3.66974089e-06  9.82021475e-07  3.66974089e-06  5.00000000e-01                                 
 3.69681053e-06  8.03265668e-01  3.69681053e-06  7.54836047e-01  3.69681053e-06  6.27422978e-01  3.69681053e-06  1.80000000e+00  3.69681053e-06  9.35439010e-07  3.69681053e-06  5.00000000e-01                                 
 3.74392671e-06  8.62337998e-01  3.74392671e-06  8.15610534e-01  3.74392671e-06  6.61045389e-01  3.74392671e-06  1.80000000e+00  3.74392671e-06  4.39138696e-07  3.74392671e-06  5.00000000e-01                                 
 3.78940899e-06  9.22209292e-01  3.78940899e-06  8.63554468e-01  3.78940899e-06  6.92506043e-01  3.78940899e-06  1.80000000e+00  3.78940899e-06  7.94575426e-07  3.78940899e-06  5.00000000e-01                                 
 3.83525092e-06  9.55134120e-01  3.83525092e-06  8.83830466e-01  3.83525092e-06  7.00487249e-01  3.83525092e-06  1.80000000e+00  3.83525092e-06  2.68989675e-08  3.83525092e-06  5.00000000e-01                                 
 3.87313650e-06  9.48763888e-01  3.87313650e-06  8.80413611e-01  3.87313650e-06  6.83266809e-01  3.87313650e-06  1.80000000e+00  3.87313650e-06 -8.28189001e-08  3.87313650e-06  5.00000000e-01                                 
 3.90679268e-06  9.51653619e-01  3.90679268e-06  8.81808671e-01  3.90679268e-06  6.72351530e-01  3.90679268e-06  1.80000000e+00  3.90679268e-06  1.05057164e-07  3.90679268e-06  5.00000000e-01                                 
 3.94166925e-06  9.51009476e-01  3.94166925e-06  8.81713918e-01  3.94166925e-06  6.60993666e-01  3.94166925e-06  1.80000000e+00  3.94166925e-06 -5.60586758e-08  3.94166925e-06  5.00000000e-01                                 
 3.99695611e-06  9.50008646e-01  3.99695611e-06  8.80881302e-01  3.99695611e-06  6.41502801e-01  3.99695611e-06  1.80000000e+00  3.99695611e-06  4.46038139e-08  3.99695611e-06  5.00000000e-01                                 
 4.07414448e-06  9.50479599e-01  4.07414448e-06  8.81398829e-01  4.07414448e-06  6.18521943e-01  4.07414448e-06  1.80000000e+00  4.07414448e-06 -1.66345623e-08  4.07414448e-06  5.00000000e-01                                 
 4.17728034e-06  9.48047452e-01  4.17728034e-06  8.79765286e-01  4.17728034e-06  5.86486482e-01  4.17728034e-06  1.80000000e+00  4.17728034e-06  1.06038020e-08  4.17728034e-06  5.00000000e-01                                 
 4.32272307e-06  9.48128258e-01  4.32272307e-06  8.80041726e-01  4.32272307e-06  5.49195289e-01  4.32272307e-06  1.80000000e+00  4.32272307e-06  6.64740132e-09  4.32272307e-06  5.00000000e-01                                 
 4.34715863e-06  9.46918558e-01  4.34715863e-06  8.79235812e-01  4.34715863e-06  5.42898937e-01  4.34715863e-06  1.80000000e+00  4.34715863e-06 -8.15950989e-09  4.34715863e-06  5.00000000e-01                                 
 4.39602976e-06  9.46296929e-01  4.39602976e-06  8.78858146e-01  4.39602976e-06  5.33466713e-01  4.39602976e-06  1.80000000e+00  4.39602976e-06  2.44775414e-08  4.39602976e-06  5.00000000e-01                                 
 4.49377201e-06  9.45068518e-01  4.49377201e-06  8.78152553e-01  4.49377201e-06  5.21622544e-01  4.49377201e-06  1.80000000e+00  4.49377201e-06 -5.29021978e-09  4.49377201e-06  5.00000000e-01                                 
 4.60001910e-06  9.43558061e-01  4.60001910e-06  8.77245094e-01  4.60001910e-06  5.14266528e-01  4.60001910e-06  1.80000000e+00  4.60001910e-06  1.17257160e-08  4.60001910e-06  5.00000000e-01                                 
 4.81251327e-06  9.40402115e-01  4.81251327e-06  8.75367569e-01  4.81251327e-06  5.06558412e-01  4.81251327e-06  1.80000000e+00  4.81251327e-06 -1.08919405e-08  4.81251327e-06  5.00000000e-01                                 
 5.12819036e-06  9.34233481e-01  5.12819036e-06  8.71549593e-01  5.12819036e-06  4.99270776e-01  5.12819036e-06  1.80000000e+00  5.12819036e-06  3.75306315e-09  5.12819036e-06  5.00000000e-01                                 
 5.20357575e-06  9.32407199e-01  5.20357575e-06  8.70404178e-01  5.20357575e-06  4.97621009e-01  5.20357575e-06  1.80000000e+00  5.20357575e-06 -6.05584774e-09  5.20357575e-06  5.00000000e-01                                 
 5.35434653e-06  9.28175619e-01  5.35434653e-06  8.67683164e-01  5.35434653e-06  4.93742859e-01  5.35434653e-06  1.80000000e+00  5.35434653e-06 -1.04349410e-08  5.35434653e-06  5.00000000e-01                                 
 5.65588810e-06  9.13504372e-01  5.65588810e-06  8.57689162e-01  5.65588810e-06  4.82931144e-01  5.65588810e-06  1.80000000e+00  5.65588810e-06 -2.74090357e-08  5.65588810e-06  5.00000000e-01                                 
 6.02517487e-06  8.81440429e-01  6.02517487e-06  8.32552598e-01  6.02517487e-06  4.81274845e-01  6.02517487e-06  1.80000000e+00  6.02517487e-06 -5.16251163e-08  6.02517487e-06  5.00000000e-01                                 
 6.35812083e-06  8.65430483e-01  6.35812083e-06  8.18378330e-01  6.35812083e-06  4.90784770e-01  6.35812083e-06  1.80000000e+00  6.35812083e-06  8.69513222e-09  6.35812083e-06  5.00000000e-01                                 
 6.70301419e-06  8.67563547e-01  6.70301419e-06  8.20319590e-01  6.70301419e-06  4.97891472e-01  6.70301419e-06  1.80000000e+00  6.70301419e-06  1.05342130e-08  6.70301419e-06  5.00000000e-01                                 
 7.19180248e-06  8.66630199e-01  7.19180248e-06  8.19471830e-01  7.19180248e-06  5.00699499e-01  7.19180248e-06  1.80000000e+00  7.19180248e-06  3.44136346e-10  7.19180248e-06  5.00000000e-01                                 
 7.67159970e-06  8.67089770e-01  7.67159970e-06  8.19889720e-01  7.67159970e-06  5.02815541e-01  7.67159970e-06  1.80000000e+00  7.67159970e-06  1.32494114e-08  7.67159970e-06  5.00000000e-01                                 
 8.63119414e-06  8.66831618e-01  8.63119414e-06  8.19654944e-01  8.63119414e-06  5.02494408e-01  8.63119414e-06  1.80000000e+00  8.63119414e-06 -6.40116395e-10  8.63119414e-06  5.00000000e-01                                 
 9.63119414e-06  8.67009997e-01  9.63119414e-06  8.19817276e-01  9.63119414e-06  5.02282774e-01  9.63119414e-06  1.80000000e+00  9.63119414e-06  1.35514687e-08  9.63119414e-06  5.00000000e-01                                 
 1.00005000e-05  8.66915052e-01  1.00005000e-05  8.19730742e-01  1.00005000e-05  5.02139400e-01  1.00005000e-05  1.80000000e+00  1.00005000e-05 -7.71350236e-10  1.00005000e-05  5.00000000e-01                                 
 1.00005500e-05  8.66916554e-01  1.00005500e-05  8.19732241e-01  1.00005500e-05  4.94192809e-01  1.00005500e-05  1.62000000e+00  1.00005500e-05 -5.95937267e-05  1.00005500e-05  5.00000000e-01                                 
 1.00006500e-05  8.66919752e-01  1.00006500e-05  8.19735087e-01  1.00006500e-05  4.80833760e-01  1.00006500e-05  1.26000000e+00  1.00006500e-05 -3.96544335e-05  1.00006500e-05  5.00000000e-01                                 
 1.00008500e-05  8.66924934e-01  1.00008500e-05  8.19739568e-01  1.00008500e-05  4.80815671e-01  1.00008500e-05  5.40000000e-01  1.00008500e-05  5.39655716e-05  1.00008500e-05  5.00000000e-01                                 
