 time            v(vbep)         time            v(vben)         time            v(vout)         time            v(vphi1)        time            v(vphi2)        time            v(vref)         time            v(voutc)        time            v(voutcc)       yes             currtemp       
 0.00000000e+00  6.86466371e-01  0.00000000e+00  6.12401114e-01  0.00000000e+00  1.41985488e+00  0.00000000e+00  0.00000000e+00  0.00000000e+00  1.79999998e+00  0.00000000e+00  6.11632377e-01  0.00000000e+00  1.41985487e+00  0.00000000e+00  1.42819767e+00  1.00000000e+00  9.20000000e+01 
 5.00000000e-12  6.86487969e-01  5.00000000e-12  6.12456283e-01  5.00000000e-12  1.42045594e+00  5.00000000e-12  1.80000000e-02  5.00000000e-12  1.80018653e+00  5.00000000e-12  6.12017754e-01  5.00000000e-12  1.42019686e+00  5.00000000e-12  1.42821044e+00                                 
 1.00000000e-11  6.86497336e-01  1.00000000e-11  6.12492034e-01  1.00000000e-11  1.42087927e+00  1.00000000e-11  3.60000000e-02  1.00000000e-11  1.80027002e+00  1.00000000e-11  6.12318946e-01  1.00000000e-11  1.42046506e+00  1.00000000e-11  1.42821686e+00                                 
 2.00000000e-11  6.86503448e-01  2.00000000e-11  6.12541067e-01  2.00000000e-11  1.42147429e+00  2.00000000e-11  7.20000000e-02  2.00000000e-11  1.80032093e+00  2.00000000e-11  6.12788844e-01  2.00000000e-11  1.42088583e+00  2.00000000e-11  1.42822244e+00                                 
 4.00000000e-11  6.86491401e-01  4.00000000e-11  6.12574873e-01  4.00000000e-11  1.42182460e+00  4.00000000e-11  1.44000000e-01  4.00000000e-11  1.80018520e+00  4.00000000e-11  6.13237126e-01  4.00000000e-11  1.42129708e+00  4.00000000e-11  1.42821585e+00                                 
 8.00000000e-11  6.86478560e-01  8.00000000e-11  6.12578988e-01  8.00000000e-11  1.42165598e+00  8.00000000e-11  2.88000000e-01  8.00000000e-11  1.80002914e+00  8.00000000e-11  6.13385100e-01  8.00000000e-11  1.42145284e+00  8.00000000e-11  1.42820254e+00                                 
 1.60000000e-10  6.86478244e-01  1.60000000e-10  6.12563262e-01  1.60000000e-10  1.42116715e+00  1.60000000e-10  5.76000000e-01  1.60000000e-10  1.80000839e+00  1.60000000e-10  6.13211622e-01  1.60000000e-10  1.42130744e+00  1.60000000e-10  1.42819661e+00                                 
 3.20000000e-10  6.86411528e-01  3.20000000e-10  6.12118548e-01  3.20000000e-10  1.41784598e+00  3.20000000e-10  1.15200000e+00  3.20000000e-10  1.80069167e+00  3.20000000e-10  6.09394667e-01  3.20000000e-10  1.41820003e+00  3.20000000e-10  1.42816779e+00                                 
 5.00000000e-10  6.86426746e-01  5.00000000e-10  6.12674131e-01  5.00000000e-10  1.41681349e+00  5.00000000e-10  1.80000000e+00  5.00000000e-10  1.91052053e-01  5.00000000e-10  6.17984252e-01  5.00000000e-10  1.42587629e+00  5.00000000e-10  1.42827520e+00                                 
 5.22182300e-10  6.86435897e-01  5.22182300e-10  6.12681171e-01  5.22182300e-10  1.41596359e+00  5.22182300e-10  1.80000000e+00  5.22182300e-10  5.44245204e-02  5.22182300e-10  6.19745489e-01  5.22182300e-10  1.42680435e+00  5.22182300e-10  1.42825587e+00                                 
 5.66546900e-10  6.86544976e-01  5.66546900e-10  6.12721544e-01  5.66546900e-10  1.41516227e+00  5.66546900e-10  1.80000000e+00  5.66546900e-10 -1.80224354e-02  5.66546900e-10  6.22294065e-01  5.66546900e-10  1.42892338e+00  5.66546900e-10  1.42824804e+00                                 
 6.55276100e-10  6.86673388e-01  6.55276100e-10  6.12542118e-01  6.55276100e-10  1.41213930e+00  6.55276100e-10  1.80000000e+00  6.55276100e-10  1.36388928e-02  6.55276100e-10  6.22624968e-01  6.55276100e-10  1.42946061e+00  6.55276100e-10  1.42819793e+00                                 
 7.76602453e-10  6.86728771e-01  7.76602453e-10  6.12483609e-01  7.76602453e-10  1.41012958e+00  7.76602453e-10  1.80000000e+00  7.76602453e-10 -1.05452562e-02  7.76602453e-10  6.23975814e-01  7.76602453e-10  1.43046247e+00  7.76602453e-10  1.42820814e+00                                 
 9.58129500e-10  6.86797679e-01  9.58129500e-10  6.12453298e-01  9.58129500e-10  1.40853735e+00  9.58129500e-10  1.80000000e+00  9.58129500e-10  9.35774880e-03  9.58129500e-10  6.24561383e-01  9.58129500e-10  1.43114106e+00  9.58129500e-10  1.42819269e+00                                 
 1.29527957e-09  6.86743318e-01  1.29527957e-09  6.12387847e-01  1.29527957e-09  1.40592471e+00  1.29527957e-09  1.80000000e+00  1.29527957e-09 -8.48734650e-03  1.29527957e-09  6.23631598e-01  1.29527957e-09  1.43018990e+00  1.29527957e-09  1.42825684e+00                                 
 1.65157699e-09  6.86683777e-01  1.65157699e-09  6.12415766e-01  1.65157699e-09  1.40404305e+00  1.65157699e-09  1.80000000e+00  1.65157699e-09  7.96493348e-03  1.65157699e-09  6.22927064e-01  1.65157699e-09  1.42970355e+00  1.65157699e-09  1.42836162e+00                                 
 2.28461036e-09  6.86540416e-01  2.28461036e-09  6.12374341e-01  2.28461036e-09  1.39958472e+00  2.28461036e-09  1.80000000e+00  2.28461036e-09 -7.58795107e-03  2.28461036e-09  6.20718883e-01  2.28461036e-09  1.42764188e+00  2.28461036e-09  1.42859168e+00                                 
 3.15420977e-09  6.86469114e-01  3.15420977e-09  6.12406799e-01  3.15420977e-09  1.39384754e+00  3.15420977e-09  1.80000000e+00  3.15420977e-09  7.39982512e-03  3.15420977e-09  6.18827592e-01  3.15420977e-09  1.42610440e+00  3.15420977e-09  1.42889921e+00                                 
 4.66089869e-09  6.86396475e-01  4.66089869e-09  6.12366647e-01  4.66089869e-09  1.38230997e+00  4.66089869e-09  1.80000000e+00  4.66089869e-09 -7.23219021e-03  4.66089869e-09  6.15280983e-01  4.66089869e-09  1.42288667e+00  4.66089869e-09  1.42929292e+00                                 
 7.16744093e-09  6.86411871e-01  7.16744093e-09  6.12407498e-01  7.16744093e-09  1.36307019e+00  7.16744093e-09  1.80000000e+00  7.16744093e-09  7.19988830e-03  7.16744093e-09  6.12417636e-01  7.16744093e-09  1.42050834e+00  7.16744093e-09  1.42955096e+00                                 
 9.72192490e-09  6.86410542e-01  9.72192490e-09  6.12376888e-01  9.72192490e-09  1.34150503e+00  9.72192490e-09  1.80000000e+00  9.72192490e-09 -7.08049403e-03  9.72192490e-09  6.10457390e-01  9.72192490e-09  1.41868097e+00  9.72192490e-09  1.42946162e+00                                 
 1.19608790e-08  6.86445487e-01  1.19608790e-08  6.12417666e-01  1.19608790e-08  1.32227367e+00  1.19608790e-08  1.80000000e+00  1.19608790e-08  7.04524065e-03  1.19608790e-08  6.10304707e-01  1.19608790e-08  1.41865457e+00  1.19608790e-08  1.42925874e+00                                 
 1.44112477e-08  6.86439262e-01  1.44112477e-08  6.12382124e-01  1.44112477e-08  1.29982189e+00  1.44112477e-08  1.80000000e+00  1.44112477e-08 -6.92277217e-03  1.44112477e-08  6.09711051e-01  1.44112477e-08  1.41801165e+00  1.44112477e-08  1.42899447e+00                                 
 1.70950854e-08  6.86468170e-01  1.70950854e-08  6.12420052e-01  1.70950854e-08  1.27544652e+00  1.70950854e-08  1.80000000e+00  1.70950854e-08  6.90384380e-03  1.70950854e-08  6.10162602e-01  1.70950854e-08  1.41850570e+00  1.70950854e-08  1.42872027e+00                                 
 2.07283899e-08  6.86457200e-01  2.07283899e-08  6.12382867e-01  2.07283899e-08  1.24110267e+00  2.07283899e-08  1.80000000e+00  2.07283899e-08 -6.80600146e-03  2.07283899e-08  6.09968376e-01  2.07283899e-08  1.41821055e+00  2.07283899e-08  1.42839698e+00                                 
 2.51655198e-08  6.86480155e-01  2.51655198e-08  6.12420298e-01  2.51655198e-08  1.19949670e+00  2.51655198e-08  1.80000000e+00  2.51655198e-08  6.81487893e-03  2.51655198e-08  6.10685252e-01  2.51655198e-08  1.41893537e+00  2.51655198e-08  1.42811183e+00                                 
 3.13416657e-08  6.86462451e-01  3.13416657e-08  6.12382854e-01  3.13416657e-08  1.14051569e+00  3.13416657e-08  1.80000000e+00  3.13416657e-08 -6.73730052e-03  3.13416657e-08  6.10639961e-01  3.13416657e-08  1.41877680e+00  3.13416657e-08  1.42786396e+00                                 
 4.00935058e-08  6.86479543e-01  4.00935058e-08  6.12420169e-01  4.00935058e-08  1.05793982e+00  4.00935058e-08  1.80000000e+00  4.00935058e-08  6.76641908e-03  4.00935058e-08  6.11392172e-01  4.00935058e-08  1.41954050e+00  4.00935058e-08  1.42773010e+00                                 
 5.53246161e-08  6.86457278e-01  5.53246161e-08  6.12382466e-01  5.53246161e-08  9.15053321e-01  5.53246161e-08  1.80000000e+00  5.53246161e-08 -6.70561104e-03  5.53246161e-08  6.11273828e-01  5.53246161e-08  1.41933064e+00  5.53246161e-08  1.42774094e+00                                 
 8.57868369e-08  6.86477032e-01  8.57868369e-08  6.12419801e-01  8.57868369e-08  6.78099668e-01  8.57868369e-08  1.80000000e+00  8.57868369e-08  6.75250452e-03  8.57868369e-08  6.11826599e-01  8.57868369e-08  1.41993000e+00  8.57868369e-08  1.42793189e+00                                 
 1.05649615e-07  6.86460683e-01  1.05649615e-07  6.12383027e-01  1.05649615e-07  6.14847059e-01  1.05649615e-07  1.80000000e+00  1.05649615e-07 -6.68494605e-03  1.05649615e-07  6.11443575e-01  1.05649615e-07  1.41948753e+00  1.05649615e-07  1.42800446e+00                                 
 1.28531079e-07  6.86469341e-01  1.28531079e-07  6.12418908e-01  1.28531079e-07  6.11480792e-01  1.28531079e-07  1.80000000e+00  1.28531079e-07  6.73839273e-03  1.28531079e-07  6.11833431e-01  1.28531079e-07  1.41993743e+00  1.28531079e-07  1.42804340e+00                                 
 1.40791060e-07  6.86459903e-01  1.40791060e-07  6.12383302e-01  1.40791060e-07  6.10612135e-01  1.40791060e-07  1.80000000e+00  1.40791060e-07 -6.66382448e-03  1.40791060e-07  6.11434466e-01  1.40791060e-07  1.41947958e+00  1.40791060e-07  1.42804363e+00                                 
 1.57778893e-07  6.86473628e-01  1.57778893e-07  6.12418887e-01  1.57778893e-07  6.11313677e-01  1.57778893e-07  1.80000000e+00  1.57778893e-07  6.71465006e-03  1.57778893e-07  6.11831566e-01  1.57778893e-07  1.41993482e+00  1.57778893e-07  1.42805075e+00                                 
 1.91754559e-07  6.86458678e-01  1.91754559e-07  6.12383315e-01  1.91754559e-07  6.10502663e-01  1.91754559e-07  1.80000000e+00  1.91754559e-07 -6.64906239e-03  1.91754559e-07  6.11433342e-01  1.91754559e-07  1.41947719e+00  1.91754559e-07  1.42804681e+00                                 
 2.48431028e-07  6.86474273e-01  2.48431028e-07  6.12418906e-01  2.48431028e-07  6.11232794e-01  2.48431028e-07  1.80000000e+00  2.48431028e-07  6.70669560e-03  2.48431028e-07  6.11831327e-01  2.48431028e-07  1.41993175e+00  2.48431028e-07  1.42804970e+00                                 
 3.50362334e-07  6.86458362e-01  3.50362334e-07  6.12383305e-01  3.50362334e-07  6.10506879e-01  3.50362334e-07  1.80000000e+00  3.50362334e-07 -6.64447579e-03  3.50362334e-07  6.11433333e-01  3.50362334e-07  1.41947228e+00  3.50362334e-07  1.42804196e+00                                 
 5.38615914e-07  6.86474435e-01  5.38615914e-07  6.12418912e-01  5.38615914e-07  6.11223706e-01  5.38615914e-07  1.80000000e+00  5.38615914e-07  6.70415126e-03  5.38615914e-07  6.11831334e-01  5.38615914e-07  1.41992270e+00  5.38615914e-07  1.42804067e+00                                 
 8.69277797e-07  6.86458277e-01  8.69277797e-07  6.12383301e-01  8.69277797e-07  6.10507644e-01  8.69277797e-07  1.80000000e+00  8.69277797e-07 -6.64308357e-03  8.69277797e-07  6.11433329e-01  8.69277797e-07  1.41945613e+00  8.69277797e-07  1.42802583e+00                                 
 1.53060156e-06  6.86474480e-01  1.53060156e-06  6.12418913e-01  1.53060156e-06  6.11221269e-01  1.53060156e-06  1.80000000e+00  1.53060156e-06  6.70338558e-03  1.53060156e-06  6.11831336e-01  1.53060156e-06  1.41989180e+00  1.53060156e-06  1.42800981e+00                                 
 2.53060156e-06  6.86458252e-01  2.53060156e-06  6.12383301e-01  2.53060156e-06  6.10507965e-01  2.53060156e-06  1.80000000e+00  2.53060156e-06 -6.64266407e-03  2.53060156e-06  6.11433327e-01  2.53060156e-06  1.41940437e+00  2.53060156e-06  1.42797413e+00                                 
 3.53060156e-06  6.86474500e-01  3.53060156e-06  6.12418914e-01  3.53060156e-06  6.11219592e-01  3.53060156e-06  1.80000000e+00  3.53060156e-06  6.70304680e-03  3.53060156e-06  6.11831338e-01  3.53060156e-06  1.41982952e+00  3.53060156e-06  1.42794760e+00                                 
 4.53060156e-06  6.86458233e-01  4.53060156e-06  6.12383300e-01  4.53060156e-06  6.10506404e-01  4.53060156e-06  1.80000000e+00  4.53060156e-06 -6.64230235e-03  4.53060156e-06  6.11433327e-01  4.53060156e-06  1.41934212e+00  4.53060156e-06  1.42791196e+00                                 
 5.53060156e-06  6.86474519e-01  5.53060156e-06  6.12418915e-01  5.53060156e-06  6.11218470e-01  5.53060156e-06  1.80000000e+00  5.53060156e-06  6.70270926e-03  5.53060156e-06  6.11831338e-01  5.53060156e-06  1.41976727e+00  5.53060156e-06  1.42788543e+00                                 
 6.53060156e-06  6.86458213e-01  6.53060156e-06  6.12383299e-01  6.53060156e-06  6.10506684e-01  6.53060156e-06  1.80000000e+00  6.53060156e-06 -6.64196840e-03  6.53060156e-06  6.11433326e-01  6.53060156e-06  1.41927988e+00  6.53060156e-06  1.42784980e+00                                 
 7.53060156e-06  6.86474538e-01  7.53060156e-06  6.12418916e-01  7.53060156e-06  6.11217362e-01  7.53060156e-06  1.80000000e+00  7.53060156e-06  6.70237174e-03  7.53060156e-06  6.11831340e-01  7.53060156e-06  1.41970504e+00  7.53060156e-06  1.42782328e+00                                 
 8.53060156e-06  6.86458194e-01  8.53060156e-06  6.12383298e-01  8.53060156e-06  6.10506998e-01  8.53060156e-06  1.80000000e+00  8.53060156e-06 -6.64163447e-03  8.53060156e-06  6.11433325e-01  8.53060156e-06  1.41921765e+00  8.53060156e-06  1.42778764e+00                                 
 9.53060156e-06  6.86474558e-01  9.53060156e-06  6.12418917e-01  9.53060156e-06  6.11216252e-01  9.53060156e-06  1.80000000e+00  9.53060156e-06  6.70203423e-03  9.53060156e-06  6.11831340e-01  9.53060156e-06  1.41964277e+00  9.53060156e-06  1.42776109e+00                                 
 1.00005000e-05  6.86458165e-01  1.00005000e-05  6.12383297e-01  1.00005000e-05  6.10508937e-01  1.00005000e-05  1.80000000e+00  1.00005000e-05 -6.64113296e-03  1.00005000e-05  6.11433323e-01  1.00005000e-05  1.41917190e+00  1.00005000e-05  1.42774195e+00                                 
 1.00005500e-05  6.86428152e-01  1.00005500e-05  6.12209311e-01  1.00005500e-05  6.08985276e-01  1.00005500e-05  1.62000000e+00  1.00005500e-05 -8.19370164e-04  1.00005500e-05  6.10164216e-01  1.00005500e-05  1.41810726e+00  1.00005500e-05  1.42772957e+00                                 
 1.00006500e-05  6.86455510e-01  1.00006500e-05  6.12176110e-01  1.00006500e-05  6.08831936e-01  1.00006500e-05  1.26000000e+00  1.00006500e-05  5.90364980e-04  1.00006500e-05  6.09673739e-01  1.00006500e-05  1.41768975e+00  1.00006500e-05  1.42774352e+00                                 
 1.00008500e-05  6.86510758e-01  1.00008500e-05  6.12349961e-01  1.00008500e-05  6.11048217e-01  1.00008500e-05  5.40000000e-01  1.00008500e-05  5.57578737e-02  1.00008500e-05  6.10070391e-01  1.00008500e-05  1.41597290e+00  1.00008500e-05  1.42773228e+00                                 
 1.00010000e-05  6.86448640e-01  1.00010000e-05  6.11757014e-01  1.00010000e-05  6.32112842e-01  1.00010000e-05  0.00000000e+00  1.00010000e-05  1.55840821e+00  1.00010000e-05  6.03695171e-01  1.00010000e-05  1.35786341e+00  1.00010000e-05  1.42725665e+00                                 
 1.00010247e-05  6.86466378e-01  1.00010247e-05  6.11324438e-01  1.00010247e-05  6.37940444e-01  1.00010247e-05  0.00000000e+00  1.00010247e-05  1.70721832e+00  1.00010247e-05  5.98531741e-01  1.00010247e-05  1.32811863e+00  1.00010247e-05  1.42702867e+00                                 
 1.00010742e-05  6.86471711e-01  1.00010742e-05  6.10579610e-01  1.00010742e-05  6.43486905e-01  1.00010742e-05  0.00000000e+00  1.00010742e-05  1.81796067e+00  1.00010742e-05  5.89455771e-01  1.00010742e-05  1.26391067e+00  1.00010742e-05  1.42688402e+00                                 
 1.00011732e-05  6.86465526e-01  1.00011732e-05  6.10435195e-01  1.00011732e-05  6.39426889e-01  1.00011732e-05  0.00000000e+00  1.00011732e-05  1.78842022e+00  1.00011732e-05  5.87629186e-01  1.00011732e-05  1.15257252e+00  1.00011732e-05  1.42746002e+00                                 
 1.00013065e-05  6.86469513e-01  1.00013065e-05  6.10685229e-01  1.00013065e-05  6.36683240e-01  1.00013065e-05  0.00000000e+00  1.00013065e-05  1.80625670e+00  1.00013065e-05  5.90947638e-01  1.00013065e-05  1.03406592e+00  1.00013065e-05  1.42786452e+00                                 
 1.00015242e-05  6.86464979e-01  1.00015242e-05  6.10854415e-01  1.00015242e-05  6.32793584e-01  1.00015242e-05  0.00000000e+00  1.00015242e-05  1.79428016e+00  1.00015242e-05  5.91772563e-01  1.00015242e-05  8.74109582e-01  1.00015242e-05  1.42809963e+00                                 
 1.00017975e-05  6.86468464e-01  1.00017975e-05  6.11564676e-01  1.00017975e-05  6.25264140e-01  1.00017975e-05  0.00000000e+00  1.00017975e-05  1.80393076e+00  1.00017975e-05  5.98951766e-01  1.00017975e-05  7.41385147e-01  1.00017975e-05  1.42788098e+00                                 
 1.00022016e-05  6.86464964e-01  1.00022016e-05  6.12307361e-01  1.00022016e-05  6.16759256e-01  1.00022016e-05  0.00000000e+00  1.00022016e-05  1.79620689e+00  1.00022016e-05  6.06029717e-01  1.00022016e-05  6.44139234e-01  1.00022016e-05  1.42654521e+00                                 
 1.00026132e-05  6.86468076e-01  1.00026132e-05  6.12804873e-01  1.00026132e-05  6.13003752e-01  1.00026132e-05  0.00000000e+00  1.00026132e-05  1.80324354e+00  1.00026132e-05  6.11468219e-01  1.00026132e-05  6.19606127e-01  1.00026132e-05  1.42408472e+00                                 
 1.00030014e-05  6.86465092e-01  1.00030014e-05  6.12806821e-01  1.00030014e-05  6.13640850e-01  1.00030014e-05  0.00000000e+00  1.00030014e-05  1.79720316e+00  1.00030014e-05  6.11617239e-01  1.00030014e-05  6.13883213e-01  1.00030014e-05  1.42131604e+00                                 
 1.00034113e-05  6.86467825e-01  1.00034113e-05  6.12875229e-01  1.00034113e-05  6.13992795e-01  1.00034113e-05  0.00000000e+00  1.00034113e-05  1.80244398e+00  1.00034113e-05  6.13066652e-01  1.00034113e-05  6.14543604e-01  1.00034113e-05  1.41816002e+00                                 
 1.00040792e-05  6.86465188e-01  1.00040792e-05  6.12747121e-01  1.00040792e-05  6.16519400e-01  1.00040792e-05  0.00000000e+00  1.00040792e-05  1.79776648e+00  1.00040792e-05  6.12419220e-01  1.00040792e-05  6.15197542e-01  1.00040792e-05  1.41280869e+00                                 
 1.00052726e-05  6.86467659e-01  1.00052726e-05  6.12700693e-01  1.00052726e-05  6.19858971e-01  1.00052726e-05  0.00000000e+00  1.00052726e-05  1.80213860e+00  1.00052726e-05  6.13287669e-01  1.00052726e-05  6.19803260e-01  1.00052726e-05  1.40275441e+00                                 
 1.00075970e-05  6.86465150e-01  1.00075970e-05  6.12482635e-01  1.00075970e-05  6.27847390e-01  1.00075970e-05  0.00000000e+00  1.00075970e-05  1.79792270e+00  1.00075970e-05  6.12395455e-01  1.00075970e-05  6.26455957e-01  1.00075970e-05  1.38224748e+00                                 
 1.00122459e-05  6.86467589e-01  1.00122459e-05  6.12423753e-01  1.00122459e-05  6.42056802e-01  1.00122459e-05  0.00000000e+00  1.00122459e-05  1.80206106e+00  1.00122459e-05  6.12900955e-01  1.00122459e-05  6.41925144e-01  1.00122459e-05  1.33991842e+00                                 
 1.00199523e-05  6.86465156e-01  1.00199523e-05  6.12356493e-01  1.00199523e-05  6.66169561e-01  1.00199523e-05  0.00000000e+00  1.00199523e-05  1.79796303e+00  1.00199523e-05  6.11782212e-01  1.00199523e-05  6.64597626e-01  1.00199523e-05  1.26848856e+00                                 
