 time            v(vbep)         time            v(vben)         time            v(vout)         time            v(vphi1)        time            v(vphi2)        time            v(vref)         yes             currtemp       
 0.00000000e+00  5.57181511e-01  0.00000000e+00  4.90692356e-01  0.00000000e+00  4.23123869e-01  0.00000000e+00  0.00000000e+00  0.00000000e+00  1.79995456e+00  0.00000000e+00  4.90692356e-01  1.00000000e+00  9.20000000e+01 
 5.00000000e-12  5.57155219e-01  5.00000000e-12  4.90670578e-01  5.00000000e-12  4.23684149e-01  5.00000000e-12  1.80000000e-02  5.00000000e-12  1.80006782e+00  5.00000000e-12  4.90670578e-01                                 
 1.00000000e-11  5.57129457e-01  1.00000000e-11  4.90649324e-01  1.00000000e-11  4.24148449e-01  1.00000000e-11  3.60000000e-02  1.00000000e-11  1.80013173e+00  1.00000000e-11  4.90649324e-01                                 
 2.00000000e-11  5.57078224e-01  2.00000000e-11  4.90606960e-01  2.00000000e-11  4.24927075e-01  2.00000000e-11  7.20000000e-02  2.00000000e-11  1.80019648e+00  2.00000000e-11  4.90606960e-01                                 
 4.00000000e-11  5.56976270e-01  4.00000000e-11  4.90522510e-01  4.00000000e-11  4.25869891e-01  4.00000000e-11  1.44000000e-01  4.00000000e-11  1.80016470e+00  4.00000000e-11  4.90522510e-01                                 
 8.00000000e-11  5.56773178e-01  8.00000000e-11  4.90354213e-01  8.00000000e-11  4.26639175e-01  8.00000000e-11  2.88000000e-01  8.00000000e-11  1.80007363e+00  8.00000000e-11  4.90354213e-01                                 
 1.60000000e-10  5.56370408e-01  1.60000000e-10  4.90019976e-01  1.60000000e-10  4.27073608e-01  1.60000000e-10  5.76000000e-01  1.60000000e-10  1.80002382e+00  1.60000000e-10  4.90019976e-01                                 
 3.20000000e-10  5.55577795e-01  3.20000000e-10  4.89360608e-01  3.20000000e-10  4.22645582e-01  3.20000000e-10  1.15200000e+00  3.20000000e-10  1.80029411e+00  3.20000000e-10  4.89360608e-01                                 
 5.00000000e-10  5.54706085e-01  5.00000000e-10  4.88632881e-01  5.00000000e-10  6.20486365e-01  5.00000000e-10  1.80000000e+00  5.00000000e-10  1.95426696e-01  5.00000000e-10  4.88632881e-01                                 
 5.22889505e-10  5.54596886e-01  5.22889505e-10  4.88541514e-01  5.22889505e-10  6.70038486e-01  5.22889505e-10  1.80000000e+00  5.22889505e-10  5.00260490e-02  5.22889505e-10  4.88541514e-01                                 
 5.68668514e-10  5.54379129e-01  5.68668514e-10  4.88359227e-01  5.68668514e-10  7.62714980e-01  5.68668514e-10  1.80000000e+00  5.68668514e-10 -1.76508318e-02  5.68668514e-10  4.88359227e-01                                 
 6.60226533e-10  5.53947489e-01  6.60226533e-10  4.87997416e-01  6.60226533e-10  9.15483327e-01  6.60226533e-10  1.80000000e+00  6.60226533e-10  1.53106516e-02  6.60226533e-10  4.87997416e-01                                 
 7.79099555e-10  5.53394606e-01  7.79099555e-10  4.87533042e-01  7.79099555e-10  1.07695413e+00  7.79099555e-10  1.80000000e+00  7.79099555e-10 -1.08392366e-02  7.79099555e-10  4.87533042e-01                                 
 9.68722404e-10  5.52529610e-01  9.68722404e-10  4.86804445e-01  9.68722404e-10  1.28927887e+00  9.68722404e-10  1.80000000e+00  9.68722404e-10  1.11068707e-02  9.68722404e-10  4.86804445e-01                                 
 1.34480165e-09  5.50872061e-01  1.34480165e-09  4.85401363e-01  1.34480165e-09  1.57561126e+00  1.34480165e-09  1.80000000e+00  1.34480165e-09 -9.27412859e-03  1.34480165e-09  4.85401363e-01                                 
 1.90107578e-09  5.48550181e-01  1.90107578e-09  4.83420963e-01  1.90107578e-09  1.75968075e+00  1.90107578e-09  1.80000000e+00  1.90107578e-09  9.46390595e-03  1.90107578e-09  4.83420963e-01                                 
 2.19943784e-09  5.47364141e-01  2.19943784e-09  4.82402541e-01  2.19943784e-09  1.79053025e+00  2.19943784e-09  1.80000000e+00  2.19943784e-09 -8.49050948e-03  2.19943784e-09  4.82402541e-01                                 
 2.61230771e-09  5.45784215e-01  2.61230771e-09  4.81039142e-01  2.61230771e-09  1.80714397e+00  2.61230771e-09  1.80000000e+00  2.61230771e-09  8.16078757e-03  2.61230771e-09  4.81039142e-01                                 
 2.98395459e-09  5.44418873e-01  2.98395459e-09  4.79854767e-01  2.98395459e-09  1.81062793e+00  2.98395459e-09  1.80000000e+00  2.98395459e-09 -7.56309379e-03  2.98395459e-09  4.79854767e-01                                 
 3.72724834e-09  5.41832101e-01  3.72724834e-09  4.77596116e-01  3.72724834e-09  1.81071317e+00  3.72724834e-09  1.80000000e+00  3.72724834e-09  7.39868965e-03  3.72724834e-09  4.77596116e-01                                 
 4.51833261e-09  5.39268461e-01  4.51833261e-09  4.75338895e-01  4.51833261e-09  1.80873257e+00  4.51833261e-09  1.80000000e+00  4.51833261e-09 -7.11459224e-03  4.51833261e-09  4.75338895e-01                                 
 6.10050116e-09  5.34617916e-01  6.10050116e-09  4.71201460e-01  6.10050116e-09  1.80674969e+00  6.10050116e-09  1.80000000e+00  6.10050116e-09  7.08080376e-03  6.10050116e-09  4.71201460e-01                                 
 8.72191650e-09  5.27991739e-01  8.72191650e-09  4.65220512e-01  8.72191650e-09  1.79994911e+00  8.72191650e-09  1.80000000e+00  8.72191650e-09 -6.94913515e-03  8.72191650e-09  4.65220512e-01                                 
 1.05589334e-08  5.23974744e-01  1.05589334e-08  4.61548409e-01  1.05589334e-08  1.79534085e+00  1.05589334e-08  1.80000000e+00  1.05589334e-08  6.91854185e-03  1.05589334e-08  4.61548409e-01                                 
 1.18595239e-08  5.21367496e-01  1.18595239e-08  4.59149735e-01  1.18595239e-08  1.79182032e+00  1.18595239e-08  1.80000000e+00  1.18595239e-08 -6.73964905e-03  1.18595239e-08  4.59149735e-01                                 
 1.34709593e-08  5.18357855e-01  1.34709593e-08  4.56368484e-01  1.34709593e-08  1.78825968e+00  1.34709593e-08  1.80000000e+00  1.34709593e-08  6.69334030e-03  1.34709593e-08  4.56368484e-01                                 
 1.49946168e-08  5.15704788e-01  1.49946168e-08  4.53907099e-01  1.49946168e-08  1.78443558e+00  1.49946168e-08  1.80000000e+00  1.49946168e-08 -6.54007459e-03  1.49946168e-08  4.53907099e-01                                 
 1.68594804e-08  5.12671239e-01  1.68594804e-08  4.51083621e-01  1.68594804e-08  1.78052876e+00  1.68594804e-08  1.80000000e+00  1.68594804e-08  6.50720249e-03  1.68594804e-08  4.51083621e-01                                 
 1.90779992e-08  5.09317620e-01  1.90779992e-08  4.47953554e-01  1.90779992e-08  1.77530839e+00  1.90779992e-08  1.80000000e+00  1.90779992e-08 -6.38958676e-03  1.90779992e-08  4.47953554e-01                                 
 2.21990886e-08  5.04983173e-01  2.21990886e-08  4.43898375e-01  2.21990886e-08  1.76866933e+00  2.21990886e-08  1.80000000e+00  2.21990886e-08  6.39020379e-03  2.21990886e-08  4.43898375e-01                                 
 2.62495381e-08  4.99906987e-01  2.62495381e-08  4.39138672e-01  2.62495381e-08  1.75919171e+00  2.62495381e-08  1.80000000e+00  2.62495381e-08 -6.30459984e-03  2.62495381e-08  4.39138672e-01                                 
 3.27959230e-08  4.92720199e-01  3.27959230e-08  4.32385815e-01  3.27959230e-08  1.74427473e+00  3.27959230e-08  1.80000000e+00  3.27959230e-08  6.33090193e-03  3.27959230e-08  4.32385815e-01                                 
 4.37409969e-08  4.83052183e-01  4.37409969e-08  4.23233889e-01  4.37409969e-08  1.72004805e+00  4.37409969e-08  1.80000000e+00  4.37409969e-08 -6.26777429e-03  4.37409969e-08  4.23233889e-01                                 
 6.08152711e-08  4.75791226e-01  6.08152711e-08  4.15605576e-01  6.08152711e-08  1.69907886e+00  6.08152711e-08  1.80000000e+00  6.08152711e-08  6.31142683e-03  6.08152711e-08  4.15605576e-01                                 
 8.16169448e-08  4.71225317e-01  8.16169448e-08  4.10215947e-01  8.16169448e-08  1.68649511e+00  8.16169448e-08  1.80000000e+00  8.16169448e-08 -6.25067919e-03  8.16169448e-08  4.10215947e-01                                 
 1.02839740e-07  4.63820155e-01  1.02839740e-07  4.02931428e-01  1.02839740e-07  1.65851995e+00  1.02839740e-07  1.80000000e+00  1.02839740e-07  6.29607715e-03  1.02839740e-07  4.02931428e-01                                 
 1.25077899e-07  4.56825416e-01  1.25077899e-07  3.96156543e-01  1.25077899e-07  1.62758037e+00  1.25077899e-07  1.80000000e+00  1.25077899e-07 -6.23719348e-03  1.25077899e-07  3.96156543e-01                                 
 1.58328647e-07  4.49130066e-01  1.58328647e-07  3.88530325e-01  1.58328647e-07  1.58642188e+00  1.58328647e-07  1.80000000e+00  1.58328647e-07  6.28554035e-03  1.58328647e-07  3.88530325e-01                                 
 1.88728365e-07  4.43365556e-01  1.88728365e-07  3.82806490e-01  1.88728365e-07  1.54961508e+00  1.88728365e-07  1.80000000e+00  1.88728365e-07 -6.22789831e-03  1.88728365e-07  3.82806490e-01                                 
 2.35989712e-07  4.31176572e-01  2.35989712e-07  3.71658206e-01  2.35989712e-07  1.48837072e+00  2.35989712e-07  1.80000000e+00  2.35989712e-07  6.27739453e-03  2.35989712e-07  3.71658206e-01                                 
 2.85402943e-07  4.15921254e-01  2.85402943e-07  3.58307891e-01  2.85402943e-07  1.42167728e+00  2.85402943e-07  1.80000000e+00  2.85402943e-07 -6.22211564e-03  2.85402943e-07  3.58307891e-01                                 
 3.58278382e-07  3.95291054e-01  3.58278382e-07  3.40508846e-01  3.58278382e-07  1.32434011e+00  3.58278382e-07  1.80000000e+00  3.58278382e-07  6.27260213e-03  3.58278382e-07  3.40508846e-01                                 
 4.38587049e-07  3.69642637e-01  4.38587049e-07  3.19019976e-01  4.38587049e-07  1.21488253e+00  4.38587049e-07  1.80000000e+00  4.38587049e-07 -6.21844178e-03  4.38587049e-07  3.19019976e-01                                 
 5.99204382e-07  3.56529107e-01  5.99204382e-07  3.07418865e-01  5.99204382e-07  1.04863440e+00  5.99204382e-07  1.80000000e+00  5.99204382e-07  6.27100853e-03  5.99204382e-07  3.07418865e-01                                 
 6.26395952e-07  4.16698712e-01  6.26395952e-07  3.55442450e-01  6.26395952e-07  1.08063569e+00  6.26395952e-07  1.80000000e+00  6.26395952e-07  1.89276414e-05  6.26395952e-07  3.55442450e-01                                 
 6.80779090e-07  6.27762830e-01  6.80779090e-07  5.57776708e-01  6.80779090e-07  1.22759319e+00  6.80779090e-07  1.80000000e+00  6.80779090e-07  2.56758066e-05  6.80779090e-07  5.57776708e-01                                 
 7.36912993e-07  7.03536723e-01  7.36912993e-07  6.26663938e-01  7.36912993e-07  1.24235808e+00  7.36912993e-07  1.80000000e+00  7.36912993e-07  8.00572196e-06  7.36912993e-07  6.26663938e-01                                 
 7.42828198e-07  7.05532790e-01  7.42828198e-07  6.28204645e-01  7.42828198e-07  1.23718224e+00  7.42828198e-07  1.80000000e+00  7.42828198e-07  1.40188620e-05  7.42828198e-07  6.28204645e-01                                 
 7.54658610e-07  7.08074672e-01  7.54658610e-07  6.30226489e-01  7.54658610e-07  1.22694636e+00  7.54658610e-07  1.80000000e+00  7.54658610e-07  1.36959370e-05  7.54658610e-07  6.30226489e-01                                 
 7.78319433e-07  7.09342383e-01  7.78319433e-07  6.31250553e-01  7.78319433e-07  1.20326627e+00  7.78319433e-07  1.80000000e+00  7.78319433e-07  1.32431683e-05  7.78319433e-07  6.31250553e-01                                 
 8.13766054e-07  7.09528780e-01  8.13766054e-07  6.31385608e-01  8.13766054e-07  1.16629560e+00  8.13766054e-07  1.80000000e+00  8.13766054e-07  1.34599739e-05  8.13766054e-07  6.31385608e-01                                 
 8.66115867e-07  7.08430332e-01  8.66115867e-07  6.30530359e-01  8.66115867e-07  1.11273965e+00  8.66115867e-07  1.80000000e+00  8.66115867e-07  1.31860641e-05  8.66115867e-07  6.30530359e-01                                 
 9.19100540e-07  6.83689013e-01  9.19100540e-07  6.10151687e-01  9.19100540e-07  1.04145544e+00  9.19100540e-07  1.80000000e+00  9.19100540e-07  1.13802864e-05  9.19100540e-07  6.10151687e-01                                 
 9.75158692e-07  6.62091356e-01  9.75158692e-07  5.91058873e-01  9.75158692e-07  9.78302823e-01  9.75158692e-07  1.80000000e+00  9.75158692e-07  1.37669718e-05  9.75158692e-07  5.91058873e-01                                 
 1.03802726e-06  6.89033520e-01  1.03802726e-06  6.14622107e-01  1.03802726e-06  9.59295403e-01  1.03802726e-06  1.80000000e+00  1.03802726e-06  1.55594968e-05  1.03802726e-06  6.14622107e-01                                 
 1.10097914e-06  7.02360278e-01  1.10097914e-06  6.25663394e-01  1.10097914e-06  9.29831304e-01  1.10097914e-06  1.80000000e+00  1.10097914e-06  1.27275686e-05  1.10097914e-06  6.25663394e-01                                 
 1.17374883e-06  6.77970437e-01  1.17374883e-06  6.05199386e-01  1.17374883e-06  8.62087116e-01  1.17374883e-06  1.80000000e+00  1.17374883e-06  1.29419788e-05  1.17374883e-06  6.05199386e-01                                 
 1.23770794e-06  6.76334053e-01  1.23770794e-06  6.03720146e-01  1.23770794e-06  8.22123299e-01  1.23770794e-06  1.80000000e+00  1.23770794e-06  1.42919309e-05  1.23770794e-06  6.03720146e-01                                 
 1.30677711e-06  6.97889327e-01  1.30677711e-06  6.22015587e-01  1.30677711e-06  8.00769564e-01  1.30677711e-06  1.80000000e+00  1.30677711e-06  1.46088279e-05  1.30677711e-06  6.22015587e-01                                 
 1.37657227e-06  6.86157441e-01  1.37657227e-06  6.12241922e-01  1.37657227e-06  7.49880806e-01  1.37657227e-06  1.80000000e+00  1.37657227e-06  1.20245385e-05  1.37657227e-06  6.12241922e-01                                 
 1.44835289e-06  6.80268588e-01  1.44835289e-06  6.07148363e-01  1.44835289e-06  7.04821197e-01  1.44835289e-06  1.80000000e+00  1.44835289e-06  1.50706877e-05  1.44835289e-06  6.07148363e-01                                 
 1.53363332e-06  6.91890695e-01  1.53363332e-06  6.17051330e-01  1.53363332e-06  6.73685158e-01  1.53363332e-06  1.80000000e+00  1.53363332e-06  1.31548472e-05  1.53363332e-06  6.17051330e-01                                 
 1.63782626e-06  6.86303310e-01  1.63782626e-06  6.12346407e-01  1.63782626e-06  6.32501621e-01  1.63782626e-06  1.80000000e+00  1.63782626e-06  1.43351111e-05  1.63782626e-06  6.12346407e-01                                 
 1.74458393e-06  6.84347807e-01  1.74458393e-06  6.10672392e-01  1.74458393e-06  6.10779576e-01  1.74458393e-06  1.80000000e+00  1.74458393e-06  1.34740656e-05  1.74458393e-06  6.10672392e-01                                 
 1.76074093e-06  6.86732593e-01  1.76074093e-06  6.12699826e-01  1.76074093e-06  6.10934476e-01  1.76074093e-06  1.80000000e+00  1.76074093e-06  1.43129478e-05  1.76074093e-06  6.12699826e-01                                 
 1.79305494e-06  6.89635147e-01  1.79305494e-06  6.15157603e-01  1.79305494e-06  6.09814555e-01  1.79305494e-06  1.80000000e+00  1.79305494e-06  1.40578715e-05  1.79305494e-06  6.15157603e-01                                 
 1.85768294e-06  6.87573119e-01  1.85768294e-06  6.13424693e-01  1.85768294e-06  6.03321831e-01  1.85768294e-06  1.80000000e+00  1.85768294e-06  1.37931775e-05  1.85768294e-06  6.13424693e-01                                 
 1.94995252e-06  6.85324696e-01  1.94995252e-06  6.11505718e-01  1.94995252e-06  6.08946407e-01  1.94995252e-06  1.80000000e+00  1.94995252e-06  1.42261698e-05  1.94995252e-06  6.11505718e-01                                 
 2.04442057e-06  6.88657926e-01  2.04442057e-06  6.14335857e-01  2.04442057e-06  6.16271849e-01  2.04442057e-06  1.80000000e+00  2.04442057e-06  1.40270281e-05  2.04442057e-06  6.14335857e-01                                 
 2.16990526e-06  6.86468918e-01  2.16990526e-06  6.12484836e-01  2.16990526e-06  6.11680001e-01  2.16990526e-06  1.80000000e+00  2.16990526e-06  1.39324813e-05  2.16990526e-06  6.12484836e-01                                 
 2.33981238e-06  6.87068372e-01  2.33981238e-06  6.12988932e-01  2.33981238e-06  6.13721844e-01  2.33981238e-06  1.80000000e+00  2.33981238e-06  1.41469104e-05  2.33981238e-06  6.12988932e-01                                 
 2.51961957e-06  6.87740342e-01  2.51961957e-06  6.13562898e-01  2.51961957e-06  6.13514895e-01  2.51961957e-06  1.80000000e+00  2.51961957e-06  1.39228745e-05  2.51961957e-06  6.13562898e-01                                 
 2.85087093e-06  6.86330650e-01  2.85087093e-06  6.12363400e-01  2.85087093e-06  6.12739797e-01  2.85087093e-06  1.80000000e+00  2.85087093e-06  1.41148903e-05  2.85087093e-06  6.12363400e-01                                 
 3.32743855e-06  6.88017824e-01  3.32743855e-06  6.13796979e-01  3.32743855e-06  6.13891379e-01  3.32743855e-06  1.80000000e+00  3.32743855e-06  1.39569360e-05  3.32743855e-06  6.13796979e-01                                 
 4.17443175e-06  6.86207148e-01  4.17443175e-06  6.12259169e-01  4.17443175e-06  6.12565538e-01  4.17443175e-06  1.80000000e+00  4.17443175e-06  1.40896834e-05  4.17443175e-06  6.12259169e-01                                 
 5.17443175e-06  6.88065966e-01  5.17443175e-06  6.13837300e-01  5.17443175e-06  6.13969849e-01  5.17443175e-06  1.80000000e+00  5.17443175e-06  1.39748036e-05  5.17443175e-06  6.13837300e-01                                 
 6.17443175e-06  6.86180644e-01  6.17443175e-06  6.12236895e-01  6.17443175e-06  6.12513388e-01  6.17443175e-06  1.80000000e+00  6.17443175e-06  1.40728867e-05  6.17443175e-06  6.12236895e-01                                 
 7.17443175e-06  6.88075034e-01  7.17443175e-06  6.13844571e-01  7.17443175e-06  6.14002571e-01  7.17443175e-06  1.80000000e+00  7.17443175e-06  1.39918013e-05  7.17443175e-06  6.13844571e-01                                 
 8.17443175e-06  6.86187420e-01  8.17443175e-06  6.12243041e-01  8.17443175e-06  6.12498079e-01  8.17443175e-06  1.80000000e+00  8.17443175e-06  1.40558475e-05  8.17443175e-06  6.12243041e-01                                 
 9.17443175e-06  6.88053111e-01  9.17443175e-06  6.13825661e-01  9.17443175e-06  6.14001351e-01  9.17443175e-06  1.80000000e+00  9.17443175e-06  1.40087346e-05  9.17443175e-06  6.13825661e-01                                 
 1.00005000e-05  6.86230318e-01  1.00005000e-05  6.12279898e-01  1.00005000e-05  6.12519537e-01  1.00005000e-05  1.80000000e+00  1.00005000e-05  1.40374560e-05  1.00005000e-05  6.12279898e-01                                 
 1.00005500e-05  6.86230673e-01  1.00005500e-05  6.12280144e-01  1.00005500e-05  6.05795250e-01  1.00005500e-05  1.62000000e+00  1.00005500e-05 -1.20802275e-04  1.00005500e-05  6.12280144e-01                                 
 1.00006500e-05  6.86231318e-01  1.00006500e-05  6.12280637e-01  1.00006500e-05  5.94062328e-01  1.00006500e-05  1.26000000e+00  1.00006500e-05 -1.01003003e-04  1.00006500e-05  6.12280637e-01                                 
 1.00008500e-05  6.86232626e-01  1.00008500e-05  6.12281684e-01  1.00008500e-05  5.84584859e-01  1.00008500e-05  5.40000000e-01  1.00008500e-05  5.16249474e-02  1.00008500e-05  6.12281684e-01                                 
 1.00010000e-05  6.86233650e-01  1.00010000e-05  6.12282506e-01  1.00010000e-05  5.84394166e-01  1.00010000e-05  0.00000000e+00  1.00010000e-05  1.56147120e+00  1.00010000e-05  6.12282506e-01                                 
 1.00010247e-05  6.86233801e-01  1.00010247e-05  6.12282636e-01  1.00010247e-05  5.77239128e-01  1.00010247e-05  0.00000000e+00  1.00010247e-05  1.70755771e+00  1.00010247e-05  6.12282636e-01                                 
 1.00010741e-05  6.86234121e-01  1.00010741e-05  6.12282900e-01  1.00010741e-05  5.62861110e-01  1.00010741e-05  0.00000000e+00  1.00010741e-05  1.81802635e+00  1.00010741e-05  6.12282900e-01                                 
