 time            v(vbep)         time            v(vben)         time            v(vout)         time            v(vphi1)        time            v(vphi2)        time            v(vref)         yes             currtemp       
 0.00000000e+00  6.00524848e-01  0.00000000e+00  5.38097710e-01  0.00000000e+00  2.03437242e-01  0.00000000e+00  0.00000000e+00  0.00000000e+00  1.79996577e+00  0.00000000e+00  5.00000000e-01  1.00000000e+00  6.90000000e+01 
 5.00000000e-12  6.00500706e-01  5.00000000e-12  5.38077681e-01  5.00000000e-12  2.04016280e-01  5.00000000e-12  1.80000000e-02  5.00000000e-12  1.80006557e+00  5.00000000e-12  5.00000000e-01                                 
 1.00000000e-11  6.00477031e-01  1.00000000e-11  5.38058122e-01  1.00000000e-11  2.04536298e-01  1.00000000e-11  3.60000000e-02  1.00000000e-11  1.80011495e+00  1.00000000e-11  5.00000000e-01                                 
 2.00000000e-11  6.00429936e-01  2.00000000e-11  5.38019131e-01  2.00000000e-11  2.05488719e-01  2.00000000e-11  7.20000000e-02  2.00000000e-11  1.80015695e+00  2.00000000e-11  5.00000000e-01                                 
 4.00000000e-11  6.00336189e-01  4.00000000e-11  5.37941392e-01  4.00000000e-11  2.07010983e-01  4.00000000e-11  1.44000000e-01  4.00000000e-11  1.80011893e+00  4.00000000e-11  5.00000000e-01                                 
 8.00000000e-11  6.00149404e-01  8.00000000e-11  5.37786435e-01  8.00000000e-11  2.09230585e-01  8.00000000e-11  2.88000000e-01  8.00000000e-11  1.80005491e+00  8.00000000e-11  5.00000000e-01                                 
 1.60000000e-10  5.99778846e-01  1.60000000e-10  5.37478599e-01  1.60000000e-10  2.12557453e-01  1.60000000e-10  5.76000000e-01  1.60000000e-10  1.80001355e+00  1.60000000e-10  5.00000000e-01                                 
 3.20000000e-10  5.99049285e-01  3.20000000e-10  5.36871062e-01  3.20000000e-10  2.28583331e-01  3.20000000e-10  1.15200000e+00  3.20000000e-10  1.80027405e+00  3.20000000e-10  5.00000000e-01                                 
 5.00000000e-10  5.98246511e-01  5.00000000e-10  5.36200250e-01  5.00000000e-10  4.92662160e-01  5.00000000e-10  1.80000000e+00  5.00000000e-10  1.31963376e-01  5.00000000e-10  5.00000000e-01                                 
 5.22407317e-10  5.98148029e-01  5.22407317e-10  5.36117776e-01  5.22407317e-10  5.48573729e-01  5.22407317e-10  1.80000000e+00  5.22407317e-10  2.75286616e-02  5.22407317e-10  5.00000000e-01                                 
 5.67221952e-10  5.97951620e-01  5.67221952e-10  5.35953216e-01  5.67221952e-10  6.50338198e-01  5.67221952e-10  1.80000000e+00  5.67221952e-10 -1.24309619e-02  5.67221952e-10  5.00000000e-01                                 
 6.56851220e-10  5.97562155e-01  6.56851220e-10  5.35626487e-01  6.56851220e-10  8.06981672e-01  6.56851220e-10  1.80000000e+00  6.56851220e-10  1.03683118e-02  6.56851220e-10  5.00000000e-01                                 
 7.79725263e-10  5.97035334e-01  7.79725263e-10  5.35183648e-01  7.79725263e-10  9.62481747e-01  7.79725263e-10  1.80000000e+00  7.79725263e-10 -8.70134931e-03  7.79725263e-10  5.00000000e-01                                 
 9.75846158e-10  5.96210865e-01  9.75846158e-10  5.34488604e-01  9.75846158e-10  1.14705198e+00  9.75846158e-10  1.80000000e+00  9.75846158e-10  8.16074400e-03  9.75846158e-10  5.00000000e-01                                 
 1.28728681e-09  5.94941062e-01  1.28728681e-09  5.33413412e-01  1.28728681e-09  1.35480471e+00  1.28728681e-09  1.80000000e+00  1.28728681e-09 -7.58301320e-03  1.28728681e-09  5.00000000e-01                                 
 1.78426467e-09  5.93007786e-01  1.78426467e-09  5.31765681e-01  1.78426467e-09  1.52899767e+00  1.78426467e-09  1.80000000e+00  1.78426467e-09  7.44255916e-03  1.78426467e-09  5.00000000e-01                                 
 2.15081380e-09  5.91649696e-01  2.15081380e-09  5.30600415e-01  2.15081380e-09  1.57907610e+00  2.15081380e-09  1.80000000e+00  2.15081380e-09 -6.99297191e-03  2.15081380e-09  5.00000000e-01                                 
 2.57924566e-09  5.90127984e-01  2.57924566e-09  5.29287485e-01  2.57924566e-09  1.60147943e+00  2.57924566e-09  1.80000000e+00  2.57924566e-09  6.81413631e-03  2.57924566e-09  5.00000000e-01                                 
 2.96497095e-09  5.88813902e-01  2.96497095e-09  5.28147625e-01  2.96497095e-09  1.60726323e+00  2.96497095e-09  1.80000000e+00  2.96497095e-09 -6.45933715e-03  2.96497095e-09  5.00000000e-01                                 
 3.43180891e-09  5.87288225e-01  3.43180891e-09  5.26817424e-01  3.43180891e-09  1.60766431e+00  3.43180891e-09  1.80000000e+00  3.43180891e-09  6.27799294e-03  3.43180891e-09  5.00000000e-01                                 
 3.92985017e-09  5.85732359e-01  3.92985017e-09  5.25453574e-01  3.92985017e-09  1.60527098e+00  3.92985017e-09  1.80000000e+00  3.92985017e-09 -6.02980958e-03  3.92985017e-09  5.00000000e-01                                 
 4.76379388e-09  5.83274377e-01  4.76379388e-09  5.23284717e-01  4.76379388e-09  1.60003050e+00  4.76379388e-09  1.80000000e+00  4.76379388e-09  5.94655438e-03  4.76379388e-09  5.00000000e-01                                 
 5.87944917e-09  5.80237469e-01  5.87944917e-09  5.20582078e-01  5.87944917e-09  1.59305419e+00  5.87944917e-09  1.80000000e+00  5.87944917e-09 -5.82266019e-03  5.87944917e-09  5.00000000e-01                                 
 8.11075975e-09  5.74844273e-01  8.11075975e-09  5.15727639e-01  8.11075975e-09  1.58144154e+00  8.11075975e-09  1.80000000e+00  8.11075975e-09  5.81434895e-03  8.11075975e-09  5.00000000e-01                                 
 1.25733809e-08  5.65957285e-01  1.25733809e-08  5.07603041e-01  1.25733809e-08  1.56403886e+00  1.25733809e-08  1.80000000e+00  1.25733809e-08 -5.75728991e-03  1.25733809e-08  5.00000000e-01                                 
 2.14986233e-08  5.52536423e-01  2.14986233e-08  4.95136054e-01  2.14986233e-08  1.52640719e+00  2.14986233e-08  1.80000000e+00  2.14986233e-08  5.78239605e-03  2.14986233e-08  5.00000000e-01                                 
 3.72721674e-08  5.36223492e-01  3.72721674e-08  4.79773003e-01  3.72721674e-08  1.43487209e+00  3.72721674e-08  1.80000000e+00  3.72721674e-08 -5.74008319e-03  3.72721674e-08  5.00000000e-01                                 
 5.57370423e-08  5.27510901e-01  5.57370423e-08  4.70800250e-01  5.57370423e-08  1.34176633e+00  5.57370423e-08  1.80000000e+00  5.57370423e-08  5.77184142e-03  5.57370423e-08  5.00000000e-01                                 
 7.82192026e-08  5.22081214e-01  7.82192026e-08  4.64623780e-01  7.82192026e-08  1.23234388e+00  7.82192026e-08  1.80000000e+00  7.82192026e-08 -5.73049245e-03  7.82192026e-08  5.00000000e-01                                 
 9.60206373e-08  5.15846259e-01  9.60206373e-08  4.58526510e-01  9.60206373e-08  1.11317025e+00  9.60206373e-08  1.80000000e+00  9.60206373e-08  5.76212983e-03  9.60206373e-08  5.00000000e-01                                 
 1.16542417e-07  5.09465944e-01  1.16542417e-07  4.52343996e-01  1.16542417e-07  9.86949587e-01  1.16542417e-07  1.80000000e+00  1.16542417e-07 -5.72055334e-03  1.16542417e-07  5.00000000e-01                                 
 1.40290898e-07  5.03807678e-01  1.40290898e-07  4.46751930e-01  1.40290898e-07  8.82802939e-01  1.40290898e-07  1.80000000e+00  1.40290898e-07  5.75358006e-03  1.40290898e-07  5.00000000e-01                                 
 1.65134832e-07  4.98759601e-01  1.65134832e-07  4.41759859e-01  1.65134832e-07  8.09134117e-01  1.65134832e-07  1.80000000e+00  1.65134832e-07 -5.71278656e-03  1.65134832e-07  5.00000000e-01                                 
 2.09120722e-07  4.86405974e-01  2.09120722e-07  4.30512545e-01  2.09120722e-07  6.94708867e-01  2.09120722e-07  1.80000000e+00  2.09120722e-07  5.74752681e-03  2.09120722e-07  5.00000000e-01                                 
 2.59110279e-07  4.70266911e-01  2.59110279e-07  4.16408404e-01  2.59110279e-07  5.73519917e-01  2.59110279e-07  1.80000000e+00  2.59110279e-07 -5.70883015e-03  2.59110279e-07  5.00000000e-01                                 
 3.25322315e-07  4.50817973e-01  3.25322315e-07  3.99667780e-01  3.25322315e-07  4.83049698e-01  3.25322315e-07  1.80000000e+00  3.25322315e-07  5.74425712e-03  3.25322315e-07  5.00000000e-01                                 
 4.02561021e-07  4.24921721e-01  4.02561021e-07  3.78050406e-01  4.02561021e-07  4.58451560e-01  4.02561021e-07  1.80000000e+00  4.02561021e-07 -5.70625874e-03  4.02561021e-07  5.00000000e-01                                 
 4.72559737e-07  3.95487513e-01  4.72559737e-07  3.54044327e-01  4.72559737e-07  5.04225831e-01  4.72559737e-07  1.80000000e+00  4.72559737e-07  5.74162918e-03  4.72559737e-07  5.00000000e-01                                 
 5.47289114e-07  3.66684831e-01  5.47289114e-07  3.30784063e-01  5.47289114e-07  5.20182290e-01  5.47289114e-07  1.80000000e+00  5.47289114e-07 -5.70366078e-03  5.47289114e-07  5.00000000e-01                                 
 5.58369439e-07  3.67233953e-01  5.58369439e-07  3.31218515e-01  5.58369439e-07  5.11863863e-01  5.58369439e-07  1.80000000e+00  5.58369439e-07  2.81941076e-06  5.58369439e-07  5.00000000e-01                                 
 5.80530088e-07  3.82379887e-01  5.80530088e-07  3.43351629e-01  5.80530088e-07  5.06800289e-01  5.80530088e-07  1.80000000e+00  5.80530088e-07  7.42933579e-06  5.80530088e-07  5.00000000e-01                                 
 6.09013288e-07  5.01391815e-01  6.09013288e-07  4.38636053e-01  6.09013288e-07  5.53631513e-01  6.09013288e-07  1.80000000e+00  6.09013288e-07  6.50066261e-06  6.09013288e-07  5.00000000e-01                                 
 6.36096909e-07  6.52912614e-01  6.36096909e-07  5.86052034e-01  6.36096909e-07  5.83002655e-01  6.36096909e-07  1.80000000e+00  6.36096909e-07  1.05859047e-05  6.36096909e-07  5.00000000e-01                                 
 6.55594202e-07  6.95832376e-01  6.55594202e-07  6.30071189e-01  6.55594202e-07  5.50226953e-01  6.55594202e-07  1.80000000e+00  6.55594202e-07  2.58162746e-06  6.55594202e-07  5.00000000e-01                                 
 6.75680476e-07  7.22142352e-01  6.75680476e-07  6.53177005e-01  6.75680476e-07  5.24196235e-01  6.75680476e-07  1.80000000e+00  6.75680476e-07  9.02507149e-06  6.75680476e-07  5.00000000e-01                                 
 7.11101195e-07  7.36156877e-01  7.11101195e-07  6.65266330e-01  7.11101195e-07  4.95353409e-01  7.11101195e-07  1.80000000e+00  7.11101195e-07  1.23282437e-06  7.11101195e-07  5.00000000e-01                                 
 7.48153851e-07  7.36932385e-01  7.48153851e-07  6.65726667e-01  7.48153851e-07  4.83587051e-01  7.48153851e-07  1.80000000e+00  7.48153851e-07  8.34264908e-06  7.48153851e-07  5.00000000e-01                                 
 7.53940448e-07  7.37123135e-01  7.53940448e-07  6.65958140e-01  7.53940448e-07  4.83325448e-01  7.53940448e-07  1.80000000e+00  7.53940448e-07  4.86520217e-06  7.53940448e-07  5.00000000e-01                                 
 7.65513642e-07  7.37182222e-01  7.65513642e-07  6.66025408e-01  7.65513642e-07  4.82528833e-01  7.65513642e-07  1.80000000e+00  7.65513642e-07  4.72488447e-06  7.65513642e-07  5.00000000e-01                                 
 7.88660031e-07  7.37108598e-01  7.88660031e-07  6.65950091e-01  7.88660031e-07  4.81950634e-01  7.88660031e-07  1.80000000e+00  7.88660031e-07  4.84169958e-06  7.88660031e-07  5.00000000e-01                                 
 8.25525021e-07  7.37016094e-01  8.25525021e-07  6.65887733e-01  8.25525021e-07  4.96929152e-01  8.25525021e-07  1.80000000e+00  8.25525021e-07  4.73580059e-06  8.25525021e-07  5.00000000e-01                                 
 8.75947775e-07  7.31690524e-01  8.75947775e-07  6.61475126e-01  8.75947775e-07  5.13282280e-01  8.75947775e-07  1.80000000e+00  8.75947775e-07  4.66525555e-06  8.75947775e-07  5.00000000e-01                                 
 8.83801340e-07  7.28544869e-01  8.83801340e-07  6.58848953e-01  8.83801340e-07  5.09069569e-01  8.83801340e-07  1.80000000e+00  8.83801340e-07  4.46811385e-06  8.83801340e-07  5.00000000e-01                                 
 8.99508471e-07  7.20492543e-01  8.99508471e-07  6.51974704e-01  8.99508471e-07  4.98823867e-01  8.99508471e-07  1.80000000e+00  8.99508471e-07  4.29056526e-06  8.99508471e-07  5.00000000e-01                                 
 9.30922733e-07  7.10615050e-01  9.30922733e-07  6.43262364e-01  9.30922733e-07  4.87955872e-01  9.30922733e-07  1.80000000e+00  9.30922733e-07  4.77954586e-06  9.30922733e-07  5.00000000e-01                                 
 9.76398160e-07  7.19426671e-01  9.76398160e-07  6.50999001e-01  9.76398160e-07  5.03856284e-01  9.76398160e-07  1.80000000e+00  9.76398160e-07  5.10186627e-06  9.76398160e-07  5.00000000e-01                                 
 1.04498884e-06  7.28250524e-01  1.04498884e-06  6.58582631e-01  1.04498884e-06  5.07583625e-01  1.04498884e-06  1.80000000e+00  1.04498884e-06  4.67676389e-06  1.04498884e-06  5.00000000e-01                                 
 1.10673042e-06  7.20338804e-01  1.10673042e-06  6.51819088e-01  1.10673042e-06  4.90233475e-01  1.10673042e-06  1.80000000e+00  1.10673042e-06  4.69430745e-06  1.10673042e-06  5.00000000e-01                                 
 1.19594555e-06  7.19273646e-01  1.19594555e-06  6.50875006e-01  1.19594555e-06  5.04060972e-01  1.19594555e-06  1.80000000e+00  1.19594555e-06  4.86055707e-06  1.19594555e-06  5.00000000e-01                                 
 1.29187151e-06  7.25702225e-01  1.29187151e-06  6.56419344e-01  1.29187151e-06  5.04080017e-01  1.29187151e-06  1.80000000e+00  1.29187151e-06  4.81849342e-06  1.29187151e-06  5.00000000e-01                                 
 1.41106824e-06  7.19581352e-01  1.41106824e-06  6.51155200e-01  1.41106824e-06  4.92206177e-01  1.41106824e-06  1.80000000e+00  1.41106824e-06  4.67527083e-06  1.41106824e-06  5.00000000e-01                                 
 1.57720819e-06  7.22758848e-01  1.57720819e-06  6.53892400e-01  1.57720819e-06  5.08617555e-01  1.57720819e-06  1.80000000e+00  1.57720819e-06  4.92795431e-06  1.57720819e-06  5.00000000e-01                                 
 1.75159815e-06  7.22714822e-01  1.75159815e-06  6.53864914e-01  1.75159815e-06  4.93489185e-01  1.75159815e-06  1.80000000e+00  1.75159815e-06  4.64608895e-06  1.75159815e-06  5.00000000e-01                                 
 1.98220241e-06  7.20551352e-01  1.98220241e-06  6.51988277e-01  1.98220241e-06  5.04861704e-01  1.98220241e-06  1.80000000e+00  1.98220241e-06  4.91264326e-06  1.98220241e-06  5.00000000e-01                                 
 2.21898055e-06  7.23897277e-01  2.21898055e-06  6.54877491e-01  2.21898055e-06  4.98155521e-01  2.21898055e-06  1.80000000e+00  2.21898055e-06  4.68358479e-06  2.21898055e-06  5.00000000e-01                                 
 2.51859423e-06  7.19990412e-01  2.51859423e-06  6.51505087e-01  2.51859423e-06  5.00249353e-01  2.51859423e-06  1.80000000e+00  2.51859423e-06  4.86969579e-06  2.51859423e-06  5.00000000e-01                                 
 2.90342144e-06  7.23928361e-01  2.90342144e-06  6.54901726e-01  2.90342144e-06  5.01729183e-01  2.90342144e-06  1.80000000e+00  2.90342144e-06  4.72019285e-06  2.90342144e-06  5.00000000e-01                                 
 3.43414555e-06  7.20166519e-01  3.43414555e-06  6.51659676e-01  3.43414555e-06  4.97714901e-01  3.43414555e-06  1.80000000e+00  3.43414555e-06  4.84253495e-06  3.43414555e-06  5.00000000e-01                                 
 4.11309974e-06  7.23707713e-01  4.11309974e-06  6.54711335e-01  4.11309974e-06  5.03460043e-01  4.11309974e-06  1.80000000e+00  4.11309974e-06  4.73944263e-06  4.11309974e-06  5.00000000e-01                                 
 5.04673150e-06  7.20397085e-01  5.04673150e-06  6.51860428e-01  5.04673150e-06  4.96513474e-01  5.04673150e-06  1.80000000e+00  5.04673150e-06  4.82884922e-06  5.04673150e-06  5.00000000e-01                                 
 6.04673150e-06  7.23506715e-01  6.04673150e-06  6.54538256e-01  6.04673150e-06  5.04345915e-01  6.04673150e-06  1.80000000e+00  6.04673150e-06  4.74982431e-06  6.04673150e-06  5.00000000e-01                                 
 7.04673150e-06  7.20625597e-01  7.04673150e-06  6.52058958e-01  7.04673150e-06  4.95732075e-01  7.04673150e-06  1.80000000e+00  7.04673150e-06  4.81951564e-06  7.04673150e-06  5.00000000e-01                                 
 8.04673150e-06  7.23277614e-01  8.04673150e-06  6.54341053e-01  8.04673150e-06  5.05041616e-01  8.04673150e-06  1.80000000e+00  8.04673150e-06  4.75843470e-06  8.04673150e-06  5.00000000e-01                                 
 9.04673150e-06  7.20883045e-01  9.04673150e-06  6.52282275e-01  9.04673150e-06  4.95117842e-01  9.04673150e-06  1.80000000e+00  9.04673150e-06  4.81167230e-06  9.04673150e-06  5.00000000e-01                                 
 1.00005000e-05  7.23017841e-01  1.00005000e-05  6.54117444e-01  1.00005000e-05  5.05575825e-01  1.00005000e-05  1.80000000e+00  1.00005000e-05  4.76562492e-06  1.00005000e-05  5.00000000e-01                                 
 1.00005500e-05  7.23021480e-01  1.00005500e-05  6.54121014e-01  1.00005500e-05  4.98041968e-01  1.00005500e-05  1.62000000e+00  1.00005500e-05 -8.73808784e-05  1.00005500e-05  5.00000000e-01                                 
 1.00006500e-05  7.23029655e-01  1.00006500e-05  6.54128109e-01  1.00006500e-05  4.84389353e-01  1.00006500e-05  1.26000000e+00  1.00006500e-05 -7.22804247e-05  1.00006500e-05  5.00000000e-01                                 
 1.00008500e-05  7.23044943e-01  1.00008500e-05  6.54140944e-01  1.00008500e-05  4.82427940e-01  1.00008500e-05  5.40000000e-01  1.00008500e-05  2.12368634e-02  1.00008500e-05  5.00000000e-01                                 
 1.00010000e-05  7.23054765e-01  1.00010000e-05  6.54149467e-01  1.00010000e-05  4.51392544e-01  1.00010000e-05  0.00000000e+00  1.00010000e-05  1.59910645e+00  1.00010000e-05  5.00000000e-01                                 
 1.00010250e-05  7.23056342e-01  1.00010250e-05  6.54150794e-01  1.00010250e-05  4.32187805e-01  1.00010250e-05  0.00000000e+00  1.00010250e-05  1.73196932e+00  1.00010250e-05  5.00000000e-01                                 
 1.00010751e-05  7.23059441e-01  1.00010751e-05  6.54153428e-01  1.00010751e-05  4.00023906e-01  1.00010751e-05  0.00000000e+00  1.00010751e-05  1.81877683e+00  1.00010751e-05  5.00000000e-01                                 
 1.00011752e-05  7.23065424e-01  1.00011752e-05  6.54158551e-01  1.00011752e-05  3.73107675e-01  1.00011752e-05  0.00000000e+00  1.00011752e-05  1.78660935e+00  1.00011752e-05  5.00000000e-01                                 
 1.00013233e-05  7.23073708e-01  1.00013233e-05  6.54165695e-01  1.00013233e-05  3.71166821e-01  1.00013233e-05  0.00000000e+00  1.00013233e-05  1.80929742e+00  1.00013233e-05  5.00000000e-01                                 
 1.00015091e-05  7.23083213e-01  1.00015091e-05  6.54173935e-01  1.00015091e-05  3.70111488e-01  1.00015091e-05  0.00000000e+00  1.00015091e-05  1.79273233e+00  1.00015091e-05  5.00000000e-01                                 
 1.00017056e-05  7.23092431e-01  1.00017056e-05  6.54181937e-01  1.00017056e-05  3.69375600e-01  1.00017056e-05  0.00000000e+00  1.00017056e-05  1.80564517e+00  1.00017056e-05  5.00000000e-01                                 
 1.00020985e-05  7.23109038e-01  1.00020985e-05  6.54196386e-01  1.00020985e-05  3.68068110e-01  1.00020985e-05  0.00000000e+00  1.00020985e-05  1.79497286e+00  1.00020985e-05  5.00000000e-01                                 
 1.00028843e-05  7.23137961e-01  1.00028843e-05  6.54221526e-01  1.00028843e-05  3.67107599e-01  1.00028843e-05  0.00000000e+00  1.00028843e-05  1.80470515e+00  1.00028843e-05  5.00000000e-01                                 
