 time            v(vbep)         time            v(vben)         time            v(vout)         time            v(vphi1)        time            v(vphi2)        time            v(vref)         time            v(voutc)        time            v(voutcc)       yes             currtemp       
 0.00000000e+00  7.52540313e-01  0.00000000e+00  6.91251345e-01  0.00000000e+00  1.56451730e+00  0.00000000e+00  0.00000000e+00  0.00000000e+00  1.80000000e+00  0.00000000e+00  6.93156598e-01  0.00000000e+00  1.56451729e+00  0.00000000e+00  1.57128848e+00  1.00000000e+00  4.10000000e+01 
 1.00000000e-11  7.52565404e-01  1.00000000e-11  6.91322738e-01  1.00000000e-11  1.56529564e+00  1.00000000e-11  1.80000000e-02  1.00000000e-11  1.80025179e+00  1.00000000e-11  6.93688759e-01  1.00000000e-11  1.56498796e+00  1.00000000e-11  1.57130070e+00                                 
 2.00000000e-11  7.52572274e-01  2.00000000e-11  6.91367426e-01  2.00000000e-11  1.56577332e+00  2.00000000e-11  3.60000000e-02  2.00000000e-11  1.80035163e+00  2.00000000e-11  6.94083781e-01  2.00000000e-11  1.56534405e+00  2.00000000e-11  1.57130495e+00                                 
 4.00000000e-11  7.52572247e-01  4.00000000e-11  6.91426291e-01  4.00000000e-11  1.56634800e+00  4.00000000e-11  7.20000000e-02  4.00000000e-11  1.80038993e+00  4.00000000e-11  6.94661523e-01  4.00000000e-11  1.56587497e+00  4.00000000e-11  1.57130558e+00                                 
 8.00000000e-11  7.52560452e-01  8.00000000e-11  6.91464164e-01  8.00000000e-11  1.56646528e+00  8.00000000e-11  1.44000000e-01  8.00000000e-11  1.80018612e+00  8.00000000e-11  6.95109179e-01  8.00000000e-11  1.56630811e+00  8.00000000e-11  1.57129474e+00                                 
 1.60000000e-10  7.52557605e-01  1.60000000e-10  6.91474887e-01  1.60000000e-10  1.56613171e+00  1.60000000e-10  2.88000000e-01  1.60000000e-10  1.80000430e+00  1.60000000e-10  6.95183364e-01  1.60000000e-10  1.56635958e+00  1.60000000e-10  1.57128519e+00                                 
 3.20000000e-10  7.52553658e-01  3.20000000e-10  6.91472398e-01  3.20000000e-10  1.56576149e+00  3.20000000e-10  5.76000000e-01  3.20000000e-10  1.79998923e+00  3.20000000e-10  6.95040959e-01  3.20000000e-10  1.56605660e+00  3.20000000e-10  1.57128089e+00                                 
 6.40000000e-10  7.52470674e-01  6.40000000e-10  6.91095061e-01  6.40000000e-10  1.56354453e+00  6.40000000e-10  1.15200000e+00  6.40000000e-10  1.81142936e+00  6.40000000e-10  6.92836156e-01  6.40000000e-10  1.57069934e+00  6.40000000e-10  1.57130911e+00                                 
 1.00000000e-09  7.53104537e-01  1.00000000e-09  6.91360375e-01  1.00000000e-09  1.53896605e+00  1.00000000e-09  1.80000000e+00  1.00000000e-09  9.38734271e-02  1.00000000e-09  7.04293035e-01  1.00000000e-09  1.57114495e+00  1.00000000e-09  1.57127365e+00                                 
 1.03653987e-09  7.53146515e-01  1.03653987e-09  6.91394549e-01  1.03653987e-09  1.53794603e+00  1.03653987e-09  1.80000000e+00  1.03653987e-09  2.11015185e-02  1.03653987e-09  7.07263550e-01  1.03653987e-09  1.57277103e+00  1.03653987e-09  1.57131074e+00                                 
 1.10961960e-09  7.53258682e-01  1.10961960e-09  6.91460739e-01  1.10961960e-09  1.53705097e+00  1.10961960e-09  1.80000000e+00  1.10961960e-09 -1.00854527e-02  1.10961960e-09  7.11105733e-01  1.10961960e-09  1.57576114e+00  1.10961960e-09  1.57133652e+00                                 
 1.25577906e-09  7.53370462e-01  1.25577906e-09  6.91330987e-01  1.25577906e-09  1.53496762e+00  1.25577906e-09  1.80000000e+00  1.25577906e-09  8.40136419e-03  1.25577906e-09  7.11328759e-01  1.25577906e-09  1.57620859e+00  1.25577906e-09  1.57128948e+00                                 
 1.46309123e-09  7.53354941e-01  1.46309123e-09  6.91306812e-01  1.46309123e-09  1.53420100e+00  1.46309123e-09  1.80000000e+00  1.46309123e-09 -6.51050069e-03  1.46309123e-09  7.10725210e-01  1.46309123e-09  1.57548674e+00  1.46309123e-09  1.57132195e+00                                 
 1.68844247e-09  7.53263012e-01  1.68844247e-09  6.91301738e-01  1.68844247e-09  1.53405806e+00  1.68844247e-09  1.80000000e+00  1.68844247e-09  5.58854931e-03  1.68844247e-09  7.09371261e-01  1.68844247e-09  1.57451298e+00  1.68844247e-09  1.57133098e+00                                 
 2.06648995e-09  7.53009533e-01  2.06648995e-09  6.91255146e-01  2.06648995e-09  1.53417597e+00  2.06648995e-09  1.80000000e+00  2.06648995e-09 -5.06409406e-03  2.06648995e-09  7.07110353e-01  2.06648995e-09  1.57242525e+00  2.06648995e-09  1.57141870e+00                                 
 2.47405056e-09  7.52800316e-01  2.47405056e-09  6.91259864e-01  2.47405056e-09  1.53454590e+00  2.47405056e-09  1.80000000e+00  2.47405056e-09  4.51733377e-03  2.47405056e-09  7.05071172e-01  2.47405056e-09  1.57082801e+00  2.47405056e-09  1.57150134e+00                                 
 3.12891933e-09  7.52575019e-01  3.12891933e-09  6.91216161e-01  3.12891933e-09  1.53406607e+00  3.12891933e-09  1.80000000e+00  3.12891933e-09 -4.35135948e-03  3.12891933e-09  7.01800320e-01  3.12891933e-09  1.56790093e+00  3.12891933e-09  1.57165283e+00                                 
 4.08701644e-09  7.52447687e-01  4.08701644e-09  6.91233975e-01  4.08701644e-09  1.53332748e+00  4.08701644e-09  1.80000000e+00  4.08701644e-09  4.09698564e-03  4.08701644e-09  6.98447305e-01  4.08701644e-09  1.56516840e+00  4.08701644e-09  1.57180589e+00                                 
 6.00321065e-09  7.52345003e-01  6.00321065e-09  6.91213850e-01  6.00321065e-09  1.53089350e+00  6.00321065e-09  1.80000000e+00  6.00321065e-09 -4.06708555e-03  6.00321065e-09  6.93901269e-01  6.00321065e-09  1.56117123e+00  6.00321065e-09  1.57190900e+00                                 
 7.58978563e-09  7.52362085e-01  7.58978563e-09  6.91250461e-01  7.58978563e-09  1.52835098e+00  7.58978563e-09  1.80000000e+00  7.58978563e-09  3.94790936e-03  7.58978563e-09  6.92458765e-01  7.58978563e-09  1.56006685e+00  7.58978563e-09  1.57179685e+00                                 
 9.05481593e-09  7.52384574e-01  9.05481593e-09  6.91228674e-01  9.05481593e-09  1.52425065e+00  9.05481593e-09  1.80000000e+00  9.05481593e-09 -3.85907495e-03  9.05481593e-09  6.91525836e-01  9.05481593e-09  1.55915165e+00  9.05481593e-09  1.57161292e+00                                 
 1.06414174e-08  7.52434422e-01  1.06414174e-08  6.91259693e-01  1.06414174e-08  1.51906611e+00  1.06414174e-08  1.80000000e+00  1.06414174e-08  3.76243165e-03  1.06414174e-08  6.91424008e-01  1.06414174e-08  1.55917720e+00  1.06414174e-08  1.57136214e+00                                 
 1.28451166e-08  7.52474955e-01  1.28451166e-08  6.91235147e-01  1.28451166e-08  1.50966910e+00  1.28451166e-08  1.80000000e+00  1.28451166e-08 -3.70083590e-03  1.28451166e-08  6.91127073e-01  1.28451166e-08  1.55879856e+00  1.28451166e-08  1.57100342e+00                                 
 1.55321329e-08  7.52523336e-01  1.55321329e-08  6.91264170e-01  1.55321329e-08  1.49718733e+00  1.55321329e-08  1.80000000e+00  1.55321329e-08  3.64967563e-03  1.55321329e-08  6.91503167e-01  1.55321329e-08  1.55921570e+00  1.55321329e-08  1.57057617e+00                                 
 1.92095249e-08  7.52539924e-01  1.92095249e-08  6.91237854e-01  1.92095249e-08  1.47814984e+00  1.92095249e-08  1.80000000e+00  1.92095249e-08 -3.61111832e-03  1.92095249e-08  6.91573633e-01  1.92095249e-08  1.55914194e+00  1.92095249e-08  1.57006286e+00                                 
 2.41477283e-08  7.52556283e-01  2.41477283e-08  6.91265564e-01  2.41477283e-08  1.45222345e+00  2.41477283e-08  1.80000000e+00  2.41477283e-08  3.58563600e-03  2.41477283e-08  6.92167317e-01  2.41477283e-08  1.55973465e+00  2.41477283e-08  1.56949083e+00                                 
 3.23018431e-08  7.52545385e-01  3.23018431e-08  6.91238182e-01  3.23018431e-08  1.40820899e+00  3.23018431e-08  1.80000000e+00  3.23018431e-08 -3.56733013e-03  3.23018431e-08  6.92365565e-01  3.23018431e-08  1.55976665e+00  3.23018431e-08  1.56879856e+00                                 
 4.59782055e-08  7.52548487e-01  4.59782055e-08  6.91265207e-01  4.59782055e-08  1.33489316e+00  4.59782055e-08  1.80000000e+00  4.59782055e-08  3.55923324e-03  4.59782055e-08  6.92984675e-01  4.59782055e-08  1.56038171e+00  4.59782055e-08  1.56808662e+00                                 
 7.33309303e-08  7.52536756e-01  7.33309303e-08  6.91237694e-01  7.33309303e-08  1.18815821e+00  7.33309303e-08  1.80000000e+00  7.33309303e-08 -3.55266152e-03  7.33309303e-08  6.93011041e-01  7.33309303e-08  1.56028017e+00  7.33309303e-08  1.56748410e+00                                 
 1.10002844e-07  7.52544431e-01  1.10002844e-07  6.91264987e-01  1.10002844e-07  9.94409956e-01  1.10002844e-07  1.80000000e+00  1.10002844e-07  3.55126548e-03  1.10002844e-07  6.93272403e-01  1.10002844e-07  1.56060895e+00  1.10002844e-07  1.56728716e+00                                 
 1.65417383e-07  7.52536213e-01  1.65417383e-07  6.91237664e-01  1.65417383e-07  7.59141286e-01  1.65417383e-07  1.80000000e+00  1.65417383e-07 -3.54334487e-03  1.65417383e-07  6.93038464e-01  1.65417383e-07  1.56029647e+00  1.65417383e-07  1.56723423e+00                                 
 2.14453677e-07  7.52545819e-01  2.14453677e-07  6.91265139e-01  2.14453677e-07  6.87731759e-01  2.14453677e-07  1.80000000e+00  2.14453677e-07  3.55182314e-03  2.14453677e-07  6.93277447e-01  2.14453677e-07  1.56060777e+00  2.14453677e-07  1.56722856e+00                                 
 2.60288043e-07  7.52532795e-01  2.60288043e-07  6.91237436e-01  2.60288043e-07  6.96364117e-01  2.60288043e-07  1.80000000e+00  2.60288043e-07 -3.53592318e-03  2.60288043e-07  6.93038863e-01  2.60288043e-07  1.56029338e+00  2.60288043e-07  1.56722898e+00                                 
 2.84443568e-07  7.52548376e-01  2.84443568e-07  6.91265258e-01  2.84443568e-07  6.95374407e-01  2.84443568e-07  1.80000000e+00  2.84443568e-07  3.54352431e-03  2.84443568e-07  6.93273014e-01  2.84443568e-07  1.56060138e+00  2.84443568e-07  1.56722510e+00                                 
 3.15062782e-07  7.52532618e-01  3.15062782e-07  6.91237441e-01  3.15062782e-07  6.94987720e-01  3.15062782e-07  1.80000000e+00  3.15062782e-07 -3.52650125e-03  3.15062782e-07  6.93039948e-01  3.15062782e-07  1.56029245e+00  3.15062782e-07  1.56722554e+00                                 
 3.60084323e-07  7.52547759e-01  3.60084323e-07  6.91265231e-01  3.60084323e-07  6.95229514e-01  3.60084323e-07  1.80000000e+00  3.60084323e-07  3.53653287e-03  3.60084323e-07  6.93273266e-01  3.60084323e-07  1.56059881e+00  3.60084323e-07  1.56722213e+00                                 
 4.20420657e-07  7.52533056e-01  4.20420657e-07  6.91237453e-01  4.20420657e-07  6.94968459e-01  4.20420657e-07  1.80000000e+00  4.20420657e-07 -3.52158851e-03  4.20420657e-07  6.93039852e-01  4.20420657e-07  1.56028872e+00  4.20420657e-07  1.56722172e+00                                 
 5.41093324e-07  7.52547474e-01  5.41093324e-07  6.91265225e-01  5.41093324e-07  6.95237044e-01  5.41093324e-07  1.80000000e+00  5.41093324e-07  3.53336186e-03  5.41093324e-07  6.93273317e-01  5.41093324e-07  1.56059239e+00  5.41093324e-07  1.56721573e+00                                 
 7.19554116e-07  7.52533215e-01  7.19554116e-07  6.91237456e-01  7.19554116e-07  6.94965013e-01  7.19554116e-07  1.80000000e+00  7.19554116e-07 -3.51982734e-03  7.19554116e-07  6.93039825e-01  7.19554116e-07  1.56027813e+00  7.19554116e-07  1.56721114e+00                                 
 1.05225112e-06  7.52547375e-01  1.05225112e-06  6.91265223e-01  1.05225112e-06  6.95238779e-01  1.05225112e-06  1.80000000e+00  1.05225112e-06  3.53226459e-03  1.05225112e-06  6.93273333e-01  1.05225112e-06  1.56057431e+00  1.05225112e-06  1.56719768e+00                                 
 1.63371788e-06  7.52533270e-01  1.63371788e-06  6.91237457e-01  1.63371788e-06  6.94964081e-01  1.63371788e-06  1.80000000e+00  1.63371788e-06 -3.51922280e-03  1.63371788e-06  6.93039817e-01  1.63371788e-06  1.56024581e+00  1.63371788e-06  1.56717885e+00                                 
 2.64139212e-06  7.52547345e-01  2.64139212e-06  6.91265223e-01  2.64139212e-06  6.95239252e-01  2.64139212e-06  1.80000000e+00  2.64139212e-06  3.53191910e-03  2.64139212e-06  6.93273337e-01  2.64139212e-06  1.56051808e+00  2.64139212e-06  1.56714153e+00                                 
 3.84139212e-06  7.52533290e-01  3.84139212e-06  6.91237457e-01  3.84139212e-06  6.94963748e-01  3.84139212e-06  1.80000000e+00  3.84139212e-06 -3.51900274e-03  3.84139212e-06  6.93039814e-01  3.84139212e-06  1.56016767e+00  3.84139212e-06  1.56710083e+00                                 
 5.04139212e-06  7.52547326e-01  5.04139212e-06  6.91265222e-01  5.04139212e-06  6.95239526e-01  5.04139212e-06  1.80000000e+00  5.04139212e-06  3.53170738e-03  5.04139212e-06  6.93273340e-01  5.04139212e-06  1.56043316e+00  5.04139212e-06  1.56705672e+00                                 
 6.00100000e-06  7.52533312e-01  6.00100000e-06  6.91237458e-01  6.00100000e-06  6.94963422e-01  6.00100000e-06  1.80000000e+00  6.00100000e-06 -3.51876927e-03  6.00100000e-06  6.93039811e-01  6.00100000e-06  1.56009128e+00  6.00100000e-06  1.56702455e+00                                 
 6.00110000e-06  7.52492870e-01  6.00110000e-06  6.91011000e-01  6.00110000e-06  6.93235346e-01  6.00110000e-06  1.62000000e+00  6.00110000e-06 -3.87463583e-04  6.00110000e-06  6.91551045e-01  6.00110000e-06  1.55887061e+00  6.00110000e-06  1.56701374e+00                                 
 6.00130000e-06  7.52526703e-01  6.00130000e-06  6.91016763e-01  6.00130000e-06  6.93487834e-01  6.00130000e-06  1.26000000e+00  6.00130000e-06  2.56862533e-04  6.00130000e-06  6.91431256e-01  6.00130000e-06  1.55877850e+00  6.00130000e-06  1.56702831e+00                                 
 6.00165919e-06  7.52582239e-01  6.00165919e-06  6.91230824e-01  6.00165919e-06  6.95545258e-01  6.00165919e-06  6.13459313e-01  6.00165919e-06 -2.02818658e-03  6.00165919e-06  6.92094568e-01  6.00165919e-06  1.55659527e+00  6.00165919e-06  1.56700996e+00                                 
 6.00200000e-06  7.52529843e-01  6.00200000e-06  6.89556377e-01  6.00200000e-06  7.28326969e-01  6.00200000e-06  0.00000000e+00  6.00200000e-06  1.59545181e+00  6.00200000e-06  6.74186147e-01  6.00200000e-06  1.36770195e+00  6.00200000e-06  1.56640555e+00                                 
 6.00204105e-06  7.52543438e-01  6.00204105e-06  6.89222524e-01  6.00204105e-06  7.34056706e-01  6.00204105e-06  0.00000000e+00  6.00204105e-06  1.72037526e+00  6.00204105e-06  6.70479537e-01  6.00204105e-06  1.30996812e+00  6.00204105e-06  1.56643340e+00                                 
 6.00212314e-06  7.52541973e-01  6.00212314e-06  6.88561114e-01  6.00212314e-06  7.37886615e-01  6.00212314e-06  0.00000000e+00  6.00212314e-06  1.81378018e+00  6.00212314e-06  6.63414374e-01  6.00212314e-06  1.18941482e+00  6.00212314e-06  1.56679144e+00                                 
 6.00226699e-06  7.52538049e-01  6.00226699e-06  6.88456330e-01  6.00226699e-06  7.28863633e-01  6.00226699e-06  0.00000000e+00  6.00226699e-06  1.79008971e+00  6.00226699e-06  6.63224263e-01  6.00226699e-06  1.01837043e+00  6.00226699e-06  1.56724394e+00                                 
 6.00241308e-06  7.52540638e-01  6.00241308e-06  6.88799123e-01  6.00241308e-06  7.24400734e-01  6.00241308e-06  0.00000000e+00  6.00241308e-06  1.80332765e+00  6.00241308e-06  6.67406915e-01  6.00241308e-06  8.98762814e-01  6.00241308e-06  1.56722053e+00                                 
 6.00260225e-06  7.52536936e-01  6.00260225e-06  6.89419205e-01  6.00260225e-06  7.15521835e-01  6.00260225e-06  0.00000000e+00  6.00260225e-06  1.79677766e+00  6.00260225e-06  6.73568993e-01  6.00260225e-06  7.90179249e-01  6.00260225e-06  1.56738722e+00                                 
 6.00282192e-06  7.52540374e-01  6.00282192e-06  6.90466556e-01  6.00282192e-06  7.04361652e-01  6.00282192e-06  0.00000000e+00  6.00282192e-06  1.80146164e+00  6.00282192e-06  6.83789024e-01  6.00282192e-06  7.30659409e-01  6.00282192e-06  1.56736962e+00                                 
 6.00303370e-06  7.52537380e-01  6.00303370e-06  6.91057450e-01  6.00303370e-06  6.99570880e-01  6.00303370e-06  0.00000000e+00  6.00303370e-06  1.79905818e+00  6.00303370e-06  6.88497523e-01  6.00303370e-06  7.08119112e-01  6.00303370e-06  1.56721470e+00                                 
 6.00333592e-06  7.52540620e-01  6.00333592e-06  6.91582948e-01  6.00333592e-06  6.96133053e-01  6.00333592e-06  0.00000000e+00  6.00333592e-06  1.80071678e+00  6.00333592e-06  6.92594005e-01  6.00333592e-06  6.98768424e-01  6.00333592e-06  1.56652503e+00                                 
 6.00360878e-06  7.52538200e-01  6.00360878e-06  6.91701772e-01  6.00360878e-06  6.96253650e-01  6.00360878e-06  0.00000000e+00  6.00360878e-06  1.79955929e+00  6.00360878e-06  6.93200348e-01  6.00360878e-06  6.96345540e-01  6.00360878e-06  1.56569081e+00                                 
 6.00408755e-06  7.52540992e-01  6.00408755e-06  6.91793532e-01  6.00408755e-06  6.96291163e-01  6.00408755e-06  0.00000000e+00  6.00408755e-06  1.80037770e+00  6.00408755e-06  6.94231695e-01  6.00408755e-06  6.96551569e-01  6.00408755e-06  1.56387277e+00                                 
 6.00472438e-06  7.52538887e-01  6.00472438e-06  6.91724124e-01  6.00472438e-06  6.98120509e-01  6.00472438e-06  0.00000000e+00  6.00472438e-06  1.79970762e+00  6.00472438e-06  6.94116106e-01  6.00472438e-06  6.97460866e-01  6.00472438e-06  1.56119980e+00                                 
 6.00599804e-06  7.52541329e-01  6.00599804e-06  6.91648092e-01  6.00599804e-06  7.00792464e-01  6.00599804e-06  0.00000000e+00  6.00599804e-06  1.80028861e+00  6.00599804e-06  6.94584661e-01  6.00599804e-06  7.00856975e-01  6.00599804e-06  1.55536919e+00                                 
 6.00844716e-06  7.52539190e-01  6.00844716e-06  6.91453229e-01  6.00844716e-06  7.07588211e-01  6.00844716e-06  0.00000000e+00  6.00844716e-06  1.79974688e+00  6.00844716e-06  6.94262245e-01  6.00844716e-06  7.06843845e-01  6.00844716e-06  1.54357950e+00                                 
 6.01334541e-06  7.52541412e-01  6.01334541e-06  6.91285288e-01  6.01334541e-06  7.19913098e-01  6.01334541e-06  0.00000000e+00  6.01334541e-06  1.80026821e+00  6.01334541e-06  6.94290451e-01  6.01334541e-06  7.19943630e-01  6.01334541e-06  1.51957036e+00                                 
 6.02314189e-06  7.52539222e-01  6.02314189e-06  6.91208185e-01  6.02314189e-06  7.44951063e-01  6.02314189e-06  0.00000000e+00  6.02314189e-06  1.79975566e+00  6.02314189e-06  6.93566517e-01  6.02314189e-06  7.44108479e-01  6.02314189e-06  1.47338383e+00                                 
 6.04273486e-06  7.52541402e-01  6.04273486e-06  6.91265546e-01  6.04273486e-06  7.90257001e-01  6.04273486e-06  0.00000000e+00  6.04273486e-06  1.80026221e+00  6.04273486e-06  6.93436930e-01  6.04273486e-06  7.90363525e-01  6.04273486e-06  1.38911659e+00                                 
 6.08192080e-06  7.52539225e-01  6.08192080e-06  6.91234206e-01  6.08192080e-06  8.69497245e-01  6.08192080e-06  0.00000000e+00  6.08192080e-06  1.79975489e+00  6.08192080e-06  6.92989145e-01  6.08192080e-06  8.67838636e-01  6.08192080e-06  1.24399598e+00                                 
 6.15446504e-06  7.52541400e-01  6.15446504e-06  6.91268181e-01  6.15446504e-06  9.78334675e-01  6.15446504e-06  0.00000000e+00  6.15446504e-06  1.80025618e+00  6.15446504e-06  6.93298348e-01  6.15446504e-06  9.79390987e-01  6.15446504e-06  1.05409934e+00                                 
 6.27035864e-06  7.52539226e-01  6.27035864e-06  6.91234781e-01  6.27035864e-06  1.08422639e+00  6.27035864e-06  0.00000000e+00  6.27035864e-06  1.79974980e+00  6.27035864e-06  6.93002851e-01  6.27035864e-06  1.08192262e+00  6.27035864e-06  1.03659346e+00                                 
