 time            v(vbep)         time            v(vben)         time            v(vout)         time            v(vphi1)        time            v(vphi2)        time            v(vref)         yes             currtemp       
 0.00000000e+00  5.59555478e-01  0.00000000e+00  4.94665215e-01  0.00000000e+00  2.77175241e-01  0.00000000e+00  0.00000000e+00  0.00000000e+00  1.79997135e+00  0.00000000e+00  4.94665215e-01  1.00000000e+00  8.30000000e+01 
 5.00000000e-12  5.59538988e-01  5.00000000e-12  4.94651511e-01  5.00000000e-12  2.77702307e-01  5.00000000e-12  1.80000000e-02  5.00000000e-12  1.80007970e+00  5.00000000e-12  4.94651511e-01                                 
 1.00000000e-11  5.59522695e-01  1.00000000e-11  4.94638081e-01  1.00000000e-11  2.78132999e-01  1.00000000e-11  3.60000000e-02  1.00000000e-11  1.80013899e+00  1.00000000e-11  4.94638081e-01                                 
 2.00000000e-11  5.59490206e-01  2.00000000e-11  4.94611291e-01  2.00000000e-11  2.78848261e-01  2.00000000e-11  7.20000000e-02  2.00000000e-11  1.80019735e+00  2.00000000e-11  4.94611291e-01                                 
 4.00000000e-11  5.59425407e-01  4.00000000e-11  4.94557839e-01  4.00000000e-11  2.79692856e-01  4.00000000e-11  1.44000000e-01  4.00000000e-11  1.80016372e+00  4.00000000e-11  4.94557839e-01                                 
 8.00000000e-11  5.59296163e-01  8.00000000e-11  4.94451185e-01  8.00000000e-11  2.80406971e-01  8.00000000e-11  2.88000000e-01  8.00000000e-11  1.80008116e+00  8.00000000e-11  4.94451185e-01                                 
 1.60000000e-10  5.59039136e-01  1.60000000e-10  4.94238875e-01  1.60000000e-10  2.81024199e-01  1.60000000e-10  5.76000000e-01  1.60000000e-10  1.80003931e+00  1.60000000e-10  4.94238875e-01                                 
 3.20000000e-10  5.58530713e-01  3.20000000e-10  4.93818148e-01  3.20000000e-10  2.83878483e-01  3.20000000e-10  1.15200000e+00  3.20000000e-10  1.80033947e+00  3.20000000e-10  4.93818148e-01                                 
 5.00000000e-10  5.57967489e-01  5.00000000e-10  4.93350877e-01  5.00000000e-10  5.19031999e-01  5.00000000e-10  1.80000000e+00  5.00000000e-10  1.91857959e-01  5.00000000e-10  4.93350877e-01                                 
 5.22693229e-10  5.57897206e-01  5.22693229e-10  4.93292471e-01  5.22693229e-10  5.75746716e-01  5.22693229e-10  1.80000000e+00  5.22693229e-10  4.79511091e-02  5.22693229e-10  4.93292471e-01                                 
 5.68079686e-10  5.57756928e-01  5.68079686e-10  4.93175858e-01  5.68079686e-10  6.80678112e-01  5.68079686e-10  1.80000000e+00  5.68079686e-10 -1.73704402e-02  5.68079686e-10  4.93175858e-01                                 
 6.58852601e-10  5.57478101e-01  6.58852601e-10  4.92943841e-01  6.58852601e-10  8.48284282e-01  6.58852601e-10  1.80000000e+00  6.58852601e-10  1.52441331e-02  6.58852601e-10  4.92943841e-01                                 
 7.76542464e-10  5.57119946e-01  7.76542464e-10  4.92645370e-01  7.76542464e-10  1.01618776e+00  7.76542464e-10  1.80000000e+00  7.76542464e-10 -1.08694256e-02  7.76542464e-10  4.92645370e-01                                 
 9.65108855e-10  5.56553726e-01  9.65108855e-10  4.92172499e-01  9.65108855e-10  1.23124751e+00  9.65108855e-10  1.80000000e+00  9.65108855e-10  1.11438544e-02  9.65108855e-10  4.92172499e-01                                 
 1.30333207e-09  5.55560689e-01  1.30333207e-09  4.91340250e-01  1.30333207e-09  1.50720200e+00  1.30333207e-09  1.80000000e+00  1.30333207e-09 -9.23839746e-03  1.30333207e-09  4.91340250e-01                                 
 1.87842467e-09  5.53934641e-01  1.87842467e-09  4.89969594e-01  1.87842467e-09  1.73171044e+00  1.87842467e-09  1.80000000e+00  1.87842467e-09  9.51508892e-03  1.87842467e-09  4.89969594e-01                                 
 2.17065907e-09  5.53137042e-01  2.17065907e-09  4.89293653e-01  2.17065907e-09  1.76879627e+00  2.17065907e-09  1.80000000e+00  2.17065907e-09 -8.52830092e-03  2.17065907e-09  4.89293653e-01                                 
 2.51273411e-09  5.52226220e-01  2.51273411e-09  4.88518958e-01  2.51273411e-09  1.78829390e+00  2.51273411e-09  1.80000000e+00  2.51273411e-09  8.13638931e-03  2.51273411e-09  4.88518958e-01                                 
 2.89451338e-09  5.51237283e-01  2.89451338e-09  4.87674491e-01  2.89451338e-09  1.79625119e+00  2.89451338e-09  1.80000000e+00  2.89451338e-09 -7.56065207e-03  2.89451338e-09  4.87674491e-01                                 
 3.56284577e-09  5.49571156e-01  3.56284577e-09  4.86244176e-01  3.56284577e-09  1.79971882e+00  3.56284577e-09  1.80000000e+00  3.56284577e-09  7.38058227e-03  3.56284577e-09  4.86244176e-01                                 
 4.30683835e-09  5.47806509e-01  4.30683835e-09  4.84719060e-01  4.30683835e-09  1.79833145e+00  4.30683835e-09  1.80000000e+00  4.30683835e-09 -7.09856726e-03  4.30683835e-09  4.84719060e-01                                 
 5.71044844e-09  5.44701058e-01  5.71044844e-09  4.82011347e-01  5.71044844e-09  1.79539818e+00  5.71044844e-09  1.80000000e+00  5.71044844e-09  7.04481368e-03  5.71044844e-09  4.82011347e-01                                 
 7.81823998e-09  5.40497518e-01  7.81823998e-09  4.78300750e-01  7.81823998e-09  1.79015391e+00  7.81823998e-09  1.80000000e+00  7.81823998e-09 -6.90695998e-03  7.81823998e-09  4.78300750e-01                                 
 9.25699598e-09  5.37897493e-01  9.25699598e-09  4.75980080e-01  9.25699598e-09  1.78725567e+00  9.25699598e-09  1.80000000e+00  9.25699598e-09  6.85314732e-03  9.25699598e-09  4.75980080e-01                                 
 1.08674686e-08  5.35199901e-01  1.08674686e-08  4.73553793e-01  1.08674686e-08  1.78355222e+00  1.08674686e-08  1.80000000e+00  1.08674686e-08 -6.70739407e-03  1.08674686e-08  4.73553793e-01                                 
 1.24552999e-08  5.32731767e-01  1.24552999e-08  4.71318107e-01  1.24552999e-08  1.78056310e+00  1.24552999e-08  1.80000000e+00  1.24552999e-08  6.65730461e-03  1.24552999e-08  4.71318107e-01                                 
 1.39727995e-08  5.30528890e-01  1.39727995e-08  4.69310486e-01  1.39727995e-08  1.77726258e+00  1.39727995e-08  1.80000000e+00  1.39727995e-08 -6.51465914e-03  1.39727995e-08  4.69310486e-01                                 
 1.55768919e-08  5.28347145e-01  1.55768919e-08  4.67311151e-01  1.55768919e-08  1.77438146e+00  1.55768919e-08  1.80000000e+00  1.55768919e-08  6.46457201e-03  1.55768919e-08  4.67311151e-01                                 
 1.74276904e-08  5.25996878e-01  1.74276904e-08  4.65145401e-01  1.74276904e-08  1.77055293e+00  1.74276904e-08  1.80000000e+00  1.74276904e-08 -6.34449438e-03  1.74276904e-08  4.65145401e-01                                 
 1.99673430e-08  5.23027586e-01  1.99673430e-08  4.62391654e-01  1.99673430e-08  1.76602593e+00  1.99673430e-08  1.80000000e+00  1.99673430e-08  6.32836852e-03  1.99673430e-08  4.62391654e-01                                 
 2.31166034e-08  5.19700494e-01  2.31166034e-08  4.59282500e-01  2.31166034e-08  1.76003945e+00  2.31166034e-08  1.80000000e+00  2.31166034e-08 -6.24241204e-03  2.31166034e-08  4.59282500e-01                                 
 2.79228500e-08  5.15238052e-01  2.79228500e-08  4.55073603e-01  2.79228500e-08  1.75197731e+00  2.79228500e-08  1.80000000e+00  2.79228500e-08  6.25355264e-03  2.79228500e-08  4.55073603e-01                                 
 3.46536653e-08  5.09936298e-01  3.46536653e-08  4.50018134e-01  3.46536653e-08  1.74073139e+00  3.46536653e-08  1.80000000e+00  3.46536653e-08 -6.19154338e-03  3.46536653e-08  4.50018134e-01                                 
 4.81152961e-08  5.01421792e-01  4.81152961e-08  4.41805365e-01  4.81152961e-08  1.72022124e+00  4.81152961e-08  1.80000000e+00  4.81152961e-08  6.22259653e-03  4.81152961e-08  4.41805365e-01                                 
 7.50385576e-08  4.89032450e-01  7.50385576e-08  4.29710790e-01  7.50385576e-08  1.68199922e+00  7.50385576e-08  1.80000000e+00  7.50385576e-08 -6.17529358e-03  7.50385576e-08  4.29710790e-01                                 
 1.15516374e-07  4.74068257e-01  1.15516374e-07  4.15404989e-01  1.15516374e-07  1.62785279e+00  1.15516374e-07  1.80000000e+00  1.15516374e-07  6.21431735e-03  1.15516374e-07  4.15404989e-01                                 
 1.58992270e-07  4.58885221e-01  1.58992270e-07  4.01475659e-01  1.58992270e-07  1.56909993e+00  1.58992270e-07  1.80000000e+00  1.58992270e-07 -6.16857085e-03  1.58992270e-07  4.01475659e-01                                 
 2.25862341e-07  4.38714458e-01  2.25862341e-07  3.83365551e-01  2.25862341e-07  1.48104596e+00  2.25862341e-07  1.80000000e+00  2.25862341e-07  6.20923574e-03  2.25862341e-07  3.83365551e-01                                 
 2.97571140e-07  4.18360680e-01  2.97571140e-07  3.65638416e-01  2.97571140e-07  1.38578952e+00  2.97571140e-07  1.80000000e+00  2.97571140e-07 -6.16451541e-03  2.97571140e-07  3.65638416e-01                                 
 4.21730102e-07  3.79346619e-01  4.21730102e-07  3.32935883e-01  4.21730102e-07  1.21756287e+00  4.21730102e-07  1.80000000e+00  4.21730102e-07  6.20612546e-03  4.21730102e-07  3.32935883e-01                                 
 6.16806701e-07  6.28778815e-01  6.16806701e-07  5.61680532e-01  6.16806701e-07  1.24801493e+00  6.16806701e-07  1.80000000e+00  6.16806701e-07 -6.15604001e-03  6.16806701e-07  5.61680532e-01                                 
 6.41021155e-07  6.57844885e-01  6.41021155e-07  5.89904026e-01  6.41021155e-07  1.25058065e+00  6.41021155e-07  1.80000000e+00  6.41021155e-07  1.01945520e-05  6.41021155e-07  5.89904026e-01                                 
 6.89450064e-07  6.96073347e-01  6.89450064e-07  6.24736957e-01  6.89450064e-07  1.23569561e+00  6.89450064e-07  1.80000000e+00  6.89450064e-07  1.10451220e-05  6.89450064e-07  6.24736957e-01                                 
 7.65368232e-07  7.18196097e-01  7.65368232e-07  6.43262724e-01  7.65368232e-07  1.17667175e+00  7.65368232e-07  1.80000000e+00  7.65368232e-07  7.74125033e-06  7.65368232e-07  6.43262724e-01                                 
 8.43629151e-07  7.12645642e-01  8.43629151e-07  6.38764459e-01  8.43629151e-07  1.09254990e+00  8.43629151e-07  1.80000000e+00  8.43629151e-07  9.38496965e-06  8.43629151e-07  6.38764459e-01                                 
 8.53528213e-07  7.09038846e-01  8.53528213e-07  6.35783686e-01  8.53528213e-07  1.07971491e+00  8.53528213e-07  1.80000000e+00  8.53528213e-07  7.90731373e-06  8.53528213e-07  6.35783686e-01                                 
 8.73326338e-07  6.99288280e-01  8.73326338e-07  6.27557367e-01  8.73326338e-07  1.05230710e+00  8.73326338e-07  1.80000000e+00  8.73326338e-07  7.33727040e-06  8.73326338e-07  6.27557367e-01                                 
 9.12922589e-07  6.89147648e-01  9.12922589e-07  6.18696507e-01  9.12922589e-07  1.00925629e+00  9.12922589e-07  1.80000000e+00  9.12922589e-07  9.12503595e-06  9.12922589e-07  6.18696507e-01                                 
 9.61880737e-07  7.00685774e-01  9.61880737e-07  6.28705529e-01  9.61880737e-07  9.82622398e-01  9.61880737e-07  1.80000000e+00  9.61880737e-07  9.80388229e-06  9.61880737e-07  6.28705529e-01                                 
 1.02563626e-06  7.06706162e-01  1.02563626e-06  6.33822302e-01  1.02563626e-06  9.43692557e-01  1.02563626e-06  1.80000000e+00  1.02563626e-06  8.54187088e-06  1.02563626e-06  6.33822302e-01                                 
 1.09228858e-06  6.97854236e-01  1.09228858e-06  6.26301531e-01  1.09228858e-06  8.92593891e-01  1.09228858e-06  1.80000000e+00  1.09228858e-06  8.81583044e-06  1.09228858e-06  6.26301531e-01                                 
 1.18361325e-06  6.99117110e-01  1.18361325e-06  6.27371429e-01  1.18361325e-06  8.37691516e-01  1.18361325e-06  1.80000000e+00  1.18361325e-06  9.28844177e-06  1.18361325e-06  6.27371429e-01                                 
 1.28101040e-06  7.04447523e-01  1.28101040e-06  6.31919160e-01  1.28101040e-06  7.85005212e-01  1.28101040e-06  1.80000000e+00  1.28101040e-06  9.06106056e-06  1.28101040e-06  6.31919160e-01                                 
 1.45576911e-06  6.97290007e-01  1.45576911e-06  6.25809692e-01  1.45576911e-06  6.86482466e-01  1.45576911e-06  1.80000000e+00  1.45576911e-06  8.96865359e-06  1.45576911e-06  6.25809692e-01                                 
 1.64176309e-06  7.03116744e-01  1.64176309e-06  6.30786473e-01  1.64176309e-06  6.34448313e-01  1.64176309e-06  1.80000000e+00  1.64176309e-06  9.63287053e-06  1.64176309e-06  6.30786473e-01                                 
 1.66908166e-06  7.02608611e-01  1.66908166e-06  6.30360504e-01  1.66908166e-06  6.30488573e-01  1.66908166e-06  1.80000000e+00  1.66908166e-06  9.27310910e-06  1.66908166e-06  6.30360504e-01                                 
 1.72371881e-06  7.00501956e-01  1.72371881e-06  6.28568592e-01  1.72371881e-06  6.22250910e-01  1.72371881e-06  1.80000000e+00  1.72371881e-06  9.19525314e-06  1.72371881e-06  6.28568592e-01                                 
 1.83299311e-06  7.00125615e-01  1.83299311e-06  6.28241101e-01  1.83299311e-06  6.19275447e-01  1.83299311e-06  1.80000000e+00  1.83299311e-06  9.50522920e-06  1.83299311e-06  6.28241101e-01                                 
 1.95989059e-06  7.01848455e-01  1.95989059e-06  6.29714858e-01  1.95989059e-06  6.30850837e-01  1.95989059e-06  1.80000000e+00  1.95989059e-06  9.35522172e-06  1.95989059e-06  6.29714858e-01                                 
 2.08985682e-06  6.99915565e-01  2.08985682e-06  6.28064318e-01  2.08985682e-06  6.28886490e-01  2.08985682e-06  1.80000000e+00  2.08985682e-06  9.30843721e-06  2.08985682e-06  6.28064318e-01                                 
 2.24384345e-06  7.01311889e-01  2.24384345e-06  6.29255522e-01  2.24384345e-06  6.28639309e-01  2.24384345e-06  1.80000000e+00  2.24384345e-06  9.45858916e-06  2.24384345e-06  6.29255522e-01                                 
 2.50567466e-06  7.00581590e-01  2.50567466e-06  6.28634982e-01  2.50567466e-06  6.29567234e-01  2.50567466e-06  1.80000000e+00  2.50567466e-06  9.26689952e-06  2.50567466e-06  6.28634982e-01                                 
 2.77419903e-06  7.00795568e-01  2.77419903e-06  6.28814767e-01  2.77419903e-06  6.28337871e-01  2.77419903e-06  1.80000000e+00  2.77419903e-06  9.46620392e-06  2.77419903e-06  6.28814767e-01                                 
 3.20854922e-06  7.00969723e-01  3.20854922e-06  6.28966342e-01  3.20854922e-06  6.29771338e-01  3.20854922e-06  1.80000000e+00  3.20854922e-06  9.27120261e-06  3.20854922e-06  6.28966342e-01                                 
 3.77538181e-06  7.00565621e-01  3.77538181e-06  6.28618527e-01  3.77538181e-06  6.28238086e-01  3.77538181e-06  1.80000000e+00  3.77538181e-06  9.45757651e-06  3.77538181e-06  6.28618527e-01                                 
 4.59400233e-06  7.01117429e-01  4.59400233e-06  6.29092185e-01  4.59400233e-06  6.29833295e-01  4.59400233e-06  1.80000000e+00  4.59400233e-06  9.27986096e-06  4.59400233e-06  6.29092185e-01                                 
 5.59400233e-06  7.00467686e-01  5.59400233e-06  6.28534993e-01  5.59400233e-06  6.28201751e-01  5.59400233e-06  1.80000000e+00  5.59400233e-06  9.44994887e-06  5.59400233e-06  6.28534993e-01                                 
 6.59400233e-06  7.01194418e-01  6.59400233e-06  6.29157691e-01  6.59400233e-06  6.29856973e-01  6.59400233e-06  1.80000000e+00  6.59400233e-06  9.28746956e-06  6.59400233e-06  6.29157691e-01                                 
 7.59400233e-06  7.00399004e-01  7.59400233e-06  6.28476460e-01  7.59400233e-06  6.28184122e-01  7.59400233e-06  1.80000000e+00  7.59400233e-06  9.44176201e-06  7.59400233e-06  6.28476460e-01                                 
 8.59400233e-06  7.01252391e-01  8.59400233e-06  6.29206946e-01  8.59400233e-06  6.29869350e-01  8.59400233e-06  1.80000000e+00  8.59400233e-06  9.29615510e-06  8.59400233e-06  6.29206946e-01                                 
 9.59400233e-06  7.00349738e-01  9.59400233e-06  6.28434535e-01  9.59400233e-06  6.28178883e-01  9.59400233e-06  1.80000000e+00  9.59400233e-06  9.43265965e-06  9.59400233e-06  6.28434535e-01                                 
 1.00005000e-05  7.01307585e-01  1.00005000e-05  6.29253657e-01  1.00005000e-05  6.29855888e-01  1.00005000e-05  1.80000000e+00  1.00005000e-05  9.31271797e-06  1.00005000e-05  6.29253657e-01                                 
 1.00005500e-05  7.01306871e-01  1.00005500e-05  6.29253056e-01  1.00005500e-05  6.23055860e-01  1.00005500e-05  1.62000000e+00  1.00005500e-05 -1.24101210e-04  1.00005500e-05  6.29253056e-01                                 
 1.00006500e-05  7.01305468e-01  1.00006500e-05  6.29251864e-01  1.00006500e-05  6.11425765e-01  1.00006500e-05  1.26000000e+00  1.00006500e-05 -9.97918903e-05  1.00006500e-05  6.29251864e-01                                 
 1.00008500e-05  7.01302706e-01  1.00008500e-05  6.29249512e-01  1.00008500e-05  6.02188362e-01  1.00008500e-05  5.40000000e-01  1.00008500e-05  2.63697394e-02  1.00008500e-05  6.29249512e-01                                 
 1.00010000e-05  7.01300605e-01  1.00010000e-05  6.29247736e-01  1.00010000e-05  5.60361978e-01  1.00010000e-05  0.00000000e+00  1.00010000e-05  1.54849886e+00  1.00010000e-05  6.29247736e-01                                 
 1.00010248e-05  7.01300246e-01  1.00010248e-05  6.29247434e-01  1.00010248e-05  5.40701618e-01  1.00010248e-05  0.00000000e+00  1.00010248e-05  1.70200139e+00  1.00010248e-05  6.29247434e-01                                 
 1.00010745e-05  7.01299559e-01  1.00010745e-05  6.29246845e-01  1.00010745e-05  5.10697250e-01  1.00010745e-05  0.00000000e+00  1.00010745e-05  1.81874037e+00  1.00010745e-05  6.29246845e-01                                 
 1.00011738e-05  7.01298233e-01  1.00011738e-05  6.29245700e-01  1.00011738e-05  4.93972280e-01  1.00011738e-05  0.00000000e+00  1.00011738e-05  1.78966236e+00  1.00011738e-05  6.29245700e-01                                 
 1.00013157e-05  7.01296283e-01  1.00013157e-05  6.29244052e-01  1.00013157e-05  4.98643107e-01  1.00013157e-05  0.00000000e+00  1.00013157e-05  1.80690925e+00  1.00013157e-05  6.29244052e-01                                 
 1.00014698e-05  7.01294126e-01  1.00014698e-05  6.29242223e-01  1.00014698e-05  4.98367078e-01  1.00014698e-05  0.00000000e+00  1.00014698e-05  1.79541126e+00  1.00014698e-05  6.29242223e-01                                 
 1.00017485e-05  7.01290164e-01  1.00017485e-05  6.29238858e-01  1.00017485e-05  4.99427057e-01  1.00017485e-05  0.00000000e+00  1.00017485e-05  1.80371664e+00  1.00017485e-05  6.29238858e-01                                 
 1.00023061e-05  7.01282115e-01  1.00023061e-05  6.29232015e-01  1.00023061e-05  4.99142896e-01  1.00023061e-05  0.00000000e+00  1.00023061e-05  1.79665764e+00  1.00023061e-05  6.29232015e-01                                 
 1.00030208e-05  7.01271649e-01  1.00030208e-05  6.29223108e-01  1.00030208e-05  4.99468921e-01  1.00030208e-05  0.00000000e+00  1.00030208e-05  1.80305884e+00  1.00030208e-05  6.29223108e-01                                 
 1.00044502e-05  7.01250138e-01  1.00044502e-05  6.29204802e-01  1.00044502e-05  4.99351466e-01  1.00044502e-05  0.00000000e+00  1.00044502e-05  1.79705823e+00  1.00044502e-05  6.29204802e-01                                 
 1.00073091e-05  7.01204036e-01  1.00073091e-05  6.29165573e-01  1.00073091e-05  5.00325933e-01  1.00073091e-05  0.00000000e+00  1.00073091e-05  1.80287132e+00  1.00073091e-05  6.29165573e-01                                 
 1.00130268e-05  7.01101373e-01  1.00130268e-05  6.29078146e-01  1.00130268e-05  5.02143092e-01  1.00130268e-05  0.00000000e+00  1.00130268e-05  1.79715085e+00  1.00130268e-05  6.29078146e-01                                 
