 time            v(vbep)         time            v(vben)         time            v(vout)         time            v(vphi1)        time            v(vphi2)        time            v(vref)         time            v(voutc)        time            v(voutcc)       yes             currtemp       
 0.00000000e+00  7.68144777e-01  0.00000000e+00  7.06723381e-01  0.00000000e+00  1.58474923e+00  0.00000000e+00  0.00000000e+00  0.00000000e+00  1.80000000e+00  0.00000000e+00  7.08973621e-01  0.00000000e+00  1.58474921e+00  0.00000000e+00  1.59138674e+00  1.00000000e+00  3.70000000e+01 
 5.00000000e-12  7.68166625e-01  5.00000000e-12  7.06777443e-01  5.00000000e-12  1.58537709e+00  5.00000000e-12  1.80000000e-02  5.00000000e-12  1.80018466e+00  5.00000000e-12  7.09366333e-01  5.00000000e-12  1.58509782e+00  5.00000000e-12  1.59139966e+00                                 
 1.00000000e-11  7.68176229e-01  1.00000000e-11  7.06813220e-01  1.00000000e-11  1.58583381e+00  1.00000000e-11  3.60000000e-02  1.00000000e-11  1.80026862e+00  1.00000000e-11  7.09675435e-01  1.00000000e-11  1.58537377e+00  1.00000000e-11  1.59140650e+00                                 
 2.00000000e-11  7.68182586e-01  2.00000000e-11  7.06863117e-01  2.00000000e-11  1.58649737e+00  2.00000000e-11  7.20000000e-02  2.00000000e-11  1.80032246e+00  2.00000000e-11  7.10159312e-01  2.00000000e-11  1.58580958e+00  2.00000000e-11  1.59141290e+00                                 
 4.00000000e-11  7.68170295e-01  4.00000000e-11  7.06899756e-01  4.00000000e-11  1.58695373e+00  4.00000000e-11  1.44000000e-01  4.00000000e-11  1.80019333e+00  4.00000000e-11  7.10624772e-01  4.00000000e-11  1.58624596e+00  4.00000000e-11  1.59140680e+00                                 
 8.00000000e-11  7.68156536e-01  8.00000000e-11  7.06905157e-01  8.00000000e-11  1.58683498e+00  8.00000000e-11  2.88000000e-01  8.00000000e-11  1.80002969e+00  8.00000000e-11  7.10754449e-01  8.00000000e-11  1.58640953e+00  8.00000000e-11  1.59139167e+00                                 
 1.60000000e-10  7.68157313e-01  1.60000000e-10  7.06893493e-01  1.60000000e-10  1.58635428e+00  1.60000000e-10  5.76000000e-01  1.60000000e-10  1.80001071e+00  1.60000000e-10  7.10552238e-01  1.60000000e-10  1.58627946e+00  1.60000000e-10  1.59138627e+00                                 
 3.20000000e-10  7.68091126e-01  3.20000000e-10  7.06450402e-01  3.20000000e-10  1.58244736e+00  3.20000000e-10  1.15200000e+00  3.20000000e-10  1.80072447e+00  3.20000000e-10  7.06711325e-01  3.20000000e-10  1.58313442e+00  3.20000000e-10  1.59135575e+00                                 
 5.00000000e-10  7.68191426e-01  5.00000000e-10  7.06902738e-01  5.00000000e-10  1.57802593e+00  5.00000000e-10  1.80000000e+00  5.00000000e-10  1.55790371e-01  5.00000000e-10  7.12476092e-01  5.00000000e-10  1.58795871e+00  5.00000000e-10  1.59144066e+00                                 
 5.20949066e-10  7.68189758e-01  5.20949066e-10  7.06942336e-01  5.20949066e-10  1.57740785e+00  5.20949066e-10  1.80000000e+00  5.20949066e-10  4.08660658e-02  5.20949066e-10  7.14013881e-01  5.20949066e-10  1.58883184e+00  5.20949066e-10  1.59143281e+00                                 
 5.62847199e-10  7.68256149e-01  5.62847199e-10  7.07017206e-01  5.62847199e-10  1.57688821e+00  5.62847199e-10  1.80000000e+00  5.62847199e-10 -1.48240515e-02  5.62847199e-10  7.16086846e-01  5.62847199e-10  1.59062922e+00  5.62847199e-10  1.59143021e+00                                 
 6.46643464e-10  7.68352249e-01  6.46643464e-10  7.06856928e-01  6.46643464e-10  1.57412791e+00  6.46643464e-10  1.80000000e+00  6.46643464e-10  1.17519421e-02  6.46643464e-10  7.15374033e-01  6.46643464e-10  1.59022046e+00  6.46643464e-10  1.59137675e+00                                 
 7.65476424e-10  7.68382958e-01  7.65476424e-10  7.06825918e-01  7.65476424e-10  1.57281598e+00  7.65476424e-10  1.80000000e+00  7.65476424e-10 -9.25966335e-03  7.65476424e-10  7.16475158e-01  7.65476424e-10  1.59101864e+00  7.65476424e-10  1.59140572e+00                                 
 9.42506132e-10  7.68436544e-01  9.42506132e-10  7.06793295e-01  9.42506132e-10  1.57197992e+00  9.42506132e-10  1.80000000e+00  9.42506132e-10  8.55056160e-03  9.42506132e-10  7.17228392e-01  9.42506132e-10  1.59182501e+00  9.42506132e-10  1.59137744e+00                                 
 1.29656555e-09  7.68425144e-01  1.29656555e-09  7.06718039e-01  1.29656555e-09  1.56984419e+00  1.29656555e-09  1.80000000e+00  1.29656555e-09 -7.76844445e-03  1.29656555e-09  7.16998213e-01  1.29656555e-09  1.59149758e+00  1.29656555e-09  1.59139852e+00                                 
 1.73899168e-09  7.68373821e-01  1.73899168e-09  7.06730621e-01  1.73899168e-09  1.56847942e+00  1.73899168e-09  1.80000000e+00  1.73899168e-09  7.50451461e-03  1.73899168e-09  7.16799729e-01  1.73899168e-09  1.59144895e+00  1.73899168e-09  1.59142998e+00                                 
 2.39808455e-09  7.68238353e-01  2.39808455e-09  7.06693055e-01  2.39808455e-09  1.56647574e+00  2.39808455e-09  1.80000000e+00  2.39808455e-09 -7.22124313e-03  2.39808455e-09  7.15454763e-01  2.39808455e-09  1.59015284e+00  2.39808455e-09  1.59152360e+00                                 
 3.00874579e-09  7.68179854e-01  3.00874579e-09  7.06723095e-01  3.00874579e-09  1.56524868e+00  3.00874579e-09  1.80000000e+00  3.00874579e-09  6.97170136e-03  3.00874579e-09  7.14970781e-01  3.00874579e-09  1.58984292e+00  3.00874579e-09  1.59161177e+00                                 
 3.96454859e-09  7.68116619e-01  3.96454859e-09  7.06691790e-01  3.96454859e-09  1.56222309e+00  3.96454859e-09  1.80000000e+00  3.96454859e-09 -6.80823982e-03  3.96454859e-09  7.13295643e-01  3.96454859e-09  1.58826517e+00  3.96454859e-09  1.59175030e+00                                 
 5.40833181e-09  7.68110036e-01  5.40833181e-09  7.06726288e-01  5.40833181e-09  1.55816980e+00  5.40833181e-09  1.80000000e+00  5.40833181e-09  6.70858109e-03  5.40833181e-09  7.12055812e-01  5.40833181e-09  1.58729091e+00  5.40833181e-09  1.59191799e+00                                 
 8.29589824e-09  7.68094394e-01  8.29589824e-09  7.06702143e-01  8.29589824e-09  1.54839423e+00  8.29589824e-09  1.80000000e+00  8.29589824e-09 -6.65112163e-03  8.29589824e-09  7.09409939e-01  8.29589824e-09  1.58487433e+00  8.29589824e-09  1.59208717e+00                                 
 1.19271833e-08  7.68109290e-01  1.19271833e-08  7.06738425e-01  1.19271833e-08  1.53599228e+00  1.19271833e-08  1.80000000e+00  1.19271833e-08  6.62517824e-03  1.19271833e-08  7.08462208e-01  1.19271833e-08  1.58415715e+00  1.19271833e-08  1.59206520e+00                                 
 1.47520492e-08  7.68106809e-01  1.47520492e-08  7.06707553e-01  1.47520492e-08  1.52482058e+00  1.47520492e-08  1.80000000e+00  1.47520492e-08 -6.55368172e-03  1.47520492e-08  7.07671918e-01  1.47520492e-08  1.58335740e+00  1.47520492e-08  1.59195130e+00                                 
 1.80257365e-08  7.68130140e-01  1.80257365e-08  7.06739268e-01  1.80257365e-08  1.51163994e+00  1.80257365e-08  1.80000000e+00  1.80257365e-08  6.53364406e-03  1.80257365e-08  7.07964881e-01  1.80257365e-08  1.58371384e+00  1.80257365e-08  1.59179537e+00                                 
 2.14992242e-08  7.68128959e-01  2.14992242e-08  7.06707797e-01  2.14992242e-08  1.49601479e+00  2.14992242e-08  1.80000000e+00  2.14992242e-08 -6.46749805e-03  2.14992242e-08  7.07618979e-01  2.14992242e-08  1.58329866e+00  2.14992242e-08  1.59163038e+00                                 
 2.66125015e-08  7.68149966e-01  2.66125015e-08  7.06739419e-01  2.66125015e-08  1.47274992e+00  2.66125015e-08  1.80000000e+00  2.66125015e-08  6.46646951e-03  2.66125015e-08  7.08226016e-01  2.66125015e-08  1.58392497e+00  2.66125015e-08  1.59142940e+00                                 
 3.24701327e-08  7.68142658e-01  3.24701327e-08  7.06707806e-01  3.24701327e-08  1.44447674e+00  3.24701327e-08  1.80000000e+00  3.24701327e-08 -6.41551253e-03  3.24701327e-08  7.08060682e-01  3.24701327e-08  1.58366801e+00  3.24701327e-08  1.59125770e+00                                 
 4.15138177e-08  7.68154835e-01  4.15138177e-08  7.06739329e-01  4.15138177e-08  1.40097926e+00  4.15138177e-08  1.80000000e+00  4.15138177e-08  6.42737275e-03  4.15138177e-08  7.08751305e-01  4.15138177e-08  1.58436984e+00  4.15138177e-08  1.59110534e+00                                 
 5.35171159e-08  7.68141730e-01  5.35171159e-08  7.06707632e-01  5.35171159e-08  1.34214563e+00  5.35171159e-08  1.80000000e+00  5.35171159e-08 -6.38848224e-03  5.35171159e-08  7.08562752e-01  5.35171159e-08  1.58409836e+00  5.35171159e-08  1.59102367e+00                                 
 7.51762686e-08  7.68151336e-01  7.51762686e-08  7.06739197e-01  7.51762686e-08  1.23710993e+00  7.51762686e-08  1.80000000e+00  7.51762686e-08  6.40933259e-03  7.51762686e-08  7.09129246e-01  7.51762686e-08  1.58469870e+00  7.51762686e-08  1.59102626e+00                                 
 1.10175960e-07  7.68139113e-01  1.10175960e-07  7.06707555e-01  1.10175960e-07  1.06796195e+00  1.10175960e-07  1.80000000e+00  1.10175960e-07 -6.37798438e-03  1.10175960e-07  7.08770075e-01  1.10175960e-07  1.58428259e+00  1.10175960e-07  1.59109394e+00                                 
 1.48202570e-07  7.68150175e-01  1.48202570e-07  7.06739169e-01  1.48202570e-07  8.89567611e-01  1.48202570e-07  1.80000000e+00  1.48202570e-07  6.40215199e-03  1.48202570e-07  7.09175404e-01  1.48202570e-07  1.58474028e+00  1.48202570e-07  1.59113619e+00                                 
 1.97807482e-07  7.68139932e-01  1.97807482e-07  7.06707579e-01  1.97807482e-07  7.34067170e-01  1.97807482e-07  1.80000000e+00  1.97807482e-07 -6.36963984e-03  1.97807482e-07  7.08769002e-01  1.97807482e-07  1.58427910e+00  1.97807482e-07  1.59114470e+00                                 
 2.38382066e-07  7.68150205e-01  2.38382066e-07  7.06739267e-01  2.38382066e-07  7.07364391e-01  2.38382066e-07  1.80000000e+00  2.38382066e-07  6.39835761e-03  2.38382066e-07  7.09182398e-01  2.38382066e-07  1.58474290e+00  2.38382066e-07  1.59114951e+00                                 
 2.77392078e-07  7.68138070e-01  2.77392078e-07  7.06707359e-01  2.77392078e-07  7.12038066e-01  2.77392078e-07  1.80000000e+00  2.77392078e-07 -6.36258594e-03  2.77392078e-07  7.08767541e-01  2.77392078e-07  1.58427496e+00  2.77392078e-07  1.59114622e+00                                 
 3.04706092e-07  7.68151632e-01  3.04706092e-07  7.06739444e-01  3.04706092e-07  7.11332559e-01  3.04706092e-07  1.80000000e+00  3.04706092e-07  6.38991170e-03  3.04706092e-07  7.09178481e-01  3.04706092e-07  1.58473689e+00  3.04706092e-07  1.59114677e+00                                 
 3.34547211e-07  7.68138114e-01  3.34547211e-07  7.06707285e-01  3.34547211e-07  7.11149874e-01  3.34547211e-07  1.80000000e+00  3.34547211e-07 -6.35315323e-03  3.34547211e-07  7.08768769e-01  3.34547211e-07  1.58427391e+00  3.34547211e-07  1.59114292e+00                                 
 3.84677918e-07  7.68151328e-01  3.84677918e-07  7.06739461e-01  3.84677918e-07  7.11396523e-01  3.84677918e-07  1.80000000e+00  3.84677918e-07  6.38267554e-03  3.84677918e-07  7.09178304e-01  3.84677918e-07  1.58473367e+00  3.84677918e-07  1.59114359e+00                                 
 4.65238493e-07  7.68138292e-01  4.65238493e-07  7.06707283e-01  4.65238493e-07  7.11134720e-01  4.65238493e-07  1.80000000e+00  4.65238493e-07 -6.34874770e-03  4.65238493e-07  7.08768827e-01  4.65238493e-07  1.58426907e+00  4.65238493e-07  1.59113788e+00                                 
 6.26359643e-07  7.68151231e-01  6.26359643e-07  7.06739461e-01  6.26359643e-07  7.11402170e-01  6.26359643e-07  1.80000000e+00  6.26359643e-07  6.38014747e-03  6.26359643e-07  7.09178275e-01  6.26359643e-07  1.58472451e+00  6.26359643e-07  1.59113449e+00                                 
 9.48601942e-07  7.68138338e-01  9.48601942e-07  7.06707283e-01  9.48601942e-07  7.11132411e-01  9.48601942e-07  1.80000000e+00  9.48601942e-07 -6.34739277e-03  9.48601942e-07  7.08768841e-01  9.48601942e-07  1.58425087e+00  9.48601942e-07  1.59111967e+00                                 
 1.59308654e-06  7.68151208e-01  1.59308654e-06  7.06739461e-01  1.59308654e-06  7.11403188e-01  1.59308654e-06  1.80000000e+00  1.59308654e-06  6.37951999e-03  1.59308654e-06  7.09178267e-01  1.59308654e-06  1.58468804e+00  1.59308654e-06  1.59109809e+00                                 
 2.59308654e-06  7.68138350e-01  2.59308654e-06  7.06707283e-01  2.59308654e-06  7.11131872e-01  2.59308654e-06  1.80000000e+00  2.59308654e-06 -6.34717716e-03  2.59308654e-06  7.08768845e-01  2.59308654e-06  1.58418887e+00  2.59308654e-06  1.59105776e+00                                 
 3.59308654e-06  7.68151199e-01  3.59308654e-06  7.06739461e-01  3.59308654e-06  7.11403594e-01  3.59308654e-06  1.80000000e+00  3.59308654e-06  6.37928674e-03  3.59308654e-06  7.09178265e-01  3.59308654e-06  1.58461264e+00  3.59308654e-06  1.59102282e+00                                 
 4.59308654e-06  7.68138360e-01  4.59308654e-06  7.06707283e-01  4.59308654e-06  7.11131472e-01  4.59308654e-06  1.80000000e+00  4.59308654e-06 -6.34699260e-03  4.59308654e-06  7.08768848e-01  4.59308654e-06  1.58411348e+00  4.59308654e-06  1.59098249e+00                                 
 5.59308654e-06  7.68151190e-01  5.59308654e-06  7.06739460e-01  5.59308654e-06  7.11403976e-01  5.59308654e-06  1.80000000e+00  5.59308654e-06  6.37901716e-03  5.59308654e-06  7.09178262e-01  5.59308654e-06  1.58453725e+00  5.59308654e-06  1.59094755e+00                                 
 6.59308654e-06  7.68138369e-01  6.59308654e-06  7.06707284e-01  6.59308654e-06  7.11131091e-01  6.59308654e-06  1.80000000e+00  6.59308654e-06 -6.34672574e-03  6.59308654e-06  7.08768851e-01  6.59308654e-06  1.58403810e+00  6.59308654e-06  1.59090722e+00                                 
 7.59308654e-06  7.68151180e-01  7.59308654e-06  7.06739460e-01  7.59308654e-06  7.11404340e-01  7.59308654e-06  1.80000000e+00  7.59308654e-06  6.37874758e-03  7.59308654e-06  7.09178260e-01  7.59308654e-06  1.58446185e+00  7.59308654e-06  1.59087227e+00                                 
 8.59308654e-06  7.68138378e-01  8.59308654e-06  7.06707284e-01  8.59308654e-06  7.11130728e-01  8.59308654e-06  1.80000000e+00  8.59308654e-06 -6.34645890e-03  8.59308654e-06  7.08768853e-01  8.59308654e-06  1.58396271e+00  8.59308654e-06  1.59083195e+00                                 
 9.59308654e-06  7.68151171e-01  9.59308654e-06  7.06739460e-01  9.59308654e-06  7.11404686e-01  9.59308654e-06  1.80000000e+00  9.59308654e-06  6.37847802e-03  9.59308654e-06  7.09178257e-01  9.59308654e-06  1.58438648e+00  9.59308654e-06  1.59079702e+00                                 
 1.00005000e-05  7.68138394e-01  1.00005000e-05  7.06707284e-01  1.00005000e-05  7.11130142e-01  1.00005000e-05  1.80000000e+00  1.00005000e-05 -6.34603327e-03  1.00005000e-05  7.08768858e-01  1.00005000e-05  1.58390969e+00  1.00005000e-05  1.59077900e+00                                 
 1.00005500e-05  7.68108256e-01  1.00005500e-05  7.06531670e-01  1.00005500e-05  7.09503628e-01  1.00005500e-05  1.62000000e+00  1.00005500e-05 -6.83242710e-04  1.00005500e-05  7.07423666e-01  1.00005500e-05  1.58277926e+00  1.00005500e-05  1.59076449e+00                                 
 1.00006500e-05  7.68136091e-01  1.00006500e-05  7.06515581e-01  1.00006500e-05  7.09602439e-01  1.00006500e-05  1.26000000e+00  1.00006500e-05  5.06249525e-04  1.00006500e-05  7.07169071e-01  1.00006500e-05  1.58256655e+00  1.00006500e-05  1.59078175e+00                                 
 1.00008500e-05  7.68175996e-01  1.00008500e-05  7.06727320e-01  1.00008500e-05  7.11945524e-01  1.00008500e-05  5.40000000e-01  1.00008500e-05 -4.00235187e-03  1.00008500e-05  7.08434200e-01  1.00008500e-05  1.58251661e+00  1.00008500e-05  1.59077806e+00                                 
 1.00010000e-05  7.68133258e-01  1.00010000e-05  7.05716902e-01  1.00010000e-05  7.32596016e-01  1.00010000e-05  0.00000000e+00  1.00010000e-05  1.50500186e+00  1.00010000e-05  6.96613708e-01  1.00010000e-05  1.52388590e+00  1.00010000e-05  1.59025274e+00                                 
 1.00010258e-05  7.68150371e-01  1.00010258e-05  7.05405143e-01  1.00010258e-05  7.38754433e-01  1.00010258e-05  0.00000000e+00  1.00010258e-05  1.68856885e+00  1.00010258e-05  6.92767771e-01  1.00010258e-05  1.49769937e+00  1.00010258e-05  1.59009645e+00                                 
 1.00010775e-05  7.68147779e-01  1.00010775e-05  7.04802145e-01  1.00010775e-05  7.44536198e-01  1.00010775e-05  0.00000000e+00  1.00010775e-05  1.82210694e+00  1.00010775e-05  6.85657325e-01  1.00010775e-05  1.43918743e+00  1.00010775e-05  1.58996765e+00                                 
 1.00011808e-05  7.68141016e-01  1.00011808e-05  7.04692668e-01  1.00011808e-05  7.38012749e-01  1.00011808e-05  0.00000000e+00  1.00011808e-05  1.78629224e+00  1.00011808e-05  6.85170213e-01  1.00011808e-05  1.33675150e+00  1.00011808e-05  1.59048965e+00                                 
 1.00013105e-05  7.68148415e-01  1.00013105e-05  7.05026733e-01  1.00013105e-05  7.34398991e-01  1.00013105e-05  0.00000000e+00  1.00013105e-05  1.80734766e+00  1.00013105e-05  6.89968783e-01  1.00013105e-05  1.23865371e+00  1.00013105e-05  1.59084701e+00                                 
 1.00015266e-05  7.68140467e-01  1.00015266e-05  7.05209546e-01  1.00015266e-05  7.30145193e-01  1.00015266e-05  0.00000000e+00  1.00015266e-05  1.79374282e+00  1.00015266e-05  6.91460997e-01  1.00015266e-05  1.10384310e+00  1.00015266e-05  1.59103546e+00                                 
 1.00018587e-05  7.68147672e-01  1.00018587e-05  7.05776593e-01  1.00018587e-05  7.25339947e-01  1.00018587e-05  0.00000000e+00  1.00018587e-05  1.80467214e+00  1.00018587e-05  6.96488988e-01  1.00018587e-05  9.56787625e-01  1.00018587e-05  1.59103335e+00                                 
 1.00023109e-05  7.68140984e-01  1.00023109e-05  7.06251176e-01  1.00023109e-05  7.21318274e-01  1.00023109e-05  0.00000000e+00  1.00023109e-05  1.79556196e+00  1.00023109e-05  6.99751593e-01  1.00023109e-05  8.17990328e-01  1.00023109e-05  1.59060140e+00                                 
 1.00027995e-05  7.68147694e-01  1.00027995e-05  7.06924838e-01  1.00027995e-05  7.15208494e-01  1.00027995e-05  0.00000000e+00  1.00027995e-05  1.80362489e+00  1.00027995e-05  7.06343754e-01  1.00027995e-05  7.45492269e-01  1.00027995e-05  1.58976804e+00                                 
 1.00032573e-05  7.68141545e-01  1.00032573e-05  7.07104352e-01  1.00032573e-05  7.14263946e-01  1.00032573e-05  0.00000000e+00  1.00032573e-05  1.79677725e+00  1.00032573e-05  7.07861807e-01  1.00032573e-05  7.20774522e-01  1.00032573e-05  1.58856953e+00                                 
 1.00037796e-05  7.68147532e-01  1.00037796e-05  7.07265270e-01  1.00037796e-05  7.13374115e-01  1.00037796e-05  0.00000000e+00  1.00037796e-05  1.80281708e+00  1.00037796e-05  7.10133326e-01  1.00037796e-05  7.15471912e-01  1.00037796e-05  1.58685301e+00                                 
 1.00043742e-05  7.68141944e-01  1.00043742e-05  7.07153238e-01  1.00043742e-05  7.15378739e-01  1.00043742e-05  0.00000000e+00  1.00043742e-05  1.79748130e+00  1.00043742e-05  7.09629347e-01  1.00043742e-05  7.14136121e-01  1.00043742e-05  1.58459129e+00                                 
 1.00052087e-05  7.68147391e-01  1.00052087e-05  7.07133543e-01  1.00052087e-05  7.16531577e-01  1.00052087e-05  0.00000000e+00  1.00052087e-05  1.80231837e+00  1.00052087e-05  7.10645553e-01  1.00052087e-05  7.16614319e-01  1.00052087e-05  1.58121780e+00                                 
 1.00066446e-05  7.68142154e-01  1.00066446e-05  7.06937636e-01  1.00066446e-05  7.21018527e-01  1.00066446e-05  0.00000000e+00  1.00066446e-05  1.79778910e+00  1.00066446e-05  7.09901651e-01  1.00066446e-05  7.19415354e-01  1.00066446e-05  1.57510438e+00                                 
