 time            v(vbep)         time            v(vben)         time            v(vout)         time            v(vphi1)        time            v(vphi2)        time            v(vref)         yes             currtemp       
 0.00000000e+00  5.99326433e-01  0.00000000e+00  5.38325898e-01  0.00000000e+00  1.45171827e-01  0.00000000e+00  0.00000000e+00  0.00000000e+00  1.79998066e+00  0.00000000e+00  5.00000000e-01  1.00000000e+00  6.10000000e+01 
 5.00000000e-12  5.99312410e-01  5.00000000e-12  5.38314230e-01  5.00000000e-12  1.45730724e-01  5.00000000e-12  1.80000000e-02  5.00000000e-12  1.80006967e+00  5.00000000e-12  5.00000000e-01                                 
 1.00000000e-11  5.99298535e-01  1.00000000e-11  5.38302785e-01  1.00000000e-11  1.46232134e-01  1.00000000e-11  3.60000000e-02  1.00000000e-11  1.80011312e+00  1.00000000e-11  5.00000000e-01                                 
 2.00000000e-11  5.99270856e-01  2.00000000e-11  5.38279950e-01  2.00000000e-11  1.47148738e-01  2.00000000e-11  7.20000000e-02  2.00000000e-11  1.80015096e+00  2.00000000e-11  5.00000000e-01                                 
 4.00000000e-11  5.99215630e-01  4.00000000e-11  5.38234378e-01  4.00000000e-11  1.48589473e-01  4.00000000e-11  1.44000000e-01  4.00000000e-11  1.80012259e+00  4.00000000e-11  5.00000000e-01                                 
 8.00000000e-11  5.99105442e-01  8.00000000e-11  5.38143422e-01  8.00000000e-11  1.50543020e-01  8.00000000e-11  2.88000000e-01  8.00000000e-11  1.80007284e+00  8.00000000e-11  5.00000000e-01                                 
 1.60000000e-10  5.98886173e-01  1.60000000e-10  5.37962262e-01  1.60000000e-10  1.52941297e-01  1.60000000e-10  5.76000000e-01  1.60000000e-10  1.80003059e+00  1.60000000e-10  5.00000000e-01                                 
 3.20000000e-10  5.98451948e-01  3.20000000e-10  5.37602911e-01  3.20000000e-10  1.78404099e-01  3.20000000e-10  1.15200000e+00  3.20000000e-10  1.80018483e+00  3.20000000e-10  5.00000000e-01                                 
 5.00000000e-10  5.97970238e-01  5.00000000e-10  5.37203322e-01  5.00000000e-10  4.86399725e-01  5.00000000e-10  1.80000000e+00  5.00000000e-10  1.28116917e-01  5.00000000e-10  5.00000000e-01                                 
 5.22246215e-10  5.97911256e-01  5.22246215e-10  5.37154320e-01  5.22246215e-10  5.49966314e-01  5.22246215e-10  1.80000000e+00  5.22246215e-10  2.61230927e-02  5.22246215e-10  5.00000000e-01                                 
 5.66738645e-10  5.97793508e-01  5.66738645e-10  5.37056466e-01  5.66738645e-10  6.66439727e-01  5.66738645e-10  1.80000000e+00  5.66738645e-10 -1.21085886e-02  5.66738645e-10  5.00000000e-01                                 
 6.55723504e-10  5.97559313e-01  6.55723504e-10  5.36861665e-01  6.55723504e-10  8.49064555e-01  6.55723504e-10  1.80000000e+00  6.55723504e-10  9.98975176e-03  6.55723504e-10  5.00000000e-01                                 
 7.78460669e-10  5.97239066e-01  7.78460669e-10  5.36594915e-01  7.78460669e-10  1.03882740e+00  7.78460669e-10  1.80000000e+00  7.78460669e-10 -8.54309064e-03  7.78460669e-10  5.00000000e-01                                 
 9.73811732e-10  5.96735795e-01  9.73811732e-10  5.36174854e-01  9.73811732e-10  1.27584983e+00  9.73811732e-10  1.80000000e+00  9.73811732e-10  7.97648675e-03  9.73811732e-10  5.00000000e-01                                 
 1.30420659e-09  5.95901969e-01  1.30420659e-09  5.35476611e-01  1.30420659e-09  1.56007411e+00  1.30420659e-09  1.80000000e+00  1.30420659e-09 -7.46487476e-03  1.30420659e-09  5.00000000e-01                                 
 1.92302819e-09  5.94395366e-01  1.92302819e-09  5.34207942e-01  1.92302819e-09  1.79203176e+00  1.92302819e-09  1.80000000e+00  1.92302819e-09  7.37796159e-03  1.92302819e-09  5.00000000e-01                                 
 2.19344536e-09  5.93758619e-01  2.19344536e-09  5.33668989e-01  2.19344536e-09  1.81884300e+00  2.19344536e-09  1.80000000e+00  2.19344536e-09 -6.85470258e-03  2.19344536e-09  5.00000000e-01                                 
 2.51715570e-09  5.93012503e-01  2.51715570e-09  5.33035455e-01  2.51715570e-09  1.83200778e+00  2.51715570e-09  1.80000000e+00  2.51715570e-09  6.59001510e-03  2.51715570e-09  5.00000000e-01                                 
 2.88065459e-09  5.92194711e-01  2.88065459e-09  5.32338601e-01  2.88065459e-09  1.83753569e+00  2.88065459e-09  1.80000000e+00  2.88065459e-09 -6.24130443e-03  2.88065459e-09  5.00000000e-01                                 
 3.60765238e-09  5.90618306e-01  3.60765238e-09  5.30988313e-01  3.60765238e-09  1.83965023e+00  3.60765238e-09  1.80000000e+00  3.60765238e-09  6.15935691e-03  3.60765238e-09  5.00000000e-01                                 
 4.39297019e-09  5.88997806e-01  4.39297019e-09  5.29590744e-01  4.39297019e-09  1.83885624e+00  4.39297019e-09  1.80000000e+00  4.39297019e-09 -5.98559406e-03  4.39297019e-09  5.00000000e-01                                 
 5.96360583e-09  5.85978562e-01  5.96360583e-09  5.26962962e-01  5.96360583e-09  1.83545969e+00  5.96360583e-09  1.80000000e+00  5.96360583e-09  5.97446637e-03  5.96360583e-09  5.00000000e-01                                 
 8.67045658e-09  5.81343505e-01  8.67045658e-09  5.22872839e-01  8.67045658e-09  1.82722239e+00  8.67045658e-09  1.80000000e+00  8.67045658e-09 -5.88786879e-03  8.67045658e-09  5.00000000e-01                                 
 1.02588756e-08  5.78907568e-01  1.02588756e-08  5.20696162e-01  1.02588756e-08  1.82348911e+00  1.02588756e-08  1.80000000e+00  1.02588756e-08  5.87125105e-03  1.02588756e-08  5.00000000e-01                                 
 1.14591582e-08  5.77182236e-01  1.14591582e-08  5.19144211e-01  1.14591582e-08  1.82063623e+00  1.14591582e-08  1.80000000e+00  1.14591582e-08 -5.75505904e-03  1.14591582e-08  5.00000000e-01                                 
 1.26764976e-08  5.75522773e-01  1.26764976e-08  5.17643862e-01  1.26764976e-08  1.81802957e+00  1.26764976e-08  1.80000000e+00  1.26764976e-08  5.71498287e-03  1.26764976e-08  5.00000000e-01                                 
 1.39617370e-08  5.73860749e-01  1.39617370e-08  5.16133859e-01  1.39617370e-08  1.81522254e+00  1.39617370e-08  1.80000000e+00  1.39617370e-08 -5.61051428e-03  1.39617370e-08  5.00000000e-01                                 
 1.57071991e-08  5.71737147e-01  1.57071991e-08  5.14194077e-01  1.57071991e-08  1.81169437e+00  1.57071991e-08  1.80000000e+00  1.57071991e-08  5.59114467e-03  1.57071991e-08  5.00000000e-01                                 
 1.75749324e-08  5.69618649e-01  1.75749324e-08  5.12247333e-01  1.75749324e-08  1.80792003e+00  1.75749324e-08  1.80000000e+00  1.75749324e-08 -5.51218965e-03  1.75749324e-08  5.00000000e-01                                 
 2.02995265e-08  5.66776884e-01  2.02995265e-08  5.09618052e-01  2.02995265e-08  1.80280348e+00  2.02995265e-08  1.80000000e+00  2.02995265e-08  5.51032747e-03  2.02995265e-08  5.00000000e-01                                 
 2.33378101e-08  5.63909010e-01  2.33378101e-08  5.06943618e-01  2.33378101e-08  1.79730577e+00  2.33378101e-08  1.80000000e+00  2.33378101e-08 -5.45111959e-03  2.33378101e-08  5.00000000e-01                                 
 2.85704393e-08  5.59560371e-01  2.85704393e-08  5.02850206e-01  2.85704393e-08  1.78862113e+00  2.85704393e-08  1.80000000e+00  2.85704393e-08  5.46452633e-03  2.85704393e-08  5.00000000e-01                                 
 3.53953742e-08  5.54739970e-01  3.53953742e-08  4.98262840e-01  3.53953742e-08  1.77778747e+00  3.53953742e-08  1.80000000e+00  3.53953742e-08 -5.42164120e-03  3.53953742e-08  5.00000000e-01                                 
 4.90452440e-08  5.46935265e-01  4.90452440e-08  4.90751774e-01  4.90452440e-08  1.75747774e+00  4.90452440e-08  1.80000000e+00  4.90452440e-08  5.44545567e-03  4.90452440e-08  5.00000000e-01                                 
 7.63449837e-08  5.35092272e-01  7.63449837e-08  4.79287888e-01  7.63449837e-08  1.71959309e+00  7.63449837e-08  1.80000000e+00  7.63449837e-08 -5.41200919e-03  7.63449837e-08  5.00000000e-01                                 
 1.13696901e-07  5.21002792e-01  1.13696901e-07  4.66047665e-01  1.13696901e-07  1.66950916e+00  1.13696901e-07  1.80000000e+00  1.13696901e-07  5.44002901e-03  1.13696901e-07  5.00000000e-01                                 
 1.65048960e-07  5.04377036e-01  1.65048960e-07  4.50810675e-01  1.65048960e-07  1.60209483e+00  1.65048960e-07  1.80000000e+00  1.65048960e-07 -5.40796613e-03  1.65048960e-07  5.00000000e-01                                 
 2.39633498e-07  4.84483786e-01  2.39633498e-07  4.32953459e-01  2.39633498e-07  1.50622347e+00  2.39633498e-07  1.80000000e+00  2.39633498e-07  5.43725870e-03  2.39633498e-07  5.00000000e-01                                 
 3.42673497e-07  4.57953906e-01  3.42673497e-07  4.10044291e-01  3.42673497e-07  1.37206629e+00  3.42673497e-07  1.80000000e+00  3.42673497e-07 -5.40597222e-03  3.42673497e-07  5.00000000e-01                                 
 4.61560824e-07  4.24013071e-01  4.61560824e-07  3.81839132e-01  4.61560824e-07  1.21290079e+00  4.61560824e-07  1.80000000e+00  4.61560824e-07  5.43568540e-03  4.61560824e-07  5.00000000e-01                                 
 6.16112768e-07  6.24609569e-01  6.16112768e-07  5.61131371e-01  6.16112768e-07  1.23959476e+00  6.16112768e-07  1.80000000e+00  6.16112768e-07 -5.40290274e-03  6.16112768e-07  5.00000000e-01                                 
 7.58813446e-07  7.41791403e-01  7.58813446e-07  6.73715143e-01  7.58813446e-07  1.20022294e+00  7.58813446e-07  1.80000000e+00  7.58813446e-07  5.43426471e-03  7.58813446e-07  5.00000000e-01                                 
 8.97478881e-07  7.49403800e-01  8.97478881e-07  6.80109481e-01  8.97478881e-07  1.06266859e+00  8.97478881e-07  1.80000000e+00  8.97478881e-07 -5.40282775e-03  8.97478881e-07  5.00000000e-01                                 
 1.03374564e-06  7.12361881e-01  1.03374564e-06  6.47768399e-01  1.03374564e-06  9.18123350e-01  1.03374564e-06  1.80000000e+00  1.03374564e-06  5.43247846e-03  1.03374564e-06  5.00000000e-01                                 
 1.16171727e-06  7.25845175e-01  1.16171727e-06  6.59894637e-01  1.16171727e-06  8.46907246e-01  1.16171727e-06  1.80000000e+00  1.16171727e-06 -5.40093367e-03  1.16171727e-06  5.00000000e-01                                 
 1.25743866e-06  7.56150412e-01  1.25743866e-06  6.85563587e-01  1.25743866e-06  8.16238101e-01  1.25743866e-06  1.80000000e+00  1.25743866e-06  5.43120526e-03  1.25743866e-06  5.00000000e-01                                 
 1.33938302e-06  7.28454876e-01  1.33938302e-06  6.62288517e-01  1.33938302e-06  7.43204774e-01  1.33938302e-06  1.80000000e+00  1.33938302e-06 -5.39995928e-03  1.33938302e-06  5.00000000e-01                                 
 1.34858568e-06  7.22328253e-01  1.34858568e-06  6.56816518e-01  1.34858568e-06  7.32994414e-01  1.34858568e-06  1.80000000e+00  1.34858568e-06  3.58847871e-07  1.34858568e-06  5.00000000e-01                                 
 1.36699099e-06  7.15534019e-01  1.36699099e-06  6.50636030e-01  1.36699099e-06  7.16858937e-01  1.36699099e-06  1.80000000e+00  1.36699099e-06  5.40341762e-06  1.36699099e-06  5.00000000e-01                                 
 1.40380163e-06  7.24616560e-01  1.40380163e-06  6.58792603e-01  1.40380163e-06  7.04909738e-01  1.40380163e-06  1.80000000e+00  1.40380163e-06  1.29702257e-06  1.40380163e-06  5.00000000e-01                                 
 1.46475793e-06  7.41784159e-01  1.46475793e-06  6.73728342e-01  1.46475793e-06  6.86607414e-01  1.46475793e-06  1.80000000e+00  1.46475793e-06  5.50677038e-06  1.46475793e-06  5.00000000e-01                                 
 1.51995031e-06  7.37065702e-01  1.51995031e-06  6.69730108e-01  1.51995031e-06  6.52557918e-01  1.51995031e-06  1.80000000e+00  1.51995031e-06  7.18622747e-07  1.51995031e-06  5.00000000e-01                                 
 1.60354215e-06  7.28224038e-01  1.60354215e-06  6.62015430e-01  1.60354215e-06  6.01801731e-01  1.60354215e-06  1.80000000e+00  1.60354215e-06  5.47002826e-06  1.60354215e-06  5.00000000e-01                                 
 1.69358878e-06  7.36400421e-01  1.69358878e-06  6.69138721e-01  1.69358878e-06  5.65705264e-01  1.69358878e-06  1.80000000e+00  1.69358878e-06  1.01981266e-06  1.69358878e-06  5.00000000e-01                                 
 1.71126497e-06  7.37323125e-01  1.71126497e-06  6.69932898e-01  1.71126497e-06  5.58744840e-01  1.71126497e-06  1.80000000e+00  1.71126497e-06  3.22463805e-06  1.71126497e-06  5.00000000e-01                                 
 1.74661735e-06  7.36346344e-01  1.74661735e-06  6.69102342e-01  1.74661735e-06  5.43627393e-01  1.74661735e-06  1.80000000e+00  1.74661735e-06  3.09728546e-06  1.74661735e-06  5.00000000e-01                                 
 1.81732211e-06  7.31568619e-01  1.81732211e-06  6.64956355e-01  1.81732211e-06  5.19120947e-01  1.81732211e-06  1.80000000e+00  1.81732211e-06  3.15415570e-06  1.81732211e-06  5.00000000e-01                                 
 1.94065245e-06  7.35148225e-01  1.94065245e-06  6.68059540e-01  1.94065245e-06  5.02604549e-01  1.94065245e-06  1.80000000e+00  1.94065245e-06  3.24432225e-06  1.94065245e-06  5.00000000e-01                                 
 2.07693395e-06  7.34458695e-01  2.07693395e-06  6.67472455e-01  2.07693395e-06  4.91557961e-01  2.07693395e-06  1.80000000e+00  2.07693395e-06  3.10394695e-06  2.07693395e-06  5.00000000e-01                                 
 2.23623769e-06  7.32915514e-01  2.23623769e-06  6.66124909e-01  2.23623769e-06  4.99104400e-01  2.23623769e-06  1.80000000e+00  2.23623769e-06  3.23516189e-06  2.23623769e-06  5.00000000e-01                                 
 2.41588261e-06  7.35603304e-01  2.41588261e-06  6.68458690e-01  2.41588261e-06  5.04518939e-01  2.41588261e-06  1.80000000e+00  2.41588261e-06  3.13933426e-06  2.41588261e-06  5.00000000e-01                                 
 2.63242929e-06  7.32636929e-01  2.63242929e-06  6.65885645e-01  2.63242929e-06  4.95684984e-01  2.63242929e-06  1.80000000e+00  2.63242929e-06  3.19368511e-06  2.63242929e-06  5.00000000e-01                                 
 2.85179783e-06  7.35268497e-01  2.85179783e-06  6.68167112e-01  2.85179783e-06  5.03107703e-01  2.85179783e-06  1.80000000e+00  2.85179783e-06  3.17775299e-06  2.85179783e-06  5.00000000e-01                                 
 3.13153738e-06  7.33260192e-01  3.13153738e-06  6.66429696e-01  3.13153738e-06  4.98326805e-01  3.13153738e-06  1.80000000e+00  3.13153738e-06  3.16435817e-06  3.13153738e-06  5.00000000e-01                                 
 3.54117585e-06  7.34705786e-01  3.54117585e-06  6.67679747e-01  3.54117585e-06  5.01512089e-01  3.54117585e-06  1.80000000e+00  3.54117585e-06  3.19438234e-06  3.54117585e-06  5.00000000e-01                                 
 4.20606877e-06  7.33674402e-01  4.20606877e-06  6.66789844e-01  4.20606877e-06  4.99277509e-01  4.20606877e-06  1.80000000e+00  4.20606877e-06  3.15639019e-06  4.20606877e-06  5.00000000e-01                                 
 5.20606877e-06  7.34447471e-01  5.20606877e-06  6.67456002e-01  5.20606877e-06  5.00968371e-01  5.20606877e-06  1.80000000e+00  5.20606877e-06  3.19805953e-06  5.20606877e-06  5.00000000e-01                                 
 6.20606877e-06  7.33882673e-01  6.20606877e-06  6.66970626e-01  6.20606877e-06  4.99680679e-01  6.20606877e-06  1.80000000e+00  6.20606877e-06  3.15425243e-06  6.20606877e-06  5.00000000e-01                                 
 7.20606877e-06  7.34246231e-01  7.20606877e-06  6.67281662e-01  7.20606877e-06  5.00591749e-01  7.20606877e-06  1.80000000e+00  7.20606877e-06  3.19956459e-06  7.20606877e-06  5.00000000e-01                                 
 8.20606877e-06  7.34080278e-01  8.20606877e-06  6.67141961e-01  8.20606877e-06  5.00031801e-01  8.20606877e-06  1.80000000e+00  8.20606877e-06  3.15336430e-06  8.20606877e-06  5.00000000e-01                                 
 9.20606877e-06  7.34056825e-01  9.20606877e-06  6.67117551e-01  9.20606877e-06  5.00264975e-01  9.20606877e-06  1.80000000e+00  9.20606877e-06  3.19985366e-06  9.20606877e-06  5.00000000e-01                                 
 1.00005000e-05  7.34283346e-01  1.00005000e-05  6.67317833e-01  1.00005000e-05  5.00367732e-01  1.00005000e-05  1.80000000e+00  1.00005000e-05  3.15376487e-06  1.00005000e-05  5.00000000e-01                                 
 1.00005500e-05  7.34281438e-01  1.00005500e-05  6.67316163e-01  1.00005500e-05  4.92687132e-01  1.00005500e-05  1.62000000e+00  1.00005500e-05 -8.01970175e-05  1.00005500e-05  5.00000000e-01                                 
 1.00006500e-05  7.34277584e-01  1.00006500e-05  6.67312821e-01  1.00006500e-05  4.78877134e-01  1.00006500e-05  1.26000000e+00  1.00006500e-05 -6.55836981e-05  1.00006500e-05  5.00000000e-01                                 
 1.00008500e-05  7.34269904e-01  1.00008500e-05  6.67306179e-01  1.00008500e-05  4.76478633e-01  1.00008500e-05  5.40000000e-01  1.00008500e-05  6.88877671e-03  1.00008500e-05  5.00000000e-01                                 
 1.00010000e-05  7.34264090e-01  1.00010000e-05  6.67301164e-01  1.00010000e-05  4.39023058e-01  1.00010000e-05  0.00000000e+00  1.00010000e-05  1.59174982e+00  1.00010000e-05  5.00000000e-01                                 
 1.00010252e-05  7.34263080e-01  1.00010252e-05  6.67300302e-01  1.00010252e-05  4.14266061e-01  1.00010252e-05  0.00000000e+00  1.00010252e-05  1.72978327e+00  1.00010252e-05  5.00000000e-01                                 
 1.00010755e-05  7.34261118e-01  1.00010755e-05  6.67298602e-01  1.00010755e-05  3.69653525e-01  1.00010755e-05  0.00000000e+00  1.00010755e-05  1.81960817e+00  1.00010755e-05  5.00000000e-01                                 
 1.00011763e-05  7.34257357e-01  1.00011763e-05  6.67295301e-01  1.00011763e-05  3.23374004e-01  1.00011763e-05  0.00000000e+00  1.00011763e-05  1.78577639e+00  1.00011763e-05  5.00000000e-01                                 
 1.00013016e-05  7.34252694e-01  1.00013016e-05  6.67291259e-01  1.00013016e-05  3.15050667e-01  1.00013016e-05  0.00000000e+00  1.00013016e-05  1.80885445e+00  1.00013016e-05  5.00000000e-01                                 
 1.00015089e-05  7.34244864e-01  1.00015089e-05  6.67284497e-01  1.00015089e-05  3.14940158e-01  1.00015089e-05  0.00000000e+00  1.00015089e-05  1.79274345e+00  1.00015089e-05  5.00000000e-01                                 
 1.00017277e-05  7.34236461e-01  1.00017277e-05  6.67277238e-01  1.00017277e-05  3.15412277e-01  1.00017277e-05  0.00000000e+00  1.00017277e-05  1.80572305e+00  1.00017277e-05  5.00000000e-01                                 
 1.00021186e-05  7.34221281e-01  1.00021186e-05  6.67264113e-01  1.00021186e-05  3.15165411e-01  1.00021186e-05  0.00000000e+00  1.00021186e-05  1.79491165e+00  1.00021186e-05  5.00000000e-01                                 
 1.00025731e-05  7.34203644e-01  1.00025731e-05  6.67248838e-01  1.00025731e-05  3.15268294e-01  1.00025731e-05  0.00000000e+00  1.00025731e-05  1.80454442e+00  1.00025731e-05  5.00000000e-01                                 
 1.00034821e-05  7.34169022e-01  1.00034821e-05  6.67218813e-01  1.00034821e-05  3.15258341e-01  1.00034821e-05  0.00000000e+00  1.00034821e-05  1.79566985e+00  1.00034821e-05  5.00000000e-01                                 
 1.00053001e-05  7.34102048e-01  1.00053001e-05  6.67160707e-01  1.00053001e-05  3.16030934e-01  1.00053001e-05  0.00000000e+00  1.00053001e-05  1.80419321e+00  1.00053001e-05  5.00000000e-01                                 
 1.00089360e-05  7.33972685e-01  1.00089360e-05  6.67048515e-01  1.00089360e-05  3.18109129e-01  1.00089360e-05  0.00000000e+00  1.00089360e-05  1.79584107e+00  1.00089360e-05  5.00000000e-01                                 
