 time            v(vbep)         time            v(vben)         time            v(vout)         time            v(vphi1)        time            v(vphi2)        time            v(vref)         time            v(voutc)        time            v(voutcc)       yes             currtemp       
 0.00000000e+00  7.51026221e-01  0.00000000e+00  6.89523628e-01  0.00000000e+00  1.55765609e+00  0.00000000e+00  0.00000000e+00  0.00000000e+00  1.80000000e+00  0.00000000e+00  6.91383149e-01  0.00000000e+00  1.55765608e+00  0.00000000e+00  1.56446293e+00  1.00000000e+00  4.20000000e+01 
 1.00000000e-11  7.51051319e-01  1.00000000e-11  6.89595050e-01  1.00000000e-11  1.55843452e+00  1.00000000e-11  1.80000000e-02  1.00000000e-11  1.80025199e+00  1.00000000e-11  6.91915435e-01  1.00000000e-11  1.55812686e+00  1.00000000e-11  1.56447659e+00                                 
 2.00000000e-11  7.51058191e-01  2.00000000e-11  6.89639734e-01  2.00000000e-11  1.55891153e+00  2.00000000e-11  3.60000000e-02  2.00000000e-11  1.80035180e+00  2.00000000e-11  6.92310448e-01  2.00000000e-11  1.55848284e+00  2.00000000e-11  1.56448163e+00                                 
 4.00000000e-11  7.51058170e-01  4.00000000e-11  6.89698576e-01  4.00000000e-11  1.55948447e+00  4.00000000e-11  7.20000000e-02  4.00000000e-11  1.80038993e+00  4.00000000e-11  6.92888104e-01  4.00000000e-11  1.55901337e+00  4.00000000e-11  1.56448316e+00                                 
 8.00000000e-11  7.51046389e-01  8.00000000e-11  6.89736397e-01  8.00000000e-11  1.55959907e+00  8.00000000e-11  1.44000000e-01  8.00000000e-11  1.80018586e+00  8.00000000e-11  6.93335675e-01  8.00000000e-11  1.55944556e+00  8.00000000e-11  1.56447251e+00                                 
 1.60000000e-10  7.51043554e-01  1.60000000e-10  6.89747080e-01  1.60000000e-10  1.55926515e+00  1.60000000e-10  2.88000000e-01  1.60000000e-10  1.80000420e+00  1.60000000e-10  6.93410512e-01  1.60000000e-10  1.55949648e+00  1.60000000e-10  1.56446297e+00                                 
 3.20000000e-10  7.51039577e-01  3.20000000e-10  6.89744208e-01  3.20000000e-10  1.55889437e+00  3.20000000e-10  5.76000000e-01  3.20000000e-10  1.79998874e+00  3.20000000e-10  6.93266197e-01  3.20000000e-10  1.55919151e+00  3.20000000e-10  1.56445866e+00                                 
 6.40000000e-10  7.50956496e-01  6.40000000e-10  6.89362320e-01  6.40000000e-10  1.55675660e+00  6.40000000e-10  1.15200000e+00  6.40000000e-10  1.81137367e+00  6.40000000e-10  6.91010018e-01  6.40000000e-10  1.56382506e+00  6.40000000e-10  1.56448685e+00                                 
 1.00000000e-09  7.51582256e-01  1.00000000e-09  6.89634158e-01  1.00000000e-09  1.53258989e+00  1.00000000e-09  1.80000000e+00  1.00000000e-09  9.42315439e-02  1.00000000e-09  7.02630251e-01  1.00000000e-09  1.56449802e+00  1.00000000e-09  1.56445296e+00                                 
 1.03656246e-09  7.51626579e-01  1.03656246e-09  6.89667923e-01  1.03656246e-09  1.53155309e+00  1.03656246e-09  1.80000000e+00  1.03656246e-09  2.12153368e-02  1.03656246e-09  7.05608615e-01  1.03656246e-09  1.56612853e+00  1.03656246e-09  1.56448945e+00                                 
 1.10968737e-09  7.51743087e-01  1.10968737e-09  6.89733956e-01  1.10968737e-09  1.53058758e+00  1.10968737e-09  1.80000000e+00  1.10968737e-09 -1.01476489e-02  1.10968737e-09  7.09453708e-01  1.10968737e-09  1.56912010e+00  1.10968737e-09  1.56451469e+00                                 
 1.25593721e-09  7.51854572e-01  1.25593721e-09  6.89604228e-01  1.25593721e-09  1.52844834e+00  1.25593721e-09  1.80000000e+00  1.25593721e-09  8.42005817e-03  1.25593721e-09  7.09639737e-01  1.25593721e-09  1.56953759e+00  1.25593721e-09  1.56446761e+00                                 
 1.46210907e-09  7.51836241e-01  1.46210907e-09  6.89579993e-01  1.46210907e-09  1.52774658e+00  1.46210907e-09  1.80000000e+00  1.46210907e-09 -6.52603127e-03  1.46210907e-09  7.08977405e-01  1.46210907e-09  1.56876519e+00  1.46210907e-09  1.56450043e+00                                 
 1.68659586e-09  7.51743928e-01  1.68659586e-09  6.89574774e-01  1.68659586e-09  1.52762234e+00  1.68659586e-09  1.80000000e+00  1.68659586e-09  5.59151232e-03  1.68659586e-09  7.07577978e-01  1.68659586e-09  1.56775266e+00  1.68659586e-09  1.56451076e+00                                 
 2.06368517e-09  7.51491958e-01  2.06368517e-09  6.89527687e-01  2.06368517e-09  1.52772690e+00  2.06368517e-09  1.80000000e+00  2.06368517e-09 -5.06544372e-03  2.06368517e-09  7.05243612e-01  2.06368517e-09  1.56560160e+00  2.06368517e-09  1.56460072e+00                                 
 2.47952896e-09  7.51280097e-01  2.47952896e-09  6.89532034e-01  2.47952896e-09  1.52806421e+00  2.47952896e-09  1.80000000e+00  2.47952896e-09  4.52380849e-03  2.47952896e-09  7.03097830e-01  2.47952896e-09  1.56391300e+00  2.47952896e-09  1.56468813e+00                                 
 3.13612157e-09  7.51055597e-01  3.13612157e-09  6.89488298e-01  3.13612157e-09  1.52755444e+00  3.13612157e-09  1.80000000e+00  3.13612157e-09 -4.35866010e-03  3.13612157e-09  6.99760818e-01  3.13612157e-09  1.56092859e+00  3.13612157e-09  1.56484296e+00                                 
 4.09446468e-09  7.50925862e-01  4.09446468e-09  6.89506512e-01  4.09446468e-09  1.52686458e+00  4.09446468e-09  1.80000000e+00  4.09446468e-09  4.10513750e-03  4.09446468e-09  6.96392073e-01  4.09446468e-09  1.55818240e+00  4.09446468e-09  1.56499692e+00                                 
 6.01115091e-09  7.50823731e-01  6.01115091e-09  6.89486303e-01  6.01115091e-09  1.52444512e+00  6.01115091e-09  1.80000000e+00  6.01115091e-09 -4.07157217e-03  6.01115091e-09  6.91918814e-01  6.01115091e-09  1.55424650e+00  6.01115091e-09  1.56509425e+00                                 
 7.52830388e-09  7.50847239e-01  7.52830388e-09  6.89522439e-01  7.52830388e-09  1.52180725e+00  7.52830388e-09  1.80000000e+00  7.52830388e-09  3.94935620e-03  7.52830388e-09  6.90615949e-01  7.52830388e-09  1.55326093e+00  7.52830388e-09  1.56498220e+00                                 
 9.00746704e-09  7.50872362e-01  9.00746704e-09  6.89500577e-01  9.00746704e-09  1.51742474e+00  9.00746704e-09  1.80000000e+00  9.00746704e-09 -3.86031103e-03  9.00746704e-09  6.89714177e-01  9.00746704e-09  1.55237202e+00  9.00746704e-09  1.56479461e+00                                 
 1.05630698e-08  7.50923710e-01  1.05630698e-08  6.89531735e-01  1.05630698e-08  1.51205583e+00  1.05630698e-08  1.80000000e+00  1.05630698e-08  3.76207782e-03  1.05630698e-08  6.89651674e-01  1.05630698e-08  1.55243113e+00  1.05630698e-08  1.56454790e+00                                 
 1.28218516e-08  7.50965272e-01  1.28218516e-08  6.89507274e-01  1.28218516e-08  1.50204524e+00  1.28218516e-08  1.80000000e+00  1.28218516e-08 -3.70153896e-03  1.28218516e-08  6.89379553e-01  1.28218516e-08  1.55207324e+00  1.28218516e-08  1.56418163e+00                                 
 1.55033566e-08  7.51012781e-01  1.55033566e-08  6.89536510e-01  1.55033566e-08  1.48916376e+00  1.55033566e-08  1.80000000e+00  1.55033566e-08  3.65022185e-03  1.55033566e-08  6.89772071e-01  1.55033566e-08  1.55250454e+00  1.55033566e-08  1.56375983e+00                                 
 1.93255036e-08  7.51027523e-01  1.93255036e-08  6.89510143e-01  1.93255036e-08  1.46889077e+00  1.93255036e-08  1.80000000e+00  1.93255036e-08 -3.61293089e-03  1.93255036e-08  6.89854869e-01  1.93255036e-08  1.55244076e+00  1.93255036e-08  1.56323664e+00                                 
 2.44006089e-08  7.51042550e-01  2.44006089e-08  6.89537956e-01  2.44006089e-08  1.44166622e+00  2.44006089e-08  1.80000000e+00  2.44006089e-08  3.58800352e-03  2.44006089e-08  6.90448560e-01  2.44006089e-08  1.55303383e+00  2.44006089e-08  1.56266680e+00                                 
 3.32751438e-08  7.51030221e-01  3.32751438e-08  6.89510406e-01  3.32751438e-08  1.39291600e+00  3.32751438e-08  1.80000000e+00  3.32751438e-08 -3.57107807e-03  3.32751438e-08  6.90655338e-01  3.32751438e-08  1.55307259e+00  3.32751438e-08  1.56195286e+00                                 
 4.74617742e-08  7.51034082e-01  4.74617742e-08  6.89537537e-01  4.74617742e-08  1.31554725e+00  4.74617742e-08  1.80000000e+00  4.74617742e-08  3.56318662e-03  4.74617742e-08  6.91249071e-01  4.74617742e-08  1.55366806e+00  4.74617742e-08  1.56127829e+00                                 
 7.58350351e-08  7.51022277e-01  7.58350351e-08  6.89509912e-01  7.58350351e-08  1.16088240e+00  7.58350351e-08  1.80000000e+00  7.58350351e-08 -3.55682629e-03  7.58350351e-08  6.91246304e-01  7.58350351e-08  1.55354328e+00  7.58350351e-08  1.56073009e+00                                 
 1.13836249e-07  7.51030469e-01  1.13836249e-07  6.89537326e-01  1.13836249e-07  9.57484535e-01  1.13836249e-07  1.80000000e+00  1.13836249e-07  3.55563813e-03  1.13836249e-07  6.91499039e-01  1.13836249e-07  1.55386533e+00  1.13836249e-07  1.56056492e+00                                 
 1.73291474e-07  7.51022323e-01  1.73291474e-07  6.89509907e-01  1.73291474e-07  7.32166646e-01  1.73291474e-07  1.80000000e+00  1.73291474e-07 -3.54667673e-03  1.73291474e-07  6.91265341e-01  1.73291474e-07  1.55355294e+00  1.73291474e-07  1.56052332e+00                                 
 2.24564208e-07  7.51030771e-01  2.24564208e-07  6.89537455e-01  2.24564208e-07  6.85762606e-01  2.24564208e-07  1.80000000e+00  2.24564208e-07  3.55614381e-03  2.24564208e-07  6.91504725e-01  2.24564208e-07  1.55386483e+00  2.24564208e-07  1.56052030e+00                                 
 2.62660627e-07  7.51019746e-01  2.62660627e-07  6.89509629e-01  2.62660627e-07  6.94025495e-01  2.62660627e-07  1.80000000e+00  2.62660627e-07 -3.53949082e-03  2.62660627e-07  6.91263688e-01  2.62660627e-07  1.55354846e+00  2.62660627e-07  1.56052069e+00                                 
 2.90367308e-07  7.51033401e-01  2.90367308e-07  6.89537694e-01  2.90367308e-07  6.93302939e-01  2.90367308e-07  1.80000000e+00  2.90367308e-07  3.54790825e-03  2.90367308e-07  6.91501352e-01  2.90367308e-07  1.55385950e+00  2.90367308e-07  1.56051668e+00                                 
 3.21721110e-07  7.51019085e-01  3.21721110e-07  6.89509540e-01  3.21721110e-07  6.93262704e-01  3.21721110e-07  1.80000000e+00  3.21721110e-07 -3.53081258e-03  3.21721110e-07  6.91265111e-01  3.21721110e-07  1.55354769e+00  3.21721110e-07  1.56051745e+00                                 
 3.64712492e-07  7.51033239e-01  3.64712492e-07  6.89537707e-01  3.64712492e-07  6.93327971e-01  3.64712492e-07  1.80000000e+00  3.64712492e-07  3.54083574e-03  3.64712492e-07  6.91501042e-01  3.64712492e-07  1.55385653e+00  3.64712492e-07  1.56051400e+00                                 
 4.27347852e-07  7.51019311e-01  4.27347852e-07  6.89509542e-01  4.27347852e-07  6.93223807e-01  4.27347852e-07  1.80000000e+00  4.27347852e-07 -3.52581107e-03  4.27347852e-07  6.91265262e-01  4.27347852e-07  1.55354420e+00  4.27347852e-07  1.56051365e+00                                 
 5.27454643e-07  7.51033055e-01  5.27454643e-07  6.89537702e-01  5.27454643e-07  6.93348190e-01  5.27454643e-07  1.80000000e+00  5.27454643e-07  3.53750650e-03  5.27454643e-07  6.91500966e-01  5.27454643e-07  1.55385072e+00  5.27454643e-07  1.56050834e+00                                 
 6.85718097e-07  7.51019436e-01  6.85718097e-07  6.89509546e-01  6.85718097e-07  6.93212507e-01  6.85718097e-07  1.80000000e+00  6.85718097e-07 -3.52373163e-03  6.85718097e-07  6.91265301e-01  6.85718097e-07  1.55353524e+00  6.85718097e-07  1.56050461e+00                                 
 9.51505582e-07  7.51032975e-01  9.51505582e-07  6.89537699e-01  9.51505582e-07  6.93354406e-01  9.51505582e-07  1.80000000e+00  9.51505582e-07  3.53621365e-03  9.51505582e-07  6.91500946e-01  9.51505582e-07  1.55383586e+00  9.51505582e-07  1.56049355e+00                                 
 1.39641763e-06  7.51019485e-01  1.39641763e-06  6.89509548e-01  1.39641763e-06  6.93208913e-01  1.39641763e-06  1.80000000e+00  1.39641763e-06 -3.52296415e-03  1.39641763e-06  6.91265312e-01  1.39641763e-06  1.55351040e+00  1.39641763e-06  1.56047978e+00                                 
 2.15016179e-06  7.51032946e-01  2.15016179e-06  6.89537698e-01  2.15016179e-06  6.93356423e-01  2.15016179e-06  1.80000000e+00  2.15016179e-06  3.53575532e-03  2.15016179e-06  6.91500939e-01  2.15016179e-06  1.55379394e+00  2.15016179e-06  1.56045170e+00                                 
 3.35016179e-06  7.51019502e-01  3.35016179e-06  6.89509548e-01  3.35016179e-06  6.93207689e-01  3.35016179e-06  1.80000000e+00  3.35016179e-06 -3.52269107e-03  3.35016179e-06  6.91265316e-01  3.35016179e-06  1.55344213e+00  3.35016179e-06  1.56041160e+00                                 
 4.55016179e-06  7.51032932e-01  4.55016179e-06  6.89537697e-01  4.55016179e-06  6.93357333e-01  4.55016179e-06  1.80000000e+00  4.55016179e-06  3.53554229e-03  4.55016179e-06  6.91500936e-01  4.55016179e-06  1.55371005e+00  4.55016179e-06  1.56036793e+00                                 
 5.75016179e-06  7.51019516e-01  5.75016179e-06  6.89509549e-01  5.75016179e-06  6.93206769e-01  5.75016179e-06  1.80000000e+00  5.75016179e-06 -3.52248815e-03  5.75016179e-06  6.91265319e-01  5.75016179e-06  1.55335823e+00  5.75016179e-06  1.56032780e+00                                 
 6.00100000e-06  7.51032892e-01  6.00100000e-06  6.89537696e-01  6.00100000e-06  6.93359856e-01  6.00100000e-06  1.80000000e+00  6.00100000e-06  3.53492438e-03  6.00100000e-06  6.91500929e-01  6.00100000e-06  1.55365931e+00  6.00100000e-06  1.56031728e+00                                 
 6.00110000e-06  7.50983357e-01  6.00110000e-06  6.89284441e-01  6.00110000e-06  6.91442779e-01  6.00110000e-06  1.62000000e+00  6.00110000e-06  1.95275770e-04  6.00110000e-06  6.89777139e-01  6.00110000e-06  1.55213777e+00  6.00110000e-06  1.56030628e+00                                 
 6.00130000e-06  7.51014634e-01  6.00130000e-06  6.89287758e-01  6.00130000e-06  6.91676331e-01  6.00130000e-06  1.26000000e+00  6.00130000e-06 -2.28201320e-04  6.00130000e-06  6.89651687e-01  6.00130000e-06  1.55202495e+00  6.00130000e-06  1.56032403e+00                                 
 6.00170000e-06  7.51075687e-01  6.00170000e-06  6.88748096e-01  6.00170000e-06  7.11544562e-01  6.00170000e-06  5.40000000e-01  6.00170000e-06  1.54628964e+00  6.00170000e-06  6.81805150e-01  6.00170000e-06  1.44627565e+00  6.00170000e-06  1.55995530e+00                                 
 6.00200000e-06  7.51008918e-01  6.00200000e-06  6.86442599e-01  6.00200000e-06  7.39410530e-01  6.00200000e-06  0.00000000e+00  6.00200000e-06  1.87955094e+00  6.00200000e-06  6.57529748e-01  6.00200000e-06  1.09946618e+00  6.00200000e-06  1.56000898e+00                                 
 6.00203635e-06  7.51022512e-01  6.00203635e-06  6.86522994e-01  6.00203635e-06  7.33670163e-01  6.00203635e-06  0.00000000e+00  6.00203635e-06  1.83132268e+00  6.00203635e-06  6.58653354e-01  6.00203635e-06  1.05617879e+00  6.00203635e-06  1.56031206e+00                                 
 6.00210906e-06  7.51030027e-01  6.00210906e-06  6.86784999e-01  6.00210906e-06  7.25651140e-01  6.00210906e-06  0.00000000e+00  6.00210906e-06  1.79195866e+00  6.00210906e-06  6.62078737e-01  6.00210906e-06  9.82887295e-01  6.00210906e-06  1.56054916e+00                                 
 6.00225448e-06  7.51025367e-01  6.00225448e-06  6.87187970e-01  6.00225448e-06  7.21259750e-01  6.00225448e-06  0.00000000e+00  6.00225448e-06  1.80236226e+00  6.00225448e-06  6.66776384e-01  6.00225448e-06  8.71142816e-01  6.00225448e-06  1.56048352e+00                                 
 6.00246787e-06  7.51026696e-01  6.00246787e-06  6.87986014e-01  6.00246787e-06  7.10328580e-01  6.00246787e-06  0.00000000e+00  6.00246787e-06  1.79741972e+00  6.00246787e-06  6.74673000e-01  6.00246787e-06  7.64963148e-01  6.00246787e-06  1.56061945e+00                                 
 6.00269330e-06  7.51025038e-01  6.00269330e-06  6.88983184e-01  6.00269330e-06  7.00316893e-01  6.00269330e-06  0.00000000e+00  6.00269330e-06  1.80123092e+00  6.00269330e-06  6.84142207e-01  6.00269330e-06  7.18832071e-01  6.00269330e-06  1.56051710e+00                                 
 6.00290521e-06  7.51026070e-01  6.00290521e-06  6.89484821e-01  6.00290521e-06  6.96759214e-01  6.00290521e-06  0.00000000e+00  6.00290521e-06  1.79931605e+00  6.00290521e-06  6.87949207e-01  6.00290521e-06  7.02779140e-01  6.00290521e-06  1.56025655e+00                                 
 6.00319528e-06  7.51025504e-01  6.00319528e-06  6.89892507e-01  6.00319528e-06  6.94204839e-01  6.00319528e-06  0.00000000e+00  6.00319528e-06  1.80049063e+00  6.00319528e-06  6.91060343e-01  6.00319528e-06  6.96299616e-01  6.00319528e-06  1.55947874e+00                                 
 6.00349870e-06  7.51026260e-01  6.00349870e-06  6.89999699e-01  6.00349870e-06  6.94518541e-01  6.00349870e-06  0.00000000e+00  6.00349870e-06  1.79972769e+00  6.00349870e-06  6.91682826e-01  6.00349870e-06  6.94427863e-01  6.00349870e-06  1.55846716e+00                                 
 6.00403006e-06  7.51025939e-01  6.00403006e-06  6.90051937e-01  6.00403006e-06  6.94815588e-01  6.00403006e-06  0.00000000e+00  6.00403006e-06  1.80022781e+00  6.00403006e-06  6.92479214e-01  6.00403006e-06  6.94964617e-01  6.00403006e-06  1.55632251e+00                                 
 6.00476865e-06  7.51026506e-01  6.00476865e-06  6.89977263e-01  6.00476865e-06  6.96978015e-01  6.00476865e-06  0.00000000e+00  6.00476865e-06  1.79984197e+00  6.00476865e-06  6.92441641e-01  6.00476865e-06  6.96352362e-01  6.00476865e-06  1.55307239e+00                                 
 6.00624582e-06  7.51026050e-01  6.00624582e-06  6.89879145e-01  6.00624582e-06  7.00246208e-01  6.00624582e-06  0.00000000e+00  6.00624582e-06  1.80016092e+00  6.00624582e-06  6.92772884e-01  6.00624582e-06  7.00250791e-01  6.00624582e-06  1.54605050e+00                                 
 6.00920015e-06  7.51026431e-01  6.00920015e-06  6.89675432e-01  6.00920015e-06  7.08487863e-01  6.00920015e-06  0.00000000e+00  6.00920015e-06  1.79987097e+00  6.00920015e-06  6.92486953e-01  6.00920015e-06  7.07781526e-01  6.00920015e-06  1.53141111e+00                                 
 6.01510882e-06  7.51025990e-01  6.01510882e-06  6.89520266e-01  6.01510882e-06  7.23447867e-01  6.01510882e-06  0.00000000e+00  6.01510882e-06  1.80014590e+00  6.01510882e-06  6.92359486e-01  6.01510882e-06  7.23432964e-01  6.01510882e-06  1.50197101e+00                                 
 6.02692617e-06  7.51026434e-01  6.02692617e-06  6.89495392e-01  6.02692617e-06  7.53342085e-01  6.02692617e-06  0.00000000e+00  6.02692617e-06  1.79987703e+00  6.02692617e-06  6.91711201e-01  6.02692617e-06  7.52522629e-01  6.02692617e-06  1.44626488e+00                                 
 6.05042500e-06  7.51026001e-01  6.05042500e-06  6.89532662e-01  6.05042500e-06  8.06353615e-01  6.05042500e-06  0.00000000e+00  6.05042500e-06  1.80014078e+00  6.05042500e-06  6.91540579e-01  6.05042500e-06  8.06418157e-01  6.05042500e-06  1.34692354e+00                                 
 6.09742267e-06  7.51026439e-01  6.09742267e-06  6.89513308e-01  6.09742267e-06  8.95684414e-01  6.09742267e-06  0.00000000e+00  6.09742267e-06  1.79987498e+00  6.09742267e-06  6.91263974e-01  6.09742267e-06  8.93827910e-01  6.09742267e-06  1.17835946e+00                                 
 6.18323724e-06  7.51026003e-01  6.18323724e-06  6.89533954e-01  6.18323724e-06  1.00888895e+00  6.18323724e-06  0.00000000e+00  6.18323724e-06  1.80013450e+00  6.18323724e-06  6.91478138e-01  6.18323724e-06  1.00995346e+00  6.18323724e-06  1.02483024e+00                                 
 6.29217381e-06  7.51026438e-01  6.29217381e-06  6.89513408e-01  6.29217381e-06  1.09192038e+00  6.29217381e-06  0.00000000e+00  6.29217381e-06  1.79987033e+00  6.29217381e-06  6.91278574e-01  6.29217381e-06  1.08997700e+00  6.29217381e-06  1.06467529e+00                                 
