 time            v(vbep)         time            v(vben)         time            v(vout)         time            v(vphi1)        time            v(vphi2)        time            v(vref)         yes             currtemp       
 0.00000000e+00  7.26639867e-01  0.00000000e+00  6.75582550e-01  0.00000000e+00  9.98760807e-01  0.00000000e+00  0.00000000e+00  0.00000000e+00  1.79995427e+00  0.00000000e+00  6.75582550e-01  1.00000000e+00  6.00000000e+00 
 5.00000000e-12  7.26613069e-01  5.00000000e-12  6.75560327e-01  5.00000000e-12  9.99488069e-01  5.00000000e-12  1.80000000e-02  5.00000000e-12  1.80007817e+00  5.00000000e-12  6.75560327e-01                                 
 1.00000000e-11  7.26586986e-01  1.00000000e-11  6.75538677e-01  1.00000000e-11  1.00015496e+00  1.00000000e-11  3.60000000e-02  1.00000000e-11  1.80015263e+00  1.00000000e-11  6.75538677e-01                                 
 2.00000000e-11  7.26535258e-01  2.00000000e-11  6.75495544e-01  2.00000000e-11  1.00139196e+00  2.00000000e-11  7.20000000e-02  2.00000000e-11  1.80023790e+00  2.00000000e-11  6.75495544e-01                                 
 4.00000000e-11  7.26432561e-01  4.00000000e-11  6.75409619e-01  4.00000000e-11  1.00342348e+00  4.00000000e-11  1.44000000e-01  4.00000000e-11  1.80023696e+00  4.00000000e-11  6.75409619e-01                                 
 8.00000000e-11  7.26228191e-01  8.00000000e-11  6.75238554e-01  8.00000000e-11  1.00620951e+00  8.00000000e-11  2.88000000e-01  8.00000000e-11  1.80014613e+00  8.00000000e-11  6.75238554e-01                                 
 1.60000000e-10  7.25823902e-01  1.60000000e-10  6.74899560e-01  1.60000000e-10  1.00883403e+00  1.60000000e-10  5.76000000e-01  1.60000000e-10  1.80003830e+00  1.60000000e-10  6.74899560e-01                                 
 3.20000000e-10  7.25032095e-01  3.20000000e-10  6.74233689e-01  3.20000000e-10  9.99759955e-01  3.20000000e-10  1.15200000e+00  3.20000000e-10  1.80025226e+00  3.20000000e-10  6.74233689e-01                                 
 5.00000000e-10  7.24167106e-01  5.00000000e-10  6.73503204e-01  5.00000000e-10  1.08913403e+00  5.00000000e-10  1.80000000e+00  5.00000000e-10  1.32720282e-01  5.00000000e-10  6.73503204e-01                                 
 5.20778457e-10  7.24069141e-01  5.20778457e-10  6.73420256e-01  5.20778457e-10  1.11270177e+00  5.20778457e-10  1.80000000e+00  5.20778457e-10  3.10238547e-02  5.20778457e-10  6.73420256e-01                                 
 5.62335370e-10  7.23873877e-01  5.62335370e-10  6.73254834e-01  5.62335370e-10  1.15969703e+00  5.62335370e-10  1.80000000e+00  5.62335370e-10 -1.22606700e-02  5.62335370e-10  6.73254834e-01                                 
 6.45449197e-10  7.23487378e-01  6.45449197e-10  6.72926937e-01  6.45449197e-10  1.24559795e+00  6.45449197e-10  1.80000000e+00  6.45449197e-10  1.06267206e-02  6.45449197e-10  6.72926937e-01                                 
 7.65383635e-10  7.22938889e-01  7.65383635e-10  6.72460549e-01  7.65383635e-10  1.35724085e+00  7.65383635e-10  1.80000000e+00  7.65383635e-10 -8.27567126e-03  7.65383635e-10  6.72460549e-01                                 
 9.46019800e-10  7.22132539e-01  9.46019800e-10  6.71772659e-01  9.46019800e-10  1.49824123e+00  9.46019800e-10  1.80000000e+00  9.46019800e-10  8.26967857e-03  9.46019800e-10  6.71772659e-01                                 
 1.30729213e-09  7.20586056e-01  1.30729213e-09  6.70446106e-01  1.30729213e-09  1.68541599e+00  1.30729213e-09  1.80000000e+00  1.30729213e-09 -7.28018070e-03  1.30729213e-09  6.70446106e-01                                 
 1.71818250e-09  7.18926027e-01  1.71818250e-09  6.69011551e-01  1.71818250e-09  1.78718614e+00  1.71818250e-09  1.80000000e+00  1.71818250e-09  7.27676324e-03  1.71818250e-09  6.69011551e-01                                 
 2.08023100e-09  7.17542262e-01  2.08023100e-09  6.67807452e-01  2.08023100e-09  1.82143198e+00  2.08023100e-09  1.80000000e+00  2.08023100e-09 -6.77130430e-03  2.08023100e-09  6.67807452e-01                                 
 2.47292954e-09  7.16116430e-01  2.47292954e-09  6.66559132e-01  2.47292954e-09  1.83554646e+00  2.47292954e-09  1.80000000e+00  2.47292954e-09  6.54101459e-03  2.47292954e-09  6.66559132e-01                                 
 2.94814317e-09  7.14485027e-01  2.94814317e-09  6.65121631e-01  2.94814317e-09  1.83975627e+00  2.94814317e-09  1.80000000e+00  2.94814317e-09 -6.24913471e-03  2.94814317e-09  6.65121631e-01                                 
 3.65582540e-09  7.12223108e-01  3.65582540e-09  6.63112989e-01  3.65582540e-09  1.83983615e+00  3.65582540e-09  1.80000000e+00  3.65582540e-09  6.12113518e-03  3.65582540e-09  6.63112989e-01                                 
 4.67340473e-09  7.09269437e-01  4.67340473e-09  6.60463995e-01  4.67340473e-09  1.83683322e+00  4.67340473e-09  1.80000000e+00  4.67340473e-09 -5.98672288e-03  4.67340473e-09  6.60463995e-01                                 
 6.48519010e-09  7.04692923e-01  6.48519010e-09  6.56306159e-01  6.48519010e-09  1.83259219e+00  6.48519010e-09  1.80000000e+00  6.48519010e-09  5.94997018e-03  6.48519010e-09  6.56306159e-01                                 
 1.00895689e-08  6.97381995e-01  1.00895689e-08  6.49545437e-01  1.00895689e-08  1.82516411e+00  1.00895689e-08  1.80000000e+00  1.00895689e-08 -5.89630527e-03  1.00895689e-08  6.49545437e-01                                 
 1.61219104e-08  6.88378944e-01  1.61219104e-08  6.41045342e-01  1.61219104e-08  1.81501452e+00  1.61219104e-08  1.80000000e+00  1.61219104e-08  5.90399002e-03  1.61219104e-08  6.41045342e-01                                 
 1.77764959e-08  6.86405832e-01  1.77764959e-08  6.39157101e-01  1.77764959e-08  1.81214902e+00  1.77764959e-08  1.80000000e+00  1.77764959e-08 -5.81710645e-03  1.77764959e-08  6.39157101e-01                                 
 1.89141747e-08  6.85128668e-01  1.89141747e-08  6.37931845e-01  1.89141747e-08  1.81067528e+00  1.89141747e-08  1.80000000e+00  1.89141747e-08  5.74516708e-03  1.89141747e-08  6.37931845e-01                                 
 2.06879188e-08  6.83246234e-01  2.06879188e-08  6.36122551e-01  2.06879188e-08  1.80774134e+00  2.06879188e-08  1.80000000e+00  2.06879188e-08 -5.66578801e-03  2.06879188e-08  6.36122551e-01                                 
 2.38794312e-08  6.80130111e-01  2.38794312e-08  6.33122048e-01  2.38794312e-08  1.80328910e+00  2.38794312e-08  1.80000000e+00  2.38794312e-08  5.65376417e-03  2.38794312e-08  6.33122048e-01                                 
 2.89565954e-08  6.75690493e-01  2.89565954e-08  6.28848303e-01  2.89565954e-08  1.79622292e+00  2.89565954e-08  1.80000000e+00  2.89565954e-08 -5.61322923e-03  2.89565954e-08  6.28848303e-01                                 
 3.40008939e-08  6.71707956e-01  3.40008939e-08  6.25030585e-01  3.40008939e-08  1.79067546e+00  3.40008939e-08  1.80000000e+00  3.40008939e-08  5.61366546e-03  3.40008939e-08  6.25030585e-01                                 
 4.40894908e-08  6.64981231e-01  4.40894908e-08  6.18567508e-01  4.40894908e-08  1.78157160e+00  4.40894908e-08  1.80000000e+00  4.40894908e-08 -5.58247046e-03  4.40894908e-08  6.18567508e-01                                 
 5.41501594e-08  6.59348535e-01  5.41501594e-08  6.13167755e-01  5.41501594e-08  1.77033886e+00  5.41501594e-08  1.80000000e+00  5.41501594e-08  5.59348938e-03  5.41501594e-08  6.13167755e-01                                 
 6.74323506e-08  6.50782392e-01  6.74323506e-08  6.05354075e-01  6.74323506e-08  1.74564099e+00  6.74323506e-08  1.80000000e+00  6.74323506e-08 -5.56579330e-03  6.74323506e-08  6.05354075e-01                                 
 8.43366687e-08  6.42239528e-01  8.43366687e-08  5.97516311e-01  8.43366687e-08  1.71410832e+00  8.43366687e-08  1.80000000e+00  8.43366687e-08  5.58031603e-03  8.43366687e-08  5.97516311e-01                                 
 1.04082852e-07  6.33870743e-01  1.04082852e-07  5.89875084e-01  1.04082852e-07  1.68007487e+00  1.04082852e-07  1.80000000e+00  1.04082852e-07 -5.55446314e-03  1.04082852e-07  5.89875084e-01                                 
 1.32988470e-07  6.27165469e-01  1.32988470e-07  5.83366228e-01  1.32988470e-07  1.64138362e+00  1.32988470e-07  1.80000000e+00  1.32988470e-07  5.57262318e-03  1.32988470e-07  5.83366228e-01                                 
 1.70928297e-07  6.31053629e-01  1.70928297e-07  5.85147521e-01  1.70928297e-07  1.63027505e+00  1.70928297e-07  1.80000000e+00  1.70928297e-07 -5.54658965e-03  1.70928297e-07  5.85147521e-01                                 
 1.95192074e-07  6.27684842e-01  1.95192074e-07  5.81768010e-01  1.95192074e-07  1.60476199e+00  1.95192074e-07  1.80000000e+00  1.95192074e-07  5.56454332e-03  1.95192074e-07  5.81768010e-01                                 
 2.18300705e-07  6.19317839e-01  2.18300705e-07  5.74547285e-01  2.18300705e-07  1.57474830e+00  2.18300705e-07  1.80000000e+00  2.18300705e-07 -5.53892151e-03  2.18300705e-07  5.74547285e-01                                 
 2.41782986e-07  6.13920548e-01  2.41782986e-07  5.69739152e-01  2.41782986e-07  1.54399886e+00  2.41782986e-07  1.80000000e+00  2.41782986e-07  5.55627688e-03  2.41782986e-07  5.69739152e-01                                 
 2.66964136e-07  6.07694984e-01  2.66964136e-07  5.64301713e-01  2.66964136e-07  1.51440707e+00  2.66964136e-07  1.80000000e+00  2.66964136e-07 -5.53070290e-03  2.66964136e-07  5.64301713e-01                                 
 3.06079846e-07  5.97444955e-01  3.06079846e-07  5.55513845e-01  3.06079846e-07  1.46363847e+00  3.06079846e-07  1.80000000e+00  3.06079846e-07  5.54966928e-03  3.06079846e-07  5.55513845e-01                                 
 3.61033468e-07  5.86013495e-01  3.61033468e-07  5.45708935e-01  3.61033468e-07  1.39913356e+00  3.61033468e-07  1.80000000e+00  3.61033468e-07 -5.52615856e-03  3.61033468e-07  5.45708935e-01                                 
 4.25574946e-07  5.64136516e-01  4.25574946e-07  5.27729801e-01  4.25574946e-07  1.31120866e+00  4.25574946e-07  1.80000000e+00  4.25574946e-07  5.54592429e-03  4.25574946e-07  5.27729801e-01                                 
 4.90934567e-07  5.41864238e-01  4.90934567e-07  5.09649899e-01  4.90934567e-07  1.22544350e+00  4.90934567e-07  1.80000000e+00  4.90934567e-07 -5.52309855e-03  4.90934567e-07  5.09649899e-01                                 
 5.72130504e-07  5.08225625e-01  5.72130504e-07  4.82629134e-01  5.72130504e-07  1.10627424e+00  5.72130504e-07  1.80000000e+00  5.72130504e-07  5.54298917e-03  5.72130504e-07  4.82629134e-01                                 
 7.34522379e-07  7.82307030e-01  7.34522379e-07  7.29469313e-01  7.34522379e-07  1.20719436e+00  7.34522379e-07  1.80000000e+00  7.34522379e-07 -5.51405752e-03  7.34522379e-07  7.29469313e-01                                 
 7.53339683e-07  7.95914347e-01  7.53339683e-07  7.42603286e-01  7.53339683e-07  1.20080349e+00  7.53339683e-07  1.80000000e+00  7.53339683e-07 -2.37277349e-07  7.53339683e-07  7.42603286e-01                                 
 7.90974289e-07  8.15330903e-01  7.90974289e-07  7.60507406e-01  7.90974289e-07  1.18079493e+00  7.90974289e-07  1.80000000e+00  7.90974289e-07  1.58640217e-06  7.90974289e-07  7.60507406e-01                                 
 8.66243503e-07  8.45247420e-01  8.66243503e-07  7.85764686e-01  8.66243503e-07  1.13135861e+00  8.66243503e-07  1.80000000e+00  8.66243503e-07 -7.81809570e-07  8.66243503e-07  7.85764686e-01                                 
 9.20227951e-07  8.35339192e-01  9.20227951e-07  7.77836612e-01  9.20227951e-07  1.06616964e+00  9.20227951e-07  1.80000000e+00  9.20227951e-07 -6.88971119e-07  9.20227951e-07  7.77836612e-01                                 
 9.27551524e-07  8.27779338e-01  9.27551524e-07  7.71488110e-01  9.27551524e-07  1.05119542e+00  9.27551524e-07  1.80000000e+00  9.27551524e-07 -2.42645934e-06  9.27551524e-07  7.71488110e-01                                 
 9.42198670e-07  8.14023791e-01  9.42198670e-07  7.59394632e-01  9.42198670e-07  1.02205426e+00  9.42198670e-07  1.80000000e+00  9.42198670e-07 -2.14503152e-06  9.42198670e-07  7.59394632e-01                                 
 9.71492963e-07  8.04281310e-01  9.71492963e-07  7.50470054e-01  9.71492963e-07  9.81828214e-01  9.71492963e-07  1.80000000e+00  9.71492963e-07  5.07297769e-08  9.71492963e-07  7.50470054e-01                                 
 1.01080457e-06  8.13304108e-01  1.01080457e-06  7.58685793e-01  1.01080457e-06  9.53892810e-01  1.01080457e-06  1.80000000e+00  1.01080457e-06  2.66481603e-07  1.01080457e-06  7.58685793e-01                                 
 1.05301702e-06  8.21304436e-01  1.05301702e-06  7.65813374e-01  1.05301702e-06  9.26197981e-01  1.05301702e-06  1.80000000e+00  1.05301702e-06 -1.87657159e-08  1.05301702e-06  7.65813374e-01                                 
 1.11816404e-06  8.15939616e-01  1.11816404e-06  7.61082510e-01  1.11816404e-06  8.74203725e-01  1.11816404e-06  1.80000000e+00  1.11816404e-06 -6.84622817e-07  1.11816404e-06  7.61082510e-01                                 
 1.20888451e-06  8.11371874e-01  1.20888451e-06  7.56956021e-01  1.20888451e-06  8.16466760e-01  1.20888451e-06  1.80000000e+00  1.20888451e-06  2.48064013e-07  1.20888451e-06  7.56956021e-01                                 
 1.29701511e-06  8.20301640e-01  1.29701511e-06  7.64930582e-01  1.29701511e-06  7.91756349e-01  1.29701511e-06  1.80000000e+00  1.29701511e-06  7.93648433e-08  1.29701511e-06  7.64930582e-01                                 
 1.42573120e-06  8.12895442e-01  1.42573120e-06  7.58352179e-01  1.42573120e-06  7.60673765e-01  1.42573120e-06  1.80000000e+00  1.42573120e-06 -2.27928726e-07  1.42573120e-06  7.58352179e-01                                 
 1.55195717e-06  8.15523216e-01  1.55195717e-06  7.60684378e-01  1.55195717e-06  7.52911750e-01  1.55195717e-06  1.80000000e+00  1.55195717e-06  4.46030443e-07  1.55195717e-06  7.60684378e-01                                 
 1.57220764e-06  8.17405029e-01  1.57220764e-06  7.62370000e-01  1.57220764e-06  7.53776366e-01  1.57220764e-06  1.80000000e+00  1.57220764e-06  2.58950409e-07  1.57220764e-06  7.62370000e-01                                 
 1.61270860e-06  8.17516800e-01  1.61270860e-06  7.62479763e-01  1.61270860e-06  7.52214913e-01  1.61270860e-06  1.80000000e+00  1.61270860e-06 -8.19735382e-08  1.61270860e-06  7.62479763e-01                                 
 1.69371050e-06  8.13718016e-01  1.69371050e-06  7.59080443e-01  1.69371050e-06  7.49283844e-01  1.69371050e-06  1.80000000e+00  1.69371050e-06  1.01184340e-07  1.69371050e-06  7.59080443e-01                                 
 1.79876973e-06  8.16529729e-01  1.79876973e-06  7.61593477e-01  1.79876973e-06  7.62662977e-01  1.79876973e-06  1.80000000e+00  1.79876973e-06  2.58190832e-07  1.79876973e-06  7.61593477e-01                                 
 1.90762675e-06  8.15901308e-01  1.90762675e-06  7.61040333e-01  1.90762675e-06  7.62505143e-01  1.90762675e-06  1.80000000e+00  1.90762675e-06 -9.39364827e-08  1.90762675e-06  7.61040333e-01                                 
 2.03044557e-06  8.14680108e-01  2.03044557e-06  7.59940981e-01  2.03044557e-06  7.58512032e-01  2.03044557e-06  1.80000000e+00  2.03044557e-06  2.34461861e-07  2.03044557e-06  7.59940981e-01                                 
 2.20094383e-06  8.16812859e-01  2.20094383e-06  7.61850264e-01  2.20094383e-06  7.62830755e-01  2.20094383e-06  1.80000000e+00  2.20094383e-06  1.10885900e-08  2.20094383e-06  7.61850264e-01                                 
 2.37408311e-06  8.14560901e-01  2.37408311e-06  7.59837120e-01  2.37408311e-06  7.59371780e-01  2.37408311e-06  1.80000000e+00  2.37408311e-06  1.24554874e-07  2.37408311e-06  7.59837120e-01                                 
 2.61199977e-06  8.16526159e-01  2.61199977e-06  7.61592765e-01  2.61199977e-06  7.62016910e-01  2.61199977e-06  1.80000000e+00  2.61199977e-06  9.92068553e-08  2.61199977e-06  7.61592765e-01                                 
 2.96806812e-06  8.14938634e-01  2.96806812e-06  7.60177254e-01  2.96806812e-06  7.59976028e-01  2.96806812e-06  1.80000000e+00  2.96806812e-06  7.27428842e-08  2.96806812e-06  7.60177254e-01                                 
 3.52590753e-06  8.16224450e-01  3.52590753e-06  7.61322944e-01  3.52590753e-06  7.61628349e-01  3.52590753e-06  1.80000000e+00  3.52590753e-06  1.26658995e-07  3.52590753e-06  7.61322944e-01                                 
 4.39636239e-06  8.15152422e-01  4.39636239e-06  7.60368975e-01  4.39636239e-06  7.60226497e-01  4.39636239e-06  1.80000000e+00  4.39636239e-06  5.83405655e-08  4.39636239e-06  7.60368975e-01                                 
 5.39636239e-06  8.16066986e-01  5.39636239e-06  7.61182153e-01  5.39636239e-06  7.61451127e-01  5.39636239e-06  1.80000000e+00  5.39636239e-06  1.35456349e-07  5.39636239e-06  7.61182153e-01                                 
 6.39636239e-06  8.15302940e-01  6.39636239e-06  7.60503800e-01  6.39636239e-06  7.60391156e-01  6.39636239e-06  1.80000000e+00  6.39636239e-06  5.14010340e-08  6.39636239e-06  7.60503800e-01                                 
 7.39636239e-06  8.15917931e-01  7.39636239e-06  7.61048951e-01  7.39636239e-06  7.61291068e-01  7.39636239e-06  1.80000000e+00  7.39636239e-06  1.41228073e-07  7.39636239e-06  7.61048951e-01                                 
 8.39636239e-06  8.15453154e-01  8.39636239e-06  7.60638252e-01  8.39636239e-06  7.60549572e-01  8.39636239e-06  1.80000000e+00  8.39636239e-06  4.67922828e-08  8.39636239e-06  7.60638252e-01                                 
 9.39636239e-06  8.15770819e-01  9.39636239e-06  7.60917493e-01  9.39636239e-06  7.61137826e-01  9.39636239e-06  1.80000000e+00  9.39636239e-06  1.44684411e-07  9.39636239e-06  7.60917493e-01                                 
 1.00005000e-05  8.15644730e-01  1.00005000e-05  7.60809532e-01  1.00005000e-05  7.60746096e-01  1.00005000e-05  1.80000000e+00  1.00005000e-05  4.41839911e-08  1.00005000e-05  7.60809532e-01                                 
 1.00005500e-05  8.15642692e-01  1.00005500e-05  7.60807708e-01  1.00005500e-05  7.53840388e-01  1.00005500e-05  1.62000000e+00  1.00005500e-05 -1.05305991e-04  1.00005500e-05  7.60807708e-01                                 
 1.00006500e-05  8.15638682e-01  1.00006500e-05  7.60804103e-01  1.00006500e-05  7.44349869e-01  1.00006500e-05  1.26000000e+00  1.00006500e-05 -4.94948756e-05  1.00006500e-05  7.60804103e-01                                 
 1.00008500e-05  8.15630773e-01  1.00008500e-05  7.60797008e-01  1.00008500e-05  7.44321270e-01  1.00008500e-05  5.40000000e-01  1.00008500e-05 -8.50753648e-04  1.00008500e-05  7.60797008e-01                                 
 1.00010000e-05  8.15624840e-01  1.00010000e-05  7.60791707e-01  1.00010000e-05  7.54792812e-01  1.00010000e-05  0.00000000e+00  1.00010000e-05  1.49050297e+00  1.00010000e-05  7.60791707e-01                                 
 1.00010268e-05  8.15623819e-01  1.00010268e-05  7.60790778e-01  1.00010268e-05  7.64604726e-01  1.00010268e-05  0.00000000e+00  1.00010268e-05  1.68700745e+00  1.00010268e-05  7.60790778e-01                                 
 1.00010804e-05  8.15621713e-01  1.00010804e-05  7.60788897e-01  1.00010804e-05  7.87272977e-01  1.00010804e-05  0.00000000e+00  1.00010804e-05  1.82583722e+00  1.00010804e-05  7.60788897e-01                                 
 1.00011877e-05  8.15617358e-01  1.00011877e-05  7.60785044e-01  1.00011877e-05  8.17482356e-01  1.00011877e-05  0.00000000e+00  1.00011877e-05  1.78573192e+00  1.00011877e-05  7.60785044e-01                                 
 1.00013179e-05  8.15612126e-01  1.00013179e-05  7.60780354e-01  1.00013179e-05  8.30430879e-01  1.00013179e-05  0.00000000e+00  1.00013179e-05  1.80833872e+00  1.00013179e-05  7.60780354e-01                                 
