 time            v(vbep)         time            v(vben)         time            v(vout)         time            v(vphi1)        time            v(vphi2)        time            v(vref)         time            v(voutc)        time            v(voutcc)       yes             currtemp       
 0.00000000e+00  6.93919838e-01  0.00000000e+00  6.21049405e-01  0.00000000e+00  1.43605926e+00  0.00000000e+00  0.00000000e+00  0.00000000e+00  1.79999998e+00  0.00000000e+00  6.20605704e-01  0.00000000e+00  1.43605925e+00  0.00000000e+00  1.44423936e+00  1.00000000e+00  8.70000000e+01 
 5.00000000e-12  6.93941413e-01  5.00000000e-12  6.21104534e-01  5.00000000e-12  1.43666397e+00  5.00000000e-12  1.80000000e-02  5.00000000e-12  1.80018673e+00  5.00000000e-12  6.20992855e-01  5.00000000e-12  1.43640297e+00  5.00000000e-12  1.44425227e+00                                 
 1.00000000e-11  6.93950793e-01  1.00000000e-11  6.21140341e-01  1.00000000e-11  1.43709079e+00  1.00000000e-11  3.60000000e-02  1.00000000e-11  1.80027043e+00  1.00000000e-11  6.21295642e-01  1.00000000e-11  1.43667276e+00  1.00000000e-11  1.44425879e+00                                 
 2.00000000e-11  6.93956941e-01  2.00000000e-11  6.21189558e-01  2.00000000e-11  1.43769222e+00  2.00000000e-11  7.20000000e-02  2.00000000e-11  1.80032180e+00  2.00000000e-11  6.21768338e-01  2.00000000e-11  1.43709638e+00  2.00000000e-11  1.44426450e+00                                 
 4.00000000e-11  6.93944940e-01  4.00000000e-11  6.21223784e-01  4.00000000e-11  1.43805082e+00  4.00000000e-11  1.44000000e-01  4.00000000e-11  1.80018667e+00  4.00000000e-11  6.22220172e-01  4.00000000e-11  1.43751166e+00  4.00000000e-11  1.44425797e+00                                 
 8.00000000e-11  6.93932065e-01  8.00000000e-11  6.21228253e-01  8.00000000e-11  1.43788571e+00  8.00000000e-11  2.88000000e-01  8.00000000e-11  1.80002995e+00  8.00000000e-11  6.22369060e-01  8.00000000e-11  1.43766976e+00  8.00000000e-11  1.44424454e+00                                 
 1.60000000e-10  6.93931831e-01  1.60000000e-10  6.21212730e-01  1.60000000e-10  1.43739321e+00  1.60000000e-10  5.76000000e-01  1.60000000e-10  1.80000816e+00  1.60000000e-10  6.22190888e-01  1.60000000e-10  1.43752218e+00  1.60000000e-10  1.44423861e+00                                 
 3.20000000e-10  6.93864970e-01  3.20000000e-10  6.20767802e-01  3.20000000e-10  1.43403521e+00  3.20000000e-10  1.15200000e+00  3.20000000e-10  1.80070202e+00  3.20000000e-10  6.18371293e-01  3.20000000e-10  1.43441174e+00  3.20000000e-10  1.44420975e+00                                 
 5.00000000e-10  6.93885876e-01  5.00000000e-10  6.21316727e-01  5.00000000e-10  1.43283367e+00  5.00000000e-10  1.80000000e+00  5.00000000e-10  1.87418933e-01  5.00000000e-10  6.26825085e-01  5.00000000e-10  1.44193819e+00  5.00000000e-10  1.44431579e+00                                 
 5.22045003e-10  6.93893830e-01  5.22045003e-10  6.21327692e-01  5.22045003e-10  1.43203258e+00  5.22045003e-10  1.80000000e+00  5.22045003e-10  5.30766121e-02  5.22045003e-10  6.28600865e-01  5.22045003e-10  1.44289290e+00  5.22045003e-10  1.44429783e+00                                 
 5.66135008e-10  6.93999307e-01  5.66135008e-10  6.21371079e-01  5.66135008e-10  1.43125856e+00  5.66135008e-10  1.80000000e+00  5.66135008e-10 -1.77165789e-02  5.66135008e-10  6.31152414e-01  5.66135008e-10  1.44502274e+00  5.66135008e-10  1.44429035e+00                                 
 6.54315020e-10  6.94126667e-01  6.54315020e-10  6.21192900e-01  6.54315020e-10  1.42821246e+00  6.54315020e-10  1.80000000e+00  6.54315020e-10  1.34461502e-02  6.54315020e-10  6.31469426e-01  6.54315020e-10  1.44554545e+00  6.54315020e-10  1.44424012e+00                                 
 7.75413026e-10  6.94182828e-01  7.75413026e-10  6.21136095e-01  7.75413026e-10  1.42620620e+00  7.75413026e-10  1.80000000e+00  7.75413026e-10 -1.04270493e-02  7.75413026e-10  6.32880323e-01  7.75413026e-10  1.44660205e+00  7.75413026e-10  1.44425137e+00                                 
 9.56355390e-10  6.94252664e-01  9.56355390e-10  6.21104589e-01  9.56355390e-10  1.42463338e+00  9.56355390e-10  1.80000000e+00  9.56355390e-10  9.27335860e-03  9.56355390e-10  6.33529060e-01  9.56355390e-10  1.44733516e+00  9.56355390e-10  1.44423379e+00                                 
 1.30599250e-09  6.94199264e-01  1.30599250e-09  6.21036938e-01  1.30599250e-09  1.42205231e+00  1.30599250e-09  1.80000000e+00  1.30599250e-09 -8.44308469e-03  1.30599250e-09  6.32643790e-01  1.30599250e-09  1.44642413e+00  1.30599250e-09  1.44429650e+00                                 
 1.66456181e-09  6.94138955e-01  1.66456181e-09  6.21063869e-01  1.66456181e-09  1.42029625e+00  1.66456181e-09  1.80000000e+00  1.66456181e-09  7.93306537e-03  1.66456181e-09  6.31954644e-01  1.66456181e-09  1.44595075e+00  1.66456181e-09  1.44439706e+00                                 
 2.30948215e-09  6.93994482e-01  2.30948215e-09  6.21022377e-01  2.30948215e-09  1.41606365e+00  2.30948215e-09  1.80000000e+00  2.30948215e-09 -7.57294104e-03  2.30948215e-09  6.29751147e-01  2.30948215e-09  1.44389274e+00  2.30948215e-09  1.44462449e+00                                 
 3.15358441e-09  6.93924751e-01  3.15358441e-09  6.21054305e-01  3.15358441e-09  1.41093968e+00  3.15358441e-09  1.80000000e+00  3.15358441e-09  7.37579492e-03  3.15358441e-09  6.27946847e-01  3.15358441e-09  1.44243051e+00  3.15358441e-09  1.44491584e+00                                 
 4.62732638e-09  6.93851064e-01  4.62732638e-09  6.21014767e-01  4.62732638e-09  1.40044731e+00  4.62732638e-09  1.80000000e+00  4.62732638e-09 -7.21374842e-03  4.62732638e-09  6.24449377e-01  4.62732638e-09  1.43925408e+00  4.62732638e-09  1.44530163e+00                                 
 6.96199208e-09  6.93863383e-01  6.96199208e-09  6.21054937e-01  6.96199208e-09  1.38375923e+00  6.96199208e-09  1.80000000e+00  6.96199208e-09  7.17145054e-03  6.96199208e-09  6.21670911e-01  6.96199208e-09  1.43694807e+00  6.96199208e-09  1.44556787e+00                                 
 9.61751272e-09  6.93862048e-01  9.61751272e-09  6.21025144e-01  9.61751272e-09  1.36273881e+00  9.61751272e-09  1.80000000e+00  9.61751272e-09 -7.06161492e-03  9.61751272e-09  6.19495179e-01  9.61751272e-09  1.43493307e+00  9.61751272e-09  1.44550719e+00                                 
 1.19588678e-08  6.93897514e-01  1.19588678e-08  6.21065727e-01  1.19588678e-08  1.34380496e+00  1.19588678e-08  1.80000000e+00  1.19588678e-08  7.02628550e-03  1.19588678e-08  6.19266576e-01  1.19588678e-08  1.43484059e+00  1.19588678e-08  1.44530555e+00                                 
 1.45135551e-08  6.93892619e-01  1.45135551e-08  6.21030755e-01  1.45135551e-08  1.32159874e+00  1.45135551e-08  1.80000000e+00  1.45135551e-08 -6.91303004e-03  1.45135551e-08  6.18652095e-01  1.45135551e-08  1.43417933e+00  1.45135551e-08  1.44503622e+00                                 
 1.70946468e-08  6.93920838e-01  1.70946468e-08  6.21068141e-01  1.70946468e-08  1.29930751e+00  1.70946468e-08  1.80000000e+00  1.70946468e-08  6.88769620e-03  1.70946468e-08  6.19098863e-01  1.70946468e-08  1.43466989e+00  1.70946468e-08  1.44477497e+00                                 
 2.07446841e-08  6.93910733e-01  2.07446841e-08  6.21031419e-01  2.07446841e-08  1.26637923e+00  2.07446841e-08  1.80000000e+00  2.07446841e-08 -6.79583207e-03  2.07446841e-08  6.18906316e-01  2.07446841e-08  1.43437616e+00  2.07446841e-08  1.44445133e+00                                 
 2.50522914e-08  6.93933259e-01  2.50522914e-08  6.21068358e-01  2.50522914e-08  1.22778777e+00  2.50522914e-08  1.80000000e+00  2.50522914e-08  6.79927194e-03  2.50522914e-08  6.19620529e-01  2.50522914e-08  1.43509890e+00  2.50522914e-08  1.44417117e+00                                 
 3.12306079e-08  6.93916256e-01  3.12306079e-08  6.21031388e-01  3.12306079e-08  1.17128231e+00  3.12306079e-08  1.80000000e+00  3.12306079e-08 -6.72714424e-03  3.12306079e-08  6.19588158e-01  3.12306079e-08  1.43495123e+00  3.12306079e-08  1.44391605e+00                                 
 3.96079081e-08  6.93932976e-01  3.96079081e-08  6.21068242e-01  3.96079081e-08  1.09548486e+00  3.96079081e-08  1.80000000e+00  3.96079081e-08  6.75070706e-03  3.96079081e-08  6.20340903e-01  3.96079081e-08  1.43571516e+00  3.96079081e-08  1.44377632e+00                                 
 5.43410532e-08  6.93911817e-01  5.43410532e-08  6.21031048e-01  5.43410532e-08  9.62365099e-01  5.43410532e-08  1.80000000e+00  5.43410532e-08 -6.69464898e-03  5.43410532e-08  6.20235743e-01  5.43410532e-08  1.43551635e+00  5.43410532e-08  1.44377135e+00                                 
 7.64145090e-08  6.93927888e-01  7.64145090e-08  6.21067769e-01  7.64145090e-08  7.70909521e-01  7.64145090e-08  1.80000000e+00  7.64145090e-08  6.73229785e-03  7.64145090e-08  6.20774144e-01  7.64145090e-08  1.43610196e+00  7.64145090e-08  1.44391455e+00                                 
 9.71581324e-08  6.93916798e-01  9.71581324e-08  6.21031307e-01  9.71581324e-08  6.48397014e-01  9.71581324e-08  1.80000000e+00  9.71581324e-08 -6.67393467e-03  9.71581324e-08  6.20399125e-01  9.71581324e-08  1.43566734e+00  9.71581324e-08  1.44400730e+00                                 
 1.12888084e-07  6.93924649e-01  1.12888084e-07  6.21067821e-01  1.12888084e-07  6.24634917e-01  1.12888084e-07  1.80000000e+00  1.12888084e-07  6.71775901e-03  1.12888084e-07  6.20817025e-01  1.12888084e-07  1.43614223e+00  1.12888084e-07  1.44405087e+00                                 
 1.27542875e-07  6.93910793e-01  1.27542875e-07  6.21030735e-01  1.27542875e-07  6.21757649e-01  1.27542875e-07  1.80000000e+00  1.27542875e-07 -6.65138204e-03  1.27542875e-07  6.20403909e-01  1.27542875e-07  1.43567235e+00  1.27542875e-07  1.44406652e+00                                 
 1.44544458e-07  6.93927678e-01  1.44544458e-07  6.21067976e-01  1.44544458e-07  6.20347220e-01  1.44544458e-07  1.80000000e+00  1.44544458e-07  6.69656801e-03  1.44544458e-07  6.20810789e-01  1.44544458e-07  1.43613634e+00  1.44544458e-07  1.44407973e+00                                 
 1.60654798e-07  6.93911469e-01  1.60654798e-07  6.21030813e-01  1.60654798e-07  6.20334791e-01  1.60654798e-07  1.80000000e+00  1.60654798e-07 -6.63128251e-03  1.60654798e-07  6.20401845e-01  1.60654798e-07  1.43566993e+00  1.60654798e-07  1.44407885e+00                                 
 1.92875478e-07  6.93928190e-01  1.92875478e-07  6.21067962e-01  1.92875478e-07  6.20095011e-01  1.92875478e-07  1.80000000e+00  1.92875478e-07  6.68100176e-03  1.92875478e-07  6.20809772e-01  1.92875478e-07  1.43613391e+00  1.92875478e-07  1.44408427e+00                                 
 2.57316838e-07  6.93911458e-01  2.57316838e-07  6.21030838e-01  2.57316838e-07  6.20219755e-01  2.57316838e-07  1.80000000e+00  2.57316838e-07 -6.62345322e-03  2.57316838e-07  6.20401537e-01  2.57316838e-07  1.43566674e+00  2.57316838e-07  1.44407848e+00                                 
 3.70634608e-07  6.93928234e-01  3.70634608e-07  6.21067953e-01  3.70634608e-07  6.20114809e-01  3.70634608e-07  1.80000000e+00  3.70634608e-07  6.67694826e-03  3.70634608e-07  6.20809771e-01  3.70634608e-07  1.43612832e+00  3.70634608e-07  1.44407899e+00                                 
 5.97270147e-07  6.93911434e-01  5.97270147e-07  6.21030843e-01  5.97270147e-07  6.20211165e-01  5.97270147e-07  1.80000000e+00  5.97270147e-07 -6.62126988e-03  5.97270147e-07  6.20401537e-01  5.97270147e-07  1.43565611e+00  5.97270147e-07  1.44406780e+00                                 
 1.05054123e-06  6.93928246e-01  1.05054123e-06  6.21067951e-01  1.05054123e-06  6.20118732e-01  1.05054123e-06  1.80000000e+00  1.05054123e-06  6.67583875e-03  1.05054123e-06  6.20809771e-01  1.05054123e-06  1.43610702e+00  1.05054123e-06  1.44405773e+00                                 
 1.95708338e-06  6.93911427e-01  1.95708338e-06  6.21030844e-01  1.95708338e-06  6.20209134e-01  1.95708338e-06  1.80000000e+00  1.95708338e-06 -6.62072421e-03  1.95708338e-06  6.20401537e-01  1.95708338e-06  1.43561355e+00  1.95708338e-06  1.44402528e+00                                 
 2.95708338e-06  6.93928250e-01  2.95708338e-06  6.21067950e-01  2.95708338e-06  6.20120557e-01  2.95708338e-06  1.80000000e+00  2.95708338e-06  6.67550381e-03  2.95708338e-06  6.20809772e-01  2.95708338e-06  1.43604736e+00  2.95708338e-06  1.44399815e+00                                 
 3.95708338e-06  6.93911423e-01  3.95708338e-06  6.21030844e-01  3.95708338e-06  6.20208202e-01  3.95708338e-06  1.80000000e+00  3.95708338e-06 -6.62052871e-03  3.95708338e-06  6.20401537e-01  3.95708338e-06  1.43555095e+00  3.95708338e-06  1.44396276e+00                                 
 4.95708338e-06  6.93928254e-01  4.95708338e-06  6.21067950e-01  4.95708338e-06  6.20121721e-01  4.95708338e-06  1.80000000e+00  4.95708338e-06  6.67517119e-03  4.95708338e-06  6.20809772e-01  4.95708338e-06  1.43598473e+00  4.95708338e-06  1.44393561e+00                                 
 5.95708338e-06  6.93911420e-01  5.95708338e-06  6.21030845e-01  5.95708338e-06  6.20206941e-01  5.95708338e-06  1.80000000e+00  5.95708338e-06 -6.62019890e-03  5.95708338e-06  6.20401537e-01  5.95708338e-06  1.43548834e+00  5.95708338e-06  1.44390023e+00                                 
 6.95708338e-06  6.93928258e-01  6.95708338e-06  6.21067949e-01  6.95708338e-06  6.20122842e-01  6.95708338e-06  1.80000000e+00  6.95708338e-06  6.67483792e-03  6.95708338e-06  6.20809772e-01  6.95708338e-06  1.43592213e+00  6.95708338e-06  1.44387310e+00                                 
 7.95708338e-06  6.93911416e-01  7.95708338e-06  6.21030846e-01  7.95708338e-06  6.20205695e-01  7.95708338e-06  1.80000000e+00  7.95708338e-06 -6.61986913e-03  7.95708338e-06  6.20401537e-01  7.95708338e-06  1.43542576e+00  7.95708338e-06  1.44383772e+00                                 
 8.95708338e-06  6.93928261e-01  8.95708338e-06  6.21067949e-01  8.95708338e-06  6.20123948e-01  8.95708338e-06  1.80000000e+00  8.95708338e-06  6.67450467e-03  8.95708338e-06  6.20809772e-01  8.95708338e-06  1.43585956e+00  8.95708338e-06  1.44381061e+00                                 
 9.95708338e-06  6.93911412e-01  9.95708338e-06  6.21030846e-01  9.95708338e-06  6.20204462e-01  9.95708338e-06  1.80000000e+00  9.95708338e-06 -6.61953937e-03  9.95708338e-06  6.20401536e-01  9.95708338e-06  1.43536320e+00  9.95708338e-06  1.44377523e+00                                 
 1.00005000e-05  6.93928305e-01  1.00005000e-05  6.21067941e-01  1.00005000e-05  6.20136693e-01  1.00005000e-05  1.80000000e+00  1.00005000e-05  6.67050311e-03  1.00005000e-05  6.20809774e-01  1.00005000e-05  1.43582689e+00  1.00005000e-05  1.44377803e+00                                 
 1.00005500e-05  6.93882078e-01  1.00005500e-05  6.20858589e-01  1.00005500e-05  6.18307053e-01  1.00005500e-05  1.62000000e+00  1.00005500e-05  6.51477797e-04  1.00005500e-05  6.19142957e-01  1.00005500e-05  1.43431751e+00  1.00005500e-05  1.44375809e+00                                 
 1.00006500e-05  6.93905039e-01  1.00006500e-05  6.20823082e-01  1.00006500e-05  6.18132511e-01  1.00006500e-05  1.26000000e+00  1.00006500e-05 -5.54687444e-04  1.00006500e-05  6.18628411e-01  1.00006500e-05  1.43385805e+00  1.00006500e-05  1.44377685e+00                                 
 1.00008500e-05  6.93963125e-01  1.00008500e-05  6.20999491e-01  1.00008500e-05  6.20342086e-01  1.00008500e-05  5.40000000e-01  1.00008500e-05  4.15442744e-02  1.00008500e-05  6.19092882e-01  1.00008500e-05  1.43223030e+00  1.00008500e-05  1.44376318e+00                                 
 1.00010000e-05  6.93899905e-01  1.00010000e-05  6.20389901e-01  1.00010000e-05  6.41191083e-01  1.00010000e-05  0.00000000e+00  1.00010000e-05  1.54951350e+00  1.00010000e-05  6.12481836e-01  1.00010000e-05  1.37530680e+00  1.00010000e-05  1.44329773e+00                                 
 1.00010248e-05  6.93918576e-01  1.00010248e-05  6.19971489e-01  1.00010248e-05  6.47063354e-01  1.00010248e-05  0.00000000e+00  1.00010248e-05  1.70373618e+00  1.00010248e-05  6.07476790e-01  1.00010248e-05  1.34610604e+00  1.00010248e-05  1.44307193e+00                                 
 1.00010743e-05  6.93923819e-01  1.00010743e-05  6.19230524e-01  1.00010743e-05  6.52737287e-01  1.00010743e-05  0.00000000e+00  1.00010743e-05  1.81851178e+00  1.00010743e-05  5.98469154e-01  1.00010743e-05  1.28246427e+00  1.00010743e-05  1.44291844e+00                                 
 1.00011733e-05  6.93917400e-01  1.00011733e-05  6.19079060e-01  1.00011733e-05  6.48531128e-01  1.00011733e-05  0.00000000e+00  1.00011733e-05  1.78814161e+00  1.00011733e-05  5.96625420e-01  1.00011733e-05  1.17174985e+00  1.00011733e-05  1.44348988e+00                                 
 1.00013043e-05  6.93922010e-01  1.00013043e-05  6.19337231e-01  1.00013043e-05  6.45704226e-01  1.00013043e-05  0.00000000e+00  1.00013043e-05  1.80636406e+00  1.00013043e-05  6.00100784e-01  1.00013043e-05  1.05641439e+00  1.00013043e-05  1.44388699e+00                                 
 1.00015219e-05  6.93917256e-01  1.00015219e-05  6.19491449e-01  1.00015219e-05  6.41998471e-01  1.00015219e-05  0.00000000e+00  1.00015219e-05  1.79422251e+00  1.00015219e-05  6.00804009e-01  1.00015219e-05  8.97215978e-01  1.00015219e-05  1.44411817e+00                                 
 1.00017956e-05  6.93921371e-01  1.00017956e-05  6.20166590e-01  1.00017956e-05  6.35014802e-01  1.00017956e-05  0.00000000e+00  1.00017956e-05  1.80398938e+00  1.00017956e-05  6.07553530e-01  1.00017956e-05  7.61923925e-01  1.00017956e-05  1.44393620e+00                                 
 1.00022037e-05  6.93917723e-01  1.00022037e-05  6.20909795e-01  1.00022037e-05  6.26519395e-01  1.00022037e-05  0.00000000e+00  1.00022037e-05  1.79612943e+00  1.00022037e-05  6.14556431e-01  1.00022037e-05  6.57816474e-01  1.00022037e-05  1.44275896e+00                                 
 1.00026209e-05  6.93921348e-01  1.00026209e-05  6.21443281e-01  1.00026209e-05  6.22330414e-01  1.00026209e-05  0.00000000e+00  1.00026209e-05  1.80329685e+00  1.00026209e-05  6.20307401e-01  1.00026209e-05  6.29881127e-01  1.00026209e-05  1.44047367e+00                                 
 1.00030340e-05  6.93918113e-01  1.00030340e-05  6.21458408e-01  1.00030340e-05  6.22955174e-01  1.00030340e-05  0.00000000e+00  1.00030340e-05  1.79713305e+00  1.00030340e-05  6.20570464e-01  1.00030340e-05  6.23163781e-01  1.00030340e-05  1.43768875e+00                                 
 1.00034368e-05  6.93921244e-01  1.00034368e-05  6.21531650e-01  1.00034368e-05  6.23191380e-01  1.00034368e-05  0.00000000e+00  1.00034368e-05  1.80249404e+00  1.00034368e-05  6.22062131e-01  1.00034368e-05  6.23825814e-01  1.00034368e-05  1.43473354e+00                                 
 1.00040985e-05  6.93918373e-01  1.00040985e-05  6.21401912e-01  1.00040985e-05  6.25747515e-01  1.00040985e-05  0.00000000e+00  1.00040985e-05  1.79772400e+00  1.00040985e-05  6.21391077e-01  1.00040985e-05  6.24366879e-01  1.00040985e-05  1.42967225e+00                                 
 1.00052348e-05  6.93921211e-01  1.00052348e-05  6.21362135e-01  1.00052348e-05  6.28800209e-01  1.00052348e-05  0.00000000e+00  1.00052348e-05  1.80217186e+00  1.00052348e-05  6.22297530e-01  1.00052348e-05  6.28777860e-01  1.00052348e-05  1.42056287e+00                                 
 1.00075072e-05  6.93918467e-01  1.00075072e-05  6.21140009e-01  1.00075072e-05  6.36645928e-01  1.00075072e-05  0.00000000e+00  1.00075072e-05  1.79789155e+00  1.00075072e-05  6.21385740e-01  1.00075072e-05  6.35189113e-01  1.00075072e-05  1.40150282e+00                                 
 1.00120520e-05  6.93921200e-01  1.00120520e-05  6.21075958e-01  1.00120520e-05  6.50385268e-01  1.00120520e-05  0.00000000e+00  1.00120520e-05  1.80209031e+00  1.00120520e-05  6.21916186e-01  1.00120520e-05  6.50290273e-01  1.00120520e-05  1.36202542e+00                                 
