 time            v(vbep)         time            v(vben)         time            v(vout)         time            v(vphi1)        time            v(vphi2)        time            v(vref)         yes             currtemp       
 0.00000000e+00  7.39554496e-01  0.00000000e+00  6.89411581e-01  0.00000000e+00  1.07629154e+00  0.00000000e+00  0.00000000e+00  0.00000000e+00  1.79994755e+00  0.00000000e+00  6.89411581e-01  1.00000000e+00  1.00000000e+00 
 5.00000000e-12  7.39523889e-01  5.00000000e-12  6.89386273e-01  5.00000000e-12  1.07702990e+00  5.00000000e-12  1.80000000e-02  5.00000000e-12  1.80007017e+00  5.00000000e-12  6.89386273e-01                                 
 1.00000000e-11  7.39494262e-01  1.00000000e-11  6.89361678e-01  1.00000000e-11  1.07770941e+00  1.00000000e-11  3.60000000e-02  1.00000000e-11  1.80014394e+00  1.00000000e-11  6.89361678e-01                                 
 2.00000000e-11  7.39435637e-01  2.00000000e-11  6.89312701e-01  2.00000000e-11  1.07897620e+00  2.00000000e-11  7.20000000e-02  2.00000000e-11  1.80022840e+00  2.00000000e-11  6.89312701e-01                                 
 4.00000000e-11  7.39319468e-01  4.00000000e-11  6.89215180e-01  4.00000000e-11  1.08108381e+00  4.00000000e-11  1.44000000e-01  4.00000000e-11  1.80022883e+00  4.00000000e-11  6.89215180e-01                                 
 8.00000000e-11  7.39088422e-01  8.00000000e-11  6.89021147e-01  8.00000000e-11  1.08405383e+00  8.00000000e-11  2.88000000e-01  8.00000000e-11  1.80014406e+00  8.00000000e-11  6.89021147e-01                                 
 1.60000000e-10  7.38632011e-01  1.60000000e-10  6.88637116e-01  1.60000000e-10  1.08681054e+00  1.60000000e-10  5.76000000e-01  1.60000000e-10  1.80003563e+00  1.60000000e-10  6.88637116e-01                                 
 3.20000000e-10  7.37740450e-01  3.20000000e-10  6.87884584e-01  3.20000000e-10  1.07730653e+00  3.20000000e-10  1.15200000e+00  3.20000000e-10  1.80027784e+00  3.20000000e-10  6.87884584e-01                                 
 5.00000000e-10  7.36770050e-01  5.00000000e-10  6.87061770e-01  5.00000000e-10  1.15883022e+00  5.00000000e-10  1.80000000e+00  5.00000000e-10  1.29945474e-01  5.00000000e-10  6.87061770e-01                                 
 5.20664438e-10  7.36661005e-01  5.20664438e-10  6.86969051e-01  5.20664438e-10  1.18067147e+00  5.20664438e-10  1.80000000e+00  5.20664438e-10  3.02503488e-02  5.20664438e-10  6.86969051e-01                                 
 5.61993313e-10  7.36443741e-01  5.61993313e-10  6.86784203e-01  5.61993313e-10  1.22425231e+00  5.61993313e-10  1.80000000e+00  5.61993313e-10 -1.20442603e-02  5.61993313e-10  6.86784203e-01                                 
 6.44651064e-10  7.36014192e-01  6.44651064e-10  6.86418193e-01  6.44651064e-10  1.30336608e+00  6.44651064e-10  1.80000000e+00  6.44651064e-10  1.03966695e-02  6.44651064e-10  6.86418193e-01                                 
 7.64689869e-10  7.35401900e-01  7.64689869e-10  6.85895197e-01  7.64689869e-10  1.40580532e+00  7.64689869e-10  1.80000000e+00  7.64689869e-10 -8.18173584e-03  7.64689869e-10  6.85895197e-01                                 
 9.44220564e-10  7.34510468e-01  9.44220564e-10  6.85131127e-01  9.44220564e-10  1.53289823e+00  9.44220564e-10  1.80000000e+00  9.44220564e-10  8.10884502e-03  9.44220564e-10  6.85131127e-01                                 
 1.30328195e-09  7.32808360e-01  1.30328195e-09  6.83663735e-01  1.30328195e-09  1.69950071e+00  1.30328195e-09  1.80000000e+00  1.30328195e-09 -7.19511667e-03  1.30328195e-09  6.83663735e-01                                 
 1.68974610e-09  7.31086747e-01  1.68974610e-09  6.82168177e-01  1.68974610e-09  1.78579242e+00  1.68974610e-09  1.80000000e+00  1.68974610e-09  7.14900692e-03  1.68974610e-09  6.82168177e-01                                 
 2.10371663e-09  7.29355499e-01  2.10371663e-09  6.80653015e-01  2.10371663e-09  1.82104040e+00  2.10371663e-09  1.80000000e+00  2.10371663e-09 -6.71101559e-03  2.10371663e-09  6.80653015e-01                                 
 2.48023773e-09  7.27871682e-01  2.48023773e-09  6.79345607e-01  2.48023773e-09  1.83199049e+00  2.48023773e-09  1.80000000e+00  2.48023773e-09  6.46568795e-03  2.48023773e-09  6.79345607e-01                                 
 3.01500756e-09  7.25894621e-01  3.01500756e-09  6.77591582e-01  3.01500756e-09  1.83546343e+00  3.01500756e-09  1.80000000e+00  3.01500756e-09 -6.21077294e-03  3.01500756e-09  6.77591582e-01                                 
 3.71495809e-09  7.23508672e-01  3.71495809e-09  6.75457088e-01  3.71495809e-09  1.83483691e+00  3.71495809e-09  1.80000000e+00  3.71495809e-09  6.08220660e-03  3.71495809e-09  6.75457088e-01                                 
 4.90496447e-09  7.19881743e-01  4.90496447e-09  6.72177829e-01  4.90496447e-09  1.83124603e+00  4.90496447e-09  1.80000000e+00  4.90496447e-09 -5.96633559e-03  4.90496447e-09  6.72177829e-01                                 
 6.80751670e-09  7.14946142e-01  6.80751670e-09  6.67652894e-01  6.80751670e-09  1.82681433e+00  6.80751670e-09  1.80000000e+00  6.80751670e-09  5.93299844e-03  6.80751670e-09  6.67652894e-01                                 
 1.06126212e-08  7.07173165e-01  1.06126212e-08  6.60400623e-01  1.06126212e-08  1.81934378e+00  1.06126212e-08  1.80000000e+00  1.06126212e-08 -5.88179857e-03  1.06126212e-08  6.60400623e-01                                 
 1.65416504e-08  6.98405907e-01  1.65416504e-08  6.52053978e-01  1.65416504e-08  1.81169489e+00  1.65416504e-08  1.80000000e+00  1.65416504e-08  5.88967522e-03  1.65416504e-08  6.52053978e-01                                 
 1.85516062e-08  6.96062178e-01  1.85516062e-08  6.49792903e-01  1.85516062e-08  1.80939086e+00  1.85516062e-08  1.80000000e+00  1.85516062e-08 -5.81427231e-03  1.85516062e-08  6.49792903e-01                                 
 1.97847560e-08  6.94728262e-01  1.97847560e-08  6.48501800e-01  1.97847560e-08  1.80848510e+00  1.97847560e-08  1.80000000e+00  1.97847560e-08  5.75183631e-03  1.97847560e-08  6.48501800e-01                                 
 2.16692640e-08  6.92818775e-01  2.16692640e-08  6.46648710e-01  2.16692640e-08  1.80659896e+00  2.16692640e-08  1.80000000e+00  2.16692640e-08 -5.67559620e-03  2.16692640e-08  6.46648710e-01                                 
 2.47410556e-08  6.89989804e-01  2.47410556e-08  6.43893315e-01  2.47410556e-08  1.80443684e+00  2.47410556e-08  1.80000000e+00  2.47410556e-08  5.66392629e-03  2.47410556e-08  6.43893315e-01                                 
 2.95966358e-08  6.86086071e-01  2.95966358e-08  6.40073147e-01  2.95966358e-08  1.80081700e+00  2.95966358e-08  1.80000000e+00  2.95966358e-08 -5.62163762e-03  2.95966358e-08  6.40073147e-01                                 
 3.47002594e-08  6.82560191e-01  3.47002594e-08  6.36606655e-01  3.47002594e-08  1.79759189e+00  3.47002594e-08  1.80000000e+00  3.47002594e-08  5.62343496e-03  3.47002594e-08  6.36606655e-01                                 
 4.14112710e-08  6.78565730e-01  4.14112710e-08  6.32666005e-01  4.14112710e-08  1.79121365e+00  4.14112710e-08  1.80000000e+00  4.14112710e-08 -5.58703771e-03  4.14112710e-08  6.32666005e-01                                 
 5.48332941e-08  6.71805774e-01  5.48332941e-08  6.26019861e-01  5.48332941e-08  1.77529013e+00  5.48332941e-08  1.80000000e+00  5.48332941e-08  5.60094838e-03  5.48332941e-08  6.26019861e-01                                 
 6.86241014e-08  6.65310141e-01  6.86241014e-08  6.19808535e-01  6.86241014e-08  1.76177311e+00  6.86241014e-08  1.80000000e+00  6.86241014e-08 -5.57202481e-03  6.86241014e-08  6.19808535e-01                                 
 8.08083060e-08  6.60485033e-01  8.08083060e-08  6.15193104e-01  8.08083060e-08  1.75545248e+00  8.08083060e-08  1.80000000e+00  8.08083060e-08  5.58615931e-03  8.08083060e-08  6.15193104e-01                                 
 9.44847266e-08  6.53821088e-01  9.44847266e-08  6.09148466e-01  9.44847266e-08  1.73207877e+00  9.44847266e-08  1.80000000e+00  9.44847266e-08 -5.55814381e-03  9.44847266e-08  6.09148466e-01                                 
 1.09299671e-07  6.47176066e-01  1.09299671e-07  6.03169385e-01  1.09299671e-07  1.70678950e+00  1.09299671e-07  1.80000000e+00  1.09299671e-07  5.57241499e-03  1.09299671e-07  6.03169385e-01                                 
 1.24169020e-07  6.41267173e-01  1.24169020e-07  5.97866275e-01  1.24169020e-07  1.68155298e+00  1.24169020e-07  1.80000000e+00  1.24169020e-07 -5.54479967e-03  1.24169020e-07  5.97866275e-01                                 
 1.50421111e-07  6.32487122e-01  1.50421111e-07  5.89985196e-01  1.50421111e-07  1.63816775e+00  1.50421111e-07  1.80000000e+00  1.50421111e-07  5.56224410e-03  1.50421111e-07  5.89985196e-01                                 
 1.75799750e-07  6.35235413e-01  1.75799750e-07  5.91386067e-01  1.75799750e-07  1.63378100e+00  1.75799750e-07  1.80000000e+00  1.75799750e-07 -5.53475306e-03  1.75799750e-07  5.91386067e-01                                 
 1.98918334e-07  6.38181505e-01  1.98918334e-07  5.93069255e-01  1.98918334e-07  1.61964929e+00  1.98918334e-07  1.80000000e+00  1.98918334e-07  5.55366970e-03  1.98918334e-07  5.93069255e-01                                 
 2.20871187e-07  6.32420196e-01  2.20871187e-07  5.87948534e-01  2.20871187e-07  1.59183203e+00  2.20871187e-07  1.80000000e+00  2.20871187e-07 -5.52757177e-03  2.20871187e-07  5.87948534e-01                                 
 2.43097558e-07  6.26724065e-01  2.43097558e-07  5.82932161e-01  2.43097558e-07  1.56372539e+00  2.43097558e-07  1.80000000e+00  2.43097558e-07  5.54481789e-03  2.43097558e-07  5.82932161e-01                                 
 2.64852847e-07  6.22088902e-01  2.64852847e-07  5.78816946e-01  2.64852847e-07  1.53848611e+00  2.64852847e-07  1.80000000e+00  2.64852847e-07 -5.51854289e-03  2.64852847e-07  5.78816946e-01                                 
 3.07961038e-07  6.11483780e-01  3.07961038e-07  5.69660955e-01  3.07961038e-07  1.48510697e+00  3.07961038e-07  1.80000000e+00  3.07961038e-07  5.53793525e-03  3.07961038e-07  5.69660955e-01                                 
 3.64348876e-07  5.99878835e-01  3.64348876e-07  5.59683727e-01  3.64348876e-07  1.41855751e+00  3.64348876e-07  1.80000000e+00  3.64348876e-07 -5.51443344e-03  3.64348876e-07  5.59683727e-01                                 
 4.47431769e-07  5.74408817e-01  4.47431769e-07  5.38684461e-01  4.47431769e-07  1.31022417e+00  4.47431769e-07  1.80000000e+00  4.47431769e-07  5.53474843e-03  4.47431769e-07  5.38684461e-01                                 
 5.24833491e-07  5.54508531e-01  5.24833491e-07  5.22439836e-01  5.24833491e-07  1.21363773e+00  5.24833491e-07  1.80000000e+00  5.24833491e-07 -5.51186264e-03  5.24833491e-07  5.22439836e-01                                 
 6.11184732e-07  5.20979213e-01  6.11184732e-07  4.95492844e-01  6.11184732e-07  1.09057983e+00  6.11184732e-07  1.80000000e+00  6.11184732e-07  5.53201431e-03  6.11184732e-07  4.95492844e-01                                 
 6.24461639e-07  5.15214109e-01  6.24461639e-07  4.90880081e-01  6.24461639e-07  1.07135386e+00  6.24461639e-07  1.80000000e+00  6.24461639e-07  7.92825824e-07  6.24461639e-07  4.90880081e-01                                 
 6.51015453e-07  5.04338233e-01  6.51015453e-07  4.82183100e-01  6.51015453e-07  1.03213823e+00  6.51015453e-07  1.80000000e+00  6.51015453e-07 -2.78875329e-06  6.51015453e-07  4.82183100e-01                                 
 7.04123080e-07  5.47177602e-01  7.04123080e-07  5.16456713e-01  7.04123080e-07  1.01778237e+00  7.04123080e-07  1.80000000e+00  7.04123080e-07  4.31407453e-06  7.04123080e-07  5.16456713e-01                                 
 7.89128134e-07  7.94003264e-01  7.89128134e-07  7.41859972e-01  7.89128134e-07  1.17491501e+00  7.89128134e-07  1.80000000e+00  7.89128134e-07  5.10675707e-06  7.89128134e-07  7.41859972e-01                                 
 8.74620088e-07  8.88250057e-01  8.74620088e-07  8.20008718e-01  8.74620088e-07  1.17988224e+00  8.74620088e-07  1.80000000e+00  8.74620088e-07 -1.60263776e-06  8.74620088e-07  8.20008718e-01                                 
 8.82756950e-07  8.99012333e-01  8.82756950e-07  8.26912283e-01  8.82756950e-07  1.17925953e+00  8.82756950e-07  1.80000000e+00  8.82756950e-07  1.66762975e-06  8.82756950e-07  8.26912283e-01                                 
 8.99030674e-07  9.22786071e-01  8.99030674e-07  8.41063559e-01  8.99030674e-07  1.18286537e+00  8.99030674e-07  1.80000000e+00  8.99030674e-07  2.26090268e-06  8.99030674e-07  8.41063559e-01                                 
 9.26993674e-07  9.58973028e-01  9.26993674e-07  8.60038846e-01  9.26993674e-07  1.18704320e+00  9.26993674e-07  1.80000000e+00  9.26993674e-07  1.01250860e-06  9.26993674e-07  8.60038846e-01                                 
 9.56201817e-07  9.60563338e-01  9.56201817e-07  8.61108651e-01  9.56201817e-07  1.16136365e+00  9.56201817e-07  1.80000000e+00  9.56201817e-07 -1.50196053e-06  9.56201817e-07  8.61108651e-01                                 
 9.85059341e-07  9.57542626e-01  9.85059341e-07  8.59421031e-01  9.85059341e-07  1.12829444e+00  9.85059341e-07  1.80000000e+00  9.85059341e-07  2.87744876e-07  9.85059341e-07  8.59421031e-01                                 
 1.02155025e-06  9.60413998e-01  1.02155025e-06  8.60967551e-01  1.02155025e-06  1.09279000e+00  1.02155025e-06  1.80000000e+00  1.02155025e-06 -8.49179000e-07  1.02155025e-06  8.60967551e-01                                 
 1.07246359e-06  9.56769640e-01  1.07246359e-06  8.59103297e-01  1.07246359e-06  1.03670279e+00  1.07246359e-06  1.80000000e+00  1.07246359e-06 -1.62039233e-07  1.07246359e-06  8.59103297e-01                                 
 1.12943190e-06  9.58787481e-01  1.12943190e-06  8.60155055e-01  1.12943190e-06  9.97409210e-01  1.12943190e-06  1.80000000e+00  1.12943190e-06 -1.58827437e-07  1.12943190e-06  8.60155055e-01                                 
 1.13927982e-06  9.57522604e-01  1.13927982e-06  8.59535102e-01  1.13927982e-06  9.93878585e-01  1.13927982e-06  1.80000000e+00  1.13927982e-06 -1.63760608e-07  1.13927982e-06  8.59535102e-01                                 
 1.15897566e-06  9.56732423e-01  1.15897566e-06  8.59125336e-01  1.15897566e-06  9.82981339e-01  1.15897566e-06  1.80000000e+00  1.15897566e-06 -2.56444257e-07  1.15897566e-06  8.59125336e-01                                 
 1.19836734e-06  9.56565542e-01  1.19836734e-06  8.59059767e-01  1.19836734e-06  9.56976092e-01  1.19836734e-06  1.80000000e+00  1.19836734e-06 -1.99534923e-07  1.19836734e-06  8.59059767e-01                                 
 1.26417689e-06  9.55363687e-01  1.26417689e-06  8.58466226e-01  1.26417689e-06  9.27085603e-01  1.26417689e-06  1.80000000e+00  1.26417689e-06 -5.00134505e-08  1.26417689e-06  8.58466226e-01                                 
 1.35051149e-06  9.54446226e-01  1.35051149e-06  8.58026225e-01  1.35051149e-06  8.95654501e-01  1.35051149e-06  1.80000000e+00  1.35051149e-06 -1.14058253e-07  1.35051149e-06  8.58026225e-01                                 
 1.47642461e-06  9.52526394e-01  1.47642461e-06  8.57077244e-01  1.47642461e-06  8.70124921e-01  1.47642461e-06  1.80000000e+00  1.47642461e-06  8.10871516e-08  1.47642461e-06  8.57077244e-01                                 
 1.68280495e-06  9.49983293e-01  1.68280495e-06  8.55819921e-01  1.68280495e-06  8.56105194e-01  1.68280495e-06  1.80000000e+00  1.68280495e-06 -2.34324031e-08  1.68280495e-06  8.55819921e-01                                 
 1.91295003e-06  9.46756186e-01  1.91295003e-06  8.54191135e-01  1.91295003e-06  8.53766907e-01  1.91295003e-06  1.80000000e+00  1.91295003e-06  1.13672026e-07  1.91295003e-06  8.54191135e-01                                 
 2.14289857e-06  9.43901999e-01  2.14289857e-06  8.52737962e-01  2.14289857e-06  8.52288297e-01  2.14289857e-06  1.80000000e+00  2.14289857e-06 -2.01866852e-08  2.14289857e-06  8.52737962e-01                                 
 2.53615996e-06  9.38298657e-01  2.53615996e-06  8.49815430e-01  2.53615996e-06  8.49376769e-01  2.53615996e-06  1.80000000e+00  2.53615996e-06  1.09875003e-07  2.53615996e-06  8.49815430e-01                                 
 2.63447531e-06  9.36905652e-01  2.63447531e-06  8.49079629e-01  2.63447531e-06  8.48656552e-01  2.63447531e-06  1.80000000e+00  2.63447531e-06  4.41761313e-08  2.63447531e-06  8.49079629e-01                                 
 2.83110600e-06  9.33781056e-01  2.83110600e-06  8.47408154e-01  2.83110600e-06  8.46930229e-01  2.83110600e-06  1.80000000e+00  2.83110600e-06  3.94498192e-08  2.83110600e-06  8.47408154e-01                                 
 3.22436740e-06  9.24627754e-01  3.22436740e-06  8.42369172e-01  3.22436740e-06  8.41680541e-01  3.22436740e-06  1.80000000e+00  3.22436740e-06  2.22497432e-08  3.22436740e-06  8.42369172e-01                                 
 3.32268274e-06  9.20659121e-01  3.32268274e-06  8.40118423e-01  3.32268274e-06  8.39242910e-01  3.32268274e-06  1.80000000e+00  3.32268274e-06  4.82761323e-09  3.32268274e-06  8.40118423e-01                                 
 3.51931344e-06  8.39386595e-01  3.51931344e-06  7.83633514e-01  3.51931344e-06  7.76806081e-01  3.51931344e-06  1.80000000e+00  3.51931344e-06 -1.24160197e-06  3.51931344e-06  7.83633514e-01                                 
 3.53726697e-06  8.28516707e-01  3.53726697e-06  7.74162255e-01  3.53726697e-06  7.68400244e-01  3.53726697e-06  1.80000000e+00  3.53726697e-06 -1.03957834e-06  3.53726697e-06  7.74162255e-01                                 
 3.57317402e-06  8.16593312e-01  3.57317402e-06  7.63417101e-01  3.57317402e-06  7.60340781e-01  3.57317402e-06  1.80000000e+00  3.57317402e-06 -3.42796621e-08  3.57317402e-06  7.63417101e-01                                 
 3.62861227e-06  8.22087231e-01  3.62861227e-06  7.68405233e-01  3.62861227e-06  7.68119840e-01  3.62861227e-06  1.80000000e+00  3.62861227e-06  5.61624002e-07  3.62861227e-06  7.68405233e-01                                 
 3.69131892e-06  8.26760796e-01  3.69131892e-06  7.72562302e-01  3.69131892e-06  7.72902267e-01  3.69131892e-06  1.80000000e+00  3.69131892e-06 -1.49784873e-07  3.69131892e-06  7.72562302e-01                                 
 3.76518090e-06  8.20592701e-01  3.76518090e-06  7.67078721e-01  3.76518090e-06  7.66969044e-01  3.76518090e-06  1.80000000e+00  3.76518090e-06 -3.44537864e-08  3.76518090e-06  7.67078721e-01                                 
 3.88231020e-06  8.23188635e-01  3.88231020e-06  7.69373520e-01  3.88231020e-06  7.69544293e-01  3.88231020e-06  1.80000000e+00  3.88231020e-06  2.46181477e-07  3.88231020e-06  7.69373520e-01                                 
 3.99639168e-06  8.24144482e-01  3.99639168e-06  7.70265398e-01  3.99639168e-06  7.70318082e-01  3.99639168e-06  1.80000000e+00  3.99639168e-06 -8.51700143e-08  3.99639168e-06  7.70265398e-01                                 
 4.21108734e-06  8.21207872e-01  4.21108734e-06  7.67597762e-01  4.21108734e-06  7.67632544e-01  4.21108734e-06  1.80000000e+00  4.21108734e-06  1.62491879e-07  4.21108734e-06  7.67597762e-01                                 
 4.48906404e-06  8.24850286e-01  4.48906404e-06  7.70890708e-01  4.48906404e-06  7.71012315e-01  4.48906404e-06  1.80000000e+00  4.48906404e-06  1.59457794e-08  4.48906404e-06  7.70890708e-01                                 
 4.86704420e-06  8.20938943e-01  4.86704420e-06  7.67358374e-01  4.86704420e-06  7.67353044e-01  4.86704420e-06  1.80000000e+00  4.86704420e-06  7.40446453e-08  4.86704420e-06  7.67358374e-01                                 
 5.37581001e-06  8.24863214e-01  5.37581001e-06  7.70900079e-01  5.37581001e-06  7.71043020e-01  5.37581001e-06  1.80000000e+00  5.37581001e-06  8.40471573e-08  5.37581001e-06  7.70900079e-01                                 
