 time            v(vbep)         time            v(vben)         time            v(vout)         time            v(vphi1)        time            v(vphi2)        time            v(vref)         yes             currtemp       
 0.00000000e+00  7.07022842e-01  0.00000000e+00  6.54507517e-01  0.00000000e+00  3.99714135e-01  0.00000000e+00  0.00000000e+00  0.00000000e+00  1.79995677e+00  0.00000000e+00  6.54507517e-01  1.00000000e+00  1.40000000e+01 
 5.00000000e-12  7.06999893e-01  5.00000000e-12  6.54488445e-01  5.00000000e-12  4.00227614e-01  5.00000000e-12  1.80000000e-02  5.00000000e-12  1.80006122e+00  5.00000000e-12  6.54488445e-01                                 
 1.00000000e-11  7.06977439e-01  1.00000000e-11  6.54469825e-01  1.00000000e-11  4.00652024e-01  1.00000000e-11  3.60000000e-02  1.00000000e-11  1.80012059e+00  1.00000000e-11  6.54469825e-01                                 
 2.00000000e-11  7.06932817e-01  2.00000000e-11  6.54432714e-01  2.00000000e-11  4.01365933e-01  2.00000000e-11  7.20000000e-02  2.00000000e-11  1.80018308e+00  2.00000000e-11  6.54432714e-01                                 
 4.00000000e-11  7.06844068e-01  4.00000000e-11  6.54358745e-01  4.00000000e-11  4.02250092e-01  4.00000000e-11  1.44000000e-01  4.00000000e-11  1.80016503e+00  4.00000000e-11  6.54358745e-01                                 
 8.00000000e-11  7.06667330e-01  8.00000000e-11  6.54211377e-01  8.00000000e-11  4.03075305e-01  8.00000000e-11  2.88000000e-01  8.00000000e-11  1.80009408e+00  8.00000000e-11  6.54211377e-01                                 
 1.60000000e-10  7.06317120e-01  1.60000000e-10  6.53918923e-01  1.60000000e-10  4.03833831e-01  1.60000000e-10  5.76000000e-01  1.60000000e-10  1.80004868e+00  1.60000000e-10  6.53918923e-01                                 
 3.20000000e-10  7.05629080e-01  3.20000000e-10  6.53342843e-01  3.20000000e-10  3.97674484e-01  3.20000000e-10  1.15200000e+00  3.20000000e-10  1.80012795e+00  3.20000000e-10  6.53342843e-01                                 
 5.00000000e-10  7.04874130e-01  5.00000000e-10  6.52708367e-01  5.00000000e-10  5.87859850e-01  5.00000000e-10  1.80000000e+00  5.00000000e-10  1.42864601e-01  5.00000000e-10  6.52708367e-01                                 
 5.21146586e-10  7.04786871e-01  5.21146586e-10  6.52634859e-01  5.21146586e-10  6.32735778e-01  5.21146586e-10  1.80000000e+00  5.21146586e-10  3.15036664e-02  5.21146586e-10  6.52634859e-01                                 
 5.63439759e-10  7.04612871e-01  5.63439759e-10  6.52488211e-01  5.63439759e-10  7.15830622e-01  5.63439759e-10  1.80000000e+00  5.63439759e-10 -1.28226600e-02  5.63439759e-10  6.52488211e-01                                 
 6.48026105e-10  7.04268005e-01  6.48026105e-10  6.52197177e-01  6.48026105e-10  8.51482514e-01  6.48026105e-10  1.80000000e+00  6.48026105e-10  1.14246021e-02  6.48026105e-10  6.52197177e-01                                 
 7.65575324e-10  7.03795520e-01  7.65575324e-10  6.51797628e-01  7.65575324e-10  1.00489543e+00  7.65575324e-10  1.80000000e+00  7.65575324e-10 -8.73883312e-03  7.65575324e-10  6.51797628e-01                                 
 9.49439957e-10  7.03071676e-01  9.49439957e-10  6.51183714e-01  9.49439957e-10  1.20578158e+00  9.49439957e-10  1.80000000e+00  9.49439957e-10  9.01765254e-03  9.49439957e-10  6.51183714e-01                                 
 1.30276695e-09  7.01729588e-01  1.30276695e-09  6.50039799e-01  1.30276695e-09  1.49355179e+00  1.30276695e-09  1.80000000e+00  1.30276695e-09 -7.68913958e-03  1.30276695e-09  6.50039799e-01                                 
 1.85931357e-09  6.99734624e-01  1.85931357e-09  6.48326157e-01  1.85931357e-09  1.72857555e+00  1.85931357e-09  1.80000000e+00  1.85931357e-09  7.95384696e-03  1.85931357e-09  6.48326157e-01                                 
 2.21000124e-09  6.98546404e-01  2.21000124e-09  6.47297889e-01  2.21000124e-09  1.77989185e+00  2.21000124e-09  1.80000000e+00  2.21000124e-09 -7.34371991e-03  2.21000124e-09  6.47297889e-01                                 
 2.56893739e-09  6.97379585e-01  2.56893739e-09  6.46282879e-01  2.56893739e-09  1.80196100e+00  2.56893739e-09  1.80000000e+00  2.56893739e-09  7.09898534e-03  2.56893739e-09  6.46282879e-01                                 
 2.96351100e-09  6.96149891e-01  2.96351100e-09  6.45207685e-01  2.96351100e-09  1.81061948e+00  2.96351100e-09  1.80000000e+00  2.96351100e-09 -6.71716233e-03  2.96351100e-09  6.45207685e-01                                 
 3.58622087e-09  6.94310791e-01  3.58622087e-09  6.43589592e-01  3.58622087e-09  1.81400429e+00  3.58622087e-09  1.80000000e+00  3.58622087e-09  6.56933505e-03  3.58622087e-09  6.43589592e-01                                 
 4.37253075e-09  6.92146360e-01  4.37253075e-09  6.41670308e-01  4.37253075e-09  1.81233011e+00  4.37253075e-09  1.80000000e+00  4.37253075e-09 -6.38956123e-03  4.37253075e-09  6.41670308e-01                                 
 5.72527452e-09  6.88765145e-01  5.72527452e-09  6.38642285e-01  5.72527452e-09  1.80911060e+00  5.72527452e-09  1.80000000e+00  5.72527452e-09  6.33336985e-03  5.72527452e-09  6.38642285e-01                                 
 7.86481364e-09  6.84110342e-01  7.86481364e-09  6.34419722e-01  7.86481364e-09  1.80383147e+00  7.86481364e-09  1.80000000e+00  7.86481364e-09 -6.25420709e-03  7.86481364e-09  6.34419722e-01                                 
 1.21438919e-08  6.76506891e-01  1.21438919e-08  6.27415230e-01  1.21438919e-08  1.79502187e+00  1.21438919e-08  1.80000000e+00  1.21438919e-08  6.25740154e-03  1.21438919e-08  6.27415230e-01                                 
 1.49935696e-08  6.72349102e-01  1.49935696e-08  6.23535587e-01  1.49935696e-08  1.78910462e+00  1.49935696e-08  1.80000000e+00  1.49935696e-08 -6.19124586e-03  1.49935696e-08  6.23535587e-01                                 
 1.66163008e-08  6.70199681e-01  1.66163008e-08  6.21521582e-01  1.66163008e-08  1.78654428e+00  1.66163008e-08  1.80000000e+00  1.66163008e-08  6.14739226e-03  1.66163008e-08  6.21521582e-01                                 
 1.82222205e-08  6.68195278e-01  1.82222205e-08  6.19640135e-01  1.82222205e-08  1.78332574e+00  1.82222205e-08  1.80000000e+00  1.82222205e-08 -6.05536551e-03  1.82222205e-08  6.19640135e-01                                 
 2.00142654e-08  6.66081641e-01  2.00142654e-08  6.17653768e-01  2.00142654e-08  1.78028721e+00  2.00142654e-08  1.80000000e+00  2.00142654e-08  6.01764167e-03  2.00142654e-08  6.17653768e-01                                 
 2.30977473e-08  6.62694942e-01  2.30977473e-08  6.14468624e-01  2.30977473e-08  1.77384110e+00  2.30977473e-08  1.80000000e+00  2.30977473e-08 -5.96050922e-03  2.30977473e-08  6.14468624e-01                                 
 2.59229590e-08  6.59825297e-01  2.59229590e-08  6.11769622e-01  2.59229590e-08  1.76787668e+00  2.59229590e-08  1.80000000e+00  2.59229590e-08  5.94457463e-03  2.59229590e-08  6.11769622e-01                                 
 3.11598885e-08  6.54957726e-01  3.11598885e-08  6.07196880e-01  3.11598885e-08  1.75595311e+00  3.11598885e-08  1.80000000e+00  3.11598885e-08 -5.90255804e-03  3.11598885e-08  6.07196880e-01                                 
 3.63709378e-08  6.50587702e-01  3.63709378e-08  6.03100985e-01  3.63709378e-08  1.74523903e+00  3.63709378e-08  1.80000000e+00  3.63709378e-08  5.90432227e-03  3.63709378e-08  6.03100985e-01                                 
 4.67930364e-08  6.42900011e-01  4.67930364e-08  5.95919855e-01  4.67930364e-08  1.72258640e+00  4.67930364e-08  1.80000000e+00  4.67930364e-08 -5.87238528e-03  4.67930364e-08  5.95919855e-01                                 
 6.40532966e-08  6.32681283e-01  6.40532966e-08  5.86385111e-01  6.40532966e-08  1.68780869e+00  6.40532966e-08  1.80000000e+00  6.40532966e-08  5.88864197e-03  6.40532966e-08  5.86385111e-01                                 
 8.34178737e-08  6.25700509e-01  8.34178737e-08  5.79591958e-01  8.34178737e-08  1.65751097e+00  8.34178737e-08  1.80000000e+00  8.34178737e-08 -5.85997250e-03  8.34178737e-08  5.79591958e-01                                 
 1.06709585e-07  6.28288341e-01  1.06709585e-07  5.80395173e-01  1.06709585e-07  1.66224505e+00  1.06709585e-07  1.80000000e+00  1.06709585e-07  5.88157848e-03  1.06709585e-07  5.80395173e-01                                 
 1.23507818e-07  6.28233447e-01  1.23507818e-07  5.79600453e-01  1.23507818e-07  1.64668868e+00  1.23507818e-07  1.80000000e+00  1.23507818e-07 -5.85087620e-03  1.23507818e-07  5.79600453e-01                                 
 1.39796215e-07  6.23488121e-01  1.39796215e-07  5.75206437e-01  1.39796215e-07  1.62529159e+00  1.39796215e-07  1.80000000e+00  1.39796215e-07  5.86810618e-03  1.39796215e-07  5.75206437e-01                                 
 1.54632154e-07  6.20450605e-01  1.54632154e-07  5.72273326e-01  1.54632154e-07  1.60532809e+00  1.54632154e-07  1.80000000e+00  1.54632154e-07 -5.83746180e-03  1.54632154e-07  5.72273326e-01                                 
 1.70745030e-07  6.16155834e-01  1.70745030e-07  5.68348738e-01  1.70745030e-07  1.58734742e+00  1.70745030e-07  1.80000000e+00  1.70745030e-07  5.85481635e-03  1.70745030e-07  5.68348738e-01                                 
 1.98264100e-07  6.07651643e-01  1.98264100e-07  5.60817408e-01  1.98264100e-07  1.55034485e+00  1.98264100e-07  1.80000000e+00  1.98264100e-07 -5.82768792e-03  1.98264100e-07  5.60817408e-01                                 
 2.39692261e-07  5.95955658e-01  2.39692261e-07  5.50550275e-01  2.39692261e-07  1.49982596e+00  2.39692261e-07  1.80000000e+00  2.39692261e-07  5.84876163e-03  2.39692261e-07  5.50550275e-01                                 
 3.02783279e-07  5.78573068e-01  3.02783279e-07  5.35612275e-01  3.02783279e-07  1.41804889e+00  3.02783279e-07  1.80000000e+00  3.02783279e-07 -5.82354327e-03  3.02783279e-07  5.35612275e-01                                 
 4.28965316e-07  5.38392879e-01  4.28965316e-07  5.02350585e-01  4.28965316e-07  1.25370502e+00  4.28965316e-07  1.80000000e+00  4.28965316e-07  5.84630718e-03  4.28965316e-07  5.02350585e-01                                 
 4.60510825e-07  5.26342565e-01  4.60510825e-07  4.92618555e-01  4.60510825e-07  1.20874766e+00  4.60510825e-07  1.80000000e+00  4.60510825e-07 -6.78911237e-08  4.60510825e-07  4.92618555e-01                                 
 5.23601843e-07  4.98092549e-01  5.23601843e-07  4.69908908e-01  5.23601843e-07  1.11605584e+00  5.23601843e-07  1.80000000e+00  5.23601843e-07 -1.84487631e-06  5.23601843e-07  4.69908908e-01                                 
 5.39374598e-07  4.90582600e-01  5.39374598e-07  4.63898526e-01  5.39374598e-07  1.09219952e+00  5.39374598e-07  1.80000000e+00  5.39374598e-07 -9.87072169e-07  5.39374598e-07  4.63898526e-01                                 
 5.70920107e-07  4.79747409e-01  5.70920107e-07  4.55233902e-01  5.70920107e-07  1.04824340e+00  5.70920107e-07  1.80000000e+00  5.70920107e-07 -6.10654403e-07  5.70920107e-07  4.55233902e-01                                 
 6.34011126e-07  7.25540827e-01  6.34011126e-07  6.70214782e-01  6.34011126e-07  1.22099089e+00  6.34011126e-07  1.80000000e+00  6.34011126e-07  1.19873180e-05  6.34011126e-07  6.70214782e-01                                 
 6.97466338e-07  8.06246865e-01  6.97466338e-07  7.49391052e-01  6.97466338e-07  1.23781763e+00  6.97466338e-07  1.80000000e+00  6.97466338e-07 -7.66999653e-06  6.97466338e-07  7.49391052e-01                                 
 7.60103109e-07  8.23800002e-01  7.60103109e-07  7.64424875e-01  7.60103109e-07  1.18502479e+00  7.60103109e-07  1.80000000e+00  7.60103109e-07  7.93995449e-06  7.60103109e-07  7.64424875e-01                                 
 7.70154762e-07  8.24333833e-01  7.70154762e-07  7.64870585e-01  7.70154762e-07  1.17770306e+00  7.70154762e-07  1.80000000e+00  7.70154762e-07 -4.63020389e-08  7.70154762e-07  7.64870585e-01                                 
 7.90258068e-07  8.24634892e-01  7.90258068e-07  7.65124582e-01  7.90258068e-07  1.15769549e+00  7.90258068e-07  1.80000000e+00  7.90258068e-07 -5.32049437e-07  7.90258068e-07  7.65124582e-01                                 
 8.22133584e-07  8.25773955e-01  8.22133584e-07  7.66050290e-01  8.22133584e-07  1.12526382e+00  8.22133584e-07  1.80000000e+00  8.22133584e-07 -1.26328276e-08  8.22133584e-07  7.66050290e-01                                 
 8.57089062e-07  8.16898469e-01  8.57089062e-07  7.58698099e-01  8.57089062e-07  1.08095955e+00  8.57089062e-07  1.80000000e+00  8.57089062e-07 -1.55358846e-06  8.57089062e-07  7.58698099e-01                                 
 9.05348529e-07  7.87477149e-01  9.05348529e-07  7.32394315e-01  9.05348529e-07  1.00205578e+00  9.05348529e-07  1.80000000e+00  9.05348529e-07 -1.37076719e-06  9.05348529e-07  7.32394315e-01                                 
 9.50662821e-07  7.86415549e-01  9.50662821e-07  7.31345896e-01  9.50662821e-07  9.57967971e-01  9.50662821e-07  1.80000000e+00  9.50662821e-07  7.67636995e-07  9.50662821e-07  7.31345896e-01                                 
 1.00939986e-06  8.12581389e-01  1.00939986e-06  7.54932652e-01  1.00939986e-06  9.31971368e-01  1.00939986e-06  1.80000000e+00  1.00939986e-06  4.68670987e-07  1.00939986e-06  7.54932652e-01                                 
 1.06333468e-06  8.14472494e-01  1.06333468e-06  7.56609353e-01  1.06333468e-06  8.93492848e-01  1.06333468e-06  1.80000000e+00  1.06333468e-06 -6.20934631e-07  1.06333468e-06  7.56609353e-01                                 
 1.07161573e-06  8.10930085e-01  1.07161573e-06  7.53556020e-01  1.07161573e-06  8.84816610e-01  1.07161573e-06  1.80000000e+00  1.07161573e-06 -8.61131021e-07  1.07161573e-06  7.53556020e-01                                 
 1.08817782e-06  8.02824562e-01  1.08817782e-06  7.46417288e-01  1.08817782e-06  8.66660733e-01  1.08817782e-06  1.80000000e+00  1.08817782e-06 -1.07176475e-06  1.08817782e-06  7.46417288e-01                                 
 1.12130201e-06  7.94801151e-01  1.12130201e-06  7.39125618e-01  1.12130201e-06  8.38505013e-01  1.12130201e-06  1.80000000e+00  1.12130201e-06  5.12545341e-08  1.12130201e-06  7.39125618e-01                                 
 1.17527910e-06  8.04056531e-01  1.17527910e-06  7.47470632e-01  1.17527910e-06  8.16714883e-01  1.17527910e-06  1.80000000e+00  1.17527910e-06  4.84148491e-07  1.17527910e-06  7.47470632e-01                                 
 1.24285414e-06  8.08747754e-01  1.24285414e-06  7.51631923e-01  1.24285414e-06  7.92289194e-01  1.24285414e-06  1.80000000e+00  1.24285414e-06 -1.96019623e-07  1.24285414e-06  7.51631923e-01                                 
 1.31415401e-06  8.01201027e-01  1.31415401e-06  7.44938986e-01  1.31415401e-06  7.65575418e-01  1.31415401e-06  1.80000000e+00  1.31415401e-06 -1.94748611e-08  1.31415401e-06  7.44938986e-01                                 
 1.42033508e-06  8.03109894e-01  1.42033508e-06  7.46633164e-01  1.42033508e-06  7.50241838e-01  1.42033508e-06  1.80000000e+00  1.42033508e-06  3.21081389e-07  1.42033508e-06  7.46633164e-01                                 
 1.43404126e-06  8.04898212e-01  1.43404126e-06  7.48225853e-01  1.43404126e-06  7.50475389e-01  1.43404126e-06  1.80000000e+00  1.43404126e-06  3.66597705e-07  1.43404126e-06  7.48225853e-01                                 
 1.46145361e-06  8.07011324e-01  1.46145361e-06  7.50099780e-01  1.46145361e-06  7.49785558e-01  1.46145361e-06  1.80000000e+00  1.46145361e-06  1.86019458e-07  1.46145361e-06  7.50099780e-01                                 
 1.51627833e-06  8.04277328e-01  1.51627833e-06  7.47689113e-01  1.51627833e-06  7.42801942e-01  1.51627833e-06  1.80000000e+00  1.51627833e-06 -6.60806405e-08  1.51627833e-06  7.47689113e-01                                 
 1.62162495e-06  8.01945063e-01  1.62162495e-06  7.45594686e-01  1.62162495e-06  7.39036564e-01  1.62162495e-06  1.80000000e+00  1.62162495e-06  3.26080850e-07  1.62162495e-06  7.45594686e-01                                 
 1.72340961e-06  8.06206288e-01  1.72340961e-06  7.49391472e-01  1.72340961e-06  7.50477032e-01  1.72340961e-06  1.80000000e+00  1.72340961e-06  2.15813089e-07  1.72340961e-06  7.49391472e-01                                 
 1.85845722e-06  8.02591840e-01  1.85845722e-06  7.46181686e-01  1.85845722e-06  7.47039306e-01  1.85845722e-06  1.80000000e+00  1.85845722e-06  3.18434097e-08  1.85845722e-06  7.46181686e-01                                 
 1.99474882e-06  8.04128405e-01  1.99474882e-06  7.47545026e-01  1.99474882e-06  7.46480966e-01  1.99474882e-06  1.80000000e+00  1.99474882e-06  3.45423477e-07  1.99474882e-06  7.47545026e-01                                 
 2.18131755e-06  8.04665077e-01  2.18131755e-06  7.48029883e-01  2.18131755e-06  7.49074153e-01  2.18131755e-06  1.80000000e+00  2.18131755e-06  1.65706356e-08  2.18131755e-06  7.48029883e-01                                 
 2.39310062e-06  8.02832423e-01  2.39310062e-06  7.46390914e-01  2.39310062e-06  7.45777285e-01  2.39310062e-06  1.80000000e+00  2.39310062e-06  2.93547865e-07  2.39310062e-06  7.46390914e-01                                 
 2.67174444e-06  8.05328248e-01  2.67174444e-06  7.48616127e-01  2.67174444e-06  7.49185337e-01  2.67174444e-06  1.80000000e+00  2.67174444e-06  8.56383944e-08  2.67174444e-06  7.48616127e-01                                 
 3.07224375e-06  8.02594905e-01  3.07224375e-06  7.46180483e-01  3.07224375e-06  7.45885136e-01  3.07224375e-06  1.80000000e+00  3.07224375e-06  2.34367023e-07  3.07224375e-06  7.46180483e-01                                 
 3.68627529e-06  8.05344828e-01  3.68627529e-06  7.48629550e-01  3.68627529e-06  7.49027092e-01  3.68627529e-06  1.80000000e+00  3.68627529e-06  1.27207594e-07  3.68627529e-06  7.48629550e-01                                 
 4.49087841e-06  8.02646406e-01  4.49087841e-06  7.46227443e-01  4.49087841e-06  7.46031481e-01  4.49087841e-06  1.80000000e+00  4.49087841e-06  2.05827842e-07  4.49087841e-06  7.46227443e-01                                 
 5.49087841e-06  8.05273913e-01  5.49087841e-06  7.48566040e-01  5.49087841e-06  7.48896373e-01  5.49087841e-06  1.80000000e+00  5.49087841e-06  1.48897836e-07  5.49087841e-06  7.48566040e-01                                 
 6.49087841e-06  8.02737761e-01  6.49087841e-06  7.46310066e-01  6.49087841e-06  7.46167106e-01  6.49087841e-06  1.80000000e+00  6.49087841e-06  1.87162920e-07  6.49087841e-06  7.46310066e-01                                 
 7.49087841e-06  8.05171792e-01  7.49087841e-06  7.48475386e-01  7.49087841e-06  7.48758339e-01  7.49087841e-06  1.80000000e+00  7.49087841e-06  1.66822163e-07  7.49087841e-06  7.48475386e-01                                 
 8.49087841e-06  8.02864196e-01  8.49087841e-06  7.46423488e-01  8.49087841e-06  7.46322967e-01  8.49087841e-06  1.80000000e+00  8.49087841e-06  1.70092427e-07  8.49087841e-06  7.46423488e-01                                 
 9.49087841e-06  8.05034096e-01  9.49087841e-06  7.48352642e-01  9.49087841e-06  7.48597576e-01  9.49087841e-06  1.80000000e+00  9.49087841e-06  1.82919418e-07  9.49087841e-06  7.48352642e-01                                 
 1.00005000e-05  8.03104371e-01  1.00005000e-05  7.46638415e-01  1.00005000e-05  7.46586022e-01  1.00005000e-05  1.80000000e+00  1.00005000e-05  1.48701758e-07  1.00005000e-05  7.46638415e-01                                 
 1.00005500e-05  8.03102787e-01  1.00005500e-05  7.46636947e-01  1.00005500e-05  7.39612852e-01  1.00005500e-05  1.62000000e+00  1.00005500e-05 -1.09732805e-04  1.00005500e-05  7.46636947e-01                                 
 1.00006500e-05  8.03099591e-01  1.00006500e-05  7.46634055e-01  1.00006500e-05  7.29774599e-01  1.00006500e-05  1.26000000e+00  1.00006500e-05 -5.51115027e-05  1.00006500e-05  7.46634055e-01                                 
