 time            v(vbep)         time            v(vben)         time            v(vout)         time            v(vphi1)        time            v(vphi2)        time            v(vref)         yes             currtemp       
 0.00000000e+00  5.59272299e-01  0.00000000e+00  4.92406717e-01  0.00000000e+00  8.60699150e-01  0.00000000e+00  0.00000000e+00  0.00000000e+00  1.79995679e+00  0.00000000e+00  5.00000000e-01  1.00000000e+00  9.40000000e+01 
 5.00000000e-12  5.59241270e-01  5.00000000e-12  4.92381070e-01  5.00000000e-12  8.61484521e-01  5.00000000e-12  1.80000000e-02  5.00000000e-12  1.80007350e+00  5.00000000e-12  5.00000000e-01                                 
 1.00000000e-11  5.59210996e-01  1.00000000e-11  4.92356089e-01  1.00000000e-11  8.62198587e-01  1.00000000e-11  3.60000000e-02  1.00000000e-11  1.80013304e+00  1.00000000e-11  5.00000000e-01                                 
 2.00000000e-11  5.59150892e-01  2.00000000e-11  4.92306314e-01  2.00000000e-11  8.63513350e-01  2.00000000e-11  7.20000000e-02  2.00000000e-11  1.80018542e+00  2.00000000e-11  5.00000000e-01                                 
 4.00000000e-11  5.59031445e-01  4.00000000e-11  4.92207134e-01  4.00000000e-11  8.65639781e-01  4.00000000e-11  1.44000000e-01  4.00000000e-11  1.80014210e+00  4.00000000e-11  5.00000000e-01                                 
 8.00000000e-11  5.58793642e-01  8.00000000e-11  4.92009592e-01  8.00000000e-11  8.68641894e-01  8.00000000e-11  2.88000000e-01  8.00000000e-11  1.80006010e+00  8.00000000e-11  5.00000000e-01                                 
 1.60000000e-10  5.58322654e-01  1.60000000e-10  4.91617718e-01  1.60000000e-10  8.72288350e-01  1.60000000e-10  5.76000000e-01  1.60000000e-10  1.80000337e+00  1.60000000e-10  5.00000000e-01                                 
 3.20000000e-10  5.57398099e-01  3.20000000e-10  4.90846357e-01  3.20000000e-10  8.67607973e-01  3.20000000e-10  1.15200000e+00  3.20000000e-10  1.80049720e+00  3.20000000e-10  5.00000000e-01                                 
 5.00000000e-10  5.56384834e-01  5.00000000e-10  4.89997656e-01  5.00000000e-10  9.83199969e-01  5.00000000e-10  1.80000000e+00  5.00000000e-10  1.43321142e-01  5.00000000e-10  5.00000000e-01                                 
 5.22772599e-10  5.56258835e-01  5.22772599e-10  4.89891858e-01  5.22772599e-10  1.01288811e+00  5.22772599e-10  1.80000000e+00  5.22772599e-10  3.14746700e-02  5.22772599e-10  5.00000000e-01                                 
 5.68317796e-10  5.56007674e-01  5.68317796e-10  4.89680849e-01  5.68317796e-10  1.06938818e+00  5.68317796e-10  1.80000000e+00  5.68317796e-10 -1.38558222e-02  5.68317796e-10  5.00000000e-01                                 
 6.59408190e-10  5.55510427e-01  6.59408190e-10  4.89262484e-01  6.59408190e-10  1.16925258e+00  6.59408190e-10  1.80000000e+00  6.59408190e-10  1.12676143e-02  6.59408190e-10  5.00000000e-01                                 
 7.82363924e-10  5.54849719e-01  7.82363924e-10  4.88705333e-01  7.82363924e-10  1.28528068e+00  7.82363924e-10  1.80000000e+00  7.82363924e-10 -9.37304925e-03  7.82363924e-10  5.00000000e-01                                 
 9.80368374e-10  5.53810040e-01  9.80368374e-10  4.87825741e-01  9.80368374e-10  1.43140179e+00  9.80368374e-10  1.80000000e+00  9.80368374e-10  8.73449988e-03  9.80368374e-10  5.00000000e-01                                 
 1.37637727e-09  5.51814780e-01  1.37637727e-09  4.86128117e-01  1.37637727e-09  1.60609294e+00  1.37637727e-09  1.80000000e+00  1.37637727e-09 -8.15794990e-03  1.37637727e-09  5.00000000e-01                                 
 1.72703452e-09  5.50135508e-01  1.72703452e-09  4.84689488e-01  1.72703452e-09  1.67313861e+00  1.72703452e-09  1.80000000e+00  1.72703452e-09  7.87450012e-03  1.72703452e-09  5.00000000e-01                                 
 2.06283550e-09  5.48597352e-01  2.06283550e-09  4.83364054e-01  2.06283550e-09  1.70000190e+00  2.06283550e-09  1.80000000e+00  2.06283550e-09 -7.31502597e-03  2.06283550e-09  5.00000000e-01                                 
 2.42514923e-09  5.47008082e-01  2.42514923e-09  4.81987040e-01  2.42514923e-09  1.71136281e+00  2.42514923e-09  1.80000000e+00  2.42514923e-09  7.06628316e-03  2.42514923e-09  5.00000000e-01                                 
 2.85127105e-09  5.45224360e-01  2.85127105e-09  4.80432652e-01  2.85127105e-09  1.71503014e+00  2.85127105e-09  1.80000000e+00  2.85127105e-09 -6.67857969e-03  2.85127105e-09  5.00000000e-01                                 
 3.30394928e-09  5.43421834e-01  3.30394928e-09  4.78852530e-01  3.30394928e-09  1.71517290e+00  3.30394928e-09  1.80000000e+00  3.30394928e-09  6.48192966e-03  3.30394928e-09  5.00000000e-01                                 
 3.82384538e-09  5.41457686e-01  3.82384538e-09  4.77120357e-01  3.82384538e-09  1.71379982e+00  3.82384538e-09  1.80000000e+00  3.82384538e-09 -6.19645787e-03  3.82384538e-09  5.00000000e-01                                 
 4.52408921e-09  5.38971530e-01  4.52408921e-09  4.74912938e-01  4.52408921e-09  1.71171562e+00  4.52408921e-09  1.80000000e+00  4.52408921e-09  6.09322051e-03  4.52408921e-09  5.00000000e-01                                 
 5.58893342e-09  5.35492666e-01  5.58893342e-09  4.71797633e-01  5.58893342e-09  1.70838082e+00  5.58893342e-09  1.80000000e+00  5.58893342e-09 -5.93431514e-03  5.58893342e-09  5.00000000e-01                                 
 7.56267432e-09  5.29811985e-01  7.56267432e-09  4.66650131e-01  7.56267432e-09  1.70285470e+00  7.56267432e-09  1.80000000e+00  7.56267432e-09  5.93475955e-03  7.56267432e-09  5.00000000e-01                                 
 1.15101561e-08  5.20543165e-01  1.15101561e-08  4.58112951e-01  1.15101561e-08  1.69223057e+00  1.15101561e-08  1.80000000e+00  1.15101561e-08 -5.85195754e-03  1.15101561e-08  5.00000000e-01                                 
 1.94051197e-08  5.06793266e-01  1.94051197e-08  4.45216420e-01  1.94051197e-08  1.67025644e+00  1.94051197e-08  1.80000000e+00  1.94051197e-08  5.89471744e-03  1.94051197e-08  5.00000000e-01                                 
 3.51950469e-08  4.87740865e-01  3.51950469e-08  4.27177212e-01  3.51950469e-08  1.61173641e+00  3.51950469e-08  1.80000000e+00  3.51950469e-08 -5.83115708e-03  3.51950469e-08  5.00000000e-01                                 
 5.50771446e-08  4.70548609e-01  5.50771446e-08  4.11028638e-01  5.50771446e-08  1.50669803e+00  5.50771446e-08  1.80000000e+00  5.50771446e-08  5.88312089e-03  5.50771446e-08  5.00000000e-01                                 
 8.28338119e-08  4.53029466e-01  8.28338119e-08  3.94689188e-01  8.28338119e-08  1.33184462e+00  8.28338119e-08  1.80000000e+00  8.28338119e-08 -5.82175416e-03  8.28338119e-08  5.00000000e-01                                 
 1.10849547e-07  4.49207329e-01  1.10849547e-07  3.89803619e-01  1.10849547e-07  1.18119059e+00  1.10849547e-07  1.80000000e+00  1.10849547e-07  5.87615788e-03  1.10849547e-07  5.00000000e-01                                 
 1.39113551e-07  4.47070218e-01  1.39113551e-07  3.86608919e-01  1.39113551e-07  1.02789008e+00  1.39113551e-07  1.80000000e+00  1.39113551e-07 -5.81425770e-03  1.39113551e-07  5.00000000e-01                                 
 1.66042981e-07  4.39922827e-01  1.66042981e-07  3.79773710e-01  1.66042981e-07  9.19912392e-01  1.66042981e-07  1.80000000e+00  1.66042981e-07  5.86830727e-03  1.66042981e-07  5.00000000e-01                                 
 1.96621569e-07  4.35210509e-01  1.96621569e-07  3.74901561e-01  1.96621569e-07  8.35767188e-01  1.96621569e-07  1.80000000e+00  1.96621569e-07 -5.80686517e-03  1.96621569e-07  5.00000000e-01                                 
 2.25877306e-07  4.31091855e-01  2.25877306e-07  3.70696917e-01  2.25877306e-07  7.58023990e-01  2.25877306e-07  1.80000000e+00  2.25877306e-07  5.86130140e-03  2.25877306e-07  5.00000000e-01                                 
 2.70382657e-07  4.20746849e-01  2.70382657e-07  3.61274366e-01  2.70382657e-07  6.42516189e-01  2.70382657e-07  1.80000000e+00  2.70382657e-07 -5.80109381e-03  2.70382657e-07  5.00000000e-01                                 
 3.20936882e-07  4.06874829e-01  3.20936882e-07  3.49124256e-01  3.20936882e-07  5.34950347e-01  3.20936882e-07  1.80000000e+00  3.20936882e-07  5.85683443e-03  3.20936882e-07  5.00000000e-01                                 
 3.91550713e-07  3.88793043e-01  3.91550713e-07  3.33503248e-01  3.91550713e-07  4.58236852e-01  3.91550713e-07  1.80000000e+00  3.91550713e-07 -5.79755709e-03  3.91550713e-07  5.00000000e-01                                 
 4.64064128e-07  3.68470379e-01  4.64064128e-07  3.16381129e-01  4.64064128e-07  4.45367474e-01  4.64064128e-07  1.80000000e+00  4.64064128e-07  5.85389840e-03  4.64064128e-07  5.00000000e-01                                 
 5.36320262e-07  3.45299045e-01  5.36320262e-07  2.97244175e-01  5.36320262e-07  5.21967510e-01  5.36320262e-07  1.80000000e+00  5.36320262e-07 -5.79475117e-03  5.36320262e-07  5.00000000e-01                                 
 5.99782782e-07  3.19143149e-01  5.99782782e-07  2.75973803e-01  5.99782782e-07  5.32567943e-01  5.99782782e-07  1.80000000e+00  5.99782782e-07  5.85072774e-03  5.99782782e-07  5.00000000e-01                                 
 6.63269237e-07  3.05026574e-01  6.63269237e-07  2.64510694e-01  6.63269237e-07  4.60376968e-01  6.63269237e-07  1.80000000e+00  6.63269237e-07 -5.79130512e-03  6.63269237e-07  5.00000000e-01                                 
 7.14534620e-07  4.03557436e-01  7.14534620e-07  3.43454509e-01  7.14534620e-07  5.22533663e-01  7.14534620e-07  1.80000000e+00  7.14534620e-07  5.84942726e-03  7.14534620e-07  5.00000000e-01                                 
 7.20189459e-07  4.31352023e-01  7.20189459e-07  3.65688602e-01  7.20189459e-07  5.37797720e-01  7.20189459e-07  1.80000000e+00  7.20189459e-07  2.28905869e-05  7.20189459e-07  5.00000000e-01                                 
 7.31499135e-07  4.99672208e-01  7.31499135e-07  4.21713701e-01  7.31499135e-07  5.67832194e-01  7.31499135e-07  1.80000000e+00  7.31499135e-07  1.51500772e-05  7.31499135e-07  5.00000000e-01                                 
 7.49468796e-07  5.90724019e-01  7.49468796e-07  5.16707912e-01  7.49468796e-07  5.80807207e-01  7.49468796e-07  1.80000000e+00  7.49468796e-07  2.32093838e-05  7.49468796e-07  5.00000000e-01                                 
 7.65175681e-07  6.27564905e-01  7.65175681e-07  5.58467783e-01  7.65175681e-07  5.60289407e-01  7.65175681e-07  1.80000000e+00  7.65175681e-07  1.15714033e-05  7.65175681e-07  5.00000000e-01                                 
 7.81539323e-07  6.63673528e-01  7.81539323e-07  5.91438814e-01  7.81539323e-07  5.45530269e-01  7.81539323e-07  1.80000000e+00  7.81539323e-07  2.27065527e-05  7.81539323e-07  5.00000000e-01                                 
 8.03802920e-07  6.95978860e-01  8.03802920e-07  6.19436914e-01  8.03802920e-07  5.25949312e-01  8.03802920e-07  1.80000000e+00  8.03802920e-07  1.04507314e-05  8.03802920e-07  5.00000000e-01                                 
 8.25545455e-07  7.04198977e-01  8.25545455e-07  6.25995621e-01  8.25545455e-07  5.04463732e-01  8.25545455e-07  1.80000000e+00  8.25545455e-07  2.07918881e-05  8.25545455e-07  5.00000000e-01                                 
 8.57703258e-07  7.05920025e-01  8.57703258e-07  6.27438132e-01  8.57703258e-07  4.86689794e-01  8.57703258e-07  1.80000000e+00  8.57703258e-07  9.93594354e-06  8.57703258e-07  5.00000000e-01                                 
 8.93605053e-07  7.06042892e-01  8.93605053e-07  6.27471896e-01  8.93605053e-07  4.81016854e-01  8.93605053e-07  1.80000000e+00  8.93605053e-07  2.06636182e-05  8.93605053e-07  5.00000000e-01                                 
 9.31165315e-07  7.05849333e-01  9.31165315e-07  6.27377570e-01  9.31165315e-07  4.89761393e-01  9.31165315e-07  1.80000000e+00  9.31165315e-07  9.95699827e-06  9.31165315e-07  5.00000000e-01                                 
 9.79394919e-07  6.91289173e-01  9.79394919e-07  6.15554109e-01  9.79394919e-07  5.07451649e-01  9.79394919e-07  1.80000000e+00  9.79394919e-07  2.01259737e-05  9.79394919e-07  5.00000000e-01                                 
 1.03429468e-06  6.61772420e-01  1.03429468e-06  5.90143809e-01  1.03429468e-06  4.94926556e-01  1.03429468e-06  1.80000000e+00  1.03429468e-06  9.56711718e-06  1.03429468e-06  5.00000000e-01                                 
 1.09052914e-06  6.74203081e-01  1.09052914e-06  6.00944352e-01  1.09052914e-06  5.00027019e-01  1.09052914e-06  1.80000000e+00  1.09052914e-06  2.14052001e-05  1.09052914e-06  5.00000000e-01                                 
 1.14667011e-06  7.00995639e-01  1.14667011e-06  6.23487092e-01  1.14667011e-06  5.13518681e-01  1.14667011e-06  1.80000000e+00  1.14667011e-06  1.00348585e-05  1.14667011e-06  5.00000000e-01                                 
 1.20015769e-06  6.85313975e-01  1.20015769e-06  6.10579083e-01  1.20015769e-06  4.88602296e-01  1.20015769e-06  1.80000000e+00  1.20015769e-06  2.00662001e-05  1.20015769e-06  5.00000000e-01                                 
 1.25532257e-06  6.68933285e-01  1.25532257e-06  5.96449719e-01  1.25532257e-06  4.92448018e-01  1.25532257e-06  1.80000000e+00  1.25532257e-06  1.00430978e-05  1.25532257e-06  5.00000000e-01                                 
 1.31635908e-06  6.86312508e-01  1.31635908e-06  6.11372033e-01  1.31635908e-06  5.17294163e-01  1.31635908e-06  1.80000000e+00  1.31635908e-06  2.10401511e-05  1.31635908e-06  5.00000000e-01                                 
 1.38316730e-06  6.91345220e-01  1.38316730e-06  6.15627483e-01  1.38316730e-06  4.96304689e-01  1.38316730e-06  1.80000000e+00  1.38316730e-06  9.70904976e-06  1.38316730e-06  5.00000000e-01                                 
 1.45347497e-06  6.78217720e-01  1.45347497e-06  6.04503342e-01  1.45347497e-06  4.88183391e-01  1.45347497e-06  1.80000000e+00  1.45347497e-06  2.05746541e-05  1.45347497e-06  5.00000000e-01                                 
 1.53230826e-06  6.81602686e-01  1.53230826e-06  6.07422452e-01  1.53230826e-06  5.13711403e-01  1.53230826e-06  1.80000000e+00  1.53230826e-06  1.01127612e-05  1.53230826e-06  5.00000000e-01                                 
 1.62056346e-06  6.90106225e-01  1.62056346e-06  6.14572923e-01  1.62056346e-06  4.97311071e-01  1.62056346e-06  1.80000000e+00  1.62056346e-06  2.06546075e-05  1.62056346e-06  5.00000000e-01                                 
 1.71581278e-06  6.79381502e-01  1.71581278e-06  6.05543778e-01  1.71581278e-06  4.92123576e-01  1.71581278e-06  1.80000000e+00  1.71581278e-06  9.77074242e-06  1.71581278e-06  5.00000000e-01                                 
 1.80886179e-06  6.84477936e-01  1.80886179e-06  6.09834867e-01  1.80886179e-06  5.12397178e-01  1.80886179e-06  1.80000000e+00  1.80886179e-06  2.09228948e-05  1.80886179e-06  5.00000000e-01                                 
 1.93383490e-06  6.85748785e-01  1.93383490e-06  6.10954215e-01  1.93383490e-06  4.90929989e-01  1.93383490e-06  1.80000000e+00  1.93383490e-06  9.70975538e-06  1.93383490e-06  5.00000000e-01                                 
 2.06900899e-06  6.81244465e-01  2.06900899e-06  6.07090106e-01  2.06900899e-06  5.04300401e-01  2.06900899e-06  1.80000000e+00  2.06900899e-06  2.08381847e-05  2.06900899e-06  5.00000000e-01                                 
 2.19186184e-06  6.85888022e-01  2.19186184e-06  6.11063028e-01  2.19186184e-06  5.02632591e-01  2.19186184e-06  1.80000000e+00  2.19186184e-06  9.83947490e-06  2.19186184e-06  5.00000000e-01                                 
 2.34993393e-06  6.83103990e-01  2.34993393e-06  6.08682225e-01  2.34993393e-06  4.94118453e-01  2.34993393e-06  1.80000000e+00  2.34993393e-06  2.07370690e-05  2.34993393e-06  5.00000000e-01                                 
 2.58620325e-06  6.84059511e-01  2.58620325e-06  6.09517444e-01  2.58620325e-06  5.07606430e-01  2.58620325e-06  1.80000000e+00  2.58620325e-06  9.88095185e-06  2.58620325e-06  5.00000000e-01                                 
 2.85319565e-06  6.84669091e-01  2.85319565e-06  6.10010288e-01  2.85319565e-06  4.92632364e-01  2.85319565e-06  1.80000000e+00  2.85319565e-06  2.07304480e-05  2.85319565e-06  5.00000000e-01                                 
 3.15009952e-06  6.82919963e-01  3.15009952e-06  6.08552069e-01  3.15009952e-06  5.07436191e-01  3.15009952e-06  1.80000000e+00  3.15009952e-06  9.87051798e-06  3.15009952e-06  5.00000000e-01                                 
 3.47013456e-06  6.85499294e-01  3.47013456e-06  6.10710937e-01  3.47013456e-06  4.93968787e-01  3.47013456e-06  1.80000000e+00  3.47013456e-06  2.07507377e-05  3.47013456e-06  5.00000000e-01                                 
 3.81553740e-06  6.82386524e-01  3.81553740e-06  6.08100130e-01  3.81553740e-06  5.05426988e-01  3.81553740e-06  1.80000000e+00  3.81553740e-06  9.84492759e-06  3.81553740e-06  5.00000000e-01                                 
 4.19748959e-06  6.85762314e-01  4.19748959e-06  6.10931546e-01  4.19748959e-06  4.96328019e-01  4.19748959e-06  1.80000000e+00  4.19748959e-06  2.07777206e-05  4.19748959e-06  5.00000000e-01                                 
 4.62590134e-06  6.82306913e-01  4.62590134e-06  6.08033685e-01  4.62590134e-06  5.03016465e-01  4.62590134e-06  1.80000000e+00  4.62590134e-06  9.81938539e-06  4.62590134e-06  5.00000000e-01                                 
 5.14643400e-06  6.85701513e-01  5.14643400e-06  6.10879237e-01  5.14643400e-06  4.98522141e-01  5.14643400e-06  1.80000000e+00  5.14643400e-06  2.07996552e-05  5.14643400e-06  5.00000000e-01                                 
 5.86905001e-06  6.82416936e-01  5.86905001e-06  6.08128012e-01  5.86905001e-06  5.01283917e-01  5.86905001e-06  1.80000000e+00  5.86905001e-06  9.80286369e-06  5.86905001e-06  5.00000000e-01                                 
 6.86905001e-06  6.85583827e-01  6.86905001e-06  6.10779436e-01  6.86905001e-06  4.99757563e-01  6.86905001e-06  1.80000000e+00  6.86905001e-06  2.08110793e-05  6.86905001e-06  5.00000000e-01                                 
 7.86905001e-06  6.82534844e-01  7.86905001e-06  6.08228644e-01  7.86905001e-06  5.00260101e-01  7.86905001e-06  1.80000000e+00  7.86905001e-06  9.79373204e-06  7.86905001e-06  5.00000000e-01                                 
 8.86905001e-06  6.85448178e-01  8.86905001e-06  6.10664567e-01  8.86905001e-06  5.00762629e-01  8.86905001e-06  1.80000000e+00  8.86905001e-06  2.08197654e-05  8.86905001e-06  5.00000000e-01                                 
 9.86905001e-06  6.82682822e-01  9.86905001e-06  6.08354726e-01  9.86905001e-06  4.99283769e-01  9.86905001e-06  1.80000000e+00  9.86905001e-06  9.78554074e-06  9.86905001e-06  5.00000000e-01                                 
 1.00005000e-05  6.84679229e-01  1.00005000e-05  6.10013957e-01  1.00005000e-05  5.03946597e-01  1.00005000e-05  1.80000000e+00  1.00005000e-05  2.08439174e-05  1.00005000e-05  5.00000000e-01                                 
 1.00005500e-05  6.84668574e-01  1.00005500e-05  6.10001962e-01  1.00005500e-05  4.96692554e-01  1.00005500e-05  1.62000000e+00  1.00005500e-05 -7.84811197e-05  1.00005500e-05  5.00000000e-01                                 
 1.00006500e-05  6.84636263e-01  1.00006500e-05  6.09976043e-01  1.00006500e-05  4.83220921e-01  1.00006500e-05  1.26000000e+00  1.00006500e-05 -6.93020430e-05  1.00006500e-05  5.00000000e-01                                 
 1.00008500e-05  6.84578424e-01  1.00008500e-05  6.09934079e-01  1.00008500e-05  4.83138893e-01  1.00008500e-05  5.40000000e-01  1.00008500e-05  1.86136520e-01  1.00008500e-05  5.00000000e-01                                 
 1.00010000e-05  6.84548637e-01  1.00010000e-05  6.09910620e-01  1.00010000e-05  4.54691952e-01  1.00010000e-05  0.00000000e+00  1.00010000e-05  1.64234996e+00  1.00010000e-05  5.00000000e-01                                 
