 time            v(vbep)         time            v(vben)         time            v(vout)         time            v(vphi1)        time            v(vphi2)        time            v(vref)         yes             currtemp       
 0.00000000e+00  5.62283953e-01  0.00000000e+00  4.95586732e-01  0.00000000e+00  9.34084817e-01  0.00000000e+00  0.00000000e+00  0.00000000e+00  1.79994912e+00  0.00000000e+00  4.95586732e-01  1.00000000e+00  9.30000000e+01 
 5.00000000e-12  5.62252107e-01  5.00000000e-12  4.95560421e-01  5.00000000e-12  9.34822091e-01  5.00000000e-12  1.80000000e-02  5.00000000e-12  1.80008208e+00  5.00000000e-12  4.95560421e-01                                 
 1.00000000e-11  5.62221065e-01  1.00000000e-11  4.95534803e-01  1.00000000e-11  9.35483155e-01  1.00000000e-11  3.60000000e-02  1.00000000e-11  1.80016077e+00  1.00000000e-11  4.95534803e-01                                 
 2.00000000e-11  5.62159455e-01  2.00000000e-11  4.95483762e-01  2.00000000e-11  9.36682618e-01  2.00000000e-11  7.20000000e-02  2.00000000e-11  1.80024713e+00  2.00000000e-11  4.95483762e-01                                 
 4.00000000e-11  5.62037053e-01  4.00000000e-11  4.95382068e-01  4.00000000e-11  9.38520370e-01  4.00000000e-11  1.44000000e-01  4.00000000e-11  1.80022753e+00  4.00000000e-11  4.95382068e-01                                 
 8.00000000e-11  5.61793393e-01  8.00000000e-11  4.95179542e-01  8.00000000e-11  9.40751514e-01  8.00000000e-11  2.88000000e-01  8.00000000e-11  1.80011348e+00  8.00000000e-11  4.95179542e-01                                 
 1.60000000e-10  5.61310928e-01  1.60000000e-10  4.94777869e-01  1.60000000e-10  9.42255583e-01  1.60000000e-10  5.76000000e-01  1.60000000e-10  1.80000369e+00  1.60000000e-10  4.94777869e-01                                 
 3.20000000e-10  5.60364307e-01  3.20000000e-10  4.93987565e-01  3.20000000e-10  9.35663085e-01  3.20000000e-10  1.15200000e+00  3.20000000e-10  1.80033935e+00  3.20000000e-10  4.93987565e-01                                 
 5.00000000e-10  5.59327591e-01  5.00000000e-10  4.93118569e-01  5.00000000e-10  1.05626305e+00  5.00000000e-10  1.80000000e+00  5.00000000e-10  1.91199498e-01  5.00000000e-10  4.93118569e-01                                 
 5.22735966e-10  5.59198945e-01  5.22735966e-10  4.93010461e-01  5.22735966e-10  1.08721166e+00  5.22735966e-10  1.80000000e+00  5.22735966e-10  5.20780204e-02  5.22735966e-10  4.93010461e-01                                 
 5.68207897e-10  5.58942530e-01  5.68207897e-10  4.92794864e-01  5.68207897e-10  1.14892319e+00  5.68207897e-10  1.80000000e+00  5.68207897e-10 -1.77251488e-02  5.68207897e-10  4.92794864e-01                                 
 6.59151760e-10  5.58435012e-01  6.59151760e-10  4.92367501e-01  6.59151760e-10  1.25978042e+00  6.59151760e-10  1.80000000e+00  6.59151760e-10  1.47694994e-02  6.59151760e-10  4.92367501e-01                                 
 7.80744329e-10  5.57767265e-01  7.80744329e-10  4.91803929e-01  7.80744329e-10  1.38791452e+00  7.80744329e-10  1.80000000e+00  7.80744329e-10 -1.06137331e-02  7.80744329e-10  4.91803929e-01                                 
 9.67760577e-10  5.56763386e-01  9.67760577e-10  4.90953948e-01  9.67760577e-10  1.54682263e+00  9.67760577e-10  1.80000000e+00  9.67760577e-10  1.05116930e-02  9.67760577e-10  4.90953948e-01                                 
 1.34179307e-09  5.54834201e-01  1.34179307e-09  4.89311580e-01  1.34179307e-09  1.74282705e+00  1.34179307e-09  1.80000000e+00  1.34179307e-09 -8.98285114e-03  1.34179307e-09  4.89311580e-01                                 
 1.69242500e-09  5.53114525e-01  1.69242500e-09  4.87837608e-01  1.69242500e-09  1.82532381e+00  1.69242500e-09  1.80000000e+00  1.69242500e-09  8.80653535e-03  1.69242500e-09  4.87837608e-01                                 
 2.02738514e-09  5.51544938e-01  2.02738514e-09  4.86484259e-01  2.02738514e-09  1.85702494e+00  2.02738514e-09  1.80000000e+00  2.02738514e-09 -7.94733840e-03  2.02738514e-09  4.86484259e-01                                 
 2.38504083e-09  5.49941324e-01  2.38504083e-09  4.85093861e-01  2.38504083e-09  1.87051557e+00  2.38504083e-09  1.80000000e+00  2.38504083e-09  7.54845849e-03  2.38504083e-09  4.85093861e-01                                 
 2.86023666e-09  5.47915660e-01  2.86023666e-09  4.83326718e-01  2.86023666e-09  1.87484898e+00  2.86023666e-09  1.80000000e+00  2.86023666e-09 -7.07726353e-03  2.86023666e-09  4.83326718e-01                                 
 3.50789816e-09  5.45327213e-01  3.50789816e-09  4.81051592e-01  3.50789816e-09  1.87472939e+00  3.50789816e-09  1.80000000e+00  3.50789816e-09  6.87724374e-03  3.50789816e-09  4.81051592e-01                                 
 4.48216672e-09  5.41755473e-01  4.48216672e-09  4.77882267e-01  4.48216672e-09  1.87123275e+00  4.48216672e-09  1.80000000e+00  4.48216672e-09 -6.64689519e-03  4.48216672e-09  4.77882267e-01                                 
 6.07892580e-09  5.36577603e-01  6.07892580e-09  4.73230332e-01  6.07892580e-09  1.86635057e+00  6.07892580e-09  1.80000000e+00  6.07892580e-09  6.60716723e-03  6.07892580e-09  4.73230332e-01                                 
 8.86594777e-09  5.29016696e-01  8.86594777e-09  4.66327698e-01  8.86594777e-09  1.85816890e+00  8.86594777e-09  1.80000000e+00  8.86594777e-09 -6.48603234e-03  8.86594777e-09  4.66327698e-01                                 
 1.06066064e-08  5.25032136e-01  1.06066064e-08  4.62637837e-01  1.06066064e-08  1.85439808e+00  1.06066064e-08  1.80000000e+00  1.06066064e-08  6.44866832e-03  1.06066064e-08  4.62637837e-01                                 
 1.18697822e-08  5.22402706e-01  1.18697822e-08  4.60186405e-01  1.18697822e-08  1.85126938e+00  1.18697822e-08  1.80000000e+00  1.18697822e-08 -6.27310166e-03  1.18697822e-08  4.60186405e-01                                 
 1.34832691e-08  5.19303035e-01  1.34832691e-08  4.57282031e-01  1.34832691e-08  1.84824261e+00  1.34832691e-08  1.80000000e+00  1.34832691e-08  6.22603223e-03  1.34832691e-08  4.57282031e-01                                 
 1.50483502e-08  5.16531853e-01  1.50483502e-08  4.54673382e-01  1.50483502e-08  1.84483394e+00  1.50483502e-08  1.80000000e+00  1.50483502e-08 -6.08137877e-03  1.50483502e-08  4.54673382e-01                                 
 1.68987211e-08  5.13502018e-01  1.68987211e-08  4.51810329e-01  1.68987211e-08  1.84167779e+00  1.68987211e-08  1.80000000e+00  1.68987211e-08  6.04714023e-03  1.68987211e-08  4.51810329e-01                                 
 1.91296818e-08  5.10139177e-01  1.91296818e-08  4.48622185e-01  1.91296818e-08  1.83737465e+00  1.91296818e-08  1.80000000e+00  1.91296818e-08 -5.93453209e-03  1.91296818e-08  4.48622185e-01                                 
 2.22226009e-08  5.05882929e-01  2.22226009e-08  4.44578007e-01  2.22226009e-08  1.83247042e+00  2.22226009e-08  1.80000000e+00  2.22226009e-08  5.93365739e-03  2.22226009e-08  4.44578007e-01                                 
 2.63669225e-08  5.00710128e-01  2.63669225e-08  4.39663769e-01  2.63669225e-08  1.82573354e+00  2.63669225e-08  1.80000000e+00  2.63669225e-08 -5.85202979e-03  2.63669225e-08  4.39663769e-01                                 
 3.26090009e-08  4.93537400e-01  3.26090009e-08  4.32900403e-01  3.26090009e-08  1.81688968e+00  3.26090009e-08  1.80000000e+00  3.26090009e-08  5.87589575e-03  3.26090009e-08  4.32900403e-01                                 
 4.19975600e-08  4.83636826e-01  4.19975600e-08  4.23685430e-01  4.19975600e-08  1.80047372e+00  4.19975600e-08  1.80000000e+00  4.19975600e-08 -5.81382565e-03  4.19975600e-08  4.23685430e-01                                 
 6.00626761e-08  4.69332351e-01  6.00626761e-08  4.10266342e-01  6.00626761e-08  1.76229359e+00  6.00626761e-08  1.80000000e+00  6.00626761e-08  5.85305652e-03  6.00626761e-08  4.10266342e-01                                 
 7.64631023e-08  4.58694106e-01  7.64631023e-08  4.00387473e-01  7.64631023e-08  1.72910944e+00  7.64631023e-08  1.80000000e+00  7.64631023e-08 -5.79657237e-03  7.64631023e-08  4.00387473e-01                                 
 1.00228415e-07  4.48346152e-01  1.00228415e-07  3.90509951e-01  1.00228415e-07  1.68879970e+00  1.00228415e-07  1.80000000e+00  1.00228415e-07  5.83955384e-03  1.00228415e-07  3.90509951e-01                                 
 1.30775092e-07  4.47499017e-01  1.30775092e-07  3.88091303e-01  1.30775092e-07  1.67251613e+00  1.30775092e-07  1.80000000e+00  1.30775092e-07 -5.78307964e-03  1.30775092e-07  3.88091303e-01                                 
 1.51536960e-07  4.46159711e-01  1.51536960e-07  3.86038187e-01  1.51536960e-07  1.65234853e+00  1.51536960e-07  1.80000000e+00  1.51536960e-07  5.82733363e-03  1.51536960e-07  3.86038187e-01                                 
 1.74982143e-07  4.40436735e-01  1.74982143e-07  3.80537004e-01  1.74982143e-07  1.61955352e+00  1.74982143e-07  1.80000000e+00  1.74982143e-07 -5.77141496e-03  1.74982143e-07  3.80537004e-01                                 
 1.96026521e-07  4.37210160e-01  1.96026521e-07  3.77209647e-01  1.96026521e-07  1.59488591e+00  1.96026521e-07  1.80000000e+00  1.96026521e-07  5.81521721e-03  1.96026521e-07  3.77209647e-01                                 
 2.18719074e-07  4.34107335e-01  2.18719074e-07  3.74003266e-01  2.18719074e-07  1.56838493e+00  2.18719074e-07  1.80000000e+00  2.18719074e-07 -5.75855750e-03  2.18719074e-07  3.74003266e-01                                 
 2.61682742e-07  4.25338328e-01  2.61682742e-07  3.65824617e-01  2.61682742e-07  1.51484768e+00  2.61682742e-07  1.80000000e+00  2.61682742e-07  5.80546280e-03  2.61682742e-07  3.65824617e-01                                 
 3.12795876e-07  4.11767992e-01  3.12795876e-07  3.53856349e-01  3.12795876e-07  1.44771439e+00  3.12795876e-07  1.80000000e+00  3.12795876e-07 -5.75285590e-03  3.12795876e-07  3.53856349e-01                                 
 3.91638104e-07  3.91399274e-01  3.91638104e-07  3.36240915e-01  3.91638104e-07  1.34398643e+00  3.91638104e-07  1.80000000e+00  3.91638104e-07  5.80101237e-03  3.91638104e-07  3.36240915e-01                                 
 4.65414116e-07  3.71881252e-01  4.65414116e-07  3.19737438e-01  4.65414116e-07  1.24638278e+00  4.65414116e-07  1.80000000e+00  4.65414116e-07 -5.74921787e-03  4.65414116e-07  3.19737438e-01                                 
 6.12966138e-07  3.17989716e-01  6.12966138e-07  2.75612967e-01  6.12966138e-07  1.05176023e+00  6.12966138e-07  1.80000000e+00  6.12966138e-07  5.79800223e-03  6.12966138e-07  2.75612967e-01                                 
 6.30682394e-07  3.12842962e-01  6.30682394e-07  2.71438957e-01  6.30682394e-07  1.03238151e+00  6.30682394e-07  1.80000000e+00  6.30682394e-07  1.55067260e-05  6.30682394e-07  2.71438957e-01                                 
 6.66114907e-07  3.06526754e-01  6.66114907e-07  2.66307942e-01  6.66114907e-07  9.98959566e-01  6.66114907e-07  1.80000000e+00  6.66114907e-07  1.21017031e-05  6.66114907e-07  2.66307942e-01                                 
 7.36979932e-07  5.95777651e-01  7.36979932e-07  5.25747605e-01  7.36979932e-07  1.20797116e+00  7.36979932e-07  1.80000000e+00  7.36979932e-07  3.51248253e-05  7.36979932e-07  5.25747605e-01                                 
 7.45747530e-07  6.25014539e-01  7.45747530e-07  5.55303853e-01  7.45747530e-07  1.22758964e+00  7.45747530e-07  1.80000000e+00  7.45747530e-07  2.35972182e-05  7.45747530e-07  5.55303853e-01                                 
 7.63282727e-07  6.62756624e-01  7.63282727e-07  5.91241757e-01  7.63282727e-07  1.24556087e+00  7.63282727e-07  1.80000000e+00  7.63282727e-07  1.66105728e-05  7.63282727e-07  5.91241757e-01                                 
 7.98353120e-07  6.97153032e-01  7.98353120e-07  6.20855305e-01  7.98353120e-07  1.24076213e+00  7.98353120e-07  1.80000000e+00  7.98353120e-07  1.66899078e-05  7.98353120e-07  6.20855305e-01                                 
 8.31885977e-07  7.01172882e-01  8.31885977e-07  6.24189819e-01  8.31885977e-07  1.20937009e+00  8.31885977e-07  1.80000000e+00  8.31885977e-07  1.18914633e-05  8.31885977e-07  6.24189819e-01                                 
 8.75611970e-07  7.01363816e-01  8.75611970e-07  6.24293237e-01  8.75611970e-07  1.16326897e+00  8.75611970e-07  1.80000000e+00  8.75611970e-07  1.60337164e-05  8.75611970e-07  6.24293237e-01                                 
 9.21827767e-07  7.01574908e-01  9.21827767e-07  6.24513880e-01  9.21827767e-07  1.11724712e+00  9.21827767e-07  1.80000000e+00  9.21827767e-07  1.20007301e-05  9.21827767e-07  6.24513880e-01                                 
 9.91696001e-07  6.89408625e-01  9.91696001e-07  6.14479219e-01  9.91696001e-07  1.04182758e+00  9.91696001e-07  1.80000000e+00  9.91696001e-07  1.51825742e-05  9.91696001e-07  6.14479219e-01                                 
 1.06040439e-06  6.75915506e-01  1.06040439e-06  6.02990659e-01  1.06040439e-06  9.77097450e-01  1.06040439e-06  1.80000000e+00  1.06040439e-06  1.21056282e-05  1.06040439e-06  6.02990659e-01                                 
 1.13813273e-06  6.87493167e-01  1.13813273e-06  6.12839123e-01  1.13813273e-06  9.34551938e-01  1.13813273e-06  1.80000000e+00  1.13813273e-06  1.71505377e-05  1.13813273e-06  6.12839123e-01                                 
 1.22076791e-06  6.91048552e-01  1.22076791e-06  6.15890634e-01  1.22076791e-06  8.85417607e-01  1.22076791e-06  1.80000000e+00  1.22076791e-06  1.16265817e-05  1.22076791e-06  6.15890634e-01                                 
 1.23382672e-06  6.87270916e-01  1.23382672e-06  6.12707317e-01  1.23382672e-06  8.73805062e-01  1.23382672e-06  1.80000000e+00  1.23382672e-06  1.35091563e-05  1.23382672e-06  6.12707317e-01                                 
 1.25994434e-06  6.82087954e-01  1.25994434e-06  6.08292176e-01  1.25994434e-06  8.53071280e-01  1.25994434e-06  1.80000000e+00  1.25994434e-06  1.40218828e-05  1.25994434e-06  6.08292176e-01                                 
 1.31217959e-06  6.83359677e-01  1.31217959e-06  6.09368503e-01  1.31217959e-06  8.22724448e-01  1.31217959e-06  1.80000000e+00  1.31217959e-06  1.47184912e-05  1.31217959e-06  6.09368503e-01                                 
 1.39542113e-06  6.88612210e-01  1.39542113e-06  6.13819916e-01  1.39542113e-06  7.78462436e-01  1.39542113e-06  1.80000000e+00  1.39542113e-06  1.42646868e-05  1.39542113e-06  6.13819916e-01                                 
 1.48494749e-06  6.84173020e-01  1.48494749e-06  6.10072900e-01  1.48494749e-06  7.23631908e-01  1.48494749e-06  1.80000000e+00  1.48494749e-06  1.41863498e-05  1.48494749e-06  6.10072900e-01                                 
 1.65355169e-06  6.85745008e-01  1.65355169e-06  6.11396248e-01  1.65355169e-06  6.49335603e-01  1.65355169e-06  1.80000000e+00  1.65355169e-06  1.47336839e-05  1.65355169e-06  6.11396248e-01                                 
 1.81082969e-06  6.86580290e-01  1.81082969e-06  6.12114069e-01  1.81082969e-06  6.12047502e-01  1.81082969e-06  1.80000000e+00  1.81082969e-06  1.43871188e-05  1.81082969e-06  6.12114069e-01                                 
 1.95693259e-06  6.84050073e-01  1.95693259e-06  6.09959382e-01  1.95693259e-06  5.96590993e-01  1.95693259e-06  1.80000000e+00  1.95693259e-06  1.47573129e-05  1.95693259e-06  6.09959382e-01                                 
 2.12849083e-06  6.87128688e-01  2.12849083e-06  6.12573458e-01  2.12849083e-06  6.13019235e-01  2.12849083e-06  1.80000000e+00  2.12849083e-06  1.47125454e-05  2.12849083e-06  6.12573458e-01                                 
 2.28723822e-06  6.84492733e-01  2.28723822e-06  6.10339460e-01  2.28723822e-06  6.14343045e-01  2.28723822e-06  1.80000000e+00  2.28723822e-06  1.45287596e-05  2.28723822e-06  6.10339460e-01                                 
 2.45912218e-06  6.86119363e-01  2.45912218e-06  6.11718317e-01  2.45912218e-06  6.08313788e-01  2.45912218e-06  1.80000000e+00  2.45912218e-06  1.47908079e-05  2.45912218e-06  6.11718317e-01                                 
 2.64267104e-06  6.85673748e-01  2.64267104e-06  6.11342847e-01  2.64267104e-06  6.12879041e-01  2.64267104e-06  1.80000000e+00  2.64267104e-06  1.45288247e-05  2.64267104e-06  6.11342847e-01                                 
 2.84370758e-06  6.85139917e-01  2.84370758e-06  6.10888523e-01  2.84370758e-06  6.10507362e-01  2.84370758e-06  1.80000000e+00  2.84370758e-06  1.47572585e-05  2.84370758e-06  6.10888523e-01                                 
 3.08232343e-06  6.86310392e-01  3.08232343e-06  6.11880887e-01  3.08232343e-06  6.12426185e-01  3.08232343e-06  1.80000000e+00  3.08232343e-06  1.45795323e-05  3.08232343e-06  6.11880887e-01                                 
 3.45928507e-06  6.84831778e-01  3.45928507e-06  6.10627838e-01  3.45928507e-06  6.10622002e-01  3.45928507e-06  1.80000000e+00  3.45928507e-06  1.47074997e-05  3.45928507e-06  6.10627838e-01                                 
 4.13909836e-06  6.86404634e-01  4.13909836e-06  6.11959948e-01  4.13909836e-06  6.12369464e-01  4.13909836e-06  1.80000000e+00  4.13909836e-06  1.46130833e-05  4.13909836e-06  6.11959948e-01                                 
 5.09879590e-06  6.84806730e-01  5.09879590e-06  6.10606961e-01  5.09879590e-06  6.10661963e-01  5.09879590e-06  1.80000000e+00  5.09879590e-06  1.46864233e-05  5.09879590e-06  6.10606961e-01                                 
 6.09879590e-06  6.86406701e-01  6.09879590e-06  6.11961377e-01  6.09879590e-06  6.12326029e-01  6.09879590e-06  1.80000000e+00  6.09879590e-06  1.46302584e-05  6.09879590e-06  6.11961377e-01                                 
 7.09879590e-06  6.84818592e-01  7.09879590e-06  6.10617351e-01  7.09879590e-06  6.10709359e-01  7.09879590e-06  1.80000000e+00  7.09879590e-06  1.46697295e-05  7.09879590e-06  6.10617351e-01                                 
 8.09879590e-06  6.86382626e-01  8.09879590e-06  6.11940720e-01  8.09879590e-06  6.12268996e-01  8.09879590e-06  1.80000000e+00  8.09879590e-06  1.46467017e-05  8.09879590e-06  6.11940720e-01                                 
 9.09879590e-06  6.84855900e-01  9.09879590e-06  6.10649379e-01  9.09879590e-06  6.10770322e-01  9.09879590e-06  1.80000000e+00  9.09879590e-06  1.46536572e-05  9.09879590e-06  6.10649379e-01                                 
 1.00005000e-05  6.86332387e-01  1.00005000e-05  6.11897943e-01  1.00005000e-05  6.12191504e-01  1.00005000e-05  1.80000000e+00  1.00005000e-05  1.46631070e-05  1.00005000e-05  6.11897943e-01                                 
 1.00005500e-05  6.86333303e-01  1.00005500e-05  6.11898858e-01  1.00005500e-05  6.05487968e-01  1.00005500e-05  1.62000000e+00  1.00005500e-05 -1.20021629e-04  1.00005500e-05  6.11898858e-01                                 
 1.00006500e-05  6.86335237e-01  1.00006500e-05  6.11900609e-01  1.00006500e-05  5.93812046e-01  1.00006500e-05  1.26000000e+00  1.00006500e-05 -1.00820078e-04  1.00006500e-05  6.11900609e-01                                 
 1.00008500e-05  6.86338440e-01  1.00008500e-05  6.11903442e-01  1.00008500e-05  5.84448770e-01  1.00008500e-05  5.40000000e-01  1.00008500e-05  6.06146718e-02  1.00008500e-05  6.11903442e-01                                 
 1.00010000e-05  6.86340204e-01  1.00010000e-05  6.11905063e-01  1.00010000e-05  6.37653544e-01  1.00010000e-05  0.00000000e+00  1.00010000e-05  1.56449091e+00  1.00010000e-05  6.11905063e-01                                 
 1.00010247e-05  6.86340453e-01  1.00010247e-05  6.11905288e-01  1.00010247e-05  6.58757952e-01  1.00010247e-05  0.00000000e+00  1.00010247e-05  1.71119262e+00  1.00010247e-05  6.11905288e-01                                 
 1.00010741e-05  6.86340900e-01  1.00010741e-05  6.11905707e-01  1.00010741e-05  6.96741704e-01  1.00010741e-05  0.00000000e+00  1.00010741e-05  1.82024356e+00  1.00010741e-05  6.11905707e-01                                 
