 time            v(vbep)         time            v(vben)         time            v(vout)         time            v(vphi1)        time            v(vphi2)        time            v(vref)         time            v(voutc)        time            v(voutcc)       yes             currtemp       
 0.00000000e+00  7.81097545e-01  0.00000000e+00  7.23841210e-01  0.00000000e+00  1.61865305e+00  0.00000000e+00  0.00000000e+00  0.00000000e+00  1.80000000e+00  0.00000000e+00  7.26495903e-01  0.00000000e+00  1.61865304e+00  0.00000000e+00  1.62484971e+00  1.00000000e+00  2.20000000e+01 
 1.00000000e-11  7.81122203e-01  1.00000000e-11  7.23912280e-01  1.00000000e-11  1.61944390e+00  1.00000000e-11  1.80000000e-02  1.00000000e-11  1.80024940e+00  1.00000000e-11  7.27023965e-01  1.00000000e-11  1.61912079e+00  1.00000000e-11  1.62486311e+00                                 
 2.00000000e-11  7.81128949e-01  2.00000000e-11  7.23956982e-01  2.00000000e-11  1.61994137e+00  2.00000000e-11  3.60000000e-02  2.00000000e-11  1.80034960e+00  2.00000000e-11  7.27417545e-01  2.00000000e-11  1.61947771e+00  2.00000000e-11  1.62486831e+00                                 
 4.00000000e-11  7.81128791e-01  4.00000000e-11  7.24015898e-01  4.00000000e-11  1.62055571e+00  4.00000000e-11  7.20000000e-02  4.00000000e-11  1.80038983e+00  4.00000000e-11  7.27993963e-01  4.00000000e-11  1.62001380e+00  4.00000000e-11  1.62487019e+00                                 
 8.00000000e-11  7.81116804e-01  8.00000000e-11  7.24053406e-01  8.00000000e-11  1.62072258e+00  8.00000000e-11  1.44000000e-01  8.00000000e-11  1.80018833e+00  8.00000000e-11  7.28439874e-01  8.00000000e-11  1.62046417e+00  8.00000000e-11  1.62485950e+00                                 
 1.60000000e-10  7.81113704e-01  1.60000000e-10  7.24062524e-01  1.60000000e-10  1.62040262e+00  1.60000000e-10  2.88000000e-01  1.60000000e-10  1.80000445e+00  1.60000000e-10  7.28499118e-01  1.60000000e-10  1.62053787e+00  1.60000000e-10  1.62484936e+00                                 
 3.20000000e-10  7.81110293e-01  3.20000000e-10  7.24064920e-01  3.20000000e-10  1.62005505e+00  3.20000000e-10  5.76000000e-01  3.20000000e-10  1.79999879e+00  3.20000000e-10  7.28391416e-01  3.20000000e-10  1.62030471e+00  3.20000000e-10  1.62484602e+00                                 
 6.40000000e-10  7.81030481e-01  6.40000000e-10  7.23740003e-01  6.40000000e-10  1.61693873e+00  6.40000000e-10  1.15200000e+00  6.40000000e-10  1.81250679e+00  6.40000000e-10  7.26757013e-01  6.40000000e-10  1.62533984e+00  6.40000000e-10  1.62487545e+00                                 
 1.00000000e-09  7.81645465e-01  1.00000000e-09  7.23907906e-01  1.00000000e-09  1.58961477e+00  1.00000000e-09  1.80000000e+00  1.00000000e-09  8.64331852e-02  1.00000000e-09  7.34447295e-01  1.00000000e-09  1.62170942e+00  1.00000000e-09  1.62481056e+00                                 
 1.03611037e-09  7.81643491e-01  1.03611037e-09  7.23952997e-01  1.03611037e-09  1.58923828e+00  1.03611037e-09  1.80000000e+00  1.03611037e-09  1.87166881e-02  1.03611037e-09  7.37112650e-01  1.03611037e-09  1.62313035e+00  1.03611037e-09  1.62485659e+00                                 
 1.10833110e-09  7.81701988e-01  1.10833110e-09  7.24027398e-01  1.10833110e-09  1.58950218e+00  1.10833110e-09  1.80000000e+00  1.10833110e-09 -8.99610343e-03  1.10833110e-09  7.40556577e-01  1.10833110e-09  1.62581029e+00  1.10833110e-09  1.62489040e+00                                 
 1.25277256e-09  7.81847043e-01  1.25277256e-09  7.23900595e-01  1.25277256e-09  1.58753250e+00  1.25277256e-09  1.80000000e+00  1.25277256e-09  7.85446011e-03  1.25277256e-09  7.40798447e-01  1.25277256e-09  1.62624383e+00  1.25277256e-09  1.62484576e+00                                 
 1.51673819e-09  7.81863852e-01  1.51673819e-09  7.23871451e-01  1.51673819e-09  1.58549277e+00  1.51673819e-09  1.80000000e+00  1.51673819e-09 -6.37161273e-03  1.51673819e-09  7.40516294e-01  1.51673819e-09  1.62580311e+00  1.51673819e-09  1.62487941e+00                                 
 1.75728551e-09  7.81759966e-01  1.75728551e-09  7.23866177e-01  1.75728551e-09  1.58572086e+00  1.75728551e-09  1.80000000e+00  1.75728551e-09  5.53669435e-03  1.75728551e-09  7.39392358e-01  1.75728551e-09  1.62502277e+00  1.75728551e-09  1.62487227e+00                                 
 2.09431298e-09  7.81526676e-01  2.09431298e-09  7.23830568e-01  2.09431298e-09  1.58650674e+00  2.09431298e-09  1.80000000e+00  2.09431298e-09 -5.00476099e-03  2.09431298e-09  7.37965966e-01  2.09431298e-09  1.62365272e+00  2.09431298e-09  1.62492316e+00                                 
 2.44555873e-09  7.81348300e-01  2.44555873e-09  7.23838933e-01  2.44555873e-09  1.58767132e+00  2.44555873e-09  1.80000000e+00  2.44555873e-09  4.44134320e-03  2.44555873e-09  7.36716048e-01  2.44555873e-09  1.62273000e+00  2.44555873e-09  1.62495191e+00                                 
 3.12903027e-09  7.81115249e-01  3.12903027e-09  7.23802355e-01  3.12903027e-09  1.58856396e+00  3.12903027e-09  1.80000000e+00  3.12903027e-09 -4.29022727e-03  3.12903027e-09  7.34154494e-01  3.12903027e-09  1.62041628e+00  3.12903027e-09  1.62503993e+00                                 
 4.22929062e-09  7.81005791e-01  4.22929062e-09  7.23823591e-01  4.22929062e-09  1.58923197e+00  4.22929062e-09  1.80000000e+00  4.22929062e-09  4.07587993e-03  4.22929062e-09  7.31246036e-01  4.22929062e-09  1.61806614e+00  4.22929062e-09  1.62512588e+00                                 
 6.42981132e-09  7.80979155e-01  6.42981132e-09  7.23812319e-01  6.42981132e-09  1.58713139e+00  6.42981132e-09  1.80000000e+00  6.42981132e-09 -4.07426984e-03  6.42981132e-09  7.27310543e-01  6.42981132e-09  1.61459411e+00  6.42981132e-09  1.62515607e+00                                 
 8.19785036e-09  7.80969292e-01  8.19785036e-09  7.23846554e-01  8.19785036e-09  1.58613619e+00  8.19785036e-09  1.80000000e+00  8.19785036e-09  3.95870423e-03  8.19785036e-09  7.26126625e-01  8.19785036e-09  1.61370998e+00  8.19785036e-09  1.62502946e+00                                 
 9.90415628e-09  7.80971844e-01  9.90415628e-09  7.23825334e-01  9.90415628e-09  1.58408552e+00  9.90415628e-09  1.80000000e+00  9.90415628e-09 -3.89211568e-03  9.90415628e-09  7.25308760e-01  9.90415628e-09  1.61289296e+00  9.90415628e-09  1.62484869e+00                                 
 1.17154808e-08  7.81003875e-01  1.17154808e-08  7.23852060e-01  1.17154808e-08  1.58134557e+00  1.17154808e-08  1.80000000e+00  1.17154808e-08  3.81177273e-03  1.17154808e-08  7.25233586e-01  1.17154808e-08  1.61294206e+00  1.17154808e-08  1.62461098e+00                                 
 1.43259299e-08  7.81040479e-01  1.43259299e-08  7.23827772e-01  1.43259299e-08  1.57470105e+00  1.43259299e-08  1.80000000e+00  1.43259299e-08 -3.76041641e-03  1.43259299e-08  7.24957814e-01  1.43259299e-08  1.61258095e+00  1.43259299e-08  1.62426595e+00                                 
 1.74654620e-08  7.81079342e-01  1.74654620e-08  7.23853479e-01  1.74654620e-08  1.56539359e+00  1.74654620e-08  1.80000000e+00  1.74654620e-08  3.72223836e-03  1.74654620e-08  7.25274038e-01  1.74654620e-08  1.61294896e+00  1.74654620e-08  1.62385659e+00                                 
 2.19247787e-08  7.81097455e-01  2.19247787e-08  7.23828767e-01  2.19247787e-08  1.54974824e+00  2.19247787e-08  1.80000000e+00  2.19247787e-08 -3.68806912e-03  2.19247787e-08  7.25296804e-01  2.19247787e-08  1.61283300e+00  2.19247787e-08  1.62334445e+00                                 
 2.79226168e-08  7.81107718e-01  2.79226168e-08  7.23854118e-01  2.79226168e-08  1.52825595e+00  2.79226168e-08  1.80000000e+00  2.79226168e-08  3.67204095e-03  2.79226168e-08  7.25782171e-01  2.79226168e-08  1.61333464e+00  2.79226168e-08  1.62275779e+00                                 
 3.84386958e-08  7.81101408e-01  3.84386958e-08  7.23828767e-01  3.84386958e-08  1.48902269e+00  3.84386958e-08  1.80000000e+00  3.84386958e-08 -3.65446850e-03  3.84386958e-08  7.25907950e-01  3.84386958e-08  1.61330019e+00  3.84386958e-08  1.62198497e+00                                 
 5.35564406e-08  7.81102415e-01  5.35564406e-08  7.23853854e-01  5.35564406e-08  1.43291560e+00  5.35564406e-08  1.80000000e+00  5.35564406e-08  3.65120707e-03  5.35564406e-08  7.26378687e-01  5.35564406e-08  1.61378986e+00  5.35564406e-08  1.62124850e+00                                 
 8.37919302e-08  7.81096266e-01  8.37919302e-08  7.23828598e-01  8.37919302e-08  1.31984084e+00  8.37919302e-08  1.80000000e+00  8.37919302e-08 -3.64184925e-03  8.37919302e-08  7.26357471e-01  8.37919302e-08  1.61364070e+00  8.37919302e-08  1.62050195e+00                                 
 1.35313703e-07  7.81099483e-01  1.35313703e-07  7.23853813e-01  1.35313703e-07  1.12960001e+00  1.35313703e-07  1.80000000e+00  1.35313703e-07  3.64468295e-03  1.35313703e-07  7.26604761e-01  1.35313703e-07  1.61395413e+00  1.35313703e-07  1.62009993e+00                                 
 2.07298529e-07  7.81095523e-01  2.07298529e-07  7.23828584e-01  2.07298529e-07  8.75671619e-01  2.07298529e-07  1.80000000e+00  2.07298529e-07 -3.63671519e-03  2.07298529e-07  7.26388374e-01  2.07298529e-07  1.61365317e+00  2.07298529e-07  1.62001383e+00                                 
 2.71337097e-07  7.81100167e-01  2.71337097e-07  7.23853847e-01  2.71337097e-07  7.43195866e-01  2.71337097e-07  1.80000000e+00  2.71337097e-07  3.64442007e-03  2.71337097e-07  7.26601840e-01  2.71337097e-07  1.61394381e+00  2.71337097e-07  1.62000241e+00                                 
 3.22846776e-07  7.81094628e-01  3.22846776e-07  7.23828605e-01  3.22846776e-07  7.27396641e-01  3.22846776e-07  1.80000000e+00  3.22846776e-07 -3.62990648e-03  3.22846776e-07  7.26393338e-01  3.22846776e-07  1.61365266e+00  3.22846776e-07  1.62000492e+00                                 
 3.58818421e-07  7.81099792e-01  3.58818421e-07  7.23853710e-01  3.58818421e-07  7.29402883e-01  3.58818421e-07  1.80000000e+00  3.58818421e-07  3.63898556e-03  3.58818421e-07  7.26599465e-01  3.58818421e-07  1.61393840e+00  3.58818421e-07  1.61999985e+00                                 
 4.00333067e-07  7.81095451e-01  4.00333067e-07  7.23828740e-01  4.00333067e-07  7.28965337e-01  4.00333067e-07  1.80000000e+00  4.00333067e-07 -3.62360406e-03  4.00333067e-07  7.26391825e-01  4.00333067e-07  1.61364849e+00  4.00333067e-07  1.62000087e+00                                 
 4.49266257e-07  7.81099561e-01  4.49266257e-07  7.23853654e-01  4.49266257e-07  7.29408200e-01  4.49266257e-07  1.80000000e+00  4.49266257e-07  3.63351796e-03  4.49266257e-07  7.26600196e-01  4.49266257e-07  1.61393548e+00  4.49266257e-07  1.61999575e+00                                 
 5.41415303e-07  7.81095555e-01  5.41415303e-07  7.23828762e-01  5.41415303e-07  7.28994356e-01  5.41415303e-07  1.80000000e+00  5.41415303e-07 -3.61977253e-03  5.41415303e-07  7.26391461e-01  5.41415303e-07  1.61364288e+00  5.41415303e-07  1.61999536e+00                                 
 7.02319862e-07  7.81099522e-01  7.02319862e-07  7.23853647e-01  7.02319862e-07  7.29394669e-01  7.02319862e-07  1.80000000e+00  7.02319862e-07  3.63142508e-03  7.02319862e-07  7.26600367e-01  7.02319862e-07  1.61392598e+00  7.02319862e-07  1.61998611e+00                                 
 9.74237961e-07  7.81095573e-01  9.74237961e-07  7.23828765e-01  9.74237961e-07  7.29001546e-01  9.74237961e-07  1.80000000e+00  9.74237961e-07 -3.61857781e-03  9.74237961e-07  7.26391369e-01  9.74237961e-07  1.61362641e+00  9.74237961e-07  1.61997898e+00                                 
 1.51807416e-06  7.81099514e-01  1.51807416e-06  7.23853645e-01  1.51807416e-06  7.29390826e-01  1.51807416e-06  1.80000000e+00  1.51807416e-06  3.63074844e-03  1.51807416e-06  7.26600416e-01  1.51807416e-06  1.61389508e+00  1.51807416e-06  1.61995523e+00                                 
 2.48431106e-06  7.81095577e-01  2.48431106e-06  7.23828766e-01  2.48431106e-06  7.29003489e-01  2.48431106e-06  1.80000000e+00  2.48431106e-06 -3.61822501e-03  2.48431106e-06  7.26391345e-01  2.48431106e-06  1.61356907e+00  2.48431106e-06  1.61992176e+00                                 
 3.68431106e-06  7.81099511e-01  3.68431106e-06  7.23853644e-01  3.68431106e-06  7.29389578e-01  3.68431106e-06  1.80000000e+00  3.68431106e-06  3.63052152e-03  3.68431106e-06  7.26600431e-01  3.68431106e-06  1.61381273e+00  3.68431106e-06  1.61987300e+00                                 
 4.88431106e-06  7.81095579e-01  4.88431106e-06  7.23828767e-01  4.88431106e-06  7.29004588e-01  4.88431106e-06  1.80000000e+00  4.88431106e-06 -3.61804320e-03  4.88431106e-06  7.26391330e-01  4.88431106e-06  1.61347777e+00  4.88431106e-06  1.61983061e+00                                 
 6.00100000e-06  7.81099509e-01  6.00100000e-06  7.23853644e-01  6.00100000e-06  7.29388446e-01  6.00100000e-06  1.80000000e+00  6.00100000e-06  3.63031008e-03  6.00100000e-06  7.26600446e-01  6.00100000e-06  1.61372472e+00  6.00100000e-06  1.61978512e+00                                 
 6.00110000e-06  7.81057782e-01  6.00110000e-06  7.23600274e-01  6.00110000e-06  7.27367026e-01  6.00110000e-06  1.62000000e+00  6.00110000e-06  1.83047968e-04  6.00110000e-06  7.24811289e-01  6.00110000e-06  1.61214953e+00  6.00110000e-06  1.61977378e+00                                 
 6.00130000e-06  7.81089035e-01  6.00130000e-06  7.23617972e-01  6.00130000e-06  7.27755803e-01  6.00130000e-06  1.26000000e+00  6.00130000e-06 -2.10039513e-04  6.00130000e-06  7.24845499e-01  6.00130000e-06  1.61217340e+00  6.00130000e-06  1.61979381e+00                                 
 6.00170000e-06  7.81138529e-01  6.00170000e-06  7.23374279e-01  6.00170000e-06  7.41988255e-01  6.00170000e-06  5.40000000e-01  6.00170000e-06  1.43462253e+00  6.00170000e-06  7.20472404e-01  6.00170000e-06  1.55407405e+00  6.00170000e-06  1.61954559e+00                                 
 6.00200000e-06  7.81083961e-01  6.00200000e-06  7.20957602e-01  6.00200000e-06  7.73564963e-01  6.00200000e-06  0.00000000e+00  6.00200000e-06  1.85528739e+00  6.00200000e-06  6.94554765e-01  6.00200000e-06  1.24506894e+00  6.00200000e-06  1.61919886e+00                                 
 6.00203881e-06  7.81095664e-01  6.00203881e-06  7.20967958e-01  6.00203881e-06  7.69131450e-01  6.00203881e-06  0.00000000e+00  6.00203881e-06  1.82029671e+00  6.00203881e-06  6.94957016e-01  6.00203881e-06  1.19799260e+00  6.00203881e-06  1.61959248e+00                                 
 6.00211643e-06  7.81099807e-01  6.00211643e-06  7.21150223e-01  6.00211643e-06  7.61806145e-01  6.00211643e-06  0.00000000e+00  6.00211643e-06  1.79329845e+00  6.00211643e-06  6.97715115e-01  6.00211643e-06  1.11845553e+00  6.00211643e-06  1.61996164e+00                                 
 6.00227168e-06  7.81095906e-01  6.00227168e-06  7.21458263e-01  6.00227168e-06  7.56942594e-01  6.00227168e-06  0.00000000e+00  6.00227168e-06  1.80201137e+00  6.00227168e-06  7.01766670e-01  6.00227168e-06  9.97813926e-01  6.00227168e-06  1.61991912e+00                                 
 6.00247426e-06  7.81097556e-01  6.00247426e-06  7.21860504e-01  6.00247426e-06  7.51486502e-01  6.00247426e-06  0.00000000e+00  6.00247426e-06  1.79777544e+00  6.00247426e-06  7.05635592e-01  6.00247426e-06  8.77218379e-01  6.00247426e-06  1.62006343e+00                                 
 6.00269608e-06  7.81095727e-01  6.00269608e-06  7.22676713e-01  6.00269608e-06  7.42810381e-01  6.00269608e-06  0.00000000e+00  6.00269608e-06  1.80054889e+00  6.00269608e-06  7.13534200e-01  6.00269608e-06  7.95438775e-01  6.00269608e-06  1.62005525e+00                                 
 6.00313971e-06  7.81097372e-01  6.00313971e-06  7.23884741e-01  6.00313971e-06  7.31794090e-01  6.00313971e-06  0.00000000e+00  6.00313971e-06  1.79934059e+00  6.00313971e-06  7.23708569e-01  6.00313971e-06  7.35192753e-01  6.00313971e-06  1.61988831e+00                                 
 6.00346931e-06  7.81096289e-01  6.00346931e-06  7.24287753e-01  6.00346931e-06  7.29897887e-01  6.00346931e-06  0.00000000e+00  6.00346931e-06  1.80055448e+00  6.00346931e-06  7.26466158e-01  6.00346931e-06  7.31759494e-01  6.00346931e-06  1.61934809e+00                                 
 6.00383658e-06  7.81097710e-01  6.00383658e-06  7.24374835e-01  6.00383658e-06  7.30251517e-01  6.00383658e-06  0.00000000e+00  6.00383658e-06  1.79962095e+00  6.00383658e-06  7.26822330e-01  6.00383658e-06  7.30022681e-01  6.00383658e-06  1.61855391e+00                                 
 6.00423758e-06  7.81096800e-01  6.00423758e-06  7.24405015e-01  6.00423758e-06  7.30335565e-01  6.00423758e-06  0.00000000e+00  6.00423758e-06  1.80029641e+00  6.00423758e-06  7.27433431e-01  6.00423758e-06  7.30553686e-01  6.00423758e-06  1.61746478e+00                                 
 6.00503958e-06  7.81097974e-01  6.00503958e-06  7.24315694e-01  6.00503958e-06  7.32095158e-01  6.00503958e-06  0.00000000e+00  6.00503958e-06  1.79976678e+00  6.00503958e-06  7.27397922e-01  6.00503958e-06  7.31517841e-01  6.00503958e-06  1.61512652e+00                                 
 6.00664358e-06  7.81097075e-01  6.00664358e-06  7.24192342e-01  6.00664358e-06  7.34916731e-01  6.00664358e-06  0.00000000e+00  6.00664358e-06  1.80023190e+00  6.00664358e-06  7.27790514e-01  6.00664358e-06  7.34933012e-01  6.00664358e-06  1.61000208e+00                                 
 6.00985159e-06  7.81098020e-01  6.00985159e-06  7.23982889e-01  6.00985159e-06  7.42140914e-01  6.00985159e-06  0.00000000e+00  6.00985159e-06  1.79979562e+00  6.00985159e-06  7.27514418e-01  6.00985159e-06  7.41473658e-01  6.00985159e-06  1.59948694e+00                                 
 6.01626759e-06  7.81097073e-01  6.01626759e-06  7.23839749e-01  6.01626759e-06  7.55601119e-01  6.01626759e-06  0.00000000e+00  6.01626759e-06  1.80021736e+00  6.01626759e-06  7.27468132e-01  6.01626759e-06  7.55582411e-01  6.01626759e-06  1.57863379e+00                                 
 6.02909961e-06  7.81098017e-01  6.02909961e-06  7.23814077e-01  6.02909961e-06  7.82453116e-01  6.02909961e-06  0.00000000e+00  6.02909961e-06  1.79980177e+00  6.02909961e-06  7.26828524e-01  6.02909961e-06  7.81656736e-01  6.02909961e-06  1.53852305e+00                                 
 6.05476363e-06  7.81097074e-01  6.05476363e-06  7.23851526e-01  6.05476363e-06  8.30459588e-01  6.05476363e-06  0.00000000e+00  6.05476363e-06  1.80021254e+00  6.05476363e-06  7.26701926e-01  6.05476363e-06  8.30517214e-01  6.05476363e-06  1.46381620e+00                                 
 6.10609169e-06  7.81098016e-01  6.10609169e-06  7.23829166e-01  6.10609169e-06  9.11560360e-01  6.10609169e-06  0.00000000e+00  6.10609169e-06  1.79980035e+00  6.10609169e-06  7.26358659e-01  6.10609169e-06  9.09536716e-01  6.10609169e-06  1.32971909e+00                                 
 6.20874780e-06  7.81097074e-01  6.20874780e-06  7.23853250e-01  6.20874780e-06  1.02394470e+00  6.20874780e-06  0.00000000e+00  6.20874780e-06  1.80020717e+00  6.20874780e-06  7.26610845e-01  6.20874780e-06  1.02498662e+00  6.20874780e-06  1.11537862e+00                                 
 6.32237157e-06  7.81098016e-01  6.32237157e-06  7.23829278e-01  6.32237157e-06  1.09719722e+00  6.32237157e-06  0.00000000e+00  6.32237157e-06  1.79979670e+00  6.32237157e-06  7.26372430e-01  6.32237157e-06  1.09537645e+00  6.32237157e-06  1.06707988e+00                                 
 6.43655994e-06  7.81097074e-01  6.43655994e-06  7.23853051e-01  6.43655994e-06  1.13803822e+00  6.43655994e-06  0.00000000e+00  6.43655994e-06  1.80020481e+00  6.43655994e-06  7.26613964e-01  6.43655994e-06  1.13904601e+00  6.43655994e-06  1.13506063e+00                                 
 6.54556194e-06  7.81098015e-01  6.54556194e-06  7.23829467e-01  6.54556194e-06  1.16093259e+00  6.54556194e-06  0.00000000e+00  6.54556194e-06  1.79979618e+00  6.54556194e-06  7.26374034e-01  6.54556194e-06  1.15978235e+00  6.54556194e-06  1.15974374e+00                                 
