 time            v(vbep)         time            v(vben)         time            v(vout)         time            v(vphi1)        time            v(vphi2)        time            v(vref)         time            v(voutc)        time            v(voutcc)       yes             currtemp       
 0.00000000e+00  7.46007408e-01  0.00000000e+00  6.81229622e-01  0.00000000e+00  1.54372989e+00  0.00000000e+00  0.00000000e+00  0.00000000e+00  1.80000000e+00  0.00000000e+00  6.82805100e-01  0.00000000e+00  1.54372987e+00  0.00000000e+00  1.55081704e+00  1.00000000e+00  5.20000000e+01 
 5.00000000e-12  7.46029187e-01  5.00000000e-12  6.81283687e-01  5.00000000e-12  1.54435116e+00  5.00000000e-12  1.80000000e-02  5.00000000e-12  1.80018544e+00  5.00000000e-12  6.83196897e-01  5.00000000e-12  1.54407791e+00  5.00000000e-12  1.55082988e+00                                 
 1.00000000e-11  7.46038756e-01  1.00000000e-11  6.81319308e-01  1.00000000e-11  1.54479815e+00  1.00000000e-11  3.60000000e-02  1.00000000e-11  1.80026936e+00  1.00000000e-11  6.83504657e-01  1.00000000e-11  1.54435266e+00  1.00000000e-11  1.55083654e+00                                 
 2.00000000e-11  7.46045129e-01  2.00000000e-11  6.81368842e-01  2.00000000e-11  1.54544054e+00  2.00000000e-11  7.20000000e-02  2.00000000e-11  1.80032250e+00  2.00000000e-11  6.83986136e-01  2.00000000e-11  1.54478587e+00  2.00000000e-11  1.55084256e+00                                 
 4.00000000e-11  7.46033051e-01  4.00000000e-11  6.81404838e-01  4.00000000e-11  1.54586113e+00  4.00000000e-11  1.44000000e-01  4.00000000e-11  1.80019159e+00  4.00000000e-11  6.84448577e-01  4.00000000e-11  1.54521666e+00  4.00000000e-11  1.55083614e+00                                 
 8.00000000e-11  7.46019643e-01  8.00000000e-11  6.81410375e-01  8.00000000e-11  1.54572300e+00  8.00000000e-11  2.88000000e-01  8.00000000e-11  1.80003032e+00  8.00000000e-11  6.84585284e-01  8.00000000e-11  1.54537808e+00  8.00000000e-11  1.55082157e+00                                 
 1.60000000e-10  7.46020120e-01  1.60000000e-10  6.81397547e-01  1.60000000e-10  1.54523305e+00  1.60000000e-10  5.76000000e-01  1.60000000e-10  1.80000911e+00  1.60000000e-10  6.84385726e-01  1.60000000e-10  1.54523477e+00  1.60000000e-10  1.55081605e+00                                 
 3.20000000e-10  7.45952840e-01  3.20000000e-10  6.80954935e-01  3.20000000e-10  1.54153572e+00  3.20000000e-10  1.15200000e+00  3.20000000e-10  1.80073206e+00  3.20000000e-10  6.80553196e-01  3.20000000e-10  1.54210563e+00  3.20000000e-10  1.55078628e+00                                 
 5.00000000e-10  7.46031945e-01  5.00000000e-10  6.81436665e-01  5.00000000e-10  1.53815745e+00  5.00000000e-10  1.80000000e+00  5.00000000e-10  1.65023482e-01  5.00000000e-10  6.87189689e-01  5.00000000e-10  1.54780466e+00  5.00000000e-10  1.55087779e+00                                 
 5.21234727e-10  7.46034179e-01  5.21234727e-10  6.81468956e-01  5.21234727e-10  1.53749486e+00  5.21234727e-10  1.80000000e+00  5.21234727e-10  4.44359330e-02  5.21234727e-10  6.88815363e-01  5.21234727e-10  1.54871620e+00  5.21234727e-10  1.55086700e+00                                 
 5.63704180e-10  7.46115032e-01  5.63704180e-10  6.81534175e-01  5.63704180e-10  1.53685709e+00  5.63704180e-10  1.80000000e+00  5.63704180e-10 -1.57142105e-02  5.63704180e-10  6.91039071e-01  5.63704180e-10  1.55061841e+00  5.63704180e-10  1.55086265e+00                                 
 6.48643088e-10  7.46227075e-01  6.48643088e-10  6.81370307e-01  6.48643088e-10  1.53387638e+00  6.48643088e-10  1.80000000e+00  6.48643088e-10  1.22697372e-02  6.48643088e-10  6.90690259e-01  6.48643088e-10  1.55053788e+00  6.48643088e-10  1.55081132e+00                                 
 7.68025572e-10  7.46273506e-01  7.68025572e-10  6.81331199e-01  7.68025572e-10  1.53218161e+00  7.68025572e-10  1.80000000e+00  7.68025572e-10 -9.63999448e-03  7.68025572e-10  6.91972095e-01  7.68025572e-10  1.55149032e+00  7.68025572e-10  1.55083436e+00                                 
 9.45878785e-10  7.46332998e-01  9.45878785e-10  6.81298327e-01  9.45878785e-10  1.53108942e+00  9.45878785e-10  1.80000000e+00  9.45878785e-10  8.78106622e-03  9.45878785e-10  6.92763271e-01  9.45878785e-10  1.55233695e+00  9.45878785e-10  1.55080764e+00                                 
 1.30158521e-09  7.46297190e-01  1.30158521e-09  6.81223315e-01  1.30158521e-09  1.52918489e+00  1.30158521e-09  1.80000000e+00  1.30158521e-09 -7.99505835e-03  1.30158521e-09  6.92360688e-01  1.30158521e-09  1.55185577e+00  1.30158521e-09  1.55083796e+00                                 
 1.70765433e-09  7.46239122e-01  1.70765433e-09  6.81240096e-01  1.70765433e-09  1.52790733e+00  1.70765433e-09  1.80000000e+00  1.70765433e-09  7.65631574e-03  1.70765433e-09  6.91991195e-01  1.70765433e-09  1.55165948e+00  1.70765433e-09  1.55088898e+00                                 
 2.35606170e-09  7.46103260e-01  2.35606170e-09  6.81200376e-01  2.35606170e-09  1.52524708e+00  2.35606170e-09  1.80000000e+00  2.35606170e-09 -7.34740219e-03  2.35606170e-09  6.90377286e-01  2.35606170e-09  1.55012348e+00  2.35606170e-09  1.55102019e+00                                 
 3.06112902e-09  7.46038856e-01  3.06112902e-09  6.81230382e-01  3.06112902e-09  1.52293263e+00  3.06112902e-09  1.80000000e+00  3.06112902e-09  7.11708838e-03  3.06112902e-09  6.89467085e-01  3.06112902e-09  1.54944143e+00  3.06112902e-09  1.55116609e+00                                 
 4.10796400e-09  7.45971789e-01  4.10796400e-09  6.81196359e-01  4.10796400e-09  1.51839862e+00  4.10796400e-09  1.80000000e+00  4.10796400e-09 -6.95681763e-03  4.10796400e-09  6.87328185e-01  4.10796400e-09  1.54745412e+00  4.10796400e-09  1.55136716e+00                                 
 5.62680163e-09  7.45963757e-01  5.62680163e-09  6.81232132e-01  5.62680163e-09  1.51244789e+00  5.62680163e-09  1.80000000e+00  5.62680163e-09  6.85676294e-03  5.62680163e-09  6.85683439e-01  5.62680163e-09  1.54612858e+00  5.62680163e-09  1.55157926e+00                                 
 8.66447689e-09  7.45940889e-01  8.66447689e-09  6.81207076e-01  8.66447689e-09  1.49888425e+00  8.66447689e-09  1.80000000e+00  8.66447689e-09 -6.79155585e-03  8.66447689e-09  6.82705815e-01  8.66447689e-09  1.54341946e+00  8.66447689e-09  1.55173647e+00                                 
 1.18446721e-08  7.45969446e-01  1.18446721e-08  6.81244917e-01  1.18446721e-08  1.48388239e+00  1.18446721e-08  1.80000000e+00  1.18446721e-08  6.76353176e-03  1.18446721e-08  6.81942141e-01  1.18446721e-08  1.54286261e+00  1.18446721e-08  1.55164707e+00                                 
 1.42856995e-08  7.45969093e-01  1.42856995e-08  6.81212840e-01  1.42856995e-08  1.47066453e+00  1.42856995e-08  1.80000000e+00  1.42856995e-08 -6.67575255e-03  1.42856995e-08  6.81218717e-01  1.42856995e-08  1.54211639e+00  1.42856995e-08  1.55149794e+00                                 
 1.71391670e-08  7.45996323e-01  1.71391670e-08  6.81246482e-01  1.71391670e-08  1.45507442e+00  1.71391670e-08  1.80000000e+00  1.71391670e-08  6.64818001e-03  1.71391670e-08  6.81549998e-01  1.71391670e-08  1.54250674e+00  1.71391670e-08  1.55130945e+00                                 
 2.05096612e-08  7.45993517e-01  2.05096612e-08  6.81213355e-01  2.05096612e-08  1.43501595e+00  2.05096612e-08  1.80000000e+00  2.05096612e-08 -6.57606009e-03  2.05096612e-08  6.81244814e-01  2.05096612e-08  1.54212272e+00  2.05096612e-08  1.55109560e+00                                 
 2.51627796e-08  7.46015885e-01  2.51627796e-08  6.81246628e-01  2.51627796e-08  1.40715677e+00  2.51627796e-08  1.80000000e+00  2.51627796e-08  6.57150891e-03  2.51627796e-08  6.81900883e-01  2.51627796e-08  1.54279263e+00  2.51627796e-08  1.55085748e+00                                 
 3.07040381e-08  7.46005471e-01  3.07040381e-08  6.81213320e-01  3.07040381e-08  1.37247364e+00  3.07040381e-08  1.80000000e+00  3.07040381e-08 -6.51630109e-03  3.07040381e-08  6.81788242e-01  3.07040381e-08  1.54257870e+00  3.07040381e-08  1.55065329e+00                                 
 3.88628771e-08  7.46019268e-01  3.88628771e-08  6.81246512e-01  3.88628771e-08  1.32171299e+00  3.88628771e-08  1.80000000e+00  3.88628771e-08  6.52630643e-03  3.88628771e-08  6.82519609e-01  3.88628771e-08  1.54331835e+00  3.88628771e-08  1.55048919e+00                                 
 5.02686521e-08  7.46003416e-01  5.02686521e-08  6.81213090e-01  5.02686521e-08  1.24979489e+00  5.02686521e-08  1.80000000e+00  5.02686521e-08 -6.48495326e-03  5.02686521e-08  6.82371231e-01  5.02686521e-08  1.54308075e+00  5.02686521e-08  1.55040965e+00                                 
 7.09802475e-08  7.46015035e-01  7.09802475e-08  6.81246290e-01  7.09802475e-08  1.12067431e+00  7.09802475e-08  1.80000000e+00  7.09802475e-08  6.50611930e-03  7.09802475e-08  6.82961262e-01  7.09802475e-08  1.54370527e+00  7.09802475e-08  1.55044267e+00                                 
 1.01997381e-07  7.46000302e-01  1.01997381e-07  6.81212942e-01  1.01997381e-07  9.29285430e-01  1.01997381e-07  1.80000000e+00  1.01997381e-07 -6.47274221e-03  1.01997381e-07  6.82599766e-01  1.01997381e-07  1.54328612e+00  1.01997381e-07  1.55053828e+00                                 
 1.34160413e-07  7.46014151e-01  1.34160413e-07  6.81246224e-01  1.34160413e-07  7.59584910e-01  1.34160413e-07  1.80000000e+00  1.34160413e-07  6.49839706e-03  1.34160413e-07  6.83004280e-01  1.34160413e-07  1.54374540e+00  1.34160413e-07  1.55058717e+00                                 
 1.65201953e-07  7.46003443e-01  1.65201953e-07  6.81213197e-01  1.65201953e-07  6.84664514e-01  1.65201953e-07  1.80000000e+00  1.65201953e-07 -6.46006183e-03  1.65201953e-07  6.82607390e-01  1.65201953e-07  1.54329165e+00  1.65201953e-07  1.55059848e+00                                 
 1.94004522e-07  7.46009728e-01  1.94004522e-07  6.81245966e-01  1.94004522e-07  6.84186035e-01  1.94004522e-07  1.80000000e+00  1.94004522e-07  6.49022086e-03  1.94004522e-07  6.83009691e-01  1.94004522e-07  1.54374825e+00  1.94004522e-07  1.55060663e+00                                 
 2.10444974e-07  7.46003112e-01  2.10444974e-07  6.81213175e-01  2.10444974e-07  6.84449093e-01  2.10444974e-07  1.80000000e+00  2.10444974e-07 -6.44640631e-03  2.10444974e-07  6.82602374e-01  2.10444974e-07  1.54328592e+00  2.10444974e-07  1.55060357e+00                                 
 2.31960200e-07  7.46012321e-01  2.31960200e-07  6.81246059e-01  2.31960200e-07  6.84483370e-01  2.31960200e-07  1.80000000e+00  2.31960200e-07  6.47474876e-03  2.31960200e-07  6.83007553e-01  2.31960200e-07  1.54374487e+00  2.31960200e-07  1.55060549e+00                                 
 2.74990652e-07  7.46002227e-01  2.74990652e-07  6.81213171e-01  2.74990652e-07  6.84342773e-01  2.74990652e-07  1.80000000e+00  2.74990652e-07 -6.43625697e-03  2.74990652e-07  6.82602597e-01  2.74990652e-07  1.54328386e+00  2.74990652e-07  1.55060079e+00                                 
 3.40698815e-07  7.46012740e-01  3.40698815e-07  6.81246057e-01  3.40698815e-07  6.84492974e-01  3.40698815e-07  1.80000000e+00  3.40698815e-07  6.46920762e-03  3.40698815e-07  6.83007455e-01  3.40698815e-07  1.54374086e+00  3.40698815e-07  1.55060142e+00                                 
 4.72115143e-07  7.46002006e-01  4.72115143e-07  6.81213173e-01  4.72115143e-07  6.84335245e-01  4.72115143e-07  1.80000000e+00  4.72115143e-07 -6.43300667e-03  4.72115143e-07  6.82602634e-01  4.72115143e-07  1.54327690e+00  4.72115143e-07  1.55059371e+00                                 
 7.34947798e-07  7.46012844e-01  7.34947798e-07  6.81246056e-01  7.34947798e-07  6.84496455e-01  7.34947798e-07  1.80000000e+00  7.34947798e-07  6.46754700e-03  7.34947798e-07  6.83007440e-01  7.34947798e-07  1.54372678e+00  7.34947798e-07  1.55058739e+00                                 
 1.26061311e-06  7.46001956e-01  1.26061311e-06  6.81213173e-01  1.26061311e-06  6.84333469e-01  1.26061311e-06  1.80000000e+00  1.26061311e-06 -6.43219444e-03  1.26061311e-06  6.82602641e-01  1.26061311e-06  1.54324878e+00  1.26061311e-06  1.55056563e+00                                 
 2.26061311e-06  7.46012869e-01  2.26061311e-06  6.81246055e-01  2.26061311e-06  6.84497309e-01  2.26061311e-06  1.80000000e+00  2.26061311e-06  6.46713437e-03  2.26061311e-06  6.83007436e-01  2.26061311e-06  1.54367235e+00  2.26061311e-06  1.55053305e+00                                 
 3.26061311e-06  7.46001938e-01  3.26061311e-06  6.81213173e-01  3.26061311e-06  6.84332847e-01  3.26061311e-06  1.80000000e+00  3.26061311e-06 -6.43208976e-03  3.26061311e-06  6.82602644e-01  3.26061311e-06  1.54317744e+00  3.26061311e-06  1.55049438e+00                                 
 4.26061311e-06  7.46012886e-01  4.26061311e-06  6.81246055e-01  4.26061311e-06  6.84497881e-01  4.26061311e-06  1.80000000e+00  4.26061311e-06  6.46687065e-03  4.26061311e-06  6.83007434e-01  4.26061311e-06  1.54360100e+00  4.26061311e-06  1.55046180e+00                                 
 5.26061311e-06  7.46001921e-01  5.26061311e-06  6.81213174e-01  5.26061311e-06  6.84332244e-01  5.26061311e-06  1.80000000e+00  5.26061311e-06 -6.43180507e-03  5.26061311e-06  6.82602646e-01  5.26061311e-06  1.54310613e+00  5.26061311e-06  1.55042317e+00                                 
 6.26061311e-06  7.46012903e-01  6.26061311e-06  6.81246055e-01  6.26061311e-06  6.84498459e-01  6.26061311e-06  1.80000000e+00  6.26061311e-06  6.46658302e-03  6.26061311e-06  6.83007432e-01  6.26061311e-06  1.54352972e+00  6.26061311e-06  1.55039063e+00                                 
 7.26061311e-06  7.46001904e-01  7.26061311e-06  6.81213174e-01  7.26061311e-06  6.84331647e-01  7.26061311e-06  1.80000000e+00  7.26061311e-06 -6.43152040e-03  7.26061311e-06  6.82602648e-01  7.26061311e-06  1.54303487e+00  7.26061311e-06  1.55035200e+00                                 
 8.26061311e-06  7.46012920e-01  8.26061311e-06  6.81246055e-01  8.26061311e-06  6.84499032e-01  8.26061311e-06  1.80000000e+00  8.26061311e-06  6.46629541e-03  8.26061311e-06  6.83007430e-01  8.26061311e-06  1.54345844e+00  8.26061311e-06  1.55031946e+00                                 
 9.26061311e-06  7.46001887e-01  9.26061311e-06  6.81213174e-01  9.26061311e-06  6.84331058e-01  9.26061311e-06  1.80000000e+00  9.26061311e-06 -6.43123574e-03  9.26061311e-06  6.82602650e-01  9.26061311e-06  1.54296359e+00  9.26061311e-06  1.55028082e+00                                 
 1.00005000e-05  7.46012940e-01  1.00005000e-05  6.81246054e-01  1.00005000e-05  6.84499696e-01  1.00005000e-05  1.80000000e+00  1.00005000e-05  6.46595941e-03  1.00005000e-05  6.83007427e-01  1.00005000e-05  1.54339641e+00  1.00005000e-05  1.55025752e+00                                 
 1.00005500e-05  7.45970581e-01  1.00005500e-05  6.81040178e-01  1.00005500e-05  6.82612989e-01  1.00005500e-05  1.62000000e+00  1.00005500e-05  5.57221114e-04  1.00005500e-05  6.81298422e-01  1.00005500e-05  1.54185171e+00  1.00005500e-05  1.55023704e+00                                 
 1.00006500e-05  7.45994333e-01  1.00006500e-05  6.81014318e-01  1.00006500e-05  6.82598507e-01  1.00006500e-05  1.26000000e+00  1.00006500e-05 -4.97126058e-04  1.00006500e-05  6.80924090e-01  1.00006500e-05  1.54151601e+00  1.00006500e-05  1.55025823e+00                                 
 1.00008500e-05  7.46042752e-01  1.00008500e-05  6.81208170e-01  1.00008500e-05  6.84867329e-01  1.00008500e-05  5.40000000e-01  1.00008500e-05 -2.76100072e-03  1.00008500e-05  6.81869167e-01  1.00008500e-05  1.54084600e+00  1.00008500e-05  1.55024842e+00                                 
 1.00010000e-05  7.45992212e-01  1.00010000e-05  6.80349890e-01  1.00010000e-05  7.05493987e-01  1.00010000e-05  0.00000000e+00  1.00010000e-05  1.51380818e+00  1.00010000e-05  6.71978573e-01  1.00010000e-05  1.48418532e+00  1.00010000e-05  1.54976059e+00                                 
 1.00010254e-05  7.46010312e-01  1.00010254e-05  6.80017385e-01  1.00010254e-05  7.11418581e-01  1.00010254e-05  0.00000000e+00  1.00010254e-05  1.69087043e+00  1.00010254e-05  6.67902197e-01  1.00010254e-05  1.45748662e+00  1.00010254e-05  1.54958033e+00                                 
 1.00010761e-05  7.46010468e-01  1.00010761e-05  6.79366193e-01  1.00010761e-05  7.17260920e-01  1.00010761e-05  0.00000000e+00  1.00010761e-05  1.82112471e+00  1.00010761e-05  6.60107274e-01  1.00010761e-05  1.39751334e+00  1.00010761e-05  1.54942956e+00                                 
 1.00011776e-05  7.46003553e-01  1.00011776e-05  6.79226362e-01  1.00011776e-05  7.11623820e-01  1.00011776e-05  0.00000000e+00  1.00011776e-05  1.78683111e+00  1.00011776e-05  6.58989126e-01  1.00011776e-05  1.29214340e+00  1.00011776e-05  1.54996759e+00                                 
 1.00013045e-05  7.46010184e-01  1.00013045e-05  6.79535373e-01  1.00013045e-05  7.08176471e-01  1.00013045e-05  0.00000000e+00  1.00013045e-05  1.80696183e+00  1.00013045e-05  6.63395945e-01  1.00013045e-05  1.19077398e+00  1.00013045e-05  1.55033494e+00                                 
 1.00015214e-05  7.46003214e-01  1.00015214e-05  6.79694717e-01  1.00015214e-05  7.04303530e-01  1.00015214e-05  0.00000000e+00  1.00015214e-05  1.79394773e+00  1.00015214e-05  6.64479878e-01  1.00015214e-05  1.04672857e+00  1.00015214e-05  1.55053724e+00                                 
 1.00018254e-05  7.46009555e-01  1.00018254e-05  6.80240226e-01  1.00018254e-05  6.99542459e-01  1.00018254e-05  0.00000000e+00  1.00018254e-05  1.80440415e+00  1.00018254e-05  6.69466034e-01  1.00018254e-05  9.01378324e-01  1.00018254e-05  1.55048046e+00                                 
 1.00022569e-05  7.46003937e-01  1.00022569e-05  6.80812115e-01  1.00022569e-05  6.93888396e-01  1.00022569e-05  0.00000000e+00  1.00022569e-05  1.79574924e+00  1.00022569e-05  6.74069740e-01  1.00022569e-05  7.66642617e-01  1.00022569e-05  1.54993631e+00                                 
 1.00027236e-05  7.46009720e-01  1.00027236e-05  6.81502536e-01  1.00027236e-05  6.87541672e-01  1.00027236e-05  0.00000000e+00  1.00027236e-05  1.80350282e+00  1.00027236e-05  6.81037177e-01  1.00027236e-05  7.07353932e-01  1.00027236e-05  1.54878027e+00                                 
 1.00031120e-05  7.46004570e-01  1.00031120e-05  6.81616292e-01  1.00031120e-05  6.87319689e-01  1.00031120e-05  0.00000000e+00  1.00031120e-05  1.79697661e+00  1.00031120e-05  6.81964243e-01  1.00031120e-05  6.91559836e-01  1.00031120e-05  1.54734333e+00                                 
 1.00036199e-05  7.46009616e-01  1.00036199e-05  6.81759091e-01  1.00036199e-05  6.86726175e-01  1.00036199e-05  0.00000000e+00  1.00036199e-05  1.80266022e+00  1.00036199e-05  6.84127059e-01  1.00036199e-05  6.88205230e-01  1.00036199e-05  1.54508619e+00                                 
 1.00041515e-05  7.46004996e-01  1.00041515e-05  6.81648235e-01  1.00041515e-05  6.88833727e-01  1.00041515e-05  0.00000000e+00  1.00041515e-05  1.79764588e+00  1.00041515e-05  6.83531284e-01  1.00041515e-05  6.87504166e-01  1.00041515e-05  1.54245425e+00                                 
 1.00050893e-05  7.46009544e-01  1.00050893e-05  6.81622489e-01  1.00050893e-05  6.90569601e-01  1.00050893e-05  0.00000000e+00  1.00050893e-05  1.80219970e+00  1.00050893e-05  6.84557049e-01  1.00050893e-05  6.90613107e-01  1.00050893e-05  1.53753660e+00                                 
 1.00065235e-05  7.46005217e-01  1.00065235e-05  6.81430883e-01  1.00065235e-05  6.95507096e-01  1.00065235e-05  0.00000000e+00  1.00065235e-05  1.79790167e+00  1.00065235e-05  6.83758536e-01  1.00065235e-05  6.93885037e-01  1.00065235e-05  1.52961434e+00                                 
 1.00093918e-05  7.46009543e-01  1.00093918e-05  6.81336564e-01  1.00093918e-05  7.02973479e-01  1.00093918e-05  0.00000000e+00  1.00093918e-05  1.80205452e+00  1.00093918e-05  6.84385628e-01  1.00093918e-05  7.02902880e-01  1.00093918e-05  1.51323586e+00                                 
