 time            v(vbep)         time            v(vben)         time            v(vout)         time            v(vphi1)        time            v(vphi2)        time            v(vref)         yes             currtemp       
 0.00000000e+00  7.82487912e-01  0.00000000e+00  7.38921756e-01  0.00000000e+00  7.16587470e-02  0.00000000e+00  0.00000000e+00  0.00000000e+00  1.79998115e+00  0.00000000e+00  5.00000000e-01  1.00000000e+00 -3.50000000e+01 
 5.00000000e-12  7.82476347e-01  5.00000000e-12  7.38912103e-01  5.00000000e-12  7.21031006e-02  5.00000000e-12  1.80000000e-02  5.00000000e-12  1.80005545e+00  5.00000000e-12  5.00000000e-01                                 
 1.00000000e-11  7.82464907e-01  1.00000000e-11  7.38902622e-01  1.00000000e-11  7.24982242e-02  1.00000000e-11  3.60000000e-02  1.00000000e-11  1.80009042e+00  1.00000000e-11  5.00000000e-01                                 
 2.00000000e-11  7.82442091e-01  2.00000000e-11  7.38883708e-01  2.00000000e-11  7.32181394e-02  2.00000000e-11  7.20000000e-02  2.00000000e-11  1.80012089e+00  2.00000000e-11  5.00000000e-01                                 
 4.00000000e-11  7.82396580e-01  4.00000000e-11  7.38845966e-01  4.00000000e-11  7.43309549e-02  4.00000000e-11  1.44000000e-01  4.00000000e-11  1.80009940e+00  4.00000000e-11  5.00000000e-01                                 
 8.00000000e-11  7.82305809e-01  8.00000000e-11  7.38770658e-01  8.00000000e-11  7.58042333e-02  8.00000000e-11  2.88000000e-01  8.00000000e-11  1.80005633e+00  8.00000000e-11  5.00000000e-01                                 
 1.60000000e-10  7.82125321e-01  1.60000000e-10  7.38620768e-01  1.60000000e-10  7.76129926e-02  1.60000000e-10  5.76000000e-01  1.60000000e-10  1.80001940e+00  1.60000000e-10  5.00000000e-01                                 
 3.20000000e-10  7.81768403e-01  3.20000000e-10  7.38323804e-01  3.20000000e-10  1.14899922e-01  3.20000000e-10  1.15200000e+00  3.20000000e-10  1.79979841e+00  3.20000000e-10  5.00000000e-01                                 
 5.00000000e-10  7.81373276e-01  5.00000000e-10  7.37994180e-01  5.00000000e-10  4.98481772e-01  5.00000000e-10  1.80000000e+00  5.00000000e-10  8.64517426e-02  5.00000000e-10  5.00000000e-01                                 
 5.20635876e-10  7.81328449e-01  5.20635876e-10  7.37956721e-01  5.20635876e-10  5.66699471e-01  5.20635876e-10  1.80000000e+00  5.20635876e-10  1.41514734e-02  5.20635876e-10  5.00000000e-01                                 
 5.61907627e-10  7.81238957e-01  5.61907627e-10  7.37881915e-01  5.61907627e-10  6.87469767e-01  5.61907627e-10  1.80000000e+00  5.61907627e-10 -6.81380880e-03  5.61907627e-10  5.00000000e-01                                 
 6.44451130e-10  7.81060975e-01  6.44451130e-10  7.37733006e-01  6.44451130e-10  8.66755933e-01  6.44451130e-10  1.80000000e+00  6.44451130e-10  6.04677307e-03  6.44451130e-10  5.00000000e-01                                 
 7.69820400e-10  7.80793181e-01  7.69820400e-10  7.37508615e-01  7.69820400e-10  1.07007723e+00  7.69820400e-10  1.80000000e+00  7.69820400e-10 -5.40387049e-03  7.69820400e-10  5.00000000e-01                                 
 9.56521547e-10  7.80399902e-01  9.56521547e-10  7.37178345e-01  9.56521547e-10  1.31667039e+00  9.56521547e-10  1.80000000e+00  9.56521547e-10  5.18237570e-03  9.56521547e-10  5.00000000e-01                                 
 1.32649923e-09  7.79639255e-01  1.32649923e-09  7.36537136e-01  1.32649923e-09  1.66216803e+00  1.32649923e-09  1.80000000e+00  1.32649923e-09 -4.95450060e-03  1.32649923e-09  5.00000000e-01                                 
 2.01807294e-09  7.78279145e-01  2.01807294e-09  7.35382857e-01  2.01807294e-09  1.89845459e+00  2.01807294e-09  1.80000000e+00  2.01807294e-09  4.94041255e-03  2.01807294e-09  5.00000000e-01                                 
 2.25154159e-09  7.77837263e-01  2.25154159e-09  7.35005668e-01  2.25154159e-09  1.91247062e+00  2.25154159e-09  1.80000000e+00  2.25154159e-09 -4.65831563e-03  2.25154159e-09  5.00000000e-01                                 
 2.54538529e-09  7.77292488e-01  2.54538529e-09  7.34539259e-01  2.54538529e-09  1.91997509e+00  2.54538529e-09  1.80000000e+00  2.54538529e-09  4.53428405e-03  2.54538529e-09  5.00000000e-01                                 
 2.89066307e-09  7.76667840e-01  2.89066307e-09  7.34002605e-01  2.89066307e-09  1.92602927e+00  2.89066307e-09  1.80000000e+00  2.89066307e-09 -4.35758297e-03  2.89066307e-09  5.00000000e-01                                 
 3.58121864e-09  7.75465042e-01  3.58121864e-09  7.32963873e-01  3.58121864e-09  1.93129446e+00  3.58121864e-09  1.80000000e+00  3.58121864e-09  4.32221086e-03  3.58121864e-09  5.00000000e-01                                 
 4.96232979e-09  7.73223982e-01  4.96232979e-09  7.31010675e-01  4.96232979e-09  1.92553277e+00  4.96232979e-09  1.80000000e+00  4.96232979e-09 -4.26399444e-03  4.96232979e-09  5.00000000e-01                                 
 7.06136620e-09  7.70167851e-01  7.06136620e-09  7.28312176e-01  7.06136620e-09  1.91117423e+00  7.06136620e-09  1.80000000e+00  7.06136620e-09  4.27261960e-03  7.06136620e-09  5.00000000e-01                                 
 9.03781040e-09  7.67600791e-01  9.03781040e-09  7.26016657e-01  9.03781040e-09  1.90053154e+00  9.03781040e-09  1.80000000e+00  9.03781040e-09 -4.21898034e-03  9.03781040e-09  5.00000000e-01                                 
 1.04712827e-08  7.65889975e-01  1.04712827e-08  7.24473893e-01  1.04712827e-08  1.89421773e+00  1.04712827e-08  1.80000000e+00  1.04712827e-08  4.21155127e-03  1.04712827e-08  5.00000000e-01                                 
 1.23142281e-08  7.63845450e-01  1.23142281e-08  7.22618305e-01  1.23142281e-08  1.88764018e+00  1.23142281e-08  1.80000000e+00  1.23142281e-08 -4.16600707e-03  1.23142281e-08  5.00000000e-01                                 
 1.50985717e-08  7.61034228e-01  1.50985717e-08  7.20047770e-01  1.50985717e-08  1.87923736e+00  1.50985717e-08  1.80000000e+00  1.50985717e-08  4.16813067e-03  1.50985717e-08  5.00000000e-01                                 
 1.85022079e-08  7.57972001e-01  1.85022079e-08  7.17224614e-01  1.85022079e-08  1.87096564e+00  1.85022079e-08  1.80000000e+00  1.85022079e-08 -4.13815819e-03  1.85022079e-08  5.00000000e-01                                 
 2.43523522e-08  7.53409197e-01  2.43523522e-08  7.12983603e-01  2.43523522e-08  1.85900787e+00  2.43523522e-08  1.80000000e+00  2.43523522e-08  4.14665046e-03  2.43523522e-08  5.00000000e-01                                 
 3.22310402e-08  7.48199122e-01  3.22310402e-08  7.08112024e-01  3.22310402e-08  1.84555906e+00  3.22310402e-08  1.80000000e+00  3.22310402e-08 -4.12499040e-03  3.22310402e-08  5.00000000e-01                                 
 4.79884164e-08  7.39654913e-01  4.79884164e-08  7.00111548e-01  4.79884164e-08  1.82169342e+00  4.79884164e-08  1.80000000e+00  4.79884164e-08  4.13819087e-03  4.79884164e-08  5.00000000e-01                                 
 7.51343919e-08  7.28637397e-01  7.51343919e-08  6.89788889e-01  7.51343919e-08  1.78654474e+00  7.51343919e-08  1.80000000e+00  7.51343919e-08 -4.12049615e-03  7.51343919e-08  5.00000000e-01                                 
 1.12124783e-07  7.17993317e-01  1.12124783e-07  6.79808671e-01  1.12124783e-07  1.74395518e+00  1.12124783e-07  1.80000000e+00  1.12124783e-07  4.13544299e-03  1.12124783e-07  5.00000000e-01                                 
 1.50638284e-07  7.09672574e-01  1.50638284e-07  6.72035425e-01  1.50638284e-07  1.70141875e+00  1.50638284e-07  1.80000000e+00  1.50638284e-07 -4.11810640e-03  1.50638284e-07  5.00000000e-01                                 
 2.27665286e-07  6.96907978e-01  2.27665286e-07  6.60216202e-01  2.27665286e-07  1.61763232e+00  2.27665286e-07  1.80000000e+00  2.27665286e-07  4.13374117e-03  2.27665286e-07  5.00000000e-01                                 
 3.00599944e-07  6.87827413e-01  3.00599944e-07  6.51890104e-01  3.00599944e-07  1.53935889e+00  3.00599944e-07  1.80000000e+00  3.00599944e-07 -4.11688171e-03  3.00599944e-07  5.00000000e-01                                 
 4.46469261e-07  6.74156363e-01  4.46469261e-07  6.39450834e-01  4.46469261e-07  1.38341129e+00  4.46469261e-07  1.80000000e+00  4.46469261e-07  4.13287538e-03  4.46469261e-07  5.00000000e-01                                 
 7.38207896e-07  6.56141309e-01  7.38207896e-07  6.23178182e-01  7.38207896e-07  1.06637705e+00  7.38207896e-07  1.80000000e+00  7.38207896e-07 -4.11628353e-03  7.38207896e-07  5.00000000e-01                                 
 1.26718572e-06  6.37284538e-01  1.26718572e-06  6.06182162e-01  1.26718572e-06  7.05822381e-01  1.26718572e-06  1.80000000e+00  1.26718572e-06  4.13266166e-03  1.26718572e-06  5.00000000e-01                                 
 1.76910492e-06  6.26988127e-01  1.76910492e-06  5.96822931e-01  1.76910492e-06  5.40706457e-01  1.76910492e-06  1.80000000e+00  1.76910492e-06 -4.11625402e-03  1.76910492e-06  5.00000000e-01                                 
 1.80412199e-06  6.26453289e-01  1.80412199e-06  5.96330237e-01  1.80412199e-06  5.34140463e-01  1.80412199e-06  1.80000000e+00  1.80412199e-06 -2.95108354e-07  1.80412199e-06  5.00000000e-01                                 
 1.87415613e-06  6.25411295e-01  1.87415613e-06  5.95369102e-01  1.87415613e-06  5.23819151e-01  1.87415613e-06  1.80000000e+00  1.87415613e-06  2.97048424e-07  1.87415613e-06  5.00000000e-01                                 
 2.01422442e-06  6.23506477e-01  2.01422442e-06  5.93601941e-01  2.01422442e-06  5.13565124e-01  2.01422442e-06  1.80000000e+00  2.01422442e-06 -2.94458578e-07  2.01422442e-06  5.00000000e-01                                 
 2.26026668e-06  6.20786047e-01  2.26026668e-06  5.91029515e-01  2.26026668e-06  5.07125228e-01  2.26026668e-06  1.80000000e+00  2.26026668e-06  2.96668312e-07  2.26026668e-06  5.00000000e-01                                 
 2.53427661e-06  6.18792149e-01  2.53427661e-06  5.89030009e-01  2.53427661e-06  5.04444143e-01  2.53427661e-06  1.80000000e+00  2.53427661e-06 -2.91948043e-07  2.53427661e-06  5.00000000e-01                                 
 3.03312439e-06  6.19904653e-01  3.03312439e-06  5.89238217e-01  3.03312439e-06  5.05201928e-01  3.03312439e-06  1.80000000e+00  3.03312439e-06  3.02867152e-07  3.03312439e-06  5.00000000e-01                                 
 3.09740838e-06  6.20758245e-01  3.09740838e-06  5.89836573e-01  3.09740838e-06  5.05922558e-01  3.09740838e-06  1.80000000e+00  3.09740838e-06  9.06860069e-09  3.09740838e-06  5.00000000e-01                                 
 3.22597635e-06  6.23149271e-01  3.22597635e-06  5.91580429e-01  3.22597635e-06  5.07755090e-01  3.22597635e-06  1.80000000e+00  3.22597635e-06  1.25093003e-08  3.22597635e-06  5.00000000e-01                                 
 3.48311230e-06  6.42554671e-01  3.48311230e-06  6.06759048e-01  3.48311230e-06  5.17005840e-01  3.48311230e-06  1.80000000e+00  3.48311230e-06  4.63691711e-08  3.48311230e-06  5.00000000e-01                                 
 3.53397506e-06  6.53688439e-01  3.53397506e-06  6.15603888e-01  3.53397506e-06  5.21988771e-01  3.53397506e-06  1.80000000e+00  3.53397506e-06  7.72409788e-08  3.53397506e-06  5.00000000e-01                                 
 3.54669075e-06  6.56865420e-01  3.54669075e-06  6.18131209e-01  3.54669075e-06  5.23428931e-01  3.54669075e-06  1.80000000e+00  3.54669075e-06  8.79920167e-08  3.54669075e-06  5.00000000e-01                                 
 3.57212213e-06  6.64354052e-01  3.57212213e-06  6.24098414e-01  3.57212213e-06  5.26960441e-01  3.57212213e-06  1.80000000e+00  3.57212213e-06  1.18583730e-07  3.57212213e-06  5.00000000e-01                                 
 3.62298490e-06  6.92853289e-01  3.62298490e-06  6.47000225e-01  3.62298490e-06  5.42362673e-01  3.62298490e-06  1.80000000e+00  3.62298490e-06  2.73174203e-07  3.62298490e-06  5.00000000e-01                                 
 3.63570059e-06  7.05865542e-01  3.63570059e-06  6.57575713e-01  3.63570059e-06  5.49965047e-01  3.63570059e-06  1.80000000e+00  3.63570059e-06  3.62918653e-07  3.63570059e-06  5.00000000e-01                                 
 3.66113197e-06  7.41711211e-01  3.66113197e-06  6.87853116e-01  3.66113197e-06  5.71964029e-01  3.66113197e-06  1.80000000e+00  3.66113197e-06  6.77968525e-07  3.66113197e-06  5.00000000e-01                                 
 3.71199473e-06  8.29829237e-01  3.71199473e-06  7.84393912e-01  3.71199473e-06  6.28165157e-01  3.71199473e-06  1.80000000e+00  3.71199473e-06  9.32968046e-07  3.71199473e-06  5.00000000e-01                                 
 3.71881929e-06  8.39000670e-01  3.71881929e-06  7.94220859e-01  3.71881929e-06  6.33715109e-01  3.71881929e-06  1.80000000e+00  3.71881929e-06  7.39707792e-07  3.71881929e-06  5.00000000e-01                                 
 3.73246842e-06  8.56166693e-01  3.73246842e-06  8.11135854e-01  3.73246842e-06  6.43819804e-01  3.73246842e-06  1.80000000e+00  3.73246842e-06  6.00973122e-07  3.73246842e-06  5.00000000e-01                                 
 3.75976668e-06  8.91138059e-01  3.75976668e-06  8.42808755e-01  3.75976668e-06  6.63730170e-01  3.75976668e-06  1.80000000e+00  3.75976668e-06  6.60800215e-07  3.75976668e-06  5.00000000e-01                                 
 3.78526001e-06  9.22621140e-01  3.78526001e-06  8.67041181e-01  3.78526001e-06  6.79429436e-01  3.78526001e-06  1.80000000e+00  3.78526001e-06  5.26331370e-07  3.78526001e-06  5.00000000e-01                                 
 3.80633338e-06  9.26684975e-01  3.80633338e-06  8.70072307e-01  3.80633338e-06  6.76810720e-01  3.80633338e-06  1.80000000e+00  3.80633338e-06 -9.81647701e-08  3.80633338e-06  5.00000000e-01                                 
 3.82860575e-06  9.22060261e-01  3.82860575e-06  8.66762672e-01  3.82860575e-06  6.65770807e-01  3.82860575e-06  1.80000000e+00  3.82860575e-06 -1.49122010e-08  3.82860575e-06  5.00000000e-01                                 
 3.83417385e-06  9.22984708e-01  3.83417385e-06  8.67418288e-01  3.83417385e-06  6.64606519e-01  3.83417385e-06  1.80000000e+00  3.83417385e-06  3.08784685e-08  3.83417385e-06  5.00000000e-01                                 
 3.84531003e-06  9.23212585e-01  3.84531003e-06  8.67610800e-01  3.84531003e-06  6.61333686e-01  3.84531003e-06  1.80000000e+00  3.84531003e-06 -1.56132060e-08  3.84531003e-06  5.00000000e-01                                 
 3.86691021e-06  9.21874838e-01  3.86691021e-06  8.66663987e-01  3.86691021e-06  6.53369422e-01  3.86691021e-06  1.80000000e+00  3.86691021e-06 -2.02779781e-08  3.86691021e-06  5.00000000e-01                                 
 3.89724867e-06  9.20933376e-01  3.89724867e-06  8.66003630e-01  3.89724867e-06  6.43310170e-01  3.89724867e-06  1.80000000e+00  3.89724867e-06  1.13420290e-10  3.89724867e-06  5.00000000e-01                                 
 3.93954530e-06  9.18845368e-01  3.93954530e-06  8.64519511e-01  3.93954530e-06  6.29111142e-01  3.93954530e-06  1.80000000e+00  3.93954530e-06 -3.06287627e-08  3.93954530e-06  5.00000000e-01                                 
 4.02413856e-06  9.14739095e-01  4.02413856e-06  8.61538437e-01  4.02413856e-06  6.02101637e-01  4.02413856e-06  1.80000000e+00  4.02413856e-06 -4.66628013e-09  4.02413856e-06  5.00000000e-01                                 
 4.15985493e-06  9.05995597e-01  4.15985493e-06  8.54940852e-01  4.15985493e-06  5.60769602e-01  4.15985493e-06  1.80000000e+00  4.15985493e-06 -4.57203794e-08  4.15985493e-06  5.00000000e-01                                 
 4.43128767e-06  8.86936900e-01  4.43128767e-06  8.39316024e-01  4.43128767e-06  5.11853513e-01  4.43128767e-06  1.80000000e+00  4.43128767e-06 -1.08191347e-08  4.43128767e-06  5.00000000e-01                                 
 4.71550610e-06  8.74935416e-01  4.71550610e-06  8.28711008e-01  4.71550610e-06  4.98304214e-01  4.71550610e-06  1.80000000e+00  4.71550610e-06 -2.40310874e-08  4.71550610e-06  5.00000000e-01                                 
 4.76274120e-06  8.74644042e-01  4.76274120e-06  8.28437947e-01  4.76274120e-06  4.98016714e-01  4.76274120e-06  1.80000000e+00  4.76274120e-06  9.79940055e-10  4.76274120e-06  5.00000000e-01                                 
 4.85721140e-06  8.74216805e-01  4.85721140e-06  8.28049611e-01  4.85721140e-06  4.97662144e-01  4.85721140e-06  1.80000000e+00  4.85721140e-06  3.96843111e-09  4.85721140e-06  5.00000000e-01                                 
 5.04615180e-06  8.73943191e-01  5.04615180e-06  8.27800990e-01  5.04615180e-06  4.97482025e-01  5.04615180e-06  1.80000000e+00  5.04615180e-06  4.44993833e-09  5.04615180e-06  5.00000000e-01                                 
 5.42403259e-06  8.73895935e-01  5.42403259e-06  8.27757757e-01  5.42403259e-06  4.97577573e-01  5.42403259e-06  1.80000000e+00  5.42403259e-06  5.37003784e-09  5.42403259e-06  5.00000000e-01                                 
 6.00266650e-06  8.73912450e-01  6.00266650e-06  8.27773011e-01  6.00266650e-06  4.97786858e-01  6.00266650e-06  1.80000000e+00  6.00266650e-06  4.63790867e-09  6.00266650e-06  5.00000000e-01                                 
 7.00266650e-06  8.73901301e-01  7.00266650e-06  8.27762648e-01  7.00266650e-06  4.98078610e-01  7.00266650e-06  1.80000000e+00  7.00266650e-06  5.31511009e-09  7.00266650e-06  5.00000000e-01                                 
 8.00266650e-06  8.73909352e-01  8.00266650e-06  8.27770191e-01  8.00266650e-06  4.98356891e-01  8.00266650e-06  1.80000000e+00  8.00266650e-06  4.66708193e-09  8.00266650e-06  5.00000000e-01                                 
 9.00266650e-06  8.73903459e-01  9.00266650e-06  8.27764609e-01  9.00266650e-06  4.98601263e-01  9.00266650e-06  1.80000000e+00  9.00266650e-06  5.29204140e-09  9.00266650e-06  5.00000000e-01                                 
 1.00005000e-05  8.73908534e-01  1.00005000e-05  8.27769444e-01  1.00005000e-05  4.98835387e-01  1.00005000e-05  1.80000000e+00  1.00005000e-05  4.68669143e-09  1.00005000e-05  5.00000000e-01                                 
 1.00005500e-05  8.73908533e-01  1.00005500e-05  8.27769439e-01  1.00005500e-05  4.90900179e-01  1.00005500e-05  1.62000000e+00  1.00005500e-05 -5.79485261e-05  1.00005500e-05  5.00000000e-01                                 
 1.00006500e-05  8.73908560e-01  1.00006500e-05  8.27769446e-01  1.00006500e-05  4.77540641e-01  1.00006500e-05  1.26000000e+00  1.00006500e-05 -3.85128694e-05  1.00006500e-05  5.00000000e-01                                 
 1.00008500e-05  8.73908672e-01  1.00008500e-05  8.27769510e-01  1.00008500e-05  4.77440589e-01  1.00008500e-05  5.40000000e-01  1.00008500e-05  1.04470290e-04  1.00008500e-05  5.00000000e-01                                 
 1.00010000e-05  8.73908637e-01  1.00010000e-05  8.27769495e-01  1.00010000e-05  4.44263255e-01  1.00010000e-05  0.00000000e+00  1.00010000e-05  1.54028530e+00  1.00010000e-05  5.00000000e-01                                 
 1.00010121e-05  8.73908579e-01  1.00010121e-05  8.27769465e-01  1.00010121e-05  4.29384538e-01  1.00010121e-05  0.00000000e+00  1.00010121e-05  1.66038585e+00  1.00010121e-05  5.00000000e-01                                 
 1.00010363e-05  8.73908447e-01  1.00010363e-05  8.27769392e-01  1.00010363e-05  3.88742809e-01  1.00010363e-05  0.00000000e+00  1.00010363e-05  1.78879620e+00  1.00010363e-05  5.00000000e-01                                 
 1.00010848e-05  8.73908344e-01  1.00010848e-05  8.27769289e-01  1.00010848e-05  2.98904958e-01  1.00010848e-05  0.00000000e+00  1.00010848e-05  1.80119192e+00  1.00010848e-05  5.00000000e-01                                 
 1.00011517e-05  8.73908502e-01  1.00011517e-05  8.27769317e-01  1.00011517e-05  2.28781780e-01  1.00011517e-05  0.00000000e+00  1.00011517e-05  1.79514422e+00  1.00011517e-05  5.00000000e-01                                 
