 time            v(vbep)         time            v(vben)         time            v(vout)         time            v(vphi1)        time            v(vphi2)        time            v(vref)         yes             currtemp       
 0.00000000e+00  7.50981599e-01  0.00000000e+00  7.01568139e-01  0.00000000e+00  1.03540096e+00  0.00000000e+00  0.00000000e+00  0.00000000e+00  1.79993735e+00  0.00000000e+00  7.01568139e-01  1.00000000e+00 -3.00000000e+00 
 5.00000000e-12  7.50945925e-01  5.00000000e-12  7.01538780e-01  5.00000000e-12  1.03613760e+00  5.00000000e-12  1.80000000e-02  5.00000000e-12  1.80006205e+00  5.00000000e-12  7.01538780e-01                                 
 1.00000000e-11  7.50911654e-01  1.00000000e-11  7.01510351e-01  1.00000000e-11  1.03681620e+00  1.00000000e-11  3.60000000e-02  1.00000000e-11  1.80013845e+00  1.00000000e-11  7.01510351e-01                                 
 2.00000000e-11  7.50844053e-01  2.00000000e-11  7.01453771e-01  2.00000000e-11  1.03808109e+00  2.00000000e-11  7.20000000e-02  2.00000000e-11  1.80022741e+00  2.00000000e-11  7.01453771e-01                                 
 4.00000000e-11  7.50710475e-01  4.00000000e-11  7.01341179e-01  4.00000000e-11  1.04018729e+00  4.00000000e-11  1.44000000e-01  4.00000000e-11  1.80023233e+00  4.00000000e-11  7.01341179e-01                                 
 8.00000000e-11  7.50444988e-01  8.00000000e-11  7.01117329e-01  8.00000000e-11  1.04314780e+00  8.00000000e-11  2.88000000e-01  8.00000000e-11  1.80014688e+00  8.00000000e-11  7.01117329e-01                                 
 1.60000000e-10  7.49921434e-01  1.60000000e-10  7.00674951e-01  1.60000000e-10  1.04599841e+00  1.60000000e-10  5.76000000e-01  1.60000000e-10  1.80003840e+00  1.60000000e-10  7.00674951e-01                                 
 3.20000000e-10  7.48901886e-01  3.20000000e-10  6.99810598e-01  3.20000000e-10  1.03619192e+00  3.20000000e-10  1.15200000e+00  3.20000000e-10  1.80026254e+00  3.20000000e-10  6.99810598e-01                                 
 5.00000000e-10  7.47797005e-01  5.00000000e-10  6.98869306e-01  5.00000000e-10  1.11648542e+00  5.00000000e-10  1.80000000e+00  5.00000000e-10  1.27096293e-01  5.00000000e-10  6.98869306e-01                                 
 5.20590584e-10  7.47673641e-01  5.20590584e-10  6.98763893e-01  5.20590584e-10  1.13825006e+00  5.20590584e-10  1.80000000e+00  5.20590584e-10  2.92310754e-02  5.20590584e-10  6.98763893e-01                                 
 5.61771753e-10  7.47427953e-01  5.61771753e-10  6.98553821e-01  5.61771753e-10  1.18174067e+00  5.61771753e-10  1.80000000e+00  5.61771753e-10 -1.17291370e-02  5.61771753e-10  6.98553821e-01                                 
 6.44134091e-10  7.46942889e-01  6.44134091e-10  6.98138406e-01  6.44134091e-10  1.26125170e+00  6.44134091e-10  1.80000000e+00  6.44134091e-10  1.01584130e-02  6.44134091e-10  6.98138406e-01                                 
 7.64191568e-10  7.46250468e-01  7.64191568e-10  6.97543870e-01  7.64191568e-10  1.36589876e+00  7.64191568e-10  1.80000000e+00  7.64191568e-10 -8.01029296e-03  7.64191568e-10  6.97543870e-01                                 
 9.44014308e-10  7.45244250e-01  9.44014308e-10  6.96676713e-01  9.44014308e-10  1.49777590e+00  9.44014308e-10  1.80000000e+00  9.44014308e-10  7.97268615e-03  9.44014308e-10  6.96676713e-01                                 
 1.30365979e-09  7.43333611e-01  1.30365979e-09  6.95020038e-01  1.30365979e-09  1.67424801e+00  1.30365979e-09  1.80000000e+00  1.30365979e-09 -7.06069834e-03  1.30365979e-09  6.95020038e-01                                 
 1.71829280e-09  7.41283350e-01  1.71829280e-09  6.93227537e-01  1.71829280e-09  1.77287435e+00  1.71829280e-09  1.80000000e+00  1.71829280e-09  7.05542907e-03  1.71829280e-09  6.93227537e-01                                 
 2.09369544e-09  7.39551773e-01  2.09369544e-09  6.91701881e-01  2.09369544e-09  1.80712483e+00  2.09369544e-09  1.80000000e+00  2.09369544e-09 -6.59481141e-03  2.09369544e-09  6.91701881e-01                                 
 2.49581695e-09  7.37812198e-01  2.49581695e-09  6.90158717e-01  2.49581695e-09  1.82072349e+00  2.49581695e-09  1.80000000e+00  2.49581695e-09  6.38157847e-03  2.49581695e-09  6.90158717e-01                                 
 2.98802042e-09  7.35825393e-01  2.98802042e-09  6.88383849e-01  2.98802042e-09  1.82454878e+00  2.98802042e-09  1.80000000e+00  2.98802042e-09 -6.11626127e-03  2.98802042e-09  6.88383849e-01                                 
 3.71531547e-09  7.33134953e-01  3.71531547e-09  6.85960334e-01  3.71531547e-09  1.82414399e+00  3.71531547e-09  1.80000000e+00  3.71531547e-09  5.99715119e-03  3.71531547e-09  6.85960334e-01                                 
 4.78027094e-09  7.29629460e-01  4.78027094e-09  6.82769669e-01  4.78027094e-09  1.82065660e+00  4.78027094e-09  1.80000000e+00  4.78027094e-09 -5.87556629e-03  4.78027094e-09  6.82769669e-01                                 
 6.67220220e-09  7.24354372e-01  6.67220220e-09  6.77904444e-01  6.67220220e-09  1.81586732e+00  6.67220220e-09  1.80000000e+00  6.67220220e-09  5.84243694e-03  6.67220220e-09  6.77904444e-01                                 
 1.04560647e-08  7.16186331e-01  1.04560647e-08  6.70238305e-01  1.04560647e-08  1.80794623e+00  1.04560647e-08  1.80000000e+00  1.04560647e-08 -5.79377920e-03  1.04560647e-08  6.70238305e-01                                 
 1.60538493e-08  7.07547307e-01  1.60538493e-08  6.61969766e-01  1.60538493e-08  1.80028393e+00  1.60538493e-08  1.80000000e+00  1.60538493e-08  5.80025237e-03  1.60538493e-08  6.61969766e-01                                 
 1.91170362e-08  7.03911422e-01  1.91170362e-08  6.58444344e-01  1.91170362e-08  1.79678782e+00  1.91170362e-08  1.80000000e+00  1.91170362e-08 -5.74427924e-03  1.91170362e-08  6.58444344e-01                                 
 2.04006108e-08  7.02537992e-01  2.04006108e-08  6.57107421e-01  2.04006108e-08  1.79581308e+00  2.04006108e-08  1.80000000e+00  2.04006108e-08  5.68713750e-03  2.04006108e-08  6.57107421e-01                                 
 2.25277041e-08  7.00416019e-01  2.25277041e-08  6.55037120e-01  2.25277041e-08  1.79370097e+00  2.25277041e-08  1.80000000e+00  2.25277041e-08 -5.61885172e-03  2.25277041e-08  6.55037120e-01                                 
 2.49975149e-08  6.98161684e-01  2.49975149e-08  6.52831483e-01  2.49975149e-08  1.79197890e+00  2.49975149e-08  1.80000000e+00  2.49975149e-08  5.59991557e-03  2.49975149e-08  6.52831483e-01                                 
 2.92099392e-08  6.94736306e-01  2.92099392e-08  6.49468346e-01  2.92099392e-08  1.78878962e+00  2.92099392e-08  1.80000000e+00  2.92099392e-08 -5.55566782e-03  2.92099392e-08  6.49468346e-01                                 
 3.36451149e-08  6.91593147e-01  3.36451149e-08  6.46369610e-01  3.36451149e-08  1.78640543e+00  3.36451149e-08  1.80000000e+00  3.36451149e-08  5.55478451e-03  3.36451149e-08  6.46369610e-01                                 
 4.03597653e-08  6.87501861e-01  4.03597653e-08  6.42319360e-01  4.03597653e-08  1.78280533e+00  4.03597653e-08  1.80000000e+00  4.03597653e-08 -5.51906536e-03  4.03597653e-08  6.42319360e-01                                 
 4.74726978e-08  6.83831863e-01  4.74726978e-08  6.38670230e-01  4.74726978e-08  1.78010593e+00  4.74726978e-08  1.80000000e+00  4.74726978e-08  5.52703707e-03  4.74726978e-08  6.38670230e-01                                 
 6.16985628e-08  6.77836205e-01  6.16985628e-08  6.32681133e-01  6.16985628e-08  1.77467332e+00  6.16985628e-08  1.80000000e+00  6.16985628e-08 -5.49852459e-03  6.16985628e-08  6.32681133e-01                                 
 8.15420147e-08  6.71147690e-01  8.15420147e-08  6.26023307e-01  8.15420147e-08  1.75759205e+00  8.15420147e-08  1.80000000e+00  8.15420147e-08  5.51512406e-03  8.15420147e-08  6.26023307e-01                                 
 1.05145180e-07  6.63238578e-01  1.05145180e-07  6.18493014e-01  1.05145180e-07  1.73695102e+00  1.05145180e-07  1.80000000e+00  1.05145180e-07 -5.48958985e-03  1.05145180e-07  6.18493014e-01                                 
 1.23166429e-07  6.55701865e-01  1.23166429e-07  6.11732798e-01  1.23166429e-07  1.72835843e+00  1.23166429e-07  1.80000000e+00  1.23166429e-07  5.50598200e-03  1.23166429e-07  6.11732798e-01                                 
 1.42014907e-07  6.48689214e-01  1.42014907e-07  6.05469158e-01  1.42014907e-07  1.69672807e+00  1.42014907e-07  1.80000000e+00  1.42014907e-07 -5.48042573e-03  1.42014907e-07  6.05469158e-01                                 
 1.58166368e-07  6.42816397e-01  1.58166368e-07  6.00289575e-01  1.58166368e-07  1.67017056e+00  1.58166368e-07  1.80000000e+00  1.58166368e-07  5.49521387e-03  1.58166368e-07  6.00289575e-01                                 
 1.74726570e-07  6.37400759e-01  1.74726570e-07  5.95521846e-01  1.74726570e-07  1.64435279e+00  1.74726570e-07  1.80000000e+00  1.74726570e-07 -5.46877975e-03  1.74726570e-07  5.95521846e-01                                 
 1.96758952e-07  6.34877051e-01  1.96758952e-07  5.92953773e-01  1.96758952e-07  1.62163598e+00  1.96758952e-07  1.80000000e+00  1.96758952e-07  5.48619493e-03  1.96758952e-07  5.92953773e-01                                 
 2.24386586e-07  6.41479859e-01  2.24386586e-07  5.97519710e-01  2.24386586e-07  1.62228485e+00  2.24386586e-07  1.80000000e+00  2.24386586e-07 -5.45934846e-03  2.24386586e-07  5.97519710e-01                                 
 2.42480033e-07  6.40844141e-01  2.42480033e-07  5.96603343e-01  2.42480033e-07  1.60281094e+00  2.42480033e-07  1.80000000e+00  2.42480033e-07  5.47584899e-03  2.42480033e-07  5.96603343e-01                                 
 2.60788350e-07  6.34538242e-01  2.60788350e-07  5.91222021e-01  2.60788350e-07  1.58007810e+00  2.60788350e-07  1.80000000e+00  2.60788350e-07 -5.44980792e-03  2.60788350e-07  5.91222021e-01                                 
 2.79567167e-07  6.30713559e-01  2.79567167e-07  5.87830596e-01  2.79567167e-07  1.55586790e+00  2.79567167e-07  1.80000000e+00  2.79567167e-07  5.46591095e-03  2.79567167e-07  5.87830596e-01                                 
 2.99529069e-07  6.26312704e-01  2.99529069e-07  5.83991402e-01  2.99529069e-07  1.53368282e+00  2.99529069e-07  1.80000000e+00  2.99529069e-07 -5.44000408e-03  2.99529069e-07  5.83991402e-01                                 
 3.34894497e-07  6.18494468e-01  3.34894497e-07  5.77244622e-01  3.34894497e-07  1.48956048e+00  3.34894497e-07  1.80000000e+00  3.34894497e-07  5.45838228e-03  3.34894497e-07  5.77244622e-01                                 
 3.81956185e-07  6.07578721e-01  3.81956185e-07  5.67986496e-01  3.81956185e-07  1.43414534e+00  3.81956185e-07  1.80000000e+00  3.81956185e-07 -5.43526264e-03  3.81956185e-07  5.67986496e-01                                 
 4.74170095e-07  5.88555991e-01  4.74170095e-07  5.52031367e-01  4.74170095e-07  1.32197880e+00  4.74170095e-07  1.80000000e+00  4.74170095e-07  5.45546010e-03  4.74170095e-07  5.52031367e-01                                 
 5.80213648e-07  5.55482747e-01  5.80213648e-07  5.25179053e-01  5.80213648e-07  1.18549756e+00  5.80213648e-07  1.80000000e+00  5.80213648e-07 -5.43366852e-03  5.80213648e-07  5.25179053e-01                                 
 6.85295114e-07  5.17542475e-01  6.85295114e-07  4.94738647e-01  6.85295114e-07  1.03357839e+00  6.85295114e-07  1.80000000e+00  6.85295114e-07  5.45354487e-03  6.85295114e-07  4.94738647e-01                                 
 7.04249754e-07  5.12759564e-01  7.04249754e-07  4.90919230e-01  7.04249754e-07  1.01062791e+00  7.04249754e-07  1.80000000e+00  7.04249754e-07  5.07208393e-07  7.04249754e-07  4.90919230e-01                                 
 7.42159035e-07  5.26744425e-01  7.42159035e-07  5.02125263e-01  7.42159035e-07  9.85052515e-01  7.42159035e-07  1.80000000e+00  7.42159035e-07 -2.68173880e-07  7.42159035e-07  5.02125263e-01                                 
 7.51636355e-07  5.44235628e-01  7.51636355e-07  5.16116818e-01  7.51636355e-07  9.91988973e-01  7.51636355e-07  1.80000000e+00  7.51636355e-07  2.15004389e-06  7.51636355e-07  5.16116818e-01                                 
 7.70590996e-07  6.05803684e-01  7.70590996e-07  5.65310168e-01  7.70590996e-07  1.03303565e+00  7.70590996e-07  1.80000000e+00  7.70590996e-07  6.32722501e-06  7.70590996e-07  5.65310168e-01                                 
 8.08500277e-07  7.81279465e-01  8.08500277e-07  7.29418245e-01  8.08500277e-07  1.16988404e+00  8.08500277e-07  1.80000000e+00  8.08500277e-07  9.14572300e-06  8.08500277e-07  7.29418245e-01                                 
 8.50786468e-07  8.34109144e-01  8.50786468e-07  7.80666569e-01  8.50786468e-07  1.18105342e+00  8.50786468e-07  1.80000000e+00  8.50786468e-07 -4.82010575e-06  8.50786468e-07  7.80666569e-01                                 
 9.01073295e-07  8.75334857e-01  9.01073295e-07  8.13645016e-01  9.01073295e-07  1.16483276e+00  9.01073295e-07  1.80000000e+00  9.01073295e-07  6.95311386e-06  9.01073295e-07  8.13645016e-01                                 
 9.07375719e-07  8.81693734e-01  9.07375719e-07  8.18185329e-01  9.07375719e-07  1.16592274e+00  9.07375719e-07  1.80000000e+00  9.07375719e-07  1.56495035e-06  9.07375719e-07  8.18185329e-01                                 
 9.19980567e-07  8.96809341e-01  9.19980567e-07  8.28353841e-01  9.19980567e-07  1.16707693e+00  9.19980567e-07  1.80000000e+00  9.19980567e-07  1.73808100e-06  9.19980567e-07  8.28353841e-01                                 
 9.45190263e-07  9.35106682e-01  9.45190263e-07  8.51133990e-01  9.45190263e-07  1.17411423e+00  9.45190263e-07  1.80000000e+00  9.45190263e-07  2.25937309e-06  9.45190263e-07  8.51133990e-01                                 
 9.69377675e-07  9.50647135e-01  9.69377675e-07  8.59561743e-01  9.69377675e-07  1.16576678e+00  9.69377675e-07  1.80000000e+00  9.69377675e-07 -9.38573146e-07  9.69377675e-07  8.59561743e-01                                 
 9.94944996e-07  9.43654784e-01  9.94944996e-07  8.56021359e-01  9.94944996e-07  1.13449259e+00  9.94944996e-07  1.80000000e+00  9.94944996e-07 -6.79703397e-07  9.94944996e-07  8.56021359e-01                                 
 1.01923403e-06  9.45111030e-01  1.01923403e-06  8.56626479e-01  1.01923403e-06  1.10940361e+00  1.01923403e-06  1.80000000e+00  1.01923403e-06 -6.65018048e-08  1.01923403e-06  8.56626479e-01                                 
 1.04619924e-06  9.44950796e-01  1.04619924e-06  8.56704690e-01  1.04619924e-06  1.08165142e+00  1.04619924e-06  1.80000000e+00  1.04619924e-06 -7.30001232e-07  1.04619924e-06  8.56704690e-01                                 
 1.09413826e-06  9.43529309e-01  1.09413826e-06  8.55818378e-01  1.09413826e-06  1.02967441e+00  1.09413826e-06  1.80000000e+00  1.09413826e-06 -1.95489733e-07  1.09413826e-06  8.55818378e-01                                 
 1.16138511e-06  9.43771636e-01  1.16138511e-06  8.56076115e-01  1.16138511e-06  9.93550508e-01  1.16138511e-06  1.80000000e+00  1.16138511e-06 -6.32622813e-08  1.16138511e-06  8.56076115e-01                                 
 1.25611626e-06  9.41474581e-01  1.25611626e-06  8.54750177e-01  1.25611626e-06  9.42119622e-01  1.25611626e-06  1.80000000e+00  1.25611626e-06 -3.54492134e-07  1.25611626e-06  8.54750177e-01                                 
 1.35577237e-06  9.41337501e-01  1.35577237e-06  8.54789713e-01  1.35577237e-06  9.00626731e-01  1.35577237e-06  1.80000000e+00  1.35577237e-06  1.42144751e-07  1.35577237e-06  8.54789713e-01                                 
 1.46353210e-06  9.38781269e-01  1.46353210e-06  8.53327131e-01  1.46353210e-06  8.76599262e-01  1.46353210e-06  1.80000000e+00  1.46353210e-06 -2.40964743e-07  1.46353210e-06  8.53327131e-01                                 
 1.59824251e-06  9.37998767e-01  1.59824251e-06  8.53006337e-01  1.59824251e-06  8.56982422e-01  1.59824251e-06  1.80000000e+00  1.59824251e-06  2.19466306e-07  1.59824251e-06  8.53006337e-01                                 
 1.80202407e-06  9.33719723e-01  1.80202407e-06  8.50590802e-01  1.80202407e-06  8.52488480e-01  1.80202407e-06  1.80000000e+00  1.80202407e-06 -1.79307446e-07  1.80202407e-06  8.50590802e-01                                 
 2.05344122e-06  9.29889721e-01  2.05344122e-06  8.48569834e-01  2.05344122e-06  8.45956828e-01  2.05344122e-06  1.80000000e+00  2.05344122e-06  2.11351267e-07  2.05344122e-06  8.48569834e-01                                 
 2.30041578e-06  9.20926219e-01  2.30041578e-06  8.43364973e-01  2.30041578e-06  8.44327802e-01  2.30041578e-06  1.80000000e+00  2.30041578e-06 -2.04970894e-07  2.30041578e-06  8.43364973e-01                                 
 2.36215942e-06  9.18119741e-01  2.36215942e-06  8.41770776e-01  2.36215942e-06  8.40651795e-01  2.36215942e-06  1.80000000e+00  2.36215942e-06 -3.73561307e-08  2.36215942e-06  8.41770776e-01                                 
 2.48564670e-06  9.08241157e-01  2.48564670e-06  8.35815857e-01  2.48564670e-06  8.33991706e-01  2.48564670e-06  1.80000000e+00  2.48564670e-06 -1.08722688e-07  2.48564670e-06  8.35815857e-01                                 
 2.51651852e-06  9.03897375e-01  2.51651852e-06  8.33105785e-01  2.51651852e-06  8.31009415e-01  2.51651852e-06  1.80000000e+00  2.51651852e-06 -1.67720912e-07  2.51651852e-06  8.33105785e-01                                 
 2.57826217e-06  8.90918136e-01  2.57826217e-06  8.24670939e-01  2.57826217e-06  8.21545668e-01  2.57826217e-06  1.80000000e+00  2.57826217e-06 -3.96779919e-07  2.57826217e-06  8.24670939e-01                                 
 2.70174945e-06  8.40166510e-01  2.70174945e-06  7.85902078e-01  2.70174945e-06  7.81988807e-01  2.70174945e-06  1.80000000e+00  2.70174945e-06 -8.99229086e-07  2.70174945e-06  7.85902078e-01                                 
 2.77756700e-06  8.21739543e-01  2.77756700e-06  7.69461258e-01  2.77756700e-06  7.68741839e-01  2.77756700e-06  1.80000000e+00  2.77756700e-06  1.27399341e-07  2.77756700e-06  7.69461258e-01                                 
 2.86224377e-06  8.32299292e-01  2.86224377e-06  7.78996437e-01  2.86224377e-06  7.79371115e-01  2.86224377e-06  1.80000000e+00  2.86224377e-06  4.29515533e-07  2.86224377e-06  7.78996437e-01                                 
 2.94780762e-06  8.29156535e-01  2.94780762e-06  7.76203469e-01  2.94780762e-06  7.76093326e-01  2.94780762e-06  1.80000000e+00  2.94780762e-06 -4.70821046e-07  2.94780762e-06  7.76203469e-01                                 
 3.04276205e-06  8.25941449e-01  3.04276205e-06  7.73298561e-01  3.04276205e-06  7.73366307e-01  3.04276205e-06  1.80000000e+00  3.04276205e-06  4.40812906e-07  3.04276205e-06  7.73298561e-01                                 
 3.21484266e-06  8.31615008e-01  3.21484266e-06  7.78387812e-01  3.21484266e-06  7.78528760e-01  3.21484266e-06  1.80000000e+00  3.21484266e-06 -2.25809832e-07  3.21484266e-06  7.78387812e-01                                 
 3.38230023e-06  8.26017243e-01  3.38230023e-06  7.73375520e-01  3.38230023e-06  7.73298964e-01  3.38230023e-06  1.80000000e+00  3.38230023e-06  1.97087863e-07  3.38230023e-06  7.73375520e-01                                 
 3.63119830e-06  8.30718227e-01  3.63119830e-06  7.77584323e-01  3.63119830e-06  7.77801469e-01  3.63119830e-06  1.80000000e+00  3.63119830e-06 -3.35258989e-08  3.63119830e-06  7.77584323e-01                                 
 3.90981841e-06  8.27021949e-01  3.90981841e-06  7.74287547e-01  3.90981841e-06  7.74190939e-01  3.90981841e-06  1.80000000e+00  3.90981841e-06  7.87406462e-08  3.90981841e-06  7.74287547e-01                                 
 4.28627732e-06  8.29807621e-01  4.28627732e-06  7.76769414e-01  4.28627732e-06  7.76984465e-01  4.28627732e-06  1.80000000e+00  4.28627732e-06  4.26122334e-08  4.28627732e-06  7.76769414e-01                                 
