 time            v(vbep)         time            v(vben)         time            v(vout)         time            v(vphi1)        time            v(vphi2)        time            v(vref)         time            v(voutc)        time            v(voutcc)       yes             currtemp       
 0.00000000e+00  7.43441856e-01  0.00000000e+00  6.80868780e-01  0.00000000e+00  1.54478146e+00  0.00000000e+00  0.00000000e+00  0.00000000e+00  1.80000000e+00  0.00000000e+00  6.82490140e-01  0.00000000e+00  1.54478145e+00  0.00000000e+00  1.55173646e+00  1.00000000e+00  4.70000000e+01 
 1.00000000e-11  7.43466971e-01  1.00000000e-11  6.80940412e-01  1.00000000e-11  1.54555736e+00  1.00000000e-11  1.80000000e-02  1.00000000e-11  1.80025254e+00  1.00000000e-11  6.83023357e-01  1.00000000e-11  1.54525288e+00  1.00000000e-11  1.55175054e+00                                 
 2.00000000e-11  7.43473846e-01  2.00000000e-11  6.80985128e-01  2.00000000e-11  1.54603036e+00  2.00000000e-11  3.60000000e-02  2.00000000e-11  1.80035227e+00  2.00000000e-11  6.83418700e-01  2.00000000e-11  1.54560870e+00  2.00000000e-11  1.55175576e+00                                 
 4.00000000e-11  7.43473850e-01  4.00000000e-11  6.81043929e-01  4.00000000e-11  1.54659539e+00  4.00000000e-11  7.20000000e-02  4.00000000e-11  1.80039001e+00  4.00000000e-11  6.83996721e-01  4.00000000e-11  1.54613825e+00  4.00000000e-11  1.55175746e+00                                 
 8.00000000e-11  7.43462140e-01  8.00000000e-11  6.81081572e-01  8.00000000e-11  1.54670059e+00  8.00000000e-11  1.44000000e-01  8.00000000e-11  1.80018554e+00  8.00000000e-11  6.84445140e-01  8.00000000e-11  1.54656753e+00  8.00000000e-11  1.55174689e+00                                 
 1.60000000e-10  7.43459350e-01  1.60000000e-10  6.81092160e-01  1.60000000e-10  1.54636492e+00  1.60000000e-10  2.88000000e-01  1.60000000e-10  1.80000472e+00  1.60000000e-10  6.84525071e-01  1.60000000e-10  1.54661617e+00  1.60000000e-10  1.55173742e+00                                 
 3.20000000e-10  7.43455223e-01  3.20000000e-10  6.81087662e-01  3.20000000e-10  1.54598834e+00  3.20000000e-10  5.76000000e-01  3.20000000e-10  1.79998682e+00  3.20000000e-10  6.84374663e-01  3.20000000e-10  1.54629767e+00  3.20000000e-10  1.55173289e+00                                 
 6.40000000e-10  7.43371840e-01  6.40000000e-10  6.80695108e-01  6.40000000e-10  1.54398184e+00  6.40000000e-10  1.15200000e+00  6.40000000e-10  1.81102770e+00  6.40000000e-10  6.81993114e-01  6.40000000e-10  1.55075334e+00  6.40000000e-10  1.55176047e+00                                 
 1.00000000e-09  7.43993187e-01  1.00000000e-09  6.80993415e-01  1.00000000e-09  1.52052605e+00  1.00000000e-09  1.80000000e+00  1.00000000e-09  9.63481865e-02  1.00000000e-09  6.94663178e-01  1.00000000e-09  1.55254290e+00  1.00000000e-09  1.55173483e+00                                 
 1.03669760e-09  7.44046137e-01  1.03669760e-09  6.81022615e-01  1.03669760e-09  1.51936605e+00  1.03669760e-09  1.80000000e+00  1.03669760e-09  2.19166989e-02  1.03669760e-09  6.97724742e-01  1.03669760e-09  1.55423155e+00  1.03669760e-09  1.55176877e+00                                 
 1.11009279e-09  7.44178288e-01  1.11009279e-09  6.81082964e-01  1.11009279e-09  1.51812356e+00  1.11009279e-09  1.80000000e+00  1.11009279e-09 -1.04323006e-02  1.11009279e-09  7.01675746e-01  1.11009279e-09  1.55730687e+00  1.11009279e-09  1.55179178e+00                                 
 1.25688317e-09  7.44295187e-01  1.25688317e-09  6.80949738e-01  1.25688317e-09  1.51569745e+00  1.25688317e-09  1.80000000e+00  1.25688317e-09  8.56127719e-03  1.25688317e-09  7.01889194e-01  1.25688317e-09  1.55775491e+00  1.25688317e-09  1.55174427e+00                                 
 1.45658072e-09  7.44272289e-01  1.45658072e-09  6.80927376e-01  1.45658072e-09  1.51499794e+00  1.45658072e-09  1.80000000e+00  1.45658072e-09 -6.59625300e-03  1.45658072e-09  7.01208171e-01  1.45658072e-09  1.55696449e+00  1.45658072e-09  1.55177751e+00                                 
 1.67624409e-09  7.44178825e-01  1.67624409e-09  6.80922987e-01  1.67624409e-09  1.51480823e+00  1.67624409e-09  1.80000000e+00  1.67624409e-09  5.61179375e-03  1.67624409e-09  6.99806652e-01  1.67624409e-09  1.55595134e+00  1.67624409e-09  1.55179248e+00                                 
 2.04327522e-09  7.43930508e-01  2.04327522e-09  6.80876383e-01  2.04327522e-09  1.51469215e+00  2.04327522e-09  1.80000000e+00  2.04327522e-09 -5.05430932e-03  2.04327522e-09  6.97449175e-01  2.04327522e-09  1.55377948e+00  2.04327522e-09  1.55189064e+00                                 
 2.48687721e-09  7.43701786e-01  2.48687721e-09  6.80880007e-01  2.48687721e-09  1.51479106e+00  2.48687721e-09  1.80000000e+00  2.48687721e-09  4.53823909e-03  2.48687721e-09  6.95058563e-01  2.48687721e-09  1.55188088e+00  2.48687721e-09  1.55200097e+00                                 
 3.15331253e-09  7.43470536e-01  3.15331253e-09  6.80835176e-01  3.15331253e-09  1.51400041e+00  3.15331253e-09  1.80000000e+00  3.15331253e-09 -4.36688870e-03  3.15331253e-09  6.91531988e-01  3.15331253e-09  1.54873307e+00  3.15331253e-09  1.55218108e+00                                 
 4.14303112e-09  7.43330327e-01  4.14303112e-09  6.80852394e-01  4.14303112e-09  1.51302124e+00  4.14303112e-09  1.80000000e+00  4.14303112e-09  4.12342993e-03  4.14303112e-09  6.87869965e-01  4.14303112e-09  1.54573637e+00  4.14303112e-09  1.55236725e+00                                 
 6.12246831e-09  7.43230524e-01  6.12246831e-09  6.80830553e-01  6.12246831e-09  1.50972003e+00  6.12246831e-09  1.80000000e+00  6.12246831e-09 -4.08489371e-03  6.12246831e-09  6.83027159e-01  6.12246831e-09  1.54148496e+00  6.12246831e-09  1.55248638e+00                                 
 7.69563948e-09  7.43262143e-01  7.69563948e-09  6.80867159e-01  7.69563948e-09  1.50611509e+00  7.69563948e-09  1.80000000e+00  7.69563948e-09  3.96629407e-03  7.69563948e-09  6.81593845e-01  7.69563948e-09  1.54038885e+00  7.69563948e-09  1.55236138e+00                                 
 9.13291437e-09  7.43288052e-01  9.13291437e-09  6.80844797e-01  9.13291437e-09  1.50109967e+00  9.13291437e-09  1.80000000e+00  9.13291437e-09 -3.87134544e-03  9.13291437e-09  6.80670387e-01  9.13291437e-09  1.53948058e+00  9.13291437e-09  1.55216371e+00                                 
 1.06938083e-08  7.43340644e-01  1.06938083e-08  6.80876710e-01  1.06938083e-08  1.49496701e+00  1.06938083e-08  1.80000000e+00  1.06938083e-08  3.77137596e-03  1.06938083e-08  6.80581316e-01  1.06938083e-08  1.53951663e+00  1.06938083e-08  1.55189876e+00                                 
 1.28762887e-08  7.43379889e-01  1.28762887e-08  6.80851993e-01  1.28762887e-08  1.48433961e+00  1.28762887e-08  1.80000000e+00  1.28762887e-08 -3.70777447e-03  1.28762887e-08  6.80294948e-01  1.28762887e-08  1.53914549e+00  1.28762887e-08  1.55151970e+00                                 
 1.55155567e-08  7.43427936e-01  1.55155567e-08  6.80881851e-01  1.55155567e-08  1.47054575e+00  1.55155567e-08  1.80000000e+00  1.55155567e-08  3.65397035e-03  1.55155567e-08  6.80695600e-01  1.55155567e-08  1.53958291e+00  1.55155567e-08  1.55107641e+00                                 
 1.91186354e-08  7.43442200e-01  1.91186354e-08  6.80855042e-01  1.91186354e-08  1.44984946e+00  1.91186354e-08  1.80000000e+00  1.91186354e-08 -3.61440399e-03  1.91186354e-08  6.80789918e-01  1.91186354e-08  1.53952861e+00  1.91186354e-08  1.55054909e+00                                 
 2.39100584e-08  7.43459304e-01  2.39100584e-08  6.80883378e-01  2.39100584e-08  1.42195001e+00  2.39100584e-08  1.80000000e+00  2.39100584e-08  3.58677056e-03  2.39100584e-08  6.81415861e-01  2.39100584e-08  1.54014907e+00  2.39100584e-08  1.54997466e+00                                 
 3.17700156e-08  7.43447136e-01  3.17700156e-08  6.80855438e-01  3.17700156e-08  1.37501044e+00  3.17700156e-08  1.80000000e+00  3.17700156e-08 -3.56814392e-03  3.17700156e-08  6.81642455e-01  3.17700156e-08  1.54020587e+00  3.17700156e-08  1.54929574e+00                                 
 4.53341890e-08  7.43450792e-01  4.53341890e-08  6.80883007e-01  4.53341890e-08  1.29457737e+00  4.53341890e-08  1.80000000e+00  4.53341890e-08  3.55909809e-03  4.53341890e-08  6.82304463e-01  4.53341890e-08  1.54085883e+00  4.53341890e-08  1.54860583e+00                                 
 7.07315443e-08  7.43437750e-01  7.07315443e-08  6.80854845e-01  7.07315443e-08  1.14414076e+00  7.07315443e-08  1.80000000e+00  7.07315443e-08 -3.55263574e-03  7.07315443e-08  6.82335099e-01  7.07315443e-08  1.54076381e+00  7.07315443e-08  1.54809526e+00                                 
 1.05314029e-07  7.43446323e-01  1.05314029e-07  6.80882707e-01  1.05314029e-07  9.43131644e-01  1.05314029e-07  1.80000000e+00  1.05314029e-07  3.55057553e-03  1.05314029e-07  6.82607082e-01  1.05314029e-07  1.54110293e+00  1.05314029e-07  1.54794314e+00                                 
 1.55791665e-07  7.43437945e-01  1.55791665e-07  6.80854824e-01  1.55791665e-07  7.29092684e-01  1.55791665e-07  1.80000000e+00  1.55791665e-07 -3.54140662e-03  1.55791665e-07  6.82370553e-01  1.55791665e-07  1.54078888e+00  1.55791665e-07  1.54790993e+00                                 
 1.95875635e-07  7.43446884e-01  1.95875635e-07  6.80882891e-01  1.95875635e-07  6.79856846e-01  1.95875635e-07  1.80000000e+00  1.95875635e-07  3.55032876e-03  1.95875635e-07  6.82614022e-01  1.95875635e-07  1.54110452e+00  1.95875635e-07  1.54790641e+00                                 
 2.34636769e-07  7.43434637e-01  2.34636769e-07  6.80854498e-01  2.34636769e-07  6.84686093e-01  2.34636769e-07  1.80000000e+00  2.34636769e-07 -3.53314129e-03  2.34636769e-07  6.82369361e-01  2.34636769e-07  1.54078516e+00  2.34636769e-07  1.54790658e+00                                 
 2.60291498e-07  7.43449599e-01  2.60291498e-07  6.80883111e-01  2.60291498e-07  6.84188152e-01  2.60291498e-07  1.80000000e+00  2.60291498e-07  3.54174987e-03  2.60291498e-07  6.82609807e-01  2.60291498e-07  1.54109854e+00  2.60291498e-07  1.54790274e+00                                 
 2.88904627e-07  7.43434292e-01  2.88904627e-07  6.80854433e-01  2.88904627e-07  6.84112218e-01  2.88904627e-07  1.80000000e+00  2.88904627e-07 -3.52354604e-03  2.88904627e-07  6.82370583e-01  2.88904627e-07  1.54078442e+00  2.88904627e-07  1.54790318e+00                                 
 3.39265882e-07  7.43449269e-01  3.39265882e-07  6.80883114e-01  3.39265882e-07  6.84203500e-01  3.39265882e-07  1.80000000e+00  3.39265882e-07  3.53459926e-03  3.39265882e-07  6.82609583e-01  3.39265882e-07  1.54109553e+00  3.39265882e-07  1.54789971e+00                                 
 4.02135991e-07  7.43434578e-01  4.02135991e-07  6.80854439e-01  4.02135991e-07  6.84081867e-01  4.02135991e-07  1.80000000e+00  4.02135991e-07 -3.51891039e-03  4.02135991e-07  6.82370693e-01  4.02135991e-07  1.54078069e+00  4.02135991e-07  1.54789911e+00                                 
 5.23477526e-07  7.43449059e-01  5.23477526e-07  6.80883108e-01  5.23477526e-07  6.84219414e-01  5.23477526e-07  1.80000000e+00  5.23477526e-07  3.53144889e-03  5.23477526e-07  6.82609525e-01  5.23477526e-07  1.54108910e+00  5.23477526e-07  1.54789340e+00                                 
 7.15108915e-07  7.43434700e-01  7.15108915e-07  6.80854442e-01  7.15108915e-07  6.84073922e-01  7.15108915e-07  1.80000000e+00  7.15108915e-07 -3.51716133e-03  7.15108915e-07  6.82370719e-01  7.15108915e-07  1.54076998e+00  7.15108915e-07  1.54788836e+00                                 
 1.05004372e-06  7.43448984e-01  1.05004372e-06  6.80883106e-01  1.05004372e-06  6.84223724e-01  1.05004372e-06  1.80000000e+00  1.05004372e-06  3.53037926e-03  1.05004372e-06  6.82609511e-01  1.05004372e-06  1.54107095e+00  1.05004372e-06  1.54787531e+00                                 
 1.65827088e-06  7.43434742e-01  1.65827088e-06  6.80854443e-01  1.65827088e-06  6.84071515e-01  1.65827088e-06  1.80000000e+00  1.65827088e-06 -3.51655609e-03  1.65827088e-06  6.82370726e-01  1.65827088e-06  1.54073754e+00  1.65827088e-06  1.54785594e+00                                 
 2.69940113e-06  7.43448961e-01  2.69940113e-06  6.80883105e-01  2.69940113e-06  6.84224993e-01  2.69940113e-06  1.80000000e+00  2.69940113e-06  3.53003966e-03  2.69940113e-06  6.82609507e-01  2.69940113e-06  1.54101423e+00  2.69940113e-06  1.54781868e+00                                 
 3.89940113e-06  7.43434758e-01  3.89940113e-06  6.80854444e-01  3.89940113e-06  6.84070628e-01  3.89940113e-06  1.80000000e+00  3.89940113e-06 -3.51633619e-03  3.89940113e-06  6.82370729e-01  3.89940113e-06  1.54066047e+00  3.89940113e-06  1.54777896e+00                                 
 5.09940113e-06  7.43448945e-01  5.09940113e-06  6.80883104e-01  5.09940113e-06  6.84225783e-01  5.09940113e-06  1.80000000e+00  5.09940113e-06  3.52982294e-03  5.09940113e-06  6.82609505e-01  5.09940113e-06  1.54093162e+00  5.09940113e-06  1.54773619e+00                                 
 6.00100000e-06  7.43434776e-01  6.00100000e-06  6.80854444e-01  6.00100000e-06  6.84069689e-01  6.00100000e-06  1.80000000e+00  6.00100000e-06 -3.51608811e-03  6.00100000e-06  6.82370732e-01  6.00100000e-06  1.54058812e+00  6.00100000e-06  1.54770671e+00                                 
 6.00110000e-06  7.43393666e-01  6.00110000e-06  6.80629106e-01  6.00110000e-06  6.82356674e-01  6.00110000e-06  1.62000000e+00  6.00110000e-06 -3.92923149e-04  6.00110000e-06  6.80902099e-01  6.00110000e-06  1.53938378e+00  6.00110000e-06  1.54769625e+00                                 
 6.00130000e-06  7.43427517e-01  6.00130000e-06  6.80632408e-01  6.00130000e-06  6.82550168e-01  6.00130000e-06  1.26000000e+00  6.00130000e-06  2.57524209e-04  6.00130000e-06  6.80741986e-01  6.00130000e-06  1.53925731e+00  6.00130000e-06  1.54771035e+00                                 
 6.00165596e-06  7.43485589e-01  6.00165596e-06  6.80858373e-01  6.00165596e-06  6.84676043e-01  6.00165596e-06  6.19279158e-01  6.00165596e-06 -1.96613958e-03  6.00165596e-06  6.81502026e-01  6.00165596e-06  1.53725649e+00  6.00165596e-06  1.54769322e+00                                 
 6.00200000e-06  7.43430861e-01  6.00200000e-06  6.79254168e-01  6.00200000e-06  7.16475370e-01  6.00200000e-06  0.00000000e+00  6.00200000e-06  1.59655429e+00  6.00200000e-06  6.64369084e-01  6.00200000e-06  1.34815269e+00  6.00200000e-06  1.54710075e+00                                 
 6.00204075e-06  7.43444965e-01  6.00204075e-06  6.78880085e-01  6.00204075e-06  7.22891067e-01  6.00204075e-06  0.00000000e+00  6.00204075e-06  1.72023068e+00  6.00204075e-06  6.60170425e-01  6.00204075e-06  1.28953799e+00  6.00204075e-06  1.54711299e+00                                 
 6.00212226e-06  7.43443892e-01  6.00212226e-06  6.78167968e-01  6.00212226e-06  7.27525215e-01  6.00212226e-06  0.00000000e+00  6.00212226e-06  1.81342978e+00  6.00212226e-06  6.52461238e-01  6.00212226e-06  1.16735914e+00  6.00212226e-06  1.54746782e+00                                 
 6.00228526e-06  7.43439581e-01  6.00228526e-06  6.78042649e-01  6.00228526e-06  7.18052367e-01  6.00228526e-06  0.00000000e+00  6.00228526e-06  1.78958249e+00  6.00228526e-06  6.52055356e-01  6.00228526e-06  9.72177944e-01  6.00228526e-06  1.54796235e+00                                 
 6.00243277e-06  7.43442277e-01  6.00243277e-06  6.78485148e-01  6.00243277e-06  7.12772900e-01  6.00243277e-06  0.00000000e+00  6.00243277e-06  1.80360061e+00  6.00243277e-06  6.57236841e-01  6.00243277e-06  8.55839412e-01  6.00243277e-06  1.54790896e+00                                 
 6.00262426e-06  7.43438568e-01  6.00262426e-06  6.79250587e-01  6.00262426e-06  7.02049879e-01  6.00262426e-06  0.00000000e+00  6.00262426e-06  1.79668752e+00  6.00262426e-06  6.64871497e-01  6.00262426e-06  7.57715037e-01  6.00262426e-06  1.54811280e+00                                 
 6.00284758e-06  7.43442060e-01  6.00284758e-06  6.80302945e-01  6.00284758e-06  6.91420193e-01  6.00284758e-06  0.00000000e+00  6.00284758e-06  1.80173723e+00  6.00284758e-06  6.75005045e-01  6.00284758e-06  7.10148335e-01  6.00284758e-06  1.54801482e+00                                 
 6.00304903e-06  7.43439020e-01  6.00304903e-06  6.80788301e-01  6.00304903e-06  6.87839325e-01  6.00304903e-06  0.00000000e+00  6.00304903e-06  1.79898625e+00  6.00304903e-06  6.78699172e-01  6.00304903e-06  6.94024663e-01  6.00304903e-06  1.54777052e+00                                 
 6.00332732e-06  7.43442268e-01  6.00332732e-06  6.81219623e-01  6.00332732e-06  6.85139024e-01  6.00332732e-06  0.00000000e+00  6.00332732e-06  1.80075308e+00  6.00332732e-06  6.82116422e-01  6.00332732e-06  6.87473798e-01  6.00332732e-06  1.54696361e+00                                 
 6.00362086e-06  7.43439812e-01  6.00362086e-06  6.81322781e-01  6.00362086e-06  6.85389099e-01  6.00362086e-06  0.00000000e+00  6.00362086e-06  1.79951938e+00  6.00362086e-06  6.82669773e-01  6.00362086e-06  6.85271247e-01  6.00362086e-06  1.54592484e+00                                 
 6.00413357e-06  7.43442647e-01  6.00413357e-06  6.81395755e-01  6.00413357e-06  6.85647640e-01  6.00413357e-06  0.00000000e+00  6.00413357e-06  1.80041545e+00  6.00413357e-06  6.83651724e-01  6.00413357e-06  6.85875610e-01  6.00413357e-06  1.54369962e+00                                 
 6.00484115e-06  7.43440462e-01  6.00484115e-06  6.81315534e-01  6.00484115e-06  6.87791583e-01  6.00484115e-06  0.00000000e+00  6.00484115e-06  1.79967008e+00  6.00484115e-06  6.83489439e-01  6.00484115e-06  6.87097183e-01  6.00484115e-06  1.54036484e+00                                 
 6.00625630e-06  7.43442943e-01  6.00625630e-06  6.81235542e-01  6.00625630e-06  6.91033632e-01  6.00625630e-06  0.00000000e+00  6.00625630e-06  1.80032688e+00  6.00625630e-06  6.83951880e-01  6.00625630e-06  6.91104444e-01  6.00625630e-06  1.53311935e+00                                 
 6.00908662e-06  7.43440707e-01  6.00908662e-06  6.81024976e-01  6.00908662e-06  6.99198950e-01  6.00908662e-06  0.00000000e+00  6.00908662e-06  1.79970899e+00  6.00908662e-06  6.83546313e-01  6.00908662e-06  6.98426243e-01  6.00908662e-06  1.51793658e+00                                 
 6.01474725e-06  7.43442995e-01  6.01474725e-06  6.80875690e-01  6.01474725e-06  7.14026699e-01  6.01474725e-06  0.00000000e+00  6.01474725e-06  1.80030700e+00  6.01474725e-06  6.83546480e-01  6.01474725e-06  7.14079507e-01  6.01474725e-06  1.48700333e+00                                 
 6.02606852e-06  7.43440724e-01  6.02606852e-06  6.80833160e-01  6.02606852e-06  7.43770774e-01  6.02606852e-06  0.00000000e+00  6.02606852e-06  1.79971746e+00  6.02606852e-06  6.82773480e-01  6.02606852e-06  7.42879669e-01  6.02606852e-06  1.42821792e+00                                 
 6.04431935e-06  7.43442985e-01  6.04431935e-06  6.80881560e-01  6.04431935e-06  7.87269731e-01  6.04431935e-06  0.00000000e+00  6.04431935e-06  1.80030071e+00  6.04431935e-06  6.82760596e-01  6.04431935e-06  7.87406093e-01  6.04431935e-06  1.34255445e+00                                 
 6.08082102e-06  7.43440728e-01  6.08082102e-06  6.80852875e-01  6.08082102e-06  8.64436042e-01  6.08082102e-06  0.00000000e+00  6.08082102e-06  1.79971728e+00  6.08082102e-06  6.82314621e-01  6.08082102e-06  8.62759673e-01  6.08082102e-06  1.19511287e+00                                 
 6.14521698e-06  7.43442984e-01  6.14521698e-06  6.80884578e-01  6.14521698e-06  9.68653650e-01  6.14521698e-06  0.00000000e+00  6.14521698e-06  1.80029465e+00  6.14521698e-06  6.82642324e-01  6.14521698e-06  9.69665840e-01  6.14521698e-06  1.02606856e+00                                 
 6.27400890e-06  7.43440729e-01  6.27400890e-06  6.80853099e-01  6.27400890e-06  1.09644848e+00  6.27400890e-06  0.00000000e+00  6.27400890e-06  1.79971182e+00  6.27400890e-06  6.82324947e-01  6.27400890e-06  1.09416843e+00  6.27400890e-06  1.04319759e+00                                 
