 time            v(vbep)         time            v(vben)         time            v(vout)         time            v(vphi1)        time            v(vphi2)        time            v(vref)         yes             currtemp       
 0.00000000e+00  7.15400866e-01  0.00000000e+00  6.63430282e-01  0.00000000e+00  9.11800374e-01  0.00000000e+00  0.00000000e+00  0.00000000e+00  1.79995690e+00  0.00000000e+00  6.63430282e-01  1.00000000e+00  1.10000000e+01 
 5.00000000e-12  7.15375733e-01  5.00000000e-12  6.63409418e-01  5.00000000e-12  9.12509001e-01  5.00000000e-12  1.80000000e-02  5.00000000e-12  1.80008032e+00  5.00000000e-12  6.63409418e-01                                 
 1.00000000e-11  7.15351210e-01  1.00000000e-11  6.63389071e-01  1.00000000e-11  9.13152546e-01  1.00000000e-11  3.60000000e-02  1.00000000e-11  1.80015432e+00  1.00000000e-11  6.63389071e-01                                 
 2.00000000e-11  7.15302527e-01  2.00000000e-11  6.63348526e-01  2.00000000e-11  9.14332219e-01  2.00000000e-11  7.20000000e-02  2.00000000e-11  1.80023840e+00  2.00000000e-11  6.63348526e-01                                 
 4.00000000e-11  7.15205793e-01  4.00000000e-11  6.63267736e-01  4.00000000e-11  9.16209043e-01  4.00000000e-11  1.44000000e-01  4.00000000e-11  1.80023393e+00  4.00000000e-11  6.63267736e-01                                 
 8.00000000e-11  7.15013233e-01  8.00000000e-11  6.63106842e-01  8.00000000e-11  9.18640491e-01  8.00000000e-11  2.88000000e-01  8.00000000e-11  1.80013816e+00  8.00000000e-11  6.63106842e-01                                 
 1.60000000e-10  7.14632025e-01  1.60000000e-10  6.62787805e-01  1.60000000e-10  9.20848566e-01  1.60000000e-10  5.76000000e-01  1.60000000e-10  1.80003757e+00  1.60000000e-10  6.62787805e-01                                 
 3.20000000e-10  7.13884399e-01  3.20000000e-10  6.62160353e-01  3.20000000e-10  9.11405932e-01  3.20000000e-10  1.15200000e+00  3.20000000e-10  1.80023729e+00  3.20000000e-10  6.62160353e-01                                 
 5.00000000e-10  7.13066106e-01  5.00000000e-10  6.61470829e-01  5.00000000e-10  1.00642705e+00  5.00000000e-10  1.80000000e+00  5.00000000e-10  1.35692065e-01  5.00000000e-10  6.61470829e-01                                 
 5.20887982e-10  7.12972826e-01  5.20887982e-10  6.61392031e-01  5.20887982e-10  1.03134416e+00  5.20887982e-10  1.80000000e+00  5.20887982e-10  3.17139964e-02  5.20887982e-10  6.61392031e-01                                 
 5.62663947e-10  7.12786865e-01  5.62663947e-10  6.61234860e-01  5.62663947e-10  1.08086547e+00  5.62663947e-10  1.80000000e+00  5.62663947e-10 -1.24802005e-02  5.62663947e-10  6.61234860e-01                                 
 6.46215877e-10  7.12418557e-01  6.46215877e-10  6.60923146e-01  6.46215877e-10  1.17163116e+00  6.46215877e-10  1.80000000e+00  6.46215877e-10  1.08396289e-02  6.46215877e-10  6.60923146e-01                                 
 7.65887789e-10  7.11899228e-01  7.65887789e-10  6.60482654e-01  7.65887789e-10  1.29024966e+00  7.65887789e-10  1.80000000e+00  7.65887789e-10 -8.37697316e-03  7.65887789e-10  6.60482654e-01                                 
 9.47802534e-10  7.11127556e-01  9.47802534e-10  6.59826069e-01  9.47802534e-10  1.44395701e+00  9.47802534e-10  1.80000000e+00  9.47802534e-10  8.43123664e-03  9.47802534e-10  6.59826069e-01                                 
 1.31163203e-09  7.09644234e-01  1.31163203e-09  6.58557238e-01  1.31163203e-09  1.65248097e+00  1.31163203e-09  1.80000000e+00  1.31163203e-09 -7.36681224e-03  1.31163203e-09  6.58557238e-01                                 
 1.76802722e-09  7.07887548e-01  1.76802722e-09  6.57043210e-01  1.76802722e-09  1.77679612e+00  1.76802722e-09  1.80000000e+00  1.76802722e-09  7.41959042e-03  1.76802722e-09  6.57043210e-01                                 
 2.12044439e-09  7.06603294e-01  2.12044439e-09  6.55928597e-01  2.12044439e-09  1.81131144e+00  2.12044439e-09  1.80000000e+00  2.12044439e-09 -6.88609619e-03  2.12044439e-09  6.55928597e-01                                 
 2.52443512e-09  7.05200466e-01  2.52443512e-09  6.54703888e-01  2.52443512e-09  1.82658944e+00  2.52443512e-09  1.80000000e+00  2.52443512e-09  6.65931754e-03  2.52443512e-09  6.54703888e-01                                 
 2.96926672e-09  7.03733772e-01  2.96926672e-09  6.53415587e-01  2.96926672e-09  1.83084591e+00  2.96926672e-09  1.80000000e+00  2.96926672e-09 -6.34075834e-03  2.96926672e-09  6.53415587e-01                                 
 3.69422235e-09  7.01497526e-01  3.69422235e-09  6.51436675e-01  3.69422235e-09  1.83128781e+00  3.69422235e-09  1.80000000e+00  3.69422235e-09  6.21378096e-03  3.69422235e-09  6.51436675e-01                                 
 4.65285527e-09  6.98793963e-01  4.65285527e-09  6.49021358e-01  4.65285527e-09  1.82849804e+00  4.65285527e-09  1.80000000e+00  4.65285527e-09 -6.06870686e-03  4.65285527e-09  6.49021358e-01                                 
 6.47102242e-09  6.94290082e-01  6.47102242e-09  6.44947353e-01  6.47102242e-09  1.82430957e+00  6.47102242e-09  1.80000000e+00  6.47102242e-09  6.03125892e-03  6.47102242e-09  6.44947353e-01                                 
 9.74118820e-09  6.87661944e-01  9.74118820e-09  6.38849400e-01  9.74118820e-09  1.81747080e+00  9.74118820e-09  1.80000000e+00  9.74118820e-09 -5.97254275e-03  9.74118820e-09  6.38849400e-01                                 
 1.60258690e-08  6.78102490e-01  1.60258690e-08  6.29881102e-01  1.60258690e-08  1.80698869e+00  1.60258690e-08  1.80000000e+00  1.60258690e-08  5.98115228e-03  1.60258690e-08  6.29881102e-01                                 
 1.70868454e-08  6.76796300e-01  1.70868454e-08  6.28639415e-01  1.70868454e-08  1.80520543e+00  1.70868454e-08  1.80000000e+00  1.70868454e-08 -5.85576185e-03  1.70868454e-08  6.28639415e-01                                 
 1.83033092e-08  6.75368723e-01  1.83033092e-08  6.27279610e-01  1.83033092e-08  1.80373992e+00  1.83033092e-08  1.80000000e+00  1.83033092e-08  5.78815135e-03  1.83033092e-08  6.27279610e-01                                 
 1.98413788e-08  6.73660221e-01  1.98413788e-08  6.25648678e-01  1.98413788e-08  1.80139532e+00  1.98413788e-08  1.80000000e+00  1.98413788e-08 -5.69854853e-03  1.98413788e-08  6.25648678e-01                                 
 2.29175179e-08  6.70519401e-01  2.29175179e-08  6.22641264e-01  2.29175179e-08  1.79761052e+00  2.29175179e-08  1.80000000e+00  2.29175179e-08  5.68473452e-03  2.29175179e-08  6.22641264e-01                                 
 2.86128595e-08  6.65422107e-01  2.86128595e-08  6.17746926e-01  2.86128595e-08  1.78930958e+00  2.86128595e-08  1.80000000e+00  2.86128595e-08 -5.64618723e-03  2.86128595e-08  6.17746926e-01                                 
 3.51313371e-08  6.60105550e-01  3.51313371e-08  6.12690127e-01  3.51313371e-08  1.77855947e+00  3.51313371e-08  1.80000000e+00  3.51313371e-08  5.65035743e-03  3.51313371e-08  6.12690127e-01                                 
 4.81682925e-08  6.49400012e-01  4.81682925e-08  6.02820320e-01  4.81682925e-08  1.75336351e+00  4.81682925e-08  1.80000000e+00  4.81682925e-08 -5.62259196e-03  4.81682925e-08  6.02820320e-01                                 
 6.81778307e-08  6.37432994e-01  6.81778307e-08  5.91715012e-01  6.81778307e-08  1.71322683e+00  6.81778307e-08  1.80000000e+00  6.81778307e-08  5.63776808e-03  6.81778307e-08  5.91715012e-01                                 
 8.66317426e-08  6.28725345e-01  8.66317426e-08  5.83675570e-01  8.66317426e-08  1.68055482e+00  8.66317426e-08  1.80000000e+00  8.66317426e-08 -5.61132681e-03  8.66317426e-08  5.83675570e-01                                 
 1.11263140e-07  6.21735655e-01  1.11263140e-07  5.76918385e-01  1.11263140e-07  1.64476314e+00  1.11263140e-07  1.80000000e+00  1.11263140e-07  5.62882396e-03  1.11263140e-07  5.76918385e-01                                 
 1.43897270e-07  6.25477557e-01  1.43897270e-07  5.78549752e-01  1.43897270e-07  1.64010559e+00  1.43897270e-07  1.80000000e+00  1.43897270e-07 -5.60181690e-03  1.43897270e-07  5.78549752e-01                                 
 1.65623483e-07  6.24908133e-01  1.65623483e-07  5.77346789e-01  1.65623483e-07  1.62021242e+00  1.65623483e-07  1.80000000e+00  1.65623483e-07  5.61982825e-03  1.65623483e-07  5.77346789e-01                                 
 1.86351789e-07  6.17656736e-01  1.86351789e-07  5.70974873e-01  1.86351789e-07  1.59274503e+00  1.86351789e-07  1.80000000e+00  1.86351789e-07 -5.59334348e-03  1.86351789e-07  5.70974873e-01                                 
 2.05961351e-07  6.12193457e-01  2.05961351e-07  5.66112750e-01  2.05961351e-07  1.56575433e+00  2.05961351e-07  1.80000000e+00  2.05961351e-07  5.60982204e-03  2.05961351e-07  5.66112750e-01                                 
 2.26944052e-07  6.06931869e-01  2.26944052e-07  5.61429904e-01  2.26944052e-07  1.54094412e+00  2.26944052e-07  1.80000000e+00  2.26944052e-07 -5.58312275e-03  2.26944052e-07  5.61429904e-01                                 
 2.60648089e-07  5.97610891e-01  2.60648089e-07  5.53326972e-01  2.60648089e-07  1.49653931e+00  2.60648089e-07  1.80000000e+00  2.60648089e-07  5.60180425e-03  2.60648089e-07  5.53326972e-01                                 
 3.06558148e-07  5.86252239e-01  3.06558148e-07  5.43527096e-01  3.06558148e-07  1.44096801e+00  3.06558148e-07  1.80000000e+00  3.06558148e-07 -5.57770167e-03  3.06558148e-07  5.43527096e-01                                 
 3.94233694e-07  5.58993321e-01  3.94233694e-07  5.20850070e-01  3.94233694e-07  1.32460524e+00  3.94233694e-07  1.80000000e+00  3.94233694e-07  5.59825015e-03  3.94233694e-07  5.20850070e-01                                 
 4.84278123e-07  5.35259436e-01  4.84278123e-07  5.01380233e-01  4.84278123e-07  1.21192301e+00  4.84278123e-07  1.80000000e+00  4.84278123e-07 -5.57533556e-03  4.84278123e-07  5.01380233e-01                                 
 5.78297683e-07  4.95627565e-01  5.78297683e-07  4.69527626e-01  5.78297683e-07  1.07315583e+00  5.78297683e-07  1.80000000e+00  5.78297683e-07  5.59562177e-03  5.78297683e-07  4.69527626e-01                                 
 5.91345594e-07  4.90549433e-01  5.91345594e-07  4.65467451e-01  5.91345594e-07  1.05567055e+00  5.91345594e-07  1.80000000e+00  5.91345594e-07  1.04009526e-06  5.91345594e-07  4.65467451e-01                                 
 6.17441417e-07  4.86914291e-01  6.17441417e-07  4.62568488e-01  6.17441417e-07  1.02475821e+00  6.17441417e-07  1.80000000e+00  6.17441417e-07 -2.12517329e-06  6.17441417e-07  4.62568488e-01                                 
 6.69633063e-07  7.08897465e-01  6.69633063e-07  6.52404185e-01  6.69633063e-07  1.18676231e+00  6.69633063e-07  1.80000000e+00  6.69633063e-07  1.51838174e-05  6.69633063e-07  6.52404185e-01                                 
 7.28648096e-07  8.01914343e-01  7.28648096e-07  7.46560255e-01  7.28648096e-07  1.22070042e+00  7.28648096e-07  1.80000000e+00  7.28648096e-07 -9.14934907e-06  7.28648096e-07  7.46560255e-01                                 
 7.84376074e-07  8.25173997e-01  7.84376074e-07  7.66990656e-01  7.84376074e-07  1.18026178e+00  7.84376074e-07  1.80000000e+00  7.84376074e-07  1.00180626e-05  7.84376074e-07  7.66990656e-01                                 
 7.90671112e-07  8.26159111e-01  7.90671112e-07  7.67799454e-01  7.90671112e-07  1.17720775e+00  7.90671112e-07  1.80000000e+00  7.90671112e-07  2.45026481e-07  7.90671112e-07  7.67799454e-01                                 
 8.03261187e-07  8.27224842e-01  8.03261187e-07  7.68691707e-01  8.03261187e-07  1.16593209e+00  8.03261187e-07  1.80000000e+00  8.03261187e-07 -5.54214254e-07  8.03261187e-07  7.68691707e-01                                 
 8.28441336e-07  8.29627235e-01  8.28441336e-07  7.70666001e-01  8.28441336e-07  1.14159060e+00  8.28441336e-07  1.80000000e+00  8.28441336e-07  1.93606532e-07  8.28441336e-07  7.70666001e-01                                 
 8.56614694e-07  8.34180660e-01  8.56614694e-07  7.74363751e-01  8.56614694e-07  1.11705468e+00  8.56614694e-07  1.80000000e+00  8.56614694e-07 -2.44574308e-07  8.56614694e-07  7.74363751e-01                                 
 9.00721437e-07  8.24616975e-01  9.00721437e-07  7.66564317e-01  9.00721437e-07  1.06167694e+00  9.00721437e-07  1.80000000e+00  9.00721437e-07 -1.32535216e-06  9.00721437e-07  7.66564317e-01                                 
 9.05702344e-07  8.19675871e-01  9.05702344e-07  7.62397083e-01  9.05702344e-07  1.05202100e+00  9.05702344e-07  1.80000000e+00  9.05702344e-07 -2.30424498e-06  9.05702344e-07  7.62397083e-01                                 
 9.15664159e-07  8.09220392e-01  9.15664159e-07  7.53272102e-01  9.15664159e-07  1.03158181e+00  9.15664159e-07  1.80000000e+00  9.15664159e-07 -2.65385872e-06  9.15664159e-07  7.53272102e-01                                 
 9.35587787e-07  7.96657353e-01  9.35587787e-07  7.41835268e-01  9.35587787e-07  9.98112222e-01  9.35587787e-07  1.80000000e+00  9.35587787e-07 -6.50170949e-07  9.35587787e-07  7.41835268e-01                                 
 9.66603284e-07  7.99514351e-01  9.66603284e-07  7.44431050e-01  9.66603284e-07  9.70491004e-01  9.66603284e-07  1.80000000e+00  9.66603284e-07  4.29727212e-07  9.66603284e-07  7.44431050e-01                                 
 1.00795452e-06  8.09795523e-01  1.00795452e-06  7.53710832e-01  1.00795452e-06  9.43757343e-01  1.00795452e-06  1.80000000e+00  1.00795452e-06  8.97697319e-08  1.00795452e-06  7.53710832e-01                                 
 1.05669074e-06  8.14216635e-01  1.05669074e-06  7.57615259e-01  1.05669074e-06  9.09409844e-01  1.05669074e-06  1.80000000e+00  1.05669074e-06 -1.15216508e-07  1.05669074e-06  7.57615259e-01                                 
 1.14326225e-06  8.04969804e-01  1.14326225e-06  7.49419827e-01  1.14326225e-06  8.42751111e-01  1.14326225e-06  1.80000000e+00  1.14326225e-06 -5.59661315e-07  1.14326225e-06  7.49419827e-01                                 
 1.22522299e-06  8.06163046e-01  1.22522299e-06  7.50466604e-01  1.22522299e-06  8.01607878e-01  1.22522299e-06  1.80000000e+00  1.22522299e-06  5.17871814e-07  1.22522299e-06  7.50466604e-01                                 
 1.33525025e-06  8.12698661e-01  1.33525025e-06  7.56290261e-01  1.33525025e-06  7.74222011e-01  1.33525025e-06  1.80000000e+00  1.33525025e-06 -2.15730168e-07  1.33525025e-06  7.56290261e-01                                 
 1.48099460e-06  8.04191222e-01  1.48099460e-06  7.48705049e-01  1.48099460e-06  7.46164232e-01  1.48099460e-06  1.80000000e+00  1.48099460e-06  1.78320083e-07  1.48099460e-06  7.48705049e-01                                 
 1.63342860e-06  8.10838190e-01  1.63342860e-06  7.54640055e-01  1.63342860e-06  7.43996581e-01  1.63342860e-06  1.80000000e+00  1.63342860e-06  2.31495736e-07  1.63342860e-06  7.54640055e-01                                 
 1.81451895e-06  8.07390322e-01  1.81451895e-06  7.51587862e-01  1.81451895e-06  7.49645536e-01  1.81451895e-06  1.80000000e+00  1.81451895e-06  6.64520522e-09  1.81451895e-06  7.51587862e-01                                 
 1.83721387e-06  8.06602764e-01  1.83721387e-06  7.50876848e-01  1.83721387e-06  7.50707777e-01  1.83721387e-06  1.80000000e+00  1.83721387e-06  9.47385559e-08  1.83721387e-06  7.50876848e-01                                 
 1.88260371e-06  8.07400127e-01  1.88260371e-06  7.51584799e-01  1.88260371e-06  7.52956624e-01  1.88260371e-06  1.80000000e+00  1.88260371e-06  2.65563120e-07  1.88260371e-06  7.51584799e-01                                 
 1.97338339e-06  8.09839297e-01  1.97338339e-06  7.53761852e-01  1.97338339e-06  7.54038442e-01  1.97338339e-06  1.80000000e+00  1.97338339e-06  1.05755872e-07  1.97338339e-06  7.53761852e-01                                 
 2.10909476e-06  8.07279242e-01  2.10909476e-06  7.51482062e-01  2.10909476e-06  7.51250571e-01  2.10909476e-06  1.80000000e+00  2.10909476e-06  9.74925863e-08  2.10909476e-06  7.51482062e-01                                 
 2.25102748e-06  8.08772624e-01  2.25102748e-06  7.52810824e-01  2.25102748e-06  7.53051715e-01  2.25102748e-06  1.80000000e+00  2.25102748e-06  2.21219839e-07  2.25102748e-06  7.52810824e-01                                 
 2.53489291e-06  8.08351622e-01  2.53489291e-06  7.52441187e-01  2.53489291e-06  7.52428398e-01  2.53489291e-06  1.80000000e+00  2.53489291e-06  4.97288768e-08  2.53489291e-06  7.52441187e-01                                 
 2.93050942e-06  8.08156393e-01  2.93050942e-06  7.52261473e-01  2.93050942e-06  7.52385815e-01  2.93050942e-06  1.80000000e+00  2.93050942e-06  2.25386165e-07  2.93050942e-06  7.52261473e-01                                 
 3.65984812e-06  8.08716005e-01  3.65984812e-06  7.52765464e-01  3.65984812e-06  7.52814493e-01  3.65984812e-06  1.80000000e+00  3.65984812e-06  5.45027301e-08  3.65984812e-06  7.52765464e-01                                 
 4.65984812e-06  8.07956682e-01  4.65984812e-06  7.52083441e-01  4.65984812e-06  7.52176130e-01  4.65984812e-06  1.80000000e+00  4.65984812e-06  2.19508379e-07  4.65984812e-06  7.52083441e-01                                 
 5.65984812e-06  8.08872189e-01  5.65984812e-06  7.52904296e-01  5.65984812e-06  7.52976720e-01  5.65984812e-06  1.80000000e+00  5.65984812e-06  6.09732433e-08  5.65984812e-06  7.52904296e-01                                 
 6.65984812e-06  8.07808837e-01  6.65984812e-06  7.51951676e-01  6.65984812e-06  7.52023520e-01  6.65984812e-06  1.80000000e+00  6.65984812e-06  2.11852354e-07  6.65984812e-06  7.51951676e-01                                 
 7.65984812e-06  8.09005415e-01  7.65984812e-06  7.53022573e-01  7.65984812e-06  7.53113362e-01  7.65984812e-06  1.80000000e+00  7.65984812e-06  6.97235478e-08  7.65984812e-06  7.53022573e-01                                 
 8.65984812e-06  8.07687296e-01  8.65984812e-06  7.51843421e-01  8.65984812e-06  7.51899177e-01  8.65984812e-06  1.80000000e+00  8.65984812e-06  2.02111523e-07  8.65984812e-06  7.51843421e-01                                 
 9.65984812e-06  8.09110095e-01  9.65984812e-06  7.53115369e-01  9.65984812e-06  7.53220045e-01  9.65984812e-06  1.80000000e+00  9.65984812e-06  8.03427699e-08  9.65984812e-06  7.53115369e-01                                 
 1.00005000e-05  8.07534332e-01  1.00005000e-05  7.51707425e-01  1.00005000e-05  7.51743270e-01  1.00005000e-05  1.80000000e+00  1.00005000e-05  1.78678032e-07  1.00005000e-05  7.51707425e-01                                 
 1.00005500e-05  8.07535459e-01  1.00005500e-05  7.51708448e-01  1.00005500e-05  7.44792365e-01  1.00005500e-05  1.62000000e+00  1.00005500e-05 -1.07784721e-04  1.00005500e-05  7.51708448e-01                                 
 1.00006500e-05  8.07537808e-01  1.00006500e-05  7.51710532e-01  1.00006500e-05  7.35081258e-01  1.00006500e-05  1.26000000e+00  1.00006500e-05 -5.32330540e-05  1.00006500e-05  7.51710532e-01                                 
 1.00008500e-05  8.07542608e-01  1.00008500e-05  7.51714785e-01  1.00008500e-05  7.34336828e-01  1.00008500e-05  5.40000000e-01  1.00008500e-05 -1.12753303e-03  1.00008500e-05  7.51714785e-01                                 
 1.00010000e-05  8.07546191e-01  1.00010000e-05  7.51717987e-01  1.00010000e-05  7.43923128e-01  1.00010000e-05  0.00000000e+00  1.00010000e-05  1.49494696e+00  1.00010000e-05  7.51717987e-01                                 
 1.00010266e-05  8.07546852e-01  1.00010266e-05  7.51718566e-01  1.00010266e-05  7.51972265e-01  1.00010266e-05  0.00000000e+00  1.00010266e-05  1.68769841e+00  1.00010266e-05  7.51718566e-01                                 
 1.00010798e-05  8.07548132e-01  1.00010798e-05  7.51719708e-01  1.00010798e-05  7.71370266e-01  1.00010798e-05  0.00000000e+00  1.00010798e-05  1.82517025e+00  1.00010798e-05  7.51719708e-01                                 
