 time            v(vbep)         time            v(vben)         time            v(vout)         time            v(vphi1)        time            v(vphi2)        time            v(vref)         yes             currtemp       
 0.00000000e+00  7.80681730e-01  0.00000000e+00  7.35684822e-01  0.00000000e+00  1.71357681e-01  0.00000000e+00  0.00000000e+00  0.00000000e+00  1.79996617e+00  0.00000000e+00  5.00000000e-01  1.00000000e+00 -2.70000000e+01 
 5.00000000e-12  7.80661580e-01  5.00000000e-12  7.35668050e-01  5.00000000e-12  1.71876483e-01  5.00000000e-12  1.80000000e-02  5.00000000e-12  1.80004854e+00  5.00000000e-12  5.00000000e-01                                 
 1.00000000e-11  7.80641864e-01  1.00000000e-11  7.35651669e-01  1.00000000e-11  1.72334980e-01  1.00000000e-11  3.60000000e-02  1.00000000e-11  1.80008919e+00  1.00000000e-11  5.00000000e-01                                 
 2.00000000e-11  7.80602678e-01  2.00000000e-11  7.35619015e-01  2.00000000e-11  1.73163935e-01  2.00000000e-11  7.20000000e-02  2.00000000e-11  1.80012619e+00  2.00000000e-11  5.00000000e-01                                 
 4.00000000e-11  7.80524738e-01  4.00000000e-11  7.35553929e-01  4.00000000e-11  1.74420574e-01  4.00000000e-11  1.44000000e-01  4.00000000e-11  1.80010455e+00  4.00000000e-11  5.00000000e-01                                 
 8.00000000e-11  7.80369541e-01  8.00000000e-11  7.35424268e-01  8.00000000e-11  1.76033149e-01  8.00000000e-11  2.88000000e-01  8.00000000e-11  1.80005705e+00  8.00000000e-11  5.00000000e-01                                 
 1.60000000e-10  7.80062080e-01  1.60000000e-10  7.35167000e-01  1.60000000e-10  1.77886875e-01  1.60000000e-10  5.76000000e-01  1.60000000e-10  1.80001810e+00  1.60000000e-10  5.00000000e-01                                 
 3.20000000e-10  7.79458298e-01  3.20000000e-10  7.34660423e-01  3.20000000e-10  1.94342914e-01  3.20000000e-10  1.15200000e+00  3.20000000e-10  1.79991900e+00  3.20000000e-10  5.00000000e-01                                 
 5.00000000e-10  7.78796280e-01  5.00000000e-10  7.34102847e-01  5.00000000e-10  5.36289898e-01  5.00000000e-10  1.80000000e+00  5.00000000e-10  8.96724356e-02  5.00000000e-10  5.00000000e-01                                 
 5.20730435e-10  7.78721295e-01  5.20730435e-10  7.34039540e-01  5.20730435e-10  6.01473414e-01  5.20730435e-10  1.80000000e+00  5.20730435e-10  1.49911311e-02  5.20730435e-10  5.00000000e-01                                 
 5.62191306e-10  7.78571769e-01  5.62191306e-10  7.33913240e-01  5.62191306e-10  7.17350613e-01  5.62191306e-10  1.80000000e+00  5.62191306e-10 -7.21584843e-03  5.62191306e-10  5.00000000e-01                                 
 6.45113046e-10  7.78275403e-01  6.45113046e-10  7.33662582e-01  6.45113046e-10  8.92699154e-01  6.45113046e-10  1.80000000e+00  6.45113046e-10  6.36285374e-03  6.45113046e-10  5.00000000e-01                                 
 7.69942240e-10  7.77835870e-01  7.69942240e-10  7.33290039e-01  7.69942240e-10  1.09583789e+00  7.69942240e-10  1.80000000e+00  7.69942240e-10 -5.66963899e-03  7.69942240e-10  5.00000000e-01                                 
 9.57308136e-10  7.77190504e-01  9.57308136e-10  7.32741330e-01  9.57308136e-10  1.34639074e+00  9.57308136e-10  1.80000000e+00  9.57308136e-10  5.42578082e-03  9.57308136e-10  5.00000000e-01                                 
 1.33203993e-09  7.75948151e-01  1.33203993e-09  7.31679476e-01  1.33203993e-09  1.69447401e+00  1.33203993e-09  1.80000000e+00  1.33203993e-09 -5.18010014e-03  1.33203993e-09  5.00000000e-01                                 
 1.98531217e-09  7.73921036e-01  1.98531217e-09  7.29931636e-01  1.98531217e-09  1.93636244e+00  1.98531217e-09  1.80000000e+00  1.98531217e-09  5.16769128e-03  1.98531217e-09  5.00000000e-01                                 
 2.23939917e-09  7.73176789e-01  2.23939917e-09  7.29285024e-01  2.23939917e-09  1.95799020e+00  2.23939917e-09  1.80000000e+00  2.23939917e-09 -4.87891645e-03  2.23939917e-09  5.00000000e-01                                 
 2.54984225e-09  7.72297214e-01  2.54984225e-09  7.28517684e-01  2.54984225e-09  1.96995861e+00  2.54984225e-09  1.80000000e+00  2.54984225e-09  4.75340710e-03  2.54984225e-09  5.00000000e-01                                 
 2.89931357e-09  7.71343594e-01  2.89931357e-09  7.27681965e-01  2.89931357e-09  1.97504925e+00  2.89931357e-09  1.80000000e+00  2.89931357e-09 -4.56571160e-03  2.89931357e-09  5.00000000e-01                                 
 3.59825623e-09  7.69540257e-01  3.59825623e-09  7.26091399e-01  3.59825623e-09  1.97652941e+00  3.59825623e-09  1.80000000e+00  3.59825623e-09  4.52455182e-03  3.59825623e-09  5.00000000e-01                                 
 4.61972556e-09  7.67121859e-01  4.61972556e-09  7.23938244e-01  4.61972556e-09  1.97361107e+00  4.61972556e-09  1.80000000e+00  4.61972556e-09 -4.45002664e-03  4.61972556e-09  5.00000000e-01                                 
 6.31237074e-09  7.63568663e-01  6.31237074e-09  7.20736740e-01  6.31237074e-09  1.96859993e+00  6.31237074e-09  1.80000000e+00  6.31237074e-09  4.44987152e-03  6.31237074e-09  5.00000000e-01                                 
 8.58513423e-09  7.59473211e-01  8.58513423e-09  7.16996337e-01  8.58513423e-09  1.96172094e+00  8.58513423e-09  1.80000000e+00  8.58513423e-09 -4.39530630e-03  8.58513423e-09  5.00000000e-01                                 
 9.80143468e-09  7.57530958e-01  9.80143468e-09  7.15205231e-01  9.80143468e-09  1.95812708e+00  9.80143468e-09  1.80000000e+00  9.80143468e-09  4.38222398e-03  9.80143468e-09  5.00000000e-01                                 
 1.16184299e-08  7.54867220e-01  1.16184299e-08  7.12735443e-01  1.16184299e-08  1.95420716e+00  1.16184299e-08  1.80000000e+00  1.16184299e-08 -4.33283651e-03  1.16184299e-08  5.00000000e-01                                 
 1.35174320e-08  7.52332813e-01  1.35174320e-08  7.10373514e-01  1.35174320e-08  1.95086697e+00  1.35174320e-08  1.80000000e+00  1.35174320e-08  4.32735720e-03  1.35174320e-08  5.00000000e-01                                 
 1.73154361e-08  7.47824680e-01  1.73154361e-08  7.06153195e-01  1.73154361e-08  1.94363404e+00  1.73154361e-08  1.80000000e+00  1.73154361e-08 -4.29703924e-03  1.73154361e-08  5.00000000e-01                                 
 2.09207919e-08  7.44079004e-01  2.09207919e-08  7.02634384e-01  2.09207919e-08  1.93581857e+00  2.09207919e-08  1.80000000e+00  2.09207919e-08  4.30050346e-03  2.09207919e-08  5.00000000e-01                                 
 2.81315036e-08  7.37608315e-01  2.81315036e-08  6.96551096e-01  2.81315036e-08  1.91946061e+00  2.81315036e-08  1.80000000e+00  2.81315036e-08 -4.27732211e-03  2.81315036e-08  5.00000000e-01                                 
 3.70607209e-08  7.30917630e-01  3.70607209e-08  6.90271616e-01  3.70607209e-08  1.89941500e+00  3.70607209e-08  1.80000000e+00  3.70607209e-08  4.28867585e-03  3.70607209e-08  5.00000000e-01                                 
 5.49191553e-08  7.20232926e-01  5.49191553e-08  6.80282438e-01  5.49191553e-08  1.86296728e+00  5.49191553e-08  1.80000000e+00  5.49191553e-08 -4.26923274e-03  5.49191553e-08  5.00000000e-01                                 
 8.57460786e-08  7.08868375e-01  8.57460786e-08  6.69422081e-01  8.57460786e-08  1.81404383e+00  8.57460786e-08  1.80000000e+00  8.57460786e-08  4.28467176e-03  8.57460786e-08  5.00000000e-01                                 
 1.24053871e-07  7.11435528e-01  1.24053871e-07  6.69840482e-01  1.24053871e-07  1.80827656e+00  1.24053871e-07  1.80000000e+00  1.24053871e-07 -4.26611765e-03  1.24053871e-07  5.00000000e-01                                 
 1.49784803e-07  7.10212321e-01  1.49784803e-07  6.68032620e-01  1.49784803e-07  1.78404997e+00  1.49784803e-07  1.80000000e+00  1.49784803e-07  4.28144013e-03  1.49784803e-07  5.00000000e-01                                 
 1.77167941e-07  7.03048097e-01  1.77167941e-07  6.61592335e-01  1.77167941e-07  1.74909251e+00  1.77167941e-07  1.80000000e+00  1.77167941e-07 -4.26268355e-03  1.77167941e-07  5.00000000e-01                                 
 1.99850113e-07  6.99687548e-01  1.99850113e-07  6.58366951e-01  1.99850113e-07  1.72629634e+00  1.99850113e-07  1.80000000e+00  1.99850113e-07  4.27768801e-03  1.99850113e-07  5.00000000e-01                                 
 2.24621887e-07  6.95393242e-01  2.24621887e-07  6.54411500e-01  2.24621887e-07  1.69898309e+00  2.24621887e-07  1.80000000e+00  2.24621887e-07 -4.25874676e-03  2.24621887e-07  5.00000000e-01                                 
 2.58545315e-07  6.89770210e-01  2.58545315e-07  6.49283984e-01  2.58545315e-07  1.66160158e+00  2.58545315e-07  1.80000000e+00  2.58545315e-07  4.27439720e-03  2.58545315e-07  5.00000000e-01                                 
 3.08733955e-07  6.82518411e-01  3.08733955e-07  6.42687982e-01  3.08733955e-07  1.60688035e+00  3.08733955e-07  1.80000000e+00  3.08733955e-07 -4.25635842e-03  3.08733955e-07  5.00000000e-01                                 
 3.95229491e-07  6.71164711e-01  3.95229491e-07  6.32521486e-01  3.95229491e-07  1.51159278e+00  3.95229491e-07  1.80000000e+00  3.95229491e-07  4.27291721e-03  3.95229491e-07  5.00000000e-01                                 
 5.47024178e-07  6.53725889e-01  5.47024178e-07  6.17241121e-01  5.47024178e-07  1.34444534e+00  5.47024178e-07  1.80000000e+00  5.47024178e-07 -4.25546257e-03  5.47024178e-07  5.00000000e-01                                 
 8.48045048e-07  6.21732576e-01  8.48045048e-07  5.90197400e-01  8.48045048e-07  9.92716696e-01  8.48045048e-07  1.80000000e+00  8.48045048e-07  4.27247321e-03  8.48045048e-07  5.00000000e-01                                 
 9.23300266e-07  6.14802011e-01  9.23300266e-07  5.84475455e-01  9.23300266e-07  9.20914569e-01  9.23300266e-07  1.80000000e+00  9.23300266e-07  1.35997245e-07  9.23300266e-07  5.00000000e-01                                 
 1.07381070e-06  6.00992403e-01  1.07381070e-06  5.73128235e-01  1.07381070e-06  8.01323006e-01  1.07381070e-06  1.80000000e+00  1.07381070e-06 -1.82447285e-07  1.07381070e-06  5.00000000e-01                                 
 1.24957232e-06  5.85958526e-01  1.24957232e-06  5.60864348e-01  1.24957232e-06  6.92780770e-01  1.24957232e-06  1.80000000e+00  1.24957232e-06  1.40605103e-07  1.24957232e-06  5.00000000e-01                                 
 1.43278940e-06  5.72965004e-01  1.43278940e-06  5.50302368e-01  1.43278940e-06  6.16896230e-01  1.43278940e-06  1.80000000e+00  1.43278940e-06 -1.72713745e-07  1.43278940e-06  5.00000000e-01                                 
 1.46515991e-06  5.71380693e-01  1.46515991e-06  5.49012223e-01  1.46515991e-06  6.05474715e-01  1.46515991e-06  1.80000000e+00  1.46515991e-06 -8.65938193e-09  1.46515991e-06  5.00000000e-01                                 
 1.52990094e-06  5.69073979e-01  1.52990094e-06  5.47124099e-01  1.52990094e-06  5.84000256e-01  1.52990094e-06  1.80000000e+00  1.52990094e-06  1.64988814e-10  1.52990094e-06  5.00000000e-01                                 
 1.65938300e-06  5.76634073e-01  1.65938300e-06  5.53100612e-01  1.65938300e-06  5.54722599e-01  1.65938300e-06  1.80000000e+00  1.65938300e-06  5.32649668e-08  1.65938300e-06  5.00000000e-01                                 
 1.68051409e-06  5.80738104e-01  1.68051409e-06  5.56373921e-01  1.68051409e-06  5.52793432e-01  1.68051409e-06  1.80000000e+00  1.68051409e-06  7.16622949e-08  1.68051409e-06  5.00000000e-01                                 
 1.72277626e-06  5.92685072e-01  1.72277626e-06  5.65912044e-01  1.72277626e-06  5.52215284e-01  1.72277626e-06  1.80000000e+00  1.72277626e-06  1.30888327e-07  1.72277626e-06  5.00000000e-01                                 
 1.73334180e-06  5.97384789e-01  1.73334180e-06  5.69666735e-01  1.73334180e-06  5.53544200e-01  1.73334180e-06  1.80000000e+00  1.73334180e-06  1.55817139e-07  1.73334180e-06  5.00000000e-01                                 
 1.75447289e-06  6.08734275e-01  1.75447289e-06  5.78735064e-01  1.75447289e-06  5.57829679e-01  1.75447289e-06  1.80000000e+00  1.75447289e-06  2.19381941e-07  1.75447289e-06  5.00000000e-01                                 
 1.79673507e-06  6.54372721e-01  1.79673507e-06  6.15210506e-01  1.79673507e-06  5.85955876e-01  1.79673507e-06  1.80000000e+00  1.79673507e-06  5.36482092e-07  1.79673507e-06  5.00000000e-01                                 
 1.80452436e-06  6.68846234e-01  1.80452436e-06  6.26785448e-01  1.80452436e-06  5.96365798e-01  1.80452436e-06  1.80000000e+00  1.80452436e-06  6.62508532e-07  1.80452436e-06  5.00000000e-01                                 
 1.82010294e-06  7.05010489e-01  1.82010294e-06  6.55895915e-01  1.82010294e-06  6.23444380e-01  1.82010294e-06  1.80000000e+00  1.82010294e-06  1.04029521e-06  1.82010294e-06  5.00000000e-01                                 
 1.85126010e-06  7.94197992e-01  1.85126010e-06  7.44549430e-01  1.85126010e-06  6.90577287e-01  1.85126010e-06  1.80000000e+00  1.85126010e-06  1.49354561e-06  1.85126010e-06  5.00000000e-01                                 
 1.85904939e-06  8.08519760e-01  1.85904939e-06  7.61399491e-01  1.85904939e-06  6.99829394e-01  1.85904939e-06  1.80000000e+00  1.85904939e-06  1.04231073e-06  1.85904939e-06  5.00000000e-01                                 
 1.87462798e-06  8.29802872e-01  1.87462798e-06  7.83716310e-01  1.87462798e-06  7.11614101e-01  1.87462798e-06  1.80000000e+00  1.87462798e-06  5.26462555e-07  1.87462798e-06  5.00000000e-01                                 
 1.90578514e-06  8.66090921e-01  1.90578514e-06  8.17855807e-01  1.90578514e-06  7.28682524e-01  1.90578514e-06  1.80000000e+00  1.90578514e-06  6.89587359e-07  1.90578514e-06  5.00000000e-01                                 
 1.93416330e-06  9.01020196e-01  1.93416330e-06  8.46679841e-01  1.93416330e-06  7.43859299e-01  1.93416330e-06  1.80000000e+00  1.93416330e-06  5.77295311e-07  1.93416330e-06  5.00000000e-01                                 
 1.96841372e-06  9.47320384e-01  1.96841372e-06  8.76966201e-01  1.96841372e-06  7.59850051e-01  1.96841372e-06  1.80000000e+00  1.96841372e-06  6.56886533e-07  1.96841372e-06  5.00000000e-01                                 
 1.99412629e-06  9.56180542e-01  1.99412629e-06  8.82193964e-01  1.99412629e-06  7.55437639e-01  1.99412629e-06  1.80000000e+00  1.99412629e-06 -9.33783241e-08  1.99412629e-06  5.00000000e-01                                 
 2.02366893e-06  9.50315014e-01  2.02366893e-06  8.78858651e-01  2.02366893e-06  7.36698966e-01  2.02366893e-06  1.80000000e+00  2.02366893e-06  4.73555551e-09  2.02366893e-06  5.00000000e-01                                 
 2.05019320e-06  9.53210840e-01  2.05019320e-06  8.80471191e-01  2.05019320e-06  7.27463140e-01  2.05019320e-06  1.80000000e+00  2.05019320e-06  7.90391857e-08  2.05019320e-06  5.00000000e-01                                 
 2.08036380e-06  9.51220017e-01  2.08036380e-06  8.79419325e-01  2.08036380e-06  7.13499855e-01  2.08036380e-06  1.80000000e+00  2.08036380e-06 -7.54044681e-08  2.08036380e-06  5.00000000e-01                                 
 2.11975471e-06  9.51558878e-01  2.11975471e-06  8.79534122e-01  2.11975471e-06  6.98166269e-01  2.11975471e-06  1.80000000e+00  2.11975471e-06  9.61675120e-08  2.11975471e-06  5.00000000e-01                                 
 2.17204809e-06  9.50646649e-01  2.17204809e-06  8.79103958e-01  2.17204809e-06  6.78231363e-01  2.17204809e-06  1.80000000e+00  2.17204809e-06 -8.00049243e-08  2.17204809e-06  5.00000000e-01                                 
 2.26414063e-06  9.49730898e-01  2.26414063e-06  8.78508829e-01  2.26414063e-06  6.45405311e-01  2.26414063e-06  1.80000000e+00  2.26414063e-06  8.87500511e-08  2.26414063e-06  5.00000000e-01                                 
 2.44505603e-06  9.47573075e-01  2.44505603e-06  8.77367913e-01  2.44505603e-06  5.87561710e-01  2.44505603e-06  1.80000000e+00  2.44505603e-06 -7.90916578e-08  2.44505603e-06  5.00000000e-01                                 
 2.79866759e-06  9.42873517e-01  2.79866759e-06  8.74565372e-01  2.79866759e-06  5.19988902e-01  2.79866759e-06  1.80000000e+00  2.79866759e-06  9.07073916e-08  2.79866759e-06  5.00000000e-01                                 
 3.21490922e-06  9.35600501e-01  3.21490922e-06  8.70305450e-01  3.21490922e-06  4.97506147e-01  3.21490922e-06  1.80000000e+00  3.21490922e-06 -8.89747804e-08  3.21490922e-06  5.00000000e-01                                 
 3.28985720e-06  9.33823700e-01  3.28985720e-06  8.69164725e-01  3.28985720e-06  4.95652933e-01  3.28985720e-06  1.80000000e+00  3.28985720e-06 -6.03124824e-09  3.28985720e-06  5.00000000e-01                                 
 3.43975314e-06  9.29969957e-01  3.43975314e-06  8.66756294e-01  3.43975314e-06  4.92105035e-01  3.43975314e-06  1.80000000e+00  3.43975314e-06 -5.96717584e-09  3.43975314e-06  5.00000000e-01                                 
 3.73954504e-06  9.16613172e-01  3.73954504e-06  8.57978897e-01  3.73954504e-06  4.84967524e-01  3.73954504e-06  1.80000000e+00  3.73954504e-06 -2.48366522e-08  3.73954504e-06  5.00000000e-01                                 
 4.09271485e-06  8.80585587e-01  4.09271485e-06  8.30547875e-01  4.09271485e-06  4.80956781e-01  4.09271485e-06  1.80000000e+00  4.09271485e-06 -6.95187240e-08  4.09271485e-06  5.00000000e-01                                 
 4.13825629e-06  8.74834040e-01  4.13825629e-06  8.25646292e-01  4.13825629e-06  4.80361258e-01  4.13825629e-06  1.80000000e+00  4.13825629e-06 -6.49201576e-08  4.13825629e-06  5.00000000e-01                                 
 4.22933918e-06  8.66415665e-01  4.22933918e-06  8.18237024e-01  4.22933918e-06  4.81668333e-01  4.22933918e-06  1.80000000e+00  4.22933918e-06 -2.60713821e-08  4.22933918e-06  5.00000000e-01                                 
 4.41150494e-06  8.62162322e-01  4.41150494e-06  8.14399671e-01  4.41150494e-06  4.91207270e-01  4.41150494e-06  1.80000000e+00  4.41150494e-06  1.31598102e-08  4.41150494e-06  5.00000000e-01                                 
 4.66952989e-06  8.62957659e-01  4.66952989e-06  8.15119705e-01  4.66952989e-06  5.00469762e-01  4.66952989e-06  1.80000000e+00  4.66952989e-06  4.94552124e-09  4.66952989e-06  5.00000000e-01                                 
 4.94176878e-06  8.62652137e-01  4.94176878e-06  8.14844811e-01  4.94176878e-06  5.02230082e-01  4.94176878e-06  1.80000000e+00  4.94176878e-06  8.84777636e-09  4.94176878e-06  5.00000000e-01                                 
 5.38106294e-06  8.62783527e-01  5.38106294e-06  8.14961722e-01  5.38106294e-06  5.02817370e-01  5.38106294e-06  1.80000000e+00  5.38106294e-06  6.78833245e-09  5.38106294e-06  5.00000000e-01                                 
 5.96635314e-06  8.62707547e-01  5.96635314e-06  8.14895107e-01  5.96635314e-06  5.02294558e-01  5.96635314e-06  1.80000000e+00  5.96635314e-06  8.34554981e-09  5.96635314e-06  5.00000000e-01                                 
 6.76599481e-06  8.62757005e-01  6.76599481e-06  8.14937658e-01  6.76599481e-06  5.01594909e-01  6.76599481e-06  1.80000000e+00  6.76599481e-06  7.04354197e-09  6.76599481e-06  5.00000000e-01                                 
 7.76599481e-06  8.62722059e-01  7.76599481e-06  8.14908274e-01  7.76599481e-06  5.01128193e-01  7.76599481e-06  1.80000000e+00  7.76599481e-06  8.21478952e-09  7.76599481e-06  5.00000000e-01                                 
 8.76599481e-06  8.62747135e-01  8.76599481e-06  8.14928705e-01  8.76599481e-06  5.00767338e-01  8.76599481e-06  1.80000000e+00  8.76599481e-06  7.12511253e-09  8.76599481e-06  5.00000000e-01                                 
 9.76599481e-06  8.62729910e-01  9.76599481e-06  8.14915394e-01  9.76599481e-06  5.00537446e-01  9.76599481e-06  1.80000000e+00  9.76599481e-06  8.15454027e-09  9.76599481e-06  5.00000000e-01                                 
