 time            v(vbep)         time            v(vben)         time            v(vout)         time            v(vphi1)        time            v(vphi2)        time            v(vref)         yes             currtemp       
 0.00000000e+00  8.18011152e-01  0.00000000e+00  7.72466349e-01  0.00000000e+00  1.00634073e+00  0.00000000e+00  0.00000000e+00  0.00000000e+00  1.79978147e+00  0.00000000e+00  5.00000000e-01  1.00000000e+00 -2.50000000e+01 
 5.00000000e-12  8.17903589e-01  5.00000000e-12  7.72387314e-01  5.00000000e-12  1.00704565e+00  5.00000000e-12  1.80000000e-02  5.00000000e-12  1.79991759e+00  5.00000000e-12  5.00000000e-01                                 
 1.00000000e-11  8.17809496e-01  1.00000000e-11  7.72315131e-01  1.00000000e-11  1.00767487e+00  1.00000000e-11  3.60000000e-02  1.00000000e-11  1.79999903e+00  1.00000000e-11  5.00000000e-01                                 
 2.00000000e-11  8.17634444e-01  2.00000000e-11  7.72173055e-01  2.00000000e-11  1.00881286e+00  2.00000000e-11  7.20000000e-02  2.00000000e-11  1.80010257e+00  2.00000000e-11  5.00000000e-01                                 
 4.00000000e-11  8.17312910e-01  4.00000000e-11  7.71892631e-01  4.00000000e-11  1.01053614e+00  4.00000000e-11  1.44000000e-01  4.00000000e-11  1.80011680e+00  4.00000000e-11  5.00000000e-01                                 
 8.00000000e-11  8.16682530e-01  8.00000000e-11  7.71338261e-01  8.00000000e-11  1.01257173e+00  8.00000000e-11  2.88000000e-01  8.00000000e-11  1.80005554e+00  8.00000000e-11  5.00000000e-01                                 
 1.60000000e-10  8.15453427e-01  1.60000000e-10  7.70256099e-01  1.60000000e-10  1.01427596e+00  1.60000000e-10  5.76000000e-01  1.60000000e-10  1.80000758e+00  1.60000000e-10  5.00000000e-01                                 
 3.20000000e-10  8.13113512e-01  3.20000000e-10  7.68190101e-01  3.20000000e-10  1.00523092e+00  3.20000000e-10  1.15200000e+00  3.20000000e-10  1.80024145e+00  3.20000000e-10  5.00000000e-01                                 
 5.00000000e-10  8.10658677e-01  5.00000000e-10  7.66013089e-01  5.00000000e-10  1.18800353e+00  5.00000000e-10  1.80000000e+00  5.00000000e-10  8.96861687e-02  5.00000000e-10  5.00000000e-01                                 
 5.20462994e-10  8.10392497e-01  5.20462994e-10  7.65776309e-01  5.20462994e-10  1.22823804e+00  5.20462994e-10  1.80000000e+00  5.20462994e-10  1.52308655e-02  5.20462994e-10  5.00000000e-01                                 
 5.61388981e-10  8.09863850e-01  5.61388981e-10  7.65305658e-01  5.61388981e-10  1.30133753e+00  5.61388981e-10  1.80000000e+00  5.61388981e-10 -7.29112559e-03  5.61388981e-10  5.00000000e-01                                 
 6.43240955e-10  8.08831024e-01  6.43240955e-10  7.64384949e-01  6.43240955e-10  1.42182562e+00  6.43240955e-10  1.80000000e+00  6.43240955e-10  6.39495084e-03  6.43240955e-10  5.00000000e-01                                 
 7.67404766e-10  8.07324565e-01  7.67404766e-10  7.63038468e-01  7.67404766e-10  1.56874534e+00  7.67404766e-10  1.80000000e+00  7.67404766e-10 -5.70622722e-03  7.67404766e-10  5.00000000e-01                                 
 9.53866274e-10  8.05187798e-01  9.53866274e-10  7.61121482e-01  9.53866274e-10  1.73267590e+00  9.53866274e-10  1.80000000e+00  9.53866274e-10  5.46657828e-03  9.53866274e-10  5.00000000e-01                                 
 1.32678929e-09  8.01304697e-01  1.32678929e-09  7.57616103e-01  1.32678929e-09  1.92267413e+00  1.32678929e-09  1.80000000e+00  1.32678929e-09 -5.20501113e-03  1.32678929e-09  5.00000000e-01                                 
 1.61358611e-09  7.98636041e-01  1.61358611e-09  7.55188271e-01  1.61358611e-09  1.98637053e+00  1.61358611e-09  1.80000000e+00  1.61358611e-09  5.08400888e-03  1.61358611e-09  5.00000000e-01                                 
 1.92354712e-09  7.96006682e-01  1.92354712e-09  7.52781359e-01  1.92354712e-09  2.01790054e+00  1.92354712e-09  1.80000000e+00  1.92354712e-09 -4.83733441e-03  1.92354712e-09  5.00000000e-01                                 
 2.25010501e-09  7.93480347e-01  2.25010501e-09  7.50455217e-01  2.25010501e-09  2.03133319e+00  2.25010501e-09  1.80000000e+00  2.25010501e-09  4.72222387e-03  2.25010501e-09  5.00000000e-01                                 
 2.73993619e-09  7.90076668e-01  2.73993619e-09  7.47300628e-01  2.73993619e-09  2.03687681e+00  2.73993619e-09  1.80000000e+00  2.73993619e-09 -4.57620314e-03  2.73993619e-09  5.00000000e-01                                 
 3.37263156e-09  7.86236016e-01  3.37263156e-09  7.43713134e-01  3.37263156e-09  2.03554085e+00  3.37263156e-09  1.80000000e+00  3.37263156e-09  4.52565718e-03  3.37263156e-09  5.00000000e-01                                 
 4.44464038e-09  7.80778036e-01  4.44464038e-09  7.38567385e-01  4.44464038e-09  2.03035727e+00  4.44464038e-09  1.80000000e+00  4.44464038e-09 -4.45442051e-03  4.44464038e-09  5.00000000e-01                                 
 6.13534240e-09  7.74002256e-01  6.13534240e-09  7.32106430e-01  6.13534240e-09  2.02349112e+00  6.13534240e-09  1.80000000e+00  6.13534240e-09  4.45129934e-03  6.13534240e-09  5.00000000e-01                                 
 8.72451510e-09  7.66267357e-01  8.72451510e-09  7.24642549e-01  8.72451510e-09  2.01607287e+00  8.72451510e-09  1.80000000e+00  8.72451510e-09 -4.39992957e-03  8.72451510e-09  5.00000000e-01                                 
 1.00924884e-08  7.63056851e-01  1.00924884e-08  7.21517099e-01  1.00924884e-08  2.01298398e+00  1.00924884e-08  1.80000000e+00  1.00924884e-08  4.38997774e-03  1.00924884e-08  5.00000000e-01                                 
 1.21229402e-08  7.58968217e-01  1.21229402e-08  7.17519807e-01  1.21229402e-08  2.00911255e+00  1.21229402e-08  1.80000000e+00  1.21229402e-08 -4.34455629e-03  1.21229402e-08  5.00000000e-01                                 
 1.39632052e-08  7.55799996e-01  1.39632052e-08  7.14410024e-01  1.39632052e-08  2.00611968e+00  1.39632052e-08  1.80000000e+00  1.39632052e-08  4.33691789e-03  1.39632052e-08  5.00000000e-01                                 
 1.76437352e-08  7.50496087e-01  1.76437352e-08  7.09184164e-01  1.76437352e-08  2.00113402e+00  1.76437352e-08  1.80000000e+00  1.76437352e-08 -4.30680900e-03  1.76437352e-08  5.00000000e-01                                 
 2.11845208e-08  7.46349893e-01  2.11845208e-08  7.05082359e-01  2.11845208e-08  1.99725480e+00  2.11845208e-08  1.80000000e+00  2.11845208e-08  4.30949367e-03  2.11845208e-08  5.00000000e-01                                 
 2.82660922e-08  7.39747062e-01  2.82660922e-08  6.98526814e-01  2.82660922e-08  1.99109365e+00  2.82660922e-08  1.80000000e+00  2.82660922e-08 -4.28633626e-03  2.82660922e-08  5.00000000e-01                                 
 3.65009069e-08  7.33915231e-01  3.65009069e-08  6.92714554e-01  3.65009069e-08  1.98566719e+00  3.65009069e-08  1.80000000e+00  3.65009069e-08  4.29704512e-03  3.65009069e-08  5.00000000e-01                                 
 5.29705364e-08  7.25337871e-01  5.29705364e-08  6.84137550e-01  5.29705364e-08  1.97768988e+00  5.29705364e-08  1.80000000e+00  5.29705364e-08 -4.27748544e-03  5.29705364e-08  5.00000000e-01                                 
 7.72165708e-08  7.16790082e-01  7.72165708e-08  6.75541378e-01  7.72165708e-08  1.97004214e+00  7.72165708e-08  1.80000000e+00  7.72165708e-08  4.29232485e-03  7.72165708e-08  5.00000000e-01                                 
 1.18016847e-07  7.07912461e-01  1.18016847e-07  6.66424653e-01  1.18016847e-07  1.96435577e+00  1.18016847e-07  1.80000000e+00  1.18016847e-07 -4.27439501e-03  1.18016847e-07  5.00000000e-01                                 
 1.48980917e-07  7.03434493e-01  1.48980917e-07  6.61749376e-01  1.48980917e-07  1.96226541e+00  1.48980917e-07  1.80000000e+00  1.48980917e-07  4.28967833e-03  1.48980917e-07  5.00000000e-01                                 
 1.81851600e-07  6.99353639e-01  1.81851600e-07  6.57547127e-01  1.81851600e-07  1.95505925e+00  1.81851600e-07  1.80000000e+00  1.81851600e-07 -4.27142214e-03  1.81851600e-07  5.00000000e-01                                 
 2.11611355e-07  6.94437122e-01  2.11611355e-07  6.52909745e-01  2.11611355e-07  1.93636407e+00  2.11611355e-07  1.80000000e+00  2.11611355e-07  4.28659812e-03  2.11611355e-07  5.00000000e-01                                 
 2.38625168e-07  6.87325917e-01  2.38625168e-07  6.46682410e-01  2.38625168e-07  1.90536818e+00  2.38625168e-07  1.80000000e+00  2.38625168e-07 -4.26817304e-03  2.38625168e-07  5.00000000e-01                                 
 2.67013650e-07  6.78792003e-01  2.67013650e-07  6.39373749e-01  2.67013650e-07  1.85842544e+00  2.67013650e-07  1.80000000e+00  2.67013650e-07  4.28314337e-03  2.67013650e-07  5.00000000e-01                                 
 2.93996937e-07  6.71321771e-01  2.93996937e-07  6.33006219e-01  2.93996937e-07  1.81495994e+00  2.93996937e-07  1.80000000e+00  2.93996937e-07 -4.26474755e-03  2.93996937e-07  5.00000000e-01                                 
 3.20896695e-07  6.75675043e-01  3.20896695e-07  6.36057495e-01  3.20896695e-07  1.81106569e+00  3.20896695e-07  1.80000000e+00  3.20896695e-07  4.27997259e-03  3.20896695e-07  5.00000000e-01                                 
 3.46717930e-07  6.78824107e-01  3.46717930e-07  6.38177329e-01  3.46717930e-07  1.79747805e+00  3.46717930e-07  1.80000000e+00  3.46717930e-07 -4.26127725e-03  3.46717930e-07  5.00000000e-01                                 
 3.69093007e-07  6.73787414e-01  3.69093007e-07  6.33869297e-01  3.69093007e-07  1.77125641e+00  3.69093007e-07  1.80000000e+00  3.69093007e-07  4.27581418e-03  3.69093007e-07  5.00000000e-01                                 
 3.92024064e-07  6.70243597e-01  3.92024064e-07  6.30763062e-01  3.92024064e-07  1.74711882e+00  3.92024064e-07  1.80000000e+00  3.92024064e-07 -4.25712333e-03  3.92024064e-07  5.00000000e-01                                 
 4.14170299e-07  6.66663295e-01  4.14170299e-07  6.27658544e-01  4.14170299e-07  1.72340388e+00  4.14170299e-07  1.80000000e+00  4.14170299e-07  4.27164330e-03  4.14170299e-07  5.00000000e-01                                 
 4.57556023e-07  6.59350237e-01  4.57556023e-07  6.21393868e-01  4.57556023e-07  1.67592661e+00  4.57556023e-07  1.80000000e+00  4.57556023e-07 -4.25396221e-03  4.57556023e-07  5.00000000e-01                                 
 5.12945098e-07  6.49970336e-01  5.12945098e-07  6.13456352e-01  5.12945098e-07  1.61303216e+00  5.12945098e-07  1.80000000e+00  5.12945098e-07  4.26971814e-03  5.12945098e-07  5.00000000e-01                                 
 6.16212972e-07  6.33235780e-01  6.16212972e-07  5.99478232e-01  6.16212972e-07  1.50034479e+00  6.16212972e-07  1.80000000e+00  6.16212972e-07 -4.25266894e-03  6.16212972e-07  5.00000000e-01                                 
 7.18146669e-07  6.12812117e-01  7.18146669e-07  5.82802331e-01  7.18146669e-07  1.37803208e+00  7.18146669e-07  1.80000000e+00  7.18146669e-07  4.26878113e-03  7.18146669e-07  5.00000000e-01                                 
 8.58571294e-07  5.84088831e-01  8.58571294e-07  5.59600548e-01  8.58571294e-07  1.20991088e+00  8.58571294e-07  1.80000000e+00  8.58571294e-07 -4.25183360e-03  8.58571294e-07  5.00000000e-01                                 
 8.82163979e-07  5.79105353e-01  8.82163979e-07  5.55597591e-01  8.82163979e-07  1.17995243e+00  8.82163979e-07  1.80000000e+00  8.82163979e-07 -5.29231337e-07  8.82163979e-07  5.00000000e-01                                 
 9.29349349e-07  5.68685116e-01  9.29349349e-07  5.47235134e-01  9.29349349e-07  1.11996610e+00  9.29349349e-07  1.80000000e+00  9.29349349e-07  4.00123149e-07  9.29349349e-07  5.00000000e-01                                 
 1.02372009e-06  5.52913470e-01  1.02372009e-06  5.34593694e-01  1.02372009e-06  9.95682960e-01  1.02372009e-06  1.80000000e+00  1.02372009e-06 -4.92365121e-07  1.02372009e-06  5.00000000e-01                                 
 1.04018708e-06  5.52596157e-01  1.04018708e-06  5.34339994e-01  1.04018708e-06  9.76265951e-01  1.04018708e-06  1.80000000e+00  1.04018708e-06  1.50491072e-09  1.04018708e-06  5.00000000e-01                                 
 1.07312107e-06  5.57233429e-01  1.07312107e-06  5.38053398e-01  1.07312107e-06  9.47864079e-01  1.07312107e-06  1.80000000e+00  1.07312107e-06  1.06399983e-07  1.07312107e-06  5.00000000e-01                                 
 1.11895995e-06  6.06493902e-01  1.11895995e-06  5.77480088e-01  1.11895995e-06  9.49600843e-01  1.11895995e-06  1.80000000e+00  1.11895995e-06  6.24735600e-07  1.11895995e-06  5.00000000e-01                                 
 1.16357743e-06  7.93678370e-01  1.16357743e-06  7.45095180e-01  1.16357743e-06  1.09480946e+00  1.16357743e-06  1.80000000e+00  1.16357743e-06  2.69316108e-06  1.16357743e-06  5.00000000e-01                                 
 1.20504529e-06  8.59728910e-01  1.20504529e-06  8.11487171e-01  1.20504529e-06  1.12430828e+00  1.20504529e-06  1.80000000e+00  1.20504529e-06 -7.50996965e-07  1.20504529e-06  5.00000000e-01                                 
 1.24888159e-06  9.13455012e-01  1.24888159e-06  8.54376403e-01  1.24888159e-06  1.11530314e+00  1.24888159e-06  1.80000000e+00  1.24888159e-06  1.66646820e-06  1.24888159e-06  5.00000000e-01                                 
 1.28315282e-06  9.63776525e-01  1.28315282e-06  8.84260769e-01  1.28315282e-06  1.12756388e+00  1.28315282e-06  1.80000000e+00  1.28315282e-06 -3.97728524e-08  1.28315282e-06  5.00000000e-01                                 
 1.32037014e-06  9.83370837e-01  1.32037014e-06  8.94113881e-01  1.32037014e-06  1.09388303e+00  1.32037014e-06  1.80000000e+00  1.32037014e-06  3.66858984e-07  1.32037014e-06  5.00000000e-01                                 
 1.35469178e-06  9.72578538e-01  1.35469178e-06  8.88976521e-01  1.35469178e-06  1.05733130e+00  1.35469178e-06  1.80000000e+00  1.35469178e-06 -3.36372798e-07  1.35469178e-06  5.00000000e-01                                 
 1.38535155e-06  9.78119507e-01  1.38535155e-06  8.91514907e-01  1.38535155e-06  1.01606827e+00  1.38535155e-06  1.80000000e+00  1.38535155e-06  2.41609510e-07  1.38535155e-06  5.00000000e-01                                 
 1.41828466e-06  9.76134713e-01  1.41828466e-06  8.90760830e-01  1.41828466e-06  9.83784710e-01  1.41828466e-06  1.80000000e+00  1.41828466e-06 -7.94449396e-08  1.41828466e-06  5.00000000e-01                                 
 1.45950050e-06  9.76039193e-01  1.45950050e-06  8.90512851e-01  1.45950050e-06  9.39076943e-01  1.45950050e-06  1.80000000e+00  1.45950050e-06 -2.42707198e-08  1.45950050e-06  5.00000000e-01                                 
 1.52164582e-06  9.76104782e-01  1.52164582e-06  8.90737567e-01  1.52164582e-06  8.99398340e-01  1.52164582e-06  1.80000000e+00  1.52164582e-06  1.15540868e-07  1.52164582e-06  5.00000000e-01                                 
 1.60809130e-06  9.73997614e-01  1.60809130e-06  8.89538408e-01  1.60809130e-06  8.31686894e-01  1.60809130e-06  1.80000000e+00  1.60809130e-06 -1.30011022e-07  1.60809130e-06  5.00000000e-01                                 
 1.69369341e-06  9.74352385e-01  1.69369341e-06  8.89881710e-01  1.69369341e-06  7.81347759e-01  1.69369341e-06  1.80000000e+00  1.69369341e-06  2.31351212e-07  1.69369341e-06  5.00000000e-01                                 
 1.85977052e-06  9.70873315e-01  1.85977052e-06  8.88016011e-01  1.85977052e-06  6.97023650e-01  1.85977052e-06  1.80000000e+00  1.85977052e-06 -2.19784050e-07  1.85977052e-06  5.00000000e-01                                 
 2.03706904e-06  9.70344516e-01  2.03706904e-06  8.87914137e-01  2.03706904e-06  6.36397528e-01  2.03706904e-06  1.80000000e+00  2.03706904e-06  2.56079480e-07  2.03706904e-06  5.00000000e-01                                 
 2.07018567e-06  9.69062982e-01  2.07018567e-06  8.87203837e-01  2.07018567e-06  6.23112633e-01  2.07018567e-06  1.80000000e+00  2.07018567e-06 -2.33225931e-08  2.07018567e-06  5.00000000e-01                                 
 2.13641893e-06  9.68282825e-01  2.13641893e-06  8.86802799e-01  2.13641893e-06  6.01416641e-01  2.13641893e-06  1.80000000e+00  2.13641893e-06  3.09884055e-08  2.13641893e-06  5.00000000e-01                                 
 2.26888545e-06  9.66838782e-01  2.26888545e-06  8.86085996e-01  2.26888545e-06  5.61833826e-01  2.26888545e-06  1.80000000e+00  2.26888545e-06 -1.80268201e-08  2.26888545e-06  5.00000000e-01                                 
 2.44620231e-06  9.64824675e-01  2.44620231e-06  8.85051568e-01  2.44620231e-06  5.26397021e-01  2.44620231e-06  1.80000000e+00  2.44620231e-06  4.03784471e-08  2.44620231e-06  5.00000000e-01                                 
 2.79165074e-06  9.61131524e-01  2.79165074e-06  8.83153052e-01  2.79165074e-06  5.02225861e-01  2.79165074e-06  1.80000000e+00  2.79165074e-06 -2.44678123e-08  2.79165074e-06  5.00000000e-01                                 
 3.12751006e-06  9.57495706e-01  3.12751006e-06  8.81223578e-01  3.12751006e-06  4.98076334e-01  3.12751006e-06  1.80000000e+00  3.12751006e-06  3.02583267e-08  3.12751006e-06  5.00000000e-01                                 
 3.48365806e-06  9.53753911e-01  3.48365806e-06  8.79217780e-01  3.48365806e-06  4.94719900e-01  3.48365806e-06  1.80000000e+00  3.48365806e-06 -2.35415743e-08  3.48365806e-06  5.00000000e-01                                 
 4.02318243e-06  9.47504753e-01  4.02318243e-06  8.75740847e-01  4.02318243e-06  4.88797295e-01  4.02318243e-06  1.80000000e+00  4.02318243e-06  2.84645628e-08  4.02318243e-06  5.00000000e-01                                 
 4.59508850e-06  9.39197179e-01  4.59508850e-06  8.70951353e-01  4.59508850e-06  4.92288944e-01  4.59508850e-06  1.80000000e+00  4.59508850e-06 -2.52267660e-08  4.59508850e-06  5.00000000e-01                                 
 4.68646800e-06  9.37453660e-01  4.68646800e-06  8.69907825e-01  4.68646800e-06  4.93743293e-01  4.68646800e-06  1.80000000e+00  4.68646800e-06 -1.86369901e-09  4.68646800e-06  5.00000000e-01                                 
 4.86922701e-06  9.33627278e-01  4.86922701e-06  8.67595206e-01  4.86922701e-06  4.94952793e-01  4.86922701e-06  1.80000000e+00  4.86922701e-06 -4.44621392e-09  4.86922701e-06  5.00000000e-01                                 
 5.23474503e-06  9.19943659e-01  5.23474503e-06  8.58898311e-01  5.23474503e-06  4.90041016e-01  5.23474503e-06  1.80000000e+00  5.23474503e-06 -1.84028071e-08  5.23474503e-06  5.00000000e-01                                 
 5.30946354e-06  9.14885652e-01  5.30946354e-06  8.55504436e-01  5.30946354e-06  4.88187979e-01  5.30946354e-06  1.80000000e+00  5.30946354e-06 -2.67872267e-08  5.30946354e-06  5.00000000e-01                                 
 5.45890055e-06  9.00437316e-01  5.45890055e-06  8.45236505e-01  5.45890055e-06  4.83540653e-01  5.45890055e-06  1.80000000e+00  5.45890055e-06 -5.85646402e-08  5.45890055e-06  5.00000000e-01                                 
 5.64889035e-06  8.73771784e-01  5.64889035e-06  8.23919097e-01  5.64889035e-06  4.78086675e-01  5.64889035e-06  1.80000000e+00  5.64889035e-06 -7.95365327e-08  5.64889035e-06  5.00000000e-01                                 
 5.87314142e-06  8.58234995e-01  5.87314142e-06  8.10151352e-01  5.87314142e-06  4.86667113e-01  5.87314142e-06  1.80000000e+00  5.87314142e-06  1.58924231e-08  5.87314142e-06  5.00000000e-01                                 
 6.10129631e-06  8.60618772e-01  6.10129631e-06  8.12316086e-01  6.10129631e-06  5.00736991e-01  6.10129631e-06  1.80000000e+00  6.10129631e-06  1.18940815e-08  6.10129631e-06  5.00000000e-01                                 
 6.38561922e-06  8.59657768e-01  6.38561922e-06  8.11446373e-01  6.38561922e-06  5.02717942e-01  6.38561922e-06  1.80000000e+00  6.38561922e-06  1.63003467e-09  6.38561922e-06  5.00000000e-01                                 
