 time            v(vbep)         time            v(vben)         time            v(vout)         time            v(vphi1)        time            v(vphi2)        time            v(vref)         time            v(voutc)        time            v(voutcc)       yes             currtemp       
 0.00000000e+00  7.02199309e-01  0.00000000e+00  6.33762310e-01  0.00000000e+00  1.46069426e+00  0.00000000e+00  0.00000000e+00  0.00000000e+00  1.79999999e+00  0.00000000e+00  6.33872273e-01  0.00000000e+00  1.46069425e+00  0.00000000e+00  1.46848072e+00  1.00000000e+00  7.40000000e+01 
 1.00000000e-11  7.02224445e-01  1.00000000e-11  6.33835415e-01  1.00000000e-11  1.46145129e+00  1.00000000e-11  1.80000000e-02  1.00000000e-11  1.80025363e+00  1.00000000e-11  6.34404626e-01  1.00000000e-11  1.46116352e+00  1.00000000e-11  1.46849477e+00                                 
 2.00000000e-11  7.02231214e-01  2.00000000e-11  6.33880362e-01  2.00000000e-11  1.46190177e+00  2.00000000e-11  3.60000000e-02  2.00000000e-11  1.80035214e+00  2.00000000e-11  6.34797359e-01  2.00000000e-11  1.46151441e+00  2.00000000e-11  1.46849975e+00                                 
 4.00000000e-11  7.02231112e-01  4.00000000e-11  6.33938794e-01  4.00000000e-11  1.46242563e+00  4.00000000e-11  7.20000000e-02  4.00000000e-11  1.80038686e+00  4.00000000e-11  6.35370327e-01  4.00000000e-11  1.46203270e+00  4.00000000e-11  1.46850112e+00                                 
 8.00000000e-11  7.02219487e-01  8.00000000e-11  6.33974698e-01  8.00000000e-11  1.46248760e+00  8.00000000e-11  1.44000000e-01  8.00000000e-11  1.80018049e+00  8.00000000e-11  6.35815852e-01  8.00000000e-11  1.46244310e+00  8.00000000e-11  1.46849077e+00                                 
 1.60000000e-10  7.02216755e-01  1.60000000e-10  6.33983522e-01  1.60000000e-10  1.46215119e+00  1.60000000e-10  2.88000000e-01  1.60000000e-10  1.80000593e+00  1.60000000e-10  6.35915407e-01  1.60000000e-10  1.46248434e+00  1.60000000e-10  1.46848169e+00                                 
 3.20000000e-10  7.02211803e-01  3.20000000e-10  6.33971475e-01  3.20000000e-10  1.46176696e+00  3.20000000e-10  5.76000000e-01  3.20000000e-10  1.79997977e+00  3.20000000e-10  6.35746365e-01  3.20000000e-10  1.46212763e+00  3.20000000e-10  1.46847633e+00                                 
 6.40000000e-10  7.02129712e-01  6.40000000e-10  6.33517960e-01  6.40000000e-10  1.46015803e+00  6.40000000e-10  1.15200000e+00  6.40000000e-10  1.80861534e+00  6.40000000e-10  6.32656303e-01  6.40000000e-10  1.46520156e+00  6.40000000e-10  1.46849866e+00                                 
 1.00000000e-09  7.02664615e-01  1.00000000e-09  6.33973343e-01  1.00000000e-09  1.44124236e+00  1.00000000e-09  1.80000000e+00  1.00000000e-09  1.08891167e-01  1.00000000e-09  6.49687652e-01  1.00000000e-09  1.47220645e+00  1.00000000e-09  1.46851554e+00                                 
 1.03759599e-09  7.02744588e-01  1.03759599e-09  6.33970645e-01  1.03759599e-09  1.43964445e+00  1.03759599e-09  1.80000000e+00  1.03759599e-09  2.61349137e-02  1.03759599e-09  6.52880868e-01  1.03759599e-09  1.47395163e+00  1.03759599e-09  1.46853272e+00                                 
 1.11278796e-09  7.02926752e-01  1.11278796e-09  6.33987637e-01  1.11278796e-09  1.43753646e+00  1.11278796e-09  1.80000000e+00  1.11278796e-09 -1.19937125e-02  1.11278796e-09  6.56829295e-01  1.11278796e-09  1.47700120e+00  1.11278796e-09  1.46854195e+00                                 
 1.26317190e-09  7.03060809e-01  1.26317190e-09  6.33826637e-01  1.26317190e-09  1.43412371e+00  1.26317190e-09  1.80000000e+00  1.26317190e-09  9.36282871e-03  1.26317190e-09  6.56518414e-01  1.26317190e-09  1.47703351e+00  1.26317190e-09  1.46849588e+00                                 
 1.44382672e-09  7.03028345e-01  1.44382672e-09  6.33815023e-01  1.44382672e-09  1.43311070e+00  1.44382672e-09  1.80000000e+00  1.44382672e-09 -7.07505629e-03  1.44382672e-09  6.55338683e-01  1.44382672e-09  1.47580290e+00  1.44382672e-09  1.46853696e+00                                 
 1.64787454e-09  7.02921406e-01  1.64787454e-09  6.33814446e-01  1.64787454e-09  1.43272501e+00  1.64787454e-09  1.80000000e+00  1.64787454e-09  5.75697972e-03  1.64787454e-09  6.53559128e-01  1.64787454e-09  1.47447205e+00  1.64787454e-09  1.46857946e+00                                 
 1.99455900e-09  7.02667140e-01  1.99455900e-09  6.33773963e-01  1.99455900e-09  1.43220840e+00  1.99455900e-09  1.80000000e+00  1.99455900e-09 -5.10169184e-03  1.99455900e-09  6.50581740e-01  1.99455900e-09  1.47176418e+00  1.99455900e-09  1.46872432e+00                                 
 2.55048883e-09  7.02373723e-01  2.55048883e-09  6.33780155e-01  2.55048883e-09  1.43158544e+00  2.55048883e-09  1.80000000e+00  2.55048883e-09  4.66522315e-03  2.55048883e-09  6.46670882e-01  2.55048883e-09  1.46856371e+00  2.55048883e-09  1.46895606e+00                                 
 3.38938615e-09  7.02117893e-01  3.38938615e-09  6.33733252e-01  3.38938615e-09  1.42939361e+00  3.38938615e-09  1.80000000e+00  3.38938615e-09 -4.47940677e-03  3.38938615e-09  6.41590826e-01  3.38938615e-09  1.46408324e+00  3.38938615e-09  1.46927160e+00                                 
 4.85393605e-09  7.01997090e-01  4.85393605e-09  6.33749720e-01  4.85393605e-09  1.42463411e+00  4.85393605e-09  1.80000000e+00  4.85393605e-09  4.31967001e-03  4.85393605e-09  6.36324608e-01  4.85393605e-09  1.45972404e+00  4.85393605e-09  1.46954840e+00                                 
 6.26964924e-09  7.01988968e-01  6.26964924e-09  6.33722524e-01  6.26964924e-09  1.41818403e+00  6.26964924e-09  1.80000000e+00  6.26964924e-09 -4.20682239e-03  6.26964924e-09  6.33434896e-01  6.26964924e-09  1.45713557e+00  6.26964924e-09  1.46953890e+00                                 
 7.48177293e-09  7.02033632e-01  7.48177293e-09  6.33756133e-01  7.48177293e-09  1.41202365e+00  7.48177293e-09  1.80000000e+00  7.48177293e-09  4.05416737e-03  7.48177293e-09  6.32524271e-01  7.48177293e-09  1.45648599e+00  7.48177293e-09  1.46937877e+00                                 
 8.80012245e-09  7.02064035e-01  8.80012245e-09  6.33732362e-01  8.80012245e-09  1.40390014e+00  8.80012245e-09  1.80000000e+00  8.80012245e-09 -3.92901960e-03  8.80012245e-09  6.31707018e-01  8.80012245e-09  1.45566415e+00  8.80012245e-09  1.46913693e+00                                 
 1.04221087e-08  7.02122833e-01  1.04221087e-08  6.33767728e-01  1.04221087e-08  1.39329159e+00  1.04221087e-08  1.80000000e+00  1.04221087e-08  3.82736982e-03  1.04221087e-08  6.31695023e-01  1.04221087e-08  1.45576319e+00  1.04221087e-08  1.46879455e+00                                 
 1.25047650e-08  7.02154944e-01  1.25047650e-08  6.33742902e-01  1.25047650e-08  1.37795267e+00  1.25047650e-08  1.80000000e+00  1.25047650e-08 -3.74869608e-03  1.25047650e-08  6.31498131e-01  1.25047650e-08  1.45546314e+00  1.25047650e-08  1.46835751e+00                                 
 1.51330748e-08  7.02198403e-01  1.51330748e-08  6.33775788e-01  1.51330748e-08  1.35795640e+00  1.51330748e-08  1.80000000e+00  1.51330748e-08  3.69214583e-03  1.51330748e-08  6.31979305e-01  1.51330748e-08  1.45596623e+00  1.51330748e-08  1.46784909e+00                                 
 1.86796075e-08  7.02203567e-01  1.86796075e-08  6.33747657e-01  1.86796075e-08  1.32951586e+00  1.86796075e-08  1.80000000e+00  1.86796075e-08 -3.64458176e-03  1.86796075e-08  6.32113448e-01  1.86796075e-08  1.45594309e+00  1.86796075e-08  1.46727322e+00                                 
 2.38301681e-08  7.02218843e-01  2.38301681e-08  6.33778159e-01  2.38301681e-08  1.28806124e+00  2.38301681e-08  1.80000000e+00  2.38301681e-08  3.61902967e-03  2.38301681e-08  6.32807718e-01  2.38301681e-08  1.45662089e+00  2.38301681e-08  1.46663423e+00                                 
 3.26109416e-08  7.02202063e-01  3.26109416e-08  6.33748318e-01  3.26109416e-08  1.21653879e+00  3.26109416e-08  1.80000000e+00  3.26109416e-08 -3.59756240e-03  3.26109416e-08  6.33082585e-01  3.26109416e-08  1.45672002e+00  3.26109416e-08  1.46594002e+00                                 
 4.60947297e-08  7.02208181e-01  4.60947297e-08  6.33777691e-01  4.60947297e-08  1.10779732e+00  4.60947297e-08  1.80000000e+00  4.60947297e-08  3.59060977e-03  4.60947297e-08  6.33725317e-01  4.60947297e-08  1.45736568e+00  4.60947297e-08  1.46543539e+00                                 
 7.30623058e-08  7.02192631e-01  7.30623058e-08  6.33747372e-01  7.30623058e-08  8.93427592e-01  7.30623058e-08  1.80000000e+00  7.30623058e-08 -3.57981021e-03  7.30623058e-08  6.33728767e-01  7.30623058e-08  1.45725503e+00  7.30623058e-08  1.46518463e+00                                 
 1.05121818e-07  7.02207862e-01  1.05121818e-07  6.33777231e-01  1.05121818e-07  6.94264847e-01  1.05121818e-07  1.80000000e+00  1.05121818e-07  3.58665545e-03  1.05121818e-07  6.33988860e-01  1.05121818e-07  1.45758788e+00  1.05121818e-07  1.46520538e+00                                 
 1.36006460e-07  7.02192276e-01  1.36006460e-07  6.33747742e-01  1.36006460e-07  6.31656543e-01  1.36006460e-07  1.80000000e+00  1.36006460e-07 -3.56176911e-03  1.36006460e-07  6.33763410e-01  1.36006460e-07  1.45728479e+00  1.36006460e-07  1.46522229e+00                                 
 1.64062268e-07  7.02203033e-01  1.64062268e-07  6.33776553e-01  1.64062268e-07  6.34462664e-01  1.64062268e-07  1.80000000e+00  1.64062268e-07  3.57966650e-03  1.64062268e-07  6.33987495e-01  1.64062268e-07  1.45758508e+00  1.64062268e-07  1.46522481e+00                                 
 1.84275836e-07  7.02195554e-01  1.84275836e-07  6.33748130e-01  1.84275836e-07  6.33552020e-01  1.84275836e-07  1.80000000e+00  1.84275836e-07 -3.54955573e-03  1.84275836e-07  6.33756131e-01  1.84275836e-07  1.45727728e+00  1.84275836e-07  1.46522313e+00                                 
 2.06317293e-07  7.02203466e-01  2.06317293e-07  6.33776470e-01  2.06317293e-07  6.34393124e-01  2.06317293e-07  1.80000000e+00  2.06317293e-07  3.56596781e-03  2.06317293e-07  6.33989101e-01  2.06317293e-07  1.45758484e+00  2.06317293e-07  1.46522204e+00                                 
 2.50400207e-07  7.02194930e-01  2.50400207e-07  6.33748134e-01  2.50400207e-07  6.33671711e-01  2.50400207e-07  1.80000000e+00  2.50400207e-07 -3.53982185e-03  2.50400207e-07  6.33755153e-01  2.50400207e-07  1.45727449e+00  2.50400207e-07  1.46522047e+00                                 
 3.14070607e-07  7.02203846e-01  3.14070607e-07  6.33776484e-01  3.14070607e-07  6.34343614e-01  3.14070607e-07  1.80000000e+00  3.14070607e-07  3.56044482e-03  3.14070607e-07  6.33989503e-01  3.14070607e-07  1.45758169e+00  3.14070607e-07  1.46521833e+00                                 
 4.37150717e-07  7.02194692e-01  4.37150717e-07  6.33748123e-01  4.37150717e-07  6.33692807e-01  4.37150717e-07  1.80000000e+00  4.37150717e-07 -3.53641907e-03  4.37150717e-07  6.33754936e-01  4.37150717e-07  1.45726848e+00  4.37150717e-07  1.46521461e+00                                 
 6.81082327e-07  7.02203967e-01  6.81082327e-07  6.33776490e-01  6.81082327e-07  6.34329648e-01  6.81082327e-07  1.80000000e+00  6.81082327e-07  3.55868767e-03  6.81082327e-07  6.33989605e-01  6.81082327e-07  1.45757021e+00  6.81082327e-07  1.46520679e+00                                 
 1.14400848e-06  7.02194630e-01  1.14400848e-06  6.33748120e-01  1.14400848e-06  6.33696869e-01  1.14400848e-06  1.80000000e+00  1.14400848e-06 -3.53551057e-03  1.14400848e-06  6.33754886e-01  1.14400848e-06  1.45724619e+00  1.14400848e-06  1.46519237e+00                                 
 2.06986078e-06  7.02203998e-01  2.06986078e-06  6.33776492e-01  2.06986078e-06  6.34326245e-01  2.06986078e-06  1.80000000e+00  2.06986078e-06  3.55822213e-03  2.06986078e-06  6.33989631e-01  2.06986078e-06  1.45752644e+00  2.06986078e-06  1.46516306e+00                                 
 3.26986078e-06  7.02194612e-01  3.26986078e-06  6.33748118e-01  3.26986078e-06  6.33699030e-01  3.26986078e-06  1.80000000e+00  3.26986078e-06 -3.53524706e-03  3.26986078e-06  6.33754871e-01  3.26986078e-06  1.45717914e+00  3.26986078e-06  1.46512542e+00                                 
 4.46986078e-06  7.02204015e-01  4.46986078e-06  6.33776493e-01  4.46986078e-06  6.34324447e-01  4.46986078e-06  1.80000000e+00  4.46986078e-06  3.55798319e-03  4.46986078e-06  6.33989644e-01  4.46986078e-06  1.45745084e+00  4.46986078e-06  1.46508754e+00                                 
 5.66986078e-06  7.02194595e-01  5.66986078e-06  6.33748118e-01  5.66986078e-06  6.33700421e-01  5.66986078e-06  1.80000000e+00  5.66986078e-06 -3.53501181e-03  5.66986078e-06  6.33754859e-01  5.66986078e-06  1.45710360e+00  5.66986078e-06  1.46504999e+00                                 
 6.00100000e-06  7.02204052e-01  6.00100000e-06  6.33776494e-01  6.00100000e-06  6.34320670e-01  6.00100000e-06  1.80000000e+00  6.00100000e-06  3.55742969e-03  6.00100000e-06  6.33989672e-01  6.00100000e-06  1.45740266e+00  6.00100000e-06  1.46503940e+00                                 
 6.00110000e-06  7.02148687e-01  6.00110000e-06  6.33524448e-01  6.00110000e-06  6.32471618e-01  6.00110000e-06  1.62000000e+00  6.00110000e-06  2.31194739e-04  6.00110000e-06  6.32341720e-01  6.00110000e-06  1.45594416e+00  6.00110000e-06  1.46502886e+00                                 
 6.00130000e-06  7.02181768e-01  6.00130000e-06  6.33518239e-01  6.00130000e-06  6.32412324e-01  6.00130000e-06  1.26000000e+00  6.00130000e-06 -2.62232802e-04  6.00130000e-06  6.32035897e-01  6.00130000e-06  1.45567641e+00  6.00130000e-06  1.46504429e+00                                 
 6.00165167e-06  7.02249891e-01  6.00165167e-06  6.33713706e-01  6.00165167e-06  6.34344903e-01  6.00165167e-06  6.26993444e-01  6.00165167e-06  1.28635526e-02  6.00165167e-06  6.32261088e-01  6.00165167e-06  1.45243639e+00  6.00165167e-06  1.46501999e+00                                 
 6.00200000e-06  7.02182173e-01  6.00200000e-06  6.32375237e-01  6.00200000e-06  6.66895022e-01  6.00200000e-06  0.00000000e+00  6.00200000e-06  1.60771450e+00  6.00200000e-06  6.18251569e-01  6.00200000e-06  1.24983859e+00  6.00200000e-06  1.46444455e+00                                 
 6.00204178e-06  7.02198580e-01  6.00204178e-06  6.31817296e-01  6.00204178e-06  6.74306026e-01  6.00204178e-06  0.00000000e+00  6.00204178e-06  1.72578259e+00  6.00204178e-06  6.11919824e-01  6.00204178e-06  1.18350568e+00  6.00204178e-06  1.46444344e+00                                 
 6.00212533e-06  7.02201324e-01  6.00212533e-06  6.30905810e-01  6.00212533e-06  6.79801167e-01  6.00212533e-06  0.00000000e+00  6.00212533e-06  1.81317945e+00  6.00212533e-06  6.01739850e-01  6.00212533e-06  1.04855883e+00  6.00212533e-06  1.46483360e+00                                 
 6.00229244e-06  7.02196833e-01  6.00229244e-06  6.30877586e-01  6.00229244e-06  6.69745073e-01  6.00229244e-06  0.00000000e+00  6.00229244e-06  1.78927921e+00  6.00229244e-06  6.02004288e-01  6.00229244e-06  8.40240567e-01  6.00229244e-06  1.46531674e+00                                 
 6.00245998e-06  7.02199511e-01  6.00245998e-06  6.31820317e-01  6.00245998e-06  6.57331874e-01  6.00245998e-06  0.00000000e+00  6.00245998e-06  1.80412738e+00  6.00245998e-06  6.12416145e-01  6.00245998e-06  7.27150618e-01  6.00245998e-06  1.46535584e+00                                 
 6.00263888e-06  7.02196487e-01  6.00263888e-06  6.32758508e-01  6.00263888e-06  6.45272044e-01  6.00263888e-06  0.00000000e+00  6.00263888e-06  1.79705652e+00  6.00263888e-06  6.21652175e-01  6.00263888e-06  6.69719791e-01  6.00263888e-06  1.46549380e+00                                 
 6.00285660e-06  7.02199380e-01  6.00285660e-06  6.33614919e-01  6.00285660e-06  6.38325285e-01  6.00285660e-06  0.00000000e+00  6.00285660e-06  1.80189475e+00  6.00285660e-06  6.29670563e-01  6.00285660e-06  6.46252165e-01  6.00285660e-06  1.46494043e+00                                 
 6.00307014e-06  7.02197066e-01  6.00307014e-06  6.33947711e-01  6.00307014e-06  6.35926047e-01  6.00307014e-06  0.00000000e+00  6.00307014e-06  1.79889125e+00  6.00307014e-06  6.32175721e-01  6.00307014e-06  6.38277109e-01  6.00307014e-06  1.46412332e+00                                 
 6.00333076e-06  7.02199632e-01  6.00333076e-06  6.34177645e-01  6.00333076e-06  6.35149151e-01  6.00333076e-06  0.00000000e+00  6.00333076e-06  1.80082386e+00  6.00333076e-06  6.34173613e-01  6.00333076e-06  6.36048507e-01  6.00333076e-06  1.46270732e+00                                 
 6.00371349e-06  7.02197745e-01  6.00371349e-06  6.34214644e-01  6.00371349e-06  6.35638525e-01  6.00371349e-06  0.00000000e+00  6.00371349e-06  1.79939653e+00  6.00371349e-06  6.34518138e-01  6.00371349e-06  6.35317147e-01  6.00371349e-06  1.46045923e+00                                 
 6.00433641e-06  7.02200035e-01  6.00433641e-06  6.34218824e-01  6.00433641e-06  6.37109832e-01  6.00433641e-06  0.00000000e+00  6.00433641e-06  1.80054392e+00  6.00433641e-06  6.35138842e-01  6.00433641e-06  6.37046659e-01  6.00433641e-06  1.45635252e+00                                 
 6.00536081e-06  7.02198223e-01  6.00536081e-06  6.34119548e-01  6.00536081e-06  6.40150947e-01  6.00536081e-06  0.00000000e+00  6.00536081e-06  1.79953122e+00  6.00536081e-06  6.34954205e-01  6.00536081e-06  6.39652786e-01  6.00536081e-06  1.44927354e+00                                 
 6.00740283e-06  7.02200245e-01  6.00740283e-06  6.34004502e-01  6.00740283e-06  6.46164818e-01  6.00740283e-06  0.00000000e+00  6.00740283e-06  1.80047218e+00  6.00740283e-06  6.35227734e-01  6.00740283e-06  6.46026303e-01  6.00740283e-06  1.43432582e+00                                 
 6.01148687e-06  7.02198350e-01  6.01148687e-06  6.33795677e-01  6.01148687e-06  6.58372840e-01  6.01148687e-06  0.00000000e+00  6.01148687e-06  1.79956339e+00  6.01148687e-06  6.34716242e-01  6.01148687e-06  6.57830319e-01  6.01148687e-06  1.40327931e+00                                 
 6.01965494e-06  7.02200260e-01  6.01965494e-06  6.33745354e-01  6.01965494e-06  6.81754554e-01  6.01965494e-06  0.00000000e+00  6.01965494e-06  1.80045531e+00  6.01965494e-06  6.34609873e-01  6.01965494e-06  6.81590304e-01  6.01965494e-06  1.33921801e+00                                 
 6.03206760e-06  7.02198356e-01  6.03206760e-06  6.33745610e-01  6.03206760e-06  7.15820563e-01  6.03206760e-06  0.00000000e+00  6.03206760e-06  1.79957114e+00  6.03206760e-06  6.33980356e-01  6.03206760e-06  7.15195751e-01  6.03206760e-06  1.24321950e+00                                 
 6.04689542e-06  7.02200259e-01  6.04689542e-06  6.33768746e-01  6.04689542e-06  7.53678940e-01  6.04689542e-06  0.00000000e+00  6.04689542e-06  1.80044757e+00  6.04689542e-06  6.34094374e-01  6.04689542e-06  7.53515509e-01  6.04689542e-06  1.14006656e+00                                 
 6.06790574e-06  7.02198360e-01  6.06790574e-06  6.33751432e-01  6.06790574e-06  8.02996827e-01  6.06790574e-06  0.00000000e+00  6.06790574e-06  1.79957391e+00  6.06790574e-06  6.33738285e-01  6.06790574e-06  8.02130066e-01  6.06790574e-06  1.01242104e+00                                 
 6.10174773e-06  7.02200258e-01  6.10174773e-06  6.33772976e-01  6.10174773e-06  8.71883048e-01  6.10174773e-06  0.00000000e+00  6.10174773e-06  1.80044141e+00  6.10174773e-06  6.34002445e-01  6.10174773e-06  8.71730689e-01  6.10174773e-06  8.96988609e-01                                 
 6.13878998e-06  7.02198361e-01  6.13878998e-06  6.33751462e-01  6.13878998e-06  9.34507759e-01  6.13878998e-06  0.00000000e+00  6.13878998e-06  1.79957266e+00  6.13878998e-06  6.33721889e-01  6.13878998e-06  9.33102776e-01  6.13878998e-06  9.05986433e-01                                 
 6.16316419e-06  7.02200256e-01  6.16316419e-06  6.33773528e-01  6.16316419e-06  9.69003171e-01  6.16316419e-06  0.00000000e+00  6.16316419e-06  1.80043619e+00  6.16316419e-06  6.34008185e-01  6.16316419e-06  9.69031188e-01  6.16316419e-06  9.43630795e-01                                 
