 time            v(vbep)         time            v(vben)         time            v(vout)         time            v(vphi1)        time            v(vphi2)        time            v(vref)         yes             currtemp       
 0.00000000e+00  7.96246629e-01  0.00000000e+00  7.52906736e-01  0.00000000e+00  1.15124960e-01  0.00000000e+00  0.00000000e+00  0.00000000e+00  1.79996700e+00  0.00000000e+00  5.00000000e-01  1.00000000e+00 -3.60000000e+01 
 5.00000000e-12  7.96227242e-01  5.00000000e-12  7.52890594e-01  5.00000000e-12  1.15600811e-01  5.00000000e-12  1.80000000e-02  5.00000000e-12  1.80004603e+00  5.00000000e-12  5.00000000e-01                                 
 1.00000000e-11  7.96208267e-01  1.00000000e-11  7.52874824e-01  1.00000000e-11  1.16022588e-01  1.00000000e-11  3.60000000e-02  1.00000000e-11  1.80008496e+00  1.00000000e-11  5.00000000e-01                                 
 2.00000000e-11  7.96170550e-01  2.00000000e-11  7.52843387e-01  2.00000000e-11  1.16788082e-01  2.00000000e-11  7.20000000e-02  2.00000000e-11  1.80012059e+00  2.00000000e-11  5.00000000e-01                                 
 4.00000000e-11  7.96095529e-01  4.00000000e-11  7.52780726e-01  4.00000000e-11  1.17958402e-01  4.00000000e-11  1.44000000e-01  4.00000000e-11  1.80010077e+00  4.00000000e-11  5.00000000e-01                                 
 8.00000000e-11  7.95946145e-01  8.00000000e-11  7.52655894e-01  8.00000000e-11  1.19480546e-01  8.00000000e-11  2.88000000e-01  8.00000000e-11  1.80005571e+00  8.00000000e-11  5.00000000e-01                                 
 1.60000000e-10  7.95650201e-01  1.60000000e-10  7.52408211e-01  1.60000000e-10  1.21284994e-01  1.60000000e-10  5.76000000e-01  1.60000000e-10  1.80001800e+00  1.60000000e-10  5.00000000e-01                                 
 3.20000000e-10  7.95069046e-01  3.20000000e-10  7.51920509e-01  3.20000000e-10  1.49211724e-01  3.20000000e-10  1.15200000e+00  3.20000000e-10  1.79983678e+00  3.20000000e-10  5.00000000e-01                                 
 5.00000000e-10  7.94431858e-01  5.00000000e-10  7.51383719e-01  5.00000000e-10  5.15396833e-01  5.00000000e-10  1.80000000e+00  5.00000000e-10  8.59697708e-02  5.00000000e-10  5.00000000e-01                                 
 5.20607745e-10  7.94360113e-01  5.20607745e-10  7.51323132e-01  5.20607745e-10  5.82285559e-01  5.20607745e-10  1.80000000e+00  5.20607745e-10  1.40443527e-02  5.20607745e-10  5.00000000e-01                                 
 5.61823236e-10  7.94217044e-01  5.61823236e-10  7.51202257e-01  5.61823236e-10  7.00822450e-01  5.61823236e-10  1.80000000e+00  5.61823236e-10 -6.75974372e-03  5.61823236e-10  5.00000000e-01                                 
 6.44254218e-10  7.93933463e-01  6.44254218e-10  7.50962355e-01  6.44254218e-10  8.78163462e-01  6.44254218e-10  1.80000000e+00  6.44254218e-10  6.00343616e-03  6.44254218e-10  5.00000000e-01                                 
 7.69683231e-10  7.93508358e-01  7.69683231e-10  7.50601954e-01  7.69683231e-10  1.08267554e+00  7.69683231e-10  1.80000000e+00  7.69683231e-10 -5.36621136e-03  7.69683231e-10  5.00000000e-01                                 
 9.56246691e-10  7.92889823e-01  9.56246691e-10  7.50075923e-01  9.56246691e-10  1.33212110e+00  9.56246691e-10  1.80000000e+00  9.56246691e-10  5.14947108e-03  9.56246691e-10  5.00000000e-01                                 
 1.32937361e-09  7.91698957e-01  1.32937361e-09  7.49057821e-01  1.32937361e-09  1.68235186e+00  1.32937361e-09  1.80000000e+00  1.32937361e-09 -4.92284069e-03  1.32937361e-09  5.00000000e-01                                 
 1.98362439e-09  7.89744540e-01  1.98362439e-09  7.47372210e-01  1.98362439e-09  1.92975484e+00  1.98362439e-09  1.80000000e+00  1.98362439e-09  4.91367282e-03  1.98362439e-09  5.00000000e-01                                 
 2.22499339e-09  7.89063473e-01  2.22499339e-09  7.46780367e-01  2.22499339e-09  1.95220323e+00  2.22499339e-09  1.80000000e+00  2.22499339e-09 -4.63585350e-03  2.22499339e-09  5.00000000e-01                                 
 2.52548538e-09  7.88242251e-01  2.52548538e-09  7.46063889e-01  2.52548538e-09  1.96550759e+00  2.52548538e-09  1.80000000e+00  2.52548538e-09  4.51963457e-03  2.52548538e-09  5.00000000e-01                                 
 2.87310980e-09  7.87326713e-01  2.87310980e-09  7.45261540e-01  2.87310980e-09  1.97152506e+00  2.87310980e-09  1.80000000e+00  2.87310980e-09 -4.34606576e-03  2.87310980e-09  5.00000000e-01                                 
 3.56835864e-09  7.85595107e-01  3.56835864e-09  7.43734218e-01  3.56835864e-09  1.97343591e+00  3.56835864e-09  1.80000000e+00  3.56835864e-09  4.30913086e-03  3.56835864e-09  5.00000000e-01                                 
 4.54804327e-09  7.83351897e-01  4.54804327e-09  7.41737286e-01  4.54804327e-09  1.97039351e+00  4.54804327e-09  1.80000000e+00  4.54804327e-09 -4.23883679e-03  4.54804327e-09  5.00000000e-01                                 
 6.17718081e-09  7.80031324e-01  6.17718081e-09  7.38746672e-01  6.17718081e-09  1.96518592e+00  6.17718081e-09  1.80000000e+00  6.17718081e-09  4.23816415e-03  6.17718081e-09  5.00000000e-01                                 
 8.46727476e-09  7.76020020e-01  8.46727476e-09  7.35084745e-01  8.46727476e-09  1.96007250e+00  8.46727476e-09  1.80000000e+00  8.46727476e-09 -4.18691565e-03  8.46727476e-09  5.00000000e-01                                 
 9.69970557e-09  7.74111077e-01  9.69970557e-09  7.33324636e-01  9.69970557e-09  1.95816757e+00  9.69970557e-09  1.80000000e+00  9.69970557e-09  4.17707585e-03  9.69970557e-09  5.00000000e-01                                 
 1.14509698e-08  7.71618904e-01  1.14509698e-08  7.31014243e-01  1.14509698e-08  1.95488318e+00  1.14509698e-08  1.80000000e+00  1.14509698e-08 -4.13037688e-03  1.14509698e-08  5.00000000e-01                                 
 1.32879599e-08  7.69232823e-01  1.32879599e-08  7.28791035e-01  1.32879599e-08  1.95103518e+00  1.32879599e-08  1.80000000e+00  1.32879599e-08  4.12516441e-03  1.32879599e-08  5.00000000e-01                                 
 1.69619401e-08  7.64978632e-01  1.69619401e-08  7.24809142e-01  1.69619401e-08  1.94312623e+00  1.69619401e-08  1.80000000e+00  1.69619401e-08 -4.09666205e-03  1.69619401e-08  5.00000000e-01                                 
 2.03467542e-08  7.61536496e-01  2.03467542e-08  7.21575506e-01  2.03467542e-08  1.93556769e+00  2.03467542e-08  1.80000000e+00  2.03467542e-08  4.09937647e-03  2.03467542e-08  5.00000000e-01                                 
 2.71163825e-08  7.55562549e-01  2.71163825e-08  7.15957203e-01  2.71163825e-08  1.91972254e+00  2.71163825e-08  1.80000000e+00  2.71163825e-08 -4.07777256e-03  2.71163825e-08  5.00000000e-01                                 
 3.52771178e-08  7.49505299e-01  3.52771178e-08  7.10267258e-01  3.52771178e-08  1.90114426e+00  3.52771178e-08  1.80000000e+00  3.52771178e-08  4.08772214e-03  3.52771178e-08  5.00000000e-01                                 
 5.15985884e-08  7.39661239e-01  5.15985884e-08  7.01061120e-01  5.15985884e-08  1.86749799e+00  5.15985884e-08  1.80000000e+00  5.15985884e-08 -4.06971634e-03  5.15985884e-08  5.00000000e-01                                 
 7.65412603e-08  7.28734192e-01  7.65412603e-08  6.90846433e-01  7.65412603e-08  1.82342912e+00  7.65412603e-08  1.80000000e+00  7.65412603e-08  4.08346997e-03  7.65412603e-08  5.00000000e-01                                 
 1.03798381e-07  7.30777515e-01  1.03798381e-07  6.91204753e-01  1.03798381e-07  1.82600887e+00  1.03798381e-07  1.80000000e+00  1.03798381e-07 -4.06599401e-03  1.03798381e-07  5.00000000e-01                                 
 1.26949680e-07  7.30365241e-01  1.26949680e-07  6.90015995e-01  1.26949680e-07  1.80741786e+00  1.26949680e-07  1.80000000e+00  1.26949680e-07  4.07984379e-03  1.26949680e-07  5.00000000e-01                                 
 1.51538025e-07  7.22017688e-01  1.51538025e-07  6.82624475e-01  1.51538025e-07  1.77366205e+00  1.51538025e-07  1.80000000e+00  1.51538025e-07 -4.06256302e-03  1.51538025e-07  5.00000000e-01                                 
 1.72030728e-07  7.18375691e-01  1.72030728e-07  6.79171084e-01  1.72030728e-07  1.75426760e+00  1.72030728e-07  1.80000000e+00  1.72030728e-07  4.07608230e-03  1.72030728e-07  5.00000000e-01                                 
 1.93444717e-07  7.14516096e-01  1.93444717e-07  6.75583387e-01  1.93444717e-07  1.73081389e+00  1.93444717e-07  1.80000000e+00  1.93444717e-07 -4.05849727e-03  1.93444717e-07  5.00000000e-01                                 
 2.26619365e-07  7.08462773e-01  2.26619365e-07  6.70068633e-01  2.26619365e-07  1.69434433e+00  2.26619365e-07  1.80000000e+00  2.26619365e-07  4.07278334e-03  2.26619365e-07  5.00000000e-01                                 
 2.68713292e-07  7.02213931e-01  2.68713292e-07  6.64347063e-01  2.68713292e-07  1.64891634e+00  2.68713292e-07  1.80000000e+00  2.68713292e-07 -4.05613951e-03  2.68713292e-07  5.00000000e-01                                 
 3.38732374e-07  6.92954804e-01  3.38732374e-07  6.55973787e-01  3.38732374e-07  1.57359065e+00  3.38732374e-07  1.80000000e+00  3.38732374e-07  4.07115729e-03  3.38732374e-07  5.00000000e-01                                 
 4.53570757e-07  6.80611068e-01  4.53570757e-07  6.44925745e-01  4.53570757e-07  1.44929647e+00  4.53570757e-07  1.80000000e+00  4.53570757e-07 -4.05510730e-03  4.53570757e-07  5.00000000e-01                                 
 6.50785301e-07  6.63694857e-01  6.50785301e-07  6.30050868e-01  6.50785301e-07  1.23782536e+00  6.50785301e-07  1.80000000e+00  6.50785301e-07  4.07058547e-03  6.50785301e-07  5.00000000e-01                                 
 1.04521439e-06  6.39359096e-01  1.04521439e-06  6.09044661e-01  1.04521439e-06  8.46377693e-01  1.04521439e-06  1.80000000e+00  1.04521439e-06 -4.05470942e-03  1.04521439e-06  5.00000000e-01                                 
 1.49894676e-06  6.21885288e-01  1.49894676e-06  5.94107366e-01  1.49894676e-06  5.84023959e-01  1.49894676e-06  1.80000000e+00  1.49894676e-06  4.07041199e-03  1.49894676e-06  5.00000000e-01                                 
 2.04567929e-06  6.08898415e-01  2.04567929e-06  5.82963038e-01  2.04567929e-06  5.10658699e-01  2.04567929e-06  1.80000000e+00  2.04567929e-06 -4.05467140e-03  2.04567929e-06  5.00000000e-01                                 
 2.11520982e-06  6.07751700e-01  2.11520982e-06  5.81968508e-01  2.11520982e-06  5.09151322e-01  2.11520982e-06  1.80000000e+00  2.11520982e-06 -1.44761975e-07  2.11520982e-06  5.00000000e-01                                 
 2.25427088e-06  6.05608103e-01  2.25427088e-06  5.80103695e-01  2.25427088e-06  5.06399685e-01  2.25427088e-06  1.80000000e+00  2.25427088e-06  1.44007217e-07  2.25427088e-06  5.00000000e-01                                 
 2.53239300e-06  6.02252608e-01  2.53239300e-06  5.77141290e-01  2.53239300e-06  5.02688962e-01  2.53239300e-06  1.80000000e+00  2.53239300e-06 -1.42500641e-07  2.53239300e-06  5.00000000e-01                                 
 3.08863723e-06  6.00118230e-01  3.08863723e-06  5.74931167e-01  3.08863723e-06  5.00905717e-01  3.08863723e-06  1.80000000e+00  3.08863723e-06  1.49279827e-07  3.08863723e-06  5.00000000e-01                                 
 3.16931061e-06  6.00511969e-01  3.16931061e-06  5.75177648e-01  3.16931061e-06  5.01318233e-01  3.16931061e-06  1.80000000e+00  3.16931061e-06  6.18257018e-09  3.16931061e-06  5.00000000e-01                                 
 3.33065737e-06  6.01851537e-01  3.33065737e-06  5.76112867e-01  3.33065737e-06  5.02662126e-01  3.33065737e-06  1.80000000e+00  3.33065737e-06  8.34876332e-09  3.33065737e-06  5.00000000e-01                                 
 3.65335090e-06  6.12249427e-01  3.65335090e-06  5.84151343e-01  3.65335090e-06  5.10618364e-01  3.65335090e-06  1.80000000e+00  3.65335090e-06  2.14568950e-08  3.65335090e-06  5.00000000e-01                                 
 3.73402428e-06  6.19314127e-01  3.73402428e-06  5.89728644e-01  3.73402428e-06  5.14191931e-01  3.73402428e-06  1.80000000e+00  3.73402428e-06  3.26727446e-08  3.73402428e-06  5.00000000e-01                                 
 3.75419262e-06  6.21310081e-01  3.75419262e-06  5.91306693e-01  3.75419262e-06  5.15116409e-01  3.75419262e-06  1.80000000e+00  3.75419262e-06  3.64034529e-08  3.75419262e-06  5.00000000e-01                                 
 3.79452932e-06  6.25949114e-01  3.79452932e-06  5.94980428e-01  3.79452932e-06  5.17180644e-01  3.79452932e-06  1.80000000e+00  3.79452932e-06  4.68728161e-08  3.79452932e-06  5.00000000e-01                                 
 3.87520270e-06  6.42545168e-01  3.87520270e-06  6.08183707e-01  3.87520270e-06  5.24822871e-01  3.87520270e-06  1.80000000e+00  3.87520270e-06  9.58734647e-08  3.87520270e-06  5.00000000e-01                                 
 3.89537104e-06  6.49808403e-01  3.89537104e-06  6.13977577e-01  3.89537104e-06  5.28360007e-01  3.89537104e-06  1.80000000e+00  3.89537104e-06  1.22560929e-07  3.89537104e-06  5.00000000e-01                                 
 3.93570773e-06  6.70036612e-01  3.93570773e-06  6.30141523e-01  3.93570773e-06  5.38820753e-01  3.93570773e-06  1.80000000e+00  3.93570773e-06  2.18991082e-07  3.93570773e-06  5.00000000e-01                                 
 3.94579190e-06  6.77862044e-01  3.94579190e-06  6.36408264e-01  3.94579190e-06  5.43152128e-01  3.94579190e-06  1.80000000e+00  3.94579190e-06  2.64975033e-07  3.94579190e-06  5.00000000e-01                                 
 3.96596025e-06  6.97272299e-01  3.96596025e-06  6.51998815e-01  3.96596025e-06  5.54317620e-01  3.96596025e-06  1.80000000e+00  3.96596025e-06  3.99444827e-07  3.96596025e-06  5.00000000e-01                                 
 4.00629694e-06  7.81084226e-01  4.00629694e-06  7.29496273e-01  4.00629694e-06  6.10993589e-01  4.00629694e-06  1.80000000e+00  4.00629694e-06  1.21143770e-06  4.00629694e-06  5.00000000e-01                                 
 4.05735470e-06  8.59172095e-01  4.05735470e-06  8.14175828e-01  4.05735470e-06  6.59839100e-01  4.05735470e-06  1.80000000e+00  4.05735470e-06  3.61424673e-07  4.05735470e-06  5.00000000e-01                                 
 4.11108600e-06  9.30930226e-01  4.11108600e-06  8.73365393e-01  4.11108600e-06  6.96104750e-01  4.11108600e-06  1.80000000e+00  4.11108600e-06  8.35440693e-07  4.11108600e-06  5.00000000e-01                                 
 4.16447520e-06  9.59264162e-01  4.16447520e-06  8.90797246e-01  4.16447520e-06  7.00773328e-01  4.16447520e-06  1.80000000e+00  4.16447520e-06 -1.65274432e-07  4.16447520e-06  5.00000000e-01                                 
 4.21123854e-06  9.49137568e-01  4.21123854e-06  8.85095291e-01  4.21123854e-06  6.75006858e-01  4.21123854e-06  1.80000000e+00  4.21123854e-06 -1.03313340e-08  4.21123854e-06  5.00000000e-01                                 
 4.24689143e-06  9.54840565e-01  4.24689143e-06  8.88182566e-01  4.24689143e-06  6.69153237e-01  4.24689143e-06  1.80000000e+00  4.24689143e-06  1.35731044e-07  4.24689143e-06  5.00000000e-01                                 
 4.28456849e-06  9.52424830e-01  4.28456849e-06  8.87084400e-01  4.28456849e-06  6.53838942e-01  4.28456849e-06  1.80000000e+00  4.28456849e-06 -1.61696522e-07  4.28456849e-06  5.00000000e-01                                 
 4.32809705e-06  9.52756371e-01  4.32809705e-06  8.86964198e-01  4.32809705e-06  6.42830009e-01  4.32809705e-06  1.80000000e+00  4.32809705e-06  1.98423509e-07  4.32809705e-06  5.00000000e-01                                 
 4.38521689e-06  9.52820295e-01  4.38521689e-06  8.87305274e-01  4.38521689e-06  6.24490555e-01  4.38521689e-06  1.80000000e+00  4.38521689e-06 -2.01885279e-07  4.38521689e-06  5.00000000e-01                                 
 4.48510719e-06  9.50962071e-01  4.48510719e-06  8.85924077e-01  4.48510719e-06  5.97959811e-01  4.48510719e-06  1.80000000e+00  4.48510719e-06  2.13739163e-07  4.48510719e-06  5.00000000e-01                                 
 4.60022851e-06  9.51104927e-01  4.60022851e-06  8.86294823e-01  4.60022851e-06  5.67786987e-01  4.60022851e-06  1.80000000e+00  4.60022851e-06 -2.11951361e-07  4.60022851e-06  5.00000000e-01                                 
 4.77862274e-06  9.47897769e-01  4.77862274e-06  8.84107067e-01  4.77862274e-06  5.31967085e-01  4.77862274e-06  1.80000000e+00  4.77862274e-06  2.21523542e-07  4.77862274e-06  5.00000000e-01                                 
 5.01521801e-06  9.46803882e-01  5.01521801e-06  8.83733308e-01  5.01521801e-06  5.12307125e-01  5.01521801e-06  1.80000000e+00  5.01521801e-06 -2.08699313e-07  5.01521801e-06  5.00000000e-01                                 
 5.29064470e-06  9.41726562e-01  5.29064470e-06  8.80325467e-01  5.29064470e-06  5.07321657e-01  5.29064470e-06  1.80000000e+00  5.29064470e-06  2.06476433e-07  5.29064470e-06  5.00000000e-01                                 
 5.58248974e-06  9.39032509e-01  5.58248974e-06  8.78933173e-01  5.58248974e-06  5.01802857e-01  5.58248974e-06  1.80000000e+00  5.58248974e-06 -2.11814008e-07  5.58248974e-06  5.00000000e-01                                 
 5.64459305e-06  9.36905701e-01  5.64459305e-06  8.77425727e-01  5.64459305e-06  5.00745918e-01  5.64459305e-06  1.80000000e+00  5.64459305e-06 -5.40717361e-09  5.64459305e-06  5.00000000e-01                                 
 5.76879965e-06  9.34404358e-01  5.76879965e-06  8.75797741e-01  5.76879965e-06  4.98504973e-01  5.76879965e-06  1.80000000e+00  5.76879965e-06 -5.60961484e-09  5.76879965e-06  5.00000000e-01                                 
 5.98378739e-06  9.29089172e-01  5.98378739e-06  8.72272499e-01  5.98378739e-06  4.93638647e-01  5.98378739e-06  1.80000000e+00  5.98378739e-06 -1.00533191e-08  5.98378739e-06  5.00000000e-01                                 
 6.20629810e-06  9.21501387e-01  6.20629810e-06  8.67009718e-01  6.20629810e-06  4.86813330e-01  6.20629810e-06  1.80000000e+00  6.20629810e-06 -1.53686342e-08  6.20629810e-06  5.00000000e-01                                 
 6.65131954e-06  8.95791507e-01  6.65131954e-06  8.47244001e-01  6.65131954e-06  4.80316317e-01  6.65131954e-06  1.80000000e+00  6.65131954e-06 -3.39699733e-08  6.65131954e-06  5.00000000e-01                                 
 6.73137198e-06  8.90190954e-01  6.73137198e-06  8.42523230e-01  6.73137198e-06  4.81377227e-01  6.73137198e-06  1.80000000e+00  6.73137198e-06 -3.25402806e-08  6.73137198e-06  5.00000000e-01                                 
 6.89147686e-06  8.81386309e-01  6.89147686e-06  8.34846575e-01  6.89147686e-06  4.83927840e-01  6.89147686e-06  1.80000000e+00  6.89147686e-06 -1.82728136e-08  6.89147686e-06  5.00000000e-01                                 
 7.21168663e-06  8.75137889e-01  7.21168663e-06  8.29222858e-01  7.21168663e-06  4.90878483e-01  7.21168663e-06  1.80000000e+00  7.21168663e-06  5.82827657e-09  7.21168663e-06  5.00000000e-01                                 
 7.69344549e-06  8.75341065e-01  7.69344549e-06  8.29406054e-01  7.69344549e-06  4.98041661e-01  7.69344549e-06  1.80000000e+00  7.69344549e-06  3.99809138e-09  7.69344549e-06  5.00000000e-01                                 
 8.16659073e-06  8.75287822e-01  8.16659073e-06  8.29359376e-01  8.16659073e-06  5.00176496e-01  8.16659073e-06  1.80000000e+00  8.16659073e-06  5.35996320e-09  8.16659073e-06  5.00000000e-01                                 
 9.11288120e-06  8.75298506e-01  9.11288120e-06  8.29367323e-01  9.11288120e-06  5.01804091e-01  9.11288120e-06  1.80000000e+00  9.11288120e-06  4.20055063e-09  9.11288120e-06  5.00000000e-01                                 
 1.00005000e-05  8.75298372e-01  1.00005000e-05  8.29368973e-01  1.00005000e-05  5.02539303e-01  1.00005000e-05  1.80000000e+00  1.00005000e-05  5.34106717e-09  1.00005000e-05  5.00000000e-01                                 
