 time            v(vbep)         time            v(vben)         time            v(vout)         time            v(vphi1)        time            v(vphi2)        time            v(vref)         time            v(voutc)        time            v(voutcc)       yes             currtemp       
 0.00000000e+00  8.32532872e-01  0.00000000e+00  7.82585499e-01  0.00000000e+00  1.72181778e+00  0.00000000e+00  0.00000000e+00  0.00000000e+00  1.80000000e+00  0.00000000e+00  7.86339397e-01  0.00000000e+00  1.72181777e+00  0.00000000e+00  1.72685592e+00  1.00000000e+00 -1.30000000e+01 
 1.00000000e-11  8.32554946e-01  1.00000000e-11  7.82652622e-01  1.00000000e-11  1.72264048e+00  1.00000000e-11  1.80000000e-02  1.00000000e-11  1.80024401e+00  1.00000000e-11  7.86856708e-01  1.00000000e-11  1.72227707e+00  1.00000000e-11  1.72687021e+00                                 
 2.00000000e-11  8.32561127e-01  2.00000000e-11  7.82694972e-01  2.00000000e-11  1.72319574e+00  2.00000000e-11  3.60000000e-02  2.00000000e-11  1.80034616e+00  2.00000000e-11  7.87247727e-01  2.00000000e-11  1.72263697e+00  2.00000000e-11  1.72687696e+00                                 
 4.00000000e-11  8.32561079e-01  4.00000000e-11  7.82750436e-01  4.00000000e-11  1.72393584e+00  4.00000000e-11  7.20000000e-02  4.00000000e-11  1.80039399e+00  4.00000000e-11  7.87826743e-01  4.00000000e-11  1.72319294e+00  4.00000000e-11  1.72688168e+00                                 
 8.00000000e-11  8.32549922e-01  8.00000000e-11  7.82783137e-01  8.00000000e-11  1.72429141e+00  8.00000000e-11  1.44000000e-01  8.00000000e-11  1.80020249e+00  8.00000000e-11  7.88292138e-01  8.00000000e-11  1.72372011e+00  8.00000000e-11  1.72687245e+00                                 
 1.60000000e-10  8.32546540e-01  1.60000000e-10  7.82782887e-01  1.60000000e-10  1.72407297e+00  1.60000000e-10  2.88000000e-01  1.60000000e-10  1.80001404e+00  1.60000000e-10  7.88358433e-01  1.60000000e-10  1.72392615e+00  1.60000000e-10  1.72685973e+00                                 
 3.20000000e-10  8.32544100e-01  3.20000000e-10  7.82781283e-01  3.20000000e-10  1.72377464e+00  3.20000000e-10  5.76000000e-01  3.20000000e-10  1.80002026e+00  3.20000000e-10  7.88316999e-01  3.20000000e-10  1.72390201e+00  3.20000000e-10  1.72685744e+00                                 
 6.40000000e-10  8.32473555e-01  6.40000000e-10  7.82574765e-01  6.40000000e-10  1.71722183e+00  6.40000000e-10  1.15200000e+00  6.40000000e-10  1.81351977e+00  6.40000000e-10  7.87884558e-01  6.40000000e-10  1.72845703e+00  6.40000000e-10  1.72688515e+00                                 
 9.95593354e-10  8.32884462e-01  9.95593354e-10  7.82594894e-01  9.95593354e-10  1.68658506e+00  9.95593354e-10  1.79206804e+00  9.95593354e-10  7.55675454e-02  9.95593354e-10  7.88752791e-01  9.95593354e-10  1.71718079e+00  9.95593354e-10  1.72676544e+00                                 
 1.00000000e-09  8.32899464e-01  1.00000000e-09  7.82619709e-01  1.00000000e-09  1.68629866e+00  1.00000000e-09  1.80000000e+00  1.00000000e-09  4.58724942e-02  1.00000000e-09  7.89102752e-01  1.00000000e-09  1.71706980e+00  1.00000000e-09  1.72677454e+00                                 
 1.00881329e-09  8.32882138e-01  1.00881329e-09  7.82628845e-01  1.00881329e-09  1.68621827e+00  1.00881329e-09  1.80000000e+00  1.00881329e-09  2.32194698e-02  1.00881329e-09  7.89888467e-01  1.00881329e-09  1.71745945e+00  1.00881329e-09  1.72680432e+00                                 
 1.02643988e-09  8.32873790e-01  1.02643988e-09  7.82680532e-01  1.02643988e-09  1.68653680e+00  1.02643988e-09  1.80000000e+00  1.02643988e-09  1.29092932e-03  1.02643988e-09  7.91472180e-01  1.02643988e-09  1.71857596e+00  1.02643988e-09  1.72685794e+00                                 
 1.06169305e-09  8.32944008e-01  1.06169305e-09  7.82740625e-01  1.06169305e-09  1.68671634e+00  1.06169305e-09  1.80000000e+00  1.06169305e-09  1.25507263e-03  1.06169305e-09  7.93127874e-01  1.06169305e-09  1.72006945e+00  1.06169305e-09  1.72687807e+00                                 
 1.13219939e-09  8.33104626e-01  1.13219939e-09  7.82668015e-01  1.13219939e-09  1.68390258e+00  1.13219939e-09  1.80000000e+00  1.13219939e-09  3.81017222e-04  1.13219939e-09  7.93401424e-01  1.13219939e-09  1.72030852e+00  1.13219939e-09  1.72684338e+00                                 
 1.27321207e-09  8.33283129e-01  1.27321207e-09  7.82604544e-01  1.27321207e-09  1.67806900e+00  1.27321207e-09  1.80000000e+00  1.27321207e-09  4.43708662e-04  1.27321207e-09  7.94063122e-01  1.27321207e-09  1.72085833e+00  1.27321207e-09  1.72686454e+00                                 
 1.51470390e-09  8.33320044e-01  1.51470390e-09  7.82587421e-01  1.51470390e-09  1.67403672e+00  1.51470390e-09  1.80000000e+00  1.51470390e-09 -1.29190215e-04  1.51470390e-09  7.94303898e-01  1.51470390e-09  1.72105099e+00  1.51470390e-09  1.72685789e+00                                 
 1.77614634e-09  8.33160012e-01  1.77614634e-09  7.82577962e-01  1.77614634e-09  1.67528558e+00  1.77614634e-09  1.80000000e+00  1.77614634e-09  1.05313954e-04  1.77614634e-09  7.93909973e-01  1.77614634e-09  1.72071960e+00  1.77614634e-09  1.72686686e+00                                 
 2.03631651e-09  8.32990271e-01  2.03631651e-09  7.82577000e-01  2.03631651e-09  1.67734962e+00  2.03631651e-09  1.80000000e+00  2.03631651e-09 -1.51773833e-04  2.03631651e-09  7.93509620e-01  2.03631651e-09  1.72037771e+00  2.03631651e-09  1.72686418e+00                                 
 2.39343658e-09  8.32784722e-01  2.39343658e-09  7.82572571e-01  2.39343658e-09  1.68019937e+00  2.39343658e-09  1.80000000e+00  2.39343658e-09  7.50166512e-05  2.39343658e-09  7.92941416e-01  2.39343658e-09  1.71990021e+00  2.39343658e-09  1.72686958e+00                                 
 3.09084069e-09  8.32542763e-01  3.09084069e-09  7.82568053e-01  3.09084069e-09  1.68484243e+00  3.09084069e-09  1.80000000e+00  3.09084069e-09 -1.35414524e-04  3.09084069e-09  7.91897283e-01  3.09084069e-09  1.71901433e+00  3.09084069e-09  1.72686680e+00                                 
 4.48564892e-09  8.32390817e-01  4.48564892e-09  7.82566264e-01  4.48564892e-09  1.69152502e+00  4.48564892e-09  1.80000000e+00  4.48564892e-09  7.27531615e-05  4.48564892e-09  7.90111852e-01  4.48564892e-09  1.71750756e+00  4.48564892e-09  1.72685308e+00                                 
 7.27526539e-09  8.32447481e-01  7.27526539e-09  7.82573867e-01  7.27526539e-09  1.69749204e+00  7.27526539e-09  1.80000000e+00  7.27526539e-09 -1.23415581e-04  7.27526539e-09  7.87736908e-01  7.27526539e-09  1.71549634e+00  7.27526539e-09  1.72674787e+00                                 
 9.93736858e-09  8.32487037e-01  9.93736858e-09  7.82581063e-01  9.93736858e-09  1.69808243e+00  9.93736858e-09  1.80000000e+00  9.93736858e-09  8.02090547e-05  9.93736858e-09  7.86612230e-01  9.93736858e-09  1.71454671e+00  9.93736858e-09  1.72657998e+00                                 
 1.24255269e-08  8.32500440e-01  1.24255269e-08  7.82583501e-01  1.24255269e-08  1.69699275e+00  1.24255269e-08  1.80000000e+00  1.24255269e-08 -1.13487167e-04  1.24255269e-08  7.86102498e-01  1.24255269e-08  1.71410948e+00  1.24255269e-08  1.72637828e+00                                 
 1.51030286e-08  8.32497670e-01  1.51030286e-08  7.82585250e-01  1.51030286e-08  1.69598196e+00  1.51030286e-08  1.80000000e+00  1.51030286e-08  8.71285863e-05  1.51030286e-08  7.85854542e-01  1.51030286e-08  1.71389678e+00  1.51030286e-08  1.72614654e+00                                 
 1.87487520e-08  8.32500037e-01  1.87487520e-08  7.82585273e-01  1.87487520e-08  1.69497431e+00  1.87487520e-08  1.80000000e+00  1.87487520e-08 -1.00279905e-04  1.87487520e-08  7.85735555e-01  1.87487520e-08  1.71378258e+00  1.87487520e-08  1.72581741e+00                                 
 2.34141915e-08  8.32515396e-01  2.34141915e-08  7.82585815e-01  2.34141915e-08  1.69188270e+00  2.34141915e-08  1.80000000e+00  2.34141915e-08  9.30158766e-05  2.34141915e-08  7.85739893e-01  2.34141915e-08  1.71377285e+00  2.34141915e-08  1.72541091e+00                                 
 2.99050614e-08  8.32532116e-01  2.99050614e-08  7.82585354e-01  2.99050614e-08  1.68451669e+00  2.99050614e-08  1.80000000e+00  2.99050614e-08 -9.60751254e-05  2.99050614e-08  7.85805401e-01  2.99050614e-08  1.71380298e+00  2.99050614e-08  1.72487527e+00                                 
 3.91274952e-08  8.32534105e-01  3.91274952e-08  7.82585907e-01  3.91274952e-08  1.67184745e+00  3.91274952e-08  1.80000000e+00  3.91274952e-08  9.32335962e-05  3.91274952e-08  7.85913964e-01  3.91274952e-08  1.71386955e+00  3.91274952e-08  1.72419471e+00                                 
 5.39013849e-08  8.32536549e-01  5.39013849e-08  7.82585326e-01  5.39013849e-08  1.64997337e+00  5.39013849e-08  1.80000000e+00  5.39013849e-08 -9.58393857e-05  5.39013849e-08  7.86038374e-01  5.39013849e-08  1.71393741e+00  5.39013849e-08  1.72326154e+00                                 
 7.60399429e-08  8.32532453e-01  7.60399429e-08  7.82585825e-01  7.60399429e-08  1.61542652e+00  7.60399429e-08  1.80000000e+00  7.60399429e-08  9.27632038e-05  7.60399429e-08  7.86167732e-01  7.60399429e-08  1.71401428e+00  7.60399429e-08  1.72217648e+00                                 
 1.20317059e-07  8.32534885e-01  1.20317059e-07  7.82585242e-01  1.20317059e-07  1.54340259e+00  1.20317059e-07  1.80000000e+00  1.20317059e-07 -9.58643291e-05  1.20317059e-07  7.86283611e-01  1.20317059e-07  1.71407052e+00  1.20317059e-07  1.72076469e+00                                 
 2.08871291e-07  8.32531311e-01  2.08871291e-07  7.82585786e-01  2.08871291e-07  1.39826813e+00  2.08871291e-07  1.80000000e+00  2.08871291e-07  9.26640839e-05  2.08871291e-07  7.86342925e-01  2.08871291e-07  1.71409373e+00  2.08871291e-07  1.71955068e+00                                 
 3.50967108e-07  8.32534452e-01  3.50967108e-07  7.82585228e-01  3.50967108e-07  1.16987463e+00  3.50967108e-07  1.80000000e+00  3.50967108e-07 -9.55964916e-05  3.50967108e-07  7.86336740e-01  3.50967108e-07  1.71407218e+00  3.50967108e-07  1.71914807e+00                                 
 5.48686208e-07  8.32531300e-01  5.48686208e-07  7.82585776e-01  5.48686208e-07  8.83576723e-01  5.48686208e-07  1.80000000e+00  5.48686208e-07  9.31848536e-05  5.48686208e-07  7.86341280e-01  5.48686208e-07  1.71406967e+00  5.48686208e-07  1.71912901e+00                                 
 7.37089120e-07  8.32534506e-01  7.37089120e-07  7.82585226e-01  7.37089120e-07  7.79590821e-01  7.37089120e-07  1.80000000e+00  7.37089120e-07 -9.37164845e-05  7.37089120e-07  7.86337933e-01  7.37089120e-07  1.71405615e+00  7.37089120e-07  1.71912394e+00                                 
 8.84014778e-07  8.32531131e-01  8.84014778e-07  7.82585771e-01  8.84014778e-07  7.93232167e-01  8.84014778e-07  1.80000000e+00  8.84014778e-07  9.38421337e-05  8.84014778e-07  7.86341598e-01  8.84014778e-07  1.71405563e+00  8.84014778e-07  1.71911949e+00                                 
 9.40679690e-07  8.32534597e-01  9.40679690e-07  7.82585222e-01  9.40679690e-07  7.90846999e-01  9.40679690e-07  1.80000000e+00  9.40679690e-07 -9.38647462e-05  9.40679690e-07  7.86336626e-01  9.40679690e-07  1.71404626e+00  9.40679690e-07  1.71911455e+00                                 
 1.02025610e-06  8.32531234e-01  1.02025610e-06  7.82585794e-01  1.02025610e-06  7.89992032e-01  1.02025610e-06  1.80000000e+00  1.02025610e-06  9.38068179e-05  1.02025610e-06  7.86342049e-01  1.02025610e-06  1.71405018e+00  1.02025610e-06  1.71911328e+00                                 
 1.11792128e-06  8.32534466e-01  1.11792128e-06  7.82585211e-01  1.11792128e-06  7.90227241e-01  1.11792128e-06  1.80000000e+00  1.11792128e-06 -9.39321947e-05  1.11792128e-06  7.86336828e-01  1.11792128e-06  1.71403885e+00  1.11792128e-06  1.71910698e+00                                 
 1.30149285e-06  8.32531299e-01  1.30149285e-06  7.82585804e-01  1.30149285e-06  7.90057652e-01  1.30149285e-06  1.80000000e+00  1.30149285e-06  9.37712358e-05  1.30149285e-06  7.86341951e-01  1.30149285e-06  1.71403806e+00  1.30149285e-06  1.71910130e+00                                 
 1.50621197e-06  8.32534432e-01  1.50621197e-06  7.82585206e-01  1.50621197e-06  7.90237470e-01  1.50621197e-06  1.80000000e+00  1.50621197e-06 -9.38835690e-05  1.50621197e-06  7.86336876e-01  1.50621197e-06  1.71402226e+00  1.50621197e-06  1.71909039e+00                                 
 1.91565023e-06  8.32531320e-01  1.91565023e-06  7.82585808e-01  1.91565023e-06  7.90078810e-01  1.91565023e-06  1.80000000e+00  1.91565023e-06  9.37532398e-05  1.91565023e-06  7.86341922e-01  1.91565023e-06  1.71401174e+00  1.91565023e-06  1.71907509e+00                                 
 2.53428902e-06  8.32534422e-01  2.53428902e-06  7.82585207e-01  2.53428902e-06  7.90235160e-01  2.53428902e-06  1.80000000e+00  2.53428902e-06 -9.39533738e-05  2.53428902e-06  7.86336893e-01  2.53428902e-06  1.71397830e+00  2.53428902e-06  1.71904654e+00                                 
 3.69145360e-06  8.32531326e-01  3.69145360e-06  7.82585808e-01  3.69145360e-06  7.90088296e-01  3.69145360e-06  1.80000000e+00  3.69145360e-06  9.37448954e-05  3.69145360e-06  7.86341914e-01  3.69145360e-06  1.71393581e+00  3.69145360e-06  1.71899939e+00                                 
 4.89145360e-06  8.32534417e-01  4.89145360e-06  7.82585203e-01  4.89145360e-06  7.90236357e-01  4.89145360e-06  1.80000000e+00  4.89145360e-06 -9.38539963e-05  4.89145360e-06  7.86336895e-01  4.89145360e-06  1.71387746e+00  4.89145360e-06  1.71894600e+00                                 
 6.00100000e-06  8.32531330e-01  6.00100000e-06  7.82585803e-01  6.00100000e-06  7.90092022e-01  6.00100000e-06  1.80000000e+00  6.00100000e-06  9.37300651e-05  6.00100000e-06  7.86341902e-01  6.00100000e-06  1.71383697e+00  6.00100000e-06  1.71890084e+00                                 
 6.00110000e-06  8.32500605e-01  6.00110000e-06  7.82362217e-01  6.00110000e-06  7.88044112e-01  6.00110000e-06  1.62000000e+00  6.00110000e-06 -9.01448704e-05  6.00110000e-06  7.84486236e-01  6.00110000e-06  1.71226625e+00  6.00110000e-06  1.71888502e+00                                 
 6.00130000e-06  8.32530307e-01  6.00130000e-06  7.82422569e-01  6.00130000e-06  7.88780604e-01  6.00130000e-06  1.26000000e+00  6.00130000e-06  4.15370438e-05  6.00130000e-06  7.84808661e-01  6.00130000e-06  1.71254163e+00  6.00130000e-06  1.71890816e+00                                 
 6.00170000e-06  8.32559753e-01  6.00170000e-06  7.82452830e-01  6.00170000e-06  7.90487581e-01  6.00170000e-06  5.40000000e-01  6.00170000e-06  9.05639831e-02  6.00170000e-06  7.83779983e-01  6.00170000e-06  1.70401713e+00  6.00170000e-06  1.71884680e+00                                 
 6.00200000e-06  8.32527546e-01  6.00200000e-06  7.80200662e-01  6.00200000e-06  8.38164276e-01  6.00200000e-06  0.00000000e+00  6.00200000e-06  1.60911485e+00  6.00200000e-06  7.55855244e-01  6.00200000e-06  1.49943506e+00  6.00200000e-06  1.71801514e+00                                 
 6.00205041e-06  8.32534794e-01  6.00205041e-06  7.80193421e-01  6.00205041e-06  8.35930237e-01  6.00205041e-06  0.00000000e+00  6.00205041e-06  1.73745672e+00  6.00205041e-06  7.55571320e-01  6.00205041e-06  1.44075035e+00  6.00205041e-06  1.71828884e+00                                 
 6.00215123e-06  8.32531796e-01  6.00215123e-06  7.80287263e-01  6.00215123e-06  8.27402308e-01  6.00215123e-06  0.00000000e+00  6.00215123e-06  1.81772387e+00  6.00215123e-06  7.56677976e-01  6.00215123e-06  1.32807222e+00  6.00215123e-06  1.71879278e+00                                 
 6.00230889e-06  8.32531492e-01  6.00230889e-06  7.80881032e-01  6.00230889e-06  8.15260495e-01  6.00230889e-06  0.00000000e+00  6.00230889e-06  1.78838075e+00  6.00230889e-06  7.63816694e-01  6.00230889e-06  1.19967175e+00  6.00230889e-06  1.71895239e+00                                 
 6.00247863e-06  8.32532416e-01  6.00247863e-06  7.81206099e-01  6.00247863e-06  8.11619726e-01  6.00247863e-06  0.00000000e+00  6.00247863e-06  1.80547137e+00  6.00247863e-06  7.67381410e-01  6.00247863e-06  1.10795376e+00  6.00247863e-06  1.71902563e+00                                 
 6.00270298e-06  8.32530906e-01  6.00270298e-06  7.81514851e-01  6.00270298e-06  8.06508695e-01  6.00270298e-06  0.00000000e+00  6.00270298e-06  1.79578404e+00  6.00270298e-06  7.70355892e-01  6.00270298e-06  1.01545881e+00  6.00270298e-06  1.71910259e+00                                 
 6.00296033e-06  8.32532769e-01  6.00296033e-06  7.81882498e-01  6.00296033e-06  8.03932928e-01  6.00296033e-06  0.00000000e+00  6.00296033e-06  1.80243088e+00  6.00296033e-06  7.73974500e-01  6.00296033e-06  9.34510379e-01  6.00296033e-06  1.71918537e+00                                 
 6.00347504e-06  8.32531288e-01  6.00347504e-06  7.82456292e-01  6.00347504e-06  7.96906312e-01  6.00347504e-06  0.00000000e+00  6.00347504e-06  1.79746987e+00  6.00347504e-06  7.79531856e-01  6.00347504e-06  8.29257541e-01  6.00347504e-06  1.71920498e+00                                 
 6.00416744e-06  8.32533423e-01  6.00416744e-06  7.83071622e-01  6.00416744e-06  7.90527360e-01  6.00416744e-06  0.00000000e+00  6.00416744e-06  1.80208768e+00  6.00416744e-06  7.86323695e-01  6.00416744e-06  7.91443259e-01  6.00416744e-06  1.71898401e+00                                 
 6.00464675e-06  8.32531747e-01  6.00464675e-06  7.83050254e-01  6.00464675e-06  7.90587967e-01  6.00464675e-06  0.00000000e+00  6.00464675e-06  1.79831569e+00  6.00464675e-06  7.86197496e-01  6.00464675e-06  7.90494739e-01  6.00464675e-06  1.71862501e+00                                 
 6.00528984e-06  8.32533684e-01  6.00528984e-06  7.83053156e-01  6.00528984e-06  7.90618075e-01  6.00528984e-06  0.00000000e+00  6.00528984e-06  1.80146160e+00  6.00528984e-06  7.87130377e-01  6.00528984e-06  7.90974483e-01  6.00528984e-06  1.71802129e+00                                 
 6.00596104e-06  8.32531939e-01  6.00596104e-06  7.82927873e-01  6.00596104e-06  7.91302196e-01  6.00596104e-06  0.00000000e+00  6.00596104e-06  1.79873337e+00  6.00596104e-06  7.86598215e-01  6.00596104e-06  7.90763807e-01  6.00596104e-06  1.71728297e+00                                 
 6.00730345e-06  8.32533755e-01  6.00730345e-06  7.82852084e-01  6.00730345e-06  7.92191580e-01  6.00730345e-06  0.00000000e+00  6.00730345e-06  1.80118820e+00  6.00730345e-06  7.87284556e-01  6.00730345e-06  7.92402546e-01  6.00730345e-06  1.71572550e+00                                 
 6.00998828e-06  8.32531985e-01  6.00998828e-06  7.82679055e-01  6.00998828e-06  7.94864127e-01  6.00998828e-06  0.00000000e+00  6.00998828e-06  1.79885884e+00  6.00998828e-06  7.86801278e-01  6.00998828e-06  7.94264938e-01  6.00998828e-06  1.71245913e+00                                 
 6.01535793e-06  8.32533750e-01  6.01535793e-06  7.82634950e-01  6.01535793e-06  8.00080844e-01  6.01535793e-06  0.00000000e+00  6.01535793e-06  1.80112855e+00  6.01535793e-06  7.87314092e-01  6.01535793e-06  8.00229950e-01  6.01535793e-06  1.70595537e+00                                 
 6.02609722e-06  8.32531992e-01  6.02609722e-06  7.82555175e-01  6.02609722e-06  8.11366451e-01  6.02609722e-06  0.00000000e+00  6.02609722e-06  1.79888816e+00  6.02609722e-06  7.86609930e-01  6.02609722e-06  8.10666757e-01  6.02609722e-06  1.69289270e+00                                 
 6.04503145e-06  8.32533751e-01  6.04503145e-06  7.82603785e-01  6.04503145e-06  8.30053892e-01  6.04503145e-06  0.00000000e+00  6.04503145e-06  1.80111323e+00  6.04503145e-06  7.86949662e-01  6.04503145e-06  8.30259291e-01  6.04503145e-06  1.66877722e+00                                 
 6.08289990e-06  8.32531993e-01  6.08289990e-06  7.82563240e-01  6.08289990e-06  8.65206719e-01  6.08289990e-06  0.00000000e+00  6.08289990e-06  1.79889554e+00  6.08289990e-06  7.86192747e-01  6.08289990e-06  8.64045925e-01  6.08289990e-06  1.61712810e+00                                 
