 time            v(vbep)         time            v(vben)         time            v(vout)         time            v(vphi1)        time            v(vphi2)        time            v(vref)         time            v(voutc)        time            v(voutcc)       yes             currtemp       
 0.00000000e+00  8.00194514e-01  0.00000000e+00  7.43611112e-01  0.00000000e+00  1.64654965e+00  0.00000000e+00  0.00000000e+00  0.00000000e+00  1.80000000e+00  0.00000000e+00  7.46633644e-01  0.00000000e+00  1.64654963e+00  0.00000000e+00  1.65251472e+00  1.00000000e+00  1.50000000e+01 
 5.00000000e-12  8.00215889e-01  5.00000000e-12  7.43665612e-01  5.00000000e-12  1.64718848e+00  5.00000000e-12  1.80000000e-02  5.00000000e-12  1.80018361e+00  5.00000000e-12  7.47027941e-01  5.00000000e-12  1.64689898e+00  5.00000000e-12  1.65252781e+00                                 
 1.00000000e-11  8.00225301e-01  1.00000000e-11  7.43701762e-01  1.00000000e-11  1.64766307e+00  1.00000000e-11  3.60000000e-02  1.00000000e-11  1.80026784e+00  1.00000000e-11  7.47339434e-01  1.00000000e-11  1.64717686e+00  1.00000000e-11  1.65253506e+00                                 
 2.00000000e-11  8.00231490e-01  2.00000000e-11  7.43752159e-01  2.00000000e-11  1.64836744e+00  2.00000000e-11  7.20000000e-02  2.00000000e-11  1.80032323e+00  2.00000000e-11  7.47827813e-01  2.00000000e-11  1.64761727e+00  2.00000000e-11  1.65254235e+00                                 
 4.00000000e-11  8.00219218e-01  4.00000000e-11  7.43788884e-01  4.00000000e-11  1.64889916e+00  4.00000000e-11  1.44000000e-01  4.00000000e-11  1.80019737e+00  4.00000000e-11  7.48300502e-01  4.00000000e-11  1.64806545e+00  4.00000000e-11  1.65253721e+00                                 
 8.00000000e-11  8.00205226e-01  8.00000000e-11  7.43791943e-01  8.00000000e-11  1.64883398e+00  8.00000000e-11  2.88000000e-01  8.00000000e-11  1.80002983e+00  8.00000000e-11  7.48425810e-01  8.00000000e-11  1.64824236e+00  8.00000000e-11  1.65252121e+00                                 
 1.60000000e-10  8.00206339e-01  1.60000000e-10  7.43778909e-01  1.60000000e-10  1.64837684e+00  1.60000000e-10  5.76000000e-01  1.60000000e-10  1.80001419e+00  1.60000000e-10  7.48228378e-01  1.60000000e-10  1.64815072e+00  1.60000000e-10  1.65251553e+00                                 
 3.20000000e-10  8.00143571e-01  3.20000000e-10  7.43337547e-01  3.20000000e-10  1.64402323e+00  3.20000000e-10  1.15200000e+00  3.20000000e-10  1.80068394e+00  3.20000000e-10  7.44349217e-01  3.20000000e-10  1.64494914e+00  3.20000000e-10  1.65248308e+00                                 
 5.00000000e-10  8.00263013e-01  5.00000000e-10  7.43754142e-01  5.00000000e-10  1.63790700e+00  5.00000000e-10  1.80000000e+00  5.00000000e-10  1.42818676e-01  5.00000000e-10  7.48926111e-01  5.00000000e-10  1.64855902e+00  5.00000000e-10  1.65255991e+00                                 
 5.20585314e-10  8.00253552e-01  5.20585314e-10  7.43801715e-01  5.20585314e-10  1.63735712e+00  5.20585314e-10  1.80000000e+00  5.20585314e-10  3.58954563e-02  5.20585314e-10  7.50355924e-01  5.20585314e-10  1.64939486e+00  5.20585314e-10  1.65255648e+00                                 
 5.61755942e-10  8.00293440e-01  5.61755942e-10  7.43888767e-01  5.61755942e-10  1.63711274e+00  5.61755942e-10  1.80000000e+00  5.61755942e-10 -1.34918183e-02  5.61755942e-10  7.52284122e-01  5.61755942e-10  1.65110486e+00  5.61755942e-10  1.65255722e+00                                 
 6.44097197e-10  8.00357196e-01  6.44097197e-10  7.43725742e-01  6.44097197e-10  1.63498086e+00  6.44097197e-10  1.80000000e+00  6.44097197e-10  1.09764729e-02  6.44097197e-10  7.51049105e-01  6.44097197e-10  1.65022638e+00  6.44097197e-10  1.65249753e+00                                 
 7.62260900e-10  8.00372211e-01  7.62260900e-10  7.43702896e-01  7.62260900e-10  1.63429845e+00  7.62260900e-10  1.80000000e+00  7.62260900e-10 -8.66239805e-03  7.62260900e-10  7.51808109e-01  7.62260900e-10  1.65073245e+00  7.62260900e-10  1.65253503e+00                                 
 9.38347636e-10  8.00440577e-01  9.38347636e-10  7.43670881e-01  9.38347636e-10  1.63314618e+00  9.38347636e-10  1.80000000e+00  9.38347636e-10  8.16445957e-03  9.38347636e-10  7.52436950e-01  9.38347636e-10  1.65141833e+00  9.38347636e-10  1.65250677e+00                                 
 1.29052111e-09  8.00470650e-01  1.29052111e-09  7.43605062e-01  1.29052111e-09  1.62972649e+00  1.29052111e-09  1.80000000e+00  1.29052111e-09 -7.41241004e-03  1.29052111e-09  7.52422984e-01  1.29052111e-09  1.65128411e+00  1.29052111e-09  1.65252067e+00                                 
 1.85938502e-09  8.00409099e-01  1.85938502e-09  7.43612093e-01  1.85938502e-09  1.62802402e+00  1.85938502e-09  1.80000000e+00  1.85938502e-09  7.25524537e-03  1.85938502e-09  7.52437178e-01  1.85938502e-09  1.65141714e+00  1.85938502e-09  1.65253185e+00                                 
 2.39098995e-09  8.00288220e-01  2.39098995e-09  7.43582027e-01  2.39098995e-09  1.62733968e+00  2.39098995e-09  1.80000000e+00  2.39098995e-09 -6.96041639e-03  2.39098995e-09  7.51588418e-01  2.39098995e-09  1.65056220e+00  2.39098995e-09  1.65257262e+00                                 
 2.96745663e-09  8.00227259e-01  2.96745663e-09  7.43610108e-01  2.96745663e-09  1.62725932e+00  2.96745663e-09  1.80000000e+00  2.96745663e-09  6.72712280e-03  2.96745663e-09  7.51467277e-01  2.96745663e-09  1.65056644e+00  2.96745663e-09  1.65261269e+00                                 
 3.77425960e-09  8.00171167e-01  3.77425960e-09  7.43583670e-01  3.77425960e-09  1.62607903e+00  3.77425960e-09  1.80000000e+00  3.77425960e-09 -6.55271041e-03  3.77425960e-09  7.50397938e-01  3.77425960e-09  1.64952553e+00  3.77425960e-09  1.65267739e+00                                 
 5.38786555e-09  8.00161786e-01  5.38786555e-09  7.43615658e-01  5.38786555e-09  1.62417578e+00  5.38786555e-09  1.80000000e+00  5.38786555e-09  6.47669371e-03  5.38786555e-09  7.49564191e-01  5.38786555e-09  1.64890278e+00  5.38786555e-09  1.65279231e+00                                 
 8.61507743e-09  8.00155686e-01  8.61507743e-09  7.43593857e-01  8.61507743e-09  1.61837392e+00  8.61507743e-09  1.80000000e+00  8.61507743e-09 -6.42779630e-03  8.61507743e-09  7.47395885e-01  8.61507743e-09  1.64690941e+00  8.61507743e-09  1.65293529e+00                                 
 1.30942903e-08  8.00175981e-01  1.30942903e-08  7.43625211e-01  1.30942903e-08  1.60959346e+00  1.30942903e-08  1.80000000e+00  1.30942903e-08  6.41045558e-03  1.30942903e-08  7.46530673e-01  1.30942903e-08  1.64626258e+00  1.30942903e-08  1.65296152e+00                                 
 1.65690386e-08  8.00170231e-01  1.65690386e-08  7.43597087e-01  1.65690386e-08  1.60126469e+00  1.65690386e-08  1.80000000e+00  1.65690386e-08 -6.35724199e-03  1.65690386e-08  7.45762000e-01  1.65690386e-08  1.64548896e+00  1.65690386e-08  1.65289573e+00                                 
 2.05608092e-08  8.00182222e-01  2.05608092e-08  7.43625228e-01  2.05608092e-08  1.59208743e+00  2.05608092e-08  1.80000000e+00  2.05608092e-08  6.34619560e-03  2.05608092e-08  7.46020294e-01  2.05608092e-08  1.64581371e+00  2.05608092e-08  1.65279479e+00                                 
 2.47304447e-08  8.00179976e-01  2.47304447e-08  7.43597026e-01  2.47304447e-08  1.58094340e+00  2.47304447e-08  1.80000000e+00  2.47304447e-08 -6.29163518e-03  2.47304447e-08  7.45634710e-01  2.47304447e-08  1.64537033e+00  2.47304447e-08  1.65268302e+00                                 
 3.10134726e-08  8.00196140e-01  3.10134726e-08  7.43625367e-01  3.10134726e-08  1.56371322e+00  3.10134726e-08  1.80000000e+00  3.10134726e-08  6.29755280e-03  3.10134726e-08  7.46149620e-01  3.10134726e-08  1.64591445e+00  3.10134726e-08  1.65253905e+00                                 
 3.82389525e-08  8.00191974e-01  3.82389525e-08  7.43597069e-01  3.82389525e-08  1.54182288e+00  3.82389525e-08  1.80000000e+00  3.82389525e-08 -6.25323264e-03  3.82389525e-08  7.45913775e-01  3.82389525e-08  1.64560101e+00  3.82389525e-08  1.65240850e+00                                 
 4.96530926e-08  8.00201456e-01  4.96530926e-08  7.43625329e-01  4.96530926e-08  1.50704543e+00  4.96530926e-08  1.80000000e+00  4.96530926e-08  6.26953680e-03  4.96530926e-08  7.46510295e-01  4.96530926e-08  1.64621713e+00  4.96530926e-08  1.65228151e+00                                 
 6.48921798e-08  8.00192031e-01  6.48921798e-08  7.43596968e-01  6.48921798e-08  1.45912503e+00  6.48921798e-08  1.80000000e+00  6.48921798e-08 -6.23401261e-03  6.48921798e-08  7.46272749e-01  6.48921798e-08  1.64590568e+00  6.48921798e-08  1.65219925e+00                                 
 9.06519435e-08  8.00199365e-01  9.06519435e-08  7.43625270e-01  9.06519435e-08  1.37892015e+00  9.06519435e-08  1.80000000e+00  9.06519435e-08  6.25643529e-03  9.06519435e-08  7.46785405e-01  9.06519435e-08  1.64645335e+00  9.06519435e-08  1.65217299e+00                                 
 1.37275319e-07  8.00190363e-01  1.37275319e-07  7.43596937e-01  1.37275319e-07  1.23366894e+00  1.37275319e-07  1.80000000e+00  1.37275319e-07 -6.22637402e-03  1.37275319e-07  7.46435411e-01  1.37275319e-07  1.64604692e+00  1.37275319e-07  1.65219998e+00                                 
 2.30522071e-07  8.00198722e-01  2.30522071e-07  7.43625265e-01  2.30522071e-07  9.50771473e-01  2.30522071e-07  1.80000000e+00  2.30522071e-07  6.25260878e-03  2.30522071e-07  7.46831391e-01  2.30522071e-07  1.64649032e+00  2.30522071e-07  1.65223668e+00                                 
 3.12032961e-07  8.00190291e-01  3.12032961e-07  7.43596930e-01  3.12032961e-07  7.76688102e-01  3.12032961e-07  1.80000000e+00  3.12032961e-07 -6.22257415e-03  3.12032961e-07  7.46434059e-01  3.12032961e-07  1.64603880e+00  3.12032961e-07  1.65222946e+00                                 
 3.89260256e-07  8.00199100e-01  3.89260256e-07  7.43625312e-01  3.89260256e-07  7.42254524e-01  3.89260256e-07  1.80000000e+00  3.89260256e-07  6.25109822e-03  3.89260256e-07  7.46835309e-01  3.89260256e-07  1.64648675e+00  3.89260256e-07  1.65222991e+00                                 
 4.64157101e-07  8.00189354e-01  4.64157101e-07  7.43596843e-01  4.64157101e-07  7.52346925e-01  4.64157101e-07  1.80000000e+00  4.64157101e-07 -6.21921539e-03  4.64157101e-07  7.46432949e-01  4.64157101e-07  1.64603166e+00  4.64157101e-07  1.65222428e+00                                 
 5.10161806e-07  8.00199981e-01  5.10161806e-07  7.43625403e-01  5.10161806e-07  7.49463166e-01  5.10161806e-07  1.80000000e+00  5.10161806e-07  6.24678091e-03  5.10161806e-07  7.46833046e-01  5.10161806e-07  1.64647977e+00  5.10161806e-07  1.65222400e+00                                 
 5.55047338e-07  8.00189100e-01  5.55047338e-07  7.43596783e-01  5.55047338e-07  7.49638794e-01  5.55047338e-07  1.80000000e+00  5.55047338e-07 -6.21385722e-03  5.55047338e-07  7.46434455e-01  5.55047338e-07  1.64602928e+00  5.55047338e-07  1.65221997e+00                                 
 6.11245721e-07  8.00199827e-01  6.11245721e-07  7.43625427e-01  6.11245721e-07  7.49840218e-01  6.11245721e-07  1.80000000e+00  6.11245721e-07  6.24190394e-03  6.11245721e-07  7.46832646e-01  6.11245721e-07  1.64647527e+00  6.11245721e-07  1.65222010e+00                                 
 6.79728552e-07  8.00189292e-01  6.79728552e-07  7.43596773e-01  6.79728552e-07  7.49555177e-01  6.79728552e-07  1.80000000e+00  6.79728552e-07 -6.20992967e-03  6.79728552e-07  7.46434539e-01  6.79728552e-07  1.64602429e+00  6.79728552e-07  1.65221483e+00                                 
 8.15056669e-07  8.00199693e-01  8.15056669e-07  7.43625432e-01  8.15056669e-07  7.49870070e-01  8.15056669e-07  1.80000000e+00  8.15056669e-07  6.23919220e-03  8.15056669e-07  7.46832612e-01  8.15056669e-07  1.64646690e+00  8.15056669e-07  1.65221181e+00                                 
 1.08571290e-06  8.00189358e-01  1.08571290e-06  7.43596770e-01  1.08571290e-06  7.49545432e-01  1.08571290e-06  1.80000000e+00  1.08571290e-06 -6.20837260e-03  1.08571290e-06  7.46434552e-01  1.08571290e-06  1.64600774e+00  1.08571290e-06  1.65219828e+00                                 
 1.62702537e-06  8.00199660e-01  1.62702537e-06  7.43625433e-01  1.62702537e-06  7.49874000e-01  1.62702537e-06  1.80000000e+00  1.62702537e-06  6.23851742e-03  1.62702537e-06  7.46832605e-01  1.62702537e-06  1.64643373e+00  1.62702537e-06  1.65217872e+00                                 
 2.62702537e-06  8.00189374e-01  2.62702537e-06  7.43596770e-01  2.62702537e-06  7.49543603e-01  2.62702537e-06  1.80000000e+00  2.62702537e-06 -6.20809218e-03  2.62702537e-06  7.46434555e-01  2.62702537e-06  1.64594480e+00  2.62702537e-06  1.65213545e+00                                 
 3.62702537e-06  8.00199649e-01  3.62702537e-06  7.43625433e-01  3.62702537e-06  7.49875203e-01  3.62702537e-06  1.80000000e+00  3.62702537e-06  6.23832554e-03  3.62702537e-06  7.46832603e-01  3.62702537e-06  1.64635203e+00  3.62702537e-06  1.65209719e+00                                 
 4.62702537e-06  8.00189386e-01  4.62702537e-06  7.43596770e-01  4.62702537e-06  7.49542452e-01  4.62702537e-06  1.80000000e+00  4.62702537e-06 -6.20804648e-03  4.62702537e-06  7.46434557e-01  4.62702537e-06  1.64586311e+00  4.62702537e-06  1.65205392e+00                                 
 5.62702537e-06  8.00199637e-01  5.62702537e-06  7.43625433e-01  5.62702537e-06  7.49876302e-01  5.62702537e-06  1.80000000e+00  5.62702537e-06  6.23808279e-03  5.62702537e-06  7.46832600e-01  5.62702537e-06  1.64627036e+00  5.62702537e-06  1.65201568e+00                                 
 6.62702537e-06  8.00189397e-01  6.62702537e-06  7.43596770e-01  6.62702537e-06  7.49541395e-01  6.62702537e-06  1.80000000e+00  6.62702537e-06 -6.20780616e-03  6.62702537e-06  7.46434560e-01  6.62702537e-06  1.64578146e+00  6.62702537e-06  1.65197243e+00                                 
 7.62702537e-06  8.00199625e-01  7.62702537e-06  7.43625433e-01  7.62702537e-06  7.49877307e-01  7.62702537e-06  1.80000000e+00  7.62702537e-06  6.23784005e-03  7.62702537e-06  7.46832598e-01  7.62702537e-06  1.64618870e+00  7.62702537e-06  1.65193418e+00                                 
 8.62702537e-06  8.00189409e-01  8.62702537e-06  7.43596770e-01  8.62702537e-06  7.49540429e-01  8.62702537e-06  1.80000000e+00  8.62702537e-06 -6.20756585e-03  8.62702537e-06  7.46434562e-01  8.62702537e-06  1.64569980e+00  8.62702537e-06  1.65189093e+00                                 
 9.62702537e-06  8.00199614e-01  9.62702537e-06  7.43625434e-01  9.62702537e-06  7.49878225e-01  9.62702537e-06  1.80000000e+00  9.62702537e-06  6.23759731e-03  9.62702537e-06  7.46832596e-01  9.62702537e-06  1.64610707e+00  9.62702537e-06  1.65185271e+00                                 
 1.00005000e-05  8.00189430e-01  1.00005000e-05  7.43596769e-01  1.00005000e-05  7.49538867e-01  1.00005000e-05  1.80000000e+00  1.00005000e-05 -6.20716873e-03  1.00005000e-05  7.46434566e-01  1.00005000e-05  1.64564377e+00  1.00005000e-05  1.65183500e+00                                 
 1.00005500e-05  8.00160503e-01  1.00005500e-05  7.43419589e-01  1.00005500e-05  7.47870332e-01  1.00005500e-05  1.62000000e+00  1.00005500e-05 -6.24293030e-04  1.00005500e-05  7.45037082e-01  1.00005500e-05  1.64447035e+00  1.00005500e-05  1.65181923e+00                                 
 1.00006500e-05  8.00188960e-01  1.00006500e-05  7.43419997e-01  1.00006500e-05  7.48118524e-01  1.00006500e-05  1.26000000e+00  1.00006500e-05  4.76702533e-04  1.00006500e-05  7.44903943e-01  1.00006500e-05  1.64436358e+00  1.00006500e-05  1.65183877e+00                                 
 1.00008500e-05  8.00219715e-01  1.00008500e-05  7.43673943e-01  1.00008500e-05  7.50718542e-01  1.00008500e-05  5.40000000e-01  1.00008500e-05 -1.90503591e-03  1.00008500e-05  7.46857314e-01  1.00008500e-05  1.64543922e+00  1.00008500e-05  1.65184209e+00                                 
 1.00010000e-05  8.00186321e-01  1.00010000e-05  7.42392063e-01  1.00010000e-05  7.71651159e-01  1.00010000e-05  0.00000000e+00  1.00010000e-05  1.48821862e+00  1.00010000e-05  7.31381822e-01  1.00010000e-05  1.58197902e+00  1.00010000e-05  1.65123472e+00                                 
 1.00010265e-05  8.00202425e-01  1.00010265e-05  7.42101815e-01  1.00010265e-05  7.78684105e-01  1.00010265e-05  0.00000000e+00  1.00010265e-05  1.68458487e+00  1.00010265e-05  7.27670133e-01  1.00010265e-05  1.55579078e+00  1.00010265e-05  1.65110826e+00                                 
 1.00010796e-05  8.00196353e-01  1.00010796e-05  7.41589697e-01  1.00010796e-05  7.84418568e-01  1.00010796e-05  0.00000000e+00  1.00010796e-05  1.82394486e+00  1.00010796e-05  7.21595568e-01  1.00010796e-05  1.49882661e+00  1.00010796e-05  1.65102585e+00                                 
 1.00011857e-05  8.00189888e-01  1.00011857e-05  7.41582203e-01  1.00011857e-05  7.76142592e-01  1.00011857e-05  0.00000000e+00  1.00011857e-05  1.78520381e+00  1.00011857e-05  7.22270828e-01  1.00011857e-05  1.40049444e+00  1.00011857e-05  1.65153503e+00                                 
 1.00013236e-05  8.00198596e-01  1.00013236e-05  7.41996655e-01  1.00013236e-05  7.72341568e-01  1.00013236e-05  0.00000000e+00  1.00013236e-05  1.80825881e+00  1.00013236e-05  7.27870554e-01  1.00013236e-05  1.30432309e+00  1.00013236e-05  1.65188027e+00                                 
 1.00015440e-05  8.00189404e-01  1.00015440e-05  7.42239857e-01  1.00015440e-05  7.67131007e-01  1.00015440e-05  0.00000000e+00  1.00015440e-05  1.79312743e+00  1.00015440e-05  7.30231353e-01  1.00015440e-05  1.18007188e+00  1.00015440e-05  1.65203854e+00                                 
 1.00019342e-05  8.00198176e-01  1.00019342e-05  7.42860454e-01  1.00019342e-05  7.61926188e-01  1.00019342e-05  0.00000000e+00  1.00019342e-05  1.80535289e+00  1.00019342e-05  7.35763994e-01  1.00019342e-05  1.03098718e+00  1.00019342e-05  1.65212328e+00                                 
 1.00024376e-05  8.00189963e-01  1.00024376e-05  7.43218825e-01  1.00024376e-05  7.59118001e-01  1.00024376e-05  0.00000000e+00  1.00024376e-05  1.79500562e+00  1.00024376e-05  7.37793912e-01  1.00024376e-05  8.95554921e-01  1.00024376e-05  1.65183730e+00                                 
 1.00029780e-05  8.00198238e-01  1.00029780e-05  7.43746115e-01  1.00029780e-05  7.54727191e-01  1.00029780e-05  0.00000000e+00  1.00029780e-05  1.80413539e+00  1.00029780e-05  7.42904772e-01  1.00029780e-05  8.09245875e-01  1.00029780e-05  1.65128880e+00                                 
 1.00038053e-05  8.00190495e-01  1.00038053e-05  7.44012943e-01  1.00038053e-05  7.52276023e-01  1.00038053e-05  0.00000000e+00  1.00038053e-05  1.79605707e+00  1.00038053e-05  7.45769705e-01  1.00038053e-05  7.56126911e-01  1.00038053e-05  1.64997390e+00                                 
 1.00045591e-05  8.00198191e-01  1.00045591e-05  7.44127254e-01  1.00045591e-05  7.51662065e-01  1.00045591e-05  0.00000000e+00  1.00045591e-05  1.80356564e+00  1.00045591e-05  7.48011891e-01  1.00045591e-05  7.52948807e-01  1.00045591e-05  1.64840821e+00                                 
 1.00053701e-05  8.00190807e-01  1.00053701e-05  7.43941735e-01  1.00053701e-05  7.53936570e-01  1.00053701e-05  0.00000000e+00  1.00053701e-05  1.79670715e+00  1.00053701e-05  7.47084031e-01  1.00053701e-05  7.52369256e-01  1.00053701e-05  1.64640684e+00                                 
 1.00062316e-05  8.00198024e-01  1.00062316e-05  7.43940878e-01  1.00062316e-05  7.54560496e-01  1.00062316e-05  0.00000000e+00  1.00062316e-05  1.80301261e+00  1.00062316e-05  7.48215596e-01  1.00062316e-05  7.54835751e-01  1.00062316e-05  1.64421571e+00                                 
 1.00079544e-05  8.00191002e-01  1.00079544e-05  7.43739548e-01  1.00079544e-05  7.58722534e-01  1.00079544e-05  0.00000000e+00  1.00079544e-05  1.79709322e+00  1.00079544e-05  7.47266121e-01  1.00079544e-05  7.57058330e-01  1.00079544e-05  1.63968599e+00                                 
