 time            v(vbep)         time            v(vben)         time            v(vout)         time            v(vphi1)        time            v(vphi2)        time            v(vref)         time            v(voutc)        time            v(voutcc)       yes             currtemp       
 0.00000000e+00  8.28177305e-01  0.00000000e+00  7.77610019e-01  0.00000000e+00  1.70872787e+00  0.00000000e+00  0.00000000e+00  0.00000000e+00  1.80000000e+00  0.00000000e+00  7.81276872e-01  0.00000000e+00  1.70872787e+00  0.00000000e+00  1.71388816e+00  1.00000000e+00 -1.00000000e+01 
 1.00000000e-11  8.28199674e-01  1.00000000e-11  7.77677648e-01  1.00000000e-11  1.70952891e+00  1.00000000e-11  1.80000000e-02  1.00000000e-11  1.80024236e+00  1.00000000e-11  7.81793126e-01  1.00000000e-11  1.70918496e+00  1.00000000e-11  1.71387339e+00                                 
 2.00000000e-11  8.28205915e-01  2.00000000e-11  7.77720222e-01  2.00000000e-11  1.71006430e+00  2.00000000e-11  3.60000000e-02  2.00000000e-11  1.80034327e+00  2.00000000e-11  7.82182110e-01  2.00000000e-11  1.70954095e+00  2.00000000e-11  1.71386114e+00                                 
 4.00000000e-11  8.28205837e-01  4.00000000e-11  7.77775867e-01  4.00000000e-11  1.71076969e+00  4.00000000e-11  7.20000000e-02  4.00000000e-11  1.80038952e+00  4.00000000e-11  7.82756296e-01  4.00000000e-11  1.71008705e+00  4.00000000e-11  1.71384073e+00                                 
 8.00000000e-11  8.28194542e-01  8.00000000e-11  7.77808534e-01  8.00000000e-11  1.71108452e+00  8.00000000e-11  1.44000000e-01  8.00000000e-11  1.80019846e+00  8.00000000e-11  7.83212995e-01  8.00000000e-11  1.71059091e+00  8.00000000e-11  1.71381959e+00                                 
 1.60000000e-10  8.28191160e-01  1.60000000e-10  7.77808755e-01  1.60000000e-10  1.71084260e+00  1.60000000e-10  2.88000000e-01  1.60000000e-10  1.80001274e+00  1.60000000e-10  7.83275390e-01  1.60000000e-10  1.71076182e+00  1.60000000e-10  1.71380767e+00                                 
 3.20000000e-10  8.28188633e-01  3.20000000e-10  7.77808062e-01  3.20000000e-10  1.71053507e+00  3.20000000e-10  5.76000000e-01  3.20000000e-10  1.80001845e+00  3.20000000e-10  7.83234886e-01  3.20000000e-10  1.71069671e+00  3.20000000e-10  1.71380533e+00                                 
 6.40000000e-10  8.28117264e-01  6.40000000e-10  7.77587546e-01  6.40000000e-10  1.70455964e+00  6.40000000e-10  1.15200000e+00  6.40000000e-10  1.81349739e+00  6.40000000e-10  7.82645010e-01  6.40000000e-10  1.71540612e+00  6.40000000e-10  1.71383379e+00                                 
 9.95940247e-10  8.28540110e-01  9.95940247e-10  7.77621728e-01  9.95940247e-10  1.67467664e+00  9.95940247e-10  1.79269244e+00  9.95940247e-10  7.64773405e-02  9.95940247e-10  7.84064534e-01  9.95940247e-10  1.70489039e+00  9.95940247e-10  1.71371978e+00                                 
 1.00000000e-09  8.28554063e-01  1.00000000e-09  7.77643566e-01  1.00000000e-09  1.67441208e+00  1.00000000e-09  1.80000000e+00  1.00000000e-09  4.85976022e-02  1.00000000e-09  7.84384519e-01  1.00000000e-09  1.70477760e+00  1.00000000e-09  1.71372742e+00                                 
 1.00811951e-09  8.28536540e-01  1.00811951e-09  7.77649883e-01  1.00811951e-09  1.67430972e+00  1.00811951e-09  1.80000000e+00  1.00811951e-09  2.56551486e-02  1.00811951e-09  7.85105507e-01  1.00811951e-09  1.70510377e+00  1.00811951e-09  1.71375408e+00                                 
 1.02435852e-09  8.28523488e-01  1.02435852e-09  7.77699050e-01  1.02435852e-09  1.67462472e+00  1.02435852e-09  1.80000000e+00  1.02435852e-09  2.38172966e-03  1.02435852e-09  7.86627330e-01  1.02435852e-09  1.70614361e+00  1.02435852e-09  1.71380544e+00                                 
 1.05683654e-09  8.28576591e-01  1.05683654e-09  7.77769720e-01  1.05683654e-09  1.67508445e+00  1.05683654e-09  1.80000000e+00  1.05683654e-09  9.83663683e-04  1.05683654e-09  7.88416095e-01  1.05683654e-09  1.70773385e+00  1.05683654e-09  1.71383113e+00                                 
 1.12179259e-09  8.28719758e-01  1.12179259e-09  7.77708843e-01  1.12179259e-09  1.67303202e+00  1.12179259e-09  1.80000000e+00  1.12179259e-09  6.29417924e-04  1.12179259e-09  7.88832278e-01  1.12179259e-09  1.70810946e+00  1.12179259e-09  1.71379530e+00                                 
 1.25170468e-09  8.28894427e-01  1.25170468e-09  7.77634842e-01  1.25170468e-09  1.66803594e+00  1.25170468e-09  1.80000000e+00  1.25170468e-09  3.23732030e-04  1.25170468e-09  7.89406777e-01  1.25170468e-09  1.70858088e+00  1.25170468e-09  1.71381195e+00                                 
 1.51152886e-09  8.28958233e-01  1.51152886e-09  7.77615172e-01  1.51152886e-09  1.66350338e+00  1.51152886e-09  1.80000000e+00  1.51152886e-09  2.37558021e-05  1.51152886e-09  7.89721151e-01  1.51152886e-09  1.70883993e+00  1.51152886e-09  1.71380882e+00                                 
 1.77919123e-09  8.28795981e-01  1.77919123e-09  7.77603645e-01  1.77919123e-09  1.66468227e+00  1.77919123e-09  1.80000000e+00  1.77919123e-09 -3.21723732e-05  1.77919123e-09  7.89196539e-01  1.77919123e-09  1.70839355e+00  1.77919123e-09  1.71381524e+00                                 
 2.04358214e-09  8.28622888e-01  2.04358214e-09  7.77603451e-01  2.04358214e-09  1.66670863e+00  2.04358214e-09  1.80000000e+00  2.04358214e-09 -3.21950995e-05  2.04358214e-09  7.88760751e-01  2.04358214e-09  1.70802553e+00  2.04358214e-09  1.71381597e+00                                 
 2.38563645e-09  8.28426887e-01  2.38563645e-09  7.77597016e-01  2.38563645e-09  1.66924426e+00  2.38563645e-09  1.80000000e+00  2.38563645e-09 -3.86575199e-05  2.38563645e-09  7.88125621e-01  2.38563645e-09  1.70748732e+00  2.38563645e-09  1.71382098e+00                                 
 3.06974506e-09  8.28188436e-01  3.06974506e-09  7.77592653e-01  3.06974506e-09  1.67350076e+00  3.06974506e-09  1.80000000e+00  3.06974506e-09 -2.99777816e-05  3.06974506e-09  7.87002782e-01  3.06974506e-09  1.70653740e+00  3.06974506e-09  1.71382436e+00                                 
 4.43796229e-09  8.28039584e-01  4.43796229e-09  7.77589422e-01  4.43796229e-09  1.67941639e+00  4.43796229e-09  1.80000000e+00  4.43796229e-09 -3.39742112e-05  4.43796229e-09  7.85052436e-01  4.43796229e-09  1.70488594e+00  4.43796229e-09  1.71381725e+00                                 
 7.17439675e-09  8.28092452e-01  7.17439675e-09  7.77598605e-01  7.17439675e-09  1.68423959e+00  7.17439675e-09  1.80000000e+00  7.17439675e-09 -2.11531412e-05  7.17439675e-09  7.82572790e-01  7.17439675e-09  1.70278706e+00  7.17439675e-09  1.71372350e+00                                 
 9.55985117e-09  8.28129105e-01  9.55985117e-09  7.77604722e-01  9.55985117e-09  1.68416363e+00  9.55985117e-09  1.80000000e+00  9.55985117e-09 -2.41805636e-05  9.55985117e-09  7.81494736e-01  9.55985117e-09  1.70187278e+00  9.55985117e-09  1.71357107e+00                                 
 1.19140514e-08  8.28140462e-01  1.19140514e-08  7.77608291e-01  1.19140514e-08  1.68292678e+00  1.19140514e-08  1.80000000e+00  1.19140514e-08 -1.26396719e-05  1.19140514e-08  7.80998536e-01  1.19140514e-08  1.70145010e+00  1.19140514e-08  1.71337786e+00                                 
 1.44320193e-08  8.28134938e-01  1.44320193e-08  7.77609214e-01  1.44320193e-08  1.68201821e+00  1.44320193e-08  1.80000000e+00  1.44320193e-08 -1.27641775e-05  1.44320193e-08  7.80734254e-01  1.44320193e-08  1.70122064e+00  1.44320193e-08  1.71315129e+00                                 
 1.79912789e-08  8.28141022e-01  1.79912789e-08  7.77610202e-01  1.79912789e-08  1.68075889e+00  1.79912789e-08  1.80000000e+00  1.79912789e-08 -6.37242276e-07  1.79912789e-08  7.80635581e-01  1.79912789e-08  1.70112691e+00  1.79912789e-08  1.71282002e+00                                 
 2.23990458e-08  8.28160364e-01  2.23990458e-08  7.77609859e-01  2.23990458e-08  1.67698971e+00  2.23990458e-08  1.80000000e+00  2.23990458e-08 -5.87641935e-06  2.23990458e-08  7.80630876e-01  2.23990458e-08  1.70110701e+00  2.23990458e-08  1.71242097e+00                                 
 2.87226557e-08  8.28176499e-01  2.87226557e-08  7.77610335e-01  2.87226557e-08  1.66866352e+00  2.87226557e-08  1.80000000e+00  2.87226557e-08  2.22215362e-06  2.87226557e-08  7.80724832e-01  2.87226557e-08  1.70116458e+00  2.87226557e-08  1.71188595e+00                                 
 3.75565633e-08  8.28179406e-01  3.75565633e-08  7.77609993e-01  3.75565633e-08  1.65502016e+00  3.75565633e-08  1.80000000e+00  3.75565633e-08 -5.03611082e-06  3.75565633e-08  7.80824790e-01  3.75565633e-08  1.70122167e+00  3.75565633e-08  1.71122076e+00                                 
 5.15247240e-08  8.28180574e-01  5.15247240e-08  7.77610303e-01  5.15247240e-08  1.63214800e+00  5.15247240e-08  1.80000000e+00  5.15247240e-08  2.22828560e-06  5.15247240e-08  7.80974468e-01  5.15247240e-08  1.70131598e+00  5.15247240e-08  1.71033502e+00                                 
 7.33746973e-08  8.28177485e-01  7.33746973e-08  7.77609900e-01  7.33746973e-08  1.59478467e+00  7.33746973e-08  1.80000000e+00  7.33746973e-08 -5.17998515e-06  7.33746973e-08  7.81097059e-01  7.33746973e-08  1.70138529e+00  7.33746973e-08  1.70928021e+00                                 
 1.17074644e-07  8.28178800e-01  1.17074644e-07  7.77610211e-01  1.17074644e-07  1.51785411e+00  1.17074644e-07  1.80000000e+00  1.17074644e-07  2.13663813e-06  1.17074644e-07  7.81235071e-01  1.17074644e-07  1.70146663e+00  1.17074644e-07  1.70796993e+00                                 
 2.04474537e-07  8.28176245e-01  2.04474537e-07  7.77609860e-01  2.04474537e-07  1.36366385e+00  2.04474537e-07  1.80000000e+00  2.04474537e-07 -5.17010853e-06  2.04474537e-07  7.81272997e-01  2.04474537e-07  1.70147301e+00  2.04474537e-07  1.70692741e+00                                 
 3.35189908e-07  8.28178381e-01  3.35189908e-07  7.77610198e-01  3.35189908e-07  1.13774775e+00  3.35189908e-07  1.80000000e+00  3.35189908e-07  2.27759280e-06  3.35189908e-07  7.81282618e-01  3.35189908e-07  1.70147110e+00  3.35189908e-07  1.70665083e+00                                 
 5.27676933e-07  8.28176241e-01  5.27676933e-07  7.77609848e-01  5.27676933e-07  8.55446592e-01  5.27676933e-07  1.80000000e+00  5.27676933e-07 -4.38230446e-06  5.27676933e-07  7.81270084e-01  5.27676933e-07  1.70145143e+00  5.27676933e-07  1.70663733e+00                                 
 7.00002081e-07  8.28178441e-01  7.00002081e-07  7.77610196e-01  7.00002081e-07  7.72953167e-01  7.00002081e-07  1.80000000e+00  7.00002081e-07  3.92696003e-06  7.00002081e-07  7.81284458e-01  7.00002081e-07  1.70145680e+00  7.00002081e-07  1.70663274e+00                                 
 8.13219641e-07  8.28176010e-01  8.13219641e-07  7.77609835e-01  8.13219641e-07  7.87509943e-01  8.13219641e-07  1.80000000e+00  8.13219641e-07 -3.74925991e-06  8.13219641e-07  7.81269919e-01  8.13219641e-07  1.70143929e+00  8.13219641e-07  1.70662824e+00                                 
 8.69200420e-07  8.28178632e-01  8.69200420e-07  7.77610203e-01  8.69200420e-07  7.85499459e-01  8.69200420e-07  1.80000000e+00  8.69200420e-07  3.76460024e-06  8.69200420e-07  7.81283295e-01  8.69200420e-07  1.70144863e+00  8.69200420e-07  1.70662494e+00                                 
 9.45404942e-07  8.28176039e-01  9.45404942e-07  7.77609847e-01  9.45404942e-07  7.84919016e-01  9.45404942e-07  1.80000000e+00  9.45404942e-07 -3.71478891e-06  9.45404942e-07  7.81270394e-01  9.45404942e-07  1.70143411e+00  9.45404942e-07  1.70662231e+00                                 
 1.03515309e-06  8.28178538e-01  1.03515309e-06  7.77610202e-01  1.03515309e-06  7.85079185e-01  1.03515309e-06  1.80000000e+00  1.03515309e-06  3.77159416e-06  1.03515309e-06  7.81283405e-01  1.03515309e-06  1.70144173e+00  1.03515309e-06  1.70661797e+00                                 
 1.21464937e-06  8.28176089e-01  1.21464937e-06  7.77609855e-01  1.21464937e-06  7.84921321e-01  1.21464937e-06  1.80000000e+00  1.21464937e-06 -3.71469794e-06  1.21464937e-06  7.81270348e-01  1.21464937e-06  1.70142273e+00  1.21464937e-06  1.70661102e+00                                 
 1.47983944e-06  8.28178515e-01  1.47983944e-06  7.77610203e-01  1.47983944e-06  7.85081087e-01  1.47983944e-06  1.80000000e+00  1.47983944e-06  3.77271949e-06  1.47983944e-06  7.81283427e-01  1.47983944e-06  1.70142300e+00  1.47983944e-06  1.70659927e+00                                 
 2.01021956e-06  8.28176101e-01  2.01021956e-06  7.77609855e-01  2.01021956e-06  7.84936556e-01  2.01021956e-06  1.80000000e+00  2.01021956e-06 -3.71516817e-06  2.01021956e-06  7.81270339e-01  2.01021956e-06  1.70138917e+00  2.01021956e-06  1.70657755e+00                                 
 3.07097980e-06  8.28178510e-01  3.07097980e-06  7.77610206e-01  3.07097980e-06  7.85081398e-01  3.07097980e-06  1.80000000e+00  3.07097980e-06  3.77384050e-06  3.07097980e-06  7.81283436e-01  3.07097980e-06  1.70135589e+00  3.07097980e-06  1.70653233e+00                                 
 4.27097980e-06  8.28176105e-01  4.27097980e-06  7.77609849e-01  4.27097980e-06  7.84941757e-01  4.27097980e-06  1.80000000e+00  4.27097980e-06 -3.71639713e-06  4.27097980e-06  7.81270330e-01  4.27097980e-06  1.70129378e+00  4.27097980e-06  1.70648242e+00                                 
 5.47097980e-06  8.28178506e-01  5.47097980e-06  7.77610199e-01  5.47097980e-06  7.85083044e-01  5.47097980e-06  1.80000000e+00  5.47097980e-06  3.77239035e-06  5.47097980e-06  7.81283429e-01  5.47097980e-06  1.70125464e+00  5.47097980e-06  1.70643133e+00                                 
 6.00100000e-06  8.28176110e-01  6.00100000e-06  7.77609847e-01  6.00100000e-06  7.84944318e-01  6.00100000e-06  1.80000000e+00  6.00100000e-06 -3.71721972e-06  6.00100000e-06  7.81270324e-01  6.00100000e-06  1.70122082e+00  6.00100000e-06  1.70640964e+00                                 
 6.00110000e-06  8.28144473e-01  6.00110000e-06  7.77384291e-01  6.00110000e-06  7.82913160e-01  6.00110000e-06  1.62000000e+00  6.00110000e-06 -9.73782408e-05  6.00110000e-06  7.79438837e-01  6.00110000e-06  1.69967034e+00  6.00110000e-06  1.70639494e+00                                 
 6.00130000e-06  8.28174476e-01  6.00130000e-06  7.77441765e-01  6.00130000e-06  7.83624741e-01  6.00130000e-06  1.26000000e+00  6.00130000e-06  4.59690268e-05  6.00130000e-06  7.79740306e-01  6.00130000e-06  1.69992842e+00  6.00130000e-06  1.70641763e+00                                 
 6.00170000e-06  8.28205290e-01  6.00170000e-06  7.77500596e-01  6.00170000e-06  7.85940970e-01  6.00170000e-06  5.40000000e-01  6.00170000e-06  2.14300052e-01  6.00170000e-06  7.79039918e-01  6.00170000e-06  1.69140899e+00  6.00170000e-06  1.70635778e+00                                 
 6.00200000e-06  8.28171277e-01  6.00200000e-06  7.75249386e-01  6.00200000e-06  8.31204572e-01  6.00200000e-06  0.00000000e+00  6.00200000e-06  1.63827875e+00  6.00200000e-06  7.51623961e-01  6.00200000e-06  1.48594701e+00  6.00200000e-06  1.70554390e+00                                 
 6.00204885e-06  8.28178943e-01  6.00204885e-06  7.75235073e-01  6.00204885e-06  8.29497602e-01  6.00204885e-06  0.00000000e+00  6.00204885e-06  1.74544239e+00  6.00204885e-06  7.51316496e-01  6.00204885e-06  1.42847465e+00  6.00204885e-06  1.70580933e+00                                 
 6.00214654e-06  8.28176505e-01  6.00214654e-06  7.75277217e-01  6.00214654e-06  8.22127671e-01  6.00214654e-06  0.00000000e+00  6.00214654e-06  1.81454143e+00  6.00214654e-06  7.51878515e-01  6.00214654e-06  1.31843049e+00  6.00214654e-06  1.70630332e+00                                 
 6.00231502e-06  8.28175909e-01  6.00231502e-06  7.75829658e-01  6.00231502e-06  8.10142165e-01  6.00231502e-06  0.00000000e+00  6.00231502e-06  1.78977154e+00  6.00231502e-06  7.58504912e-01  6.00231502e-06  1.18091951e+00  6.00231502e-06  1.70648344e+00                                 
 6.00249007e-06  8.28176867e-01  6.00249007e-06  7.76164953e-01  6.00249007e-06  8.06425345e-01  6.00249007e-06  0.00000000e+00  6.00249007e-06  1.80487282e+00  6.00249007e-06  7.62141782e-01  6.00249007e-06  1.08689345e+00  6.00249007e-06  1.70655529e+00                                 
 6.00271744e-06  8.28175357e-01  6.00271744e-06  7.76487186e-01  6.00271744e-06  8.01532920e-01  6.00271744e-06  0.00000000e+00  6.00271744e-06  1.79617227e+00  6.00271744e-06  7.65184178e-01  6.00271744e-06  9.92677846e-01  6.00271744e-06  1.70664100e+00                                 
 6.00298096e-06  8.28177190e-01  6.00298096e-06  7.76884162e-01  6.00298096e-06  7.98667765e-01  6.00298096e-06  0.00000000e+00  6.00298096e-06  1.80214721e+00  6.00298096e-06  7.69008742e-01  6.00298096e-06  9.09175563e-01  6.00298096e-06  1.70671391e+00                                 
 6.00350801e-06  8.28175759e-01  6.00350801e-06  7.77568998e-01  6.00350801e-06  7.90395144e-01  6.00350801e-06  0.00000000e+00  6.00350801e-06  1.79772314e+00  6.00350801e-06  7.75680632e-01  6.00350801e-06  8.11643480e-01  6.00350801e-06  1.70670664e+00                                 
 6.00399834e-06  8.28177759e-01  6.00399834e-06  7.78042746e-01  6.00399834e-06  7.85977413e-01  6.00399834e-06  0.00000000e+00  6.00399834e-06  1.80181146e+00  6.00399834e-06  7.80696314e-01  6.00399834e-06  7.89696869e-01  6.00399834e-06  1.70651815e+00                                 
 6.00441471e-06  8.28176147e-01  6.00441471e-06  7.78069624e-01  6.00441471e-06  7.85622909e-01  6.00441471e-06  0.00000000e+00  6.00441471e-06  1.79856346e+00  6.00441471e-06  7.80933349e-01  6.00441471e-06  7.85927077e-01  6.00441471e-06  1.70619452e+00                                 
 6.00498083e-06  8.28178035e-01  6.00498083e-06  7.78106877e-01  6.00498083e-06  7.85414169e-01  6.00498083e-06  0.00000000e+00  6.00498083e-06  1.80122975e+00  6.00498083e-06  7.82017926e-01  6.00498083e-06  7.85888585e-01  6.00498083e-06  1.70562425e+00                                 
 6.00569995e-06  8.28176389e-01  6.00569995e-06  7.77983415e-01  6.00569995e-06  7.86182718e-01  6.00569995e-06  0.00000000e+00  6.00569995e-06  1.79892533e+00  6.00569995e-06  7.81564982e-01  6.00569995e-06  7.85622949e-01  6.00569995e-06  1.70476082e+00                                 
 6.00713820e-06  8.28178152e-01  6.00713820e-06  7.77891866e-01  6.00713820e-06  7.87206305e-01  6.00713820e-06  0.00000000e+00  6.00713820e-06  1.80101572e+00  6.00713820e-06  7.82252749e-01  6.00713820e-06  7.87426828e-01  6.00713820e-06  1.70288516e+00                                 
 6.01001470e-06  8.28176452e-01  6.01001470e-06  7.77707004e-01  6.01001470e-06  7.90360900e-01  6.01001470e-06  0.00000000e+00  6.01001470e-06  1.79902414e+00  6.01001470e-06  7.81789037e-01  6.01001470e-06  7.89729481e-01  6.01001470e-06  1.69895031e+00                                 
 6.01576770e-06  8.28178150e-01  6.01576770e-06  7.77654886e-01  6.01576770e-06  7.96444947e-01  6.01576770e-06  0.00000000e+00  6.01576770e-06  1.80096855e+00  6.01576770e-06  7.82262462e-01  6.01576770e-06  7.96604947e-01  6.01576770e-06  1.69112143e+00                                 
 6.02727369e-06  8.28176460e-01  6.02727369e-06  7.77577206e-01  6.02727369e-06  8.09496111e-01  6.02727369e-06  0.00000000e+00  6.02727369e-06  1.79904728e+00  6.02727369e-06  7.81544473e-01  6.02727369e-06  8.08754401e-01  6.02727369e-06  1.67543184e+00                                 
 6.04813309e-06  8.28178151e-01  6.04813309e-06  7.77629695e-01  6.04813309e-06  8.31429889e-01  6.04813309e-06  0.00000000e+00  6.04813309e-06  1.80095636e+00  6.04813309e-06  7.81844744e-01  6.04813309e-06  8.31667029e-01  6.04813309e-06  1.64582110e+00                                 
 6.08985187e-06  8.28176461e-01  6.08985187e-06  7.77587021e-01  6.08985187e-06  8.72102347e-01  6.08985187e-06  0.00000000e+00  6.08985187e-06  1.79905259e+00  6.08985187e-06  7.81098837e-01  6.08985187e-06  8.70769980e-01  6.08985187e-06  1.58382951e+00                                 
