 time            v(vbep)         time            v(vben)         time            v(vout)         time            v(vphi1)        time            v(vphi2)        time            v(vref)         yes             currtemp       
 0.00000000e+00  7.31640426e-01  0.00000000e+00  6.67105754e-01  0.00000000e+00  1.00860110e+00  0.00000000e+00  0.00000000e+00  0.00000000e+00  1.79864626e+00  0.00000000e+00  5.00000000e-01  1.00000000e+00  5.90000000e+01 
 5.00000000e-12  7.30985776e-01  5.00000000e-12  6.66781288e-01  5.00000000e-12  1.00934456e+00  5.00000000e-12  1.80000000e-02  5.00000000e-12  1.79905864e+00  5.00000000e-12  5.00000000e-01                                 
 1.00000000e-11  7.30489367e-01  1.00000000e-11  6.66560154e-01  1.00000000e-11  1.01001966e+00  1.00000000e-11  3.60000000e-02  1.00000000e-11  1.79936137e+00  1.00000000e-11  5.00000000e-01                                 
 2.00000000e-11  7.29691693e-01  2.00000000e-11  6.66159387e-01  2.00000000e-11  1.01126209e+00  2.00000000e-11  7.20000000e-02  2.00000000e-11  1.79980087e+00  2.00000000e-11  5.00000000e-01                                 
 4.00000000e-11  7.28651357e-01  4.00000000e-11  6.65405045e-01  4.00000000e-11  1.01324820e+00  4.00000000e-11  1.44000000e-01  4.00000000e-11  1.80009565e+00  4.00000000e-11  5.00000000e-01                                 
 8.00000000e-11  7.26952823e-01  8.00000000e-11  6.63904963e-01  8.00000000e-11  1.01591467e+00  8.00000000e-11  2.88000000e-01  8.00000000e-11  1.80008352e+00  8.00000000e-11  5.00000000e-01                                 
 1.60000000e-10  7.23669568e-01  1.60000000e-10  6.60974179e-01  1.60000000e-10  1.01842883e+00  1.60000000e-10  5.76000000e-01  1.60000000e-10  1.80000865e+00  1.60000000e-10  5.00000000e-01                                 
 3.20000000e-10  7.17381533e-01  3.20000000e-10  6.55345041e-01  3.20000000e-10  1.01318891e+00  3.20000000e-10  1.15200000e+00  3.20000000e-10  1.80043757e+00  3.20000000e-10  5.00000000e-01                                 
 5.00000000e-10  7.10798434e-01  5.00000000e-10  6.49421464e-01  5.00000000e-10  1.19249939e+00  5.00000000e-10  1.80000000e+00  5.00000000e-10  1.26587997e-01  5.00000000e-10  5.00000000e-01                                 
 5.21922723e-10  7.10040098e-01  5.21922723e-10  6.48738281e-01  5.21922723e-10  1.23455981e+00  5.21922723e-10  1.80000000e+00  5.21922723e-10  2.61401878e-02  5.21922723e-10  5.00000000e-01                                 
 5.65768170e-10  7.08534022e-01  5.65768170e-10  6.47377494e-01  5.65768170e-10  1.31234309e+00  5.65768170e-10  1.80000000e+00  5.65768170e-10 -1.18716783e-02  5.65768170e-10  5.00000000e-01                                 
 6.53459062e-10  7.05602058e-01  6.53459062e-10  6.44726508e-01  6.53459062e-10  1.44179346e+00  6.53459062e-10  1.80000000e+00  6.53459062e-10  9.80825523e-03  6.53459062e-10  5.00000000e-01                                 
 7.75681512e-10  7.01697358e-01  7.75681512e-10  6.41188822e-01  7.75681512e-10  1.58624388e+00  7.75681512e-10  1.80000000e+00  7.75681512e-10 -8.40378010e-03  7.75681512e-10  5.00000000e-01                                 
 9.69497133e-10  6.95910001e-01  9.69497133e-10  6.35931868e-01  9.69497133e-10  1.75373360e+00  9.69497133e-10  1.80000000e+00  9.69497133e-10  7.84847225e-03  9.69497133e-10  5.00000000e-01                                 
 1.35712838e-09  6.85638938e-01  1.35712838e-09  6.26564776e-01  1.35712838e-09  1.93536816e+00  1.35712838e-09  1.80000000e+00  1.35712838e-09 -7.38906348e-03  1.35712838e-09  5.00000000e-01                                 
 1.61583664e-09  6.79743669e-01  1.61583664e-09  6.21157421e-01  1.61583664e-09  1.98247662e+00  1.61583664e-09  1.80000000e+00  1.61583664e-09  7.04020057e-03  1.61583664e-09  5.00000000e-01                                 
 1.91684252e-09  6.73647581e-01  1.91684252e-09  6.15535203e-01  1.91684252e-09  2.00490187e+00  1.91684252e-09  1.80000000e+00  1.91684252e-09 -6.59208620e-03  1.91684252e-09  5.00000000e-01                                 
 2.23467660e-09  6.67958154e-01  2.23467660e-09  6.10264820e-01  2.23467660e-09  2.01155159e+00  2.23467660e-09  1.80000000e+00  2.23467660e-09  6.32502879e-03  2.23467660e-09  5.00000000e-01                                 
 2.74765244e-09  6.60056149e-01  2.74765244e-09  6.02896157e-01  2.74765244e-09  2.00992132e+00  2.74765244e-09  1.80000000e+00  2.74765244e-09 -6.07900688e-03  2.74765244e-09  5.00000000e-01                                 
 3.35517006e-09  6.52308614e-01  3.35517006e-09  5.95616069e-01  3.35517006e-09  2.00326993e+00  3.35517006e-09  1.80000000e+00  3.35517006e-09  5.96379111e-03  3.35517006e-09  5.00000000e-01                                 
 4.41517826e-09  6.41594785e-01  4.41517826e-09  5.85453476e-01  4.41517826e-09  1.99259751e+00  4.41517826e-09  1.80000000e+00  4.41517826e-09 -5.83499862e-03  4.41517826e-09  5.00000000e-01                                 
 5.99081711e-09  6.29878461e-01  5.99081711e-09  5.74213927e-01  5.99081711e-09  1.98105581e+00  5.99081711e-09  1.80000000e+00  5.99081711e-09  5.81671851e-03  5.99081711e-09  5.00000000e-01                                 
 9.14209481e-09  6.14009695e-01  9.14209481e-09  5.58807852e-01  9.14209481e-09  1.96565736e+00  9.14209481e-09  1.80000000e+00  9.14209481e-09 -5.74146678e-03  9.14209481e-09  5.00000000e-01                                 
 1.04495818e-08  6.09345996e-01  1.04495818e-08  5.54235589e-01  1.04495818e-08  1.96121220e+00  1.04495818e-08  1.80000000e+00  1.04495818e-08  5.70974777e-03  1.04495818e-08  5.00000000e-01                                 
 1.16154389e-08  6.05698664e-01  1.16154389e-08  5.50649601e-01  1.16154389e-08  1.95768138e+00  1.16154389e-08  1.80000000e+00  1.16154389e-08 -5.59847739e-03  1.16154389e-08  5.00000000e-01                                 
 1.28940743e-08  6.02126443e-01  1.28940743e-08  5.47131123e-01  1.28940743e-08  1.95432100e+00  1.28940743e-08  1.80000000e+00  1.28940743e-08  5.56033432e-03  1.28940743e-08  5.00000000e-01                                 
 1.49224264e-08  5.97169350e-01  1.49224264e-08  5.42237126e-01  1.49224264e-08  1.94955443e+00  1.49224264e-08  1.80000000e+00  1.49224264e-08 -5.48722784e-03  1.49224264e-08  5.00000000e-01                                 
 1.74130231e-08  5.91988876e-01  1.74130231e-08  5.37110951e-01  1.74130231e-08  1.94468494e+00  1.74130231e-08  1.80000000e+00  1.74130231e-08  5.48071312e-03  1.74130231e-08  5.00000000e-01                                 
 2.05200482e-08  5.86540259e-01  2.05200482e-08  5.31706840e-01  2.05200482e-08  1.93947374e+00  2.05200482e-08  1.80000000e+00  2.05200482e-08 -5.42453643e-03  2.05200482e-08  5.00000000e-01                                 
 2.47682296e-08  5.80359807e-01  2.47682296e-08  5.25564120e-01  2.47682296e-08  1.93367578e+00  2.47682296e-08  1.80000000e+00  2.47682296e-08  5.43241087e-03  2.47682296e-08  5.00000000e-01                                 
 3.08315225e-08  5.73243810e-01  3.08315225e-08  5.18476196e-01  3.08315225e-08  1.92690701e+00  3.08315225e-08  1.80000000e+00  3.08315225e-08 -5.38981159e-03  3.08315225e-08  5.00000000e-01                                 
 4.29581084e-08  5.62519816e-01  4.29581084e-08  5.07769716e-01  4.29581084e-08  1.91683508e+00  4.29581084e-08  1.80000000e+00  4.29581084e-08  5.41143885e-03  4.29581084e-08  5.00000000e-01                                 
 6.72112802e-08  5.48148636e-01  6.72112802e-08  4.93384233e-01  6.72112802e-08  1.90323538e+00  6.72112802e-08  1.80000000e+00  6.72112802e-08 -5.37881738e-03  6.72112802e-08  5.00000000e-01                                 
 9.09817980e-08  5.38798841e-01  9.09817980e-08  4.84002960e-01  9.09817980e-08  1.89448354e+00  9.09817980e-08  1.80000000e+00  9.09817980e-08  5.40456305e-03  9.09817980e-08  5.00000000e-01                                 
 1.27749009e-07  5.28920969e-01  1.27749009e-07  4.73956346e-01  1.27749009e-07  1.88659952e+00  1.27749009e-07  1.80000000e+00  1.27749009e-07 -5.37290758e-03  1.27749009e-07  5.00000000e-01                                 
 1.65303070e-07  5.22212098e-01  1.65303070e-07  4.66968519e-01  1.65303070e-07  1.88309692e+00  1.65303070e-07  1.80000000e+00  1.65303070e-07  5.40007865e-03  1.65303070e-07  5.00000000e-01                                 
 2.05106293e-07  5.16260918e-01  2.05106293e-07  4.60858441e-01  2.05106293e-07  1.87419408e+00  2.05106293e-07  1.80000000e+00  2.05106293e-07 -5.36851288e-03  2.05106293e-07  5.00000000e-01                                 
 2.37537317e-07  5.09412896e-01  2.37537317e-07  4.54489520e-01  2.37537317e-07  1.85418935e+00  2.37537317e-07  1.80000000e+00  2.37537317e-07  5.39526090e-03  2.37537317e-07  5.00000000e-01                                 
 2.65222179e-07  4.97681440e-01  2.65222179e-07  4.44499755e-01  2.65222179e-07  1.82338861e+00  2.65222179e-07  1.80000000e+00  2.65222179e-07 -5.36311143e-03  2.65222179e-07  5.00000000e-01                                 
 2.94430489e-07  4.87844432e-01  2.94430489e-07  4.36062955e-01  2.94430489e-07  1.77540643e+00  2.94430489e-07  1.80000000e+00  2.94430489e-07  5.38937898e-03  2.94430489e-07  5.00000000e-01                                 
 3.18540020e-07  4.84806046e-01  3.18540020e-07  4.33180067e-01  3.18540020e-07  1.74761820e+00  3.18540020e-07  1.80000000e+00  3.18540020e-07 -5.35651487e-03  3.18540020e-07  5.00000000e-01                                 
 3.43336031e-07  4.89698519e-01  3.43336031e-07  4.36589596e-01  3.43336031e-07  1.74496819e+00  3.43336031e-07  1.80000000e+00  3.43336031e-07  5.38279043e-03  3.43336031e-07  5.00000000e-01                                 
 3.61662218e-07  4.91075174e-01  3.61662218e-07  4.37344196e-01  3.61662218e-07  1.72807904e+00  3.61662218e-07  1.80000000e+00  3.61662218e-07 -5.34876438e-03  3.61662218e-07  5.00000000e-01                                 
 3.83181089e-07  4.88599059e-01  3.83181089e-07  4.35006293e-01  3.83181089e-07  1.70343411e+00  3.83181089e-07  1.80000000e+00  3.83181089e-07  5.37412635e-03  3.83181089e-07  5.00000000e-01                                 
 4.03237564e-07  4.86081850e-01  4.03237564e-07  4.32680736e-01  4.03237564e-07  1.68103606e+00  4.03237564e-07  1.80000000e+00  4.03237564e-07 -5.34077484e-03  4.03237564e-07  5.00000000e-01                                 
 4.25252067e-07  4.81414430e-01  4.25252067e-07  4.28639954e-01  4.25252067e-07  1.65480092e+00  4.25252067e-07  1.80000000e+00  4.25252067e-07  5.36603926e-03  4.25252067e-07  5.00000000e-01                                 
 4.65920421e-07  4.72403310e-01  4.65920421e-07  4.20925672e-01  4.65920421e-07  1.60503066e+00  4.65920421e-07  1.80000000e+00  4.65920421e-07 -5.33489027e-03  4.65920421e-07  5.00000000e-01                                 
 5.17264080e-07  4.60601325e-01  5.17264080e-07  4.10950403e-01  5.17264080e-07  1.54116713e+00  5.17264080e-07  1.80000000e+00  5.17264080e-07  5.36234246e-03  5.17264080e-07  5.00000000e-01                                 
 6.19951397e-07  4.38944652e-01  6.19951397e-07  3.92818237e-01  6.19951397e-07  1.41397681e+00  6.19951397e-07  1.80000000e+00  6.19951397e-07 -5.33253443e-03  6.19951397e-07  5.00000000e-01                                 
 7.17376046e-07  3.99624762e-01  7.17376046e-07  3.60973951e-01  7.17376046e-07  1.27375456e+00  7.17376046e-07  1.80000000e+00  7.17376046e-07  5.36049741e-03  7.17376046e-07  5.00000000e-01                                 
 8.15434323e-07  3.69665795e-01  8.15434323e-07  3.36832793e-01  8.15434323e-07  1.14152240e+00  8.15434323e-07  1.80000000e+00  8.15434323e-07 -5.33074961e-03  8.15434323e-07  5.00000000e-01                                 
 8.27662493e-07  3.67529680e-01  8.27662493e-07  3.35123210e-01  8.27662493e-07  1.12674007e+00  8.27662493e-07  1.80000000e+00  8.27662493e-07  1.17122874e-06  8.27662493e-07  5.00000000e-01                                 
 8.52118832e-07  3.72793212e-01  8.52118832e-07  3.39367067e-01  8.52118832e-07  1.10627251e+00  8.52118832e-07  1.80000000e+00  8.52118832e-07  4.73793066e-06  8.52118832e-07  5.00000000e-01                                 
 8.86794063e-07  4.69833929e-01  8.86794063e-07  4.17137298e-01  8.86794063e-07  1.16305154e+00  8.86794063e-07  1.80000000e+00  8.86794063e-07  3.65245193e-06  8.86794063e-07  5.00000000e-01                                 
 9.19950844e-07  6.65420860e-01  9.19950844e-07  6.00533764e-01  9.19950844e-07  1.31569649e+00  9.19950844e-07  1.80000000e+00  9.19950844e-07  9.17897154e-06  9.19950844e-07  5.00000000e-01                                 
 9.45230615e-07  7.21382030e-01  9.45230615e-07  6.56762023e-01  9.45230615e-07  1.34445508e+00  9.45230615e-07  1.80000000e+00  9.45230615e-07  2.63261949e-07  9.45230615e-07  5.00000000e-01                                 
 9.70096447e-07  7.48848076e-01  9.70096447e-07  6.80489924e-01  9.70096447e-07  1.34272562e+00  9.70096447e-07  1.80000000e+00  9.70096447e-07  6.93943568e-06  9.70096447e-07  5.00000000e-01                                 
 9.98586603e-07  7.55833465e-01  9.98586603e-07  6.86441265e-01  9.98586603e-07  1.32123187e+00  9.98586603e-07  1.80000000e+00  9.98586603e-07 -6.43818218e-07  9.98586603e-07  5.00000000e-01                                 
 1.02984811e-06  7.55438422e-01  1.02984811e-06  6.85985086e-01  1.02984811e-06  1.28603747e+00  1.02984811e-06  1.80000000e+00  1.02984811e-06  6.21934974e-06  1.02984811e-06  5.00000000e-01                                 
 1.07214844e-06  7.56395190e-01  1.07214844e-06  6.86884162e-01  1.07214844e-06  1.24388653e+00  1.07214844e-06  1.80000000e+00  1.07214844e-06 -4.00402901e-07  1.07214844e-06  5.00000000e-01                                 
 1.12239114e-06  7.55168397e-01  1.12239114e-06  6.85776793e-01  1.12239114e-06  1.18790182e+00  1.12239114e-06  1.80000000e+00  1.12239114e-06  6.03111883e-06  1.12239114e-06  5.00000000e-01                                 
 1.13138916e-06  7.54464600e-01  1.13138916e-06  6.85254159e-01  1.13138916e-06  1.17853235e+00  1.13138916e-06  1.80000000e+00  1.13138916e-06  2.85523309e-06  1.13138916e-06  5.00000000e-01                                 
 1.14938521e-06  7.47278837e-01  1.14938521e-06  6.79342550e-01  1.14938521e-06  1.15300318e+00  1.14938521e-06  1.80000000e+00  1.14938521e-06  2.30084912e-06  1.14938521e-06  5.00000000e-01                                 
 1.18537730e-06  7.24240500e-01  1.18537730e-06  6.59259546e-01  1.18537730e-06  1.09340832e+00  1.18537730e-06  1.80000000e+00  1.18537730e-06  2.43415198e-06  1.18537730e-06  5.00000000e-01                                 
 1.22159507e-06  7.20638621e-01  1.22159507e-06  6.55969187e-01  1.22159507e-06  1.05343630e+00  1.22159507e-06  1.80000000e+00  1.22159507e-06  3.09643267e-06  1.22159507e-06  5.00000000e-01                                 
 1.27423460e-06  7.38983672e-01  1.27423460e-06  6.72214425e-01  1.27423460e-06  1.02094863e+00  1.27423460e-06  1.80000000e+00  1.27423460e-06  3.15218590e-06  1.27423460e-06  5.00000000e-01                                 
 1.33824635e-06  7.44481410e-01  1.33824635e-06  6.76953577e-01  1.33824635e-06  9.72018346e-01  1.33824635e-06  1.80000000e+00  1.33824635e-06  2.71023616e-06  1.33824635e-06  5.00000000e-01                                 
 1.40492376e-06  7.33190932e-01  1.40492376e-06  6.67200886e-01  1.40492376e-06  9.14215654e-01  1.40492376e-06  1.80000000e+00  1.40492376e-06  2.74858713e-06  1.40492376e-06  5.00000000e-01                                 
 1.48946211e-06  7.34139881e-01  1.48946211e-06  6.68025775e-01  1.48946211e-06  8.61297624e-01  1.48946211e-06  1.80000000e+00  1.48946211e-06  2.98001446e-06  1.48946211e-06  5.00000000e-01                                 
 1.57948679e-06  7.42306998e-01  1.57948679e-06  6.75085752e-01  1.57948679e-06  8.14272810e-01  1.57948679e-06  1.80000000e+00  1.57948679e-06  2.87759489e-06  1.57948679e-06  5.00000000e-01                                 
 1.71038867e-06  7.33085159e-01  1.71038867e-06  6.67118904e-01  1.71038867e-06  7.31276677e-01  1.71038867e-06  1.80000000e+00  1.71038867e-06  2.73209379e-06  1.71038867e-06  5.00000000e-01                                 
 1.85363365e-06  7.38238656e-01  1.85363365e-06  6.71580076e-01  1.85363365e-06  6.58687294e-01  1.85363365e-06  1.80000000e+00  1.85363365e-06  3.03516385e-06  1.85363365e-06  5.00000000e-01                                 
 2.00889747e-06  7.38268518e-01  2.00889747e-06  6.71638165e-01  2.00889747e-06  5.80414400e-01  2.00889747e-06  1.80000000e+00  2.00889747e-06  2.68493993e-06  2.00889747e-06  5.00000000e-01                                 
 2.25219061e-06  7.34893293e-01  2.25219061e-06  6.68673603e-01  2.25219061e-06  5.04788254e-01  2.25219061e-06  1.80000000e+00  2.25219061e-06  3.00980392e-06  2.25219061e-06  5.00000000e-01                                 
 2.46203371e-06  7.39903373e-01  2.46203371e-06  6.73043322e-01  2.46203371e-06  4.91215593e-01  2.46203371e-06  1.80000000e+00  2.46203371e-06  2.74497044e-06  2.46203371e-06  5.00000000e-01                                 
 2.68274902e-06  7.34146284e-01  2.68274902e-06  6.68025892e-01  2.68274902e-06  4.97530350e-01  2.68274902e-06  1.80000000e+00  2.68274902e-06  2.93080098e-06  2.68274902e-06  5.00000000e-01                                 
 2.92407182e-06  7.39552809e-01  2.92407182e-06  6.72736608e-01  2.92407182e-06  5.06950232e-01  2.92407182e-06  1.80000000e+00  2.92407182e-06  2.81734295e-06  2.92407182e-06  5.00000000e-01                                 
 3.15808475e-06  7.35257734e-01  3.15808475e-06  6.69002153e-01  3.15808475e-06  4.93174536e-01  3.15808475e-06  1.80000000e+00  3.15808475e-06  2.87082916e-06  3.15808475e-06  5.00000000e-01                                 
 3.39549025e-06  7.38120669e-01  3.39549025e-06  6.71497649e-01  3.39549025e-06  5.03597434e-01  3.39549025e-06  1.80000000e+00  3.39549025e-06  2.86287367e-06  3.39549025e-06  5.00000000e-01                                 
 3.67242126e-06  7.36820362e-01  3.67242126e-06  6.70364449e-01  3.67242126e-06  4.98980173e-01  3.67242126e-06  1.80000000e+00  3.67242126e-06  2.84491753e-06  3.67242126e-06  5.00000000e-01                                 
 4.10535199e-06  7.37017534e-01  4.10535199e-06  6.70541377e-01  4.10535199e-06  5.00494037e-01  4.10535199e-06  1.80000000e+00  4.10535199e-06  2.87136385e-06  4.10535199e-06  5.00000000e-01                                 
 4.76046564e-06  7.37487419e-01  4.76046564e-06  6.70943172e-01  4.76046564e-06  5.00536801e-01  4.76046564e-06  1.80000000e+00  4.76046564e-06  2.84486435e-06  4.76046564e-06  5.00000000e-01                                 
 5.55704001e-06  7.36578236e-01  5.55704001e-06  6.70160055e-01  5.55704001e-06  4.99599046e-01  5.55704001e-06  1.80000000e+00  5.55704001e-06  2.86884655e-06  5.55704001e-06  5.00000000e-01                                 
 6.55704001e-06  7.37805906e-01  6.55704001e-06  6.71218826e-01  6.55704001e-06  5.01138420e-01  6.55704001e-06  1.80000000e+00  6.55704001e-06  2.84823153e-06  6.55704001e-06  5.00000000e-01                                 
 7.55704001e-06  7.36316302e-01  7.55704001e-06  6.69932613e-01  7.55704001e-06  4.99134136e-01  7.55704001e-06  1.80000000e+00  7.55704001e-06  2.86491086e-06  7.55704001e-06  5.00000000e-01                                 
 8.55704001e-06  7.38034056e-01  8.55704001e-06  6.71415970e-01  8.55704001e-06  5.01532368e-01  8.55704001e-06  1.80000000e+00  8.55704001e-06  2.85292286e-06  8.55704001e-06  5.00000000e-01                                 
 9.55704001e-06  7.36106701e-01  9.55704001e-06  6.69750635e-01  9.55704001e-06  4.98789982e-01  9.55704001e-06  1.80000000e+00  9.55704001e-06  2.85954450e-06  9.55704001e-06  5.00000000e-01                                 
