 time            v(vbep)         time            v(vben)         time            v(vout)         time            v(vphi1)        time            v(vphi2)        time            v(vref)         yes             currtemp       
 0.00000000e+00  7.21175136e-01  0.00000000e+00  6.69568604e-01  0.00000000e+00  9.95617659e-01  0.00000000e+00  0.00000000e+00  0.00000000e+00  1.79995404e+00  0.00000000e+00  6.69568604e-01  1.00000000e+00  9.00000000e+00 
 5.00000000e-12  7.21148145e-01  5.00000000e-12  6.69546223e-01  5.00000000e-12  9.96344428e-01  5.00000000e-12  1.80000000e-02  5.00000000e-12  1.80007822e+00  5.00000000e-12  6.69546223e-01                                 
 1.00000000e-11  7.21121872e-01  1.00000000e-11  6.69524420e-01  1.00000000e-11  9.97010256e-01  1.00000000e-11  3.60000000e-02  1.00000000e-11  1.80015283e+00  1.00000000e-11  6.69524420e-01                                 
 2.00000000e-11  7.21069769e-01  2.00000000e-11  6.69480983e-01  2.00000000e-11  9.98244196e-01  2.00000000e-11  7.20000000e-02  2.00000000e-11  1.80023816e+00  2.00000000e-11  6.69480983e-01                                 
 4.00000000e-11  7.20966324e-01  4.00000000e-11  6.69394450e-01  4.00000000e-11  1.00026516e+00  4.00000000e-11  1.44000000e-01  4.00000000e-11  1.80023656e+00  4.00000000e-11  6.69394450e-01                                 
 8.00000000e-11  7.20760462e-01  8.00000000e-11  6.69222171e-01  8.00000000e-11  1.00302304e+00  8.00000000e-11  2.88000000e-01  8.00000000e-11  1.80014471e+00  8.00000000e-11  6.69222171e-01                                 
 1.60000000e-10  7.20353209e-01  1.60000000e-10  6.68880765e-01  1.60000000e-10  1.00558773e+00  1.60000000e-10  5.76000000e-01  1.60000000e-10  1.80003643e+00  1.60000000e-10  6.68880765e-01                                 
 3.20000000e-10  7.19555540e-01  3.20000000e-10  6.68210112e-01  3.20000000e-10  9.96657105e-01  3.20000000e-10  1.15200000e+00  3.20000000e-10  1.80025379e+00  3.20000000e-10  6.68210112e-01                                 
 5.00000000e-10  7.18684063e-01  5.00000000e-10  6.67474317e-01  5.00000000e-10  1.08783490e+00  5.00000000e-10  1.80000000e+00  5.00000000e-10  1.34576385e-01  5.00000000e-10  6.67474317e-01                                 
 5.20835162e-10  7.18585088e-01  5.20835162e-10  6.67390533e-01  5.20835162e-10  1.11175781e+00  5.20835162e-10  1.80000000e+00  5.20835162e-10  3.16642679e-02  5.20835162e-10  6.67390533e-01                                 
 5.62505485e-10  7.18387812e-01  5.62505485e-10  6.67223446e-01  5.62505485e-10  1.15945457e+00  5.62505485e-10  1.80000000e+00  5.62505485e-10 -1.24485665e-02  5.62505485e-10  6.67223446e-01                                 
 6.45846131e-10  7.17997326e-01  6.45846131e-10  6.66892244e-01  6.45846131e-10  1.24659285e+00  6.45846131e-10  1.80000000e+00  6.45846131e-10  1.07773647e-02  6.45846131e-10  6.66892244e-01                                 
 7.65770132e-10  7.17444718e-01  7.65770132e-10  6.66422464e-01  7.65770132e-10  1.35932813e+00  7.65770132e-10  1.80000000e+00  7.65770132e-10 -8.36626963e-03  7.65770132e-10  6.66422464e-01                                 
 9.46573700e-10  7.16631435e-01  9.46573700e-10  6.65728827e-01  9.46573700e-10  1.50156586e+00  9.46573700e-10  1.80000000e+00  9.46573700e-10  8.35972282e-03  9.46573700e-10  6.65728827e-01                                 
 1.30818084e-09  7.15071514e-01  1.30818084e-09  6.64391078e-01  1.30818084e-09  1.68969731e+00  1.30818084e-09  1.80000000e+00  1.30818084e-09 -7.35100175e-03  1.30818084e-09  6.64391078e-01                                 
 1.71528642e-09  7.13413346e-01  1.71528642e-09  6.62958543e-01  1.71528642e-09  1.79063375e+00  1.71528642e-09  1.80000000e+00  1.71528642e-09  7.34210581e-03  1.71528642e-09  6.62958543e-01                                 
 2.07506886e-09  7.12026211e-01  2.07506886e-09  6.61751936e-01  2.07506886e-09  1.82477511e+00  2.07506886e-09  1.80000000e+00  2.07506886e-09 -6.82462681e-03  2.07506886e-09  6.61751936e-01                                 
 2.46520393e-09  7.10596678e-01  2.46520393e-09  6.60500865e-01  2.46520393e-09  1.83887800e+00  2.46520393e-09  1.80000000e+00  2.46520393e-09  6.58748458e-03  2.46520393e-09  6.60500865e-01                                 
 2.93915442e-09  7.08954102e-01  2.93915442e-09  6.59054123e-01  2.93915442e-09  1.84310237e+00  2.93915442e-09  1.80000000e+00  2.93915442e-09 -6.28955893e-03  2.93915442e-09  6.59054123e-01                                 
 3.64191361e-09  7.06685487e-01  3.64191361e-09  6.57040434e-01  3.64191361e-09  1.84318023e+00  3.64191361e-09  1.80000000e+00  3.64191361e-09  6.15789784e-03  3.64191361e-09  6.57040434e-01                                 
 4.65383178e-09  7.03716936e-01  4.65383178e-09  6.54379392e-01  4.65383178e-09  1.84016375e+00  4.65383178e-09  1.80000000e+00  4.65383178e-09 -6.02065969e-03  4.65383178e-09  6.54379392e-01                                 
 6.44833751e-09  6.99130895e-01  6.44833751e-09  6.50215139e-01  6.44833751e-09  1.83591950e+00  6.44833751e-09  1.80000000e+00  6.44833751e-09  5.98243534e-03  6.44833751e-09  6.50215139e-01                                 
 1.00244598e-08  6.91780756e-01  1.00244598e-08  6.43422164e-01  1.00244598e-08  1.82846056e+00  1.00244598e-08  1.80000000e+00  1.00244598e-08 -5.92752538e-03  1.00244598e-08  6.43422164e-01                                 
 1.62845277e-08  6.82350341e-01  1.62845277e-08  6.34521915e-01  1.62845277e-08  1.81778146e+00  1.62845277e-08  1.80000000e+00  1.62845277e-08  5.93572638e-03  1.62845277e-08  6.34521915e-01                                 
 1.74030309e-08  6.80998233e-01  1.74030309e-08  6.33228408e-01  1.74030309e-08  1.81577379e+00  1.74030309e-08  1.80000000e+00  1.74030309e-08 -5.81659701e-03  1.74030309e-08  6.33228408e-01                                 
 1.86335945e-08  6.79583846e-01  1.86335945e-08  6.31872542e-01  1.86335945e-08  1.81413678e+00  1.86335945e-08  1.80000000e+00  1.86335945e-08  5.75035042e-03  1.86335945e-08  6.31872542e-01                                 
 2.02172466e-08  6.77862259e-01  2.02172466e-08  6.30218964e-01  2.02172466e-08  1.81148146e+00  2.02172466e-08  1.80000000e+00  2.02172466e-08 -5.66343725e-03  2.02172466e-08  6.30218964e-01                                 
 2.33845510e-08  6.74688407e-01  2.33845510e-08  6.27164555e-01  2.33845510e-08  1.80703402e+00  2.33845510e-08  1.80000000e+00  2.33845510e-08  5.65051481e-03  2.33845510e-08  6.27164555e-01                                 
 2.89011743e-08  6.69774983e-01  2.89011743e-08  6.22435916e-01  2.89011743e-08  1.79934560e+00  2.89011743e-08  1.80000000e+00  2.89011743e-08 -5.61154312e-03  2.89011743e-08  6.22435916e-01                                 
 3.50255587e-08  6.64925137e-01  3.50255587e-08  6.17789875e-01  3.50255587e-08  1.79261773e+00  3.50255587e-08  1.80000000e+00  3.50255587e-08  5.61529524e-03  3.50255587e-08  6.17789875e-01                                 
 4.40527690e-08  6.58945073e-01  4.40527690e-08  6.12040471e-01  4.40527690e-08  1.78489099e+00  4.40527690e-08  1.80000000e+00  4.40527690e-08 -5.58276610e-03  4.40527690e-08  6.12040471e-01                                 
 5.43266494e-08  6.53060031e-01  5.43266494e-08  6.06413065e-01  5.43266494e-08  1.77248168e+00  5.43266494e-08  1.80000000e+00  5.43266494e-08  5.59369734e-03  5.43266494e-08  6.06413065e-01                                 
 6.75765872e-08  6.44411731e-01  6.75765872e-08  5.98530254e-01  6.75765872e-08  1.74777159e+00  6.75765872e-08  1.80000000e+00  6.75765872e-08 -5.56597118e-03  6.75765872e-08  5.98530254e-01                                 
 8.26621874e-08  6.36696593e-01  8.26621874e-08  5.91447286e-01  8.26621874e-08  1.71952261e+00  8.26621874e-08  1.80000000e+00  8.26621874e-08  5.57961630e-03  8.26621874e-08  5.91447286e-01                                 
 1.03863612e-07  6.27558602e-01  1.03863612e-07  5.83099126e-01  1.03863612e-07  1.68245925e+00  1.03863612e-07  1.80000000e+00  1.03863612e-07 -5.55415666e-03  1.03863612e-07  5.83099126e-01                                 
 1.35638762e-07  6.22350009e-01  1.35638762e-07  5.77639601e-01  1.35638762e-07  1.64676087e+00  1.35638762e-07  1.80000000e+00  1.35638762e-07  5.57292213e-03  1.35638762e-07  5.77639601e-01                                 
 1.67695546e-07  6.25485189e-01  1.67695546e-07  5.79006564e-01  1.67695546e-07  1.63557059e+00  1.67695546e-07  1.80000000e+00  1.67695546e-07 -5.54647029e-03  1.67695546e-07  5.79006564e-01                                 
 1.89809639e-07  6.22099881e-01  1.89809639e-07  5.75658146e-01  1.89809639e-07  1.61130516e+00  1.89809639e-07  1.80000000e+00  1.89809639e-07  5.56385469e-03  1.89809639e-07  5.75658146e-01                                 
 2.13144810e-07  6.14412036e-01  2.13144810e-07  5.68948739e-01  2.13144810e-07  1.58097922e+00  2.13144810e-07  1.80000000e+00  2.13144810e-07 -5.53821466e-03  2.13144810e-07  5.68948739e-01                                 
 2.38554552e-07  6.08166239e-01  2.38554552e-07  5.63407322e-01  2.38554552e-07  1.54825042e+00  2.38554552e-07  1.80000000e+00  2.38554552e-07  5.55578319e-03  2.38554552e-07  5.63407322e-01                                 
 2.65917953e-07  6.01251900e-01  2.65917953e-07  5.57370577e-01  2.65917953e-07  1.51546304e+00  2.65917953e-07  1.80000000e+00  2.65917953e-07 -5.53056534e-03  2.65917953e-07  5.57370577e-01                                 
 3.13536628e-07  5.88776096e-01  3.13536628e-07  5.46680436e-01  3.13536628e-07  1.45488704e+00  3.13536628e-07  1.80000000e+00  3.13536628e-07  5.54994310e-03  3.13536628e-07  5.46680436e-01                                 
 3.79237198e-07  5.75249030e-01  3.79237198e-07  5.35113050e-01  3.79237198e-07  1.37702967e+00  3.79237198e-07  1.80000000e+00  3.79237198e-07 -5.52674976e-03  3.79237198e-07  5.35113050e-01                                 
 4.50876353e-07  5.50451462e-01  4.50876353e-07  5.14810426e-01  4.50876353e-07  1.27964870e+00  4.50876353e-07  1.80000000e+00  4.50876353e-07  5.54660095e-03  4.50876353e-07  5.14810426e-01                                 
 5.24031139e-07  5.22590464e-01  5.24031139e-07  4.92307284e-01  5.24031139e-07  1.17956472e+00  5.24031139e-07  1.80000000e+00  5.24031139e-07 -5.52409268e-03  5.24031139e-07  4.92307284e-01                                 
 6.17101366e-07  5.05425505e-01  6.17101366e-07  4.78502968e-01  6.17101366e-07  1.06370895e+00  6.17101366e-07  1.80000000e+00  6.17101366e-07  5.54478036e-03  6.17101366e-07  4.78502968e-01                                 
 6.40368923e-07  5.43459946e-01  6.40368923e-07  5.08881705e-01  6.40368923e-07  1.07770649e+00  6.40368923e-07  1.80000000e+00  6.40368923e-07  3.14438145e-06  6.40368923e-07  5.08881705e-01                                 
 6.46185812e-07  5.56773945e-01  6.46185812e-07  5.19507552e-01  6.46185812e-07  1.08469824e+00  6.46185812e-07  1.80000000e+00  6.46185812e-07  3.53101843e-06  6.46185812e-07  5.19507552e-01                                 
 6.57819591e-07  5.95071122e-01  6.57819591e-07  5.50053722e-01  6.57819591e-07  1.10989155e+00  6.57819591e-07  1.80000000e+00  6.57819591e-07  6.27229579e-06  6.57819591e-07  5.50053722e-01                                 
 6.81087147e-07  7.26766466e-01  6.81087147e-07  6.68909675e-01  6.81087147e-07  1.21343419e+00  6.81087147e-07  1.80000000e+00  6.81087147e-07  1.30696955e-05  6.81087147e-07  6.68909675e-01                                 
 7.17059241e-07  7.91763404e-01  7.17059241e-07  7.37897726e-01  7.17059241e-07  1.24243822e+00  7.17059241e-07  1.80000000e+00  7.17059241e-07 -5.81535574e-06  7.17059241e-07  7.37897726e-01                                 
 7.54816041e-07  8.17875553e-01  7.54816041e-07  7.61556425e-01  7.54816041e-07  1.22536084e+00  7.54816041e-07  1.80000000e+00  7.54816041e-07  7.81314296e-06  7.54816041e-07  7.61556425e-01                                 
 8.08153400e-07  8.28979844e-01  8.08153400e-07  7.71108748e-01  8.08153400e-07  1.18494775e+00  8.08153400e-07  1.80000000e+00  8.08153400e-07 -7.60507325e-06  8.08153400e-07  7.71108748e-01                                 
 8.16413585e-07  8.29806600e-01  8.16413585e-07  7.71772516e-01  8.16413585e-07  1.17552384e+00  8.16413585e-07  1.80000000e+00  8.16413585e-07 -3.32162825e-07  8.16413585e-07  7.71772516e-01                                 
 8.32933954e-07  8.32725369e-01  8.32933954e-07  7.74169132e-01  8.32933954e-07  1.16082588e+00  8.32933954e-07  1.80000000e+00  8.32933954e-07  2.62195615e-07  8.32933954e-07  7.74169132e-01                                 
 8.65974693e-07  8.41815885e-01  8.65974693e-07  7.81473403e-01  8.65974693e-07  1.13547331e+00  8.65974693e-07  1.80000000e+00  8.65974693e-07  9.22005000e-08  8.65974693e-07  7.81473403e-01                                 
 9.01303496e-07  8.26726508e-01  9.01303496e-07  7.69292154e-01  9.01303496e-07  1.08476648e+00  9.01303496e-07  1.80000000e+00  9.01303496e-07 -2.50200385e-06  9.01303496e-07  7.69292154e-01                                 
 9.33484834e-07  7.95415224e-01  9.33484834e-07  7.41315601e-01  9.33484834e-07  1.02038580e+00  9.33484834e-07  1.80000000e+00  9.33484834e-07 -2.23345321e-06  9.33484834e-07  7.41315601e-01                                 
 9.73194607e-07  7.95209138e-01  9.73194607e-07  7.41096361e-01  9.73194607e-07  9.78698162e-01  9.73194607e-07  1.80000000e+00  9.73194607e-07  1.51104078e-06  9.73194607e-07  7.41096361e-01                                 
 1.01336278e-06  8.15060556e-01  1.01336278e-06  7.59102626e-01  1.01336278e-06  9.60533906e-01  1.01336278e-06  1.80000000e+00  1.01336278e-06 -6.11234081e-08  1.01336278e-06  7.59102626e-01                                 
 1.06687721e-06  8.22439696e-01  1.06687721e-06  7.65586035e-01  1.06687721e-06  9.22604966e-01  1.06687721e-06  1.80000000e+00  1.06687721e-06  1.41453166e-07  1.06687721e-06  7.65586035e-01                                 
 1.12506399e-06  8.05830668e-01  1.12506399e-06  7.50899714e-01  1.12506399e-06  8.67222490e-01  1.12506399e-06  1.80000000e+00  1.12506399e-06 -1.58133061e-06  1.12506399e-06  7.50899714e-01                                 
 1.18744632e-06  8.03683193e-01  1.18744632e-06  7.48931952e-01  1.18744632e-06  8.26165337e-01  1.18744632e-06  1.80000000e+00  1.18744632e-06  1.21097005e-06  1.18744632e-06  7.48931952e-01                                 
 1.25284870e-06  8.19509207e-01  1.25284870e-06  7.63011339e-01  1.25284870e-06  8.09716446e-01  1.25284870e-06  1.80000000e+00  1.25284870e-06 -3.63587420e-07  1.25284870e-06  7.63011339e-01                                 
 1.33491927e-06  8.10188018e-01  1.33491927e-06  7.54860158e-01  1.33491927e-06  7.75998632e-01  1.33491927e-06  1.80000000e+00  1.33491927e-06 -4.05600097e-08  1.33491927e-06  7.54860158e-01                                 
 1.41112333e-06  8.04470592e-01  1.41112333e-06  7.49622178e-01  1.41112333e-06  7.57141781e-01  1.41112333e-06  1.80000000e+00  1.41112333e-06 -1.28038865e-07  1.41112333e-06  7.49622178e-01                                 
 1.42409450e-06  8.07931695e-01  1.42409450e-06  7.52777438e-01  1.42409450e-06  7.58686423e-01  1.42409450e-06  1.80000000e+00  1.42409450e-06  5.93284624e-07  1.42409450e-06  7.52777438e-01                                 
 1.45003684e-06  8.13662430e-01  1.45003684e-06  7.57903454e-01  1.45003684e-06  7.60999997e-01  1.45003684e-06  1.80000000e+00  1.45003684e-06  4.23406828e-07  1.45003684e-06  7.57903454e-01                                 
 1.50192151e-06  8.15705627e-01  1.50192151e-06  7.59721411e-01  1.50192151e-06  7.57802076e-01  1.50192151e-06  1.80000000e+00  1.50192151e-06 -9.43999353e-08  1.50192151e-06  7.59721411e-01                                 
 1.60002508e-06  8.06990666e-01  1.60002508e-06  7.51947532e-01  1.60002508e-06  7.43070150e-01  1.60002508e-06  1.80000000e+00  1.60002508e-06 -5.05455918e-08  1.60002508e-06  7.51947532e-01                                 
 1.69696727e-06  8.12495042e-01  1.69696727e-06  7.56868280e-01  1.69696727e-06  7.45635997e-01  1.69696727e-06  1.80000000e+00  1.69696727e-06  4.90698642e-07  1.69696727e-06  7.56868280e-01                                 
 1.82577665e-06  8.12379658e-01  1.82577665e-06  7.56786349e-01  1.82577665e-06  7.55864115e-01  1.82577665e-06  1.80000000e+00  1.82577665e-06 -1.99599220e-07  1.82577665e-06  7.56786349e-01                                 
 1.97096691e-06  8.08728053e-01  1.97096691e-06  7.53502169e-01  1.97096691e-06  7.56330645e-01  1.97096691e-06  1.80000000e+00  1.97096691e-06  3.53257193e-07  1.97096691e-06  7.53502169e-01                                 
 2.11797561e-06  8.14256642e-01  2.11797561e-06  7.58442294e-01  2.11797561e-06  7.56686534e-01  2.11797561e-06  1.80000000e+00  2.11797561e-06  1.09544034e-08  2.11797561e-06  7.58442294e-01                                 
 2.28486348e-06  8.08649287e-01  2.28486348e-06  7.53439969e-01  2.28486348e-06  7.53908685e-01  2.28486348e-06  1.80000000e+00  2.28486348e-06  1.07924807e-07  2.28486348e-06  7.53439969e-01                                 
 2.45806061e-06  8.12911847e-01  2.45806061e-06  7.57245296e-01  2.45806061e-06  7.57491348e-01  2.45806061e-06  1.80000000e+00  2.45806061e-06  2.23046967e-07  2.45806061e-06  7.57245296e-01                                 
 2.69701850e-06  8.10424892e-01  2.69701850e-06  7.55037333e-01  2.69701850e-06  7.54858107e-01  2.69701850e-06  1.80000000e+00  2.69701850e-06 -2.46834450e-08  2.69701850e-06  7.55037333e-01                                 
 3.01366082e-06  8.11525737e-01  3.01366082e-06  7.56011367e-01  3.01366082e-06  7.56300953e-01  3.01366082e-06  1.80000000e+00  3.01366082e-06  2.76954008e-07  3.01366082e-06  7.56011367e-01                                 
 3.48506840e-06  8.11438780e-01  3.48506840e-06  7.55943354e-01  3.48506840e-06  7.55847963e-01  3.48506840e-06  1.80000000e+00  3.48506840e-06 -3.93281011e-08  3.48506840e-06  7.55943354e-01                                 
 4.22239139e-06  8.10898492e-01  4.22239139e-06  7.55451012e-01  4.22239139e-06  7.55663715e-01  4.22239139e-06  1.80000000e+00  4.22239139e-06  2.75138367e-07  4.22239139e-06  7.55451012e-01                                 
 5.18287973e-06  8.11849637e-01  5.18287973e-06  7.56309261e-01  5.18287973e-06  7.56270746e-01  5.18287973e-06  1.80000000e+00  5.18287973e-06 -3.28404615e-08  5.18287973e-06  7.56309261e-01                                 
 6.18287973e-06  8.10568640e-01  6.18287973e-06  7.55156415e-01  6.18287973e-06  7.55320068e-01  6.18287973e-06  1.80000000e+00  6.18287973e-06  2.66479583e-07  6.18287973e-06  7.55156415e-01                                 
 7.18287973e-06  8.12147659e-01  7.18287973e-06  7.56574181e-01  7.18287973e-06  7.56583180e-01  7.18287973e-06  1.80000000e+00  7.18287973e-06 -2.18794163e-08  7.18287973e-06  7.56574181e-01                                 
 8.18287973e-06  8.10288945e-01  8.18287973e-06  7.54906545e-01  8.18287973e-06  7.55023971e-01  8.18287973e-06  1.80000000e+00  8.18287973e-06  2.53261094e-07  8.18287973e-06  7.54906545e-01                                 
 9.18287973e-06  8.12397819e-01  9.18287973e-06  7.56796177e-01  9.18287973e-06  7.56849431e-01  9.18287973e-06  1.80000000e+00  9.18287973e-06 -6.58881130e-09  9.18287973e-06  7.56796177e-01                                 
 1.00005000e-05  8.10034633e-01  1.00005000e-05  7.54679376e-01  1.00005000e-05  7.54750567e-01  1.00005000e-05  1.80000000e+00  1.00005000e-05  2.33959264e-07  1.00005000e-05  7.54679376e-01                                 
 1.00005500e-05  8.10038192e-01  1.00005500e-05  7.54682628e-01  1.00005500e-05  7.47814348e-01  1.00005500e-05  1.62000000e+00  1.00005500e-05 -1.06611244e-04  1.00005500e-05  7.54682628e-01                                 
