 time            v(vbep)         time            v(vben)         time            v(vout)         time            v(vphi1)        time            v(vphi2)        time            v(vref)         time            v(voutc)        time            v(voutcc)       yes             currtemp       
 0.00000000e+00  7.70626315e-01  0.00000000e+00  7.11889751e-01  0.00000000e+00  1.59677496e+00  0.00000000e+00  0.00000000e+00  0.00000000e+00  1.80000000e+00  0.00000000e+00  7.14293002e-01  0.00000000e+00  1.59677495e+00  0.00000000e+00  1.60318777e+00  1.00000000e+00  2.90000000e+01 
 1.00000000e-11  7.70651211e-01  1.00000000e-11  7.11960904e-01  1.00000000e-11  1.59756161e+00  1.00000000e-11  1.80000000e-02  1.00000000e-11  1.80025035e+00  1.00000000e-11  7.14822753e-01  1.00000000e-11  1.59724399e+00  1.00000000e-11  1.60320177e+00                                 
 2.00000000e-11  7.70658022e-01  2.00000000e-11  7.12005613e-01  2.00000000e-11  1.59805147e+00  2.00000000e-11  3.60000000e-02  2.00000000e-11  1.80035038e+00  2.00000000e-11  7.15216914e-01  2.00000000e-11  1.59760063e+00  2.00000000e-11  1.60320718e+00                                 
 4.00000000e-11  7.70657907e-01  4.00000000e-11  7.12064584e-01  4.00000000e-11  1.59864996e+00  4.00000000e-11  7.20000000e-02  4.00000000e-11  1.80038977e+00  4.00000000e-11  7.15793747e-01  4.00000000e-11  1.59813460e+00  4.00000000e-11  1.60320925e+00                                 
 8.00000000e-11  7.70645957e-01  8.00000000e-11  7.12102492e-01  8.00000000e-11  1.59879579e+00  8.00000000e-11  1.44000000e-01  8.00000000e-11  1.80018726e+00  8.00000000e-11  7.16239740e-01  8.00000000e-11  1.59857746e+00  8.00000000e-11  1.60319864e+00                                 
 1.60000000e-10  7.70642956e-01  1.60000000e-10  7.12112735e-01  1.60000000e-10  1.59846877e+00  1.60000000e-10  2.88000000e-01  1.60000000e-10  1.80000422e+00  1.60000000e-10  7.16303656e-01  1.60000000e-10  1.59864077e+00  1.60000000e-10  1.60318874e+00                                 
 3.20000000e-10  7.70639351e-01  3.20000000e-10  7.12114007e-01  3.20000000e-10  1.59811193e+00  3.20000000e-10  5.76000000e-01  3.20000000e-10  1.79999516e+00  3.20000000e-10  7.16182882e-01  3.20000000e-10  1.59837983e+00  3.20000000e-10  1.60318507e+00                                 
 6.40000000e-10  7.70558078e-01  6.40000000e-10  7.11766875e-01  6.40000000e-10  1.59541635e+00  6.40000000e-10  1.15200000e+00  6.40000000e-10  1.81215198e+00  6.40000000e-10  7.14315629e-01  6.40000000e-10  1.60332738e+00  6.40000000e-10  1.60321424e+00                                 
 1.00000000e-09  7.71187805e-01  1.00000000e-09  7.11968645e-01  1.00000000e-09  1.56907940e+00  1.00000000e-09  1.80000000e+00  1.00000000e-09  8.90766556e-02  1.00000000e-09  7.23402413e-01  1.00000000e-09  1.60122791e+00  1.00000000e-09  1.60316017e+00                                 
 1.03625427e-09  7.71203038e-01  1.03625427e-09  7.12010878e-01  1.03625427e-09  1.56843102e+00  1.03625427e-09  1.80000000e+00  1.03625427e-09  1.95496321e-02  1.03625427e-09  7.26191207e-01  1.03625427e-09  1.60273274e+00  1.03625427e-09  1.60320304e+00                                 
 1.10876280e-09  7.71276045e-01  1.10876280e-09  7.12084856e-01  1.10876280e-09  1.56829489e+00  1.10876280e-09  1.80000000e+00  1.10876280e-09 -9.39197155e-03  1.10876280e-09  7.29809415e-01  1.10876280e-09  1.60554985e+00  1.10876280e-09  1.60323399e+00                                 
 1.25377987e-09  7.71399819e-01  1.25377987e-09  7.11958498e-01  1.25377987e-09  1.56649000e+00  1.25377987e-09  1.80000000e+00  1.25377987e-09  8.06368796e-03  1.25377987e-09  7.30077162e-01  1.25377987e-09  1.60601694e+00  1.25377987e-09  1.60318834e+00                                 
 1.47996849e-09  7.71408782e-01  1.47996849e-09  7.11931806e-01  1.47996849e-09  1.56508447e+00  1.47996849e-09  1.80000000e+00  1.47996849e-09 -6.34601280e-03  1.47996849e-09  7.29741194e-01  1.47996849e-09  1.60552840e+00  1.47996849e-09  1.60322051e+00                                 
 1.71900371e-09  7.71317902e-01  1.71900371e-09  7.11926379e-01  1.71900371e-09  1.56499360e+00  1.71900371e-09  1.80000000e+00  1.71900371e-09  5.53254595e-03  1.71900371e-09  7.28568261e-01  1.71900371e-09  1.60470624e+00  1.71900371e-09  1.60321917e+00                                 
 2.07008028e-09  7.71082623e-01  2.07008028e-09  7.11885871e-01  2.07008028e-09  1.56544572e+00  2.07008028e-09  1.80000000e+00  2.07008028e-09 -4.99833007e-03  2.07008028e-09  7.26886584e-01  2.07008028e-09  1.60311715e+00  2.07008028e-09  1.60328121e+00                                 
 2.43993294e-09  7.70891702e-01  2.43993294e-09  7.11892758e-01  2.43993294e-09  1.56628244e+00  2.43993294e-09  1.80000000e+00  2.43993294e-09  4.44457453e-03  2.43993294e-09  7.25406792e-01  2.43993294e-09  1.60199746e+00  2.43993294e-09  1.60332754e+00                                 
 3.06761095e-09  7.70670550e-01  3.06761095e-09  7.11853127e-01  3.06761095e-09  1.56653806e+00  3.06761095e-09  1.80000000e+00  3.06761095e-09 -4.27204063e-03  3.06761095e-09  7.22758292e-01  3.06761095e-09  1.59960713e+00  3.06761095e-09  1.60343354e+00                                 
 4.05944912e-09  7.70550170e-01  4.05944912e-09  7.11871850e-01  4.05944912e-09  1.56648785e+00  4.05944912e-09  1.80000000e+00  4.05944912e-09  4.03466327e-03  4.05944912e-09  7.19763211e-01  4.05944912e-09  1.59718012e+00  4.05944912e-09  1.60354821e+00                                 
 6.04312546e-09  7.70489058e-01  6.04312546e-09  7.11855908e-01  6.04312546e-09  1.56410953e+00  6.04312546e-09  1.80000000e+00  6.04312546e-09 -4.02614793e-03  6.04312546e-09  7.15510421e-01  6.04312546e-09  1.59343645e+00  6.04312546e-09  1.60363131e+00                                 
 7.82192584e-09  7.70476005e-01  7.82192584e-09  7.11892651e-01  7.82192584e-09  1.56266199e+00  7.82192584e-09  1.80000000e+00  7.82192584e-09  3.91080573e-03  7.82192584e-09  7.13958007e-01  7.82192584e-09  1.59223760e+00  7.82192584e-09  1.60352625e+00                                 
 9.37206487e-09  7.70484463e-01  9.37206487e-09  7.11871334e-01  9.37206487e-09  1.56010096e+00  9.37206487e-09  1.80000000e+00  9.37206487e-09 -3.83568688e-03  9.37206487e-09  7.13018929e-01  9.37206487e-09  1.59131897e+00  9.37206487e-09  1.60336097e+00                                 
 1.11079933e-08  7.70520125e-01  1.11079933e-08  7.11899960e-01  1.11079933e-08  1.55662742e+00  1.11079933e-08  1.80000000e+00  1.11079933e-08  3.74935293e-03  1.11079933e-08  7.12863969e-01  1.11079933e-08  1.59129917e+00  1.11079933e-08  1.60312276e+00                                 
 1.33900478e-08  7.70557638e-01  1.33900478e-08  7.11875293e-01  1.33900478e-08  1.54969169e+00  1.33900478e-08  1.80000000e+00  1.33900478e-08 -3.69232528e-03  1.33900478e-08  7.12532258e-01  1.33900478e-08  1.59089310e+00  1.33900478e-08  1.60279759e+00                                 
 1.62845642e-08  7.70601378e-01  1.62845642e-08  7.11902233e-01  1.62845642e-08  1.53970535e+00  1.62845642e-08  1.80000000e+00  1.62845642e-08  3.64804745e-03  1.62845642e-08  7.12846015e-01  1.62845642e-08  1.59125774e+00  1.62845642e-08  1.60238694e+00                                 
 2.00749801e-08  7.70622995e-01  2.00749801e-08  7.11876757e-01  2.00749801e-08  1.52439769e+00  2.00749801e-08  1.80000000e+00  2.00749801e-08 -3.61056962e-03  2.00749801e-08  7.12863764e-01  2.00749801e-08  1.59114098e+00  2.00749801e-08  1.60190716e+00                                 
 2.52856753e-08  7.70637628e-01  2.52856753e-08  7.11903133e-01  2.52856753e-08  1.50286005e+00  2.52856753e-08  1.80000000e+00  2.52856753e-08  3.58933614e-03  2.52856753e-08  7.13395284e-01  2.52856753e-08  1.59168064e+00  2.52856753e-08  1.60134376e+00                                 
 3.34296582e-08  7.70632383e-01  3.34296582e-08  7.11876982e-01  3.34296582e-08  1.46777962e+00  3.34296582e-08  1.80000000e+00  3.34296582e-08 -3.56990788e-03  3.34296582e-08  7.13534680e-01  3.34296582e-08  1.59166286e+00  3.34296582e-08  1.60067064e+00                                 
 4.65612884e-08  7.70632689e-01  4.65612884e-08  7.11902886e-01  4.65612884e-08  1.41155573e+00  4.65612884e-08  1.80000000e+00  4.65612884e-08  3.56361067e-03  4.65612884e-08  7.14092083e-01  4.65612884e-08  1.59222329e+00  4.65612884e-08  1.59994045e+00                                 
 7.28245488e-08  7.70625180e-01  7.28245488e-08  7.11876708e-01  7.28245488e-08  1.29837768e+00  7.28245488e-08  1.80000000e+00  7.28245488e-08 -3.55535665e-03  7.28245488e-08  7.14127758e-01  7.28245488e-08  1.59212482e+00  7.28245488e-08  1.59920830e+00                                 
 1.15155118e-07  7.70628490e-01  1.15155118e-07  7.11902787e-01  1.15155118e-07  1.11809547e+00  1.15155118e-07  1.80000000e+00  1.15155118e-07  3.55591177e-03  1.15155118e-07  7.14406814e-01  1.15155118e-07  1.59246441e+00  1.15155118e-07  1.59883570e+00                                 
 1.71622843e-07  7.70624002e-01  1.71622843e-07  7.11876686e-01  1.71622843e-07  8.85676956e-01  1.71622843e-07  1.80000000e+00  1.71622843e-07 -3.54919048e-03  1.71622843e-07  7.14180194e-01  1.71622843e-07  1.59215776e+00  1.71622843e-07  1.59874425e+00                                 
 2.33215305e-07  7.70629385e-01  2.33215305e-07  7.11902825e-01  2.33215305e-07  7.33116573e-01  2.33215305e-07  1.80000000e+00  2.33215305e-07  3.55566199e-03  2.33215305e-07  7.14404068e-01  2.33215305e-07  1.59245494e+00  2.33215305e-07  1.59872606e+00                                 
 2.82121033e-07  7.70622931e-01  2.82121033e-07  7.11876728e-01  2.82121033e-07  7.14305774e-01  2.82121033e-07  1.80000000e+00  2.82121033e-07 -3.54152490e-03  2.82121033e-07  7.14185805e-01  2.82121033e-07  1.59215787e+00  2.82121033e-07  1.59872752e+00                                 
 3.16291173e-07  7.70628770e-01  3.16291173e-07  7.11902636e-01  3.16291173e-07  7.16978091e-01  3.16291173e-07  1.80000000e+00  3.16291173e-07  3.55002791e-03  3.16291173e-07  7.14401387e-01  3.16291173e-07  1.59244951e+00  3.16291173e-07  1.59872341e+00                                 
 3.55158641e-07  7.70624089e-01  3.55158641e-07  7.11876909e-01  3.55158641e-07  7.16501434e-01  3.55158641e-07  1.80000000e+00  3.55158641e-07 -3.53485354e-03  3.55158641e-07  7.14183972e-01  3.55158641e-07  1.59215367e+00  3.55158641e-07  1.59872343e+00                                 
 3.97420899e-07  7.70628444e-01  3.97420899e-07  7.11902559e-01  3.97420899e-07  7.16952317e-01  3.97420899e-07  1.80000000e+00  3.97420899e-07  3.54395416e-03  3.97420899e-07  7.14402301e-01  3.97420899e-07  1.59244717e+00  3.97420899e-07  1.59871960e+00                                 
 4.75704714e-07  7.70624215e-01  4.75704714e-07  7.11876940e-01  4.75704714e-07  7.16539965e-01  4.75704714e-07  1.80000000e+00  4.75704714e-07 -3.53039323e-03  4.75704714e-07  7.14183527e-01  4.75704714e-07  1.59214891e+00  4.75704714e-07  1.59871882e+00                                 
 6.09381271e-07  7.70628404e-01  6.09381271e-07  7.11902549e-01  6.09381271e-07  7.16935000e-01  6.09381271e-07  1.80000000e+00  6.09381271e-07  3.54146797e-03  6.09381271e-07  7.14402505e-01  6.09381271e-07  1.59243947e+00  6.09381271e-07  1.59871172e+00                                 
 8.30339614e-07  7.70624232e-01  8.30339614e-07  7.11876945e-01  8.30339614e-07  7.16549228e-01  8.30339614e-07  1.80000000e+00  8.30339614e-07 -3.52893772e-03  8.30339614e-07  7.14183418e-01  8.30339614e-07  1.59213573e+00  8.30339614e-07  1.59870575e+00                                 
 1.27107888e-06  7.70628396e-01  1.27107888e-06  7.11902547e-01  1.27107888e-06  7.16930039e-01  1.27107888e-06  1.80000000e+00  1.27107888e-06  3.54063400e-03  1.27107888e-06  7.14402564e-01  1.27107888e-06  1.59241506e+00  1.27107888e-06  1.59868730e+00                                 
 2.04003083e-06  7.70624235e-01  2.04003083e-06  7.11876946e-01  2.04003083e-06  7.16551745e-01  2.04003083e-06  1.80000000e+00  2.04003083e-06 -3.52850038e-03  2.04003083e-06  7.14183389e-01  2.04003083e-06  1.59209104e+00  2.04003083e-06  1.59866114e+00                                 
 3.24003083e-06  7.70628394e-01  3.24003083e-06  7.11902546e-01  3.24003083e-06  7.16928559e-01  3.24003083e-06  1.80000000e+00  3.24003083e-06  3.54037349e-03  3.24003083e-06  7.14402581e-01  3.24003083e-06  1.59234243e+00  3.24003083e-06  1.59861476e+00                                 
 4.44003083e-06  7.70624236e-01  4.44003083e-06  7.11876946e-01  4.44003083e-06  7.16552885e-01  4.44003083e-06  1.80000000e+00  4.44003083e-06 -3.52831327e-03  4.44003083e-06  7.14183374e-01  4.44003083e-06  1.59200252e+00  4.44003083e-06  1.59857277e+00                                 
 5.64003083e-06  7.70628393e-01  5.64003083e-06  7.11902546e-01  5.64003083e-06  7.16927427e-01  5.64003083e-06  1.80000000e+00  5.64003083e-06  3.54016983e-03  5.64003083e-06  7.14402594e-01  5.64003083e-06  1.59225387e+00  5.64003083e-06  1.59852633e+00                                 
 6.00100000e-06  7.70624239e-01  6.00100000e-06  7.11876947e-01  6.00100000e-06  7.16555278e-01  6.00100000e-06  1.80000000e+00  6.00100000e-06 -3.52787942e-03  6.00100000e-06  7.14183346e-01  6.00100000e-06  1.59194488e+00  6.00100000e-06  1.59851523e+00                                 
 6.00110000e-06  7.70583882e-01  6.00110000e-06  7.11648375e-01  6.00110000e-06  7.14798041e-01  6.00110000e-06  1.62000000e+00  6.00110000e-06 -3.76290005e-04  6.00110000e-06  7.12646373e-01  6.00110000e-06  1.59068491e+00  6.00110000e-06  1.59850361e+00                                 
 6.00130000e-06  7.70616727e-01  6.00130000e-06  7.11661018e-01  6.00130000e-06  7.15170096e-01  6.00130000e-06  1.26000000e+00  6.00130000e-06  2.56247242e-04  6.00130000e-06  7.12614521e-01  6.00130000e-06  1.59066762e+00  6.00130000e-06  1.59851925e+00                                 
 6.00170000e-06  7.70669526e-01  6.00170000e-06  7.11267848e-01  6.00170000e-06  7.31911100e-01  6.00170000e-06  5.40000000e-01  6.00170000e-06  1.49619128e+00  6.00170000e-06  7.06557108e-01  6.00170000e-06  1.51417063e+00  6.00170000e-06  1.59822111e+00                                 
 6.00200000e-06  7.70611469e-01  6.00200000e-06  7.08924128e-01  6.00200000e-06  7.61613250e-01  6.00200000e-06  0.00000000e+00  6.00200000e-06  1.86862160e+00  6.00200000e-06  6.81727463e-01  6.00200000e-06  1.18942451e+00  6.00200000e-06  1.59803925e+00                                 
 6.00203697e-06  7.70623559e-01  6.00203697e-06  7.08970103e-01  6.00203697e-06  7.56497096e-01  6.00203697e-06  0.00000000e+00  6.00203697e-06  1.82638555e+00  6.00203697e-06  6.82528298e-01  6.00203697e-06  1.14502261e+00  6.00203697e-06  1.59840173e+00                                 
 6.00211092e-06  7.70628918e-01  6.00211092e-06  7.09192468e-01  6.00211092e-06  7.48784960e-01  6.00211092e-06  0.00000000e+00  6.00211092e-06  1.79258314e+00  6.00211092e-06  6.85676315e-01  6.00211092e-06  1.07017660e+00  6.00211092e-06  1.59871794e+00                                 
 6.00225881e-06  7.70624797e-01  6.00225881e-06  7.09496375e-01  6.00225881e-06  7.44770444e-01  6.00225881e-06  0.00000000e+00  6.00225881e-06  1.80222211e+00  6.00225881e-06  6.89525463e-01  6.00225881e-06  9.54727848e-01  6.00225881e-06  1.59865824e+00                                 
 6.00246376e-06  7.70626280e-01  6.00246376e-06  7.09990481e-01  6.00246376e-06  7.37925423e-01  6.00246376e-06  0.00000000e+00  6.00246376e-06  1.79752984e+00  6.00246376e-06  6.94296029e-01  6.00246376e-06  8.35450033e-01  6.00246376e-06  1.59879393e+00                                 
 6.00268091e-06  7.70624596e-01  6.00268091e-06  7.10898863e-01  6.00268091e-06  7.28165787e-01  6.00268091e-06  0.00000000e+00  6.00268091e-06  1.80077313e+00  6.00268091e-06  7.03102495e-01  6.00268091e-06  7.66079896e-01  6.00268091e-06  1.59877284e+00                                 
 6.00295714e-06  7.70625905e-01  6.00295714e-06  7.11704213e-01  6.00295714e-06  7.21121113e-01  6.00295714e-06  0.00000000e+00  6.00295714e-06  1.79933638e+00  6.00295714e-06  7.09746568e-01  6.00295714e-06  7.30489550e-01  6.00295714e-06  1.59866423e+00                                 
 6.00324136e-06  7.70625086e-01  6.00324136e-06  7.12190179e-01  6.00324136e-06  7.18017520e-01  6.00324136e-06  0.00000000e+00  6.00324136e-06  1.80047537e+00  6.00324136e-06  7.13360017e-01  6.00324136e-06  7.21180742e-01  6.00324136e-06  1.59818858e+00                                 
 6.00355876e-06  7.70626206e-01  6.00355876e-06  7.12366903e-01  6.00355876e-06  7.17779711e-01  6.00355876e-06  0.00000000e+00  6.00355876e-06  1.79972171e+00  6.00355876e-06  7.14358589e-01  6.00355876e-06  7.18088441e-01  6.00355876e-06  1.59745787e+00                                 
 6.00396976e-06  7.70625630e-01  6.00396976e-06  7.12444387e-01  6.00396976e-06  7.17732167e-01  6.00396976e-06  0.00000000e+00  6.00396976e-06  1.80022026e+00  6.00396976e-06  7.15152409e-01  6.00396976e-06  7.17956308e-01  6.00396976e-06  1.59622751e+00                                 
 6.00469317e-06  7.70626576e-01  6.00469317e-06  7.12387033e-01  6.00469317e-06  7.19391045e-01  6.00469317e-06  0.00000000e+00  6.00469317e-06  1.79984337e+00  6.00469317e-06  7.15253693e-01  6.00469317e-06  7.18860145e-01  6.00469317e-06  1.59382359e+00                                 
 6.00589674e-06  7.70625956e-01  6.00589674e-06  7.12292092e-01  6.00589674e-06  7.21656824e-01  6.00589674e-06  0.00000000e+00  6.00589674e-06  1.80015550e+00  6.00589674e-06  7.15578369e-01  6.00589674e-06  7.21617614e-01  6.00589674e-06  1.58941049e+00                                 
 6.00830388e-06  7.70626658e-01  6.00830388e-06  7.12109772e-01  6.00830388e-06  7.27595974e-01  6.00830388e-06  0.00000000e+00  6.00830388e-06  1.79987501e+00  6.00830388e-06  7.15434597e-01  6.00830388e-06  7.26983118e-01  6.00830388e-06  1.58022905e+00                                 
 6.01311816e-06  7.70625961e-01  6.01311816e-06  7.11929340e-01  6.01311816e-06  7.38695709e-01  6.01311816e-06  0.00000000e+00  6.01311816e-06  1.80013968e+00  6.01311816e-06  7.15371421e-01  6.01311816e-06  7.38601544e-01  6.01311816e-06  1.56171826e+00                                 
 6.02274672e-06  7.70626657e-01  6.02274672e-06  7.11851689e-01  6.02274672e-06  7.61228278e-01  6.02274672e-06  0.00000000e+00  6.02274672e-06  1.79988175e+00  6.02274672e-06  7.14815719e-01  6.02274672e-06  7.60529295e-01  6.02274672e-06  1.52600401e+00                                 
 6.04200384e-06  7.70625968e-01  6.04200384e-06  7.11897505e-01  6.04200384e-06  8.02355128e-01  6.04200384e-06  0.00000000e+00  6.04200384e-06  1.80013491e+00  6.04200384e-06  7.14553976e-01  6.04200384e-06  8.02278688e-01  6.04200384e-06  1.45950887e+00                                 
 6.08051808e-06  7.70626660e-01  6.08051808e-06  7.11878125e-01  6.08051808e-06  8.74962756e-01  6.08051808e-06  0.00000000e+00  6.08051808e-06  1.79988092e+00  6.08051808e-06  7.14200197e-01  6.08051808e-06  8.73581039e-01  6.08051808e-06  1.34162027e+00                                 
 6.15754655e-06  7.70625970e-01  6.15754655e-06  7.11900874e-01  6.15754655e-06  9.84276511e-01  6.15754655e-06  0.00000000e+00  6.15754655e-06  1.80012958e+00  6.15754655e-06  7.14365262e-01  6.15754655e-06  9.84677950e-01  6.15754655e-06  1.14005105e+00                                 
 6.25704763e-06  7.70626660e-01  6.25704763e-06  7.11879044e-01  6.25704763e-06  1.07562255e+00  6.25704763e-06  0.00000000e+00  6.25704763e-06  1.79987647e+00  6.25704763e-06  7.14207162e-01  6.25704763e-06  1.07369065e+00  6.25704763e-06  1.05418161e+00                                 
 6.35214789e-06  7.70625971e-01  6.35214789e-06  7.11900110e-01  6.35214789e-06  1.12735647e+00  6.35214789e-06  0.00000000e+00  6.35214789e-06  1.80012634e+00  6.35214789e-06  7.14371987e-01  6.35214789e-06  1.12814642e+00  6.35214789e-06  1.11523275e+00                                 
