 time            v(vbep)         time            v(vben)         time            v(vout)         time            v(vphi1)        time            v(vphi2)        time            v(vref)         yes             currtemp       
 0.00000000e+00  6.72435137e-01  0.00000000e+00  6.15908062e-01  0.00000000e+00  1.03773867e+00  0.00000000e+00  0.00000000e+00  0.00000000e+00  1.79995064e+00  0.00000000e+00  6.15908062e-01  1.00000000e+00  3.60000000e+01 
 5.00000000e-12  6.72405340e-01  5.00000000e-12  6.15883396e-01  5.00000000e-12  1.03847120e+00  5.00000000e-12  1.80000000e-02  5.00000000e-12  1.80007697e+00  5.00000000e-12  6.15883396e-01                                 
 1.00000000e-11  6.72376362e-01  1.00000000e-11  6.15859388e-01  1.00000000e-11  1.03913904e+00  1.00000000e-11  3.60000000e-02  1.00000000e-11  1.80015237e+00  1.00000000e-11  6.15859388e-01                                 
 2.00000000e-11  6.72318912e-01  2.00000000e-11  6.15811560e-01  2.00000000e-11  1.04037263e+00  2.00000000e-11  7.20000000e-02  2.00000000e-11  1.80023730e+00  2.00000000e-11  6.15811560e-01                                 
 4.00000000e-11  6.72204876e-01  4.00000000e-11  6.15716290e-01  4.00000000e-11  1.04236854e+00  4.00000000e-11  1.44000000e-01  4.00000000e-11  1.80022993e+00  4.00000000e-11  6.15716290e-01                                 
 8.00000000e-11  6.71977946e-01  8.00000000e-11  6.15526624e-01  8.00000000e-11  1.04505262e+00  8.00000000e-11  2.88000000e-01  8.00000000e-11  1.80013344e+00  8.00000000e-11  6.15526624e-01                                 
 1.60000000e-10  6.71529032e-01  1.60000000e-10  6.15150772e-01  1.60000000e-10  1.04732457e+00  1.60000000e-10  5.76000000e-01  1.60000000e-10  1.80002182e+00  1.60000000e-10  6.15150772e-01                                 
 3.20000000e-10  6.70649798e-01  3.20000000e-10  6.14412479e-01  3.20000000e-10  1.03978966e+00  3.20000000e-10  1.15200000e+00  3.20000000e-10  1.80027961e+00  3.20000000e-10  6.14412479e-01                                 
 5.00000000e-10  6.69689258e-01  5.00000000e-10  6.13602507e-01  5.00000000e-10  1.14203635e+00  5.00000000e-10  1.80000000e+00  5.00000000e-10  1.52095648e-01  5.00000000e-10  6.13602507e-01                                 
 5.21365263e-10  6.69577406e-01  5.21365263e-10  6.13507941e-01  5.21365263e-10  1.16800632e+00  5.21365263e-10  1.80000000e+00  5.21365263e-10  3.80241448e-02  5.21365263e-10  6.13507941e-01                                 
 5.64095790e-10  6.69354484e-01  5.64095790e-10  6.13319364e-01  5.64095790e-10  1.21974239e+00  5.64095790e-10  1.80000000e+00  5.64095790e-10 -1.42451077e-02  5.64095790e-10  6.13319364e-01                                 
 6.49556844e-10  6.68913358e-01  6.49556844e-10  6.12945655e-01  6.49556844e-10  1.31317740e+00  6.49556844e-10  1.80000000e+00  6.49556844e-10  1.21308585e-02  6.49556844e-10  6.12945655e-01                                 
 7.69709395e-10  6.68303546e-01  7.69709395e-10  6.12427846e-01  7.69709395e-10  1.42810424e+00  7.69709395e-10  1.80000000e+00  7.69709395e-10 -9.19924296e-03  7.69709395e-10  6.12427846e-01                                 
 9.51388930e-10  6.67403554e-01  9.51388930e-10  6.11661132e-01  9.51388930e-10  1.56922262e+00  9.51388930e-10  1.80000000e+00  9.51388930e-10  9.11333341e-03  9.51388930e-10  6.11661132e-01                                 
 1.31474800e-09  6.65677771e-01  1.31474800e-09  6.10182779e-01  1.31474800e-09  1.74704918e+00  1.31474800e-09  1.80000000e+00  1.31474800e-09 -7.97679920e-03  1.31474800e-09  6.10182779e-01                                 
 1.66901427e-09  6.64083652e-01  1.66901427e-09  6.08807654e-01  1.66901427e-09  1.82729187e+00  1.66901427e-09  1.80000000e+00  1.66901427e-09  7.85645618e-03  1.66901427e-09  6.08807654e-01                                 
 2.05685693e-09  6.62428682e-01  2.05685693e-09  6.07370586e-01  2.05685693e-09  1.86130641e+00  2.05685693e-09  1.80000000e+00  2.05685693e-09 -7.29026278e-03  2.05685693e-09  6.07370586e-01                                 
 2.40833979e-09  6.61003087e-01  2.40833979e-09  6.06125095e-01  2.40833979e-09  1.87217780e+00  2.40833979e-09  1.80000000e+00  2.40833979e-09  6.95790976e-03  2.40833979e-09  6.06125095e-01                                 
 2.92632849e-09  6.59016770e-01  2.92632849e-09  6.04378506e-01  2.92632849e-09  1.87581465e+00  2.92632849e-09  1.80000000e+00  2.92632849e-09 -6.63725071e-03  2.92632849e-09  6.04378506e-01                                 
 3.58026923e-09  6.56682441e-01  3.58026923e-09  6.02309634e-01  3.58026923e-09  1.87525180e+00  3.58026923e-09  1.80000000e+00  3.58026923e-09  6.46621539e-03  3.58026923e-09  6.02309634e-01                                 
 4.70191314e-09  6.53054885e-01  4.70191314e-09  5.99061919e-01  4.70191314e-09  1.87160342e+00  4.70191314e-09  1.80000000e+00  4.70191314e-09 -6.32039941e-03  4.70191314e-09  5.99061919e-01                                 
 6.43541212e-09  6.48191071e-01  6.43541212e-09  5.94648590e-01  6.43541212e-09  1.86726652e+00  6.43541212e-09  1.80000000e+00  6.43541212e-09  6.27217169e-03  6.43541212e-09  5.94648590e-01                                 
 9.90241008e-09  6.40323027e-01  9.90241008e-09  5.87385067e-01  9.90241008e-09  1.85934483e+00  9.90241008e-09  1.80000000e+00  9.90241008e-09 -6.20494688e-03  9.90241008e-09  5.87385067e-01                                 
 1.24644108e-08  6.35673463e-01  1.24644108e-08  5.83019492e-01  1.24644108e-08  1.85468058e+00  1.24644108e-08  1.80000000e+00  1.24644108e-08  6.18422395e-03  1.24644108e-08  5.83019492e-01                                 
 1.42257613e-08  6.32872561e-01  1.42257613e-08  5.80367768e-01  1.42257613e-08  1.85141531e+00  1.42257613e-08  1.80000000e+00  1.42257613e-08 -6.08776517e-03  1.42257613e-08  5.80367768e-01                                 
 1.56933897e-08  6.30732607e-01  1.56933897e-08  5.78332013e-01  1.56933897e-08  1.84927021e+00  1.56933897e-08  1.80000000e+00  1.56933897e-08  6.02715714e-03  1.56933897e-08  5.78332013e-01                                 
 1.74707917e-08  6.28337249e-01  1.74707917e-08  5.76044222e-01  1.74707917e-08  1.84615954e+00  1.74707917e-08  1.80000000e+00  1.74707917e-08 -5.93567239e-03  1.74707917e-08  5.76044222e-01                                 
 1.95102520e-08  6.25812663e-01  1.95102520e-08  5.73623572e-01  1.95102520e-08  1.84322884e+00  1.95102520e-08  1.80000000e+00  1.95102520e-08  5.89840384e-03  1.95102520e-08  5.73623572e-01                                 
 2.19964586e-08  6.23001706e-01  2.19964586e-08  5.70918535e-01  2.19964586e-08  1.83907620e+00  2.19964586e-08  1.80000000e+00  2.19964586e-08 -5.82858192e-03  2.19964586e-08  5.70918535e-01                                 
 2.55946566e-08  6.19339123e-01  2.55946566e-08  5.67382791e-01  2.55946566e-08  1.83384509e+00  2.55946566e-08  1.80000000e+00  2.55946566e-08  5.81712211e-03  2.55946566e-08  5.67382791e-01                                 
 2.97031402e-08  6.15594995e-01  2.97031402e-08  5.63763192e-01  2.97031402e-08  1.82759053e+00  2.97031402e-08  1.80000000e+00  2.97031402e-08 -5.76672926e-03  2.97031402e-08  5.63763192e-01                                 
 3.63983261e-08  6.10112360e-01  3.63983261e-08  5.58481885e-01  3.63983261e-08  1.81926834e+00  3.63983261e-08  1.80000000e+00  3.63983261e-08  5.77120201e-03  3.63983261e-08  5.58481885e-01                                 
 4.78827018e-08  6.01937673e-01  4.78827018e-08  5.50664948e-01  4.78827018e-08  1.80720585e+00  4.78827018e-08  1.80000000e+00  4.78827018e-08 -5.73851627e-03  4.78827018e-08  5.50664948e-01                                 
 5.86709273e-08  5.95121769e-01  5.86709273e-08  5.44232369e-01  5.86709273e-08  1.79754932e+00  5.86709273e-08  1.80000000e+00  5.86709273e-08  5.75055043e-03  5.86709273e-08  5.44232369e-01                                 
 7.07947558e-08  5.86805594e-01  7.07947558e-08  5.36671768e-01  7.07947558e-08  1.77288663e+00  7.07947558e-08  1.80000000e+00  7.07947558e-08 -5.71967018e-03  7.07947558e-08  5.36671768e-01                                 
 8.52268213e-08  5.79017007e-01  8.52268213e-08  5.29524674e-01  8.52268213e-08  1.74485496e+00  8.52268213e-08  1.80000000e+00  8.52268213e-08  5.73350761e-03  8.52268213e-08  5.29524674e-01                                 
 1.00239021e-07  5.71884940e-01  1.00239021e-07  5.23017463e-01  1.00239021e-07  1.71860596e+00  1.00239021e-07  1.80000000e+00  1.00239021e-07 -5.70361634e-03  1.00239021e-07  5.23017463e-01                                 
 1.24333071e-07  5.63166759e-01  1.24333071e-07  5.14965875e-01  1.24333071e-07  1.67790022e+00  1.24333071e-07  1.80000000e+00  1.24333071e-07  5.72139300e-03  1.24333071e-07  5.14965875e-01                                 
 1.50476060e-07  5.66289923e-01  1.50476060e-07  5.16366385e-01  1.50476060e-07  1.67522182e+00  1.50476060e-07  1.80000000e+00  1.50476060e-07 -5.69139387e-03  1.50476060e-07  5.16366385e-01                                 
 1.70911769e-07  5.67914861e-01  1.70911769e-07  5.16904733e-01  1.70911769e-07  1.65938681e+00  1.70911769e-07  1.80000000e+00  1.70911769e-07  5.71040093e-03  1.70911769e-07  5.16904733e-01                                 
 1.92016016e-07  5.62946637e-01  1.92016016e-07  5.12287965e-01  1.92016016e-07  1.63116487e+00  1.92016016e-07  1.80000000e+00  1.92016016e-07 -5.68176703e-03  1.92016016e-07  5.12287965e-01                                 
 2.10323445e-07  5.58798351e-01  2.10323445e-07  5.08469025e-01  2.10323445e-07  1.60831263e+00  2.10323445e-07  1.80000000e+00  2.10323445e-07  5.69880352e-03  2.10323445e-07  5.08469025e-01                                 
 2.30002183e-07  5.53626973e-01  2.30002183e-07  5.03852044e-01  2.30002183e-07  1.58512342e+00  2.30002183e-07  1.80000000e+00  2.30002183e-07 -5.66977844e-03  2.30002183e-07  5.03852044e-01                                 
 2.63661373e-07  5.44349266e-01  2.63661373e-07  4.95720368e-01  2.63661373e-07  1.54134203e+00  2.63661373e-07  1.80000000e+00  2.63661373e-07  5.68942960e-03  2.63661373e-07  4.95720368e-01                                 
 3.08783455e-07  5.32677353e-01  3.08783455e-07  4.85604583e-01  3.08783455e-07  1.48558852e+00  3.08783455e-07  1.80000000e+00  3.08783455e-07 -5.66371442e-03  3.08783455e-07  4.85604583e-01                                 
 3.89459445e-07  5.09489010e-01  3.89459445e-07  4.66081748e-01  3.89459445e-07  1.37969555e+00  3.89459445e-07  1.80000000e+00  3.89459445e-07  5.68537411e-03  3.89459445e-07  4.66081748e-01                                 
 4.88787633e-07  4.86403994e-01  4.88787633e-07  4.46868273e-01  4.88787633e-07  1.25635912e+00  4.88787633e-07  1.80000000e+00  4.88787633e-07 -5.66099883e-03  4.88787633e-07  4.46868273e-01                                 
 5.89391087e-07  4.43012621e-01  5.89391087e-07  4.11870382e-01  5.89391087e-07  1.10834920e+00  5.89391087e-07  1.80000000e+00  5.89391087e-07  5.68246322e-03  5.89391087e-07  4.11870382e-01                                 
 6.01369313e-07  4.37331862e-01  6.01369313e-07  4.07318880e-01  6.01369313e-07  1.09124385e+00  6.01369313e-07  1.80000000e+00  6.01369313e-07  1.82396784e-06  6.01369313e-07  4.07318880e-01                                 
 6.25325765e-07  4.28302093e-01  6.25325765e-07  4.00088551e-01  6.25325765e-07  1.05783629e+00  6.25325765e-07  1.80000000e+00  6.25325765e-07 -2.62494743e-06  6.25325765e-07  4.00088551e-01                                 
 6.73238670e-07  5.10138612e-01  6.73238670e-07  4.65510655e-01  6.73238670e-07  1.08697836e+00  6.73238670e-07  1.80000000e+00  6.73238670e-07  8.82071850e-06  6.73238670e-07  4.65510655e-01                                 
 6.83548137e-07  5.75120758e-01  6.83548137e-07  5.17523222e-01  6.83548137e-07  1.13885947e+00  6.83548137e-07  1.80000000e+00  6.83548137e-07  1.13331205e-05  6.83548137e-07  5.17523222e-01                                 
 7.04167073e-07  6.93374586e-01  7.04167073e-07  6.30895843e-01  7.04167073e-07  1.23179560e+00  7.04167073e-07  1.80000000e+00  7.04167073e-07  1.33884375e-05  7.04167073e-07  6.30895843e-01                                 
 7.45404943e-07  7.62269140e-01  7.45404943e-07  7.02075460e-01  7.45404943e-07  1.25686619e+00  7.45404943e-07  1.80000000e+00  7.45404943e-07 -4.77385672e-06  7.45404943e-07  7.02075460e-01                                 
 7.89036332e-07  7.91005824e-01  7.89036332e-07  7.26512942e-01  7.89036332e-07  1.23701846e+00  7.89036332e-07  1.80000000e+00  7.89036332e-07  8.09007826e-06  7.89036332e-07  7.26512942e-01                                 
 8.38821196e-07  7.92386992e-01  8.38821196e-07  7.27959753e-01  8.38821196e-07  1.18877247e+00  8.38821196e-07  1.80000000e+00  8.38821196e-07 -7.46952858e-06  8.38821196e-07  7.27959753e-01                                 
 8.45461288e-07  7.91942347e-01  8.45461288e-07  7.27509056e-01  8.45461288e-07  1.18045728e+00  8.45461288e-07  1.80000000e+00  8.45461288e-07 -9.22787698e-08  8.45461288e-07  7.27509056e-01                                 
 8.58741472e-07  7.91851694e-01  8.58741472e-07  7.27413025e-01  8.58741472e-07  1.16625388e+00  8.58741472e-07  1.80000000e+00  8.58741472e-07  4.36973599e-07  8.58741472e-07  7.27413025e-01                                 
 8.85301840e-07  7.91917114e-01  8.85301840e-07  7.27484705e-01  8.85301840e-07  1.13881077e+00  8.85301840e-07  1.80000000e+00  8.85301840e-07 -2.01297098e-09  8.85301840e-07  7.27484705e-01                                 
 9.38422576e-07  7.89539998e-01  9.38422576e-07  7.25521276e-01  9.38422576e-07  1.08114437e+00  9.38422576e-07  1.80000000e+00  9.38422576e-07  2.23831232e-07  9.38422576e-07  7.25521276e-01                                 
 9.86335901e-07  7.63059451e-01  9.86335901e-07  7.02697227e-01  9.86335901e-07  1.00846407e+00  9.86335901e-07  1.80000000e+00  9.86335901e-07 -2.21761379e-06  9.86335901e-07  7.02697227e-01                                 
 1.03306462e-06  7.42653862e-01  1.03306462e-06  6.83690631e-01  1.03306462e-06  9.48346296e-01  1.03306462e-06  1.80000000e+00  1.03306462e-06  8.56264155e-07  1.03306462e-06  6.83690631e-01                                 
 1.07967835e-06  7.68428132e-01  1.07967835e-06  7.07398149e-01  1.07967835e-06  9.35188135e-01  1.07967835e-06  1.80000000e+00  1.07967835e-06  2.40179060e-06  1.07967835e-06  7.07398149e-01                                 
 1.12863071e-06  7.84324738e-01  1.12863071e-06  7.21160916e-01  1.12863071e-06  9.13664228e-01  1.12863071e-06  1.80000000e+00  1.12863071e-06 -1.41838680e-07  1.12863071e-06  7.21160916e-01                                 
 1.19648990e-06  7.72430674e-01  1.19648990e-06  7.10994003e-01  1.19648990e-06  8.58929363e-01  1.19648990e-06  1.80000000e+00  1.19648990e-06  2.99558410e-07  1.19648990e-06  7.10994003e-01                                 
 1.26745543e-06  7.61051760e-01  1.26745543e-06  7.00776358e-01  1.26745543e-06  8.07190679e-01  1.26745543e-06  1.80000000e+00  1.26745543e-06  6.39332538e-09  1.26745543e-06  7.00776358e-01                                 
 1.33962878e-06  7.74326318e-01  1.33962878e-06  7.12616426e-01  1.33962878e-06  7.81143236e-01  1.33962878e-06  1.80000000e+00  1.33962878e-06  1.87968391e-06  1.33962878e-06  7.12616426e-01                                 
 1.42770284e-06  7.75545672e-01  1.42770284e-06  7.13667840e-01  1.42770284e-06  7.47375519e-01  1.42770284e-06  1.80000000e+00  1.42770284e-06 -6.05321243e-07  1.42770284e-06  7.13667840e-01                                 
 1.52159922e-06  7.66475684e-01  1.52159922e-06  7.05696775e-01  1.52159922e-06  7.17089202e-01  1.52159922e-06  1.80000000e+00  1.52159922e-06  1.53987935e-06  1.52159922e-06  7.05696775e-01                                 
 1.64421198e-06  7.73433624e-01  1.64421198e-06  7.11812073e-01  1.64421198e-06  7.08329828e-01  1.64421198e-06  1.80000000e+00  1.64421198e-06  1.34474272e-07  1.64421198e-06  7.11812073e-01                                 
 1.78751257e-06  7.72437224e-01  1.78751257e-06  7.10982913e-01  1.78751257e-06  6.98436537e-01  1.78751257e-06  1.80000000e+00  1.78751257e-06  1.31325411e-06  1.78751257e-06  7.10982913e-01                                 
 1.93971974e-06  7.68696517e-01  1.93971974e-06  7.07641078e-01  1.93971974e-06  7.06262182e-01  1.93971974e-06  1.80000000e+00  1.93971974e-06  1.57825013e-07  1.93971974e-06  7.07641078e-01                                 
 2.09723780e-06  7.74984123e-01  2.09723780e-06  7.13200780e-01  2.09723780e-06  7.17404551e-01  2.09723780e-06  1.80000000e+00  2.09723780e-06  1.55357977e-06  2.09723780e-06  7.13200780e-01                                 
 2.26456889e-06  7.68332165e-01  2.26456889e-06  7.07326837e-01  2.26456889e-06  7.03982534e-01  2.26456889e-06  1.80000000e+00  2.26456889e-06 -2.32436183e-07  2.26456889e-06  7.07326837e-01                                 
 2.44419138e-06  7.73506664e-01  2.44419138e-06  7.11905095e-01  2.44419138e-06  7.12979872e-01  2.44419138e-06  1.80000000e+00  2.44419138e-06  1.89264335e-06  2.44419138e-06  7.11905095e-01                                 
 2.62972201e-06  7.70794004e-01  2.62972201e-06  7.09510180e-01  2.62972201e-06  7.09719595e-01  2.62972201e-06  1.80000000e+00  2.62972201e-06 -4.37963565e-07  2.62972201e-06  7.09510180e-01                                 
 2.87409430e-06  7.71401641e-01  2.87409430e-06  7.10056527e-01  2.87409430e-06  7.09810224e-01  2.87409430e-06  1.80000000e+00  2.87409430e-06  1.96794536e-06  2.87409430e-06  7.10056527e-01                                 
 3.26752983e-06  7.72177371e-01  3.26752983e-06  7.10726884e-01  3.26752983e-06  7.11296807e-01  3.26752983e-06  1.80000000e+00  3.26752983e-06 -4.37829477e-07  3.26752983e-06  7.10726884e-01                                 
 3.77704949e-06  7.70622887e-01  3.77704949e-06  7.09370723e-01  3.77704949e-06  7.09028006e-01  3.77704949e-06  1.80000000e+00  3.77704949e-06  1.94416180e-06  3.77704949e-06  7.09370723e-01                                 
 4.53769892e-06  7.72626503e-01  4.53769892e-06  7.11120103e-01  4.53769892e-06  7.11711676e-01  4.53769892e-06  1.80000000e+00  4.53769892e-06 -4.11739621e-07  4.53769892e-06  7.11120103e-01                                 
 5.53769892e-06  7.70348952e-01  5.53769892e-06  7.09129446e-01  5.53769892e-06  7.08784800e-01  5.53769892e-06  1.80000000e+00  5.53769892e-06  1.92190108e-06  5.53769892e-06  7.09129446e-01                                 
 6.53769892e-06  7.72811594e-01  6.53769892e-06  7.11281725e-01  6.53769892e-06  7.11863917e-01  6.53769892e-06  1.80000000e+00  6.53769892e-06 -3.90398722e-07  6.53769892e-06  7.11281725e-01                                 
 7.53769892e-06  7.70192132e-01  7.53769892e-06  7.08991492e-01  7.53769892e-06  7.08658925e-01  7.53769892e-06  1.80000000e+00  7.53769892e-06  1.89912102e-06  7.53769892e-06  7.08991492e-01                                 
 8.53769892e-06  7.72923831e-01  8.53769892e-06  7.11379408e-01  8.53769892e-06  7.11942521e-01  8.53769892e-06  1.80000000e+00  8.53769892e-06 -3.66495270e-07  8.53769892e-06  7.11379408e-01                                 
 9.53769892e-06  7.70109097e-01  9.53769892e-06  7.08918752e-01  9.53769892e-06  7.08606812e-01  9.53769892e-06  1.80000000e+00  9.53769892e-06  1.87441430e-06  9.53769892e-06  7.08918752e-01                                 
 1.00005000e-05  7.72963149e-01  1.00005000e-05  7.11412825e-01  1.00005000e-05  7.11933222e-01  1.00005000e-05  1.80000000e+00  1.00005000e-05 -3.26612508e-07  1.00005000e-05  7.11412825e-01                                 
 1.00005500e-05  7.72971645e-01  1.00005500e-05  7.11424412e-01  1.00005500e-05  7.04903110e-01  1.00005500e-05  1.62000000e+00  1.00005500e-05 -1.18481952e-04  1.00005500e-05  7.11424412e-01                                 
