 time            v(vbep)         time            v(vben)         time            v(vout)         time            v(vphi1)        time            v(vphi2)        time            v(vref)         yes             currtemp       
 0.00000000e+00  5.80161896e-01  0.00000000e+00  5.16856583e-01  0.00000000e+00  1.41768674e-01  0.00000000e+00  0.00000000e+00  0.00000000e+00  1.79997587e+00  0.00000000e+00  5.00000000e-01  1.00000000e+00  7.40000000e+01 
 5.00000000e-12  5.80144274e-01  5.00000000e-12  5.16841937e-01  5.00000000e-12  1.42330342e-01  5.00000000e-12  1.80000000e-02  5.00000000e-12  1.80006731e+00  5.00000000e-12  5.00000000e-01                                 
 1.00000000e-11  5.80126885e-01  1.00000000e-11  5.16827592e-01  1.00000000e-11  1.42835185e-01  1.00000000e-11  3.60000000e-02  1.00000000e-11  1.80011269e+00  1.00000000e-11  5.00000000e-01                                 
 2.00000000e-11  5.80092225e-01  2.00000000e-11  5.16798981e-01  2.00000000e-11  1.43759256e-01  2.00000000e-11  7.20000000e-02  2.00000000e-11  1.80015287e+00  2.00000000e-11  5.00000000e-01                                 
 4.00000000e-11  5.80023117e-01  4.00000000e-11  5.16741902e-01  4.00000000e-11  1.45217314e-01  4.00000000e-11  1.44000000e-01  4.00000000e-11  1.80012492e+00  4.00000000e-11  5.00000000e-01                                 
 8.00000000e-11  5.79885305e-01  8.00000000e-11  5.16628031e-01  8.00000000e-11  1.47205161e-01  8.00000000e-11  2.88000000e-01  8.00000000e-11  1.80007473e+00  8.00000000e-11  5.00000000e-01                                 
 1.60000000e-10  5.79611360e-01  1.60000000e-10  5.16401440e-01  1.60000000e-10  1.49664131e-01  1.60000000e-10  5.76000000e-01  1.60000000e-10  1.80003209e+00  1.60000000e-10  5.00000000e-01                                 
 3.20000000e-10  5.79069952e-01  3.20000000e-10  5.15952753e-01  3.20000000e-10  1.75688931e-01  3.20000000e-10  1.15200000e+00  3.20000000e-10  1.80021888e+00  3.20000000e-10  5.00000000e-01                                 
 5.00000000e-10  5.78470979e-01  5.00000000e-10  5.15454997e-01  5.00000000e-10  4.75792750e-01  5.00000000e-10  1.80000000e+00  5.00000000e-10  1.34168629e-01  5.00000000e-10  5.00000000e-01                                 
 5.22515710e-10  5.78396882e-01  5.22515710e-10  5.15393313e-01  5.22515710e-10  5.38794965e-01  5.22515710e-10  1.80000000e+00  5.22515710e-10  2.80519258e-02  5.22515710e-10  5.00000000e-01                                 
 5.67547129e-10  5.78249013e-01  5.67547129e-10  5.15270168e-01  5.67547129e-10  6.54946385e-01  5.67547129e-10  1.80000000e+00  5.67547129e-10 -1.28591801e-02  5.67547129e-10  5.00000000e-01                                 
 6.57609967e-10  5.77955222e-01  6.57609967e-10  5.15025247e-01  6.57609967e-10  8.38527027e-01  6.57609967e-10  1.80000000e+00  6.57609967e-10  1.05129657e-02  6.57609967e-10  5.00000000e-01                                 
 7.80479945e-10  5.77558503e-01  7.80479945e-10  5.14693983e-01  7.80479945e-10  1.02646267e+00  7.80479945e-10  1.80000000e+00  7.80479945e-10 -8.92330266e-03  7.80479945e-10  5.00000000e-01                                 
 9.77204161e-10  5.76932832e-01  9.77204161e-10  5.14170307e-01  9.77204161e-10  1.26011352e+00  9.77204161e-10  1.80000000e+00  9.77204161e-10  8.30645943e-03  9.77204161e-10  5.00000000e-01                                 
 1.29788625e-09  5.75936970e-01  1.29788625e-09  5.13333713e-01  1.29788625e-09  1.53157106e+00  1.29788625e-09  1.80000000e+00  1.29788625e-09 -7.73620897e-03  1.29788625e-09  5.00000000e-01                                 
 1.90911947e-09  5.74115634e-01  1.90911947e-09  5.11794166e-01  1.90911947e-09  1.76627355e+00  1.90911947e-09  1.80000000e+00  1.90911947e-09  7.64012893e-03  1.90911947e-09  5.00000000e-01                                 
 2.18435583e-09  5.73326801e-01  2.18435583e-09  5.11123498e-01  2.18435583e-09  1.79572703e+00  2.18435583e-09  1.80000000e+00  2.18435583e-09 -7.07933305e-03  2.18435583e-09  5.00000000e-01                                 
 2.51023440e-09  5.72415992e-01  2.51023440e-09  5.10346338e-01  2.51023440e-09  1.81069864e+00  2.51023440e-09  1.80000000e+00  2.51023440e-09  6.79749353e-03  2.51023440e-09  5.00000000e-01                                 
 2.87831777e-09  5.71415889e-01  2.87831777e-09  5.09489599e-01  2.87831777e-09  1.81709806e+00  2.87831777e-09  1.80000000e+00  2.87831777e-09 -6.42133245e-03  2.87831777e-09  5.00000000e-01                                 
 3.60817231e-09  5.69515575e-01  3.60817231e-09  5.07852307e-01  3.60817231e-09  1.81917042e+00  3.60817231e-09  1.80000000e+00  3.60817231e-09  6.33605775e-03  3.60817231e-09  5.00000000e-01                                 
 4.37329186e-09  5.67632087e-01  4.37329186e-09  5.06217507e-01  4.37329186e-09  1.81754271e+00  4.37329186e-09  1.80000000e+00  4.37329186e-09 -6.14169899e-03  4.37329186e-09  5.00000000e-01                                 
 5.89567261e-09  5.64165285e-01  5.89567261e-09  5.03179726e-01  5.89567261e-09  1.81389356e+00  5.89567261e-09  1.80000000e+00  5.89567261e-09  6.13139265e-03  5.89567261e-09  5.00000000e-01                                 
 8.24734658e-09  5.59410802e-01  8.24734658e-09  4.98957215e-01  8.24734658e-09  1.80771014e+00  8.24734658e-09  1.80000000e+00  8.24734658e-09 -6.02899153e-03  8.24734658e-09  5.00000000e-01                                 
 9.76559347e-09  5.56664009e-01  9.76559347e-09  4.96488748e-01  9.76559347e-09  1.80410113e+00  9.76559347e-09  1.80000000e+00  9.76559347e-09  6.01279485e-03  9.76559347e-09  5.00000000e-01                                 
 1.12484231e-08  5.54178708e-01  1.12484231e-08  4.94239065e-01  1.12484231e-08  1.80067838e+00  1.12484231e-08  1.80000000e+00  1.12484231e-08 -5.89912137e-03  1.12484231e-08  5.00000000e-01                                 
 1.30368091e-08  5.51403498e-01  1.30368091e-08  4.91709975e-01  1.30368091e-08  1.79698427e+00  1.30368091e-08  1.80000000e+00  1.30368091e-08  5.88584788e-03  1.30368091e-08  5.00000000e-01                                 
 1.46780893e-08  5.49044158e-01  1.46780893e-08  4.89546218e-01  1.46780893e-08  1.79357960e+00  1.46780893e-08  1.80000000e+00  1.46780893e-08 -5.78549751e-03  1.46780893e-08  5.00000000e-01                                 
 1.65173205e-08  5.46586265e-01  1.65173205e-08  4.87279231e-01  1.65173205e-08  1.78996408e+00  1.65173205e-08  1.80000000e+00  1.65173205e-08  5.77139800e-03  1.65173205e-08  5.00000000e-01                                 
 1.84985533e-08  5.44133420e-01  1.84985533e-08  4.85003904e-01  1.84985533e-08  1.78604887e+00  1.84985533e-08  1.80000000e+00  1.84985533e-08 -5.68448558e-03  1.84985533e-08  5.00000000e-01                                 
 2.14671155e-08  5.40785466e-01  2.14671155e-08  4.81877243e-01  2.14671155e-08  1.78048402e+00  2.14671155e-08  1.80000000e+00  2.14671155e-08  5.68978760e-03  2.14671155e-08  5.00000000e-01                                 
 2.53844119e-08  5.36877472e-01  2.53844119e-08  4.78195538e-01  2.53844119e-08  1.77338406e+00  2.53844119e-08  1.80000000e+00  2.53844119e-08 -5.62805452e-03  2.53844119e-08  5.00000000e-01                                 
 3.26737839e-08  5.30769031e-01  3.26737839e-08  4.72372693e-01  3.26737839e-08  1.76127116e+00  3.26737839e-08  1.80000000e+00  3.26737839e-08  5.65241360e-03  3.26737839e-08  5.00000000e-01                                 
 4.50969392e-08  5.22603907e-01  4.50969392e-08  4.64481304e-01  4.50969392e-08  1.74195704e+00  4.50969392e-08  1.80000000e+00  4.50969392e-08 -5.60725823e-03  4.50969392e-08  5.00000000e-01                                 
 6.99432496e-08  5.10623376e-01  6.99432496e-08  4.52778836e-01  6.99432496e-08  1.70630081e+00  6.99432496e-08  1.80000000e+00  6.99432496e-08  5.64117945e-03  6.99432496e-08  5.00000000e-01                                 
 1.05433689e-07  4.98675463e-01  1.05433689e-07  4.41032261e-01  1.05433689e-07  1.65939822e+00  1.05433689e-07  1.80000000e+00  1.05433689e-07 -5.60072276e-03  1.05433689e-07  5.00000000e-01                                 
 1.52452143e-07  4.83395597e-01  1.52452143e-07  4.26761236e-01  1.52452143e-07  1.59721147e+00  1.52452143e-07  1.80000000e+00  1.52452143e-07  5.63654185e-03  1.52452143e-07  5.00000000e-01                                 
 2.22551753e-07  4.61874321e-01  2.22551753e-07  4.07433849e-01  2.22551753e-07  1.50369304e+00  2.22551753e-07  1.80000000e+00  2.22551753e-07 -5.59737823e-03  2.22551753e-07  5.00000000e-01                                 
 2.93905798e-07  4.42784169e-01  2.93905798e-07  3.90700414e-01  2.93905798e-07  1.40964598e+00  2.93905798e-07  1.80000000e+00  2.93905798e-07  5.63394293e-03  2.93905798e-07  5.00000000e-01                                 
 4.03877103e-07  4.10371467e-01  4.03877103e-07  3.63369927e-01  4.03877103e-07  1.26065334e+00  4.03877103e-07  1.80000000e+00  4.03877103e-07 -5.59525634e-03  4.03877103e-07  5.00000000e-01                                 
 5.08372250e-07  3.74093531e-01  5.08372250e-07  3.33675494e-01  5.08372250e-07  1.11546326e+00  5.08372250e-07  1.80000000e+00  5.08372250e-07  5.63216051e-03  5.08372250e-07  5.00000000e-01                                 
 5.25351490e-07  3.67564940e-01  5.25351490e-07  3.28394746e-01  5.25351490e-07  1.09205677e+00  5.25351490e-07  1.80000000e+00  5.25351490e-07  7.33803108e-06  5.25351490e-07  5.00000000e-01                                 
 5.59309968e-07  3.56795593e-01  5.59309968e-07  3.19680042e-01  5.59309968e-07  1.04876875e+00  5.59309968e-07  1.80000000e+00  5.59309968e-07  4.58725185e-06  5.59309968e-07  5.00000000e-01                                 
 6.06966906e-07  3.69605451e-01  6.06966906e-07  3.29872713e-01  6.06966906e-07  1.01786788e+00  6.06966906e-07  1.80000000e+00  6.06966906e-07  7.92094179e-06  6.06966906e-07  5.00000000e-01                                 
 6.17391657e-07  3.83663494e-01  6.17391657e-07  3.41115866e-01  6.17391657e-07  1.02182221e+00  6.17391657e-07  1.80000000e+00  6.17391657e-07  6.79855303e-06  6.17391657e-07  5.00000000e-01                                 
 6.38241158e-07  4.33572302e-01  6.38241158e-07  3.80967940e-01  6.38241158e-07  1.04955359e+00  6.38241158e-07  1.80000000e+00  6.38241158e-07  7.89372617e-06  6.38241158e-07  5.00000000e-01                                 
 6.79940162e-07  6.31577340e-01  6.79940162e-07  5.64224965e-01  6.79940162e-07  1.19677629e+00  6.79940162e-07  1.80000000e+00  6.79940162e-07  1.03192033e-05  6.79940162e-07  5.00000000e-01                                 
 7.09096433e-07  6.81754000e-01  7.09096433e-07  6.15315247e-01  7.09096433e-07  1.21576556e+00  7.09096433e-07  1.80000000e+00  7.09096433e-07  4.92879360e-06  7.09096433e-07  5.00000000e-01                                 
 7.35475590e-07  7.03236517e-01  7.35475590e-07  6.34622171e-01  7.35475590e-07  1.20626349e+00  7.35475590e-07  1.80000000e+00  7.35475590e-07  8.43777552e-06  7.35475590e-07  5.00000000e-01                                 
 7.63151418e-07  7.16901868e-01  7.63151418e-07  6.46683331e-01  7.63151418e-07  1.19136516e+00  7.63151418e-07  1.80000000e+00  7.63151418e-07  4.76023558e-06  7.63151418e-07  5.00000000e-01                                 
 7.93983314e-07  7.23825146e-01  7.93983314e-07  6.52438837e-01  7.93983314e-07  1.16349013e+00  7.93983314e-07  1.80000000e+00  7.93983314e-07  7.75718238e-06  7.93983314e-07  5.00000000e-01                                 
 8.41689161e-07  7.28872655e-01  8.41689161e-07  6.56686963e-01  8.41689161e-07  1.11977529e+00  8.41689161e-07  1.80000000e+00  8.41689161e-07  4.71535824e-06  8.41689161e-07  5.00000000e-01                                 
 8.92347804e-07  7.29108294e-01  8.92347804e-07  6.56823805e-01  8.92347804e-07  1.06756056e+00  8.92347804e-07  1.80000000e+00  8.92347804e-07  7.49976806e-06  8.92347804e-07  5.00000000e-01                                 
 9.05012465e-07  7.27197481e-01  9.05012465e-07  6.55286714e-01  9.05012465e-07  1.05453540e+00  9.05012465e-07  1.80000000e+00  9.05012465e-07  6.04495485e-06  9.05012465e-07  5.00000000e-01                                 
 9.30341787e-07  7.16960967e-01  9.30341787e-07  6.46733930e-01  9.30341787e-07  1.02220195e+00  9.30341787e-07  1.80000000e+00  9.30341787e-07  5.58512517e-06  9.30341787e-07  5.00000000e-01                                 
 9.73396221e-07  7.02364490e-01  9.73396221e-07  6.33974640e-01  9.73396221e-07  9.73911345e-01  9.73396221e-07  1.80000000e+00  9.73396221e-07  6.10391265e-06  9.73396221e-07  5.00000000e-01                                 
 1.01872571e-06  7.11589384e-01  1.01872571e-06  6.42064394e-01  1.01872571e-06  9.49317762e-01  1.01872571e-06  1.80000000e+00  1.01872571e-06  6.45502096e-06  1.01872571e-06  5.00000000e-01                                 
 1.08990043e-06  7.21208597e-01  1.08990043e-06  6.50293061e-01  1.08990043e-06  9.09607119e-01  1.08990043e-06  1.80000000e+00  1.08990043e-06  6.02181050e-06  1.08990043e-06  5.00000000e-01                                 
 1.15481040e-06  7.12141296e-01  1.15481040e-06  6.42572504e-01  1.15481040e-06  8.60486515e-01  1.15481040e-06  1.80000000e+00  1.15481040e-06  6.00034134e-06  1.15481040e-06  5.00000000e-01                                 
 1.24249171e-06  7.11677719e-01  1.24249171e-06  6.42142347e-01  1.24249171e-06  8.06796543e-01  1.24249171e-06  1.80000000e+00  1.24249171e-06  6.23391687e-06  1.24249171e-06  5.00000000e-01                                 
 1.33766430e-06  7.18532722e-01  1.33766430e-06  6.48039266e-01  1.33766430e-06  7.56803496e-01  1.33766430e-06  1.80000000e+00  1.33766430e-06  6.12984290e-06  1.33766430e-06  5.00000000e-01                                 
 1.49429460e-06  7.11094839e-01  1.49429460e-06  6.41650023e-01  1.49429460e-06  6.62368390e-01  1.49429460e-06  1.80000000e+00  1.49429460e-06  6.04170773e-06  1.49429460e-06  5.00000000e-01                                 
 1.65308065e-06  7.15931904e-01  1.65308065e-06  6.45816415e-01  1.65308065e-06  5.84104806e-01  1.65308065e-06  1.80000000e+00  1.65308065e-06  6.25137450e-06  1.65308065e-06  5.00000000e-01                                 
 1.84754289e-06  7.14417636e-01  1.84754289e-06  6.44522871e-01  1.84754289e-06  5.14637480e-01  1.84754289e-06  1.80000000e+00  1.84754289e-06  5.98773782e-06  1.84754289e-06  5.00000000e-01                                 
 2.06421002e-06  7.13419355e-01  2.06421002e-06  6.43659002e-01  2.06421002e-06  4.91560201e-01  2.06421002e-06  1.80000000e+00  2.06421002e-06  6.25050927e-06  2.06421002e-06  5.00000000e-01                                 
 2.30326493e-06  7.16152610e-01  2.30326493e-06  6.46007632e-01  2.30326493e-06  5.03049311e-01  2.30326493e-06  1.80000000e+00  2.30326493e-06  6.01658034e-06  2.30326493e-06  5.00000000e-01                                 
 2.55346046e-06  7.12398123e-01  2.55346046e-06  6.42780339e-01  2.55346046e-06  4.99603470e-01  2.55346046e-06  1.80000000e+00  2.55346046e-06  6.20277803e-06  2.55346046e-06  5.00000000e-01                                 
 2.80541576e-06  7.16449067e-01  2.80541576e-06  6.46257687e-01  2.80541576e-06  5.00375721e-01  2.80541576e-06  1.80000000e+00  2.80541576e-06  6.07125133e-06  2.80541576e-06  5.00000000e-01                                 
 3.18436786e-06  7.12543007e-01  3.18436786e-06  6.42908363e-01  3.18436786e-06  4.99878526e-01  3.18436786e-06  1.80000000e+00  3.18436786e-06  6.15740754e-06  3.18436786e-06  5.00000000e-01                                 
 3.56086920e-06  7.16069501e-01  3.56086920e-06  6.45931464e-01  3.56086920e-06  5.00731202e-01  3.56086920e-06  1.80000000e+00  3.56086920e-06  6.10439209e-06  3.56086920e-06  5.00000000e-01                                 
 4.12619612e-06  7.13011316e-01  4.12619612e-06  6.43314272e-01  4.12619612e-06  4.99674832e-01  4.12619612e-06  1.80000000e+00  4.12619612e-06  6.13281420e-06  4.12619612e-06  5.00000000e-01                                 
 4.88484953e-06  7.15706941e-01  4.88484953e-06  6.45620485e-01  4.88484953e-06  5.00802300e-01  4.88484953e-06  1.80000000e+00  4.88484953e-06  6.11916119e-06  4.88484953e-06  5.00000000e-01                                 
 5.88484953e-06  7.13326030e-01  5.88484953e-06  6.43586298e-01  5.88484953e-06  4.99686738e-01  5.88484953e-06  1.80000000e+00  5.88484953e-06  6.12310169e-06  5.88484953e-06  5.00000000e-01                                 
 6.88484953e-06  7.15438168e-01  6.88484953e-06  6.45389940e-01  6.88484953e-06  5.00752765e-01  6.88484953e-06  1.80000000e+00  6.88484953e-06  6.12647391e-06  6.88484953e-06  5.00000000e-01                                 
 7.88484953e-06  7.13616279e-01  7.88484953e-06  6.43836784e-01  7.88484953e-06  4.99767112e-01  7.88484953e-06  1.80000000e+00  7.88484953e-06  6.11673154e-06  7.88484953e-06  5.00000000e-01                                 
 8.88484953e-06  7.15155553e-01  8.88484953e-06  6.45147451e-01  8.88484953e-06  5.00641582e-01  8.88484953e-06  1.80000000e+00  8.88484953e-06  6.13188544e-06  8.88484953e-06  5.00000000e-01                                 
 9.88484953e-06  7.13913216e-01  9.88484953e-06  6.44092719e-01  9.88484953e-06  4.99903737e-01  9.88484953e-06  1.80000000e+00  9.88484953e-06  6.11228366e-06  9.88484953e-06  5.00000000e-01                                 
 1.00005000e-05  7.13923142e-01  1.00005000e-05  6.44088923e-01  1.00005000e-05  4.99739036e-01  1.00005000e-05  1.80000000e+00  1.00005000e-05  6.13363075e-06  1.00005000e-05  5.00000000e-01                                 
 1.00005500e-05  7.13929611e-01  1.00005500e-05  6.44095318e-01  1.00005500e-05  4.92224965e-01  1.00005500e-05  1.62000000e+00  1.00005500e-05 -7.89093765e-05  1.00005500e-05  5.00000000e-01                                 
 1.00006500e-05  7.13943982e-01  1.00006500e-05  6.44107954e-01  1.00006500e-05  4.78528758e-01  1.00006500e-05  1.26000000e+00  1.00006500e-05 -6.59528818e-05  1.00006500e-05  5.00000000e-01                                 
 1.00008500e-05  7.13970482e-01  1.00008500e-05  6.44130516e-01  1.00008500e-05  4.76561638e-01  1.00008500e-05  5.40000000e-01  1.00008500e-05  3.49824863e-02  1.00008500e-05  5.00000000e-01                                 
 1.00010000e-05  7.13987328e-01  1.00010000e-05  6.44145306e-01  1.00010000e-05  4.40793932e-01  1.00010000e-05  0.00000000e+00  1.00010000e-05  1.60496166e+00  1.00010000e-05  5.00000000e-01                                 
 1.00010250e-05  7.13990015e-01  1.00010250e-05  6.44147592e-01  1.00010250e-05  4.18813541e-01  1.00010250e-05  0.00000000e+00  1.00010250e-05  1.73441199e+00  1.00010250e-05  5.00000000e-01                                 
 1.00010749e-05  7.13995251e-01  1.00010749e-05  6.44152103e-01  1.00010749e-05  3.79522435e-01  1.00010749e-05  0.00000000e+00  1.00010749e-05  1.81858627e+00  1.00010749e-05  5.00000000e-01                                 
 1.00011747e-05  7.14005273e-01  1.00011747e-05  6.44160800e-01  1.00011747e-05  3.39039942e-01  1.00011747e-05  0.00000000e+00  1.00011747e-05  1.78665462e+00  1.00011747e-05  5.00000000e-01                                 
 1.00013107e-05  7.14018075e-01  1.00013107e-05  6.44171946e-01  1.00013107e-05  3.30793839e-01  1.00013107e-05  0.00000000e+00  1.00013107e-05  1.80872275e+00  1.00013107e-05  5.00000000e-01                                 
 1.00015278e-05  7.14036585e-01  1.00015278e-05  6.44188139e-01  1.00015278e-05  3.30829051e-01  1.00015278e-05  0.00000000e+00  1.00015278e-05  1.79278718e+00  1.00015278e-05  5.00000000e-01                                 
 1.00017571e-05  7.14054192e-01  1.00017571e-05  6.44203552e-01  1.00017571e-05  3.31194618e-01  1.00017571e-05  0.00000000e+00  1.00017571e-05  1.80579471e+00  1.00017571e-05  5.00000000e-01                                 
