 time            v(vbep)         time            v(vben)         time            v(vout)         time            v(vphi1)        time            v(vphi2)        time            v(vref)         yes             currtemp       
 0.00000000e+00  7.38111314e-01  0.00000000e+00  6.89959210e-01  0.00000000e+00  7.93016870e-02  0.00000000e+00  0.00000000e+00  0.00000000e+00  1.79997960e+00  0.00000000e+00  5.00000000e-01  1.00000000e+00 -1.00000000e+01 
 5.00000000e-12  7.38098298e-01  5.00000000e-12  6.89948353e-01  5.00000000e-12  7.97563943e-02  5.00000000e-12  1.80000000e-02  5.00000000e-12  1.80005648e+00  5.00000000e-12  5.00000000e-01                                 
 1.00000000e-11  7.38085437e-01  1.00000000e-11  6.89937702e-01  1.00000000e-11  8.01627513e-02  1.00000000e-11  3.60000000e-02  1.00000000e-11  1.80009325e+00  1.00000000e-11  5.00000000e-01                                 
 2.00000000e-11  7.38059792e-01  2.00000000e-11  6.89916454e-01  2.00000000e-11  8.09062177e-02  2.00000000e-11  7.20000000e-02  2.00000000e-11  1.80012557e+00  2.00000000e-11  5.00000000e-01                                 
 4.00000000e-11  7.38008641e-01  4.00000000e-11  6.89874053e-01  4.00000000e-11  8.20708667e-02  4.00000000e-11  1.44000000e-01  4.00000000e-11  1.80010401e+00  4.00000000e-11  5.00000000e-01                                 
 8.00000000e-11  7.37906607e-01  8.00000000e-11  6.89789440e-01  8.00000000e-11  8.36453219e-02  8.00000000e-11  2.88000000e-01  8.00000000e-11  1.80006150e+00  8.00000000e-11  5.00000000e-01                                 
 1.60000000e-10  7.37703684e-01  1.60000000e-10  6.89620994e-01  1.60000000e-10  8.56180592e-02  1.60000000e-10  5.76000000e-01  1.60000000e-10  1.80002350e+00  1.60000000e-10  5.00000000e-01                                 
 3.20000000e-10  7.37302334e-01  3.20000000e-10  6.89287207e-01  3.20000000e-10  1.21963860e-01  3.20000000e-10  1.15200000e+00  3.20000000e-10  1.79990732e+00  3.20000000e-10  5.00000000e-01                                 
 5.00000000e-10  7.36857995e-01  5.00000000e-10  6.88916682e-01  5.00000000e-10  4.97523618e-01  5.00000000e-10  1.80000000e+00  5.00000000e-10  9.69390658e-02  5.00000000e-10  5.00000000e-01                                 
 5.21011902e-10  7.36806671e-01  5.21011902e-10  6.88873811e-01  5.21011902e-10  5.66282552e-01  5.21011902e-10  1.80000000e+00  5.21011902e-10  1.68904605e-02  5.21011902e-10  5.00000000e-01                                 
 5.63035705e-10  7.36704222e-01  5.63035705e-10  6.88788206e-01  5.63035705e-10  6.88743889e-01  5.63035705e-10  1.80000000e+00  5.63035705e-10 -8.10830077e-03  5.63035705e-10  5.00000000e-01                                 
 6.47083311e-10  7.36500527e-01  6.47083311e-10  6.88617841e-01  6.47083311e-10  8.72464948e-01  6.47083311e-10  1.80000000e+00  6.47083311e-10  7.06690903e-03  6.47083311e-10  5.00000000e-01                                 
 7.71038546e-10  7.36203007e-01  7.71038546e-10  6.88368620e-01  7.71038546e-10  1.07587241e+00  7.71038546e-10  1.80000000e+00  7.71038546e-10 -6.24978407e-03  7.71038546e-10  5.00000000e-01                                 
 9.59974645e-10  7.35756004e-01  9.59974645e-10  6.87993332e-01  9.59974645e-10  1.32655396e+00  9.59974645e-10  1.80000000e+00  9.59974645e-10  5.95071201e-03  9.59974645e-10  5.00000000e-01                                 
 1.32930495e-09  7.34903902e-01  1.32930495e-09  6.87275159e-01  1.32930495e-09  1.66743097e+00  1.32930495e-09  1.80000000e+00  1.32930495e-09 -5.66682136e-03  1.32930495e-09  5.00000000e-01                                 
 1.99276504e-09  7.33440231e-01  1.99276504e-09  6.86033252e-01  1.99276504e-09  1.89311635e+00  1.99276504e-09  1.80000000e+00  1.99276504e-09  5.63770570e-03  1.99276504e-09  5.00000000e-01                                 
 2.24043823e-09  7.32914826e-01  2.24043823e-09  6.85584846e-01  2.24043823e-09  1.90922705e+00  2.24043823e-09  1.80000000e+00  2.24043823e-09 -5.30075550e-03  2.24043823e-09  5.00000000e-01                                 
 2.54820833e-09  7.32276555e-01  2.54820833e-09  6.85038355e-01  2.54820833e-09  1.91629304e+00  2.54820833e-09  1.80000000e+00  2.54820833e-09  5.14504937e-03  2.54820833e-09  5.00000000e-01                                 
 2.89562998e-09  7.31574621e-01  2.89562998e-09  6.84435158e-01  2.89562998e-09  1.92115017e+00  2.89562998e-09  1.80000000e+00  2.89562998e-09 -4.92597625e-03  2.89562998e-09  5.00000000e-01                                 
 3.59047330e-09  7.30225395e-01  3.59047330e-09  6.83269499e-01  3.59047330e-09  1.92602795e+00  3.59047330e-09  1.80000000e+00  3.59047330e-09  4.87888640e-03  3.59047330e-09  5.00000000e-01                                 
 4.81086928e-09  7.28013268e-01  4.81086928e-09  6.81341358e-01  4.81086928e-09  1.92257663e+00  4.81086928e-09  1.80000000e+00  4.81086928e-09 -4.80126248e-03  4.81086928e-09  5.00000000e-01                                 
 7.10232930e-09  7.24305466e-01  7.10232930e-09  6.78065916e-01  7.10232930e-09  1.90866203e+00  7.10232930e-09  1.80000000e+00  7.10232930e-09  4.80994529e-03  7.10232930e-09  5.00000000e-01                                 
 9.24824303e-09  7.21261863e-01  9.24824303e-09  6.75337719e-01  9.24824303e-09  1.89801602e+00  9.24824303e-09  1.80000000e+00  9.24824303e-09 -4.74841735e-03  9.24824303e-09  5.00000000e-01                                 
 1.06620253e-08  7.19438652e-01  1.06620253e-08  6.73687791e-01  1.06620253e-08  1.89229237e+00  1.06620253e-08  1.80000000e+00  1.06620253e-08  4.73572584e-03  1.06620253e-08  5.00000000e-01                                 
 1.27129103e-08  7.17005660e-01  1.27129103e-08  6.71469499e-01  1.27129103e-08  1.88526898e+00  1.27129103e-08  1.80000000e+00  1.27129103e-08 -4.68366259e-03  1.27129103e-08  5.00000000e-01                                 
 1.51227265e-08  7.14424436e-01  1.51227265e-08  6.69095534e-01  1.51227265e-08  1.87812162e+00  1.51227265e-08  1.80000000e+00  1.51227265e-08  4.68172402e-03  1.51227265e-08  5.00000000e-01                                 
 1.90630761e-08  7.10733452e-01  1.90630761e-08  6.65664443e-01  1.90630761e-08  1.86838478e+00  1.90630761e-08  1.80000000e+00  1.90630761e-08 -4.64710654e-03  1.90630761e-08  5.00000000e-01                                 
 2.37817299e-08  7.07006481e-01  2.37817299e-08  6.62153650e-01  2.37817299e-08  1.85860258e+00  2.37817299e-08  1.80000000e+00  2.37817299e-08  4.65494365e-03  2.37817299e-08  5.00000000e-01                                 
 3.21590269e-08  7.01638217e-01  3.21590269e-08  6.57023310e-01  3.21590269e-08  1.84423324e+00  3.21590269e-08  1.80000000e+00  3.21590269e-08 -4.62852183e-03  3.21590269e-08  5.00000000e-01                                 
 4.57326795e-08  6.94909561e-01  4.57326795e-08  6.50508789e-01  4.57326795e-08  1.82427116e+00  4.57326795e-08  1.80000000e+00  4.57326795e-08  4.64416854e-03  4.57326795e-08  5.00000000e-01                                 
 7.28799847e-08  6.85145315e-01  7.28799847e-08  6.40963575e-01  7.28799847e-08  1.78952157e+00  7.28799847e-08  1.80000000e+00  7.28799847e-08 -4.62237073e-03  7.28799847e-08  5.00000000e-01                                 
 1.21321419e-07  6.73248366e-01  1.21321419e-07  6.29308209e-01  1.21321419e-07  1.73451422e+00  1.21321419e-07  1.80000000e+00  1.21321419e-07  4.64106390e-03  1.21321419e-07  5.00000000e-01                                 
 1.68802283e-07  6.63100836e-01  1.68802283e-07  6.19750230e-01  1.68802283e-07  1.68136644e+00  1.68802283e-07  1.80000000e+00  1.68802283e-07 -4.62003050e-03  1.68802283e-07  5.00000000e-01                                 
 2.47144197e-07  6.48558148e-01  2.47144197e-07  6.06409743e-01  2.47144197e-07  1.59344292e+00  2.47144197e-07  1.80000000e+00  2.47144197e-07  4.63920775e-03  2.47144197e-07  5.00000000e-01                                 
 3.32699501e-07  6.35567000e-01  3.32699501e-07  5.94716888e-01  3.32699501e-07  1.49799593e+00  3.32699501e-07  1.80000000e+00  3.32699501e-07 -4.61865403e-03  3.32699501e-07  5.00000000e-01                                 
 5.03810111e-07  6.11600482e-01  5.03810111e-07  5.73875031e-01  5.03810111e-07  1.30532075e+00  5.03810111e-07  1.80000000e+00  5.03810111e-07  4.63825025e-03  5.03810111e-07  5.00000000e-01                                 
 8.29936504e-07  5.67831191e-01  8.29936504e-07  5.37401272e-01  8.29936504e-07  9.35417954e-01  8.29936504e-07  1.80000000e+00  8.29936504e-07 -4.61815707e-03  8.29936504e-07  5.00000000e-01                                 
 8.92034048e-07  5.59561296e-01  8.92034048e-07  5.30684314e-01  8.92034048e-07  8.83523942e-01  8.92034048e-07  1.80000000e+00  8.92034048e-07 -2.30998715e-07  8.92034048e-07  5.00000000e-01                                 
 1.01622914e-06  5.43231606e-01  1.01622914e-06  5.17455751e-01  1.01622914e-06  7.85924584e-01  1.01622914e-06  1.80000000e+00  1.01622914e-06  1.89866930e-07  1.01622914e-06  5.00000000e-01                                 
 1.14922222e-06  5.36150906e-01  1.14922222e-06  5.11680986e-01  1.14922222e-06  7.13257957e-01  1.14922222e-06  1.80000000e+00  1.14922222e-06 -1.74644154e-07  1.14922222e-06  5.00000000e-01                                 
 1.27377227e-06  7.64383093e-01  1.27377227e-06  7.14333347e-01  1.27377227e-06  8.47115733e-01  1.27377227e-06  1.80000000e+00  1.27377227e-06  1.76968770e-06  1.27377227e-06  5.00000000e-01                                 
 1.28988763e-06  7.87445771e-01  1.28988763e-06  7.37933491e-01  1.28988763e-06  8.55445039e-01  1.28988763e-06  1.80000000e+00  1.28988763e-06  8.55607645e-07  1.28988763e-06  5.00000000e-01                                 
 1.32211837e-06  8.17611337e-01  1.32211837e-06  7.67683510e-01  1.32211837e-06  8.57615987e-01  1.32211837e-06  1.80000000e+00  1.32211837e-06  3.12790453e-07  1.32211837e-06  5.00000000e-01                                 
 1.37208526e-06  8.59635336e-01  1.37208526e-06  8.05320934e-01  1.37208526e-06  8.55607621e-01  1.37208526e-06  1.80000000e+00  1.37208526e-06  6.75509498e-07  1.37208526e-06  5.00000000e-01                                 
 1.38012443e-06  8.67512078e-01  1.38012443e-06  8.11686107e-01  1.38012443e-06  8.56171977e-01  1.38012443e-06  1.80000000e+00  1.38012443e-06  5.95364781e-07  1.38012443e-06  5.00000000e-01                                 
 1.39620278e-06  8.85559226e-01  1.39620278e-06  8.25301680e-01  1.39620278e-06  8.58537814e-01  1.39620278e-06  1.80000000e+00  1.39620278e-06  6.81301669e-07  1.39620278e-06  5.00000000e-01                                 
 1.42835946e-06  9.16181846e-01  1.42835946e-06  8.45767915e-01  1.42835946e-06  8.58428213e-01  1.42835946e-06  1.80000000e+00  1.42835946e-06  4.05840637e-07  1.42835946e-06  5.00000000e-01                                 
 1.45287869e-06  9.14389422e-01  1.45287869e-06  8.44901935e-01  1.45287869e-06  8.40659747e-01  1.45287869e-06  1.80000000e+00  1.45287869e-06 -2.65915542e-07  1.45287869e-06  5.00000000e-01                                 
 1.47867887e-06  9.10520280e-01  1.47867887e-06  8.42255398e-01  1.47867887e-06  8.20191408e-01  1.47867887e-06  1.80000000e+00  1.47867887e-06  1.42565725e-07  1.47867887e-06  5.00000000e-01                                 
 1.51051403e-06  9.10171012e-01  1.51051403e-06  8.42202407e-01  1.51051403e-06  8.01018759e-01  1.51051403e-06  1.80000000e+00  1.51051403e-06 -8.07219338e-08  1.51051403e-06  5.00000000e-01                                 
 1.55305509e-06  9.02284425e-01  1.55305509e-06  8.36966199e-01  1.55305509e-06  7.71312001e-01  1.55305509e-06  1.80000000e+00  1.55305509e-06 -3.45450630e-08  1.55305509e-06  5.00000000e-01                                 
 1.59371348e-06  8.97614247e-01  1.59371348e-06  8.33939840e-01  1.59371348e-06  7.47587670e-01  1.59371348e-06  1.80000000e+00  1.59371348e-06 -4.26961338e-08  1.59371348e-06  5.00000000e-01                                 
 1.64463873e-06  8.81596505e-01  1.64463873e-06  8.22543416e-01  1.64463873e-06  7.11239970e-01  1.64463873e-06  1.80000000e+00  1.64463873e-06 -2.28523814e-07  1.64463873e-06  5.00000000e-01                                 
 1.69927262e-06  8.60722443e-01  1.69927262e-06  8.06353219e-01  1.69927262e-06  6.70653327e-01  1.69927262e-06  1.80000000e+00  1.69927262e-06 -1.62923686e-07  1.69927262e-06  5.00000000e-01                                 
 1.75340950e-06  8.39151071e-01  1.75340950e-06  7.87642473e-01  1.75340950e-06  6.30936675e-01  1.75340950e-06  1.80000000e+00  1.75340950e-06 -2.47183435e-07  1.75340950e-06  5.00000000e-01                                 
 1.86168325e-06  8.37360200e-01  1.86168325e-06  7.86128865e-01  1.86168325e-06  5.89934585e-01  1.86168325e-06  1.80000000e+00  1.86168325e-06  2.66997767e-07  1.86168325e-06  5.00000000e-01                                 
 1.94589440e-06  8.40348941e-01  1.94589440e-06  7.88712914e-01  1.94589440e-06  5.63832400e-01  1.94589440e-06  1.80000000e+00  1.94589440e-06 -1.56660982e-07  1.94589440e-06  5.00000000e-01                                 
 2.04175311e-06  8.38514849e-01  2.04175311e-06  7.87173435e-01  2.04175311e-06  5.35598718e-01  2.04175311e-06  1.80000000e+00  2.04175311e-06  1.83437806e-07  2.04175311e-06  5.00000000e-01                                 
 2.23347053e-06  8.38410327e-01  2.23347053e-06  7.86969155e-01  2.23347053e-06  5.09348069e-01  2.23347053e-06  1.80000000e+00  2.23347053e-06 -1.23946172e-07  2.23347053e-06  5.00000000e-01                                 
 2.45436216e-06  8.39302137e-01  2.45436216e-06  7.87879058e-01  2.45436216e-06  5.01944487e-01  2.45436216e-06  1.80000000e+00  2.45436216e-06  1.80403661e-07  2.45436216e-06  5.00000000e-01                                 
 2.48362390e-06  8.38424994e-01  2.48362390e-06  7.87039888e-01  2.48362390e-06  5.00759366e-01  2.48362390e-06  1.80000000e+00  2.48362390e-06  1.46738162e-08  2.48362390e-06  5.00000000e-01                                 
 2.54214739e-06  8.38541131e-01  2.54214739e-06  7.87139025e-01  2.54214739e-06  4.99990705e-01  2.54214739e-06  1.80000000e+00  2.54214739e-06  4.07848239e-08  2.54214739e-06  5.00000000e-01                                 
 2.65919435e-06  8.38888667e-01  2.65919435e-06  7.87457038e-01  2.65919435e-06  4.98992726e-01  2.65919435e-06  1.80000000e+00  2.65919435e-06  1.69641309e-08  2.65919435e-06  5.00000000e-01                                 
 2.85958111e-06  8.38478933e-01  2.85958111e-06  7.87083660e-01  2.85958111e-06  4.97358685e-01  2.85958111e-06  1.80000000e+00  2.85958111e-06  3.43982750e-08  2.85958111e-06  5.00000000e-01                                 
 3.26035463e-06  8.38879426e-01  3.26035463e-06  7.87448333e-01  3.26035463e-06  5.00364578e-01  3.26035463e-06  1.80000000e+00  3.26035463e-06  2.07299584e-08  3.26035463e-06  5.00000000e-01                                 
 3.75942460e-06  8.38495386e-01  3.75942460e-06  7.87098712e-01  3.75942460e-06  5.01113049e-01  3.75942460e-06  1.80000000e+00  3.75942460e-06  3.19392452e-08  3.75942460e-06  5.00000000e-01                                 
 4.52458518e-06  8.38863957e-01  4.52458518e-06  7.87434256e-01  4.52458518e-06  4.98925603e-01  4.52458518e-06  1.80000000e+00  4.52458518e-06  2.24523406e-08  4.52458518e-06  5.00000000e-01                                 
 5.31707205e-06  8.38508966e-01  5.31707205e-06  7.87111064e-01  5.31707205e-06  5.00861101e-01  5.31707205e-06  1.80000000e+00  5.31707205e-06  3.07858319e-08  5.31707205e-06  5.00000000e-01                                 
 6.31707205e-06  8.38851110e-01  6.31707205e-06  7.87422596e-01  6.31707205e-06  4.99812289e-01  6.31707205e-06  1.80000000e+00  6.31707205e-06  2.33462329e-08  6.31707205e-06  5.00000000e-01                                 
 7.31707205e-06  8.38520866e-01  7.31707205e-06  7.87121872e-01  7.31707205e-06  5.00012250e-01  7.31707205e-06  1.80000000e+00  7.31707205e-06  3.00780782e-08  7.31707205e-06  5.00000000e-01                                 
 8.31707205e-06  8.38838785e-01  8.31707205e-06  7.87411424e-01  8.31707205e-06  5.00505785e-01  8.31707205e-06  1.80000000e+00  8.31707205e-06  2.40065710e-08  8.31707205e-06  5.00000000e-01                                 
 9.31707205e-06  8.38533496e-01  9.31707205e-06  7.87133329e-01  9.31707205e-06  4.99572574e-01  9.31707205e-06  1.80000000e+00  9.31707205e-06  2.94464888e-08  9.31707205e-06  5.00000000e-01                                 
 1.00005000e-05  8.38822908e-01  1.00005000e-05  7.87397045e-01  1.00005000e-05  5.00649093e-01  1.00005000e-05  1.80000000e+00  1.00005000e-05  2.47601539e-08  1.00005000e-05  5.00000000e-01                                 
 1.00005500e-05  8.38822153e-01  1.00005500e-05  7.87396313e-01  1.00005500e-05  4.92629058e-01  1.00005500e-05  1.62000000e+00  1.00005500e-05 -6.62522710e-05  1.00005500e-05  5.00000000e-01                                 
 1.00006500e-05  8.38820716e-01  1.00006500e-05  7.87394913e-01  1.00006500e-05  4.79074391e-01  1.00006500e-05  1.26000000e+00  1.00006500e-05 -4.54995022e-05  1.00006500e-05  5.00000000e-01                                 
 1.00008500e-05  8.38818162e-01  1.00008500e-05  7.87392421e-01  1.00008500e-05  4.78895653e-01  1.00008500e-05  5.40000000e-01  1.00008500e-05 -3.46151518e-04  1.00008500e-05  5.00000000e-01                                 
 1.00010000e-05  8.38816326e-01  1.00010000e-05  7.87390684e-01  1.00010000e-05  4.43536453e-01  1.00010000e-05  0.00000000e+00  1.00010000e-05  1.54705117e+00  1.00010000e-05  5.00000000e-01                                 
 1.00010141e-05  8.38816101e-01  1.00010141e-05  7.87390496e-01  1.00010141e-05  4.25509771e-01  1.00010141e-05  0.00000000e+00  1.00010141e-05  1.67473124e+00  1.00010141e-05  5.00000000e-01                                 
 1.00010424e-05  8.38815660e-01  1.00010424e-05  7.87390120e-01  1.00010424e-05  3.80868637e-01  1.00010424e-05  0.00000000e+00  1.00010424e-05  1.79876801e+00  1.00010424e-05  5.00000000e-01                                 
 1.00010989e-05  8.38814999e-01  1.00010989e-05  7.87389452e-01  1.00010989e-05  2.96662636e-01  1.00010989e-05  0.00000000e+00  1.00010989e-05  1.79756322e+00  1.00010989e-05  5.00000000e-01                                 
 1.00011710e-05  8.38814415e-01  1.00011710e-05  7.87388788e-01  1.00011710e-05  2.46289729e-01  1.00011710e-05  0.00000000e+00  1.00011710e-05  1.79777769e+00  1.00011710e-05  5.00000000e-01                                 
 1.00012700e-05  8.38813647e-01  1.00012700e-05  7.87388018e-01  1.00012700e-05  2.30631248e-01  1.00012700e-05  0.00000000e+00  1.00012700e-05  1.80049247e+00  1.00012700e-05  5.00000000e-01                                 
 1.00014320e-05  8.38812367e-01  1.00014320e-05  7.87386792e-01  1.00014320e-05  2.32629344e-01  1.00014320e-05  0.00000000e+00  1.00014320e-05  1.79896977e+00  1.00014320e-05  5.00000000e-01                                 
 1.00016033e-05  8.38810878e-01  1.00016033e-05  7.87385413e-01  1.00016033e-05  2.33537556e-01  1.00016033e-05  0.00000000e+00  1.00016033e-05  1.80088009e+00  1.00016033e-05  5.00000000e-01                                 
 1.00019207e-05  8.38807902e-01  1.00019207e-05  7.87382680e-01  1.00019207e-05  2.34015982e-01  1.00019207e-05  0.00000000e+00  1.00019207e-05  1.79912974e+00  1.00019207e-05  5.00000000e-01                                 
 1.00022690e-05  8.38804568e-01  1.00022690e-05  7.87379631e-01  1.00022690e-05  2.34137359e-01  1.00022690e-05  0.00000000e+00  1.00022690e-05  1.80085799e+00  1.00022690e-05  5.00000000e-01                                 
 1.00029657e-05  8.38798618e-01  1.00029657e-05  7.87374164e-01  1.00029657e-05  2.34215213e-01  1.00029657e-05  0.00000000e+00  1.00029657e-05  1.79915721e+00  1.00029657e-05  5.00000000e-01                                 
