 time            v(vbep)         time            v(vben)         time            v(vout)         time            v(vphi1)        time            v(vphi2)        time            v(vref)         time            v(voutc)        time            v(voutcc)       yes             currtemp       
 0.00000000e+00  6.96062342e-01  0.00000000e+00  6.26742175e-01  0.00000000e+00  1.44563390e+00  0.00000000e+00  0.00000000e+00  0.00000000e+00  1.79999999e+00  0.00000000e+00  6.26602848e-01  0.00000000e+00  1.44563389e+00  0.00000000e+00  1.45354964e+00  1.00000000e+00  7.80000000e+01 
 1.00000000e-11  6.96087505e-01  1.00000000e-11  6.26815360e-01  1.00000000e-11  1.44638606e+00  1.00000000e-11  1.80000000e-02  1.00000000e-11  1.80025300e+00  1.00000000e-11  6.27133178e-01  1.00000000e-11  1.44610106e+00  1.00000000e-11  1.45356304e+00                                 
 2.00000000e-11  6.96094254e-01  2.00000000e-11  6.26860231e-01  2.00000000e-11  1.44683224e+00  2.00000000e-11  3.60000000e-02  2.00000000e-11  1.80035095e+00  2.00000000e-11  6.27524017e-01  2.00000000e-11  1.44644983e+00  2.00000000e-11  1.45356766e+00                                 
 4.00000000e-11  6.96094112e-01  4.00000000e-11  6.26918412e-01  4.00000000e-11  1.44734901e+00  4.00000000e-11  7.20000000e-02  4.00000000e-11  1.80038485e+00  4.00000000e-11  6.28093682e-01  4.00000000e-11  1.44696419e+00  4.00000000e-11  1.45356863e+00                                 
 8.00000000e-11  6.96082461e-01  8.00000000e-11  6.26953796e-01  8.00000000e-11  1.44740475e+00  8.00000000e-11  1.44000000e-01  8.00000000e-11  1.80017848e+00  8.00000000e-11  6.28535633e-01  8.00000000e-11  1.44736954e+00  8.00000000e-11  1.45355830e+00                                 
 1.60000000e-10  6.96079729e-01  1.60000000e-10  6.26962082e-01  1.60000000e-10  1.44706895e+00  1.60000000e-10  2.88000000e-01  1.60000000e-10  1.80000570e+00  1.60000000e-10  6.28635009e-01  1.60000000e-10  1.44740901e+00  1.60000000e-10  1.45354930e+00                                 
 3.20000000e-10  6.96074665e-01  3.20000000e-10  6.26949378e-01  3.20000000e-10  1.44668869e+00  3.20000000e-10  5.76000000e-01  3.20000000e-10  1.79997979e+00  3.20000000e-10  6.28468183e-01  3.20000000e-10  1.44705474e+00  3.20000000e-10  1.45354392e+00                                 
 6.40000000e-10  6.95992909e-01  6.40000000e-10  6.26486258e-01  6.40000000e-10  1.44508676e+00  6.40000000e-10  1.15200000e+00  6.40000000e-10  1.80817452e+00  6.40000000e-10  6.25265750e-01  6.40000000e-10  1.44985588e+00  6.40000000e-10  1.45356508e+00                                 
 1.00000000e-09  6.96517876e-01  1.00000000e-09  6.26965231e-01  1.00000000e-09  1.42669343e+00  1.00000000e-09  1.80000000e+00  1.00000000e-09  1.10966538e-01  1.00000000e-09  6.42493878e-01  1.00000000e-09  1.45731273e+00  1.00000000e-09  1.45358701e+00                                 
 1.03776207e-09  6.96600006e-01  1.03776207e-09  6.26956323e-01  1.03776207e-09  1.42502719e+00  1.03776207e-09  1.80000000e+00  1.03776207e-09  2.68399314e-02  1.03776207e-09  6.45614933e-01  1.03776207e-09  1.45899058e+00  1.03776207e-09  1.45360118e+00                                 
 1.11328621e-09  6.96785478e-01  1.11328621e-09  6.26965266e-01  1.11328621e-09  1.42285064e+00  1.11328621e-09  1.80000000e+00  1.11328621e-09 -1.22279495e-02  1.11328621e-09  6.49429252e-01  1.11328621e-09  1.46192439e+00  1.11328621e-09  1.45360852e+00                                 
 1.26433450e-09  6.96917263e-01  1.26433450e-09  6.26800581e-01  1.26433450e-09  1.41941745e+00  1.26433450e-09  1.80000000e+00  1.26433450e-09  9.49562058e-03  1.26433450e-09  6.48968078e-01  1.26433450e-09  1.46183122e+00  1.26433450e-09  1.45356408e+00                                 
 1.44510655e-09  6.96881635e-01  1.44510655e-09  6.26790990e-01  1.44510655e-09  1.41837002e+00  1.44510655e-09  1.80000000e+00  1.44510655e-09 -7.16705075e-03  1.44510655e-09  6.47732718e-01  1.44510655e-09  1.46055046e+00  1.44510655e-09  1.45360703e+00                                 
 1.64882091e-09  6.96772025e-01  1.64882091e-09  6.26790872e-01  1.64882091e-09  1.41794664e+00  1.64882091e-09  1.80000000e+00  1.64882091e-09  5.80804271e-03  1.64882091e-09  6.45929417e-01  1.64882091e-09  1.45920040e+00  1.64882091e-09  1.45365312e+00                                 
 1.99987628e-09  6.96515006e-01  1.99987628e-09  6.26752280e-01  1.99987628e-09  1.41732120e+00  1.99987628e-09  1.80000000e+00  1.99987628e-09 -5.14396648e-03  1.99987628e-09  6.42904346e-01  1.99987628e-09  1.45645070e+00  1.99987628e-09  1.45380420e+00                                 
 2.57169581e-09  6.96220391e-01  2.57169581e-09  6.26759886e-01  2.57169581e-09  1.41643241e+00  2.57169581e-09  1.80000000e+00  2.57169581e-09  4.71592915e-03  2.57169581e-09  6.38903353e-01  2.57169581e-09  1.45317451e+00  2.57169581e-09  1.45404785e+00                                 
 3.45943082e-09  6.95966128e-01  3.45943082e-09  6.26713625e-01  3.45943082e-09  1.41366388e+00  3.45943082e-09  1.80000000e+00  3.45943082e-09 -4.53132874e-03  3.45943082e-09  6.33689858e-01  3.45943082e-09  1.44857989e+00  3.45943082e-09  1.45437748e+00                                 
 5.04892919e-09  6.95856292e-01  5.04892919e-09  6.26730396e-01  5.04892919e-09  1.40759687e+00  5.04892919e-09  1.80000000e+00  5.04892919e-09  4.38400285e-03  5.04892919e-09  6.28393280e-01  5.04892919e-09  1.44419825e+00  5.04892919e-09  1.45464050e+00                                 
 6.42761407e-09  6.95857897e-01  6.42761407e-09  6.26703404e-01  6.42761407e-09  1.40055706e+00  6.42761407e-09  1.80000000e+00  6.42761407e-09 -4.25979249e-03  6.42761407e-09  6.25907164e-01  6.42761407e-09  1.44195267e+00  6.42761407e-09  1.45459384e+00                                 
 7.58085949e-09  6.95903059e-01  7.58085949e-09  6.26736702e-01  7.58085949e-09  1.39413117e+00  7.58085949e-09  1.80000000e+00  7.58085949e-09  4.09879843e-03  7.58085949e-09  6.25183009e-01  7.58085949e-09  1.44146258e+00  7.58085949e-09  1.45442525e+00                                 
 8.89259090e-09  6.95932842e-01  8.89259090e-09  6.26712699e-01  8.89259090e-09  1.38543595e+00  8.89259090e-09  1.80000000e+00  8.89259090e-09 -3.96761648e-03  8.89259090e-09  6.24443850e-01  8.89259090e-09  1.44070565e+00  8.89259090e-09  1.45417664e+00                                 
 1.05951212e-08  6.95992589e-01  1.05951212e-08  6.26748222e-01  1.05951212e-08  1.37351556e+00  1.05951212e-08  1.80000000e+00  1.05951212e-08  3.87046970e-03  1.05951212e-08  6.24470693e-01  1.05951212e-08  1.44083751e+00  1.05951212e-08  1.45381428e+00                                 
 1.27422149e-08  6.96023080e-01  1.27422149e-08  6.26723118e-01  1.27422149e-08  1.35679051e+00  1.27422149e-08  1.80000000e+00  1.27422149e-08 -3.79022868e-03  1.27422149e-08  6.24309330e-01  1.27422149e-08  1.44056575e+00  1.27422149e-08  1.45336678e+00                                 
 1.54970238e-08  6.96064936e-01  1.54970238e-08  6.26755976e-01  1.54970238e-08  1.33473914e+00  1.54970238e-08  1.80000000e+00  1.54970238e-08  3.73692482e-03  1.54970238e-08  6.24807629e-01  1.54970238e-08  1.44108367e+00  1.54970238e-08  1.45284597e+00                                 
 1.92040593e-08  6.96067663e-01  1.92040593e-08  6.26727553e-01  1.92040593e-08  1.30367470e+00  1.92040593e-08  1.80000000e+00  1.92040593e-08 -3.68825537e-03  1.92040593e-08  6.24945815e-01  1.92040593e-08  1.44106291e+00  1.92040593e-08  1.45226755e+00                                 
 2.47956265e-08  6.96081635e-01  2.47956265e-08  6.26758121e-01  2.47956265e-08  1.25676599e+00  2.47956265e-08  1.80000000e+00  2.47956265e-08  3.66622476e-03  2.47956265e-08  6.25642044e-01  2.47956265e-08  1.44174367e+00  2.47956265e-08  1.45161878e+00                                 
 3.45924360e-08  6.96063792e-01  3.45924360e-08  6.26728031e-01  3.45924360e-08  1.17394013e+00  3.45924360e-08  1.80000000e+00  3.45924360e-08 -3.64418357e-03  3.45924360e-08  6.25913187e-01  3.45924360e-08  1.44183986e+00  3.45924360e-08  1.45093541e+00                                 
 4.86103245e-08  6.96070615e-01  4.86103245e-08  6.26757561e-01  4.86103245e-08  1.05685843e+00  4.86103245e-08  1.80000000e+00  4.86103245e-08  3.63947951e-03  4.86103245e-08  6.26503180e-01  4.86103245e-08  1.44244496e+00  4.86103245e-08  1.45051520e+00                                 
 7.66461014e-08  6.96055289e-01  7.66461014e-08  6.26727102e-01  7.66461014e-08  8.28057747e-01  7.66461014e-08  1.80000000e+00  7.66461014e-08 -3.62608388e-03  7.66461014e-08  6.26465173e-01  7.66461014e-08  1.44229940e+00  7.66461014e-08  1.45033956e+00                                 
 1.05420807e-07  6.96073092e-01  1.05420807e-07  6.26757358e-01  1.05420807e-07  6.64746093e-01  1.05420807e-07  1.80000000e+00  1.05420807e-07  3.63678855e-03  1.05420807e-07  6.26722235e-01  1.05420807e-07  1.44263086e+00  1.05420807e-07  1.45037316e+00                                 
 1.27823546e-07  6.96051559e-01  1.27823546e-07  6.26727342e-01  1.27823546e-07  6.30420838e-01  1.27823546e-07  1.80000000e+00  1.27823546e-07 -3.60637432e-03  1.27823546e-07  6.26492715e-01  1.27823546e-07  1.44232347e+00  1.27823546e-07  1.45038866e+00                                 
 1.47118510e-07  6.96069528e-01  1.47118510e-07  6.26756666e-01  1.47118510e-07  6.28035145e-01  1.47118510e-07  1.80000000e+00  1.47118510e-07  3.62430574e-03  1.47118510e-07  6.26720568e-01  1.47118510e-07  1.44262837e+00  1.47118510e-07  1.45039278e+00                                 
 1.67493649e-07  6.96054909e-01  1.67493649e-07  6.26727662e-01  1.67493649e-07  6.26224262e-01  1.67493649e-07  1.80000000e+00  1.67493649e-07 -3.59129639e-03  1.67493649e-07  6.26485867e-01  1.67493649e-07  1.44231669e+00  1.67493649e-07  1.45039266e+00                                 
 1.89422289e-07  6.96069487e-01  1.89422289e-07  6.26756679e-01  1.89422289e-07  6.26907419e-01  1.89422289e-07  1.80000000e+00  1.89422289e-07  3.61037350e-03  1.89422289e-07  6.26720837e-01  1.89422289e-07  1.44262703e+00  1.89422289e-07  1.45039177e+00                                 
 2.33279570e-07  6.96055208e-01  2.33279570e-07  6.26727647e-01  2.33279570e-07  6.26113467e-01  2.33279570e-07  1.80000000e+00  2.33279570e-07 -3.58125113e-03  2.33279570e-07  6.26484683e-01  2.33279570e-07  1.44231375e+00  2.33279570e-07  1.45039030e+00                                 
 3.09912934e-07  6.96069470e-01  3.09912934e-07  6.26756702e-01  3.09912934e-07  6.26834735e-01  3.09912934e-07  1.80000000e+00  3.09912934e-07  3.60509136e-03  3.09912934e-07  6.26721065e-01  3.09912934e-07  1.44262335e+00  3.09912934e-07  1.45038765e+00                                 
 4.50877941e-07  6.96055218e-01  4.50877941e-07  6.26727634e-01  4.50877941e-07  6.26140321e-01  4.50877941e-07  1.80000000e+00  4.50877941e-07 -3.57830826e-03  4.50877941e-07  6.26484544e-01  4.50877941e-07  1.44230685e+00  4.50877941e-07  1.45038346e+00                                 
 7.18839972e-07  6.96069466e-01  7.18839972e-07  6.26756709e-01  7.18839972e-07  6.26823630e-01  7.18839972e-07  1.80000000e+00  7.18839972e-07  3.60349681e-03  7.18839972e-07  6.26721136e-01  7.18839972e-07  1.44261056e+00  7.18839972e-07  1.45037484e+00                                 
 1.25476403e-06  6.96055220e-01  1.25476403e-06  6.26727631e-01  1.25476403e-06  6.26145230e-01  1.25476403e-06  1.80000000e+00  1.25476403e-06 -3.57748602e-03  1.25476403e-06  6.26484509e-01  1.25476403e-06  1.44228160e+00  1.25476403e-06  1.45035826e+00                                 
 2.32661216e-06  6.96069465e-01  2.32661216e-06  6.26756711e-01  2.32661216e-06  6.26820808e-01  2.32661216e-06  1.80000000e+00  2.32661216e-06  3.60308457e-03  2.32661216e-06  6.26721154e-01  2.32661216e-06  1.44256010e+00  2.32661216e-06  1.45032443e+00                                 
 3.52661216e-06  6.96055220e-01  3.52661216e-06  6.26727629e-01  3.52661216e-06  6.26149464e-01  3.52661216e-06  1.80000000e+00  3.52661216e-06 -3.57724134e-03  3.52661216e-06  6.26484498e-01  3.52661216e-06  1.44221029e+00  3.52661216e-06  1.45028705e+00                                 
 4.72661216e-06  6.96069464e-01  4.72661216e-06  6.26756712e-01  4.72661216e-06  6.26820620e-01  4.72661216e-06  1.80000000e+00  4.72661216e-06  3.60283958e-03  4.72661216e-06  6.26721164e-01  4.72661216e-06  1.44248481e+00  4.72661216e-06  1.45024922e+00                                 
 5.92661216e-06  6.96055221e-01  5.92661216e-06  6.26727628e-01  5.92661216e-06  6.26151054e-01  5.92661216e-06  1.80000000e+00  5.92661216e-06 -3.57699853e-03  5.92661216e-06  6.26484488e-01  5.92661216e-06  1.44213499e+00  5.92661216e-06  1.45021185e+00                                 
 6.00100000e-06  6.96069461e-01  6.00100000e-06  6.26756721e-01  6.00100000e-06  6.26807801e-01  6.00100000e-06  1.80000000e+00  6.00100000e-06  3.60073778e-03  6.00100000e-06  6.26721245e-01  6.00100000e-06  1.44244486e+00  6.00100000e-06  1.45020929e+00                                 
 6.00110000e-06  6.96013370e-01  6.00110000e-06  6.26504496e-01  6.00110000e-06  6.24967459e-01  6.00110000e-06  1.62000000e+00  6.00110000e-06  2.40226842e-04  6.00110000e-06  6.25079666e-01  6.00110000e-06  1.44099144e+00  6.00110000e-06  1.45019882e+00                                 
 6.00130000e-06  6.96046196e-01  6.00130000e-06  6.26497392e-01  6.00130000e-06  6.24890774e-01  6.00130000e-06  1.26000000e+00  6.00130000e-06 -2.68261206e-04  6.00130000e-06  6.24757537e-01  6.00130000e-06  1.44070967e+00  6.00130000e-06  1.45021408e+00                                 
 6.00165071e-06  6.96114747e-01  6.00165071e-06  6.26691609e-01  6.00165071e-06  6.26816535e-01  6.00165071e-06  6.28719054e-01  6.00165071e-06  1.63497481e-02  6.00165071e-06  6.24945852e-01  6.00165071e-06  1.43740291e+00  6.00165071e-06  1.45018952e+00                                 
 6.00200000e-06  6.96045302e-01  6.00200000e-06  6.25376969e-01  6.00200000e-06  6.59455193e-01  6.00200000e-06  0.00000000e+00  6.00200000e-06  1.60959464e+00  6.00200000e-06  6.11216504e-01  6.00200000e-06  1.23256557e+00  6.00200000e-06  1.44961304e+00                                 
 6.00204203e-06  6.96061931e-01  6.00204203e-06  6.24797316e-01  6.00204203e-06  6.66984859e-01  6.00204203e-06  0.00000000e+00  6.00204203e-06  1.72677417e+00  6.00204203e-06  6.04641505e-01  6.00204203e-06  1.16514550e+00  6.00204203e-06  1.44961316e+00                                 
 6.00212608e-06  6.96065097e-01  6.00212608e-06  6.23867528e-01  6.00212608e-06  6.72557151e-01  6.00212608e-06  0.00000000e+00  6.00212608e-06  1.81316964e+00  6.00212608e-06  5.94232461e-01  6.00212608e-06  1.02848552e+00  6.00212608e-06  1.45000697e+00                                 
 6.00229419e-06  6.96060509e-01  6.00229419e-06  6.23886548e-01  6.00229419e-06  6.61920592e-01  6.00229419e-06  0.00000000e+00  6.00229419e-06  1.78920058e+00  6.00229419e-06  5.94951865e-01  6.00229419e-06  8.20227887e-01  6.00229419e-06  1.45049522e+00                                 
 6.00246381e-06  6.96063116e-01  6.00246381e-06  6.24897243e-01  6.00246381e-06  6.48595332e-01  6.00246381e-06  0.00000000e+00  6.00246381e-06  1.80427030e+00  6.00246381e-06  6.06049348e-01  6.00246381e-06  7.10804598e-01  6.00246381e-06  1.45054996e+00                                 
 6.00264234e-06  6.96060093e-01  6.00264234e-06  6.25829598e-01  6.00264234e-06  6.36864577e-01  6.00264234e-06  0.00000000e+00  6.00264234e-06  1.79707821e+00  6.00264234e-06  6.15184453e-01  6.00264234e-06  6.58458827e-01  6.00264234e-06  1.45064297e+00                                 
 6.00285708e-06  6.96062839e-01  6.00285708e-06  6.26637908e-01  6.00285708e-06  6.30534606e-01  6.00285708e-06  0.00000000e+00  6.00285708e-06  1.80190183e+00  6.00285708e-06  6.22736546e-01  6.00285708e-06  6.37667615e-01  6.00285708e-06  1.45000134e+00                                 
 6.00306452e-06  6.96060554e-01  6.00306452e-06  6.26940926e-01  6.00306452e-06  6.28326219e-01  6.00306452e-06  0.00000000e+00  6.00306452e-06  1.79890060e+00  6.00306452e-06  6.25024838e-01  6.00306452e-06  6.30524147e-01  6.00306452e-06  1.44913093e+00                                 
 6.00333394e-06  6.96062965e-01  6.00333394e-06  6.27161424e-01  6.00333394e-06  6.27664635e-01  6.00333394e-06  0.00000000e+00  6.00333394e-06  1.80082834e+00  6.00333394e-06  6.26972649e-01  6.00333394e-06  6.28427831e-01  6.00333394e-06  1.44757575e+00                                 
 6.00372489e-06  6.96061086e-01  6.00372489e-06  6.27189360e-01  6.00372489e-06  6.28201132e-01  6.00372489e-06  0.00000000e+00  6.00372489e-06  1.79938740e+00  6.00372489e-06  6.27278234e-01  6.00372489e-06  6.27882470e-01  6.00372489e-06  1.44515083e+00                                 
 6.00437269e-06  6.96063207e-01  6.00437269e-06  6.27187412e-01  6.00437269e-06  6.29829187e-01  6.00437269e-06  0.00000000e+00  6.00437269e-06  1.80055576e+00  6.00437269e-06  6.27866199e-01  6.00437269e-06  6.29739300e-01  6.00437269e-06  1.44067750e+00                                 
 6.00542041e-06  6.96061378e-01  6.00542041e-06  6.27087566e-01  6.00542041e-06  6.32947907e-01  6.00542041e-06  0.00000000e+00  6.00542041e-06  1.79951894e+00  6.00542041e-06  6.27675662e-01  6.00542041e-06  6.32474986e-01  6.00542041e-06  1.43311039e+00                                 
 6.00751586e-06  6.96063256e-01  6.00751586e-06  6.26970273e-01  6.00751586e-06  6.39216729e-01  6.00751586e-06  0.00000000e+00  6.00751586e-06  1.80048492e+00  6.00751586e-06  6.27927543e-01  6.00751586e-06  6.39059848e-01  6.00751586e-06  1.41708000e+00                                 
 6.01170675e-06  6.96061410e-01  6.01170675e-06  6.26767530e-01  6.01170675e-06  6.51781681e-01  6.01170675e-06  0.00000000e+00  6.01170675e-06  1.79955072e+00  6.01170675e-06  6.27420117e-01  6.01170675e-06  6.51267032e-01  6.01170675e-06  1.38381826e+00                                 
 6.01970170e-06  6.96063256e-01  6.01970170e-06  6.26727429e-01  6.01970170e-06  6.74856200e-01  6.01970170e-06  0.00000000e+00  6.01970170e-06  1.80046801e+00  6.01970170e-06  6.27324256e-01  6.01970170e-06  6.74668797e-01  6.01970170e-06  1.31864413e+00                                 
 6.03225377e-06  6.96061422e-01  6.03225377e-06  6.26725525e-01  6.03225377e-06  7.09518268e-01  6.03225377e-06  0.00000000e+00  6.03225377e-06  1.79955867e+00  6.03225377e-06  6.26707642e-01  6.03225377e-06  7.08923944e-01  6.03225377e-06  1.21653141e+00                                 
 6.04695394e-06  6.96063257e-01  6.04695394e-06  6.26748714e-01  6.04695394e-06  7.47387783e-01  6.04695394e-06  0.00000000e+00  6.04695394e-06  1.80046019e+00  6.04695394e-06  6.26820179e-01  6.04695394e-06  7.47194671e-01  6.04695394e-06  1.10827982e+00                                 
 6.06698755e-06  6.96061427e-01  6.06698755e-06  6.26731325e-01  6.06698755e-06  7.94927291e-01  6.06698755e-06  0.00000000e+00  6.06698755e-06  1.79956171e+00  6.06698755e-06  6.26474720e-01  6.06698755e-06  7.94116126e-01  6.06698755e-06  9.80818257e-01                                 
 6.10108308e-06  6.96063256e-01  6.10108308e-06  6.26752700e-01  6.10108308e-06  8.65433909e-01  6.10108308e-06  0.00000000e+00  6.10108308e-06  1.80045393e+00  6.10108308e-06  6.26729125e-01  6.10108308e-06  8.65248384e-01  6.10108308e-06  8.73792607e-01                                 
 6.13437858e-06  6.96061429e-01  6.13437858e-06  6.26731494e-01  6.13437858e-06  9.23171746e-01  6.13437858e-06  0.00000000e+00  6.13437858e-06  1.79956075e+00  6.13437858e-06  6.26456165e-01  6.13437858e-06  9.21925123e-01  6.13437858e-06  8.96117442e-01                                 
 6.15569915e-06  6.96063255e-01  6.15569915e-06  6.26753206e-01  6.15569915e-06  9.54837385e-01  6.15569915e-06  0.00000000e+00  6.15569915e-06  1.80044851e+00  6.15569915e-06  6.26734388e-01  6.15569915e-06  9.54757466e-01  6.15569915e-06  9.29864833e-01                                 
