 time            v(vbep)         time            v(vben)         time            v(vout)         time            v(vphi1)        time            v(vphi2)        time            v(vref)         yes             currtemp       
 0.00000000e+00  7.36726024e-01  0.00000000e+00  6.87136479e-01  0.00000000e+00  4.00019864e-01  0.00000000e+00  0.00000000e+00  0.00000000e+00  1.79996390e+00  0.00000000e+00  5.00000000e-01  1.00000000e+00 -2.00000000e+00 
 5.00000000e-12  7.36703701e-01  5.00000000e-12  6.87117918e-01  5.00000000e-12  4.00568434e-01  5.00000000e-12  1.80000000e-02  5.00000000e-12  1.80005018e+00  5.00000000e-12  5.00000000e-01                                 
 1.00000000e-11  7.36681869e-01  1.00000000e-11  6.87099797e-01  1.00000000e-11  4.01054919e-01  1.00000000e-11  3.60000000e-02  1.00000000e-11  1.80009333e+00  1.00000000e-11  5.00000000e-01                                 
 2.00000000e-11  7.36638491e-01  2.00000000e-11  6.87063680e-01  2.00000000e-11  4.01935784e-01  2.00000000e-11  7.20000000e-02  2.00000000e-11  1.80013282e+00  2.00000000e-11  5.00000000e-01                                 
 4.00000000e-11  7.36552232e-01  4.00000000e-11  6.86991697e-01  4.00000000e-11  4.03281528e-01  4.00000000e-11  1.44000000e-01  4.00000000e-11  1.80011038e+00  4.00000000e-11  5.00000000e-01                                 
 8.00000000e-11  7.36380475e-01  8.00000000e-11  6.86848302e-01  8.00000000e-11  4.05026350e-01  8.00000000e-11  2.88000000e-01  8.00000000e-11  1.80006184e+00  8.00000000e-11  5.00000000e-01                                 
 1.60000000e-10  7.36040234e-01  1.60000000e-10  6.86563803e-01  1.60000000e-10  4.06987840e-01  1.60000000e-10  5.76000000e-01  1.60000000e-10  1.80002035e+00  1.60000000e-10  5.00000000e-01                                 
 3.20000000e-10  7.35372163e-01  3.20000000e-10  6.86003683e-01  3.20000000e-10  3.97813785e-01  3.20000000e-10  1.15200000e+00  3.20000000e-10  1.80012238e+00  3.20000000e-10  5.00000000e-01                                 
 5.00000000e-10  7.34639773e-01  5.00000000e-10  6.85387274e-01  5.00000000e-10  6.58799087e-01  5.00000000e-10  1.80000000e+00  5.00000000e-10  1.00066672e-01  5.00000000e-10  5.00000000e-01                                 
 5.21052422e-10  7.34555541e-01  5.21052422e-10  6.85316210e-01  5.21052422e-10  7.14140668e-01  5.21052422e-10  1.80000000e+00  5.21052422e-10  1.78299120e-02  5.21052422e-10  5.00000000e-01                                 
 5.63157267e-10  7.34387587e-01  5.63157267e-10  6.85174443e-01  5.63157267e-10  8.13733821e-01  5.63157267e-10  1.80000000e+00  5.63157267e-10 -8.53920856e-03  5.63157267e-10  5.00000000e-01                                 
 6.47366955e-10  7.34054767e-01  6.47366955e-10  6.84893144e-01  6.47366955e-10  9.72779891e-01  6.47366955e-10  1.80000000e+00  6.47366955e-10  7.36590374e-03  6.47366955e-10  5.00000000e-01                                 
 7.70842540e-10  7.33574043e-01  7.70842540e-10  6.84485966e-01  7.70842540e-10  1.16493788e+00  7.70842540e-10  1.80000000e+00  7.70842540e-10 -6.51454540e-03  7.70842540e-10  5.00000000e-01                                 
 9.60168246e-10  7.32853137e-01  9.60168246e-10  6.83873443e-01  9.60168246e-10  1.40882001e+00  9.60168246e-10  1.80000000e+00  9.60168246e-10  6.18427877e-03  9.60168246e-10  5.00000000e-01                                 
 1.33881966e-09  7.31466277e-01  1.33881966e-09  6.82688813e-01  1.33881966e-09  1.73525083e+00  1.33881966e-09  1.80000000e+00  1.33881966e-09 -5.88154105e-03  1.33881966e-09  5.00000000e-01                                 
 1.83912642e-09  7.29736828e-01  1.83912642e-09  6.81200135e-01  1.83912642e-09  1.91842885e+00  1.83912642e-09  1.80000000e+00  1.83912642e-09  5.82448785e-03  1.83912642e-09  5.00000000e-01                                 
 2.10303022e-09  7.28868225e-01  2.10303022e-09  6.80447639e-01  2.10303022e-09  1.94920095e+00  2.10303022e-09  1.80000000e+00  2.10303022e-09 -5.48227127e-03  2.10303022e-09  5.00000000e-01                                 
 2.43664358e-09  7.27809059e-01  2.43664358e-09  6.79525924e-01  2.43664358e-09  1.96642772e+00  2.43664358e-09  1.80000000e+00  2.43664358e-09  5.33461389e-03  2.43664358e-09  5.00000000e-01                                 
 2.78593512e-09  7.26743476e-01  2.78593512e-09  6.78594116e-01  2.78593512e-09  1.97288425e+00  2.78593512e-09  1.80000000e+00  2.78593512e-09 -5.10233260e-03  2.78593512e-09  5.00000000e-01                                 
 3.48341436e-09  7.24734021e-01  3.48341436e-09  6.76825292e-01  3.48341436e-09  1.97509778e+00  3.48341436e-09  1.80000000e+00  3.48341436e-09  5.04894211e-03  3.48341436e-09  5.00000000e-01                                 
 4.26053191e-09  7.22660747e-01  4.26053191e-09  6.74984578e-01  4.26053191e-09  1.97308525e+00  4.26053191e-09  1.80000000e+00  4.26053191e-09 -4.93799427e-03  4.26053191e-09  5.00000000e-01                                 
 5.79442777e-09  7.18981855e-01  5.79442777e-09  6.71683007e-01  5.79442777e-09  1.96920351e+00  5.79442777e-09  1.80000000e+00  5.79442777e-09  4.92864687e-03  5.79442777e-09  5.00000000e-01                                 
 8.17309834e-09  7.14110517e-01  8.17309834e-09  6.67247636e-01  8.17309834e-09  1.96334094e+00  8.17309834e-09  1.80000000e+00  8.17309834e-09 -4.86625238e-03  8.17309834e-09  5.00000000e-01                                 
 9.74310394e-09  7.11326189e-01  9.74310394e-09  6.64681789e-01  9.74310394e-09  1.95955958e+00  9.74310394e-09  1.80000000e+00  9.74310394e-09  4.85955297e-03  9.74310394e-09  5.00000000e-01                                 
 1.14754541e-08  7.08543720e-01  1.14754541e-08  6.62100276e-01  1.14754541e-08  1.95596583e+00  1.14754541e-08  1.80000000e+00  1.14754541e-08 -4.79932334e-03  1.14754541e-08  5.00000000e-01                                 
 1.33119554e-08  7.05858536e-01  1.33119554e-08  6.59595395e-01  1.33119554e-08  1.95219212e+00  1.33119554e-08  1.80000000e+00  1.33119554e-08  4.78982037e-03  1.33119554e-08  5.00000000e-01                                 
 1.64523556e-08  7.01740208e-01  1.64523556e-08  6.55735320e-01  1.64523556e-08  1.94570426e+00  1.64523556e-08  1.80000000e+00  1.64523556e-08 -4.75030699e-03  1.64523556e-08  5.00000000e-01                                 
 1.95320839e-08  6.98150073e-01  1.95320839e-08  6.52358135e-01  1.95320839e-08  1.93872765e+00  1.95320839e-08  1.80000000e+00  1.95320839e-08  4.75099573e-03  1.95320839e-08  5.00000000e-01                                 
 2.56915406e-08  6.91861129e-01  2.56915406e-08  6.46435736e-01  2.56915406e-08  1.92383402e+00  2.56915406e-08  1.80000000e+00  2.56915406e-08 -4.72204147e-03  2.56915406e-08  5.00000000e-01                                 
 3.22866654e-08  6.86076086e-01  3.22866654e-08  6.40995682e-01  3.22866654e-08  1.91051798e+00  3.22866654e-08  1.80000000e+00  3.22866654e-08  4.73274073e-03  3.22866654e-08  5.00000000e-01                                 
 4.54769149e-08  6.76311633e-01  4.54769149e-08  6.31861288e-01  4.54769149e-08  1.88098924e+00  4.54769149e-08  1.80000000e+00  4.54769149e-08 -4.70875291e-03  4.54769149e-08  5.00000000e-01                                 
 6.38982566e-08  6.65615833e-01  6.38982566e-08  6.21903900e-01  6.38982566e-08  1.84457535e+00  6.38982566e-08  1.80000000e+00  6.38982566e-08  4.72533924e-03  6.38982566e-08  5.00000000e-01                                 
 9.54225891e-08  6.57264035e-01  9.54225891e-08  6.13419973e-01  9.54225891e-08  1.80221853e+00  9.54225891e-08  1.80000000e+00  9.54225891e-08 -4.70350797e-03  9.54225891e-08  5.00000000e-01                                 
 1.27735730e-07  6.58542797e-01  1.27735730e-07  6.13012484e-01  1.27735730e-07  1.79468469e+00  1.27735730e-07  1.80000000e+00  1.27735730e-07  4.72198170e-03  1.27735730e-07  5.00000000e-01                                 
 1.47158689e-07  6.56596457e-01  1.47158689e-07  6.10773654e-01  1.47158689e-07  1.77441226e+00  1.47158689e-07  1.80000000e+00  1.47158689e-07 -4.69896305e-03  1.47158689e-07  5.00000000e-01                                 
 1.72739286e-07  6.48697375e-01  1.72739286e-07  6.03717154e-01  1.72739286e-07  1.74157647e+00  1.72739286e-07  1.80000000e+00  1.72739286e-07  4.71661999e-03  1.72739286e-07  5.00000000e-01                                 
 1.93682131e-07  6.42843563e-01  1.93682131e-07  5.98501681e-01  1.93682131e-07  1.71683833e+00  1.93682131e-07  1.80000000e+00  1.93682131e-07 -4.69399335e-03  1.93682131e-07  5.00000000e-01                                 
 2.16804916e-07  6.36848822e-01  2.16804916e-07  5.93183923e-01  2.16804916e-07  1.68894784e+00  2.16804916e-07  1.80000000e+00  2.16804916e-07  4.71139155e-03  2.16804916e-07  5.00000000e-01                                 
 2.52172121e-07  6.27577328e-01  2.52172121e-07  5.85090042e-01  2.52172121e-07  1.64639921e+00  2.52172121e-07  1.80000000e+00  2.52172121e-07 -4.68991415e-03  2.52172121e-07  5.00000000e-01                                 
 3.09579276e-07  6.13236092e-01  3.09579276e-07  5.72765918e-01  3.09579276e-07  1.57557224e+00  3.09579276e-07  1.80000000e+00  3.09579276e-07  4.70877407e-03  3.09579276e-07  5.00000000e-01                                 
 4.15101550e-07  5.84050542e-01  4.15101550e-07  5.48472013e-01  4.15101550e-07  1.44399697e+00  4.15101550e-07  1.80000000e+00  4.15101550e-07 -4.68839851e-03  4.15101550e-07  5.00000000e-01                                 
 5.42998993e-07  5.41419380e-01  5.42998993e-07  5.13941916e-01  5.42998993e-07  1.27155039e+00  5.42998993e-07  1.80000000e+00  5.42998993e-07  4.70774669e-03  5.42998993e-07  5.00000000e-01                                 
 5.73682419e-07  5.29827377e-01  5.73682419e-07  5.04655593e-01  5.73682419e-07  1.22925377e+00  5.73682419e-07  1.80000000e+00  5.73682419e-07  3.88959940e-07  5.73682419e-07  5.00000000e-01                                 
 6.24114721e-07  5.16781918e-01  6.24114721e-07  4.94211067e-01  6.24114721e-07  1.16413955e+00  6.24114721e-07  1.80000000e+00  6.24114721e-07 -4.80939764e-07  6.24114721e-07  5.00000000e-01                                 
 6.71753754e-07  5.77861473e-01  6.71753754e-07  5.43018084e-01  6.71753754e-07  1.17344728e+00  6.71753754e-07  1.80000000e+00  6.71753754e-07  1.53518618e-06  6.71753754e-07  5.00000000e-01                                 
 7.16824205e-07  7.73582179e-01  7.16824205e-07  7.21593810e-01  7.16824205e-07  1.31458431e+00  7.16824205e-07  1.80000000e+00  7.16824205e-07  2.56267981e-06  7.16824205e-07  5.00000000e-01                                 
 7.53827023e-07  8.21050173e-01  7.53827023e-07  7.68570188e-01  7.53827023e-07  1.32425743e+00  7.53827023e-07  1.80000000e+00  7.53827023e-07 -6.56276539e-07  7.53827023e-07  5.00000000e-01                                 
 7.93145528e-07  8.44890376e-01  7.93145528e-07  7.89360347e-01  7.93145528e-07  1.30299188e+00  7.93145528e-07  1.80000000e+00  7.93145528e-07  1.27062985e-06  7.93145528e-07  5.00000000e-01                                 
 8.28885856e-07  8.70079290e-01  8.28885856e-07  8.09231156e-01  8.28885856e-07  1.29225241e+00  8.28885856e-07  1.80000000e+00  8.28885856e-07 -1.56675284e-07  8.28885856e-07  5.00000000e-01                                 
 8.74220268e-07  9.06476361e-01  8.74220268e-07  8.33844839e-01  8.74220268e-07  1.27302380e+00  8.74220268e-07  1.80000000e+00  8.74220268e-07  1.00000832e-06  8.74220268e-07  5.00000000e-01                                 
 8.80849382e-07  9.07195743e-01  8.80849382e-07  8.34386602e-01  8.80849382e-07  1.26923359e+00  8.80849382e-07  1.80000000e+00  8.80849382e-07  3.71077275e-07  8.80849382e-07  5.00000000e-01                                 
 8.94107610e-07  9.05644323e-01  8.94107610e-07  8.33498293e-01  8.94107610e-07  1.25508947e+00  8.94107610e-07  1.80000000e+00  8.94107610e-07 -1.95305575e-07  8.94107610e-07  5.00000000e-01                                 
 9.20624065e-07  9.01039501e-01  9.20624065e-07  8.30545884e-01  9.20624065e-07  1.22322512e+00  9.20624065e-07  1.80000000e+00  9.20624065e-07  9.33465341e-08  9.20624065e-07  5.00000000e-01                                 
 9.46080529e-07  8.97033543e-01  9.46080529e-07  8.28019774e-01  9.46080529e-07  1.19388651e+00  9.46080529e-07  1.80000000e+00  9.46080529e-07 -1.55874486e-07  9.46080529e-07  5.00000000e-01                                 
 9.96993456e-07  8.79706768e-01  9.96993456e-07  8.16293081e-01  9.96993456e-07  1.12502115e+00  9.96993456e-07  1.80000000e+00  9.96993456e-07 -1.14439261e-07  9.96993456e-07  5.00000000e-01                                 
 1.05172467e-06  8.47826773e-01  1.05172467e-06  7.91947713e-01  1.05172467e-06  1.03649412e+00  1.05172467e-06  1.80000000e+00  1.05172467e-06 -4.52726654e-07  1.05172467e-06  5.00000000e-01                                 
 1.10537304e-06  8.22170837e-01  1.10537304e-06  7.69495727e-01  1.10537304e-06  9.56398887e-01  1.10537304e-06  1.80000000e+00  1.10537304e-06 -3.21364380e-08  1.10537304e-06  5.00000000e-01                                 
 1.16163764e-06  8.25654539e-01  1.16163764e-06  7.72716369e-01  1.16163764e-06  9.12925857e-01  1.16163764e-06  1.80000000e+00  1.16163764e-06  1.90023279e-07  1.16163764e-06  5.00000000e-01                                 
 1.21846906e-06  8.30407593e-01  1.21846906e-06  7.76909343e-01  1.21846906e-06  8.74311367e-01  1.21846906e-06  1.80000000e+00  1.21846906e-06  3.26959298e-08  1.21846906e-06  5.00000000e-01                                 
 1.28925318e-06  8.26282878e-01  1.28925318e-06  7.73297077e-01  1.28925318e-06  8.22025915e-01  1.28925318e-06  1.80000000e+00  1.28925318e-06  2.21202613e-09  1.28925318e-06  5.00000000e-01                                 
 1.41471314e-06  8.26669271e-01  1.41471314e-06  7.73563599e-01  1.41471314e-06  7.51518695e-01  1.41471314e-06  1.80000000e+00  1.41471314e-06  1.07225836e-07  1.41471314e-06  5.00000000e-01                                 
 1.53581261e-06  8.28745191e-01  1.53581261e-06  7.75499045e-01  1.53581261e-06  6.96140734e-01  1.53581261e-06  1.80000000e+00  1.53581261e-06  1.63783267e-08  1.53581261e-06  5.00000000e-01                                 
 1.77801154e-06  8.25488899e-01  1.77801154e-06  7.72504625e-01  1.77801154e-06  5.92379744e-01  1.77801154e-06  1.80000000e+00  1.77801154e-06  7.05117067e-08  1.77801154e-06  5.00000000e-01                                 
 2.08647628e-06  8.29013998e-01  2.08647628e-06  7.75735387e-01  2.08647628e-06  5.17932942e-01  2.08647628e-06  1.80000000e+00  2.08647628e-06  4.71392428e-08  2.08647628e-06  5.00000000e-01                                 
 2.47046574e-06  8.25437359e-01  2.47046574e-06  7.72460968e-01  2.47046574e-06  4.91240500e-01  2.47046574e-06  1.80000000e+00  2.47046574e-06  4.50322221e-08  2.47046574e-06  5.00000000e-01                                 
 2.52189692e-06  8.27011593e-01  2.52189692e-06  7.73909241e-01  2.52189692e-06  4.94195287e-01  2.52189692e-06  1.80000000e+00  2.52189692e-06  6.86052920e-08  2.52189692e-06  5.00000000e-01                                 
 2.62475926e-06  8.27561935e-01  2.62475926e-06  7.74406116e-01  2.62475926e-06  4.99452319e-01  2.62475926e-06  1.80000000e+00  2.62475926e-06  4.14950459e-08  2.62475926e-06  5.00000000e-01                                 
 2.83048396e-06  8.26870254e-01  2.83048396e-06  7.73783409e-01  2.83048396e-06  5.02299463e-01  2.83048396e-06  1.80000000e+00  2.83048396e-06  5.48018117e-08  2.83048396e-06  5.00000000e-01                                 
 3.09335202e-06  8.27523941e-01  3.09335202e-06  7.74371381e-01  3.09335202e-06  4.99159711e-01  3.09335202e-06  1.80000000e+00  3.09335202e-06  5.03127377e-08  3.09335202e-06  5.00000000e-01                                 
 3.40613825e-06  8.26943300e-01  3.40613825e-06  7.73849515e-01  3.40613825e-06  4.99701924e-01  3.40613825e-06  1.80000000e+00  3.40613825e-06  4.94675086e-08  3.40613825e-06  5.00000000e-01                                 
 3.95130597e-06  8.27454194e-01  3.95130597e-06  7.74308551e-01  3.95130597e-06  5.00928615e-01  3.95130597e-06  1.80000000e+00  3.95130597e-06  5.33638287e-08  3.95130597e-06  5.00000000e-01                                 
 4.85159148e-06  8.26989297e-01  4.85159148e-06  7.73890980e-01  4.85159148e-06  4.99289432e-01  4.85159148e-06  1.80000000e+00  4.85159148e-06  4.79265092e-08  4.85159148e-06  5.00000000e-01                                 
 5.85159148e-06  8.27419315e-01  5.85159148e-06  7.74277179e-01  5.85159148e-06  5.00931707e-01  5.85159148e-06  1.80000000e+00  5.85159148e-06  5.43827144e-08  5.85159148e-06  5.00000000e-01                                 
 6.85159148e-06  8.27023187e-01  6.85159148e-06  7.73921497e-01  6.85159148e-06  4.99433011e-01  6.85159148e-06  1.80000000e+00  6.85159148e-06  4.70210126e-08  6.85159148e-06  5.00000000e-01                                 
 7.85159148e-06  8.27384768e-01  7.85159148e-06  7.74246123e-01  7.85159148e-06  5.00688438e-01  7.85159148e-06  1.80000000e+00  7.85159148e-06  5.52269456e-08  7.85159148e-06  5.00000000e-01                                 
 8.85159148e-06  8.27058107e-01  8.85159148e-06  7.73952918e-01  8.85159148e-06  4.99715541e-01  8.85159148e-06  1.80000000e+00  8.85159148e-06  4.62441341e-08  8.85159148e-06  5.00000000e-01                                 
 9.85159148e-06  8.27349683e-01  9.85159148e-06  7.74214597e-01  9.85159148e-06  5.00387339e-01  9.85159148e-06  1.80000000e+00  9.85159148e-06  5.59298746e-08  9.85159148e-06  5.00000000e-01                                 
 1.00005000e-05  8.27185932e-01  1.00005000e-05  7.74067772e-01  1.00005000e-05  5.00337295e-01  1.00005000e-05  1.80000000e+00  1.00005000e-05  4.47774834e-08  1.00005000e-05  5.00000000e-01                                 
 1.00005500e-05  8.27185659e-01  1.00005500e-05  7.74067549e-01  1.00005500e-05  4.92304342e-01  1.00005500e-05  1.62000000e+00  1.00005500e-05 -6.87348606e-05  1.00005500e-05  5.00000000e-01                                 
 1.00006500e-05  8.27185104e-01  1.00006500e-05  7.74067088e-01  1.00006500e-05  4.78674982e-01  1.00006500e-05  1.26000000e+00  1.00006500e-05 -4.80136597e-05  1.00006500e-05  5.00000000e-01                                 
 1.00008500e-05  8.27183895e-01  1.00008500e-05  7.74066065e-01  1.00008500e-05  4.78237560e-01  1.00008500e-05  5.40000000e-01  1.00008500e-05 -6.48000281e-04  1.00008500e-05  5.00000000e-01                                 
 1.00010000e-05  8.27182770e-01  1.00010000e-05  7.74065132e-01  1.00010000e-05  4.42085333e-01  1.00010000e-05  0.00000000e+00  1.00010000e-05  1.55060977e+00  1.00010000e-05  5.00000000e-01                                 
 1.00010149e-05  8.27182594e-01  1.00010149e-05  7.74065003e-01  1.00010149e-05  4.22935017e-01  1.00010149e-05  0.00000000e+00  1.00010149e-05  1.68038599e+00  1.00010149e-05  5.00000000e-01                                 
 1.00010448e-05  8.27182257e-01  1.00010448e-05  7.74064743e-01  1.00010448e-05  3.77342692e-01  1.00010448e-05  0.00000000e+00  1.00010448e-05  1.80202783e+00  1.00010448e-05  5.00000000e-01                                 
 1.00011045e-05  8.27181789e-01  1.00011045e-05  7.74064297e-01  1.00011045e-05  2.96407191e-01  1.00011045e-05  0.00000000e+00  1.00011045e-05  1.79620411e+00  1.00011045e-05  5.00000000e-01                                 
 1.00011795e-05  8.27181397e-01  1.00011795e-05  7.74063881e-01  1.00011795e-05  2.52341933e-01  1.00011795e-05  0.00000000e+00  1.00011795e-05  1.79883595e+00  1.00011795e-05  5.00000000e-01                                 
 1.00012876e-05  8.27180792e-01  1.00012876e-05  7.74063349e-01  1.00012876e-05  2.39276398e-01  1.00012876e-05  0.00000000e+00  1.00012876e-05  1.80001629e+00  1.00012876e-05  5.00000000e-01                                 
