 time            v(vbep)         time            v(vben)         time            v(vout)         time            v(vphi1)        time            v(vphi2)        time            v(vref)         time            v(voutc)        time            v(voutcc)       yes             currtemp       
 0.00000000e+00  8.04520850e-01  0.00000000e+00  7.48590127e-01  0.00000000e+00  1.65502642e+00  0.00000000e+00  0.00000000e+00  0.00000000e+00  1.80000000e+00  0.00000000e+00  7.51708400e-01  0.00000000e+00  1.65502640e+00  0.00000000e+00  1.66089688e+00  1.00000000e+00  1.20000000e+01 
 5.00000000e-12  8.04542097e-01  5.00000000e-12  7.48644605e-01  5.00000000e-12  1.65566676e+00  5.00000000e-12  1.80000000e-02  5.00000000e-12  1.80018343e+00  5.00000000e-12  7.52102858e-01  5.00000000e-12  1.65537577e+00  5.00000000e-12  1.66090992e+00                                 
 1.00000000e-11  8.04551458e-01  1.00000000e-11  7.48680742e-01  1.00000000e-11  1.65614411e+00  1.00000000e-11  3.60000000e-02  1.00000000e-11  1.80026770e+00  1.00000000e-11  7.52414666e-01  1.00000000e-11  1.65565388e+00  1.00000000e-11  1.66091717e+00                                 
 2.00000000e-11  8.04557614e-01  2.00000000e-11  7.48731105e-01  2.00000000e-11  1.65685507e+00  2.00000000e-11  7.20000000e-02  2.00000000e-11  1.80032336e+00  2.00000000e-11  7.52903688e-01  2.00000000e-11  1.65609493e+00  2.00000000e-11  1.66092451e+00                                 
 4.00000000e-11  8.04545396e-01  4.00000000e-11  7.48767715e-01  4.00000000e-11  1.65739987e+00  4.00000000e-11  1.44000000e-01  4.00000000e-11  1.80019808e+00  4.00000000e-11  7.53377665e-01  4.00000000e-11  1.65654511e+00  4.00000000e-11  1.66091949e+00                                 
 8.00000000e-11  8.04531414e-01  8.00000000e-11  7.48770300e-01  8.00000000e-11  1.65734565e+00  8.00000000e-11  2.88000000e-01  8.00000000e-11  1.80003003e+00  8.00000000e-11  7.53503277e-01  8.00000000e-11  1.65672524e+00  8.00000000e-11  1.66090335e+00                                 
 1.60000000e-10  8.04532563e-01  1.60000000e-10  7.48756827e-01  1.60000000e-10  1.65689330e+00  1.60000000e-10  5.76000000e-01  1.60000000e-10  1.80001476e+00  1.60000000e-10  7.53307587e-01  1.60000000e-10  1.65664120e+00  1.60000000e-10  1.66089757e+00                                 
 3.20000000e-10  8.04470382e-01  3.20000000e-10  7.48316497e-01  3.20000000e-10  1.65245976e+00  3.20000000e-10  1.15200000e+00  3.20000000e-10  1.80067528e+00  3.20000000e-10  7.49419127e-01  3.20000000e-10  1.65342701e+00  3.20000000e-10  1.66086473e+00                                 
 5.00000000e-10  8.04591089e-01  5.00000000e-10  7.48728484e-01  5.00000000e-10  1.64609180e+00  5.00000000e-10  1.80000000e+00  5.00000000e-10  1.41090433e-01  5.00000000e-10  7.53845579e-01  5.00000000e-10  1.65687986e+00  5.00000000e-10  1.66094067e+00                                 
 5.20540227e-10  8.04580421e-01  5.20540227e-10  7.48776919e-01  5.20540227e-10  1.64555223e+00  5.20540227e-10  1.80000000e+00  5.20540227e-10  3.52419004e-02  5.20540227e-10  7.55263176e-01  5.20540227e-10  1.65771292e+00  5.20540227e-10  1.66093787e+00                                 
 5.61620682e-10  8.04616321e-01  5.61620682e-10  7.48865042e-01  5.61620682e-10  1.64535218e+00  5.61620682e-10  1.80000000e+00  5.61620682e-10 -1.33073264e-02  5.61620682e-10  7.57175302e-01  5.61620682e-10  1.65941412e+00  5.61620682e-10  1.66093907e+00                                 
 6.43781590e-10  8.04675579e-01  6.43781590e-10  7.48701588e-01  6.43781590e-10  1.64333746e+00  6.43781590e-10  1.80000000e+00  6.43781590e-10  1.08684867e-02  6.43781590e-10  7.55873874e-01  6.43781590e-10  1.65847598e+00  6.43781590e-10  1.66087835e+00                                 
 7.61869502e-10  8.04690955e-01  7.61869502e-10  7.48679369e-01  7.61869502e-10  1.64270766e+00  7.61869502e-10  1.80000000e+00  7.61869502e-10 -8.57823786e-03  7.61869502e-10  7.56577315e-01  7.61869502e-10  1.65893464e+00  7.61869502e-10  1.66091682e+00                                 
 9.37843595e-10  8.04762732e-01  9.37843595e-10  7.48647460e-01  9.37843595e-10  1.64142852e+00  9.37843595e-10  1.80000000e+00  9.37843595e-10  8.10657200e-03  9.37843595e-10  7.57180678e-01  9.37843595e-10  1.65959660e+00  9.37843595e-10  1.66088887e+00                                 
 1.28979178e-09  8.04797766e-01  1.28979178e-09  7.48584120e-01  1.28979178e-09  1.63776442e+00  1.28979178e-09  1.80000000e+00  1.28979178e-09 -7.36106655e-03  1.28979178e-09  7.57191221e-01  1.28979178e-09  1.65948437e+00  1.28979178e-09  1.66090219e+00                                 
 1.79104111e-09  8.04747568e-01  1.79104111e-09  7.48592444e-01  1.79104111e-09  1.63619800e+00  1.79104111e-09  1.80000000e+00  1.79104111e-09  7.17794871e-03  1.79104111e-09  7.57296057e-01  1.79104111e-09  1.65969517e+00  1.79104111e-09  1.66090746e+00                                 
 2.34417459e-09  8.04622326e-01  2.34417459e-09  7.48561908e-01  2.34417459e-09  1.63552276e+00  2.34417459e-09  1.80000000e+00  2.34417459e-09 -6.89496996e-03  2.34417459e-09  7.56480747e-01  2.34417459e-09  1.65887121e+00  2.34417459e-09  1.66094363e+00                                 
 2.88038368e-09  8.04561141e-01  2.88038368e-09  7.48589225e-01  2.88038368e-09  1.63562017e+00  2.88038368e-09  1.80000000e+00  2.88038368e-09  6.64934426e-03  2.88038368e-09  7.56428330e-01  2.88038368e-09  1.65893440e+00  2.88038368e-09  1.66097621e+00                                 
 3.70135611e-09  8.04499089e-01  3.70135611e-09  7.48563410e-01  3.70135611e-09  1.63465104e+00  3.70135611e-09  1.80000000e+00  3.70135611e-09 -6.48165253e-03  3.70135611e-09  7.55400178e-01  3.70135611e-09  1.65793113e+00  3.70135611e-09  1.66103489e+00                                 
 5.34330098e-09  8.04487779e-01  5.34330098e-09  7.48594720e-01  5.34330098e-09  1.63309291e+00  5.34330098e-09  1.80000000e+00  5.34330098e-09  6.40880151e-03  5.34330098e-09  7.54622319e-01  5.34330098e-09  1.65735616e+00  5.34330098e-09  1.66114266e+00                                 
 8.62719070e-09  8.04483181e-01  8.62719070e-09  7.48573272e-01  8.62719070e-09  1.62784374e+00  8.62719070e-09  1.80000000e+00  8.62719070e-09 -6.36146093e-03  8.62719070e-09  7.52522443e-01  8.62719070e-09  1.65542396e+00  8.62719070e-09  1.66128055e+00                                 
 1.32738237e-08  8.04503186e-01  1.32738237e-08  7.48603929e-01  1.32738237e-08  1.61964467e+00  1.32738237e-08  1.80000000e+00  1.32738237e-08  6.34580279e-03  1.32738237e-08  7.51662962e-01  1.32738237e-08  1.65478126e+00  1.32738237e-08  1.66131326e+00                                 
 1.68703012e-08  8.04499090e-01  1.68703012e-08  7.48576425e-01  1.68703012e-08  1.61163740e+00  1.68703012e-08  1.80000000e+00  1.68703012e-08 -6.29511317e-03  1.68703012e-08  7.50897929e-01  1.68703012e-08  1.65401241e+00  1.68703012e-08  1.66125331e+00                                 
 2.09970266e-08  8.04509477e-01  2.09970266e-08  7.48603935e-01  2.09970266e-08  1.60289948e+00  2.09970266e-08  1.80000000e+00  2.09970266e-08  6.28504642e-03  2.09970266e-08  7.51149546e-01  2.09970266e-08  1.65433053e+00  2.09970266e-08  1.66115984e+00                                 
 2.52845887e-08  8.04506829e-01  2.52845887e-08  7.48576346e-01  2.52845887e-08  1.59234177e+00  2.52845887e-08  1.80000000e+00  2.52845887e-08 -6.23246588e-03  2.52845887e-08  7.50759471e-01  2.52845887e-08  1.65388472e+00  2.52845887e-08  1.66105480e+00                                 
 3.17835752e-08  8.04522073e-01  3.17835752e-08  7.48604059e-01  3.17835752e-08  1.57590410e+00  3.17835752e-08  1.80000000e+00  3.17835752e-08  6.23905161e-03  3.17835752e-08  7.51259511e-01  3.17835752e-08  1.65441502e+00  3.17835752e-08  1.66091871e+00                                 
 3.92473600e-08  8.04518282e-01  3.92473600e-08  7.48576383e-01  3.92473600e-08  1.55487556e+00  3.92473600e-08  1.80000000e+00  3.92473600e-08 -6.19596955e-03  3.92473600e-08  7.51014563e-01  3.92473600e-08  1.65409494e+00  3.92473600e-08  1.66079337e+00                                 
 5.10990356e-08  8.04527368e-01  5.10990356e-08  7.48604029e-01  5.10990356e-08  1.52121033e+00  5.10990356e-08  1.80000000e+00  5.10990356e-08  6.21258327e-03  5.10990356e-08  7.51596290e-01  5.10990356e-08  1.65469705e+00  5.10990356e-08  1.66066991e+00                                 
 6.69029664e-08  8.04518451e-01  6.69029664e-08  7.48576292e-01  6.69029664e-08  1.47474842e+00  6.69029664e-08  1.80000000e+00  6.69029664e-08 -6.17782349e-03  6.69029664e-08  7.51353322e-01  6.69029664e-08  1.65438186e+00  6.69029664e-08  1.66058696e+00                                 
 9.32078484e-08  8.04525461e-01  9.32078484e-08  7.48603976e-01  9.32078484e-08  1.39815314e+00  9.32078484e-08  1.80000000e+00  9.32078484e-08  6.20013769e-03  9.32078484e-08  7.51857572e-01  9.32078484e-08  1.65492080e+00  9.32078484e-08  1.66055707e+00                                 
 1.42411769e-07  8.04516908e-01  1.42411769e-07  7.48576262e-01  1.42411769e-07  1.25469286e+00  1.42411769e-07  1.80000000e+00  1.42411769e-07 -6.17055470e-03  1.42411769e-07  7.51511598e-01  1.42411769e-07  1.65451867e+00  1.42411769e-07  1.66057770e+00                                 
 2.40819612e-07  8.04524850e-01  2.40819612e-07  7.48603971e-01  2.40819612e-07  9.74891508e-01  2.40819612e-07  1.80000000e+00  2.40819612e-07  6.19656262e-03  2.40819612e-07  7.51904817e-01  2.40819612e-07  1.65495828e+00  2.40819612e-07  1.66061217e+00                                 
 3.22475660e-07  8.04516788e-01  3.22475660e-07  7.48576254e-01  3.22475660e-07  7.95974877e-01  3.22475660e-07  1.80000000e+00  3.22475660e-07 -6.16717967e-03  3.22475660e-07  7.51510095e-01  3.22475660e-07  1.65451010e+00  3.22475660e-07  1.66060450e+00                                 
 4.00822417e-07  8.04525323e-01  4.00822417e-07  7.48604018e-01  4.00822417e-07  7.47212428e-01  4.00822417e-07  1.80000000e+00  4.00822417e-07  6.19509542e-03  4.00822417e-07  7.51908323e-01  4.00822417e-07  1.65495419e+00  4.00822417e-07  1.66060496e+00                                 
 4.73255032e-07  8.04515831e-01  4.73255032e-07  7.48576177e-01  4.73255032e-07  7.57072755e-01  4.73255032e-07  1.80000000e+00  4.73255032e-07 -6.16372036e-03  4.73255032e-07  7.51509878e-01  4.73255032e-07  1.65450370e+00  4.73255032e-07  1.66059938e+00                                 
 5.16469196e-07  8.04526041e-01  5.16469196e-07  7.48604085e-01  5.16469196e-07  7.54933407e-01  5.16469196e-07  1.80000000e+00  5.16469196e-07  6.19063309e-03  5.16469196e-07  7.51905763e-01  5.16469196e-07  1.65494713e+00  5.16469196e-07  1.66059958e+00                                 
 5.59790800e-07  8.04515779e-01  5.59790800e-07  7.48576144e-01  5.59790800e-07  7.54710356e-01  5.59790800e-07  1.80000000e+00  5.59790800e-07 -6.15820450e-03  5.59790800e-07  7.51511007e-01  5.59790800e-07  1.65450113e+00  5.59790800e-07  1.66059504e+00                                 
 6.20347329e-07  8.04525820e-01  6.20347329e-07  7.48604093e-01  6.20347329e-07  7.55069226e-01  6.20347329e-07  1.80000000e+00  6.20347329e-07  6.18590686e-03  6.20347329e-07  7.51905680e-01  6.20347329e-07  1.65494274e+00  6.20347329e-07  1.66059537e+00                                 
 7.00843770e-07  8.04515951e-01  7.00843770e-07  7.48576140e-01  7.00843770e-07  7.54688711e-01  7.00843770e-07  1.80000000e+00  7.00843770e-07 -6.15474725e-03  7.00843770e-07  7.51510988e-01  7.00843770e-07  1.65449532e+00  7.00843770e-07  1.66058921e+00                                 
 8.61836651e-07  8.04525714e-01  8.61836651e-07  7.48604095e-01  8.61836651e-07  7.55076266e-01  8.61836651e-07  1.80000000e+00  8.61836651e-07  6.18365205e-03  8.61836651e-07  7.51905685e-01  8.61836651e-07  1.65493277e+00  8.61836651e-07  1.66058543e+00                                 
 1.18382241e-06  8.04516002e-01  1.18382241e-06  7.48576140e-01  1.18382241e-06  7.54686752e-01  1.18382241e-06  1.80000000e+00  1.18382241e-06 -6.15344452e-03  1.18382241e-06  7.51510988e-01  1.18382241e-06  1.65447540e+00  1.18382241e-06  1.66056931e+00                                 
 1.82779394e-06  8.04525689e-01  1.82779394e-06  7.48604095e-01  1.82779394e-06  7.55076986e-01  1.82779394e-06  1.80000000e+00  1.82779394e-06  6.18309838e-03  1.82779394e-06  7.51905684e-01  1.82779394e-06  1.65489287e+00  1.82779394e-06  1.66054562e+00                                 
 2.82779394e-06  8.04516016e-01  2.82779394e-06  7.48576139e-01  2.82779394e-06  7.54686434e-01  2.82779394e-06  1.80000000e+00  2.82779394e-06 -6.15329930e-03  2.82779394e-06  7.51510988e-01  2.82779394e-06  1.65440752e+00  2.82779394e-06  1.66050157e+00                                 
 3.82779394e-06  8.04525679e-01  3.82779394e-06  7.48604096e-01  3.82779394e-06  7.55077213e-01  3.82779394e-06  1.80000000e+00  3.82779394e-06  6.18291285e-03  3.82779394e-06  7.51905684e-01  3.82779394e-06  1.65481033e+00  3.82779394e-06  1.66046325e+00                                 
 4.82779394e-06  8.04516026e-01  4.82779394e-06  7.48576139e-01  4.82779394e-06  7.54686239e-01  4.82779394e-06  1.80000000e+00  4.82779394e-06 -6.15316670e-03  4.82779394e-06  7.51510989e-01  4.82779394e-06  1.65432501e+00  4.82779394e-06  1.66041922e+00                                 
 5.82779394e-06  8.04525668e-01  5.82779394e-06  7.48604095e-01  5.82779394e-06  7.55077391e-01  5.82779394e-06  1.80000000e+00  5.82779394e-06  6.18267514e-03  5.82779394e-06  7.51905682e-01  5.82779394e-06  1.65472782e+00  5.82779394e-06  1.66038092e+00                                 
 6.82779394e-06  8.04516037e-01  6.82779394e-06  7.48576139e-01  6.82779394e-06  7.54686085e-01  6.82779394e-06  1.80000000e+00  6.82779394e-06 -6.15293136e-03  6.82779394e-06  7.51510989e-01  6.82779394e-06  1.65424251e+00  6.82779394e-06  1.66033689e+00                                 
 7.82779394e-06  8.04525658e-01  7.82779394e-06  7.48604095e-01  7.82779394e-06  7.55077529e-01  7.82779394e-06  1.80000000e+00  7.82779394e-06  6.18243744e-03  7.82779394e-06  7.51905682e-01  7.82779394e-06  1.65464534e+00  7.82779394e-06  1.66029860e+00                                 
 8.82779394e-06  8.04516047e-01  8.82779394e-06  7.48576139e-01  8.82779394e-06  7.54685971e-01  8.82779394e-06  1.80000000e+00  8.82779394e-06 -6.15269602e-03  8.82779394e-06  7.51510990e-01  8.82779394e-06  1.65416007e+00  8.82779394e-06  1.66025462e+00                                 
 9.82779394e-06  8.04525648e-01  9.82779394e-06  7.48604095e-01  9.82779394e-06  7.55077627e-01  9.82779394e-06  1.80000000e+00  9.82779394e-06  6.18219975e-03  9.82779394e-06  7.51905681e-01  9.82779394e-06  1.65456291e+00  9.82779394e-06  1.66021635e+00                                 
 1.00005000e-05  8.04516081e-01  1.00005000e-05  7.48576139e-01  1.00005000e-05  7.54685835e-01  1.00005000e-05  1.80000000e+00  1.00005000e-05 -6.15194748e-03  1.00005000e-05  7.51510994e-01  1.00005000e-05  1.65411175e+00  1.00005000e-05  1.66020638e+00                                 
 1.00005500e-05  8.04487390e-01  1.00005500e-05  7.48399133e-01  1.00005500e-05  7.53011304e-01  1.00005500e-05  1.62000000e+00  1.00005500e-05 -6.13154801e-04  1.00005500e-05  7.50105055e-01  1.00005500e-05  1.65293119e+00  1.00005500e-05  1.66019053e+00                                 
 1.00006500e-05  8.04515800e-01  1.00006500e-05  7.48402292e-01  1.00006500e-05  7.53280407e-01  1.00006500e-05  1.26000000e+00  1.00006500e-05  4.70073244e-04  1.00006500e-05  7.49988295e-01  1.00006500e-05  1.65283863e+00  1.00006500e-05  1.66021050e+00                                 
 1.00008500e-05  8.04545333e-01  1.00008500e-05  7.48661850e-01  1.00008500e-05  7.55922467e-01  1.00008500e-05  5.40000000e-01  1.00008500e-05 -1.68679196e-03  1.00008500e-05  7.52041955e-01  1.00008500e-05  1.65406782e+00  1.00008500e-05  1.66021484e+00                                 
 1.00010000e-05  8.04513257e-01  1.00010000e-05  7.47343165e-01  1.00010000e-05  7.76939830e-01  1.00010000e-05  0.00000000e+00  1.00010000e-05  1.48584419e+00  1.00010000e-05  7.36010232e-01  1.00010000e-05  1.58981109e+00  1.00010000e-05  1.65959338e+00                                 
 1.00010266e-05  8.04529155e-01  1.00010266e-05  7.47055000e-01  1.00010266e-05  7.84140282e-01  1.00010266e-05  0.00000000e+00  1.00010266e-05  1.68413888e+00  1.00010266e-05  7.32285415e-01  1.00010266e-05  1.56351707e+00  1.00010266e-05  1.65946994e+00                                 
 1.00010799e-05  8.04522622e-01  1.00010799e-05  7.46558045e-01  1.00010799e-05  7.89862679e-01  1.00010799e-05  0.00000000e+00  1.00010799e-05  1.82423160e+00  1.00010799e-05  7.26344247e-01  1.00010799e-05  1.50666453e+00  1.00010799e-05  1.65939551e+00                                 
 1.00011865e-05  8.04516214e-01  1.00011865e-05  7.46571310e-01  1.00011865e-05  7.81302542e-01  1.00011865e-05  0.00000000e+00  1.00011865e-05  1.78502137e+00  1.00011865e-05  7.27204177e-01  1.00011865e-05  1.40883954e+00  1.00011865e-05  1.65990496e+00                                 
 1.00013261e-05  8.04525053e-01  1.00013261e-05  7.47002217e-01  1.00013261e-05  7.77473966e-01  1.00013261e-05  0.00000000e+00  1.00013261e-05  1.80843065e+00  1.00013261e-05  7.32946285e-01  1.00013261e-05  1.31253493e+00  1.00013261e-05  1.66024860e+00                                 
 1.00015481e-05  8.04515707e-01  1.00015481e-05  7.47256938e-01  1.00015481e-05  7.72083478e-01  1.00015481e-05  0.00000000e+00  1.00015481e-05  1.79299717e+00  1.00015481e-05  7.35458455e-01  1.00015481e-05  1.18932152e+00  1.00015481e-05  1.66040144e+00                                 
 1.00019484e-05  8.04524658e-01  1.00019484e-05  7.47882689e-01  1.00019484e-05  7.66828240e-01  1.00019484e-05  0.00000000e+00  1.00019484e-05  1.80548988e+00  1.00019484e-05  7.41083960e-01  1.00019484e-05  1.03996745e+00  1.00019484e-05  1.66049704e+00                                 
 1.00024615e-05  8.04516239e-01  1.00024615e-05  7.48226741e-01  1.00024615e-05  7.64043666e-01  1.00024615e-05  0.00000000e+00  1.00024615e-05  1.79488380e+00  1.00024615e-05  7.43038711e-01  1.00024615e-05  9.05943483e-01  1.00024615e-05  1.66023150e+00                                 
 1.00030125e-05  8.04524706e-01  1.00030125e-05  7.48723561e-01  1.00030125e-05  7.59980028e-01  1.00030125e-05  0.00000000e+00  1.00030125e-05  1.80425590e+00  1.00030125e-05  7.47886772e-01  1.00030125e-05  8.18619942e-01  1.00030125e-05  1.65971101e+00                                 
 1.00039441e-05  8.04516745e-01  1.00039441e-05  7.48995267e-01  1.00039441e-05  7.57287332e-01  1.00039441e-05  0.00000000e+00  1.00039441e-05  1.79590578e+00  1.00039441e-05  7.50989412e-01  1.00039441e-05  7.59496651e-01  1.00039441e-05  1.65831918e+00                                 
 1.00047515e-05  8.04524667e-01  1.00047515e-05  7.49089514e-01  1.00047515e-05  7.56841794e-01  1.00047515e-05  0.00000000e+00  1.00047515e-05  1.80372563e+00  1.00047515e-05  7.53143535e-01  1.00047515e-05  7.57936288e-01  1.00047515e-05  1.65673807e+00                                 
 1.00056142e-05  8.04517029e-01  1.00056142e-05  7.48890143e-01  1.00056142e-05  7.59183911e-01  1.00056142e-05  0.00000000e+00  1.00056142e-05  1.79653888e+00  1.00056142e-05  7.52112961e-01  1.00056142e-05  7.57556824e-01  1.00056142e-05  1.65473970e+00                                 
 1.00064963e-05  8.04524497e-01  1.00064963e-05  7.48896781e-01  1.00064963e-05  7.59753643e-01  1.00064963e-05  0.00000000e+00  1.00064963e-05  1.80316986e+00  1.00064963e-05  7.53282445e-01  1.00064963e-05  7.60065293e-01  1.00064963e-05  1.65265187e+00                                 
 1.00082605e-05  8.04517211e-01  1.00082605e-05  7.48699839e-01  1.00082605e-05  7.63829563e-01  1.00082605e-05  0.00000000e+00  1.00082605e-05  1.79693601e+00  1.00082605e-05  7.52277993e-01  1.00082605e-05  7.62150856e-01  1.00082605e-05  1.64835309e+00                                 
