 time            v(vbep)         time            v(vben)         time            v(vout)         time            v(vphi1)        time            v(vphi2)        time            v(vref)         time            v(voutc)        time            v(voutcc)       yes             currtemp       
 0.00000000e+00  8.26723617e-01  0.00000000e+00  7.75949394e-01  0.00000000e+00  1.70870553e+00  0.00000000e+00  0.00000000e+00  0.00000000e+00  1.80000000e+00  0.00000000e+00  7.79586557e-01  0.00000000e+00  1.70870552e+00  0.00000000e+00  1.71389229e+00  1.00000000e+00 -9.00000000e+00 
 1.00000000e-11  8.26746085e-01  1.00000000e-11  7.76017396e-01  1.00000000e-11  1.70952146e+00  1.00000000e-11  1.80000000e-02  1.00000000e-11  1.80024447e+00  1.00000000e-11  7.80104991e-01  1.00000000e-11  1.70916559e+00  1.00000000e-11  1.71390369e+00                                 
 2.00000000e-11  8.26752346e-01  2.00000000e-11  7.76060244e-01  2.00000000e-11  1.71006628e+00  2.00000000e-11  3.60000000e-02  2.00000000e-11  1.80034614e+00  2.00000000e-11  7.80495883e-01  2.00000000e-11  1.70952447e+00  2.00000000e-11  1.71390840e+00                                 
 4.00000000e-11  8.26752255e-01  4.00000000e-11  7.76116318e-01  4.00000000e-11  1.71078388e+00  4.00000000e-11  7.20000000e-02  4.00000000e-11  1.80039255e+00  4.00000000e-11  7.81073307e-01  4.00000000e-11  1.71007599e+00  4.00000000e-11  1.71391027e+00                                 
 8.00000000e-11  8.26740915e-01  8.00000000e-11  7.76149430e-01  8.00000000e-11  1.71110450e+00  8.00000000e-11  1.44000000e-01  8.00000000e-11  1.80019941e+00  8.00000000e-11  7.81533060e-01  8.00000000e-11  1.71058766e+00  8.00000000e-11  1.71389958e+00                                 
 1.60000000e-10  8.26737537e-01  1.60000000e-10  7.76149888e-01  1.60000000e-10  1.71086389e+00  1.60000000e-10  2.88000000e-01  1.60000000e-10  1.80001197e+00  1.60000000e-10  7.81594809e-01  1.60000000e-10  1.71076640e+00  1.60000000e-10  1.71388736e+00                                 
 3.20000000e-10  8.26734980e-01  3.20000000e-10  7.76149009e-01  3.20000000e-10  1.71055913e+00  3.20000000e-10  5.76000000e-01  3.20000000e-10  1.80001753e+00  3.20000000e-10  7.81547862e-01  3.20000000e-10  1.71070814e+00  3.20000000e-10  1.71388511e+00                                 
 6.40000000e-10  8.26663346e-01  6.40000000e-10  7.75928252e-01  6.40000000e-10  1.70460744e+00  6.40000000e-10  1.15200000e+00  6.40000000e-10  1.81347694e+00  6.40000000e-10  7.80961020e-01  6.40000000e-10  1.71542786e+00  6.40000000e-10  1.71391342e+00                                 
 9.96095320e-10  8.27093873e-01  9.96095320e-10  7.75964490e-01  9.96095320e-10  1.67469625e+00  9.96095320e-10  1.79297158e+00  9.96095320e-10  7.68034048e-02  9.96095320e-10  7.82535501e-01  9.96095320e-10  1.70503724e+00  9.96095320e-10  1.71380046e+00                                 
 1.00000000e-09  8.27107396e-01  1.00000000e-09  7.75984902e-01  1.00000000e-09  1.67443549e+00  1.00000000e-09  1.80000000e+00  1.00000000e-09  4.97728995e-02  1.00000000e-09  7.82839141e-01  1.00000000e-09  1.70492200e+00  1.00000000e-09  1.71380748e+00                                 
 1.00780936e-09  8.27090019e-01  1.00780936e-09  7.75989548e-01  1.00780936e-09  1.67431725e+00  1.00780936e-09  1.80000000e+00  1.00780936e-09  2.67846539e-02  1.00780936e-09  7.83524466e-01  1.00780936e-09  1.70521542e+00  1.00780936e-09  1.71383274e+00                                 
 1.02342808e-09  8.27075755e-01  1.02342808e-09  7.76036431e-01  1.02342808e-09  1.67461253e+00  1.02342808e-09  1.80000000e+00  1.02342808e-09  2.96815621e-03  1.02342808e-09  7.85002720e-01  1.02342808e-09  1.70620819e+00  1.02342808e-09  1.71388314e+00                                 
 1.05466551e-09  8.27123639e-01  1.05466551e-09  7.76110186e-01  1.05466551e-09  1.67514497e+00  1.05466551e-09  1.80000000e+00  1.05466551e-09  8.71530628e-04  1.05466551e-09  7.86829894e-01  1.05466551e-09  1.70782198e+00  1.05466551e-09  1.71391200e+00                                 
 1.11714039e-09  8.27261673e-01  1.11714039e-09  7.76055070e-01  1.11714039e-09  1.67332044e+00  1.11714039e-09  1.80000000e+00  1.11714039e-09  7.33895294e-04  1.11714039e-09  7.87311766e-01  1.11714039e-09  1.70826029e+00  1.11714039e-09  1.71387647e+00                                 
 1.24209013e-09  8.27434470e-01  1.24209013e-09  7.75976894e-01  1.24209013e-09  1.66857495e+00  1.24209013e-09  1.80000000e+00  1.24209013e-09  2.73579430e-04  1.24209013e-09  7.87849699e-01  1.24209013e-09  1.70869882e+00  1.24209013e-09  1.71389053e+00                                 
 1.49198963e-09  8.27510356e-01  1.49198963e-09  7.75956367e-01  1.49198963e-09  1.66398501e+00  1.49198963e-09  1.80000000e+00  1.49198963e-09  9.70033142e-05  1.49198963e-09  7.88205030e-01  1.49198963e-09  1.70899422e+00  1.49198963e-09  1.71388938e+00                                 
 1.76927865e-09  8.27348419e-01  1.76927865e-09  7.75943265e-01  1.76927865e-09  1.66504192e+00  1.76927865e-09  1.80000000e+00  1.76927865e-09 -8.92826882e-05  1.76927865e-09  7.87633745e-01  1.76927865e-09  1.70850640e+00  1.76927865e-09  1.71389408e+00                                 
 2.02691334e-09  8.27176697e-01  2.02691334e-09  7.75943166e-01  2.02691334e-09  1.66707904e+00  2.02691334e-09  1.80000000e+00  2.02691334e-09  1.62510886e-05  2.02691334e-09  7.87190935e-01  2.02691334e-09  1.70813407e+00  2.02691334e-09  1.71389630e+00                                 
 2.36805948e-09  8.26977706e-01  2.36805948e-09  7.75936036e-01  2.36805948e-09  1.66964233e+00  2.36805948e-09  1.80000000e+00  2.36805948e-09 -8.57626205e-05  2.36805948e-09  7.86514103e-01  2.36805948e-09  1.70755911e+00  2.36805948e-09  1.71390034e+00                                 
 3.01566353e-09  8.26743269e-01  3.01566353e-09  7.75931705e-01  3.01566353e-09  1.67377342e+00  3.01566353e-09  1.80000000e+00  3.01566353e-09  1.23239612e-05  3.01566353e-09  7.85397876e-01  3.01566353e-09  1.70661615e+00  3.01566353e-09  1.71390514e+00                                 
 4.31087164e-09  8.26587701e-01  4.31087164e-09  7.75927835e-01  4.31087164e-09  1.67953596e+00  4.31087164e-09  1.80000000e+00  4.31087164e-09 -7.79392208e-05  4.31087164e-09  7.83437411e-01  4.31087164e-09  1.70495475e+00  4.31087164e-09  1.71389893e+00                                 
 6.90128785e-09  8.26632265e-01  6.90128785e-09  7.75937005e-01  6.90128785e-09  1.68437874e+00  6.90128785e-09  1.80000000e+00  6.90128785e-09  1.96980651e-05  6.90128785e-09  7.80945557e-01  6.90128785e-09  1.70284683e+00  6.90128785e-09  1.71381389e+00                                 
 9.19177318e-09  8.26673142e-01  9.19177318e-09  7.75943240e-01  9.19177318e-09  1.68438770e+00  9.19177318e-09  1.80000000e+00  9.19177318e-09 -6.68968606e-05  9.19177318e-09  7.79827653e-01  9.19177318e-09  1.70189766e+00  9.19177318e-09  1.71366743e+00                                 
 1.14668262e-08  8.26684283e-01  1.14668262e-08  7.75947357e-01  1.14668262e-08  1.68324497e+00  1.14668262e-08  1.80000000e+00  1.14668262e-08  2.77049009e-05  1.14668262e-08  7.79318189e-01  1.14668262e-08  1.70146528e+00  1.14668262e-08  1.71348020e+00                                 
 1.38959518e-08  8.26678332e-01  1.38959518e-08  7.75948256e-01  1.38959518e-08  1.68246987e+00  1.38959518e-08  1.80000000e+00  1.38959518e-08 -5.34735851e-05  1.38959518e-08  7.79038333e-01  1.38959518e-08  1.70122169e+00  1.38959518e-08  1.71325733e+00                                 
 1.73219733e-08  8.26684893e-01  1.73219733e-08  7.75949609e-01  1.73219733e-08  1.68134850e+00  1.73219733e-08  1.80000000e+00  1.73219733e-08  3.94260671e-05  1.73219733e-08  7.78941276e-01  1.73219733e-08  1.70113101e+00  1.73219733e-08  1.71293283e+00                                 
 2.15711983e-08  8.26705891e-01  2.15711983e-08  7.75949103e-01  2.15711983e-08  1.67765658e+00  2.15711983e-08  1.80000000e+00  2.15711983e-08 -4.57845986e-05  2.15711983e-08  7.78928730e-01  2.15711983e-08  1.70110357e+00  2.15711983e-08  1.71253798e+00                                 
 2.76821609e-08  8.26722404e-01  2.76821609e-08  7.75949827e-01  2.76821609e-08  1.66944923e+00  2.76821609e-08  1.80000000e+00  2.76821609e-08  4.18685602e-05  2.76821609e-08  7.79029142e-01  2.76821609e-08  1.70116801e+00  2.76821609e-08  1.71200807e+00                                 
 3.62355041e-08  8.26725974e-01  3.62355041e-08  7.75949271e-01  3.62355041e-08  1.65594987e+00  3.62355041e-08  1.80000000e+00  3.62355041e-08 -4.46090605e-05  3.62355041e-08  7.79123909e-01  3.62355041e-08  1.70121939e+00  3.62355041e-08  1.71134439e+00                                 
 4.96044984e-08  8.26726762e-01  4.96044984e-08  7.75949799e-01  4.96044984e-08  1.63360755e+00  4.96044984e-08  1.80000000e+00  4.96044984e-08  4.16771001e-05  4.96044984e-08  7.79279793e-01  4.96044984e-08  1.70132023e+00  4.96044984e-08  1.71046877e+00                                 
 7.08065857e-08  8.26724042e-01  7.08065857e-08  7.75949168e-01  7.08065857e-08  1.59653708e+00  7.08065857e-08  1.80000000e+00  7.08065857e-08 -4.46476199e-05  7.08065857e-08  7.79398897e-01  7.08065857e-08  1.70138466e+00  7.08065857e-08  1.70940237e+00                                 
 1.13210760e-07  8.26724936e-01  1.13210760e-07  7.75949697e-01  1.13210760e-07  1.52007391e+00  1.13210760e-07  1.80000000e+00  1.13210760e-07  4.15042437e-05  1.13210760e-07  7.79546048e-01  1.13210760e-07  1.70147396e+00  1.13210760e-07  1.70806771e+00                                 
 1.98019109e-07  8.26722760e-01  1.98019109e-07  7.75949122e-01  1.98019109e-07  1.36660922e+00  1.98019109e-07  1.80000000e+00  1.98019109e-07 -4.46122504e-05  1.98019109e-07  7.79579580e-01  1.98019109e-07  1.70147442e+00  1.98019109e-07  1.70698516e+00                                 
 3.25803380e-07  8.26724492e-01  3.25803380e-07  7.75949684e-01  3.25803380e-07  1.13996982e+00  3.25803380e-07  1.80000000e+00  3.25803380e-07  4.16100637e-05  3.25803380e-07  7.79595371e-01  3.25803380e-07  1.70147861e+00  3.25803380e-07  1.70668491e+00                                 
 5.12954155e-07  8.26722754e-01  5.12954155e-07  7.75949111e-01  5.12954155e-07  8.56231491e-01  5.12954155e-07  1.80000000e+00  5.12954155e-07 -4.37662213e-05  5.12954155e-07  7.79576683e-01  5.12954155e-07  1.70145264e+00  5.12954155e-07  1.70666812e+00                                 
 6.79984862e-07  8.26724554e-01  6.79984862e-07  7.75949682e-01  6.79984862e-07  7.71536881e-01  6.79984862e-07  1.80000000e+00  6.79984862e-07  4.32728537e-05  6.79984862e-07  7.79597216e-01  6.79984862e-07  1.70146468e+00  6.79984862e-07  1.70666516e+00                                 
 7.95913812e-07  8.26722523e-01  7.95913812e-07  7.75949097e-01  7.95913812e-07  7.85974211e-01  7.95913812e-07  1.80000000e+00  7.95913812e-07 -4.30838804e-05  7.95913812e-07  7.79576559e-01  7.95913812e-07  1.70144063e+00  7.95913812e-07  1.70665965e+00                                 
 8.52897699e-07  8.26724744e-01  8.52897699e-07  7.75949688e-01  8.52897699e-07  7.83748187e-01  8.52897699e-07  1.80000000e+00  8.52897699e-07  4.30804148e-05  8.52897699e-07  7.79596002e-01  8.52897699e-07  1.70145630e+00  8.52897699e-07  1.70665716e+00                                 
 9.29644336e-07  8.26722552e-01  9.29644336e-07  7.75949111e-01  9.29644336e-07  7.83186249e-01  9.29644336e-07  1.80000000e+00  9.29644336e-07 -4.30344962e-05  9.29644336e-07  7.79577065e-01  9.29644336e-07  1.70143542e+00  9.29644336e-07  1.70665364e+00                                 
 1.02262091e-06  8.26724648e-01  1.02262091e-06  7.75949686e-01  1.02262091e-06  7.83367114e-01  1.02262091e-06  1.80000000e+00  1.02262091e-06  4.30815840e-05  1.02262091e-06  7.79596110e-01  1.02262091e-06  1.70144923e+00  1.02262091e-06  1.70665003e+00                                 
 1.20857406e-06  8.26722604e-01  1.20857406e-06  7.75949120e-01  1.20857406e-06  7.83187748e-01  1.20857406e-06  1.80000000e+00  1.20857406e-06 -4.30329665e-05  1.20857406e-06  7.79577015e-01  1.20857406e-06  1.70142360e+00  1.20857406e-06  1.70664192e+00                                 
 1.47468200e-06  8.26724623e-01  1.47468200e-06  7.75949685e-01  1.47468200e-06  7.83367138e-01  1.47468200e-06  1.80000000e+00  1.47468200e-06  4.30770785e-05  1.47468200e-06  7.79596134e-01  1.47468200e-06  1.70143016e+00  1.47468200e-06  1.70663099e+00                                 
 2.00689789e-06  8.26722617e-01  2.00689789e-06  7.75949120e-01  2.00689789e-06  7.83205650e-01  2.00689789e-06  1.80000000e+00  2.00689789e-06 -4.30272146e-05  2.00689789e-06  7.79577004e-01  2.00689789e-06  1.70138989e+00  2.00689789e-06  1.70660831e+00                                 
 3.07132967e-06  8.26724617e-01  3.07132967e-06  7.75949688e-01  3.07132967e-06  7.83366312e-01  3.07132967e-06  1.80000000e+00  3.07132967e-06  4.30898272e-05  3.07132967e-06  7.79596145e-01  3.07132967e-06  1.70136280e+00  3.07132967e-06  1.70656379e+00                                 
 4.27132967e-06  8.26722621e-01  4.27132967e-06  7.75949115e-01  4.27132967e-06  7.83212103e-01  4.27132967e-06  1.80000000e+00  4.27132967e-06 -4.30053115e-05  4.27132967e-06  7.79576993e-01  4.27132967e-06  1.70129435e+00  4.27132967e-06  1.70651302e+00                                 
 5.47132967e-06  8.26724613e-01  5.47132967e-06  7.75949682e-01  5.47132967e-06  7.83369302e-01  5.47132967e-06  1.80000000e+00  5.47132967e-06  4.30625811e-05  5.47132967e-06  7.79596138e-01  5.47132967e-06  1.70126152e+00  5.47132967e-06  1.70646277e+00                                 
 6.00100000e-06  8.26722627e-01  6.00100000e-06  7.75949113e-01  6.00100000e-06  7.83215349e-01  6.00100000e-06  1.80000000e+00  6.00100000e-06 -4.29914693e-05  6.00100000e-06  7.79576984e-01  6.00100000e-06  1.70122134e+00  6.00100000e-06  1.70644021e+00                                 
 6.00110000e-06  8.26690542e-01  6.00110000e-06  7.75722902e-01  6.00110000e-06  7.81192909e-01  6.00110000e-06  1.62000000e+00  6.00110000e-06 -1.00216614e-04  6.00110000e-06  7.77753963e-01  6.00110000e-06  1.69967853e+00  6.00110000e-06  1.70642598e+00                                 
 6.00130000e-06  8.26720627e-01  6.00130000e-06  7.75779318e-01  6.00130000e-06  7.81897377e-01  6.00130000e-06  1.26000000e+00  6.00130000e-06  4.77426501e-05  6.00130000e-06  7.78047880e-01  6.00130000e-06  1.69993028e+00  6.00130000e-06  1.70644859e+00                                 
 6.00170000e-06  8.26751947e-01  6.00170000e-06  7.75843577e-01  6.00170000e-06  7.84531939e-01  6.00170000e-06  5.40000000e-01  6.00170000e-06  2.64807463e-01  6.00170000e-06  7.77403443e-01  6.00170000e-06  1.69092945e+00  6.00170000e-06  1.70638647e+00                                 
 6.00200000e-06  8.26717313e-01  6.00200000e-06  7.73580376e-01  6.00200000e-06  8.29118347e-01  6.00200000e-06  0.00000000e+00  6.00200000e-06  1.64922342e+00  6.00200000e-06  7.49995982e-01  6.00200000e-06  1.48300804e+00  6.00200000e-06  1.70557507e+00                                 
 6.00204838e-06  8.26725131e-01  6.00204838e-06  7.73559744e-01  6.00204838e-06  8.27587998e-01  6.00204838e-06  0.00000000e+00  6.00204838e-06  1.74863994e+00  6.00204838e-06  7.49630281e-01  6.00204838e-06  1.42549651e+00  6.00204838e-06  1.70584431e+00                                 
 6.00214514e-06  8.26722893e-01  6.00214514e-06  7.73588197e-01  6.00214514e-06  8.20522866e-01  6.00214514e-06  0.00000000e+00  6.00214514e-06  1.81337131e+00  6.00214514e-06  7.50052586e-01  6.00214514e-06  1.31585843e+00  6.00214514e-06  1.70634048e+00                                 
 6.00233865e-06  8.26722204e-01  6.00233865e-06  7.74182771e-01  6.00233865e-06  8.07647581e-01  6.00233865e-06  0.00000000e+00  6.00233865e-06  1.78983742e+00  6.00233865e-06  7.57159083e-01  6.00233865e-06  1.16061818e+00  6.00233865e-06  1.70653473e+00                                 
 6.00251295e-06  8.26723145e-01  6.00251295e-06  7.74505706e-01  6.00251295e-06  8.04376922e-01  6.00251295e-06  0.00000000e+00  6.00251295e-06  1.80493222e+00  6.00251295e-06  7.60595596e-01  6.00251295e-06  1.07082786e+00  6.00251295e-06  1.70659579e+00                                 
 6.00274619e-06  8.26721680e-01  6.00274619e-06  7.74843115e-01  6.00274619e-06  7.99529564e-01  6.00274619e-06  0.00000000e+00  6.00274619e-06  1.79612433e+00  6.00274619e-06  7.63753073e-01  6.00274619e-06  9.76309298e-01  6.00274619e-06  1.70668720e+00                                 
 6.00301273e-06  8.26723501e-01  6.00301273e-06  7.75256059e-01  6.00301273e-06  7.96531234e-01  6.00301273e-06  0.00000000e+00  6.00301273e-06  1.80217363e+00  6.00301273e-06  7.67712648e-01  6.00301273e-06  8.94111871e-01  6.00301273e-06  1.70674934e+00                                 
 6.00354581e-06  8.26722095e-01  6.00354581e-06  7.75976418e-01  6.00354581e-06  7.87805335e-01  6.00354581e-06  0.00000000e+00  6.00354581e-06  1.79773043e+00  6.00354581e-06  7.74753633e-01  6.00354581e-06  8.03857385e-01  6.00354581e-06  1.70672709e+00                                 
 6.00397498e-06  8.26724048e-01  6.00397498e-06  7.76381603e-01  6.00397498e-06  7.84321326e-01  6.00397498e-06  0.00000000e+00  6.00397498e-06  1.80178924e+00  6.00397498e-06  7.78986802e-01  6.00397498e-06  7.88296539e-01  6.00397498e-06  1.70654458e+00                                 
 6.00437778e-06  8.26722454e-01  6.00437778e-06  7.76411566e-01  6.00437778e-06  7.83919388e-01  6.00437778e-06  0.00000000e+00  6.00437778e-06  1.79858702e+00  6.00437778e-06  7.79231770e-01  6.00437778e-06  7.84290963e-01  6.00437778e-06  1.70622734e+00                                 
 6.00491404e-06  8.26724326e-01  6.00491404e-06  7.76453678e-01  6.00491404e-06  7.83713902e-01  6.00491404e-06  0.00000000e+00  6.00491404e-06  1.80119984e+00  6.00491404e-06  7.80316249e-01  6.00491404e-06  7.84195756e-01  6.00491404e-06  1.70567691e+00                                 
 6.00570963e-06  8.26722708e-01  6.00570963e-06  7.76324701e-01  6.00570963e-06  7.84524500e-01  6.00570963e-06  0.00000000e+00  6.00570963e-06  1.79893872e+00  6.00570963e-06  7.79901615e-01  6.00570963e-06  7.83966034e-01  6.00570963e-06  1.70470532e+00                                 
 6.00730080e-06  8.26724461e-01  6.00730080e-06  7.76221191e-01  6.00730080e-06  7.85765433e-01  6.00730080e-06  0.00000000e+00  6.00730080e-06  1.80100977e+00  6.00730080e-06  7.80588750e-01  6.00730080e-06  7.85970228e-01  6.00730080e-06  1.70257128e+00                                 
 6.01042911e-06  8.26722767e-01  6.01042911e-06  7.76036154e-01  6.01042911e-06  7.89281290e-01  6.01042911e-06  0.00000000e+00  6.01042911e-06  1.79902761e+00  6.01042911e-06  7.80118534e-01  6.01042911e-06  7.88650141e-01  6.01042911e-06  1.69819428e+00                                 
 6.01668572e-06  8.26724459e-01  6.01668572e-06  7.75986753e-01  6.01668572e-06  7.96144397e-01  6.01668572e-06  0.00000000e+00  6.01668572e-06  1.80096666e+00  6.01668572e-06  7.80564895e-01  6.01668572e-06  7.96293433e-01  6.01668572e-06  1.68949924e+00                                 
 6.02919895e-06  8.26722775e-01  6.02919895e-06  7.75915826e-01  6.02919895e-06  8.10555796e-01  6.02919895e-06  0.00000000e+00  6.02919895e-06  1.79904871e+00  6.02919895e-06  7.79831213e-01  6.02919895e-06  8.09809502e-01  6.02919895e-06  1.67199743e+00                                 
 6.05134030e-06  8.26724458e-01  6.05134030e-06  7.75970345e-01  6.05134030e-06  8.34117094e-01  6.05134030e-06  0.00000000e+00  6.05134030e-06  1.80095530e+00  6.05134030e-06  7.80125094e-01  6.05134030e-06  8.34351628e-01  6.05134030e-06  1.63967424e+00                                 
 6.09562299e-06  8.26722776e-01  6.09562299e-06  7.75925577e-01  6.09562299e-06  8.77273637e-01  6.09562299e-06  0.00000000e+00  6.09562299e-06  1.79905352e+00  6.09562299e-06  7.79389190e-01  6.09562299e-06  8.75874724e-01  6.09562299e-06  1.57235313e+00                                 
