 time            v(vbep)         time            v(vben)         time            v(vout)         time            v(vphi1)        time            v(vphi2)        time            v(vref)         time            v(voutc)        time            v(voutcc)       yes             currtemp       
 0.00000000e+00  7.12926236e-01  0.00000000e+00  6.46024956e-01  0.00000000e+00  1.48354841e+00  0.00000000e+00  0.00000000e+00  0.00000000e+00  1.79999999e+00  0.00000000e+00  6.46557415e-01  0.00000000e+00  1.48354840e+00  0.00000000e+00  1.49111508e+00  1.00000000e+00  6.70000000e+01 
 1.00000000e-11  7.12951345e-01  1.00000000e-11  6.46097733e-01  1.00000000e-11  1.48431137e+00  1.00000000e-11  1.80000000e-02  1.00000000e-11  1.80025395e+00  1.00000000e-11  6.47091419e-01  1.00000000e-11  1.48401954e+00  1.00000000e-11  1.49112893e+00                                 
 2.00000000e-11  7.12958151e-01  2.00000000e-11  6.46142676e-01  2.00000000e-11  1.48476791e+00  2.00000000e-11  3.60000000e-02  2.00000000e-11  1.80035305e+00  2.00000000e-11  6.47485959e-01  2.00000000e-11  1.48437270e+00  2.00000000e-11  1.49113386e+00                                 
 4.00000000e-11  7.12958109e-01  4.00000000e-11  6.46201321e-01  4.00000000e-11  1.48530234e+00  4.00000000e-11  7.20000000e-02  4.00000000e-11  1.80038882e+00  4.00000000e-11  6.48062169e-01  4.00000000e-11  1.48489547e+00  4.00000000e-11  1.49113516e+00                                 
 8.00000000e-11  7.12946511e-01  8.00000000e-11  6.46237872e-01  8.00000000e-11  1.48537457e+00  8.00000000e-11  1.44000000e-01  8.00000000e-11  1.80018272e+00  8.00000000e-11  6.48510869e-01  8.00000000e-11  1.48531209e+00  8.00000000e-11  1.49112471e+00                                 
 1.60000000e-10  7.12943781e-01  1.60000000e-10  6.46247365e-01  1.60000000e-10  1.48503782e+00  1.60000000e-10  2.88000000e-01  1.60000000e-10  1.80000577e+00  1.60000000e-10  6.48607656e-01  1.60000000e-10  1.48535506e+00  1.60000000e-10  1.49111555e+00                                 
 3.20000000e-10  7.12939032e-01  3.20000000e-10  6.46236777e-01  3.20000000e-10  1.48465146e+00  3.20000000e-10  5.76000000e-01  3.20000000e-10  1.79998050e+00  3.20000000e-10  6.48438150e-01  3.20000000e-10  1.48500037e+00  3.20000000e-10  1.49111030e+00                                 
 6.40000000e-10  7.12856353e-01  6.40000000e-10  6.45799173e-01  6.40000000e-10  1.48300359e+00  6.40000000e-10  1.15200000e+00  6.40000000e-10  1.80933154e+00  6.40000000e-10  6.45532387e-01  6.40000000e-10  1.48850898e+00  6.40000000e-10  1.49113440e+00                                 
 1.00000000e-09  7.13411578e-01  1.00000000e-09  6.46213657e-01  1.00000000e-09  1.46308376e+00  1.00000000e-09  1.80000000e+00  1.00000000e-09  1.05400273e-01  1.00000000e-09  6.61720001e-01  1.00000000e-09  1.49435412e+00  1.00000000e-09  1.49114085e+00                                 
 1.03732926e-09  7.13486804e-01  1.03732926e-09  6.46220845e-01  1.03732926e-09  1.46160260e+00  1.03732926e-09  1.80000000e+00  1.03732926e-09  2.49500721e-02  1.03732926e-09  6.64940442e-01  1.03732926e-09  1.49613465e+00  1.03732926e-09  1.49116287e+00                                 
 1.11198777e-09  7.13660831e-01  1.11198777e-09  6.46251316e-01  1.11198777e-09  1.45965739e+00  1.11198777e-09  1.80000000e+00  1.11198777e-09 -1.15888943e-02  1.11198777e-09  6.68978296e-01  1.11198777e-09  1.49926456e+00  1.11198777e-09  1.49117566e+00                                 
 1.26130480e-09  7.13795149e-01  1.26130480e-09  6.46097888e-01  1.26130480e-09  1.45638199e+00  1.26130480e-09  1.80000000e+00  1.26130480e-09  9.13728608e-03  1.26130480e-09  6.68830024e-01  1.26130480e-09  1.49942898e+00  1.26130480e-09  1.49112812e+00                                 
 1.44443539e-09  7.13765134e-01  1.44443539e-09  6.46082622e-01  1.44443539e-09  1.45546698e+00  1.44443539e-09  1.80000000e+00  1.44443539e-09 -6.94014556e-03  1.44443539e-09  6.67719272e-01  1.44443539e-09  1.49826135e+00  1.44443539e-09  1.49116649e+00                                 
 1.65088048e-09  7.13660767e-01  1.65088048e-09  6.46080563e-01  1.65088048e-09  1.45517126e+00  1.65088048e-09  1.80000000e+00  1.65088048e-09  5.69822677e-03  1.65088048e-09  6.65970806e-01  1.65088048e-09  1.49695555e+00  1.65088048e-09  1.49120199e+00                                 
 1.99732213e-09  7.13407961e-01  1.99732213e-09  6.46036898e-01  1.99732213e-09  1.45482472e+00  1.99732213e-09  1.80000000e+00  1.99732213e-09 -5.06833609e-03  1.99732213e-09  6.63056910e-01  1.99732213e-09  1.49430340e+00  1.99732213e-09  1.49133470e+00                                 
 2.52773416e-09  7.13121195e-01  2.52773416e-09  6.46040960e-01  2.52773416e-09  1.45458189e+00  2.52773416e-09  1.80000000e+00  2.52773416e-09  4.61404000e-03  2.52773416e-09  6.59382415e-01  2.52773416e-09  1.49130449e+00  2.52773416e-09  1.49153640e+00                                 
 3.30333377e-09  7.12864675e-01  3.30333377e-09  6.45994018e-01  3.30333377e-09  1.45317903e+00  3.30333377e-09  1.80000000e+00  3.30333377e-09 -4.42879409e-03  3.30333377e-09  6.54633897e-01  3.30333377e-09  1.48710792e+00  3.30333377e-09  1.49181362e+00                                 
 4.58885690e-09  7.12732106e-01  4.58885690e-09  6.46011185e-01  4.58885690e-09  1.45021094e+00  4.58885690e-09  1.80000000e+00  4.58885690e-09  4.24761779e-03  4.58885690e-09  6.49745949e-01  4.58885690e-09  1.48306775e+00  4.58885690e-09  1.49207260e+00                                 
 6.03121417e-09  7.12707545e-01  6.03121417e-09  6.45984549e-01  6.03121417e-09  1.44495248e+00  6.03121417e-09  1.80000000e+00  6.03121417e-09 -4.14830082e-03  6.03121417e-09  6.46453021e-01  6.03121417e-09  1.48013602e+00  6.03121417e-09  1.49210726e+00                                 
 7.28234756e-09  7.12749701e-01  7.28234756e-09  6.46018515e-01  7.28234756e-09  1.43960372e+00  7.28234756e-09  1.80000000e+00  7.28234756e-09  4.00115494e-03  7.28234756e-09  6.45364926e-01  7.28234756e-09  1.47933450e+00  7.28234756e-09  1.49196977e+00                                 
 8.65399065e-09  7.12782856e-01  8.65399065e-09  6.45995251e-01  8.65399065e-09  1.43216505e+00  8.65399065e-09  1.80000000e+00  8.65399065e-09 -3.88825199e-03  8.65399065e-09  6.44457459e-01  8.65399065e-09  1.47843788e+00  8.65399065e-09  1.49173821e+00                                 
 1.01742776e-08  7.12840800e-01  1.01742776e-08  6.46029959e-01  1.01742776e-08  1.42330612e+00  1.01742776e-08  1.80000000e+00  1.01742776e-08  3.78115384e-03  1.01742776e-08  6.44426958e-01  1.01742776e-08  1.47852206e+00  1.01742776e-08  1.49143222e+00                                 
 1.22485513e-08  7.12876903e-01  1.22485513e-08  6.46005514e-01  1.22485513e-08  1.40942603e+00  1.22485513e-08  1.80000000e+00  1.22485513e-08 -3.70708036e-03  1.22485513e-08  6.44199468e-01  1.22485513e-08  1.47819845e+00  1.22485513e-08  1.49101136e+00                                 
 1.47534250e-08  7.12921794e-01  1.47534250e-08  6.46038070e-01  1.47534250e-08  1.39195726e+00  1.47534250e-08  1.80000000e+00  1.47534250e-08  3.64765887e-03  1.47534250e-08  6.44657925e-01  1.47534250e-08  1.47868291e+00  1.47534250e-08  1.49053468e+00                                 
 1.82897606e-08  7.12929911e-01  1.82897606e-08  6.46010443e-01  1.82897606e-08  1.36569755e+00  1.82897606e-08  1.80000000e+00  1.82897606e-08 -3.60360713e-03  1.82897606e-08  6.44786960e-01  1.82897606e-08  1.47865651e+00  1.82897606e-08  1.48996173e+00                                 
 2.31589722e-08  7.12945499e-01  2.31589722e-08  6.46040588e-01  2.31589722e-08  1.32929083e+00  2.31589722e-08  1.80000000e+00  2.31589722e-08  3.57531491e-03  2.31589722e-08  6.45462924e-01  2.31589722e-08  1.47931811e+00  2.31589722e-08  1.48934489e+00                                 
 3.16908005e-08  7.12929594e-01  3.16908005e-08  6.46011151e-01  3.16908005e-08  1.26445816e+00  3.16908005e-08  1.80000000e+00  3.16908005e-08 -3.55615445e-03  3.16908005e-08  6.45738553e-01  3.16908005e-08  1.47941720e+00  3.16908005e-08  1.48862707e+00                                 
 4.48808962e-08  7.12935170e-01  4.48808962e-08  6.46040145e-01  4.48808962e-08  1.16498142e+00  4.48808962e-08  1.80000000e+00  4.48808962e-08  3.54702484e-03  4.48808962e-08  6.46392952e-01  4.48808962e-08  1.48006921e+00  4.48808962e-08  1.48806291e+00                                 
 7.12610876e-08  7.12920508e-01  7.12610876e-08  6.46010245e-01  7.12610876e-08  9.67577726e-01  7.12610876e-08  1.80000000e+00  7.12610876e-08 -3.53901572e-03  7.12610876e-08  6.46410799e-01  7.12610876e-08  1.47996947e+00  7.12610876e-08  1.48772721e+00                                 
 1.04739146e-07  7.12932013e-01  1.04739146e-07  6.46039599e-01  1.04739146e-07  7.44992823e-01  1.04739146e-07  1.80000000e+00  1.04739146e-07  3.54093107e-03  1.04739146e-07  6.46673586e-01  1.04739146e-07  1.48030293e+00  1.04739146e-07  1.48770953e+00                                 
 1.40325058e-07  7.12923570e-01  1.40325058e-07  6.46010584e-01  1.40325058e-07  6.43531463e-01  1.40325058e-07  1.80000000e+00  1.40325058e-07 -3.52188538e-03  1.40325058e-07  6.46445667e-01  1.40325058e-07  1.47999834e+00  1.40325058e-07  1.48771970e+00                                 
 1.72467477e-07  7.12925534e-01  1.72467477e-07  6.46039155e-01  1.72467477e-07  6.47508619e-01  1.72467477e-07  1.80000000e+00  1.72467477e-07  3.53678073e-03  1.72467477e-07  6.46675951e-01  1.72467477e-07  1.48030277e+00  1.72467477e-07  1.48772106e+00                                 
 1.87261303e-07  7.12926048e-01  1.87261303e-07  6.46010696e-01  1.87261303e-07  6.46969444e-01  1.87261303e-07  1.80000000e+00  1.87261303e-07 -3.50818274e-03  1.87261303e-07  6.46438438e-01  1.87261303e-07  1.47999093e+00  1.87261303e-07  1.48772000e+00                                 
 2.10576086e-07  7.12927473e-01  2.10576086e-07  6.46039222e-01  2.10576086e-07  6.47303466e-01  2.10576086e-07  1.80000000e+00  2.10576086e-07  3.52128889e-03  2.10576086e-07  6.46676294e-01  2.10576086e-07  1.48030153e+00  2.10576086e-07  1.48771795e+00                                 
 2.53390082e-07  7.12924538e-01  2.53390082e-07  6.46010679e-01  2.53390082e-07  6.46947780e-01  2.53390082e-07  1.80000000e+00  2.53390082e-07 -3.49897480e-03  2.53390082e-07  6.46438423e-01  2.53390082e-07  1.47998890e+00  2.53390082e-07  1.48771662e+00                                 
 3.08547040e-07  7.12928275e-01  3.08547040e-07  6.46039226e-01  3.08547040e-07  6.47268270e-01  3.08547040e-07  1.80000000e+00  3.08547040e-07  3.51550390e-03  3.08547040e-07  6.46676410e-01  3.08547040e-07  1.48029840e+00  3.08547040e-07  1.48771440e+00                                 
 4.18860957e-07  7.12924032e-01  4.18860957e-07  6.46010676e-01  4.18860957e-07  6.46954557e-01  4.18860957e-07  1.80000000e+00  4.18860957e-07 -3.49520735e-03  4.18860957e-07  6.46438356e-01  4.18860957e-07  1.47998361e+00  4.18860957e-07  1.48771130e+00                                 
 6.31544546e-07  7.12928523e-01  6.31544546e-07  6.46039227e-01  6.31544546e-07  6.47261560e-01  6.31544546e-07  1.80000000e+00  6.31544546e-07  3.51358653e-03  6.31544546e-07  6.46676444e-01  6.31544546e-07  1.48028807e+00  6.31544546e-07  1.48770409e+00                                 
 1.01049669e-06  7.12923902e-01  1.01049669e-06  6.46010676e-01  1.01049669e-06  6.46956015e-01  1.01049669e-06  1.80000000e+00  1.01049669e-06 -3.49419728e-03  1.01049669e-06  6.46438339e-01  1.01049669e-06  1.47996471e+00  1.01049669e-06  1.48769242e+00                                 
 1.76840096e-06  7.12928592e-01  1.76840096e-06  6.46039228e-01  1.76840096e-06  6.47259821e-01  1.76840096e-06  1.80000000e+00  1.76840096e-06  3.51303554e-03  1.76840096e-06  6.46676453e-01  1.76840096e-06  1.48025173e+00  1.76840096e-06  1.48766780e+00                                 
 2.96840096e-06  7.12923865e-01  2.96840096e-06  6.46010675e-01  2.96840096e-06  6.46956430e-01  2.96840096e-06  1.80000000e+00  2.96840096e-06 -3.49390322e-03  2.96840096e-06  6.46438334e-01  2.96840096e-06  1.47990206e+00  2.96840096e-06  1.48762985e+00                                 
 4.16840096e-06  7.12928621e-01  4.16840096e-06  6.46039228e-01  4.16840096e-06  6.47259030e-01  4.16840096e-06  1.80000000e+00  4.16840096e-06  3.51280424e-03  4.16840096e-06  6.46676457e-01  4.16840096e-06  1.48017490e+00  4.16840096e-06  1.48759106e+00                                 
 5.36840096e-06  7.12923836e-01  5.36840096e-06  6.46010675e-01  5.36840096e-06  6.46956730e-01  5.36840096e-06  1.80000000e+00  5.36840096e-06 -3.49367926e-03  5.36840096e-06  6.46438330e-01  5.36840096e-06  1.47982523e+00  5.36840096e-06  1.48755311e+00                                 
 6.00100000e-06  7.12928662e-01  6.00100000e-06  6.46039228e-01  6.00100000e-06  6.47258063e-01  6.00100000e-06  1.80000000e+00  6.00100000e-06  3.51246835e-03  6.00100000e-06  6.46676462e-01  6.00100000e-06  1.48011625e+00  6.00100000e-06  1.48753248e+00                                 
 6.00110000e-06  7.12874683e-01  6.00110000e-06  6.45787187e-01  6.00110000e-06  6.45406851e-01  6.00110000e-06  1.62000000e+00  6.00110000e-06  2.19011936e-04  6.00110000e-06  6.45014702e-01  6.00110000e-06  1.47864643e+00  6.00110000e-06  1.48752181e+00                                 
 6.00130000e-06  7.12907910e-01  6.00130000e-06  6.45782477e-01  6.00130000e-06  6.45420567e-01  6.00130000e-06  1.26000000e+00  6.00130000e-06 -2.53038520e-04  6.00130000e-06  6.44739806e-01  6.00130000e-06  1.47840528e+00  6.00130000e-06  1.48753762e+00                                 
 6.00165349e-06  7.12974733e-01  6.00165349e-06  6.45979697e-01  6.00165349e-06  6.47397593e-01  6.00165349e-06  6.23712790e-01  6.00165349e-06  8.12227507e-03  6.00165349e-06  6.45025899e-01  6.00165349e-06  1.47528999e+00  6.00165349e-06  1.48751375e+00                                 
 6.00200000e-06  7.12909830e-01  6.00200000e-06  6.44600934e-01  6.00200000e-06  6.79794517e-01  6.00200000e-06  0.00000000e+00  6.00200000e-06  1.60475872e+00  6.00200000e-06  6.30535025e-01  6.00200000e-06  1.27702785e+00  6.00200000e-06  1.48693834e+00                                 
 6.00204151e-06  7.12925803e-01  6.00204151e-06  6.44082807e-01  6.00204151e-06  6.86956047e-01  6.00204151e-06  0.00000000e+00  6.00204151e-06  1.72436863e+00  6.00204151e-06  6.24651254e-01  6.00204151e-06  1.21257041e+00  6.00204151e-06  1.48694004e+00                                 
 6.00212453e-06  7.12927734e-01  6.00212453e-06  6.43207079e-01  6.00212453e-06  6.92253927e-01  6.00212453e-06  0.00000000e+00  6.00212453e-06  1.81326423e+00  6.00212453e-06  6.14912330e-01  6.00212453e-06  1.08063331e+00  6.00212453e-06  1.48732339e+00                                 
 6.00229056e-06  7.12923365e-01  6.00229056e-06  6.43121734e-01  6.00229056e-06  6.82842970e-01  6.00229056e-06  0.00000000e+00  6.00229056e-06  1.78936149e+00  6.00229056e-06  6.14657158e-01  6.00229056e-06  8.73789172e-01  6.00229056e-06  1.48780151e+00                                 
 6.00245396e-06  7.12926024e-01  6.00245396e-06  6.43936571e-01  6.00245396e-06  6.72234847e-01  6.00245396e-06  0.00000000e+00  6.00245396e-06  1.80395794e+00  6.00245396e-06  6.23763689e-01  6.00245396e-06  7.56654408e-01  6.00245396e-06  1.48780969e+00                                 
 6.00263188e-06  7.12922972e-01  6.00263188e-06  6.44853719e-01  6.00263188e-06  6.60055954e-01  6.00263188e-06  0.00000000e+00  6.00263188e-06  1.79698188e+00  6.00263188e-06  6.32856609e-01  6.00263188e-06  6.90597742e-01  6.00263188e-06  1.48799729e+00                                 
 6.00285502e-06  7.12925994e-01  6.00285502e-06  6.45794188e-01  6.00285502e-06  6.51913641e-01  6.00285502e-06  0.00000000e+00  6.00285502e-06  1.80188921e+00  6.00285502e-06  6.41720369e-01  6.00285502e-06  6.61550022e-01  6.00285502e-06  1.48759184e+00                                 
 6.00308647e-06  7.12923620e-01  6.00308647e-06  6.46191992e-01  6.00308647e-06  6.49112596e-01  6.00308647e-06  0.00000000e+00  6.00308647e-06  1.79885117e+00  6.00308647e-06  6.44703280e-01  6.00308647e-06  6.51623815e-01  6.00308647e-06  1.48684971e+00                                 
 6.00333276e-06  7.12926347e-01  6.00333276e-06  6.46434060e-01  6.00333276e-06  6.48143156e-01  6.00333276e-06  0.00000000e+00  6.00333276e-06  1.80083026e+00  6.00333276e-06  6.46761541e-01  6.00333276e-06  6.49301425e-01  6.00333276e-06  1.48565230e+00                                 
 6.00370606e-06  7.12924401e-01  6.00370606e-06  6.46483777e-01  6.00370606e-06  6.48604980e-01  6.00370606e-06  0.00000000e+00  6.00370606e-06  1.79939884e+00  6.00370606e-06  6.47141662e-01  6.00370606e-06  6.48253193e-01  6.00370606e-06  1.48367083e+00                                 
 6.00428573e-06  7.12926854e-01  6.00428573e-06  6.46499265e-01  6.00428573e-06  6.49778710e-01  6.00428573e-06  0.00000000e+00  6.00428573e-06  1.80053417e+00  6.00428573e-06  6.47825988e-01  6.00428573e-06  6.49789025e-01  6.00428573e-06  1.48016423e+00                                 
 6.00529758e-06  7.12925024e-01  6.00529758e-06  6.46398311e-01  6.00529758e-06  6.52777840e-01  6.00529758e-06  0.00000000e+00  6.00529758e-06  1.79954125e+00  6.00529758e-06  6.47639214e-01  6.00529758e-06  6.52214251e-01  6.00529758e-06  1.47370890e+00                                 
 6.00713005e-06  7.12927189e-01  6.00713005e-06  6.46296740e-01  6.00713005e-06  6.57954636e-01  6.00713005e-06  0.00000000e+00  6.00713005e-06  1.80045919e+00  6.00713005e-06  6.47965848e-01  6.00713005e-06  6.57873122e-01  6.00713005e-06  1.46129738e+00                                 
 6.01079500e-06  7.12925233e-01  6.01079500e-06  6.46084226e-01  6.01079500e-06  6.68841453e-01  6.01079500e-06  0.00000000e+00  6.01079500e-06  1.79957713e+00  6.01079500e-06  6.47456071e-01  6.01079500e-06  6.68230900e-01  6.01079500e-06  1.43555734e+00                                 
 6.01812490e-06  7.12927231e-01  6.01812490e-06  6.46009009e-01  6.01812490e-06  6.89452177e-01  6.01812490e-06  0.00000000e+00  6.01812490e-06  1.80044058e+00  6.01812490e-06  6.47388850e-01  6.01812490e-06  6.89354583e-01  6.01812490e-06  1.38212176e+00                                 
 6.03219020e-06  7.12925238e-01  6.03219020e-06  6.46006274e-01  6.03219020e-06  7.27461725e-01  6.03219020e-06  0.00000000e+00  6.03219020e-06  1.79958493e+00  6.03219020e-06  6.46653544e-01  6.03219020e-06  7.26752228e-01  6.03219020e-06  1.28341574e+00                                 
 6.04695164e-06  7.12927230e-01  6.04695164e-06  6.46032695e-01  6.04695164e-06  7.64140224e-01  6.04695164e-06  0.00000000e+00  6.04695164e-06  1.80043319e+00  6.04695164e-06  6.46791682e-01  6.04695164e-06  7.64066561e-01  6.04695164e-06  1.19085216e+00                                 
 6.07647453e-06  7.12925242e-01  6.07647453e-06  6.46013493e-01  6.07647453e-06  8.30087214e-01  6.07647453e-06  0.00000000e+00  6.07647453e-06  1.79958657e+00  6.07647453e-06  6.46395000e-01  6.07647453e-06  8.29000045e-01  6.07647453e-06  1.03153766e+00                                 
 6.11146803e-06  7.12927229e-01  6.11146803e-06  6.46036725e-01  6.11146803e-06  8.95381545e-01  6.11146803e-06  0.00000000e+00  6.11146803e-06  1.80042721e+00  6.11146803e-06  6.46701391e-01  6.11146803e-06  8.95439317e-01  6.11146803e-06  9.25191777e-01                                 
 6.15558857e-06  7.12925244e-01  6.15558857e-06  6.46012998e-01  6.15558857e-06  9.61717717e-01  6.15558857e-06  0.00000000e+00  6.15558857e-06  1.79958486e+00  6.15558857e-06  6.46393940e-01  6.15558857e-06  9.59873880e-01  6.15558857e-06  9.32084778e-01                                 
 6.18667950e-06  7.12927227e-01  6.18667950e-06  6.46037278e-01  6.18667950e-06  9.98744024e-01  6.18667950e-06  0.00000000e+00  6.18667950e-06  1.80042241e+00  6.18667950e-06  6.46708614e-01  6.18667950e-06  9.99195502e-01  6.18667950e-06  9.75314877e-01                                 
