 time            v(vbep)         time            v(vben)         time            v(vout)         time            v(vphi1)        time            v(vphi2)        time            v(vref)         time            v(voutc)        time            v(voutcc)       yes             currtemp       
 0.00000000e+00  7.48969413e-01  0.00000000e+00  6.84642288e-01  0.00000000e+00  1.54940064e+00  0.00000000e+00  0.00000000e+00  0.00000000e+00  1.80000000e+00  0.00000000e+00  6.86315745e-01  0.00000000e+00  1.54940063e+00  0.00000000e+00  1.55642742e+00  1.00000000e+00  5.00000000e+01 
 5.00000000e-12  7.48991211e-01  5.00000000e-12  6.84696323e-01  5.00000000e-12  1.55002281e+00  5.00000000e-12  1.80000000e-02  5.00000000e-12  1.80018533e+00  5.00000000e-12  6.86707652e-01  5.00000000e-12  1.54974874e+00  5.00000000e-12  1.55644038e+00                                 
 1.00000000e-11  7.49000790e-01  1.00000000e-11  6.84731949e-01  1.00000000e-11  1.55047106e+00  1.00000000e-11  3.60000000e-02  1.00000000e-11  1.80026925e+00  1.00000000e-11  6.87015577e-01  1.00000000e-11  1.55002365e+00  1.00000000e-11  1.55644714e+00                                 
 2.00000000e-11  7.49007166e-01  2.00000000e-11  6.84781514e-01  2.00000000e-11  1.55111612e+00  2.00000000e-11  7.20000000e-02  2.00000000e-11  1.80032247e+00  2.00000000e-11  6.87497348e-01  2.00000000e-11  1.55045720e+00  2.00000000e-11  1.55645332e+00                                 
 4.00000000e-11  7.48995060e-01  4.00000000e-11  6.84817598e-01  4.00000000e-11  1.55154106e+00  4.00000000e-11  1.44000000e-01  4.00000000e-11  1.80019180e+00  4.00000000e-11  6.87960133e-01  4.00000000e-11  1.55088867e+00  4.00000000e-11  1.55644700e+00                                 
 8.00000000e-11  7.48981605e-01  8.00000000e-11  6.84823149e-01  8.00000000e-11  1.55140506e+00  8.00000000e-11  2.88000000e-01  8.00000000e-11  1.80003022e+00  8.00000000e-11  6.88095794e-01  8.00000000e-11  1.55105020e+00  8.00000000e-11  1.55643238e+00                                 
 1.60000000e-10  7.48982125e-01  1.60000000e-10  6.84810511e-01  1.60000000e-10  1.55091620e+00  1.60000000e-10  5.76000000e-01  1.60000000e-10  1.80000929e+00  1.60000000e-10  6.87895667e-01  1.60000000e-10  1.55090829e+00  1.60000000e-10  1.55642688e+00                                 
 3.20000000e-10  7.48914926e-01  3.20000000e-10  6.84367906e-01  3.20000000e-10  1.54719375e+00  3.20000000e-10  1.15200000e+00  3.20000000e-10  1.80073171e+00  3.20000000e-10  6.84062343e-01  3.20000000e-10  1.54777763e+00  3.20000000e-10  1.55639703e+00                                 
 5.00000000e-10  7.48997231e-01  5.00000000e-10  6.84845579e-01  5.00000000e-10  1.54367470e+00  5.00000000e-10  1.80000000e+00  5.00000000e-10  1.63782145e-01  5.00000000e-10  6.90580793e-01  5.00000000e-10  1.55335878e+00  5.00000000e-10  1.55648763e+00                                 
 5.21194860e-10  7.48999030e-01  5.21194860e-10  6.84878893e-01  5.21194860e-10  1.54301721e+00  5.21194860e-10  1.80000000e+00  5.21194860e-10  4.39543723e-02  5.21194860e-10  6.92193964e-01  5.21194860e-10  1.55426446e+00  5.21194860e-10  1.55647722e+00                                 
 5.63584579e-10  7.49078147e-01  5.63584579e-10  6.84945407e-01  5.63584579e-10  1.54239169e+00  5.63584579e-10  1.80000000e+00  5.63584579e-10 -1.55969075e-02  5.63584579e-10  6.94395335e-01  5.63584579e-10  1.55615069e+00  5.63584579e-10  1.55647309e+00                                 
 6.48364017e-10  7.49188459e-01  6.48364017e-10  6.84782208e-01  6.48364017e-10  1.53943205e+00  6.48364017e-10  1.80000000e+00  6.48364017e-10  1.22018142e-02  6.48364017e-10  6.93997295e-01  6.48364017e-10  1.55602578e+00  6.48364017e-10  1.55642155e+00                                 
 7.67666931e-10  7.49233123e-01  7.67666931e-10  6.84744205e-01  7.67666931e-10  1.53777886e+00  7.67666931e-10  1.80000000e+00  7.67666931e-10 -9.59098079e-03  7.67666931e-10  6.95256633e-01  7.67666931e-10  1.55695901e+00  7.67666931e-10  1.55644537e+00                                 
 9.45399046e-10  7.49291359e-01  9.45399046e-10  6.84711370e-01  9.45399046e-10  1.53673013e+00  9.45399046e-10  1.80000000e+00  9.45399046e-10  8.75188763e-03  9.45399046e-10  6.96044659e-01  9.45399046e-10  1.55780199e+00  9.45399046e-10  1.55641838e+00                                 
 1.30086328e-09  7.49258112e-01  1.30086328e-09  6.84636193e-01  1.30086328e-09  1.53482693e+00  1.30086328e-09  1.80000000e+00  1.30086328e-09 -7.96572890e-03  1.30086328e-09  6.95666079e-01  1.30086328e-09  1.55734220e+00  1.30086328e-09  1.55644722e+00                                 
 1.71081403e-09  7.49201046e-01  1.71081403e-09  6.84652413e-01  1.71081403e-09  1.53354660e+00  1.71081403e-09  1.80000000e+00  1.71081403e-09  7.63735471e-03  1.71081403e-09  6.95319634e-01  1.71081403e-09  1.55716586e+00  1.71081403e-09  1.55649538e+00                                 
 2.35906040e-09  7.49065657e-01  2.35906040e-09  6.84612932e-01  2.35906040e-09  1.53097559e+00  2.35906040e-09  1.80000000e+00  2.35906040e-09 -7.33089318e-03  2.35906040e-09  6.93745050e-01  2.35906040e-09  1.55566486e+00  2.35906040e-09  1.55662087e+00                                 
 3.05205063e-09  7.49001791e-01  3.05205063e-09  6.84642917e-01  3.05205063e-09  1.52881501e+00  3.05205063e-09  1.80000000e+00  3.05205063e-09  7.09837174e-03  3.05205063e-09  6.92895519e-01  3.05205063e-09  1.55503583e+00  3.05205063e-09  1.55675816e+00                                 
 4.08123786e-09  7.48935354e-01  4.08123786e-09  6.84609216e-01  4.08123786e-09  1.52451090e+00  4.08123786e-09  1.80000000e+00  4.08123786e-09 -6.93718251e-03  4.08123786e-09  6.90828661e-01  4.08123786e-09  1.55311201e+00  4.08123786e-09  1.55694946e+00                                 
 5.58250345e-09  7.48927716e-01  5.58250345e-09  6.84644768e-01  5.58250345e-09  1.51883801e+00  5.58250345e-09  1.80000000e+00  5.58250345e-09  6.83604227e-03  5.58250345e-09  6.89242505e-01  5.58250345e-09  1.55183726e+00  5.58250345e-09  1.55715562e+00                                 
 8.58503464e-09  7.48904649e-01  8.58503464e-09  6.84619831e-01  8.58503464e-09  1.50589896e+00  8.58503464e-09  1.80000000e+00  8.58503464e-09 -6.77212053e-03  8.58503464e-09  6.86304273e-01  8.58503464e-09  1.54916291e+00  8.58503464e-09  1.55731738e+00                                 
 1.18224952e-08  7.48930732e-01  1.18224952e-08  6.84657528e-01  1.18224952e-08  1.49127157e+00  1.18224952e-08  1.80000000e+00  1.18224952e-08  6.74441140e-03  1.18224952e-08  6.85503247e-01  1.18224952e-08  1.54857358e+00  1.18224952e-08  1.55723860e+00                                 
 1.43047108e-08  7.48930765e-01  1.43047108e-08  6.84625627e-01  1.43047108e-08  1.47833700e+00  1.43047108e-08  1.80000000e+00  1.43047108e-08 -6.65884526e-03  1.43047108e-08  6.84767689e-01  1.43047108e-08  1.54781743e+00  1.43047108e-08  1.55709462e+00                                 
 1.72079709e-08  7.48957532e-01  1.72079709e-08  6.84659020e-01  1.72079709e-08  1.46305021e+00  1.72079709e-08  1.80000000e+00  1.72079709e-08  6.63222933e-03  1.72079709e-08  6.85091906e-01  1.72079709e-08  1.54820157e+00  1.72079709e-08  1.55691039e+00                                 
 2.05746654e-08  7.48955176e-01  2.05746654e-08  6.84626115e-01  2.05746654e-08  1.44367789e+00  2.05746654e-08  1.80000000e+00  2.05746654e-08 -6.56080635e-03  2.05746654e-08  6.84779817e-01  2.05746654e-08  1.54781214e+00  2.05746654e-08  1.55670396e+00                                 
 2.52742215e-08  7.48977401e-01  2.52742215e-08  6.84659164e-01  2.52742215e-08  1.41646198e+00  2.52742215e-08  1.80000000e+00  2.52742215e-08  6.55656871e-03  2.52742215e-08  6.85429386e-01  2.52742215e-08  1.54847625e+00  2.52742215e-08  1.55647054e+00                                 
 3.08248891e-08  7.48967499e-01  3.08248891e-08  6.84626084e-01  3.08248891e-08  1.38280400e+00  3.08248891e-08  1.80000000e+00  3.08248891e-08 -6.50190826e-03  3.08248891e-08  6.85309422e-01  3.08248891e-08  1.54825632e+00  3.08248891e-08  1.55627083e+00                                 
 3.90612401e-08  7.48981062e-01  3.90612401e-08  6.84659051e-01  3.90612401e-08  1.33315588e+00  3.90612401e-08  1.80000000e+00  3.90612401e-08  6.51200019e-03  3.90612401e-08  6.86036480e-01  3.90612401e-08  1.54899187e+00  3.90612401e-08  1.55610756e+00                                 
 5.04524219e-08  7.48965605e-01  5.04524219e-08  6.84625862e-01  5.04524219e-08  1.26351623e+00  5.04524219e-08  1.80000000e+00  5.04524219e-08 -6.47099285e-03  5.04524219e-08  6.85882912e-01  5.04524219e-08  1.54874986e+00  5.04524219e-08  1.55602696e+00                                 
 7.10948752e-08  7.48976906e-01  7.10948752e-08  6.84658842e-01  7.10948752e-08  1.13872775e+00  7.10948752e-08  1.80000000e+00  7.10948752e-08  6.49193631e-03  7.10948752e-08  6.86470809e-01  7.10948752e-08  1.54937198e+00  7.10948752e-08  1.55605436e+00                                 
 1.02637433e-07  7.48962588e-01  1.02637433e-07  6.84625726e-01  1.02637433e-07  9.49649895e-01  1.02637433e-07  1.80000000e+00  1.02637433e-07 -6.45896594e-03  1.02637433e-07  6.86110866e-01  1.02637433e-07  1.54895437e+00  1.02637433e-07  1.55614664e+00                                 
 1.32010017e-07  7.48975430e-01  1.32010017e-07  6.84658763e-01  1.32010017e-07  7.89528462e-01  1.32010017e-07  1.80000000e+00  1.32010017e-07  6.48340879e-03  1.32010017e-07  6.86514953e-01  1.32010017e-07  1.54941304e+00  1.32010017e-07  1.55619183e+00                                 
 1.61590174e-07  7.48966290e-01  1.61590174e-07  6.84625945e-01  1.61590174e-07  6.98687646e-01  1.61590174e-07  1.80000000e+00  1.61590174e-07 -6.44601690e-03  1.61590174e-07  6.86115430e-01  1.61590174e-07  1.54895727e+00  1.61590174e-07  1.55620371e+00                                 
 1.85348687e-07  7.48971861e-01  1.85348687e-07  6.84658665e-01  1.85348687e-07  6.88254534e-01  1.85348687e-07  1.80000000e+00  1.85348687e-07  6.47442710e-03  1.85348687e-07  6.86523256e-01  1.85348687e-07  1.54941859e+00  1.85348687e-07  1.55621239e+00                                 
 2.03709582e-07  7.48964615e-01  2.03709582e-07  6.84625747e-01  2.03709582e-07  6.88078207e-01  2.03709582e-07  1.80000000e+00  2.03709582e-07 -6.43211104e-03  2.03709582e-07  6.86112533e-01  2.03709582e-07  1.54895353e+00  2.03709582e-07  1.55621077e+00                                 
 2.24035083e-07  7.48974399e-01  2.24035083e-07  6.84658812e-01  2.24035083e-07  6.88104121e-01  2.24035083e-07  1.80000000e+00  2.24035083e-07  6.45962104e-03  2.24035083e-07  6.86519461e-01  2.24035083e-07  1.54941378e+00  2.24035083e-07  1.55621309e+00                                 
 2.54655815e-07  7.48964054e-01  2.54655815e-07  6.84625744e-01  2.54655815e-07  6.87958151e-01  2.54655815e-07  1.80000000e+00  2.54655815e-07 -6.42045839e-03  2.54655815e-07  6.86112164e-01  2.54655815e-07  1.54895144e+00  2.54655815e-07  1.55620894e+00                                 
 3.15897278e-07  7.48974897e-01  3.15897278e-07  6.84658814e-01  3.15897278e-07  6.88099815e-01  3.15897278e-07  1.80000000e+00  3.15897278e-07  6.45260661e-03  3.15897278e-07  6.86519177e-01  3.15897278e-07  1.54941016e+00  3.15897278e-07  1.55620957e+00                                 
 4.38380205e-07  7.48963871e-01  4.38380205e-07  6.84625747e-01  4.38380205e-07  6.87949054e-01  4.38380205e-07  1.80000000e+00  4.38380205e-07 -6.41688427e-03  4.38380205e-07  6.86112200e-01  4.38380205e-07  1.54894489e+00  4.38380205e-07  1.55620218e+00                                 
 6.83346058e-07  7.48974985e-01  6.83346058e-07  6.84658813e-01  6.83346058e-07  6.88103769e-01  6.83346058e-07  1.80000000e+00  6.83346058e-07  6.45086129e-03  6.83346058e-07  6.86519161e-01  6.83346058e-07  1.54939692e+00  6.83346058e-07  1.55619639e+00                                 
 1.17327776e-06  7.48963828e-01  1.17327776e-06  6.84625748e-01  1.17327776e-06  6.87947162e-01  1.17327776e-06  1.80000000e+00  1.17327776e-06 -6.41602088e-03  1.17327776e-06  6.86112208e-01  1.17327776e-06  1.54891849e+00  1.17327776e-06  1.55617580e+00                                 
 2.15314118e-06  7.48975005e-01  2.15314118e-06  6.84658812e-01  2.15314118e-06  6.88104694e-01  2.15314118e-06  1.80000000e+00  2.15314118e-06  6.45042505e-03  2.15314118e-06  6.86519157e-01  2.15314118e-06  1.54934410e+00  2.15314118e-06  1.55614365e+00                                 
 3.15314118e-06  7.48963814e-01  3.15314118e-06  6.84625748e-01  3.15314118e-06  6.87946559e-01  3.15314118e-06  1.80000000e+00  3.15314118e-06 -6.41591688e-03  3.15314118e-06  6.86112210e-01  3.15314118e-06  1.54884738e+00  3.15314118e-06  1.55610478e+00                                 
 4.15314118e-06  7.48975019e-01  4.15314118e-06  6.84658812e-01  4.15314118e-06  6.88105290e-01  4.15314118e-06  1.80000000e+00  4.15314118e-06  6.45016964e-03  4.15314118e-06  6.86519155e-01  4.15314118e-06  1.54927227e+00  4.15314118e-06  1.55607193e+00                                 
 5.15314118e-06  7.48963801e-01  5.15314118e-06  6.84625749e-01  5.15314118e-06  6.87945969e-01  5.15314118e-06  1.80000000e+00  5.15314118e-06 -6.41563662e-03  5.15314118e-06  6.86112213e-01  5.15314118e-06  1.54877552e+00  5.15314118e-06  1.55603302e+00                                 
 6.15314118e-06  7.48975032e-01  6.15314118e-06  6.84658812e-01  6.15314118e-06  6.88105874e-01  6.15314118e-06  1.80000000e+00  6.15314118e-06  6.44988469e-03  6.15314118e-06  6.86519153e-01  6.15314118e-06  1.54920038e+00  6.15314118e-06  1.55600015e+00                                 
 7.15314118e-06  7.48963788e-01  7.15314118e-06  6.84625749e-01  7.15314118e-06  6.87945387e-01  7.15314118e-06  1.80000000e+00  7.15314118e-06 -6.41535458e-03  7.15314118e-06  6.86112215e-01  7.15314118e-06  1.54870364e+00  7.15314118e-06  1.55596125e+00                                 
 8.15314118e-06  7.48975045e-01  8.15314118e-06  6.84658811e-01  8.15314118e-06  6.88106451e-01  8.15314118e-06  1.80000000e+00  8.15314118e-06  6.44959975e-03  8.15314118e-06  6.86519150e-01  8.15314118e-06  1.54912852e+00  8.15314118e-06  1.55592840e+00                                 
 9.15314118e-06  7.48963775e-01  9.15314118e-06  6.84625749e-01  9.15314118e-06  6.87944813e-01  9.15314118e-06  1.80000000e+00  9.15314118e-06 -6.41507256e-03  9.15314118e-06  6.86112217e-01  9.15314118e-06  1.54863183e+00  9.15314118e-06  1.55588954e+00                                 
 1.00005000e-05  7.48975060e-01  1.00005000e-05  6.84658811e-01  1.00005000e-05  6.88107071e-01  1.00005000e-05  1.80000000e+00  1.00005000e-05  6.44929065e-03  1.00005000e-05  6.86519148e-01  1.00005000e-05  1.54906219e+00  1.00005000e-05  1.55586217e+00                                 
 1.00005500e-05  7.48933021e-01  1.00005500e-05  6.84452910e-01  1.00005500e-05  6.86218134e-01  1.00005500e-05  1.62000000e+00  1.00005500e-05  5.51730042e-04  1.00005500e-05  6.84806491e-01  1.00005500e-05  1.54751459e+00  1.00005500e-05  1.55584161e+00                                 
 1.00006500e-05  7.48956894e-01  1.00006500e-05  6.84427736e-01  1.00006500e-05  6.86216590e-01  1.00006500e-05  1.26000000e+00  1.00006500e-05 -4.92898791e-04  1.00006500e-05  6.84441464e-01  1.00006500e-05  1.54718716e+00  1.00006500e-05  1.55586297e+00                                 
 1.00008500e-05  7.49004521e-01  1.00008500e-05  6.84624158e-01  1.00008500e-05  6.88500714e-01  1.00008500e-05  5.40000000e-01  1.00008500e-05 -3.02668263e-03  1.00008500e-05  6.85433597e-01  1.00008500e-05  1.54660598e+00  1.00008500e-05  1.55585364e+00                                 
 1.00010000e-05  7.48954727e-01  1.00010000e-05  6.83745923e-01  1.00010000e-05  7.09122530e-01  1.00010000e-05  0.00000000e+00  1.00010000e-05  1.51224705e+00  1.00010000e-05  6.75287172e-01  1.00010000e-05  1.48972034e+00  1.00010000e-05  1.55536162e+00                                 
 1.00010254e-05  7.48972788e-01  1.00010254e-05  6.83417392e-01  1.00010254e-05  7.15069137e-01  1.00010254e-05  0.00000000e+00  1.00010254e-05  1.69037154e+00  1.00010254e-05  6.71256000e-01  1.00010254e-05  1.46313072e+00  1.00010254e-05  1.55518476e+00                                 
 1.00010762e-05  7.48972623e-01  1.00010762e-05  6.82772657e-01  1.00010762e-05  7.20912823e-01  1.00010762e-05  0.00000000e+00  1.00010762e-05  1.82125967e+00  1.00010762e-05  6.63552372e-01  1.00010762e-05  1.40338235e+00  1.00010762e-05  1.55503603e+00                                 
 1.00011779e-05  7.48965678e-01  1.00011779e-05  6.82635275e-01  1.00011779e-05  7.15171259e-01  1.00011779e-05  0.00000000e+00  1.00011779e-05  1.78676207e+00  1.00011779e-05  6.62501418e-01  1.00011779e-05  1.29840067e+00  1.00011779e-05  1.55557160e+00                                 
 1.00013050e-05  7.48972423e-01  1.00013050e-05  6.82947383e-01  1.00013050e-05  7.11696228e-01  1.00013050e-05  0.00000000e+00  1.00013050e-05  1.80700336e+00  1.00013050e-05  6.66961171e-01  1.00013050e-05  1.19758890e+00  1.00013050e-05  1.55593787e+00                                 
 1.00015213e-05  7.48965288e-01  1.00015213e-05  6.83108838e-01  1.00015213e-05  7.07787751e-01  1.00015213e-05  0.00000000e+00  1.00015213e-05  1.79393059e+00  1.00015213e-05  6.68089469e-01  1.00015213e-05  1.05495173e+00  1.00015213e-05  1.55613842e+00                                 
 1.00018287e-05  7.48971739e-01  1.00018287e-05  6.83655354e-01  1.00018287e-05  7.03039681e-01  1.00018287e-05  0.00000000e+00  1.00018287e-05  1.80443090e+00  1.00018287e-05  6.73061913e-01  1.00018287e-05  9.09178310e-01  1.00018287e-05  1.55608926e+00                                 
 1.00022621e-05  7.48965953e-01  1.00022621e-05  6.84213086e-01  1.00022621e-05  6.97627015e-01  1.00022621e-05  0.00000000e+00  1.00022621e-05  1.79573194e+00  1.00022621e-05  6.77473494e-01  1.00022621e-05  7.73565595e-01  1.00022621e-05  1.55556329e+00                                 
 1.00027313e-05  7.48971854e-01  1.00027313e-05  6.84904889e-01  1.00027313e-05  6.91258080e-01  1.00027313e-05  0.00000000e+00  1.00027313e-05  1.80351018e+00  1.00027313e-05  6.84426834e-01  1.00027313e-05  7.12300071e-01  1.00027313e-05  1.55445964e+00                                 
 1.00031206e-05  7.48966560e-01  1.00031206e-05  6.85025847e-01  1.00031206e-05  6.90953147e-01  1.00031206e-05  0.00000000e+00  1.00031206e-05  1.79696728e+00  1.00031206e-05  6.85411359e-01  1.00031206e-05  6.95646648e-01  1.00031206e-05  1.55308373e+00                                 
 1.00036242e-05  7.48971716e-01  1.00036242e-05  6.85173431e-01  1.00036242e-05  6.90288280e-01  1.00036242e-05  0.00000000e+00  1.00036242e-05  1.80266142e+00  1.00036242e-05  6.87597921e-01  1.00036242e-05  6.91900308e-01  1.00036242e-05  1.55093410e+00                                 
 1.00041604e-05  7.48966971e-01  1.00041604e-05  6.85064733e-01  1.00041604e-05  6.92365862e-01  1.00041604e-05  0.00000000e+00  1.00041604e-05  1.79764371e+00  1.00041604e-05  6.87032541e-01  1.00041604e-05  6.91065868e-01  1.00041604e-05  1.54836813e+00                                 
 1.00050762e-05  7.48971619e-01  1.00050762e-05  6.85040355e-01  1.00050762e-05  6.93999153e-01  1.00050762e-05  0.00000000e+00  1.00050762e-05  1.80219642e+00  1.00050762e-05  6.88056478e-01  1.00050762e-05  6.94043145e-01  1.00050762e-05  1.54372054e+00                                 
 1.00064851e-05  7.48967177e-01  1.00064851e-05  6.84849912e-01  1.00064851e-05  6.98812315e-01  1.00064851e-05  0.00000000e+00  1.00064851e-05  1.79790691e+00  1.00064851e-05  6.87274711e-01  1.00064851e-05  6.97196628e-01  1.00064851e-05  1.53618346e+00                                 
 1.00093030e-05  7.48971600e-01  1.00093030e-05  6.84754181e-01  1.00093030e-05  7.06046882e-01  1.00093030e-05  0.00000000e+00  1.00093030e-05  1.80204779e+00  1.00093030e-05  6.87900184e-01  1.00093030e-05  7.05969747e-01  1.00093030e-05  1.52061855e+00                                 
