 time            v(vbep)         time            v(vben)         time            v(vout)         time            v(vphi1)        time            v(vphi2)        time            v(vref)         time            v(voutc)        time            v(voutcc)       yes             currtemp       
 0.00000000e+00  7.79863422e-01  0.00000000e+00  7.20212040e-01  0.00000000e+00  1.60717022e+00  0.00000000e+00  0.00000000e+00  0.00000000e+00  1.80000000e+00  0.00000000e+00  7.22765825e-01  0.00000000e+00  1.60717020e+00  0.00000000e+00  1.61356619e+00  1.00000000e+00  2.90000000e+01 
 5.00000000e-12  7.79885192e-01  5.00000000e-12  7.20266275e-01  5.00000000e-12  1.60780179e+00  5.00000000e-12  1.80000000e-02  5.00000000e-12  1.80018426e+00  5.00000000e-12  7.23159062e-01  5.00000000e-12  1.60751908e+00  5.00000000e-12  1.61357912e+00                                 
 1.00000000e-11  7.79894764e-01  1.00000000e-11  7.20302217e-01  1.00000000e-11  1.60826439e+00  1.00000000e-11  3.60000000e-02  1.00000000e-11  1.80026827e+00  1.00000000e-11  7.23468949e-01  1.00000000e-11  1.60779567e+00  1.00000000e-11  1.61358605e+00                                 
 2.00000000e-11  7.79901076e-01  2.00000000e-11  7.20352370e-01  2.00000000e-11  1.60894114e+00  2.00000000e-11  7.20000000e-02  2.00000000e-11  1.80032258e+00  2.00000000e-11  7.23954259e-01  2.00000000e-11  1.60823299e+00  2.00000000e-11  1.61359268e+00                                 
 4.00000000e-11  7.79888723e-01  4.00000000e-11  7.20389214e-01  4.00000000e-11  1.60942104e+00  4.00000000e-11  1.44000000e-01  4.00000000e-11  1.80019451e+00  4.00000000e-11  7.24421778e-01  4.00000000e-11  1.60867297e+00  4.00000000e-11  1.61358680e+00                                 
 8.00000000e-11  7.79874822e-01  8.00000000e-11  7.20394101e-01  8.00000000e-11  1.60931732e+00  8.00000000e-11  2.88000000e-01  8.00000000e-11  1.80002951e+00  8.00000000e-11  7.24548684e-01  8.00000000e-11  1.60883952e+00  8.00000000e-11  1.61357134e+00                                 
 1.60000000e-10  7.79875736e-01  1.60000000e-10  7.20382486e-01  1.60000000e-10  1.60884364e+00  1.60000000e-10  5.76000000e-01  1.60000000e-10  1.80001183e+00  1.60000000e-10  7.24346949e-01  1.60000000e-10  1.60872033e+00  1.60000000e-10  1.61356593e+00                                 
 3.20000000e-10  7.79810578e-01  3.20000000e-10  7.19939151e-01  3.20000000e-10  1.60479756e+00  3.20000000e-10  1.15200000e+00  3.20000000e-10  1.80071389e+00  3.20000000e-10  7.20496813e-01  3.20000000e-10  1.60556021e+00  3.20000000e-10  1.61353484e+00                                 
 5.00000000e-10  7.79919832e-01  5.00000000e-10  7.20377586e-01  5.00000000e-10  1.59978057e+00  5.00000000e-10  1.80000000e+00  5.00000000e-10  1.50941791e-01  5.00000000e-10  7.25813054e-01  5.00000000e-10  1.60992976e+00  5.00000000e-10  1.61361654e+00                                 
 5.20809895e-10  7.79915600e-01  5.20809895e-10  7.20420502e-01  5.20809895e-10  1.59918577e+00  5.20809895e-10  1.80000000e+00  5.20809895e-10  3.90083300e-02  5.20809895e-10  7.27308036e-01  5.20809895e-10  1.61078650e+00  5.20809895e-10  1.61361028e+00                                 
 5.62429685e-10  7.79973010e-01  5.62429685e-10  7.20500063e-01  5.62429685e-10  1.59874941e+00  5.62429685e-10  1.80000000e+00  5.62429685e-10 -1.43376045e-02  5.62429685e-10  7.29314869e-01  5.62429685e-10  1.61254059e+00  5.62429685e-10  1.61360874e+00                                 
 6.45669265e-10  7.80058143e-01  6.45669265e-10  7.20339941e-01  6.45669265e-10  1.59617440e+00  6.45669265e-10  1.80000000e+00  6.45669265e-10  1.14685404e-02  6.45669265e-10  7.28410278e-01  6.45669265e-10  1.61195902e+00  6.45669265e-10  1.61355354e+00                                 
 7.64257537e-10  7.80080276e-01  7.64257537e-10  7.20312705e-01  7.64257537e-10  1.59511318e+00  7.64257537e-10  1.80000000e+00  7.64257537e-10 -9.04358216e-03  7.64257537e-10  7.29398089e-01  7.64257537e-10  1.61266047e+00  7.64257537e-10  1.61358565e+00                                 
 9.40913501e-10  7.80136268e-01  9.40913501e-10  7.20280079e-01  9.40913501e-10  1.59428073e+00  9.40913501e-10  1.80000000e+00  9.40913501e-10  8.41474685e-03  9.40913501e-10  7.30112772e-01  9.40913501e-10  1.61342895e+00  9.40913501e-10  1.61355705e+00                                 
 1.29422543e-09  7.80140574e-01  1.29422543e-09  7.20206389e-01  1.29422543e-09  1.59178758e+00  1.29422543e-09  1.80000000e+00  1.29422543e-09 -7.63984651e-03  1.29422543e-09  7.29966217e-01  1.29422543e-09  1.61317620e+00  1.29422543e-09  1.61357475e+00                                 
 1.76564104e-09  7.80090048e-01  1.76564104e-09  7.20216887e-01  1.76564104e-09  1.59033168e+00  1.76564104e-09  1.80000000e+00  1.76564104e-09  7.41343999e-03  1.76564104e-09  7.29855221e-01  1.76564104e-09  1.61320268e+00  1.76564104e-09  1.61359741e+00                                 
 2.33313588e-09  7.79967714e-01  2.33313588e-09  7.20181631e-01  2.33313588e-09  1.58890007e+00  2.33313588e-09  1.80000000e+00  2.33313588e-09 -7.10491426e-03  2.33313588e-09  7.28769178e-01  2.33313588e-09  1.61213602e+00  2.33313588e-09  1.61366243e+00                                 
 2.93962522e-09  7.79903039e-01  2.93962522e-09  7.20211159e-01  2.93962522e-09  1.58809433e+00  2.93962522e-09  1.80000000e+00  2.93962522e-09  6.86614874e-03  2.93962522e-09  7.28418893e-01  2.93962522e-09  1.61194177e+00  2.93962522e-09  1.61373152e+00                                 
 3.79844175e-09  7.79840886e-01  3.79844175e-09  7.20181433e-01  3.79844175e-09  1.58591409e+00  3.79844175e-09  1.80000000e+00  3.79844175e-09 -6.69185980e-03  3.79844175e-09  7.27023718e-01  3.79844175e-09  1.61061172e+00  3.79844175e-09  1.61383510e+00                                 
 5.31958789e-09  7.79829970e-01  5.31958789e-09  7.20215446e-01  5.31958789e-09  1.58257480e+00  5.31958789e-09  1.80000000e+00  5.31958789e-09  6.60220739e-03  5.31958789e-09  7.25883150e-01  5.31958789e-09  1.60972243e+00  5.31958789e-09  1.61398958e+00                                 
 8.36188016e-09  7.79818500e-01  8.36188016e-09  7.20192278e-01  8.36188016e-09  1.57409247e+00  8.36188016e-09  1.80000000e+00  8.36188016e-09 -6.54963609e-03  8.36188016e-09  7.23338507e-01  8.36188016e-09  1.60739667e+00  8.36188016e-09  1.61415862e+00                                 
 1.22457784e-08  7.79835405e-01  1.22457784e-08  7.20226972e-01  1.22457784e-08  1.56293164e+00  1.22457784e-08  1.80000000e+00  1.22457784e-08  6.52548392e-03  1.22457784e-08  7.22408726e-01  1.22457784e-08  1.60669442e+00  1.22457784e-08  1.61415799e+00                                 
 1.52599713e-08  7.79828229e-01  1.52599713e-08  7.20196777e-01  1.52599713e-08  1.55300373e+00  1.52599713e-08  1.80000000e+00  1.52599713e-08 -6.46149757e-03  1.52599713e-08  7.21620188e-01  1.52599713e-08  1.60589921e+00  1.52599713e-08  1.61406288e+00                                 
 1.87490237e-08  7.79848864e-01  1.87490237e-08  7.20227363e-01  1.87490237e-08  1.54139240e+00  1.87490237e-08  1.80000000e+00  1.87490237e-08  6.44468396e-03  1.87490237e-08  7.21900322e-01  1.87490237e-08  1.60624373e+00  1.87490237e-08  1.61392794e+00                                 
 2.24241714e-08  7.79847214e-01  2.24241714e-08  7.20196871e-01  2.24241714e-08  1.52750668e+00  2.24241714e-08  1.80000000e+00  2.24241714e-08 -6.38318744e-03  2.24241714e-08  7.21537495e-01  2.24241714e-08  1.60581640e+00  2.24241714e-08  1.61378310e+00                                 
 2.78790610e-08  7.79867227e-01  2.78790610e-08  7.20227528e-01  2.78790610e-08  1.50654347e+00  2.78790610e-08  1.80000000e+00  2.78790610e-08  6.38446335e-03  2.78790610e-08  7.22113783e-01  2.78790610e-08  1.60641499e+00  2.78790610e-08  1.61360349e+00                                 
 3.41268952e-08  7.79861011e-01  3.41268952e-08  7.20196909e-01  3.41268952e-08  1.48077791e+00  3.41268952e-08  1.80000000e+00  3.41268952e-08 -6.33630671e-03  3.41268952e-08  7.21921891e-01  3.41268952e-08  1.60613693e+00  3.41268952e-08  1.61344712e+00                                 
 4.38429530e-08  7.79872445e-01  4.38429530e-08  7.20227454e-01  4.38429530e-08  1.44075234e+00  4.38429530e-08  1.80000000e+00  4.38429530e-08  6.34950184e-03  4.38429530e-08  7.22581323e-01  4.38429530e-08  1.60680996e+00  4.38429530e-08  1.61330435e+00                                 
 5.67396510e-08  7.79860572e-01  5.67396510e-08  7.20196764e-01  5.67396510e-08  1.38641371e+00  5.67396510e-08  1.80000000e+00  5.67396510e-08 -6.31217292e-03  5.67396510e-08  7.22373249e-01  5.67396510e-08  1.60652270e+00  5.67396510e-08  1.61322244e+00                                 
 8.03684852e-08  7.79869396e-01  8.03684852e-08  7.20227355e-01  8.03684852e-08  1.28788700e+00  8.03684852e-08  1.80000000e+00  8.03684852e-08  6.33347056e-03  8.03684852e-08  7.22924767e-01  8.03684852e-08  1.60710764e+00  8.03684852e-08  1.61321415e+00                                 
 1.16424401e-07  7.79858284e-01  1.16424401e-07  7.20196712e-01  1.16424401e-07  1.13781242e+00  1.16424401e-07  1.80000000e+00  1.16424401e-07 -6.30278816e-03  1.16424401e-07  7.22562188e-01  1.16424401e-07  1.60668943e+00  1.16424401e-07  1.61326483e+00                                 
 1.73788093e-07  7.79868550e-01  1.73788093e-07  7.20227343e-01  1.73788093e-07  9.05792856e-01  1.73788093e-07  1.80000000e+00  1.73788093e-07  6.32781158e-03  1.73788093e-07  7.22967469e-01  1.73788093e-07  1.60714479e+00  1.73788093e-07  1.61330944e+00                                 
 2.54684281e-07  7.79858544e-01  2.54684281e-07  7.20196724e-01  2.54684281e-07  7.27516662e-01  2.54684281e-07  1.80000000e+00  2.54684281e-07 -6.29675689e-03  2.54684281e-07  7.22562911e-01  2.54684281e-07  1.60668526e+00  2.54684281e-07  1.61331056e+00                                 
 3.26910445e-07  7.79868307e-01  3.26910445e-07  7.20227374e-01  3.26910445e-07  7.23590009e-01  3.26910445e-07  1.80000000e+00  3.26910445e-07  6.32619631e-03  3.26910445e-07  7.22971814e-01  3.26910445e-07  1.60714236e+00  3.26910445e-07  1.61331168e+00                                 
 3.73602133e-07  7.79857766e-01  3.73602133e-07  7.20196595e-01  3.73602133e-07  7.26477135e-01  3.73602133e-07  1.80000000e+00  3.73602133e-07 -6.29229463e-03  3.73602133e-07  7.22559759e-01  3.73602133e-07  1.60667797e+00  3.73602133e-07  1.61330642e+00                                 
 4.20105367e-07  7.79869568e-01  4.20105367e-07  7.20227541e-01  4.20105367e-07  7.24821180e-01  4.20105367e-07  1.80000000e+00  4.20105367e-07  6.32068224e-03  4.20105367e-07  7.22970723e-01  4.20105367e-07  1.60713768e+00  4.20105367e-07  1.61330642e+00                                 
 4.65757952e-07  7.79857132e-01  4.65757952e-07  7.20196479e-01  4.65757952e-07  7.25586155e-01  4.65757952e-07  1.80000000e+00  4.65757952e-07 -6.28672030e-03  4.65757952e-07  7.22561453e-01  4.65757952e-07  1.60667591e+00  4.65757952e-07  1.61330254e+00                                 
 5.13970905e-07  7.79869686e-01  5.13970905e-07  7.20227605e-01  5.13970905e-07  7.25311528e-01  5.13970905e-07  1.80000000e+00  5.13970905e-07  6.31516135e-03  5.13970905e-07  7.22969736e-01  5.13970905e-07  1.60713314e+00  5.13970905e-07  1.61330305e+00                                 
 5.78783807e-07  7.79857223e-01  5.78783807e-07  7.20196449e-01  5.78783807e-07  7.25353682e-01  5.78783807e-07  1.80000000e+00  5.78783807e-07 -6.28203356e-03  5.78783807e-07  7.22561923e-01  5.78783807e-07  1.60667196e+00  5.78783807e-07  1.61329801e+00                                 
 6.68250388e-07  7.79869562e-01  6.68250388e-07  7.20227617e-01  6.68250388e-07  7.25410002e-01  6.68250388e-07  1.80000000e+00  6.68250388e-07  6.31170645e-03  6.68250388e-07  7.22969527e-01  6.68250388e-07  1.60712694e+00  6.68250388e-07  1.61329714e+00                                 
 8.14413923e-07  7.79857318e-01  8.14413923e-07  7.20196444e-01  8.14413923e-07  7.25306850e-01  8.14413923e-07  1.80000000e+00  8.14413923e-07 -6.27966249e-03  8.14413923e-07  7.22562025e-01  8.14413923e-07  1.60666292e+00  8.14413923e-07  1.61328883e+00                                 
 1.09400979e-06  7.79869505e-01  1.09400979e-06  7.20227619e-01  1.09400979e-06  7.25431112e-01  1.09400979e-06  1.80000000e+00  1.09400979e-06  6.31033151e-03  1.09400979e-06  7.22969478e-01  1.09400979e-06  1.60711036e+00  1.09400979e-06  1.61328065e+00                                 
 1.65320152e-06  7.79857348e-01  1.65320152e-06  7.20196444e-01  1.65320152e-06  7.25297228e-01  1.65320152e-06  1.80000000e+00  1.65320152e-06 -6.27886125e-03  1.65320152e-06  7.22562048e-01  1.65320152e-06  1.60663039e+00  1.65320152e-06  1.61325633e+00                                 
 2.65320152e-06  7.79869490e-01  2.65320152e-06  7.20227619e-01  2.65320152e-06  7.25435733e-01  2.65320152e-06  1.80000000e+00  2.65320152e-06  6.30997803e-03  2.65320152e-06  7.22969468e-01  2.65320152e-06  1.60704986e+00  2.65320152e-06  1.61322027e+00                                 
 3.65320152e-06  7.79857359e-01  3.65320152e-06  7.20196444e-01  3.65320152e-06  7.25294021e-01  3.65320152e-06  1.80000000e+00  3.65320152e-06 -6.27882549e-03  3.65320152e-06  7.22562055e-01  3.65320152e-06  1.60655282e+00  3.65320152e-06  1.61317887e+00                                 
 4.65320152e-06  7.79869479e-01  4.65320152e-06  7.20227619e-01  4.65320152e-06  7.25438826e-01  4.65320152e-06  1.80000000e+00  4.65320152e-06  6.30974604e-03  4.65320152e-06  7.22969460e-01  4.65320152e-06  1.60697224e+00  4.65320152e-06  1.61314279e+00                                 
 5.65320152e-06  7.79857371e-01  5.65320152e-06  7.20196443e-01  5.65320152e-06  7.25290991e-01  5.65320152e-06  1.80000000e+00  5.65320152e-06 -6.27856907e-03  5.65320152e-06  7.22562063e-01  5.65320152e-06  1.60647518e+00  5.65320152e-06  1.61310136e+00                                 
 6.65320152e-06  7.79869467e-01  6.65320152e-06  7.20227619e-01  6.65320152e-06  7.25441741e-01  6.65320152e-06  1.80000000e+00  6.65320152e-06  6.30948703e-03  6.65320152e-06  7.22969453e-01  6.65320152e-06  1.60689460e+00  6.65320152e-06  1.61306529e+00                                 
 7.65320152e-06  7.79857382e-01  7.65320152e-06  7.20196443e-01  7.65320152e-06  7.25288131e-01  7.65320152e-06  1.80000000e+00  7.65320152e-06 -6.27831267e-03  7.65320152e-06  7.22562070e-01  7.65320152e-06  1.60639755e+00  7.65320152e-06  1.61302385e+00                                 
 8.65320152e-06  7.79869456e-01  8.65320152e-06  7.20227619e-01  8.65320152e-06  7.25444493e-01  8.65320152e-06  1.80000000e+00  8.65320152e-06  6.30922803e-03  8.65320152e-06  7.22969446e-01  8.65320152e-06  1.60681693e+00  8.65320152e-06  1.61298776e+00                                 
 9.65320152e-06  7.79857393e-01  9.65320152e-06  7.20196443e-01  9.65320152e-06  7.25285431e-01  9.65320152e-06  1.80000000e+00  9.65320152e-06 -6.27805628e-03  9.65320152e-06  7.22562076e-01  9.65320152e-06  1.60631992e+00  9.65320152e-06  1.61294634e+00                                 
 1.00005000e-05  7.79869434e-01  1.00005000e-05  7.20227619e-01  1.00005000e-05  7.25449405e-01  1.00005000e-05  1.80000000e+00  1.00005000e-05  6.30873073e-03  1.00005000e-05  7.22969433e-01  1.00005000e-05  1.60676464e+00  1.00005000e-05  1.61293557e+00                                 
 1.00005500e-05  7.79831332e-01  1.00005500e-05  7.20021437e-01  1.00005500e-05  7.23514632e-01  1.00005500e-05  1.62000000e+00  1.00005500e-05  4.99181493e-04  1.00005500e-05  7.21218195e-01  1.00005500e-05  1.60518708e+00  1.00005500e-05  1.61291413e+00                                 
 1.00006500e-05  7.79856396e-01  1.00006500e-05  7.20007265e-01  1.00006500e-05  7.23640090e-01  1.00006500e-05  1.26000000e+00  1.00006500e-05 -4.49907325e-04  1.00006500e-05  7.20963939e-01  1.00006500e-05  1.60495783e+00  1.00006500e-05  1.61293753e+00                                 
 1.00008500e-05  7.79894900e-01  1.00008500e-05  7.20238178e-01  1.00008500e-05  7.26115777e-01  1.00008500e-05  5.40000000e-01  1.00008500e-05 -2.01868915e-03  1.00008500e-05  7.22533942e-01  1.00008500e-05  1.60539774e+00  1.00008500e-05  1.61293410e+00                                 
 1.00010000e-05  7.79853659e-01  1.00010000e-05  7.19125094e-01  1.00010000e-05  7.46730600e-01  1.00010000e-05  0.00000000e+00  1.00010000e-05  1.49625898e+00  1.00010000e-05  7.09384276e-01  1.00010000e-05  1.54521172e+00  1.00010000e-05  1.61238367e+00                                 
 1.00010260e-05  7.79870962e-01  1.00010260e-05  7.18826667e-01  1.00010260e-05  7.53166138e-01  1.00010260e-05  0.00000000e+00  1.00010260e-05  1.68576148e+00  1.00010260e-05  7.05684147e-01  1.00010260e-05  1.51934716e+00  1.00010260e-05  1.61224097e+00                                 
 1.00010779e-05  7.79867321e-01  1.00010779e-05  7.18253535e-01  1.00010779e-05  7.59004398e-01  1.00010779e-05  0.00000000e+00  1.00010779e-05  1.82276229e+00  1.00010779e-05  6.98969419e-01  1.00010779e-05  1.46174205e+00  1.00010779e-05  1.61212406e+00                                 
 1.00011818e-05  7.79860334e-01  1.00011818e-05  7.18164636e-01  1.00011818e-05  7.51934117e-01  1.00011818e-05  0.00000000e+00  1.00011818e-05  1.78594778e+00  1.00011818e-05  6.98793273e-01  1.00011818e-05  1.36102596e+00  1.00011818e-05  1.61263619e+00                                 
 1.00013130e-05  7.79868264e-01  1.00013130e-05  7.18520878e-01  1.00013130e-05  7.48238334e-01  1.00013130e-05  0.00000000e+00  1.00013130e-05  1.80758539e+00  1.00013130e-05  7.03865390e-01  1.00013130e-05  1.26444144e+00  1.00013130e-05  1.61299146e+00                                 
 1.00015280e-05  7.79859556e-01  1.00015280e-05  7.18718103e-01  1.00015280e-05  7.43733882e-01  1.00015280e-05  0.00000000e+00  1.00015280e-05  1.79360396e+00  1.00015280e-05  7.05612203e-01  1.00015280e-05  1.13448649e+00  1.00015280e-05  1.61317020e+00                                 
 1.00018788e-05  7.79867211e-01  1.00018788e-05  7.19307586e-01  1.00018788e-05  7.38758918e-01  1.00018788e-05  0.00000000e+00  1.00018788e-05  1.80484149e+00  1.00018788e-05  7.10804314e-01  1.00018788e-05  9.86101347e-01  1.00018788e-05  1.61320391e+00                                 
 1.00023453e-05  7.79859712e-01  1.00023453e-05  7.19736493e-01  1.00023453e-05  7.35416684e-01  1.00023453e-05  0.00000000e+00  1.00023453e-05  1.79543767e+00  1.00023453e-05  7.13473209e-01  1.00023453e-05  8.46915344e-01  1.00023453e-05  1.61282676e+00                                 
 1.00028473e-05  7.79866944e-01  1.00028473e-05  7.20375915e-01  1.00028473e-05  7.29755255e-01  1.00028473e-05  0.00000000e+00  1.00028473e-05  1.80372445e+00  1.00028473e-05  7.19641657e-01  1.00028473e-05  7.68017787e-01  1.00028473e-05  1.61212431e+00                                 
 1.00033812e-05  7.79860093e-01  1.00033812e-05  7.20594379e-01  1.00033812e-05  7.28322692e-01  1.00033812e-05  0.00000000e+00  1.00033812e-05  1.79660966e+00  1.00033812e-05  7.21580391e-01  1.00033812e-05  7.35514469e-01  1.00033812e-05  1.61097073e+00                                 
 1.00039405e-05  7.79866675e-01  1.00039405e-05  7.20757112e-01  1.00039405e-05  7.27352326e-01  1.00039405e-05  0.00000000e+00  1.00039405e-05  1.80297610e+00  1.00039405e-05  7.23906716e-01  1.00039405e-05  7.29586223e-01  1.00039405e-05  1.60942986e+00                                 
 1.00045958e-05  7.79860393e-01  1.00045958e-05  7.20631143e-01  1.00045958e-05  7.29388257e-01  1.00045958e-05  0.00000000e+00  1.00045958e-05  1.79731208e+00  1.00045958e-05  7.23364273e-01  1.00045958e-05  7.28093755e-01  1.00045958e-05  1.60729562e+00                                 
 1.00054012e-05  7.79866437e-01  1.00054012e-05  7.20615211e-01  1.00054012e-05  7.30280338e-01  1.00054012e-05  0.00000000e+00  1.00054012e-05  1.80245792e+00  1.00054012e-05  7.24393451e-01  1.00054012e-05  7.30419493e-01  1.00054012e-05  1.60451886e+00                                 
