 time            v(vbep)         time            v(vben)         time            v(vout)         time            v(vphi1)        time            v(vphi2)        time            v(vref)         time            v(voutc)        time            v(voutcc)       yes             currtemp       
 0.00000000e+00  7.34135630e-01  0.00000000e+00  6.67544204e-01  0.00000000e+00  1.52001683e+00  0.00000000e+00  0.00000000e+00  0.00000000e+00  1.79999999e+00  0.00000000e+00  6.68705603e-01  0.00000000e+00  1.52001682e+00  0.00000000e+00  1.52734790e+00  1.00000000e+00  6.00000000e+01 
 5.00000000e-12  7.34157323e-01  5.00000000e-12  6.67598455e-01  5.00000000e-12  1.52063485e+00  5.00000000e-12  1.80000000e-02  5.00000000e-12  1.80018587e+00  5.00000000e-12  6.69096849e-01  5.00000000e-12  1.52036444e+00  5.00000000e-12  1.52736096e+00                                 
 1.00000000e-11  7.34166845e-01  1.00000000e-11  6.67634093e-01  1.00000000e-11  1.52107724e+00  1.00000000e-11  3.60000000e-02  1.00000000e-11  1.80026979e+00  1.00000000e-11  6.69403861e-01  1.00000000e-11  1.52063849e+00  1.00000000e-11  1.52736771e+00                                 
 2.00000000e-11  7.34173188e-01  2.00000000e-11  6.67683541e-01  2.00000000e-11  1.52170978e+00  2.00000000e-11  7.20000000e-02  2.00000000e-11  1.80032258e+00  2.00000000e-11  6.69884002e-01  2.00000000e-11  1.52107021e+00  2.00000000e-11  1.52737383e+00                                 
 4.00000000e-11  7.34161204e-01  4.00000000e-11  6.67719172e-01  4.00000000e-11  1.52211430e+00  4.00000000e-11  1.44000000e-01  4.00000000e-11  1.80019073e+00  4.00000000e-11  6.70344843e-01  4.00000000e-11  1.52149814e+00  4.00000000e-11  1.52736747e+00                                 
 8.00000000e-11  7.34147970e-01  8.00000000e-11  6.67724583e-01  8.00000000e-11  1.52196859e+00  8.00000000e-11  2.88000000e-01  8.00000000e-11  1.80003063e+00  8.00000000e-11  6.70485488e-01  8.00000000e-11  1.52165925e+00  8.00000000e-11  1.52735322e+00                                 
 1.60000000e-10  7.34148272e-01  1.60000000e-10  6.67711015e-01  1.60000000e-10  1.52147549e+00  1.60000000e-10  5.76000000e-01  1.60000000e-10  1.80000855e+00  1.60000000e-10  6.70289171e-01  1.60000000e-10  1.52151207e+00  1.60000000e-10  1.52734759e+00                                 
 3.20000000e-10  7.34080844e-01  3.20000000e-10  6.67268036e-01  3.20000000e-10  1.51787137e+00  3.20000000e-10  1.15200000e+00  3.20000000e-10  1.80073079e+00  3.20000000e-10  6.66458819e-01  3.20000000e-10  1.51838773e+00  3.20000000e-10  1.52731813e+00                                 
 5.00000000e-10  7.34146442e-01  5.00000000e-10  6.67766213e-01  5.00000000e-10  1.51505562e+00  5.00000000e-10  1.80000000e+00  5.00000000e-10  1.70024842e-01  5.00000000e-10  6.73560099e-01  5.00000000e-10  1.52455121e+00  5.00000000e-10  1.52741323e+00                                 
 5.21400727e-10  7.34150173e-01  5.21400727e-10  6.67794187e-01  5.21400727e-10  1.51437224e+00  5.21400727e-10  1.80000000e+00  5.21400727e-10  4.63779077e-02  5.21400727e-10  6.75233464e-01  5.21400727e-10  1.52548431e+00  5.21400727e-10  1.52740088e+00                                 
 5.64202180e-10  7.34237427e-01  5.64202180e-10  6.67854185e-01  5.64202180e-10  1.51369351e+00  5.64202180e-10  1.80000000e+00  5.64202180e-10 -1.61793791e-02  5.64202180e-10  6.77545491e-01  5.64202180e-10  1.52744974e+00  5.64202180e-10  1.52739569e+00                                 
 6.49805086e-10  7.34355140e-01  6.49805086e-10  6.67687272e-01  6.49805086e-10  1.51065291e+00  6.49805086e-10  1.80000000e+00  6.49805086e-10  1.25389830e-02  6.49805086e-10  6.77385309e-01  6.49805086e-10  1.52753945e+00  6.49805086e-10  1.52734502e+00                                 
 7.69525891e-10  7.34407116e-01  7.69525891e-10  6.67643774e-01  7.69525891e-10  1.50882370e+00  7.69525891e-10  1.80000000e+00  7.69525891e-10 -9.83099038e-03  7.69525891e-10  6.78742840e-01  7.69525891e-10  1.52855633e+00  7.69525891e-10  1.52736500e+00                                 
 9.47907376e-10  7.34471544e-01  9.47907376e-10  6.67610845e-01  9.47907376e-10  1.50756201e+00  9.47907376e-10  1.80000000e+00  9.47907376e-10  8.89490067e-03  9.47907376e-10  6.79534053e-01  9.47907376e-10  1.52940633e+00  9.47907376e-10  1.52733964e+00                                 
 1.30467035e-09  7.34428398e-01  1.30467035e-09  6.67536740e-01  1.30467035e-09  1.50556055e+00  1.30467035e-09  1.80000000e+00  1.30467035e-09 -8.10989331e-03  1.30467035e-09  6.79027776e-01  1.30467035e-09  1.52883277e+00  1.30467035e-09  1.52737659e+00                                 
 1.69653250e-09  7.34367134e-01  1.69653250e-09  6.67555883e-01  1.69653250e-09  1.50425036e+00  1.69653250e-09  1.80000000e+00  1.69653250e-09  7.72807156e-03  1.69653250e-09  6.78569762e-01  1.69653250e-09  1.52855976e+00  1.69653250e-09  1.52743933e+00                                 
 2.34584242e-09  7.34228882e-01  2.34584242e-09  6.67515343e-01  2.34584242e-09  1.50123406e+00  2.34584242e-09  1.80000000e+00  2.34584242e-09 -7.41020343e-03  2.34584242e-09  6.76799260e-01  2.34584242e-09  1.52688449e+00  2.34584242e-09  1.52759407e+00                                 
 3.09471510e-09  7.34162262e-01  3.09471510e-09  6.67545582e-01  3.09471510e-09  1.49829984e+00  3.09471510e-09  1.80000000e+00  3.09471510e-09  7.18766652e-03  3.09471510e-09  6.75649085e-01  3.09471510e-09  1.52599267e+00  3.09471510e-09  1.52777542e+00                                 
 4.22642634e-09  7.34091456e-01  4.22642634e-09  6.67510315e-01  4.22642634e-09  1.49277060e+00  4.22642634e-09  1.80000000e+00  4.22642634e-09 -7.03070542e-03  4.22642634e-09  6.73198773e-01  4.22642634e-09  1.52373135e+00  4.22642634e-09  1.52801870e+00                                 
 5.83544290e-09  7.34083118e-01  5.83544290e-09  6.67547057e-01  5.83544290e-09  1.48554955e+00  5.83544290e-09  1.80000000e+00  5.83544290e-09  6.93841359e-03  5.83544290e-09  6.71320770e-01  5.83544290e-09  1.52220375e+00  5.83544290e-09  1.52825205e+00                                 
 9.05347602e-09  7.34066817e-01  9.05347602e-09  6.67521451e-01  9.05347602e-09  1.46887641e+00  9.05347602e-09  1.80000000e+00  9.05347602e-09 -6.86830063e-03  9.05347602e-09  6.68223512e-01  9.05347602e-09  1.51938861e+00  9.05347602e-09  1.52837830e+00                                 
 1.20098173e-08  7.34101803e-01  1.20098173e-08  6.67559840e-01  1.20098173e-08  1.45247794e+00  1.20098173e-08  1.80000000e+00  1.20098173e-08  6.83851518e-03  1.20098173e-08  6.67643328e-01  1.20098173e-08  1.51899120e+00  1.20098173e-08  1.52824462e+00                                 
 1.44147769e-08  7.34100584e-01  1.44147769e-08  6.67526985e-01  1.44147769e-08  1.43749777e+00  1.44147769e-08  1.80000000e+00  1.44147769e-08 -6.74460382e-03  1.44147769e-08  6.66969925e-01  1.44147769e-08  1.51828571e+00  1.44147769e-08  1.52806689e+00                                 
 1.71465452e-08  7.34128525e-01  1.71465452e-08  6.67561599e-01  1.71465452e-08  1.42042432e+00  1.71465452e-08  1.80000000e+00  1.71465452e-08  6.71481378e-03  1.71465452e-08  6.67343562e-01  1.71465452e-08  1.51871308e+00  1.71465452e-08  1.52785855e+00                                 
 2.05962112e-08  7.34123860e-01  2.05962112e-08  6.67527539e-01  2.05962112e-08  1.39725304e+00  2.05962112e-08  1.80000000e+00  2.05962112e-08 -6.64015481e-03  2.05962112e-08  6.67077273e-01  2.05962112e-08  1.51836048e+00  2.05962112e-08  1.52761375e+00                                 
 2.51440347e-08  7.34146044e-01  2.51440347e-08  6.67561736e-01  2.51440347e-08  1.36660526e+00  2.51440347e-08  1.80000000e+00  2.51440347e-08  6.63536337e-03  2.51440347e-08  6.67761718e-01  2.51440347e-08  1.51905584e+00  2.51440347e-08  1.52736040e+00                                 
 3.08203693e-08  7.34133621e-01  3.08203693e-08  6.67527481e-01  3.08203693e-08  1.32686820e+00  3.08203693e-08  1.80000000e+00  3.08203693e-08 -6.57821344e-03  3.08203693e-08  6.67678787e-01  3.08203693e-08  1.51886648e+00  3.08203693e-08  1.52714087e+00                                 
 3.89541281e-08  7.34147955e-01  3.89541281e-08  6.67561604e-01  3.89541281e-08  1.27024334e+00  3.89541281e-08  1.80000000e+00  3.89541281e-08  6.58902889e-03  3.89541281e-08  6.68422410e-01  3.89541281e-08  1.51961859e+00  3.89541281e-08  1.52698016e+00                                 
 5.10110436e-08  7.34130763e-01  5.10110436e-08  6.67527218e-01  5.10110436e-08  1.18537617e+00  5.10110436e-08  1.80000000e+00  5.10110436e-08 -6.54637746e-03  5.10110436e-08  6.68288519e-01  5.10110436e-08  1.51939354e+00  5.10110436e-08  1.52691445e+00                                 
 7.20448706e-08  7.34143596e-01  7.20448706e-08  6.67561339e-01  7.20448706e-08  1.03906768e+00  7.20448706e-08  1.80000000e+00  7.20448706e-08  6.56903510e-03  7.20448706e-08  6.68869341e-01  7.20448706e-08  1.52001225e+00  7.20448706e-08  1.52697783e+00                                 
 1.04523504e-07  7.34127284e-01  1.04523504e-07  6.67527019e-01  1.04523504e-07  8.21034677e-01  1.04523504e-07  1.80000000e+00  1.04523504e-07 -6.53382869e-03  1.04523504e-07  6.68499141e-01  1.04523504e-07  1.51958453e+00  1.04523504e-07  1.52708994e+00                                 
 1.35288641e-07  7.34146348e-01  1.35288641e-07  6.67561430e-01  1.35288641e-07  6.90958199e-01  1.35288641e-07  1.80000000e+00  1.35288641e-07  6.56324326e-03  1.35288641e-07  6.68909354e-01  1.35288641e-07  1.52004988e+00  1.35288641e-07  1.52713490e+00                                 
 1.55560548e-07  7.34125519e-01  1.55560548e-07  6.67527194e-01  1.55560548e-07  6.71032446e-01  1.55560548e-07  1.80000000e+00  1.55560548e-07 -6.51861077e-03  1.55560548e-07  6.68509185e-01  1.55560548e-07  1.51959261e+00  1.55560548e-07  1.52714238e+00                                 
 1.76047372e-07  7.34143236e-01  1.76047372e-07  6.67560995e-01  1.76047372e-07  6.70361249e-01  1.76047372e-07  1.80000000e+00  1.76047372e-07  6.54894864e-03  1.76047372e-07  6.68908483e-01  1.76047372e-07  1.52004793e+00  1.76047372e-07  1.52715004e+00                                 
 1.98004576e-07  7.34127631e-01  1.98004576e-07  6.67527402e-01  1.98004576e-07  6.69664289e-01  1.98004576e-07  1.80000000e+00  1.98004576e-07 -6.50454852e-03  1.98004576e-07  6.68503754e-01  1.98004576e-07  1.51958663e+00  1.98004576e-07  1.52714714e+00                                 
 2.18985451e-07  7.34143431e-01  2.18985451e-07  6.67560975e-01  2.18985451e-07  6.70141040e-01  2.18985451e-07  1.80000000e+00  2.18985451e-07  6.53502782e-03  2.18985451e-07  6.68907682e-01  2.18985451e-07  1.52004562e+00  2.18985451e-07  1.52714972e+00                                 
 2.60947200e-07  7.34127864e-01  2.60947200e-07  6.67527415e-01  2.60947200e-07  6.69662747e-01  2.60947200e-07  1.80000000e+00  2.60947200e-07 -6.49381652e-03  2.60947200e-07  6.68503426e-01  2.60947200e-07  1.51958425e+00  2.60947200e-07  1.52714508e+00                                 
 3.44870698e-07  7.34143377e-01  3.44870698e-07  6.67560978e-01  3.44870698e-07  6.70125499e-01  3.44870698e-07  1.80000000e+00  3.44870698e-07  6.52966649e-03  3.44870698e-07  6.68907663e-01  3.44870698e-07  1.52004122e+00  3.44870698e-07  1.52714535e+00                                 
 5.12717694e-07  7.34127894e-01  5.12717694e-07  6.67527414e-01  5.12717694e-07  6.69668097e-01  5.12717694e-07  1.80000000e+00  5.12717694e-07 -6.49117783e-03  5.12717694e-07  6.68503426e-01  5.12717694e-07  1.51957559e+00  5.12717694e-07  1.52713639e+00                                 
 8.48411687e-07  7.34143362e-01  8.48411687e-07  6.67560979e-01  8.48411687e-07  6.70123029e-01  8.48411687e-07  1.80000000e+00  8.48411687e-07  6.52833324e-03  8.48411687e-07  6.68907663e-01  8.48411687e-07  1.52002384e+00  8.48411687e-07  1.52712801e+00                                 
 1.51979967e-06  7.34127902e-01  1.51979967e-06  6.67527413e-01  1.51979967e-06  6.69669287e-01  1.51979967e-06  1.80000000e+00  1.51979967e-06 -6.49051829e-03  1.51979967e-06  6.68503425e-01  1.51979967e-06  1.51954087e+00  1.51979967e-06  1.52710171e+00                                 
 2.51979967e-06  7.34143358e-01  2.51979967e-06  6.67560979e-01  2.51979967e-06  6.70122373e-01  2.51979967e-06  1.80000000e+00  2.51979967e-06  6.52797945e-03  2.51979967e-06  6.68907663e-01  2.51979967e-06  1.51996622e+00  2.51979967e-06  1.52707048e+00                                 
 3.51979967e-06  7.34127905e-01  3.51979967e-06  6.67527413e-01  3.51979967e-06  6.69669807e-01  3.51979967e-06  1.80000000e+00  3.51979967e-06 -6.49039208e-03  3.51979967e-06  6.68503426e-01  3.51979967e-06  1.51947191e+00  3.51979967e-06  1.52703284e+00                                 
 4.51979967e-06  7.34143355e-01  4.51979967e-06  6.67560979e-01  4.51979967e-06  6.70121854e-01  4.51979967e-06  1.80000000e+00  4.51979967e-06  6.52768908e-03  4.51979967e-06  6.68907663e-01  4.51979967e-06  1.51989726e+00  4.51979967e-06  1.52700161e+00                                 
 5.51979967e-06  7.34127908e-01  5.51979967e-06  6.67527413e-01  5.51979967e-06  6.69670318e-01  5.51979967e-06  1.80000000e+00  5.51979967e-06 -6.49009682e-03  5.51979967e-06  6.68503426e-01  5.51979967e-06  1.51940297e+00  5.51979967e-06  1.52696400e+00                                 
 6.51979967e-06  7.34143351e-01  6.51979967e-06  6.67560980e-01  6.51979967e-06  6.70121342e-01  6.51979967e-06  1.80000000e+00  6.51979967e-06  6.52739075e-03  6.51979967e-06  6.68907663e-01  6.51979967e-06  1.51982831e+00  6.51979967e-06  1.52693276e+00                                 
 7.51979967e-06  7.34127912e-01  7.51979967e-06  6.67527413e-01  7.51979967e-06  6.69670823e-01  7.51979967e-06  1.80000000e+00  7.51979967e-06 -6.48980157e-03  7.51979967e-06  6.68503426e-01  7.51979967e-06  1.51933403e+00  7.51979967e-06  1.52689516e+00                                 
 8.51979967e-06  7.34143348e-01  8.51979967e-06  6.67560980e-01  8.51979967e-06  6.70120837e-01  8.51979967e-06  1.80000000e+00  8.51979967e-06  6.52709243e-03  8.51979967e-06  6.68907663e-01  8.51979967e-06  1.51975939e+00  8.51979967e-06  1.52686394e+00                                 
 9.51979967e-06  7.34127915e-01  9.51979967e-06  6.67527412e-01  9.51979967e-06  6.69671320e-01  9.51979967e-06  1.80000000e+00  9.51979967e-06 -6.48950633e-03  9.51979967e-06  6.68503426e-01  9.51979967e-06  1.51926514e+00  9.51979967e-06  1.52682636e+00                                 
 1.00005000e-05  7.34143343e-01  1.00005000e-05  6.67560980e-01  1.00005000e-05  6.70120072e-01  1.00005000e-05  1.80000000e+00  1.00005000e-05  6.52663564e-03  1.00005000e-05  6.68907663e-01  1.00005000e-05  1.51970838e+00  1.00005000e-05  1.52681300e+00                                 
 1.00005500e-05  7.34100230e-01  1.00005500e-05  6.67354711e-01  1.00005500e-05  6.68230943e-01  1.00005500e-05  1.62000000e+00  1.00005500e-05  5.78975814e-04  1.00005500e-05  6.67210813e-01  1.00005500e-05  1.51817330e+00  1.00005500e-05  1.52679277e+00                                 
 1.00006500e-05  7.34123503e-01  1.00006500e-05  6.67326121e-01  1.00006500e-05  6.68154840e-01  1.00006500e-05  1.26000000e+00  1.00006500e-05 -5.13140344e-04  1.00006500e-05  6.66799431e-01  1.00006500e-05  1.51780474e+00  1.00006500e-05  1.52681331e+00                                 
 1.00008500e-05  7.34174342e-01  1.00008500e-05  6.67511068e-01  1.00008500e-05  6.70357048e-01  1.00008500e-05  5.40000000e-01  1.00008500e-05 -1.02422869e-04  1.00008500e-05  6.67573339e-01  1.00008500e-05  1.51680548e+00  1.00008500e-05  1.52680180e+00                                 
 1.00010000e-05  7.34120652e-01  1.00010000e-05  6.66729322e-01  1.00010000e-05  6.90964921e-01  1.00010000e-05  0.00000000e+00  1.00010000e-05  1.52036577e+00  1.00010000e-05  6.58670890e-01  1.00010000e-05  1.46094372e+00  1.00010000e-05  1.52632893e+00                                 
 1.00010252e-05  7.34138794e-01  1.00010252e-05  6.66379121e-01  1.00010252e-05  6.96831801e-01  1.00010252e-05  0.00000000e+00  1.00010252e-05  1.69305484e+00  1.00010252e-05  6.54396956e-01  1.00010252e-05  1.43378527e+00  1.00010252e-05  1.52613539e+00                                 
 1.00010756e-05  7.34140090e-01  1.00010756e-05  6.65702152e-01  1.00010756e-05  7.02665078e-01  1.00010756e-05  0.00000000e+00  1.00010756e-05  1.82058763e+00  1.00010756e-05  6.46245691e-01  1.00010756e-05  1.37295617e+00  1.00010756e-05  1.52597792e+00                                 
 1.00011764e-05  7.34133154e-01  1.00011764e-05  6.65554031e-01  1.00011764e-05  6.97417476e-01  1.00011764e-05  0.00000000e+00  1.00011764e-05  1.78710217e+00  1.00011764e-05  6.44878694e-01  1.00011764e-05  1.26618690e+00  1.00011764e-05  1.52652483e+00                                 
 1.00013032e-05  7.34139121e-01  1.00013032e-05  6.65851068e-01  1.00013032e-05  6.94087988e-01  1.00013032e-05  0.00000000e+00  1.00013032e-05  1.80681496e+00  1.00013032e-05  6.49075947e-01  1.00013032e-05  1.16238558e+00  1.00013032e-05  1.52689675e+00                                 
 1.00015233e-05  7.34132514e-01  1.00015233e-05  6.66004344e-01  1.00015233e-05  6.90313414e-01  1.00015233e-05  0.00000000e+00  1.00015233e-05  1.79399717e+00  1.00015233e-05  6.50007078e-01  1.00015233e-05  1.01232237e+00  1.00015233e-05  1.52710628e+00                                 
 1.00018152e-05  7.34138112e-01  1.00018152e-05  6.66554682e-01  1.00018152e-05  6.85381293e-01  1.00018152e-05  0.00000000e+00  1.00018152e-05  1.80431274e+00  1.00018152e-05  6.55140939e-01  1.00018152e-05  8.69397926e-01  1.00018152e-05  1.52701950e+00                                 
 1.00022417e-05  7.34132841e-01  1.00022417e-05  6.67184314e-01  1.00022417e-05  6.78750923e-01  1.00022417e-05  0.00000000e+00  1.00022417e-05  1.79580913e+00  1.00022417e-05  6.60512964e-01  1.00022417e-05  7.39093858e-01  1.00022417e-05  1.52638476e+00                                 
 1.00026979e-05  7.34137963e-01  1.00026979e-05  6.67857123e-01  1.00026979e-05  6.72662466e-01  1.00026979e-05  0.00000000e+00  1.00026979e-05  1.80348428e+00  1.00026979e-05  6.67407689e-01  1.00026979e-05  6.88165623e-01  1.00026979e-05  1.52499348e+00                                 
 1.00030840e-05  7.34133254e-01  1.00030840e-05  6.67940883e-01  1.00030840e-05  6.72754788e-01  1.00030840e-05  0.00000000e+00  1.00030840e-05  1.79700062e+00  1.00030840e-05  6.68097438e-01  1.00030840e-05  6.75474197e-01  1.00030840e-05  1.52329643e+00                                 
 1.00035909e-05  7.34137762e-01  1.00035909e-05  6.68064608e-01  1.00035909e-05  6.72414435e-01  1.00035909e-05  0.00000000e+00  1.00035909e-05  1.80265273e+00  1.00035909e-05  6.70134902e-01  1.00035909e-05  6.73557301e-01  1.00035909e-05  1.52069109e+00                                 
 1.00041219e-05  7.34133558e-01  1.00041219e-05  6.67947118e-01  1.00041219e-05  6.74633290e-01  1.00041219e-05  0.00000000e+00  1.00041219e-05  1.79764700e+00  1.00041219e-05  6.69455877e-01  1.00041219e-05  6.73217569e-01  1.00041219e-05  1.51771481e+00                                 
 1.00051352e-05  7.34137627e-01  1.00051352e-05  6.67917290e-01  1.00051352e-05  6.76748343e-01  1.00051352e-05  0.00000000e+00  1.00051352e-05  1.80221582e+00  1.00051352e-05  6.70484705e-01  1.00051352e-05  6.76794806e-01  1.00051352e-05  1.51172429e+00                                 
 1.00067030e-05  7.34133673e-01  1.00067030e-05  6.67718928e-01  1.00067030e-05  6.82254510e-01  1.00067030e-05  0.00000000e+00  1.00067030e-05  1.79787671e+00  1.00067030e-05  6.69625723e-01  1.00067030e-05  6.80619023e-01  1.00067030e-05  1.50199627e+00                                 
 1.00098387e-05  7.34137570e-01  1.00098387e-05  6.67630133e-01  1.00098387e-05  6.90826838e-01  1.00098387e-05  0.00000000e+00  1.00098387e-05  1.80208570e+00  1.00098387e-05  6.70255694e-01  1.00098387e-05  6.90779941e-01  1.00098387e-05  1.48181237e+00                                 
