 time            v(vbep)         time            v(vben)         time            v(vout)         time            v(vphi1)        time            v(vphi2)        time            v(vref)         time            v(voutc)        time            v(voutcc)       yes             currtemp       
 0.00000000e+00  8.51316859e-01  0.00000000e+00  8.04039983e-01  0.00000000e+00  1.75912269e+00  0.00000000e+00  0.00000000e+00  0.00000000e+00  1.80000000e+00  0.00000000e+00  8.08106208e-01  0.00000000e+00  1.75912269e+00  0.00000000e+00  1.76364889e+00  1.00000000e+00 -2.60000000e+01 
 1.00000000e-11  8.51337540e-01  1.00000000e-11  8.04103306e-01  1.00000000e-11  1.75994831e+00  1.00000000e-11  1.80000000e-02  1.00000000e-11  1.80023996e+00  1.00000000e-11  8.08616655e-01  1.00000000e-11  1.75957514e+00  1.00000000e-11  1.76363611e+00                                 
 2.00000000e-11  8.51343448e-01  2.00000000e-11  8.04143476e-01  2.00000000e-11  1.76052660e+00  2.00000000e-11  3.60000000e-02  2.00000000e-11  1.80034292e+00  2.00000000e-11  8.09005719e-01  2.00000000e-11  1.75993462e+00  2.00000000e-11  1.76362460e+00                                 
 4.00000000e-11  8.51343590e-01  4.00000000e-11  8.04196330e-01  4.00000000e-11  1.76132905e+00  4.00000000e-11  7.20000000e-02  4.00000000e-11  1.80039581e+00  4.00000000e-11  8.09586963e-01  4.00000000e-11  1.76049921e+00  4.00000000e-11  1.76360411e+00                                 
 8.00000000e-11  8.51333147e-01  8.00000000e-11  8.04227950e-01  8.00000000e-11  1.76180851e+00  8.00000000e-11  1.44000000e-01  8.00000000e-11  1.80021355e+00  8.00000000e-11  8.10072595e-01  8.00000000e-11  1.76107419e+00  8.00000000e-11  1.76357931e+00                                 
 1.60000000e-10  8.51329802e-01  1.60000000e-10  8.04226939e-01  1.60000000e-10  1.76168842e+00  1.60000000e-10  2.88000000e-01  1.60000000e-10  1.80002337e+00  1.60000000e-10  8.10164066e-01  1.60000000e-10  1.76137802e+00  1.60000000e-10  1.76356285e+00                                 
 3.20000000e-10  8.51327744e-01  3.20000000e-10  8.04223756e-01  3.20000000e-10  1.76142018e+00  3.20000000e-10  5.76000000e-01  3.20000000e-10  1.80002903e+00  3.20000000e-10  8.10139858e-01  3.20000000e-10  1.76147242e+00  3.20000000e-10  1.76356046e+00                                 
 6.40000000e-10  8.51260585e-01  6.40000000e-10  8.04046568e-01  6.40000000e-10  1.75278690e+00  6.40000000e-10  1.15200000e+00  6.40000000e-10  1.81354288e+00  6.40000000e-10  8.10022380e-01  6.40000000e-10  1.76529804e+00  6.40000000e-10  1.76358488e+00                                 
 9.91227329e-10  8.51607785e-01  9.91227329e-10  8.04020033e-01  9.91227329e-10  1.71946790e+00  9.91227329e-10  1.78420919e+00  9.91227329e-10  7.24587544e-02  9.91227329e-10  8.08562180e-01  9.91227329e-10  1.75120014e+00  9.91227329e-10  1.76344182e+00                                 
 1.00000000e-09  8.51633939e-01  1.00000000e-09  8.04085822e-01  1.00000000e-09  1.71908540e+00  1.00000000e-09  1.80000000e+00  1.00000000e-09  2.38506387e-02  1.00000000e-09  8.09435057e-01  1.00000000e-09  1.75129016e+00  1.00000000e-09  1.76347232e+00                                 
 1.01754534e-09  8.51632102e-01  1.01754534e-09  8.04117633e-01  1.01754534e-09  1.71905798e+00  1.01754534e-09  1.80000000e+00  1.01754534e-09  8.47938857e-03  1.01754534e-09  8.10873364e-01  1.01754534e-09  1.75237516e+00  1.01754534e-09  1.76352414e+00                                 
 1.05263603e-09  8.51693734e-01  1.05263603e-09  8.04164522e-01  1.05263603e-09  1.71852253e+00  1.05263603e-09  1.80000000e+00  1.05263603e-09 -1.33457783e-03  1.05263603e-09  8.12656353e-01  1.05263603e-09  1.75385802e+00  1.05263603e-09  1.76357043e+00                                 
 1.12281740e-09  8.51890085e-01  1.12281740e-09  8.04124523e-01  1.12281740e-09  1.71458578e+00  1.12281740e-09  1.80000000e+00  1.12281740e-09  2.08126216e-03  1.12281740e-09  8.12993937e-01  1.12281740e-09  1.75422863e+00  1.12281740e-09  1.76354256e+00                                 
 1.26318014e-09  8.52083890e-01  1.26318014e-09  8.04046946e-01  1.26318014e-09  1.70629230e+00  1.26318014e-09  1.80000000e+00  1.26318014e-09 -9.96173264e-04  1.26318014e-09  8.13331613e-01  1.26318014e-09  1.75445167e+00  1.26318014e-09  1.76355229e+00                                 
 1.48289881e-09  8.52122323e-01  1.48289881e-09  8.04044460e-01  1.48289881e-09  1.70154196e+00  1.48289881e-09  1.80000000e+00  1.48289881e-09  1.10878783e-03  1.48289881e-09  8.13959772e-01  1.48289881e-09  1.75501178e+00  1.48289881e-09  1.76356102e+00                                 
 1.73145607e-09  8.51976492e-01  1.73145607e-09  8.04021657e-01  1.73145607e-09  1.70267385e+00  1.73145607e-09  1.80000000e+00  1.73145607e-09 -9.93140694e-04  1.73145607e-09  8.13686324e-01  1.73145607e-09  1.75474400e+00  1.73145607e-09  1.76355870e+00                                 
 1.97525214e-09  8.51818815e-01  1.97525214e-09  8.04032842e-01  1.97525214e-09  1.70523703e+00  1.97525214e-09  1.80000000e+00  1.97525214e-09  8.33501387e-04  1.97525214e-09  8.13626318e-01  1.97525214e-09  1.75472246e+00  1.97525214e-09  1.76356664e+00                                 
 2.32468911e-09  8.51615853e-01  2.32468911e-09  8.04021639e-01  2.32468911e-09  1.70871865e+00  2.32468911e-09  1.80000000e+00  2.32468911e-09 -8.24476344e-04  2.32468911e-09  8.13166370e-01  2.32468911e-09  1.75430710e+00  2.32468911e-09  1.76356096e+00                                 
 2.96880659e-09  8.51368580e-01  2.96880659e-09  8.04029605e-01  2.96880659e-09  1.71466897e+00  2.96880659e-09  1.80000000e+00  2.96880659e-09  7.33923071e-04  2.96880659e-09  8.12677995e-01  2.96880659e-09  1.75392027e+00  2.96880659e-09  1.76356306e+00                                 
 4.25704156e-09  8.51177394e-01  4.25704156e-09  8.04020940e-01  4.25704156e-09  1.72373602e+00  4.25704156e-09  1.80000000e+00  4.25704156e-09 -7.69254565e-04  4.25704156e-09  8.11479119e-01  4.25704156e-09  1.75288584e+00  4.25704156e-09  1.76353643e+00                                 
 6.83351149e-09  8.51204172e-01  6.83351149e-09  8.04033639e-01  6.83351149e-09  1.73454755e+00  6.83351149e-09  1.80000000e+00  6.83351149e-09  7.17307756e-04  6.83351149e-09  8.09950683e-01  6.83351149e-09  1.75162306e+00  6.83351149e-09  1.76346355e+00                                 
 9.93415930e-09  8.51274425e-01  9.93415930e-09  8.04031308e-01  9.93415930e-09  1.73913980e+00  9.93415930e-09  1.80000000e+00  9.93415930e-09 -7.44715089e-04  9.93415930e-09  8.08699656e-01  9.93415930e-09  1.75054562e+00  9.93415930e-09  1.76331468e+00                                 
 1.27760501e-08  8.51287981e-01  1.27760501e-08  8.04041872e-01  1.27760501e-08  1.73991238e+00  1.27760501e-08  1.80000000e+00  1.27760501e-08  7.10534610e-04  1.27760501e-08  8.08268275e-01  1.27760501e-08  1.75020391e+00  1.27760501e-08  1.76315875e+00                                 
 1.60602920e-08  8.51299109e-01  1.60602920e-08  8.04035302e-01  1.60602920e-08  1.73907598e+00  1.60602920e-08  1.80000000e+00  1.60602920e-08 -7.26738108e-04  1.60602920e-08  8.07854723e-01  1.60602920e-08  1.74982762e+00  1.60602920e-08  1.76294798e+00                                 
 1.99620483e-08  8.51300260e-01  1.99620483e-08  8.04043713e-01  1.99620483e-08  1.73820465e+00  1.99620483e-08  1.80000000e+00  1.99620483e-08  7.05262974e-04  1.99620483e-08  8.07810933e-01  1.99620483e-08  1.74980555e+00  1.99620483e-08  1.76270060e+00                                 
 2.52624280e-08  8.51299638e-01  2.52624280e-08  8.04036195e-01  2.52624280e-08  1.73724938e+00  2.52624280e-08  1.80000000e+00  2.52624280e-08 -7.10326273e-04  2.52624280e-08  8.07660183e-01  2.52624280e-08  1.74964168e+00  2.52624280e-08  1.76235190e+00                                 
 3.20984478e-08  8.51311685e-01  3.20984478e-08  8.04043889e-01  3.20984478e-08  1.73440854e+00  3.20984478e-08  1.80000000e+00  3.20984478e-08  7.03986039e-04  3.20984478e-08  8.07783091e-01  3.20984478e-08  1.74974893e+00  3.20984478e-08  1.76192904e+00                                 
 4.21605081e-08  8.51317637e-01  4.21605081e-08  8.04036263e-01  4.21605081e-08  1.72667332e+00  4.21605081e-08  1.80000000e+00  4.21605081e-08 -7.03597762e-04  4.21605081e-08  8.07736567e-01  4.21605081e-08  1.74966077e+00  4.21605081e-08  1.76132877e+00                                 
 5.78832941e-08  8.51318748e-01  5.78832941e-08  8.04043854e-01  5.78832941e-08  1.71255142e+00  5.78832941e-08  1.80000000e+00  5.78832941e-08  7.01230897e-04  5.78832941e-08  8.07913111e-01  5.78832941e-08  1.74979822e+00  5.78832941e-08  1.76048848e+00                                 
 7.97513707e-08  8.51317652e-01  7.97513707e-08  8.04036232e-01  7.97513707e-08  1.69080489e+00  7.97513707e-08  1.80000000e+00  7.97513707e-08 -7.01635695e-04  7.97513707e-08  8.07887903e-01  7.97513707e-08  1.74971825e+00  7.97513707e-08  1.75946160e+00                                 
 1.23487524e-07  8.51317396e-01  1.23487524e-07  8.04043788e-01  1.23487524e-07  1.64291735e+00  1.23487524e-07  1.80000000e+00  1.23487524e-07  6.99730596e-04  1.23487524e-07  8.08079282e-01  1.23487524e-07  1.74985404e+00  1.23487524e-07  1.75787622e+00                                 
 2.10959830e-07  8.51316834e-01  2.10959830e-07  8.04036197e-01  2.10959830e-07  1.53975169e+00  2.10959830e-07  1.80000000e+00  2.10959830e-07 -7.01104336e-04  2.10959830e-07  8.08043951e-01  2.10959830e-07  1.74975198e+00  2.10959830e-07  1.75595222e+00                                 
 3.85904443e-07  8.51316944e-01  3.85904443e-07  8.04043769e-01  3.85904443e-07  1.33416389e+00  3.85904443e-07  1.80000000e+00  3.85904443e-07  6.99431379e-04  3.85904443e-07  8.08158857e-01  3.85904443e-07  1.74983521e+00  3.85904443e-07  1.75457537e+00                                 
 7.35793668e-07  8.51316771e-01  7.35793668e-07  8.04036195e-01  7.35793668e-07  9.46698403e-01  7.35793668e-07  1.80000000e+00  7.35793668e-07 -7.00683707e-04  7.35793668e-07  8.08054533e-01  7.35793668e-07  1.74970289e+00  7.35793668e-07  1.75429086e+00                                 
 7.76526434e-07  8.51316836e-01  7.76526434e-07  8.04039979e-01  7.76526434e-07  9.07527413e-01  7.76526434e-07  1.80000000e+00  7.76526434e-07 -6.93698990e-07  7.76526434e-07  8.08105002e-01  7.76526434e-07  1.74975519e+00  7.76526434e-07  1.75430319e+00                                 
 8.57991964e-07  8.51316981e-01  8.57991964e-07  8.04039990e-01  8.57991964e-07  8.47057441e-01  8.57991964e-07  1.80000000e+00  8.57991964e-07 -8.83510300e-08  8.57991964e-07  8.08106207e-01  8.57991964e-07  1.74975289e+00  8.57991964e-07  1.75431664e+00                                 
 1.00114567e-06  8.51316736e-01  1.00114567e-06  8.04039977e-01  1.00114567e-06  8.11200992e-01  1.00114567e-06  1.80000000e+00  1.00114567e-06 -1.31324065e-07  1.00114567e-06  8.08106948e-01  1.00114567e-06  1.74974737e+00  1.00114567e-06  1.75432282e+00                                 
 1.05211928e-06  8.51316879e-01  1.05211928e-06  8.04039977e-01  1.05211928e-06  8.11854218e-01  1.05211928e-06  1.80000000e+00  1.05211928e-06  1.55984536e-07  1.05211928e-06  8.08106107e-01  1.05211928e-06  1.74974443e+00  1.05211928e-06  1.75432193e+00                                 
 1.10913123e-06  8.51316821e-01  1.10913123e-06  8.04039991e-01  1.10913123e-06  8.12100226e-01  1.10913123e-06  1.80000000e+00  1.10913123e-06 -1.35354108e-07  1.10913123e-06  8.08106460e-01  1.10913123e-06  1.74974221e+00  1.10913123e-06  1.75432026e+00                                 
 1.17848333e-06  8.51316881e-01  1.17848333e-06  8.04039971e-01  1.17848333e-06  8.12209754e-01  1.17848333e-06  1.80000000e+00  1.17848333e-06  1.52235639e-07  1.17848333e-06  8.08106027e-01  1.17848333e-06  1.74973878e+00  1.17848333e-06  1.75431778e+00                                 
 1.31718754e-06  8.51316837e-01  1.31718754e-06  8.04039995e-01  1.31718754e-06  8.12241603e-01  1.31718754e-06  1.80000000e+00  1.31718754e-06 -1.35599804e-07  1.31718754e-06  8.08106387e-01  1.31718754e-06  1.74973294e+00  1.31718754e-06  1.75431213e+00                                 
 1.59459594e-06  8.51316881e-01  1.59459594e-06  8.04039971e-01  1.59459594e-06  8.12242646e-01  1.59459594e-06  1.80000000e+00  1.59459594e-06  1.51730606e-07  1.59459594e-06  8.08106032e-01  1.59459594e-06  1.74972035e+00  1.59459594e-06  1.75430006e+00                                 
 2.14941275e-06  8.51316837e-01  2.14941275e-06  8.04039995e-01  2.14941275e-06  8.12239925e-01  2.14941275e-06  1.80000000e+00  2.14941275e-06 -1.35452292e-07  2.14941275e-06  8.08106381e-01  2.14941275e-06  1.74969601e+00  2.14941275e-06  1.75427553e+00                                 
 3.25904636e-06  8.51316879e-01  3.25904636e-06  8.04039970e-01  3.25904636e-06  8.12242985e-01  3.25904636e-06  1.80000000e+00  3.25904636e-06  1.51662426e-07  3.25904636e-06  8.08106033e-01  3.25904636e-06  1.74964646e+00  3.25904636e-06  1.75422650e+00                                 
 4.45904636e-06  8.51316838e-01  4.45904636e-06  8.04039996e-01  4.45904636e-06  8.12239653e-01  4.45904636e-06  1.80000000e+00  4.45904636e-06 -1.35409788e-07  4.45904636e-06  8.08106382e-01  4.45904636e-06  1.74959353e+00  4.45904636e-06  1.75417351e+00                                 
 5.65904636e-06  8.51316878e-01  5.65904636e-06  8.04039969e-01  5.65904636e-06  8.12243081e-01  5.65904636e-06  1.80000000e+00  5.65904636e-06  1.51622941e-07  5.65904636e-06  8.08106034e-01  5.65904636e-06  1.74954004e+00  5.65904636e-06  1.75412057e+00                                 
 6.00100000e-06  8.51316839e-01  6.00100000e-06  8.04039996e-01  6.00100000e-06  8.12239458e-01  6.00100000e-06  1.80000000e+00  6.00100000e-06 -1.35324427e-07  6.00100000e-06  8.08106378e-01  6.00100000e-06  1.74952515e+00  6.00100000e-06  1.75410546e+00                                 
 6.00110000e-06  8.51287714e-01  6.00110000e-06  8.03827790e-01  6.00110000e-06  8.10122785e-01  6.00110000e-06  1.62000000e+00  6.00110000e-06 -9.30125594e-05  6.00110000e-06  8.06182035e-01  6.00110000e-06  1.74790400e+00  6.00110000e-06  1.75408878e+00                                 
 6.00130000e-06  8.51315456e-01  6.00130000e-06  8.03897357e-01  6.00130000e-06  8.10944338e-01  6.00130000e-06  1.26000000e+00  6.00130000e-06  5.11631377e-05  6.00130000e-06  8.06589639e-01  6.00130000e-06  1.74825043e+00  6.00130000e-06  1.75411478e+00                                 
 6.00170000e-06  8.51339944e-01  6.00170000e-06  8.03952561e-01  6.00170000e-06  8.12067070e-01  6.00170000e-06  5.40000000e-01  6.00170000e-06 -2.32540427e-04  6.00170000e-06  8.06010757e-01  6.00170000e-06  1.74325099e+00  6.00170000e-06  1.75406741e+00                                 
 6.00200000e-06  8.51314503e-01  6.00200000e-06  8.01556849e-01  6.00200000e-06  8.63417900e-01  6.00200000e-06  0.00000000e+00  6.00200000e-06  1.57768819e+00  6.00200000e-06  7.73651453e-01  6.00200000e-06  1.53407868e+00  6.00200000e-06  1.75308585e+00                                 
 6.00205159e-06  8.51320496e-01  6.00205159e-06  8.01527696e-01  6.00205159e-06  8.61895736e-01  6.00205159e-06  0.00000000e+00  6.00205159e-06  1.72906992e+00  6.00205159e-06  7.72782292e-01  6.00205159e-06  1.47428724e+00  6.00205159e-06  1.75340423e+00                                 
 6.00215477e-06  8.51315335e-01  6.00215477e-06  8.01821604e-01  6.00215477e-06  8.50977145e-01  6.00215477e-06  0.00000000e+00  6.00215477e-06  1.82115975e+00  6.00215477e-06  7.76143753e-01  6.00215477e-06  1.36436252e+00  6.00215477e-06  1.75397540e+00                                 
 6.00231190e-06  8.51315504e-01  6.00231190e-06  8.02633660e-01  6.00231190e-06  8.36276142e-01  6.00231190e-06  0.00000000e+00  6.00231190e-06  1.78673759e+00  6.00231190e-06  7.86359813e-01  6.00231190e-06  1.24593476e+00  6.00231190e-06  1.75410348e+00                                 
 6.00248472e-06  8.51316642e-01  6.00248472e-06  8.02959962e-01  6.00248472e-06  8.33035392e-01  6.00248472e-06  0.00000000e+00  6.00248472e-06  1.80645384e+00  6.00248472e-06  7.90145197e-01  6.00248472e-06  1.15980490e+00  6.00248472e-06  1.75416277e+00                                 
 6.00275256e-06  8.51314882e-01  6.00275256e-06  8.03323876e-01  6.00275256e-06  8.26118777e-01  6.00275256e-06  0.00000000e+00  6.00275256e-06  1.79489353e+00  6.00275256e-06  7.94207176e-01  6.00275256e-06  1.06494295e+00  6.00275256e-06  1.75422792e+00                                 
 6.00301652e-06  8.51317108e-01  6.00301652e-06  8.03606003e-01  6.00301652e-06  8.24483111e-01  6.00301652e-06  0.00000000e+00  6.00301652e-06  1.80319161e+00  6.00301652e-06  7.97291476e-01  6.00301652e-06  9.97561147e-01  6.00301652e-06  1.75431381e+00                                 
 6.00354443e-06  8.51315182e-01  6.00354443e-06  8.03891938e-01  6.00354443e-06  8.20304518e-01  6.00354443e-06  0.00000000e+00  6.00354443e-06  1.79693017e+00  6.00354443e-06  8.00128643e-01  6.00354443e-06  8.91150111e-01  6.00354443e-06  1.75438406e+00                                 
 6.00408229e-06  8.51317632e-01  6.00408229e-06  8.04291906e-01  6.00408229e-06  8.15922262e-01  6.00408229e-06  0.00000000e+00  6.00408229e-06  1.80226463e+00  6.00408229e-06  8.05069557e-01  6.00408229e-06  8.34869180e-01  6.00408229e-06  1.75438328e+00                                 
 6.00478858e-06  8.51315558e-01  6.00478858e-06  8.04448722e-01  6.00478858e-06  8.12623876e-01  6.00478858e-06  0.00000000e+00  6.00478858e-06  1.79795575e+00  6.00478858e-06  8.07478706e-01  6.00478858e-06  8.13410758e-01  6.00478858e-06  1.75419145e+00                                 
 6.00544277e-06  8.51317891e-01  6.00544277e-06  8.04475038e-01  6.00544277e-06  8.12588484e-01  6.00544277e-06  0.00000000e+00  6.00544277e-06  1.80177420e+00  6.00544277e-06  8.08639823e-01  6.00544277e-06  8.13048047e-01  6.00544277e-06  1.75390154e+00                                 
 6.00621194e-06  8.51315730e-01  6.00621194e-06  8.04354543e-01  6.00621194e-06  8.12712735e-01  6.00621194e-06  0.00000000e+00  6.00621194e-06  1.79843424e+00  6.00621194e-06  8.08210727e-01  6.00621194e-06  8.12421682e-01  6.00621194e-06  1.75343735e+00                                 
 6.00724791e-06  8.51317951e-01  6.00724791e-06  8.04297613e-01  6.00724791e-06  8.13306173e-01  6.00724791e-06  0.00000000e+00  6.00724791e-06  1.80142773e+00  6.00724791e-06  8.08806741e-01  6.00724791e-06  8.13382075e-01  6.00724791e-06  1.75276469e+00                                 
 6.00931985e-06  8.51315777e-01  6.00931985e-06  8.04140134e-01  6.00931985e-06  8.14345202e-01  6.00931985e-06  0.00000000e+00  6.00931985e-06  1.79863919e+00  6.00931985e-06  8.08401414e-01  6.00931985e-06  8.14004560e-01  6.00931985e-06  1.75128846e+00                                 
 6.01346372e-06  8.51317941e-01  6.01346372e-06  8.04093125e-01  6.01346372e-06  8.17019390e-01  6.01346372e-06  0.00000000e+00  6.01346372e-06  1.80133160e+00  6.01346372e-06  8.08911855e-01  6.01346372e-06  8.17024574e-01  6.01346372e-06  1.74828236e+00                                 
 6.02175147e-06  8.51315776e-01  6.02175147e-06  8.04027870e-01  6.02175147e-06  8.22540433e-01  6.02175147e-06  0.00000000e+00  6.02175147e-06  1.79868636e+00  6.02175147e-06  8.08396682e-01  6.02175147e-06  8.22133576e-01  6.02175147e-06  1.74222163e+00                                 
 6.03832697e-06  8.51317939e-01  6.03832697e-06  8.04051800e-01  6.03832697e-06  8.33979292e-01  6.03832697e-06  0.00000000e+00  6.03832697e-06  1.80130856e+00  6.03832697e-06  8.08720382e-01  6.03832697e-06  8.33968636e-01  6.03832697e-06  1.72951544e+00                                 
 6.06794711e-06  8.51315778e-01  6.06794711e-06  8.04022658e-01  6.06794711e-06  8.53282573e-01  6.06794711e-06  0.00000000e+00  6.06794711e-06  1.79869801e+00  6.06794711e-06  8.08109672e-01  6.06794711e-06  8.52732299e-01  6.06794711e-06  1.70387338e+00                                 
