 time            v(vbep)         time            v(vben)         time            v(vout)         time            v(vphi1)        time            v(vphi2)        time            v(vref)         time            v(voutc)        time            v(voutcc)       yes             currtemp       
 0.00000000e+00  7.52540313e-01  0.00000000e+00  6.91251345e-01  0.00000000e+00  1.56451730e+00  0.00000000e+00  0.00000000e+00  0.00000000e+00  1.80000000e+00  0.00000000e+00  6.93156598e-01  0.00000000e+00  1.56451729e+00  0.00000000e+00  1.57128848e+00  1.00000000e+00  4.10000000e+01 
 1.00000000e-11  7.52565404e-01  1.00000000e-11  6.91322737e-01  1.00000000e-11  1.56529561e+00  1.00000000e-11  1.80000000e-02  1.00000000e-11  1.80025182e+00  1.00000000e-11  6.93688749e-01  1.00000000e-11  1.56498795e+00  1.00000000e-11  1.57130070e+00                                 
 2.00000000e-11  7.52572274e-01  2.00000000e-11  6.91367426e-01  2.00000000e-11  1.56577326e+00  2.00000000e-11  3.60000000e-02  2.00000000e-11  1.80035167e+00  2.00000000e-11  6.94083780e-01  2.00000000e-11  1.56534404e+00  2.00000000e-11  1.57130495e+00                                 
 4.00000000e-11  7.52572247e-01  4.00000000e-11  6.91426295e-01  4.00000000e-11  1.56634791e+00  4.00000000e-11  7.20000000e-02  4.00000000e-11  1.80038999e+00  4.00000000e-11  6.94661558e-01  4.00000000e-11  1.56587499e+00  4.00000000e-11  1.57130558e+00                                 
 8.00000000e-11  7.52560452e-01  8.00000000e-11  6.91464174e-01  8.00000000e-11  1.56646521e+00  8.00000000e-11  1.44000000e-01  8.00000000e-11  1.80018612e+00  8.00000000e-11  6.95109286e-01  8.00000000e-11  1.56630816e+00  8.00000000e-11  1.57129474e+00                                 
 1.60000000e-10  7.52557605e-01  1.60000000e-10  6.91474886e-01  1.60000000e-10  1.56613188e+00  1.60000000e-10  2.88000000e-01  1.60000000e-10  1.80000417e+00  1.60000000e-10  6.95183343e-01  1.60000000e-10  1.56635954e+00  1.60000000e-10  1.57128519e+00                                 
 3.20000000e-10  7.52553658e-01  3.20000000e-10  6.91472335e-01  3.20000000e-10  1.56576218e+00  3.20000000e-10  5.76000000e-01  3.20000000e-10  1.79998913e+00  3.20000000e-10  6.95040236e-01  3.20000000e-10  1.56605637e+00  3.20000000e-10  1.57128089e+00                                 
 6.40000000e-10  7.52470674e-01  6.40000000e-10  6.91094882e-01  6.40000000e-10  1.56354625e+00  6.40000000e-10  1.15200000e+00  6.40000000e-10  1.81142938e+00  6.40000000e-10  6.92834242e-01  6.40000000e-10  1.57069912e+00  6.40000000e-10  1.57130911e+00                                 
 1.00000000e-09  7.53103606e-01  1.00000000e-09  6.91360709e-01  1.00000000e-09  1.53899328e+00  1.00000000e-09  1.80000000e+00  1.00000000e-09  9.38729096e-02  1.00000000e-09  7.04265104e-01  1.00000000e-09  1.57112304e+00  1.00000000e-09  1.57127354e+00                                 
 1.03653986e-09  7.53145591e-01  1.03653986e-09  6.91394942e-01  1.03653986e-09  1.53797704e+00  1.03653986e-09  1.80000000e+00  1.03653986e-09  2.11000340e-02  1.03653986e-09  7.07229482e-01  1.03653986e-09  1.57274387e+00  1.03653986e-09  1.57131061e+00                                 
 1.10961959e-09  7.53257789e-01  1.10961959e-09  6.91461183e-01  1.10961959e-09  1.53708647e+00  1.10961959e-09  1.80000000e+00  1.10961959e-09 -1.00874262e-02  1.10961959e-09  7.11058375e-01  1.10961959e-09  1.57572265e+00  1.10961959e-09  1.57133635e+00                                 
 1.25577904e-09  7.53369116e-01  1.25577904e-09  6.91331388e-01  1.25577904e-09  1.53501595e+00  1.25577904e-09  1.80000000e+00  1.25577904e-09  8.39948423e-03  1.25577904e-09  7.11253648e-01  1.25577904e-09  1.57614642e+00  1.25577904e-09  1.57128930e+00                                 
 1.46325147e-09  7.53352638e-01  1.46325147e-09  6.91307016e-01  1.46325147e-09  1.53427941e+00  1.46325147e-09  1.80000000e+00  1.46325147e-09 -6.51351774e-03  1.46325147e-09  7.10614049e-01  1.46325147e-09  1.57539376e+00  1.46325147e-09  1.57132181e+00                                 
 1.68870285e-09  7.53259794e-01  1.68870285e-09  6.91301671e-01  1.68870285e-09  1.53416869e+00  1.68870285e-09  1.80000000e+00  1.68870285e-09  5.58830334e-03  1.68870285e-09  7.09226305e-01  1.68870285e-09  1.57439114e+00  1.68870285e-09  1.57133086e+00                                 
 2.06725876e-09  7.53005353e-01  2.06725876e-09  6.91254741e-01  2.06725876e-09  1.53433017e+00  2.06725876e-09  1.80000000e+00  2.06725876e-09 -5.06760620e-03  2.06725876e-09  7.06916677e-01  2.06725876e-09  1.57226173e+00  2.06725876e-09  1.57141847e+00                                 
 2.47437808e-09  7.52796333e-01  2.47437808e-09  6.91259349e-01  2.47437808e-09  1.53473452e+00  2.47437808e-09  1.80000000e+00  2.47437808e-09  4.51745861e-03  2.47437808e-09  7.04844552e-01  2.47437808e-09  1.57063639e+00  2.47437808e-09  1.57150035e+00                                 
 3.12897781e-09  7.52571281e-01  3.12897781e-09  6.91215723e-01  3.12897781e-09  1.53430266e+00  3.12897781e-09  1.80000000e+00  3.12897781e-09 -4.35353031e-03  3.12897781e-09  7.01546416e-01  3.12897781e-09  1.56768598e+00  3.12897781e-09  1.57164984e+00                                 
 4.08362670e-09  7.52443477e-01  4.08362670e-09  6.91233881e-01  4.08362670e-09  1.53365858e+00  4.08362670e-09  1.80000000e+00  4.08362670e-09  4.09775488e-03  4.08362670e-09  6.98210105e-01  4.08362670e-09  1.56496778e+00  4.08362670e-09  1.57179808e+00                                 
 5.99292449e-09  7.52340936e-01  5.99292449e-09  6.91213981e-01  5.99292449e-09  1.53138756e+00  5.99292449e-09  1.80000000e+00  5.99292449e-09 -4.06678881e-03  5.99292449e-09  6.93752997e-01  5.99292449e-09  1.56104634e+00  5.99292449e-09  1.57189156e+00                                 
 7.52191182e-09  7.52360855e-01  7.52191182e-09  6.91250214e-01  7.52191182e-09  1.52895923e+00  7.52191182e-09  1.80000000e+00  7.52191182e-09  3.94470611e-03  7.52191182e-09  6.92425781e-01  7.52191182e-09  1.56003998e+00  7.52191182e-09  1.57177918e+00                                 
 9.00107960e-09  7.52385232e-01  9.00107960e-09  6.91228486e-01  9.00107960e-09  1.52479404e+00  9.00107960e-09  1.80000000e+00  9.00107960e-09 -3.85658321e-03  9.00107960e-09  6.91517520e-01  9.00107960e-09  1.55914582e+00  9.00107960e-09  1.57159252e+00                                 
 1.05636202e-08  7.52435993e-01  1.05636202e-08  6.91259503e-01  1.05636202e-08  1.51962490e+00  1.05636202e-08  1.80000000e+00  1.05636202e-08  3.75898009e-03  1.05636202e-08  6.91446550e-01  1.05636202e-08  1.55919763e+00  1.05636202e-08  1.57134562e+00                                 
 1.28148900e-08  7.52477965e-01  1.28148900e-08  6.91235087e-01  1.28148900e-08  1.50992597e+00  1.28148900e-08  1.80000000e+00  1.28148900e-08 -3.69854277e-03  1.28148900e-08  6.91168708e-01  1.28148900e-08  1.55883513e+00  1.28148900e-08  1.57098127e+00                                 
 1.55018466e-08  7.52525734e-01  1.55018466e-08  6.91264169e-01  1.55018466e-08  1.49732811e+00  1.55018466e-08  1.80000000e+00  1.55018466e-08  3.64760827e-03  1.55018466e-08  6.91555044e-01  1.55018466e-08  1.55926102e+00  1.55018466e-08  1.57055836e+00                                 
 1.93079854e-08  7.52541346e-01  1.93079854e-08  6.91237901e-01  1.93079854e-08  1.47753408e+00  1.93079854e-08  1.80000000e+00  1.93079854e-08 -3.61022929e-03  1.93079854e-08  6.91632707e-01  1.93079854e-08  1.55919298e+00  1.93079854e-08  1.57003525e+00                                 
 2.43772578e-08  7.52556361e-01  2.43772578e-08  6.91265599e-01  2.43772578e-08  1.45085093e+00  2.43772578e-08  1.80000000e+00  2.43772578e-08  3.58549696e-03  2.43772578e-08  6.92222022e-01  2.43772578e-08  1.55978193e+00  2.43772578e-08  1.56946091e+00                                 
 3.31662503e-08  7.52544557e-01  3.31662503e-08  6.91238170e-01  3.31662503e-08  1.40340910e+00  3.31662503e-08  1.80000000e+00  3.31662503e-08 -3.56838100e-03  3.31662503e-08  6.92423978e-01  3.31662503e-08  1.55981633e+00  3.31662503e-08  1.56874118e+00                                 
 4.72810376e-08  7.52548070e-01  4.72810376e-08  6.91265191e-01  4.72810376e-08  1.32775184e+00  4.72810376e-08  1.80000000e+00  4.72810376e-08  3.56058458e-03  4.72810376e-08  6.93017137e-01  4.72810376e-08  1.56041036e+00  4.72810376e-08  1.56804716e+00                                 
 7.55106122e-08  7.52536591e-01  7.55106122e-08  6.91237688e-01  7.55106122e-08  1.17640936e+00  7.55106122e-08  1.80000000e+00  7.55106122e-08 -3.55413984e-03  7.55106122e-08  6.93018292e-01  7.55106122e-08  1.56028806e+00  7.55106122e-08  1.56746814e+00                                 
 1.13739985e-07  7.52544436e-01  1.13739985e-07  6.91264987e-01  1.13739985e-07  9.74867207e-01  1.13739985e-07  1.80000000e+00  1.13739985e-07  3.55299127e-03  1.13739985e-07  6.93272396e-01  1.13739985e-07  1.56061069e+00  1.13739985e-07  1.56728214e+00                                 
 1.72951687e-07  7.52536384e-01  1.72951687e-07  6.91237674e-01  1.72951687e-07  7.42573653e-01  1.72951687e-07  1.80000000e+00  1.72951687e-07 -3.54448029e-03  1.72951687e-07  6.93038837e-01  1.72951687e-07  1.56029837e+00  1.72951687e-07  1.56723395e+00                                 
 2.20436961e-07  7.52545273e-01  2.20436961e-07  6.91265134e-01  2.20436961e-07  6.88668692e-01  2.20436961e-07  1.80000000e+00  2.20436961e-07  3.55332888e-03  2.20436961e-07  6.93277744e-01  2.20436961e-07  1.56060980e+00  2.20436961e-07  1.56723027e+00                                 
 2.66427165e-07  7.52533553e-01  2.66427165e-07  6.91237420e-01  2.66427165e-07  6.96282765e-01  2.66427165e-07  1.80000000e+00  2.66427165e-07 -3.53745308e-03  2.66427165e-07  6.93037915e-01  2.66427165e-07  1.56029429e+00  2.66427165e-07  1.56723051e+00                                 
 2.94337642e-07  7.52547782e-01  2.94337642e-07  6.91265319e-01  2.94337642e-07  6.95192861e-01  2.94337642e-07  1.80000000e+00  2.94337642e-07  3.54578165e-03  2.94337642e-07  6.93273966e-01  2.94337642e-07  1.56060383e+00  2.94337642e-07  1.56722645e+00                                 
 3.26014872e-07  7.52532957e-01  3.26014872e-07  6.91237358e-01  3.26014872e-07  6.95051254e-01  3.26014872e-07  1.80000000e+00  3.26014872e-07 -3.52887699e-03  3.26014872e-07  6.93039305e-01  3.26014872e-07  1.56029344e+00  3.26014872e-07  1.56722715e+00                                 
 3.73773807e-07  7.52547524e-01  3.73773807e-07  6.91265320e-01  3.73773807e-07  6.95173421e-01  3.73773807e-07  1.80000000e+00  3.73773807e-07  3.53908373e-03  3.73773807e-07  6.93273810e-01  3.73773807e-07  1.56060078e+00  3.73773807e-07  1.56722355e+00                                 
 4.33318791e-07  7.52533241e-01  4.33318791e-07  6.91237363e-01  4.33318791e-07  6.95018673e-01  4.33318791e-07  1.80000000e+00  4.33318791e-07 -3.52409314e-03  4.33318791e-07  6.93039366e-01  4.33318791e-07  1.56028977e+00  4.33318791e-07  1.56722326e+00                                 
 5.42421521e-07  7.52547302e-01  5.42421521e-07  6.91265314e-01  5.42421521e-07  6.95190917e-01  5.42421521e-07  1.80000000e+00  5.42421521e-07  3.53576991e-03  5.42421521e-07  6.93273777e-01  5.42421521e-07  1.56059473e+00  5.42421521e-07  1.56721760e+00                                 
 7.00586921e-07  7.52533381e-01  7.00586921e-07  6.91237367e-01  7.00586921e-07  6.95009522e-01  7.00586921e-07  1.80000000e+00  7.00586921e-07 -3.52212687e-03  7.00586921e-07  6.93039380e-01  7.00586921e-07  1.56028034e+00  7.00586921e-07  1.56721379e+00                                 
 9.70883027e-07  7.52547210e-01  9.70883027e-07  6.91265312e-01  9.70883027e-07  6.95196142e-01  9.70883027e-07  1.80000000e+00  9.70883027e-07  3.53449117e-03  9.70883027e-07  6.93273771e-01  9.70883027e-07  1.56057954e+00  9.70883027e-07  1.56720246e+00                                 
 1.42516250e-06  7.52533436e-01  1.42516250e-06  6.91237369e-01  1.42516250e-06  6.95006541e-01  1.42516250e-06  1.80000000e+00  1.42516250e-06 -3.52137399e-03  1.42516250e-06  6.93039383e-01  1.42516250e-06  1.56025469e+00  1.42516250e-06  1.56718816e+00                                 
 2.17015914e-06  7.52547177e-01  2.17015914e-06  6.91265311e-01  2.17015914e-06  6.95197814e-01  2.17015914e-06  1.80000000e+00  2.17015914e-06  3.53403911e-03  2.17015914e-06  6.93273769e-01  2.17015914e-06  1.56053703e+00  2.17015914e-06  1.56716002e+00                                 
 3.37015914e-06  7.52533457e-01  3.37015914e-06  6.91237369e-01  3.37015914e-06  6.95005506e-01  3.37015914e-06  1.80000000e+00  3.37015914e-06 -3.52110002e-03  3.37015914e-06  6.93039384e-01  3.37015914e-06  1.56018580e+00  3.37015914e-06  1.56711936e+00                                 
 4.57015914e-06  7.52547160e-01  4.57015914e-06  6.91265310e-01  4.57015914e-06  6.95198571e-01  4.57015914e-06  1.80000000e+00  4.57015914e-06  3.53382703e-03  4.57015914e-06  6.93273767e-01  4.57015914e-06  1.56045205e+00  4.57015914e-06  1.56707517e+00                                 
 5.77015914e-06  7.52533472e-01  5.77015914e-06  6.91237370e-01  5.77015914e-06  6.95004735e-01  5.77015914e-06  1.80000000e+00  5.77015914e-06 -3.52089866e-03  5.77015914e-06  6.93039385e-01  5.77015914e-06  1.56010085e+00  5.77015914e-06  1.56703452e+00                                 
 6.00100000e-06  7.52547112e-01  6.00100000e-06  6.91265309e-01  6.00100000e-06  6.95200805e-01  6.00100000e-06  1.80000000e+00  6.00100000e-06  3.53316802e-03  6.00100000e-06  6.93273765e-01  6.00100000e-06  1.56040138e+00  6.00100000e-06  1.56702459e+00                                 
 6.00110000e-06  7.52497883e-01  6.00110000e-06  6.91012002e-01  6.00110000e-06  6.93278332e-01  6.00110000e-06  1.62000000e+00  6.00110000e-06  1.94123828e-04  6.00110000e-06  6.91547292e-01  6.00110000e-06  1.55887786e+00  6.00110000e-06  1.56701354e+00                                 
 6.00130000e-06  7.52529084e-01  6.00130000e-06  6.91015791e-01  6.00130000e-06  6.93517545e-01  6.00130000e-06  1.26000000e+00  6.00130000e-06 -2.26916427e-04  6.00130000e-06  6.91428996e-01  6.00130000e-06  1.55877120e+00  6.00130000e-06  1.56703140e+00                                 
 6.00170000e-06  7.52589543e-01  6.00170000e-06  6.90469993e-01  6.00170000e-06  7.13374202e-01  6.00170000e-06  5.40000000e-01  6.00170000e-06  1.54380477e+00  6.00170000e-06  6.83528151e-01  6.00170000e-06  1.45381314e+00  6.00170000e-06  1.56666331e+00                                 
 6.00200000e-06  7.52523323e-01  6.00200000e-06  6.88164205e-01  6.00200000e-06  7.41275899e-01  6.00200000e-06  0.00000000e+00  6.00200000e-06  1.87892722e+00  6.00200000e-06  6.59254717e-01  6.00200000e-06  1.10706698e+00  6.00200000e-06  1.56671199e+00                                 
 6.00203642e-06  7.52536820e-01  6.00203642e-06  6.88246977e-01  6.00203642e-06  7.35512186e-01  6.00203642e-06  0.00000000e+00  6.00203642e-06  1.83102019e+00  6.00203642e-06  6.60412957e-01  6.00203642e-06  1.06368110e+00  6.00203642e-06  1.56701719e+00                                 
 6.00210925e-06  7.52544174e-01  6.00210925e-06  6.88510435e-01  6.00210925e-06  7.27471461e-01  6.00210925e-06  0.00000000e+00  6.00210925e-06  1.79198489e+00  6.00210925e-06  6.63868609e-01  6.00210925e-06  9.90219343e-01  6.00210925e-06  1.56725643e+00                                 
 6.00225493e-06  7.52539522e-01  6.00225493e-06  6.88901876e-01  6.00225493e-06  7.23205087e-01  6.00225493e-06  0.00000000e+00  6.00225493e-06  1.80237055e+00  6.00225493e-06  6.68444369e-01  6.00225493e-06  8.77770980e-01  6.00225493e-06  1.56718906e+00                                 
 6.00246874e-06  7.52540851e-01  6.00246874e-06  6.89683783e-01  6.00246874e-06  7.12500732e-01  6.00246874e-06  0.00000000e+00  6.00246874e-06  1.79740038e+00  6.00246874e-06  6.76166016e-01  6.00246874e-06  7.69622490e-01  6.00246874e-06  1.56732358e+00                                 
 6.00269390e-06  7.52539170e-01  6.00269390e-06  6.90683364e-01  6.00269390e-06  7.02398749e-01  6.00269390e-06  0.00000000e+00  6.00269390e-06  1.80121684e+00  6.00269390e-06  6.85671062e-01  6.00269390e-06  7.21857179e-01  6.00269390e-06  1.56723060e+00                                 
 6.00290681e-06  7.52540212e-01  6.00290681e-06  6.91198814e-01  6.00290681e-06  6.98680698e-01  6.00290681e-06  0.00000000e+00  6.00290681e-06  1.79931323e+00  6.00290681e-06  6.89603844e-01  6.00290681e-06  7.05023212e-01  6.00290681e-06  1.56698838e+00                                 
 6.00320100e-06  7.52539618e-01  6.00320100e-06  6.91620280e-01  6.00320100e-06  6.96032036e-01  6.00320100e-06  0.00000000e+00  6.00320100e-06  1.80049555e+00  6.00320100e-06  6.92811249e-01  6.00320100e-06  6.98165078e-01  6.00320100e-06  1.56622822e+00                                 
 6.00350050e-06  7.52540390e-01  6.00350050e-06  6.91729571e-01  6.00350050e-06  6.96317807e-01  6.00350050e-06  0.00000000e+00  6.00350050e-06  1.79972545e+00  6.00350050e-06  6.93438747e-01  6.00350050e-06  6.96260151e-01  6.00350050e-06  1.56525809e+00                                 
 6.00402738e-06  7.52540041e-01  6.00402738e-06  6.91784501e-01  6.00402738e-06  6.96586283e-01  6.00402738e-06  0.00000000e+00  6.00402738e-06  1.80022953e+00  6.00402738e-06  6.94245031e-01  6.00402738e-06  6.96736223e-01  6.00402738e-06  1.56318290e+00                                 
 6.00475318e-06  7.52540623e-01  6.00475318e-06  6.91710970e-01  6.00475318e-06  6.98688570e-01  6.00475318e-06  0.00000000e+00  6.00475318e-06  1.79984081e+00  6.00475318e-06  6.94212546e-01  6.00475318e-06  6.98070493e-01  6.00475318e-06  1.56006139e+00                                 
 6.00620476e-06  7.52540143e-01  6.00620476e-06  6.91613140e-01  6.00620476e-06  7.01860934e-01  6.00620476e-06  0.00000000e+00  6.00620476e-06  1.80016166e+00  6.00620476e-06  6.94546859e-01  6.00620476e-06  7.01862404e-01  6.00620476e-06  1.55330907e+00                                 
 6.00910794e-06  7.52540535e-01  6.00910794e-06  6.91410173e-01  6.00910794e-06  7.09902695e-01  6.00910794e-06  0.00000000e+00  6.00910794e-06  1.79987023e+00  6.00910794e-06  6.94272199e-01  6.00910794e-06  7.09202339e-01  6.00910794e-06  1.53922432e+00                                 
 6.01491428e-06  7.52540071e-01  6.01491428e-06  6.91250685e-01  6.01491428e-06  7.24519579e-01  6.01491428e-06  0.00000000e+00  6.01491428e-06  1.80014646e+00  6.01491428e-06  6.94147681e-01  6.01491428e-06  7.24499035e-01  6.01491428e-06  1.51087256e+00                                 
 6.02652697e-06  7.52540535e-01  6.02652697e-06  6.91221847e-01  6.02652697e-06  7.53762265e-01  6.02652697e-06  0.00000000e+00  6.02652697e-06  1.79987638e+00  6.02652697e-06  6.93502566e-01  6.02652697e-06  7.52951587e-01  6.02652697e-06  1.45707612e+00                                 
 6.04975236e-06  7.52540083e-01  6.04975236e-06  6.91260596e-01  6.04975236e-06  8.05984958e-01  6.04975236e-06  0.00000000e+00  6.04975236e-06  1.80014135e+00  6.04975236e-06  6.93319512e-01  6.04975236e-06  8.06039280e-01  6.04975236e-06  1.36026457e+00                                 
 6.09620312e-06  7.52540541e-01  6.09620312e-06  6.91240725e-01  6.09620312e-06  8.94203410e-01  6.09620312e-06  0.00000000e+00  6.09620312e-06  1.79987442e+00  6.09620312e-06  6.93038252e-01  6.09620312e-06  8.92384139e-01  6.09620312e-06  1.19540335e+00                                 
 6.18342553e-06  7.52540085e-01  6.18342553e-06  6.91261936e-01  6.18342553e-06  1.00913601e+00  6.18342553e-06  0.00000000e+00  6.18342553e-06  1.80013506e+00  6.18342553e-06  6.93250474e-01  6.18342553e-06  1.01016760e+00  6.18342553e-06  1.03182746e+00                                 
 6.30725946e-06  7.52540540e-01  6.30725946e-06  6.91240875e-01  6.30725946e-06  1.10004124e+00  6.30725946e-06  0.00000000e+00  6.30725946e-06  1.79986954e+00  6.30725946e-06  6.93053535e-01  6.30725946e-06  1.09821275e+00  6.30725946e-06  1.06963421e+00                                 
