 time            v(vbep)         time            v(vben)         time            v(vout)         time            v(vphi1)        time            v(vphi2)        time            v(vref)         time            v(voutc)        time            v(voutcc)       yes             currtemp       
 0.00000000e+00  8.11708267e-01  0.00000000e+00  7.56861574e-01  0.00000000e+00  1.67045099e+00  0.00000000e+00  0.00000000e+00  0.00000000e+00  1.80000000e+00  0.00000000e+00  7.60138432e-01  0.00000000e+00  1.67045098e+00  0.00000000e+00  1.67615852e+00  1.00000000e+00  7.00000000e+00 
 5.00000000e-12  8.11729270e-01  5.00000000e-12  7.56915919e-01  5.00000000e-12  1.67109311e+00  5.00000000e-12  1.80000000e-02  5.00000000e-12  1.80018308e+00  5.00000000e-12  7.60533204e-01  5.00000000e-12  1.67080034e+00  5.00000000e-12  1.67616996e+00                                 
 1.00000000e-11  8.11738535e-01  1.00000000e-11  7.56951976e-01  1.00000000e-11  1.67157479e+00  1.00000000e-11  3.60000000e-02  1.00000000e-11  1.80026744e+00  1.00000000e-11  7.60845625e-01  1.00000000e-11  1.67107886e+00  1.00000000e-11  1.67617611e+00                                 
 2.00000000e-11  8.11744633e-01  2.00000000e-11  7.57002207e-01  2.00000000e-11  1.67229682e+00  2.00000000e-11  7.20000000e-02  2.00000000e-11  1.80032362e+00  2.00000000e-11  7.61335955e-01  2.00000000e-11  1.67152109e+00  2.00000000e-11  1.67618184e+00                                 
 4.00000000e-11  8.11732531e-01  4.00000000e-11  7.57038598e-01  4.00000000e-11  1.67286534e+00  4.00000000e-11  1.44000000e-01  4.00000000e-11  1.80019952e+00  4.00000000e-11  7.61812707e-01  4.00000000e-11  1.67197515e+00  4.00000000e-11  1.67617556e+00                                 
 8.00000000e-11  8.11718594e-01  8.00000000e-11  7.57040439e-01  8.00000000e-11  1.67283228e+00  8.00000000e-11  2.88000000e-01  8.00000000e-11  1.80003060e+00  8.00000000e-11  7.61939832e-01  8.00000000e-11  1.67216182e+00  8.00000000e-11  1.67615865e+00                                 
 1.60000000e-10  8.11719798e-01  1.60000000e-10  7.57026186e-01  1.60000000e-10  1.67238785e+00  1.60000000e-10  5.76000000e-01  1.60000000e-10  1.80001566e+00  1.60000000e-10  7.61747008e-01  1.60000000e-10  1.67209111e+00  1.60000000e-10  1.67615267e+00                                 
 3.20000000e-10  8.11658634e-01  3.20000000e-10  7.56588224e-01  3.20000000e-10  1.66780279e+00  3.20000000e-10  1.15200000e+00  3.20000000e-10  1.80065938e+00  3.20000000e-10  7.57840931e-01  3.20000000e-10  1.66885157e+00  3.20000000e-10  1.67611905e+00                                 
 5.00000000e-10  8.11780944e-01  5.00000000e-10  7.56992279e-01  5.00000000e-10  1.66097542e+00  5.00000000e-10  1.80000000e+00  5.00000000e-10  1.38251484e-01  5.00000000e-10  7.62029007e-01  5.00000000e-10  1.67205058e+00  5.00000000e-10  1.67619376e+00                                 
 5.20467096e-10  8.11768199e-01  5.20467096e-10  7.57041624e-01  5.20467096e-10  1.66044589e+00  5.20467096e-10  1.80000000e+00  5.20467096e-10  3.41717234e-02  5.20467096e-10  7.63424433e-01  5.20467096e-10  1.67287742e+00  5.20467096e-10  1.67619195e+00                                 
 5.61401289e-10  8.11797341e-01  5.61401289e-10  7.57131870e-01  5.61401289e-10  1.66032824e+00  5.61401289e-10  1.80000000e+00  5.61401289e-10 -1.29986307e-02  5.61401289e-10  7.65321438e-01  5.61401289e-10  1.67457392e+00  5.61401289e-10  1.67619418e+00                                 
 6.43269674e-10  8.11849579e-01  6.43269674e-10  7.56967918e-01  6.43269674e-10  1.65851873e+00  6.43269674e-10  1.80000000e+00  6.43269674e-10  1.06881680e-02  6.43269674e-10  7.63916141e-01  6.43269674e-10  1.67354249e+00  6.43269674e-10  1.67613137e+00                                 
 7.61233040e-10  8.11867150e-01  7.61233040e-10  7.56946396e-01  7.61233040e-10  1.65794292e+00  7.61233040e-10  1.80000000e+00  7.61233040e-10 -8.43666650e-03  7.61233040e-10  7.64525959e-01  7.61233040e-10  1.67392136e+00  7.61233040e-10  1.67617139e+00                                 
 9.37015944e-10  8.11945091e-01  9.37015944e-10  7.56914852e-01  9.37015944e-10  1.65639751e+00  9.37015944e-10  1.80000000e+00  9.37015944e-10  8.00755955e-03  9.37015944e-10  7.65090002e-01  9.37015944e-10  1.67454614e+00  9.37015944e-10  1.67614413e+00                                 
 1.28858175e-09  8.11987793e-01  1.28858175e-09  7.56855552e-01  1.28858175e-09  1.65228047e+00  1.28858175e-09  1.80000000e+00  1.28858175e-09 -7.27434447e-03  1.28858175e-09  7.65137329e-01  1.28858175e-09  1.67446704e+00  1.28858175e-09  1.67615653e+00                                 
 1.73990509e-09  8.11945195e-01  1.73990509e-09  7.56865016e-01  1.73990509e-09  1.65080375e+00  1.73990509e-09  1.80000000e+00  1.73990509e-09  7.07020707e-03  1.73990509e-09  7.65336363e-01  1.73990509e-09  1.67475794e+00  1.73990509e-09  1.67615660e+00                                 
 2.29753327e-09  8.11817888e-01  2.29753327e-09  7.56834825e-01  2.29753327e-09  1.65024557e+00  2.29753327e-09  1.80000000e+00  2.29753327e-09 -6.79541083e-03  2.29753327e-09  7.64592989e-01  2.29753327e-09  1.67399935e+00  2.29753327e-09  1.67618489e+00                                 
 2.79981571e-09  8.11755681e-01  2.79981571e-09  7.56861052e-01  2.79981571e-09  1.65059124e+00  2.79981571e-09  1.80000000e+00  2.79981571e-09  6.54196401e-03  2.79981571e-09  7.64619499e-01  2.79981571e-09  1.67412978e+00  2.79981571e-09  1.67620921e+00                                 
 3.62365243e-09  8.11687825e-01  3.62365243e-09  7.56836181e-01  3.62365243e-09  1.64999546e+00  3.62365243e-09  1.80000000e+00  3.62365243e-09 -6.38046741e-03  3.62365243e-09  7.63673801e-01  3.62365243e-09  1.67320106e+00  3.62365243e-09  1.67625692e+00                                 
 5.06649432e-09  8.11675798e-01  5.06649432e-09  7.56865866e-01  5.06649432e-09  1.64928642e+00  5.06649432e-09  1.80000000e+00  5.06649432e-09  6.29981681e-03  5.06649432e-09  7.63140382e-01  5.06649432e-09  1.67283781e+00  5.06649432e-09  1.67633948e+00                                 
 7.95217809e-09  8.11670325e-01  7.95217809e-09  7.56844431e-01  7.95217809e-09  1.64573441e+00  7.95217809e-09  1.80000000e+00  7.95217809e-09 -6.24913396e-03  7.95217809e-09  7.61310407e-01  7.95217809e-09  1.67114299e+00  7.95217809e-09  1.67645833e+00                                 
 1.29893585e-08  8.11690768e-01  1.29893585e-08  7.56874739e-01  1.29893585e-08  1.63872518e+00  1.29893585e-08  1.80000000e+00  1.29893585e-08  6.23613301e-03  1.29893585e-08  7.60280111e-01  1.29893585e-08  1.67035008e+00  1.29893585e-08  1.67652326e+00                                 
 1.69703802e-08  8.11689301e-01  1.69703802e-08  7.56848441e-01  1.69703802e-08  1.63114398e+00  1.69703802e-08  1.80000000e+00  1.69703802e-08 -6.19082414e-03  1.69703802e-08  7.59450859e-01  1.69703802e-08  1.66952853e+00  1.69703802e-08  1.67647741e+00                                 
 2.15055836e-08  8.11699146e-01  2.15055836e-08  7.56874855e-01  2.15055836e-08  1.62278567e+00  2.15055836e-08  1.80000000e+00  2.15055836e-08  6.18301136e-03  2.15055836e-08  7.59668535e-01  2.15055836e-08  1.66981580e+00  2.15055836e-08  1.67639474e+00                                 
 2.57508707e-08  8.11694484e-01  2.57508707e-08  7.56848308e-01  2.57508707e-08  1.61377115e+00  2.57508707e-08  1.80000000e+00  2.57508707e-08 -6.13233826e-03  2.57508707e-08  7.59263290e-01  2.57508707e-08  1.66935959e+00  2.57508707e-08  1.67630529e+00                                 
 3.25528062e-08  8.11708626e-01  3.25528062e-08  7.56874960e-01  3.25528062e-08  1.59900747e+00  3.25528062e-08  1.80000000e+00  3.25528062e-08  6.13954212e-03  3.25528062e-08  7.59734477e-01  3.25528062e-08  1.66986322e+00  3.25528062e-08  1.67618219e+00                                 
 4.00930968e-08  8.11705205e-01  4.00930968e-08  7.56848335e-01  4.00930968e-08  1.58040530e+00  4.00930968e-08  1.80000000e+00  4.00930968e-08 -6.09786372e-03  4.00930968e-08  7.59468380e-01  4.00930968e-08  1.66952706e+00  4.00930968e-08  1.67606720e+00                                 
 5.25583215e-08  8.11714287e-01  5.25583215e-08  7.56874951e-01  5.25583215e-08  1.54916567e+00  5.25583215e-08  1.80000000e+00  5.25583215e-08  6.11476096e-03  5.25583215e-08  7.60030798e-01  5.25583215e-08  1.67011014e+00  5.25583215e-08  1.67594598e+00                                 
 6.83858556e-08  8.11705975e-01  6.83858556e-08  7.56848258e-01  6.83858556e-08  1.50774480e+00  6.83858556e-08  1.80000000e+00  6.83858556e-08 -6.08083593e-03  6.83858556e-08  7.59777514e-01  6.83858556e-08  1.66978759e+00  6.83858556e-08  1.67586031e+00                                 
 9.56890442e-08  8.11712651e-01  9.56890442e-08  7.56874906e-01  9.56890442e-08  1.43686980e+00  9.56890442e-08  1.80000000e+00  9.56890442e-08  6.10292818e-03  9.56890442e-08  7.60279309e-01  9.56890442e-08  1.67032172e+00  9.56890442e-08  1.67581823e+00                                 
 1.42422620e-07  8.11704589e-01  1.42422620e-07  7.56848227e-01  1.42422620e-07  1.31502171e+00  1.42422620e-07  1.80000000e+00  1.42422620e-07 -6.07391180e-03  1.42422620e-07  7.59939179e-01  1.42422620e-07  1.66992625e+00  1.42422620e-07  1.67582352e+00                                 
 2.35889771e-07  8.11712039e-01  2.35889771e-07  7.56874902e-01  2.35889771e-07  1.07634187e+00  2.35889771e-07  1.80000000e+00  2.35889771e-07  6.09921365e-03  2.35889771e-07  7.60334523e-01  2.35889771e-07  1.67036604e+00  2.35889771e-07  1.67585512e+00                                 
 3.31979675e-07  8.11704446e-01  3.31979675e-07  7.56848220e-01  3.31979675e-07  8.52871326e-01  3.31979675e-07  1.80000000e+00  3.31979675e-07 -6.07117731e-03  3.31979675e-07  7.59941776e-01  3.31979675e-07  1.66992091e+00  3.31979675e-07  1.67585024e+00                                 
 4.14926490e-07  8.11712358e-01  4.14926490e-07  7.56874927e-01  4.14926490e-07  7.62412700e-01  4.14926490e-07  1.80000000e+00  4.14926490e-07  6.09797147e-03  4.14926490e-07  7.60334945e-01  4.14926490e-07  1.67035826e+00  4.14926490e-07  1.67585012e+00                                 
 4.91149209e-07  8.11703979e-01  4.91149209e-07  7.56848198e-01  4.91149209e-07  7.63221833e-01  4.91149209e-07  1.80000000e+00  4.91149209e-07 -6.06764113e-03  4.91149209e-07  7.59943891e-01  4.91149209e-07  1.66991597e+00  4.91149209e-07  1.67584418e+00                                 
 5.33330672e-07  8.11712340e-01  5.33330672e-07  7.56874909e-01  5.33330672e-07  7.63950404e-01  5.33330672e-07  1.80000000e+00  5.33330672e-07  6.09370103e-03  5.33330672e-07  7.60332758e-01  5.33330672e-07  1.67035135e+00  5.33330672e-07  1.67584551e+00                                 
 5.85777270e-07  8.11704312e-01  5.85777270e-07  7.56848233e-01  5.85777270e-07  7.63146866e-01  5.85777270e-07  1.80000000e+00  5.85777270e-07 -6.06266985e-03  5.85777270e-07  7.59943656e-01  5.85777270e-07  1.66991180e+00  5.85777270e-07  1.67583937e+00                                 
 6.79677240e-07  8.11712188e-01  6.79677240e-07  7.56874890e-01  6.79677240e-07  7.63761814e-01  6.79677240e-07  1.80000000e+00  6.79677240e-07  6.09024698e-03  6.79677240e-07  7.60333153e-01  6.79677240e-07  1.67034550e+00  6.79677240e-07  1.67583907e+00                                 
 7.77116090e-07  8.11704369e-01  7.77116090e-07  7.56848241e-01  7.77116090e-07  7.63212981e-01  7.77116090e-07  1.80000000e+00  7.77116090e-07 -6.06032657e-03  7.77116090e-07  7.59943531e-01  7.77116090e-07  1.66990367e+00  7.77116090e-07  1.67583131e+00                                 
 9.71993789e-07  8.11712156e-01  9.71993789e-07  7.56874885e-01  9.71993789e-07  7.63725412e-01  9.71993789e-07  1.80000000e+00  9.71993789e-07  6.08846438e-03  9.71993789e-07  7.60333216e-01  9.71993789e-07  1.67033326e+00  9.71993789e-07  1.67582680e+00                                 
 1.36174919e-06  8.11704382e-01  1.36174919e-06  7.56848243e-01  1.36174919e-06  7.63227367e-01  1.36174919e-06  1.80000000e+00  1.36174919e-06 -6.05919760e-03  1.36174919e-06  7.59943509e-01  1.36174919e-06  1.66987909e+00  1.36174919e-06  1.67580680e+00                                 
 2.14125999e-06  8.11712151e-01  2.14125999e-06  7.56874885e-01  2.14125999e-06  7.63718945e-01  2.14125999e-06  1.80000000e+00  2.14125999e-06  6.08802341e-03  2.14125999e-06  7.60333225e-01  2.14125999e-06  1.67028414e+00  2.14125999e-06  1.67577778e+00                                 
 3.14125999e-06  8.11704385e-01  3.14125999e-06  7.56848244e-01  3.14125999e-06  7.63230986e-01  3.14125999e-06  1.80000000e+00  3.14125999e-06 -6.05915577e-03  3.14125999e-06  7.59943504e-01  3.14125999e-06  1.66980430e+00  3.14125999e-06  1.67573219e+00                                 
 4.14125999e-06  8.11712148e-01  4.14125999e-06  7.56874885e-01  4.14125999e-06  7.63715889e-01  4.14125999e-06  1.80000000e+00  4.14125999e-06  6.08784846e-03  4.14125999e-06  7.60333229e-01  4.14125999e-06  1.67020004e+00  4.14125999e-06  1.67569387e+00                                 
 5.14125999e-06  8.11704388e-01  5.14125999e-06  7.56848245e-01  5.14125999e-06  7.63233948e-01  5.14125999e-06  1.80000000e+00  5.14125999e-06 -6.05897194e-03  5.14125999e-06  7.59943501e-01  5.14125999e-06  1.66972021e+00  5.14125999e-06  1.67564828e+00                                 
 6.14125999e-06  8.11712146e-01  6.14125999e-06  7.56874884e-01  6.14125999e-06  7.63713017e-01  6.14125999e-06  1.80000000e+00  6.14125999e-06  6.08761931e-03  6.14125999e-06  7.60333233e-01  6.14125999e-06  1.67011600e+00  6.14125999e-06  1.67561001e+00                                 
 7.14125999e-06  8.11704390e-01  7.14125999e-06  7.56848245e-01  7.14125999e-06  7.63236731e-01  7.14125999e-06  1.80000000e+00  7.14125999e-06 -6.05874504e-03  7.14125999e-06  7.59943497e-01  7.14125999e-06  1.66963618e+00  7.14125999e-06  1.67556444e+00                                 
 8.14125999e-06  8.11712143e-01  8.14125999e-06  7.56874884e-01  8.14125999e-06  7.63710317e-01  8.14125999e-06  1.80000000e+00  8.14125999e-06  6.08739016e-03  8.14125999e-06  7.60333236e-01  8.14125999e-06  1.67003195e+00  8.14125999e-06  1.67552615e+00                                 
 9.14125999e-06  8.11704393e-01  9.14125999e-06  7.56848246e-01  9.14125999e-06  7.63239349e-01  9.14125999e-06  1.80000000e+00  9.14125999e-06 -6.05851816e-03  9.14125999e-06  7.59943495e-01  9.14125999e-06  1.66955210e+00  9.14125999e-06  1.67548056e+00                                 
 1.00005000e-05  8.11712140e-01  1.00005000e-05  7.56874883e-01  1.00005000e-05  7.63707577e-01  1.00005000e-05  1.80000000e+00  1.00005000e-05  6.08714501e-03  1.00005000e-05  7.60333239e-01  1.00005000e-05  1.66995379e+00  1.00005000e-05  1.67544817e+00                                 
 1.00005500e-05  8.11678298e-01  1.00005500e-05  7.56672834e-01  1.00005500e-05  7.61718885e-01  1.00005500e-05  1.62000000e+00  1.00005500e-05  4.40643031e-04  1.00005500e-05  7.58541076e-01  1.00005500e-05  1.66834724e+00  1.00005500e-05  1.67542493e+00                                 
 1.00006500e-05  8.11703752e-01  1.00006500e-05  7.56678440e-01  1.00006500e-05  7.61975273e-01  1.00006500e-05  1.26000000e+00  1.00006500e-05 -3.98778207e-04  1.00006500e-05  7.58411517e-01  1.00006500e-05  1.66822836e+00  1.00006500e-05  1.67545060e+00                                 
 1.00008500e-05  8.11732874e-01  1.00008500e-05  7.56950154e-01  1.00008500e-05  7.64716437e-01  1.00008500e-05  5.40000000e-01  1.00008500e-05 -4.72508459e-04  1.00008500e-05  7.60692792e-01  1.00008500e-05  1.66978285e+00  1.00008500e-05  1.67545504e+00                                 
 1.00010000e-05  8.11701817e-01  1.00010000e-05  7.55562699e-01  1.00010000e-05  7.85883069e-01  1.00010000e-05  0.00000000e+00  1.00010000e-05  1.47888570e+00  1.00010000e-05  7.43573798e-01  1.00010000e-05  1.60390611e+00  1.00010000e-05  1.67480642e+00                                 
 1.00010267e-05  8.11717615e-01  1.00010267e-05  7.55280555e-01  1.00010267e-05  7.93419128e-01  1.00010267e-05  0.00000000e+00  1.00010267e-05  1.68216256e+00  1.00010267e-05  7.39850561e-01  1.00010267e-05  1.57749303e+00  1.00010267e-05  1.67468856e+00                                 
 1.00010802e-05  8.11710510e-01  1.00010802e-05  7.54811010e-01  1.00010802e-05  7.99166576e-01  1.00010802e-05  0.00000000e+00  1.00010802e-05  1.82475692e+00  1.00010802e-05  7.34139812e-01  1.00010802e-05  1.52091430e+00  1.00010802e-05  1.67462705e+00                                 
 1.00011871e-05  8.11704010e-01  1.00011871e-05  7.54856435e-01  1.00011871e-05  7.90103407e-01  1.00011871e-05  0.00000000e+00  1.00011871e-05  1.78471459e+00  1.00011871e-05  7.35260182e-01  1.00011871e-05  1.42399114e+00  1.00011871e-05  1.67513705e+00                                 
 1.00013296e-05  8.11713087e-01  1.00013296e-05  7.55318889e-01  1.00013296e-05  7.86193552e-01  1.00013296e-05  0.00000000e+00  1.00013296e-05  1.80871698e+00  1.00013296e-05  7.41292121e-01  1.00013296e-05  1.32730481e+00  1.00013296e-05  1.67548086e+00                                 
 1.00015535e-05  8.11703351e-01  1.00015535e-05  7.55593178e-01  1.00015535e-05  7.80469269e-01  1.00015535e-05  0.00000000e+00  1.00015535e-05  1.79278318e+00  1.00015535e-05  7.44075998e-01  1.00015535e-05  1.20584122e+00  1.00015535e-05  1.67562238e+00                                 
 1.00019722e-05  8.11712529e-01  1.00019722e-05  7.56228882e-01  1.00019722e-05  7.75068416e-01  1.00019722e-05  0.00000000e+00  1.00019722e-05  1.80571824e+00  1.00019722e-05  7.49904420e-01  1.00019722e-05  1.05536277e+00  1.00019722e-05  1.67573795e+00                                 
 1.00025020e-05  8.11703659e-01  1.00025020e-05  7.56550120e-01  1.00025020e-05  7.72247552e-01  1.00025020e-05  0.00000000e+00  1.00025020e-05  1.79467839e+00  1.00025020e-05  7.51778724e-01  1.00025020e-05  9.24124715e-01  1.00025020e-05  1.67550963e+00                                 
 1.00030721e-05  8.11712433e-01  1.00030721e-05  7.56993923e-01  1.00030721e-05  7.68734876e-01  1.00030721e-05  0.00000000e+00  1.00030721e-05  1.80446343e+00  1.00030721e-05  7.56172810e-01  1.00030721e-05  8.35355418e-01  1.00030721e-05  1.67503883e+00                                 
 1.00039619e-05  8.11704064e-01  1.00039619e-05  7.57221849e-01  1.00039619e-05  7.66086478e-01  1.00039619e-05  0.00000000e+00  1.00039619e-05  1.79571025e+00  1.00039619e-05  7.58951423e-01  1.00039619e-05  7.72620135e-01  1.00039619e-05  1.67389286e+00                                 
 1.00048046e-05  8.11712325e-01  1.00048046e-05  7.57344416e-01  1.00048046e-05  7.65178405e-01  1.00048046e-05  0.00000000e+00  1.00048046e-05  1.80390259e+00  1.00048046e-05  7.61446675e-01  1.00048046e-05  7.66729200e-01  1.00048046e-05  1.67250254e+00                                 
 1.00057680e-05  8.11704306e-01  1.00057680e-05  7.57140156e-01  1.00057680e-05  7.67430289e-01  1.00057680e-05  0.00000000e+00  1.00057680e-05  1.79634037e+00  1.00057680e-05  7.60447272e-01  1.00057680e-05  7.65818220e-01  1.00057680e-05  1.67057729e+00                                 
 1.00066361e-05  8.11712136e-01  1.00066361e-05  7.57154236e-01  1.00066361e-05  7.67813939e-01  1.00066361e-05  0.00000000e+00  1.00066361e-05  1.80334231e+00  1.00066361e-05  7.61659178e-01  1.00066361e-05  7.68180706e-01  1.00066361e-05  1.66879412e+00                                 
 1.00083722e-05  8.11704468e-01  1.00083722e-05  7.56961484e-01  1.00083722e-05  7.71509984e-01  1.00083722e-05  0.00000000e+00  1.00083722e-05  1.79676843e+00  1.00083722e-05  7.60627079e-01  1.00083722e-05  7.69859039e-01  1.00083722e-05  1.66510973e+00                                 
 1.00118444e-05  8.11712048e-01  1.00118444e-05  7.56946226e-01  1.00118444e-05  7.76330930e-01  1.00118444e-05  0.00000000e+00  1.00118444e-05  1.80314141e+00  1.00118444e-05  7.61582006e-01  1.00118444e-05  7.76549165e-01  1.00118444e-05  1.65780668e+00                                 
