 time            v(vbep)         time            v(vben)         time            v(vout)         time            v(vphi1)        time            v(vphi2)        time            v(vref)         yes             currtemp       
 0.00000000e+00  6.74424857e-01  0.00000000e+00  6.17520569e-01  0.00000000e+00  1.10929641e+00  0.00000000e+00  0.00000000e+00  0.00000000e+00  1.79994306e+00  0.00000000e+00  5.00000000e-01  1.00000000e+00  3.80000000e+01 
 5.00000000e-12  6.74388679e-01  5.00000000e-12  6.17490755e-01  5.00000000e-12  1.11005325e+00  5.00000000e-12  1.80000000e-02  5.00000000e-12  1.80004896e+00  5.00000000e-12  5.00000000e-01                                 
 1.00000000e-11  6.74353757e-01  1.00000000e-11  6.17461839e-01  1.00000000e-11  1.11074131e+00  1.00000000e-11  3.60000000e-02  1.00000000e-11  1.80010560e+00  1.00000000e-11  5.00000000e-01                                 
 2.00000000e-11  6.74284727e-01  2.00000000e-11  6.17404271e-01  2.00000000e-11  1.11201242e+00  2.00000000e-11  7.20000000e-02  2.00000000e-11  1.80016124e+00  2.00000000e-11  5.00000000e-01                                 
 4.00000000e-11  6.74148060e-01  4.00000000e-11  6.17289669e-01  4.00000000e-11  1.11406560e+00  4.00000000e-11  1.44000000e-01  4.00000000e-11  1.80014009e+00  4.00000000e-11  5.00000000e-01                                 
 8.00000000e-11  6.73876294e-01  8.00000000e-11  6.17061691e-01  8.00000000e-11  1.11689255e+00  8.00000000e-11  2.88000000e-01  8.00000000e-11  1.80007833e+00  8.00000000e-11  5.00000000e-01                                 
 1.60000000e-10  6.73339633e-01  1.60000000e-10  6.16610614e-01  1.60000000e-10  1.11965131e+00  1.60000000e-10  5.76000000e-01  1.60000000e-10  1.80001547e+00  1.60000000e-10  5.00000000e-01                                 
 3.20000000e-10  6.72291914e-01  3.20000000e-10  6.15727182e-01  3.20000000e-10  1.11324681e+00  3.20000000e-10  1.15200000e+00  3.20000000e-10  1.80039196e+00  3.20000000e-10  5.00000000e-01                                 
 5.00000000e-10  6.71152485e-01  5.00000000e-10  6.14761967e-01  5.00000000e-10  1.26954363e+00  5.00000000e-10  1.80000000e+00  5.00000000e-10  1.17003957e-01  5.00000000e-10  5.00000000e-01                                 
 5.21504890e-10  6.71019330e-01  5.21504890e-10  6.14648849e-01  5.21504890e-10  1.30621992e+00  5.21504890e-10  1.80000000e+00  5.21504890e-10  2.30428819e-02  5.21504890e-10  5.00000000e-01                                 
 5.64514669e-10  6.70754085e-01  5.64514669e-10  6.14423375e-01  5.64514669e-10  1.37342849e+00  5.64514669e-10  1.80000000e+00  5.64514669e-10 -1.07452050e-02  5.64514669e-10  5.00000000e-01                                 
 6.50534227e-10  6.70230051e-01  6.50534227e-10  6.13977207e-01  6.50534227e-10  1.48399782e+00  6.50534227e-10  1.80000000e+00  6.50534227e-10  8.96517961e-03  6.50534227e-10  5.00000000e-01                                 
 7.72649806e-10  6.69500517e-01  7.72649806e-10  6.13354498e-01  7.72649806e-10  1.60940083e+00  7.72649806e-10  1.80000000e+00  7.72649806e-10 -7.79055784e-03  7.72649806e-10  5.00000000e-01                                 
 9.64386918e-10  6.68387518e-01  9.64386918e-10  6.12400992e-01  9.64386918e-10  1.75357872e+00  9.64386918e-10  1.80000000e+00  9.64386918e-10  7.31610184e-03  9.64386918e-10  5.00000000e-01                                 
 1.34786114e-09  6.66270872e-01  1.34786114e-09  6.10576366e-01  1.34786114e-09  1.91271279e+00  1.34786114e-09  1.80000000e+00  1.34786114e-09 -6.91681278e-03  1.34786114e-09  5.00000000e-01                                 
 1.63173251e-09  6.64791411e-01  1.63173251e-09  6.09292016e-01  1.63173251e-09  1.95947738e+00  1.63173251e-09  1.80000000e+00  1.63173251e-09  6.65701947e-03  1.63173251e-09  5.00000000e-01                                 
 1.97864025e-09  6.63073290e-01  1.97864025e-09  6.07791572e-01  1.97864025e-09  1.98259437e+00  1.97864025e-09  1.80000000e+00  1.97864025e-09 -6.30322611e-03  1.97864025e-09  5.00000000e-01                                 
 2.30960499e-09  6.61518305e-01  2.30960499e-09  6.06425440e-01  2.30960499e-09  1.98967057e+00  2.30960499e-09  1.80000000e+00  2.30960499e-09  6.08779020e-03  2.30960499e-09  5.00000000e-01                                 
 2.87645586e-09  6.59022708e-01  2.87645586e-09  6.04217551e-01  2.87645586e-09  1.99161290e+00  2.87645586e-09  1.80000000e+00  2.87645586e-09 -5.87952340e-03  2.87645586e-09  5.00000000e-01                                 
 3.54326827e-09  6.56325310e-01  3.54326827e-09  6.01810114e-01  3.54326827e-09  1.98960474e+00  3.54326827e-09  1.80000000e+00  3.54326827e-09  5.79553159e-03  3.54326827e-09  5.00000000e-01                                 
 4.82736533e-09  6.51711510e-01  4.82736533e-09  5.97646011e-01  4.82736533e-09  1.98516108e+00  4.82736533e-09  1.80000000e+00  4.82736533e-09 -5.69083797e-03  4.82736533e-09  5.00000000e-01                                 
 6.75927403e-09  6.45872937e-01  6.75927403e-09  5.92296983e-01  6.75927403e-09  1.97965529e+00  6.75927403e-09  1.80000000e+00  6.75927403e-09  5.68936274e-03  6.75927403e-09  5.00000000e-01                                 
 9.52604933e-09  6.39110821e-01  9.52604933e-09  5.86001117e-01  9.52604933e-09  1.97332471e+00  9.52604933e-09  1.80000000e+00  9.52604933e-09 -5.61667463e-03  9.52604933e-09  5.00000000e-01                                 
 1.09429277e-08  6.36196360e-01  1.09429277e-08  5.83254603e-01  1.09429277e-08  1.97066704e+00  1.09429277e-08  1.80000000e+00  1.09429277e-08  5.59204923e-03  1.09429277e-08  5.00000000e-01                                 
 1.25235837e-08  6.33258304e-01  1.25235837e-08  5.80469395e-01  1.25235837e-08  1.96795441e+00  1.25235837e-08  1.80000000e+00  1.25235837e-08 -5.50966141e-03  1.25235837e-08  5.00000000e-01                                 
 1.43130342e-08  6.30258340e-01  1.43130342e-08  5.77609660e-01  1.43130342e-08  1.96527290e+00  1.43130342e-08  1.80000000e+00  1.43130342e-08  5.49217878e-03  1.43130342e-08  5.00000000e-01                                 
 1.72840572e-08  6.25873580e-01  1.72840572e-08  5.73404070e-01  1.72840572e-08  1.96131049e+00  1.72840572e-08  1.80000000e+00  1.72840572e-08 -5.43831800e-03  1.72840572e-08  5.00000000e-01                                 
 2.06772869e-08  6.21576272e-01  2.06772869e-08  5.69254227e-01  2.06772869e-08  1.95754580e+00  2.06772869e-08  1.80000000e+00  2.06772869e-08  5.44068624e-03  2.06772869e-08  5.00000000e-01                                 
 2.60962463e-08  6.15823471e-01  2.60962463e-08  5.63660680e-01  2.60962463e-08  1.95258901e+00  2.60962463e-08  1.80000000e+00  2.60962463e-08 -5.40013349e-03  2.60962463e-08  5.00000000e-01                                 
 3.32924415e-08  6.09654532e-01  3.32924415e-08  5.57617739e-01  3.32924415e-08  1.94749158e+00  3.32924415e-08  1.80000000e+00  3.32924415e-08  5.41496486e-03  3.32924415e-08  5.00000000e-01                                 
 4.76848320e-08  6.00261552e-01  4.76848320e-08  5.48347358e-01  4.76848320e-08  1.93833891e+00  4.76848320e-08  1.80000000e+00  4.76848320e-08 -5.38340658e-03  4.76848320e-08  5.00000000e-01                                 
 6.50292689e-08  5.91784961e-01  6.50292689e-08  5.39975850e-01  6.50292689e-08  1.92076239e+00  6.50292689e-08  1.80000000e+00  6.50292689e-08  5.40502559e-03  6.50292689e-08  5.00000000e-01                                 
 8.67783033e-08  5.82034854e-01  8.67783033e-08  5.30663883e-01  8.67783033e-08  1.89960609e+00  8.67783033e-08  1.80000000e+00  8.67783033e-08 -5.37516450e-03  8.67783033e-08  5.00000000e-01                                 
 1.03582140e-07  5.72714802e-01  1.03582140e-07  5.22305249e-01  1.03582140e-07  1.88219770e+00  1.03582140e-07  1.80000000e+00  1.03582140e-07  5.39656887e-03  1.03582140e-07  5.00000000e-01                                 
 1.21267940e-07  5.64779022e-01  1.21267940e-07  5.15147512e-01  1.21267940e-07  1.84837620e+00  1.21267940e-07  1.80000000e+00  1.21267940e-07 -5.36604713e-03  1.21267940e-07  5.00000000e-01                                 
 1.37506460e-07  5.57930180e-01  1.37506460e-07  5.09035322e-01  1.37506460e-07  1.81841181e+00  1.37506460e-07  1.80000000e+00  1.37506460e-07  5.38738637e-03  1.37506460e-07  5.00000000e-01                                 
 1.54128821e-07  5.51844741e-01  1.54128821e-07  5.03599290e-01  1.54128821e-07  1.79163386e+00  1.54128821e-07  1.80000000e+00  1.54128821e-07 -5.35656053e-03  1.54128821e-07  5.00000000e-01                                 
 1.73527217e-07  5.50637241e-01  1.73527217e-07  5.01989864e-01  1.73527217e-07  1.77360669e+00  1.73527217e-07  1.80000000e+00  1.73527217e-07  5.37892974e-03  1.73527217e-07  5.00000000e-01                                 
 1.96080919e-07  5.55479834e-01  1.96080919e-07  5.05111496e-01  1.96080919e-07  1.77329441e+00  1.96080919e-07  1.80000000e+00  1.96080919e-07 -5.34884685e-03  1.96080919e-07  5.00000000e-01                                 
 2.11939444e-07  5.55895239e-01  2.11939444e-07  5.04972512e-01  2.11939444e-07  1.75850360e+00  2.11939444e-07  1.80000000e+00  2.11939444e-07  5.37027153e-03  2.11939444e-07  5.00000000e-01                                 
 2.31456609e-07  5.52292217e-01  2.31456609e-07  5.01590346e-01  2.31456609e-07  1.73506065e+00  2.31456609e-07  1.80000000e+00  2.31456609e-07 -5.34014740e-03  2.31456609e-07  5.00000000e-01                                 
 2.49617460e-07  5.48371114e-01  2.49617460e-07  4.98033300e-01  2.49617460e-07  1.71396111e+00  2.49617460e-07  1.80000000e+00  2.49617460e-07  5.36190812e-03  2.49617460e-07  5.00000000e-01                                 
 2.69714830e-07  5.43251316e-01  2.69714830e-07  4.93519748e-01  2.69714830e-07  1.68962371e+00  2.69714830e-07  1.80000000e+00  2.69714830e-07 -5.33208354e-03  2.69714830e-07  5.00000000e-01                                 
 3.09909569e-07  5.33333245e-01  3.09909569e-07  4.84858867e-01  3.09909569e-07  1.64056065e+00  3.09909569e-07  1.80000000e+00  3.09909569e-07  5.35608360e-03  3.09909569e-07  5.00000000e-01                                 
 3.70267504e-07  5.18094841e-01  3.70267504e-07  4.71816475e-01  3.70267504e-07  1.56545570e+00  3.70267504e-07  1.80000000e+00  3.70267504e-07 -5.32882619e-03  3.70267504e-07  5.00000000e-01                                 
 4.75668452e-07  4.97643884e-01  4.75668452e-07  4.54390562e-01  4.75668452e-07  1.43928935e+00  4.75668452e-07  1.80000000e+00  4.75668452e-07  5.35412732e-03  4.75668452e-07  5.00000000e-01                                 
 5.62761855e-07  4.63927434e-01  5.62761855e-07  4.26997261e-01  5.62761855e-07  1.31649856e+00  5.62761855e-07  1.80000000e+00  5.62761855e-07 -5.32743868e-03  5.62761855e-07  5.00000000e-01                                 
 6.53070641e-07  4.27732790e-01  6.53070641e-07  3.97887564e-01  6.53070641e-07  1.18752063e+00  6.53070641e-07  1.80000000e+00  6.53070641e-07  5.35238041e-03  6.53070641e-07  5.00000000e-01                                 
 7.60601355e-07  7.28578447e-01  7.60601355e-07  6.69383804e-01  7.60601355e-07  1.36263950e+00  7.60601355e-07  1.80000000e+00  7.60601355e-07 -5.32247093e-03  7.60601355e-07  5.00000000e-01                                 
 7.72941086e-07  7.44742193e-01  7.72941086e-07  6.84992450e-01  7.72941086e-07  1.36630394e+00  7.72941086e-07  1.80000000e+00  7.72941086e-07  3.72597713e-07  7.72941086e-07  5.00000000e-01                                 
 7.97620549e-07  7.63549179e-01  7.97620549e-07  7.02301054e-01  7.97620549e-07  1.35882146e+00  7.97620549e-07  1.80000000e+00  7.97620549e-07  2.53667510e-06  7.97620549e-07  5.00000000e-01                                 
 8.41206512e-07  7.73828952e-01  8.41206512e-07  7.11332100e-01  8.41206512e-07  1.32310449e+00  8.41206512e-07  1.80000000e+00  8.41206512e-07 -4.95630617e-07  8.41206512e-07  5.00000000e-01                                 
 8.87083285e-07  7.77402621e-01  8.87083285e-07  7.14409223e-01  8.87083285e-07  1.27884403e+00  8.87083285e-07  1.80000000e+00  8.87083285e-07  2.34735455e-06  8.87083285e-07  5.00000000e-01                                 
 9.53078759e-07  7.80403705e-01  9.53078759e-07  7.16949968e-01  9.53078759e-07  1.21258649e+00  9.53078759e-07  1.80000000e+00  9.53078759e-07 -5.72093386e-07  9.53078759e-07  5.00000000e-01                                 
 1.03615305e-06  7.78381133e-01  1.03615305e-06  7.15249619e-01  1.03615305e-06  1.12389932e+00  1.03615305e-06  1.80000000e+00  1.03615305e-06  2.26744849e-06  1.03615305e-06  5.00000000e-01                                 
 1.04793950e-06  7.75468514e-01  1.04793950e-06  7.12768284e-01  1.04793950e-06  1.10874993e+00  1.04793950e-06  1.80000000e+00  1.04793950e-06  6.84061033e-07  1.04793950e-06  5.00000000e-01                                 
 1.07151239e-06  7.67315230e-01  1.07151239e-06  7.05680404e-01  1.07151239e-06  1.07640631e+00  1.07151239e-06  1.80000000e+00  1.07151239e-06  5.54051270e-07  1.07151239e-06  5.00000000e-01                                 
 1.11865819e-06  7.61041441e-01  1.11865819e-06  7.00058288e-01  1.11865819e-06  1.02243433e+00  1.11865819e-06  1.80000000e+00  1.11865819e-06  9.63973824e-07  1.11865819e-06  5.00000000e-01                                 
 1.17679846e-06  7.70618665e-01  1.17679846e-06  7.08547306e-01  1.17679846e-06  9.77408717e-01  1.17679846e-06  1.80000000e+00  1.17679846e-06  9.89642912e-07  1.17679846e-06  5.00000000e-01                                 
 1.25640429e-06  7.71012505e-01  1.25640429e-06  7.08905833e-01  1.25640429e-06  9.15901968e-01  1.25640429e-06  1.80000000e+00  1.25640429e-06  7.49712441e-07  1.25640429e-06  5.00000000e-01                                 
 1.33850727e-06  7.65676184e-01  1.33850727e-06  7.04206333e-01  1.33850727e-06  8.57374721e-01  1.33850727e-06  1.80000000e+00  1.33850727e-06  8.77247480e-07  1.33850727e-06  5.00000000e-01                                 
 1.50108744e-06  7.70067535e-01  1.50108744e-06  7.08070910e-01  1.50108744e-06  7.66549933e-01  1.50108744e-06  1.80000000e+00  1.50108744e-06  8.83278158e-07  1.50108744e-06  5.00000000e-01                                 
 1.66354494e-06  7.68568160e-01  1.66354494e-06  7.06763133e-01  1.66354494e-06  6.78982848e-01  1.66354494e-06  1.80000000e+00  1.66354494e-06  8.25099712e-07  1.66354494e-06  5.00000000e-01                                 
 1.89875397e-06  7.67665181e-01  1.89875397e-06  7.05961446e-01  1.89875397e-06  5.66125622e-01  1.89875397e-06  1.80000000e+00  1.89875397e-06  8.90293066e-07  1.89875397e-06  5.00000000e-01                                 
 1.93648356e-06  7.69170552e-01  1.93648356e-06  7.07285998e-01  1.93648356e-06  5.52610835e-01  1.93648356e-06  1.80000000e+00  1.93648356e-06  8.89838027e-07  1.93648356e-06  5.00000000e-01                                 
 2.01194273e-06  7.69233024e-01  2.01194273e-06  7.07344994e-01  2.01194273e-06  5.28543271e-01  2.01194273e-06  1.80000000e+00  2.01194273e-06  8.37576164e-07  2.01194273e-06  5.00000000e-01                                 
 2.16286108e-06  7.67672002e-01  2.16286108e-06  7.05969904e-01  2.16286108e-06  5.01999292e-01  2.16286108e-06  1.80000000e+00  2.16286108e-06  8.70195831e-07  2.16286108e-06  5.00000000e-01                                 
 2.31652400e-06  7.69372285e-01  2.31652400e-06  7.07464697e-01  2.31652400e-06  4.93326243e-01  2.31652400e-06  1.80000000e+00  2.31652400e-06  8.66826231e-07  2.31652400e-06  5.00000000e-01                                 
 2.48116058e-06  7.68103157e-01  2.48116058e-06  7.06351653e-01  2.48116058e-06  4.91569933e-01  2.48116058e-06  1.80000000e+00  2.48116058e-06  8.44170916e-07  2.48116058e-06  5.00000000e-01                                 
 2.51954431e-06  7.68212745e-01  2.51954431e-06  7.06446752e-01  2.51954431e-06  4.94799836e-01  2.51954431e-06  1.80000000e+00  2.51954431e-06  8.62974152e-07  2.51954431e-06  5.00000000e-01                                 
 2.59631177e-06  7.68707228e-01  2.59631177e-06  7.06880974e-01  2.59631177e-06  4.99965913e-01  2.59631177e-06  1.80000000e+00  2.59631177e-06  8.65829613e-07  2.59631177e-06  5.00000000e-01                                 
 2.74984669e-06  7.68633580e-01  2.74984669e-06  7.06817450e-01  2.74984669e-06  5.00982116e-01  2.74984669e-06  1.80000000e+00  2.74984669e-06  8.53158543e-07  2.74984669e-06  5.00000000e-01                                 
 2.99955568e-06  7.68449982e-01  2.99955568e-06  7.06654982e-01  2.99955568e-06  4.99478426e-01  2.99955568e-06  1.80000000e+00  2.99955568e-06  8.66663278e-07  2.99955568e-06  5.00000000e-01                                 
 3.47223273e-06  7.68748508e-01  3.47223273e-06  7.06918238e-01  3.47223273e-06  5.00794507e-01  3.47223273e-06  1.80000000e+00  3.47223273e-06  8.54740903e-07  3.47223273e-06  5.00000000e-01                                 
 4.07630948e-06  7.68399353e-01  4.07630948e-06  7.06610611e-01  4.07630948e-06  4.99649636e-01  4.07630948e-06  1.80000000e+00  4.07630948e-06  8.65056420e-07  4.07630948e-06  5.00000000e-01                                 
 5.07630948e-06  7.68775088e-01  5.07630948e-06  7.06941473e-01  5.07630948e-06  5.00677865e-01  5.07630948e-06  1.80000000e+00  5.07630948e-06  8.56046057e-07  5.07630948e-06  5.00000000e-01                                 
 6.07630948e-06  7.68384874e-01  6.07630948e-06  7.06597967e-01  6.07630948e-06  4.99733088e-01  6.07630948e-06  1.80000000e+00  6.07630948e-06  8.63992640e-07  6.07630948e-06  5.00000000e-01                                 
 7.07630948e-06  7.68785150e-01  7.07630948e-06  7.06950220e-01  7.07630948e-06  5.00599578e-01  7.07630948e-06  1.80000000e+00  7.07630948e-06  8.57151581e-07  7.07630948e-06  5.00000000e-01                                 
 8.07630948e-06  7.68378918e-01  8.07630948e-06  7.06592820e-01  8.07630948e-06  4.99805639e-01  8.07630948e-06  1.80000000e+00  8.07630948e-06  8.62859427e-07  8.07630948e-06  5.00000000e-01                                 
 9.07630948e-06  7.68786958e-01  9.07630948e-06  7.06951717e-01  9.07630948e-06  5.00532610e-01  9.07630948e-06  1.80000000e+00  9.07630948e-06  8.58299057e-07  9.07630948e-06  5.00000000e-01                                 
 1.00005000e-05  7.68381280e-01  1.00005000e-05  7.06594992e-01  1.00005000e-05  4.99869653e-01  1.00005000e-05  1.80000000e+00  1.00005000e-05  8.61663979e-07  1.00005000e-05  5.00000000e-01                                 
 1.00005500e-05  7.68381382e-01  1.00005500e-05  7.06595084e-01  1.00005500e-05  4.91986828e-01  1.00005500e-05  1.62000000e+00  1.00005500e-05 -7.81903465e-05  1.00005500e-05  5.00000000e-01                                 
 1.00006500e-05  7.68381607e-01  1.00006500e-05  7.06595278e-01  1.00006500e-05  4.78175170e-01  1.00006500e-05  1.26000000e+00  1.00006500e-05 -6.05228058e-05  1.00006500e-05  5.00000000e-01                                 
 1.00008500e-05  7.68382108e-01  1.00008500e-05  7.06595707e-01  1.00008500e-05  4.76083649e-01  1.00008500e-05  5.40000000e-01  1.00008500e-05 -4.06026940e-03  1.00008500e-05  5.00000000e-01                                 
 1.00010000e-05  7.68382399e-01  1.00010000e-05  7.06595984e-01  1.00010000e-05  4.37139177e-01  1.00010000e-05  0.00000000e+00  1.00010000e-05  1.57495064e+00  1.00010000e-05  5.00000000e-01                                 
 1.00010213e-05  7.68382395e-01  1.00010213e-05  7.06595997e-01  1.00010213e-05  4.12535652e-01  1.00010213e-05  0.00000000e+00  1.00010213e-05  1.71414873e+00  1.00010213e-05  5.00000000e-01                                 
 1.00010638e-05  7.68382442e-01  1.00010638e-05  7.06596042e-01  1.00010638e-05  3.64514846e-01  1.00010638e-05  0.00000000e+00  1.00010638e-05  1.81665411e+00  1.00010638e-05  5.00000000e-01                                 
