 time            v(vbep)         time            v(vben)         time            v(vout)         time            v(vphi1)        time            v(vphi2)        time            v(vref)         time            v(voutc)        time            v(voutcc)       yes             currtemp       
 0.00000000e+00  7.23632853e-01  0.00000000e+00  6.58255779e-01  0.00000000e+00  1.50590064e+00  0.00000000e+00  0.00000000e+00  0.00000000e+00  1.79999999e+00  0.00000000e+00  6.59191235e-01  0.00000000e+00  1.50590063e+00  0.00000000e+00  1.51325049e+00  1.00000000e+00  6.00000000e+01 
 1.00000000e-11  7.23657960e-01  1.00000000e-11  6.58328135e-01  1.00000000e-11  1.50666842e+00  1.00000000e-11  1.80000000e-02  1.00000000e-11  1.80025364e+00  1.00000000e-11  6.59725601e-01  1.00000000e-11  1.50637247e+00  1.00000000e-11  1.51326409e+00                                 
 2.00000000e-11  7.23664800e-01  2.00000000e-11  6.58372997e-01  2.00000000e-11  1.50713063e+00  2.00000000e-11  3.60000000e-02  2.00000000e-11  1.80035304e+00  2.00000000e-11  6.60120887e-01  2.00000000e-11  1.50672696e+00  2.00000000e-11  1.51326892e+00                                 
 4.00000000e-11  7.23664801e-01  4.00000000e-11  6.58431714e-01  4.00000000e-11  1.50767536e+00  4.00000000e-11  7.20000000e-02  4.00000000e-11  1.80038960e+00  4.00000000e-11  6.60698476e-01  4.00000000e-11  1.50725267e+00  4.00000000e-11  1.51327014e+00                                 
 8.00000000e-11  7.23653198e-01  8.00000000e-11  6.58468715e-01  8.00000000e-11  1.50775819e+00  8.00000000e-11  1.44000000e-01  8.00000000e-11  1.80018411e+00  8.00000000e-11  6.61147951e-01  8.00000000e-11  1.50767399e+00  8.00000000e-11  1.51325960e+00                                 
 1.60000000e-10  7.23650464e-01  1.60000000e-10  6.58478717e-01  1.60000000e-10  1.50742087e+00  1.60000000e-10  2.88000000e-01  1.60000000e-10  1.80000567e+00  1.60000000e-10  6.61240073e-01  1.60000000e-10  1.50771855e+00  1.60000000e-10  1.51325035e+00                                 
 3.20000000e-10  7.23645930e-01  3.20000000e-10  6.58470122e-01  3.20000000e-10  1.50703500e+00  3.20000000e-10  5.76000000e-01  3.20000000e-10  1.79998234e+00  3.20000000e-10  6.61075939e-01  3.20000000e-10  1.50737258e+00  3.20000000e-10  1.51324530e+00                                 
 6.40000000e-10  7.23562750e-01  6.40000000e-10  6.58048512e-01  6.40000000e-10  1.50529890e+00  6.40000000e-10  1.15200000e+00  6.40000000e-10  1.81001939e+00  6.40000000e-10  6.58354792e-01  6.40000000e-10  1.51127564e+00  6.40000000e-10  1.51327094e+00                                 
 1.00000000e-09  7.24145396e-01  1.00000000e-09  6.58420676e-01  1.00000000e-09  1.48412673e+00  1.00000000e-09  1.80000000e+00  1.00000000e-09  1.02103169e-01  1.00000000e-09  6.73484023e-01  1.00000000e-09  1.51583617e+00  1.00000000e-09  1.51326645e+00                                 
 1.03708893e-09  7.24214925e-01  1.03708893e-09  6.58436365e-01  1.03708893e-09  1.48273869e+00  1.03708893e-09  1.80000000e+00  1.03708893e-09  2.38386995e-02  1.03708893e-09  6.76690273e-01  1.03708893e-09  1.51761842e+00  1.03708893e-09  1.51329299e+00                                 
 1.11126679e-09  7.24378423e-01  1.11126679e-09  6.58478656e-01  1.11126679e-09  1.48096976e+00  1.11126679e-09  1.80000000e+00  1.11126679e-09 -1.11823192e-02  1.11126679e-09  6.80771965e-01  1.11126679e-09  1.52079131e+00  1.11126679e-09  1.51330955e+00                                 
 1.25962251e-09  7.24510466e-01  1.25962251e-09  6.58333132e-01  1.25962251e-09  1.47788387e+00  1.25962251e-09  1.80000000e+00  1.25962251e-09  8.92221791e-03  1.25962251e-09  6.80838247e-01  1.25962251e-09  1.52113091e+00  1.25962251e-09  1.51326157e+00                                 
 1.44727846e-09  7.24482534e-01  1.44727846e-09  6.58315372e-01  1.44727846e-09  1.47703342e+00  1.44727846e-09  1.80000000e+00  1.44727846e-09 -6.81471342e-03  1.44727846e-09  6.79927859e-01  1.44727846e-09  1.52013848e+00  1.44727846e-09  1.51329772e+00                                 
 1.65751693e-09  7.24382257e-01  1.65751693e-09  6.58312637e-01  1.65751693e-09  1.47675496e+00  1.65751693e-09  1.80000000e+00  1.65751693e-09  5.66574541e-03  1.65751693e-09  6.78345988e-01  1.65751693e-09  1.51897397e+00  1.65751693e-09  1.51332612e+00                                 
 2.00769770e-09  7.24133739e-01  2.00769770e-09  6.58267756e-01  2.00769770e-09  1.47640172e+00  2.00769770e-09  1.80000000e+00  2.00769770e-09 -5.05534640e-03  2.00769770e-09  6.75691190e-01  2.00769770e-09  1.51654490e+00  2.00769770e-09  1.51344725e+00                                 
 2.51409038e-09  7.23862566e-01  2.51409038e-09  6.58271068e-01  2.51409038e-09  1.47620154e+00  2.51409038e-09  1.80000000e+00  2.51409038e-09  4.58502800e-03  2.51409038e-09  6.72482181e-01  2.51409038e-09  1.51394470e+00  2.51409038e-09  1.51362073e+00                                 
 3.24103241e-09  7.23610141e-01  3.24103241e-09  6.58224519e-01  3.24103241e-09  1.47507224e+00  3.24103241e-09  1.80000000e+00  3.24103241e-09 -4.40274809e-03  3.24103241e-09  6.68200092e-01  3.24103241e-09  1.51014780e+00  3.24103241e-09  1.51386883e+00                                 
 4.38323458e-09  7.23466023e-01  4.38323458e-09  6.58241221e-01  4.38323458e-09  1.47314693e+00  4.38323458e-09  1.80000000e+00  4.38323458e-09  4.19774956e-03  4.38323458e-09  6.63709814e-01  4.38323458e-09  1.50644508e+00  4.38323458e-09  1.51411967e+00                                 
 6.02674218e-09  7.23412988e-01  6.02674218e-09  6.58215419e-01  6.02674218e-09  1.46846423e+00  6.02674218e-09  1.80000000e+00  6.02674218e-09 -4.12361335e-03  6.02674218e-09  6.59570265e-01  6.02674218e-09  1.50279186e+00  6.02674218e-09  1.51421436e+00                                 
 7.47220908e-09  7.23452159e-01  7.47220908e-09  6.58250697e-01  7.47220908e-09  1.46331814e+00  7.47220908e-09  1.80000000e+00  7.47220908e-09  3.99447992e-03  7.47220908e-09  6.58133405e-01  7.47220908e-09  1.50169337e+00  7.47220908e-09  1.51408357e+00                                 
 9.05893629e-09  7.23488689e-01  9.05893629e-09  6.58228570e-01  9.05893629e-09  1.45575707e+00  9.05893629e-09  1.80000000e+00  9.05893629e-09 -3.90174557e-03  9.05893629e-09  6.57082859e-01  9.05893629e-09  1.50067460e+00  9.05893629e-09  1.51383181e+00                                 
 1.04884570e-08  7.23541523e-01  1.04884570e-08  6.58262007e-01  1.04884570e-08  1.44834089e+00  1.04884570e-08  1.80000000e+00  1.04884570e-08  3.78908898e-03  1.04884570e-08  6.57046848e-01  1.04884570e-08  1.50075535e+00  1.04884570e-08  1.51355486e+00                                 
 1.26689320e-08  7.23579835e-01  1.26689320e-08  6.58237500e-01  1.26689320e-08  1.43515139e+00  1.26689320e-08  1.80000000e+00  1.26689320e-08 -3.72126173e-03  1.26689320e-08  6.56786815e-01  1.26689320e-08  1.50040370e+00  1.26689320e-08  1.51312873e+00                                 
 1.50727998e-08  7.23623856e-01  1.50727998e-08  6.58268968e-01  1.50727998e-08  1.41990332e+00  1.50727998e-08  1.80000000e+00  1.50727998e-08  3.65957345e-03  1.50727998e-08  6.57218297e-01  1.50727998e-08  1.50086705e+00  1.50727998e-08  1.51268170e+00                                 
 1.87322145e-08  7.23635524e-01  1.87322145e-08  6.58241564e-01  1.87322145e-08  1.39492151e+00  1.87322145e-08  1.80000000e+00  1.87322145e-08 -3.61868198e-03  1.87322145e-08  6.57359564e-01  1.87322145e-08  1.50085012e+00  1.87322145e-08  1.51209727e+00                                 
 2.32257042e-08  7.23651851e-01  2.32257042e-08  6.58271087e-01  2.32257042e-08  1.36388812e+00  2.32257042e-08  1.80000000e+00  2.32257042e-08  3.58763935e-03  2.32257042e-08  6.58015086e-01  2.32257042e-08  1.50149632e+00  2.32257042e-08  1.51152460e+00                                 
 3.12997902e-08  7.23637727e-01  3.12997902e-08  6.58242141e-01  3.12997902e-08  1.30687903e+00  3.12997902e-08  1.80000000e+00  3.12997902e-08 -3.56875285e-03  3.12997902e-08  6.58301869e-01  3.12997902e-08  1.50160391e+00  3.12997902e-08  1.51081338e+00                                 
 4.40103224e-08  7.23642298e-01  4.40103224e-08  6.58270718e-01  4.40103224e-08  1.21757747e+00  4.40103224e-08  1.80000000e+00  4.40103224e-08  3.55846408e-03  4.40103224e-08  6.58983855e-01  4.40103224e-08  1.50227771e+00  4.40103224e-08  1.51020690e+00                                 
 6.94313870e-08  7.23627909e-01  6.94313870e-08  6.58241319e-01  6.94313870e-08  1.03951755e+00  6.94313870e-08  1.80000000e+00  6.94313870e-08 -3.55161443e-03  6.94313870e-08  6.59036146e-01  6.94313870e-08  1.50220480e+00  6.94313870e-08  1.50979933e+00                                 
 1.01026054e-07  7.23637151e-01  1.01026054e-07  6.58270191e-01  1.01026054e-07  8.25697999e-01  1.01026054e-07  1.80000000e+00  1.01026054e-07  3.55006326e-03  1.01026054e-07  6.59307310e-01  1.01026054e-07  1.50254545e+00  1.01026054e-07  1.50974463e+00                                 
 1.30517957e-07  7.23632258e-01  1.30517957e-07  6.58241462e-01  1.30517957e-07  6.92769697e-01  1.30517957e-07  1.80000000e+00  1.30517957e-07 -3.53584966e-03  1.30517957e-07  6.59072252e-01  1.30517957e-07  1.50223429e+00  1.30517957e-07  1.50974493e+00                                 
 1.52629222e-07  7.23632769e-01  1.52629222e-07  6.58270304e-01  1.52629222e-07  6.65020620e-01  1.52629222e-07  1.80000000e+00  1.52629222e-07  3.54454610e-03  1.52629222e-07  6.59317764e-01  1.52629222e-07  1.50255236e+00  1.52629222e-07  1.50974575e+00                                 
 1.74596398e-07  7.23630301e-01  1.74596398e-07  6.58241043e-01  1.74596398e-07  6.60825693e-01  1.74596398e-07  1.80000000e+00  1.74596398e-07 -3.52194178e-03  1.74596398e-07  6.59069981e-01  1.74596398e-07  1.50223116e+00  1.74596398e-07  1.50974689e+00                                 
 1.94570469e-07  7.23635365e-01  1.94570469e-07  6.58270496e-01  1.94570469e-07  6.60343489e-01  1.94570469e-07  1.80000000e+00  1.94570469e-07  3.53162643e-03  1.94570469e-07  6.59313387e-01  1.94570469e-07  1.50254703e+00  1.94570469e-07  1.50974437e+00                                 
 2.22925813e-07  7.23629821e-01  2.22925813e-07  6.58241045e-01  2.22925813e-07  6.60105823e-01  2.22925813e-07  1.80000000e+00  2.22925813e-07 -3.51027398e-03  2.22925813e-07  6.59069521e-01  2.22925813e-07  1.50222930e+00  2.22925813e-07  1.50974374e+00                                 
 2.75325942e-07  7.23636067e-01  2.75325942e-07  6.58270497e-01  2.75325942e-07  6.60198463e-01  2.75325942e-07  1.80000000e+00  2.75325942e-07  3.52419441e-03  2.75325942e-07  6.59312863e-01  2.75325942e-07  1.50254379e+00  2.75325942e-07  1.50974059e+00                                 
 3.80126199e-07  7.23629551e-01  3.80126199e-07  6.58241054e-01  3.80126199e-07  6.60098052e-01  3.80126199e-07  1.80000000e+00  3.80126199e-07 -3.50637447e-03  3.80126199e-07  6.59069583e-01  3.80126199e-07  1.50222425e+00  3.80126199e-07  1.50973807e+00                                 
 5.89726714e-07  7.23636199e-01  5.89726714e-07  6.58270493e-01  5.89726714e-07  6.60200946e-01  5.89726714e-07  1.80000000e+00  5.89726714e-07  3.52223858e-03  5.89726714e-07  6.59312834e-01  5.89726714e-07  1.50253345e+00  5.89726714e-07  1.50973031e+00                                 
 1.00892774e-06  7.23629486e-01  1.00892774e-06  6.58241057e-01  1.00892774e-06  6.60096931e-01  1.00892774e-06  1.80000000e+00  1.00892774e-06 -3.50540357e-03  1.00892774e-06  6.59069597e-01  1.00892774e-06  1.50220366e+00  1.00892774e-06  1.50971749e+00                                 
 1.84732980e-06  7.23636231e-01  1.84732980e-06  6.58270491e-01  1.84732980e-06  6.60201484e-01  1.84732980e-06  1.80000000e+00  1.84732980e-06  3.52174991e-03  1.84732980e-06  6.59312827e-01  1.84732980e-06  1.50249216e+00  1.84732980e-06  1.50968910e+00                                 
 3.04732980e-06  7.23629468e-01  3.04732980e-06  6.58241057e-01  3.04732980e-06  6.60096629e-01  3.04732980e-06  1.80000000e+00  3.04732980e-06 -3.50514044e-03  3.04732980e-06  6.59069600e-01  3.04732980e-06  1.50213680e+00  3.04732980e-06  1.50965070e+00                                 
 4.24732980e-06  7.23636246e-01  4.24732980e-06  6.58270490e-01  4.24732980e-06  6.60201725e-01  4.24732980e-06  1.80000000e+00  4.24732980e-06  3.52152311e-03  4.24732980e-06  6.59312824e-01  4.24732980e-06  1.50241350e+00  4.24732980e-06  1.50961054e+00                                 
 5.44732980e-06  7.23629453e-01  5.44732980e-06  6.58241058e-01  5.44732980e-06  6.60096386e-01  5.44732980e-06  1.80000000e+00  5.44732980e-06 -3.50491906e-03  5.44732980e-06  6.59069603e-01  5.44732980e-06  1.50205817e+00  5.44732980e-06  1.50957216e+00                                 
 6.00100000e-06  7.23636270e-01  6.00100000e-06  6.58270490e-01  6.00100000e-06  6.60202103e-01  6.00100000e-06  1.80000000e+00  6.00100000e-06  3.52116277e-03  6.00100000e-06  6.59312819e-01  6.00100000e-06  1.50235602e+00  6.00100000e-06  1.50955314e+00                                 
 6.00110000e-06  7.23583544e-01  6.00110000e-06  6.58018180e-01  6.00110000e-06  6.58342087e-01  6.00110000e-06  1.62000000e+00  6.00110000e-06  2.12453265e-04  6.00110000e-06  6.57634076e-01  6.00110000e-06  1.50087175e+00  6.00110000e-06  1.50954241e+00                                 
 6.00130000e-06  7.23616246e-01  6.00130000e-06  6.58015047e-01  6.00130000e-06  6.58432160e-01  6.00130000e-06  1.26000000e+00  6.00130000e-06 -2.46747227e-04  6.00130000e-06  6.57394513e-01  6.00130000e-06  1.50066093e+00  6.00130000e-06  1.50955870e+00                                 
 6.00165559e-06  7.23680863e-01  6.00165559e-06  6.58212559e-01  6.00165559e-06  6.60430241e-01  6.00165559e-06  6.19946767e-01  6.00165559e-06  4.92583518e-03  6.00165559e-06  6.57726552e-01  6.00165559e-06  1.49764864e+00  6.00165559e-06  1.50953506e+00                                 
 6.00200000e-06  7.23618432e-01  6.00200000e-06  6.56784122e-01  6.00200000e-06  6.92851702e-01  6.00200000e-06  0.00000000e+00  6.00200000e-06  1.60218932e+00  6.00200000e-06  6.42648660e-01  6.00200000e-06  1.30291877e+00  6.00200000e-06  1.50895534e+00                                 
 6.00204109e-06  7.23633879e-01  6.00204109e-06  6.56313806e-01  6.00204109e-06  6.99621921e-01  6.00204109e-06  0.00000000e+00  6.00204109e-06  1.72296436e+00  6.00204109e-06  6.37311346e-01  6.00204109e-06  1.24063811e+00  6.00204109e-06  1.50896590e+00                                 
 6.00212328e-06  7.23635024e-01  6.00212328e-06  6.55487179e-01  6.00212328e-06  7.04579172e-01  6.00212328e-06  0.00000000e+00  6.00212328e-06  1.81323851e+00  6.00212328e-06  6.28166002e-01  6.00212328e-06  1.11230871e+00  6.00212328e-06  1.50934082e+00                                 
 6.00228765e-06  7.23630598e-01  6.00228765e-06  6.55367798e-01  6.00228765e-06  6.95487822e-01  6.00228765e-06  0.00000000e+00  6.00228765e-06  1.78950039e+00  6.00228765e-06  6.27634369e-01  6.00228765e-06  9.08954620e-01  6.00228765e-06  1.50981752e+00                                 
 6.00244553e-06  7.23633164e-01  6.00244553e-06  6.56034393e-01  6.00244553e-06  6.86954097e-01  6.00244553e-06  0.00000000e+00  6.00244553e-06  1.80377367e+00  6.00244553e-06  6.35197770e-01  6.00244553e-06  7.89768972e-01  6.00244553e-06  1.50979626e+00                                 
 6.00262943e-06  7.23629925e-01  6.00262943e-06  6.56930906e-01  6.00262943e-06  6.74728195e-01  6.00262943e-06  0.00000000e+00  6.00262943e-06  1.79685551e+00  6.00262943e-06  6.44133627e-01  6.00262943e-06  7.11942789e-01  6.00262943e-06  1.51000366e+00                                 
 6.00285453e-06  7.23632998e-01  6.00285453e-06  6.57930405e-01  6.00285453e-06  6.65561613e-01  6.00285453e-06  0.00000000e+00  6.00285453e-06  1.80189158e+00  6.00285453e-06  6.53628345e-01  6.00285453e-06  6.77417247e-01  6.00285453e-06  1.50972818e+00                                 
 6.00308329e-06  7.23630422e-01  6.00308329e-06  6.58366842e-01  6.00308329e-06  6.62513826e-01  6.00308329e-06  0.00000000e+00  6.00308329e-06  1.79885004e+00  6.00308329e-06  6.56881343e-01  6.00308329e-06  6.65637594e-01  6.00308329e-06  1.50915080e+00                                 
 6.00332857e-06  7.23633246e-01  6.00332857e-06  6.58649822e-01  6.00332857e-06  6.61125792e-01  6.00332857e-06  0.00000000e+00  6.00332857e-06  1.80082937e+00  6.00332857e-06  6.59235351e-01  6.00332857e-06  6.62664621e-01  6.00332857e-06  1.50811742e+00                                 
 6.00368052e-06  7.23631125e-01  6.00368052e-06  6.58716631e-01  6.00368052e-06  6.61547541e-01  6.00368052e-06  0.00000000e+00  6.00368052e-06  1.79941367e+00  6.00368052e-06  6.59661470e-01  6.00368052e-06  6.61188090e-01  6.00368052e-06  1.50646221e+00                                 
 6.00422915e-06  7.23633635e-01  6.00422915e-06  6.58749214e-01  6.00422915e-06  6.62405222e-01  6.00422915e-06  0.00000000e+00  6.00422915e-06  1.80051594e+00  6.00422915e-06  6.60453595e-01  6.00422915e-06  6.62509951e-01  6.00422915e-06  1.50346042e+00                                 
 6.00516024e-06  7.23631655e-01  6.00516024e-06  6.58650784e-01  6.00516024e-06  6.65215975e-01  6.00516024e-06  0.00000000e+00  6.00516024e-06  1.79956245e+00  6.00516024e-06  6.60252260e-01  6.00516024e-06  6.64570296e-01  6.00516024e-06  1.49804118e+00                                 
 6.00680803e-06  7.23633863e-01  6.00680803e-06  6.58561968e-01  6.00680803e-06  6.69641541e-01  6.00680803e-06  0.00000000e+00  6.00680803e-06  1.80043577e+00  6.00680803e-06  6.60650400e-01  6.00680803e-06  6.69634111e-01  6.00680803e-06  1.48778774e+00                                 
 6.01010359e-06  7.23631802e-01  6.01010359e-06  6.58346799e-01  6.01010359e-06  6.79486580e-01  6.01010359e-06  0.00000000e+00  6.01010359e-06  1.79960134e+00  6.01010359e-06  6.60142324e-01  6.01010359e-06  6.78785984e-01  6.01010359e-06  1.46647743e+00                                 
 6.01669473e-06  7.23633890e-01  6.01669473e-06  6.58245137e-01  6.01669473e-06  6.97837849e-01  6.01669473e-06  0.00000000e+00  6.01669473e-06  1.80041579e+00  6.01669473e-06  6.60125017e-01  6.01669473e-06  6.97819415e-01  6.01669473e-06  1.42235233e+00                                 
 6.02987700e-06  7.23631814e-01  6.02987700e-06  6.58230905e-01  6.02987700e-06  7.33705724e-01  6.02987700e-06  0.00000000e+00  6.02987700e-06  1.79960979e+00  6.02987700e-06  6.59331476e-01  6.02987700e-06  7.32889076e-01  6.02987700e-06  1.33846400e+00                                 
 6.04415413e-06  7.23633888e-01  6.04415413e-06  6.58265256e-01  6.04415413e-06  7.69434338e-01  6.04415413e-06  0.00000000e+00  6.04415413e-06  1.80040852e+00  6.04415413e-06  6.59467323e-01  6.04415413e-06  7.69462135e-01  6.04415413e-06  1.25693047e+00                                 
 6.07270838e-06  7.23631820e-01  6.07270838e-06  6.58241883e-01  6.07270838e-06  8.34585954e-01  6.07270838e-06  0.00000000e+00  6.07270838e-06  1.79961156e+00  6.07270838e-06  6.59016391e-01  6.07270838e-06  8.33309398e-01  6.07270838e-06  1.11420426e+00                                 
 6.11342238e-06  7.23633887e-01  6.11342238e-06  6.58269675e-01  6.11342238e-06  9.11791667e-01  6.11342238e-06  0.00000000e+00  6.11342238e-06  1.80040260e+00  6.11342238e-06  6.59350817e-01  6.11342238e-06  9.12079995e-01  6.11342238e-06  9.76689133e-01                                 
 6.19485036e-06  7.23631821e-01  6.19485036e-06  6.58241866e-01  6.19485036e-06  1.02505793e+00  6.19485036e-06  0.00000000e+00  6.19485036e-06  1.79960770e+00  6.19485036e-06  6.59013777e-01  6.19485036e-06  1.02257196e+00  6.19485036e-06  9.73045857e-01                                 
 6.24724406e-06  7.23633886e-01  6.24724406e-06  6.58269829e-01  6.24724406e-06  1.07365375e+00  6.24724406e-06  0.00000000e+00  6.24724406e-06  1.80039751e+00  6.24724406e-06  6.59359581e-01  6.24724406e-06  1.07466469e+00  6.24724406e-06  1.05563380e+00                                 
