 time            v(vbep)         time            v(vben)         time            v(vout)         time            v(vphi1)        time            v(vphi2)        time            v(vref)         time            v(vouts)        time            v(vptat)        yes             currtemp       
 0.00000000e+00  7.84077808e-01  0.00000000e+00  7.27243296e-01  0.00000000e+00  8.97659571e-01  0.00000000e+00  1.29742556e-07  0.00000000e+00  1.80000000e+00  0.00000000e+00  9.00000000e-01  0.00000000e+00  6.68724149e-01  0.00000000e+00  1.63044855e+00  1.00000000e+00  2.00000000e+01 
 1.00000000e-11  7.84077814e-01  1.00000000e-11  7.27243302e-01  1.00000000e-11  8.97659575e-01  1.00000000e-11  4.40234178e-07  1.00000000e-11  1.80000333e+00  1.00000000e-11  9.00000000e-01  1.00000000e-11  6.68724254e-01  1.00000000e-11  1.63044855e+00                                 
 2.00000000e-11  7.84077809e-01  2.00000000e-11  7.27243298e-01  2.00000000e-11  8.97659576e-01  2.00000000e-11  1.65000465e-07  2.00000000e-11  1.80000286e+00  2.00000000e-11  9.00000000e-01  2.00000000e-11  6.68724151e-01  2.00000000e-11  1.63044855e+00                                 
 4.00000000e-11  7.84077804e-01  4.00000000e-11  7.27243292e-01  4.00000000e-11  8.97659577e-01  4.00000000e-11 -1.69412531e-07  4.00000000e-11  1.80000085e+00  4.00000000e-11  9.00000000e-01  4.00000000e-11  6.68723967e-01  4.00000000e-11  1.63044855e+00                                 
 8.00000000e-11  7.84077809e-01  8.00000000e-11  7.27243293e-01  8.00000000e-11  8.97659573e-01  8.00000000e-11  1.14548623e-07  8.00000000e-11  1.79999880e+00  8.00000000e-11  9.00000000e-01  8.00000000e-11  6.68723932e-01  8.00000000e-11  1.63044855e+00                                 
 1.60000000e-10  7.84077809e-01  1.60000000e-10  7.27243296e-01  1.60000000e-10  8.97659564e-01  1.60000000e-10  2.09259062e-07  1.60000000e-10  1.79999959e+00  1.60000000e-10  9.00000000e-01  1.60000000e-10  6.68724052e-01  1.60000000e-10  1.63044855e+00                                 
 3.20000000e-10  7.84077808e-01  3.20000000e-10  7.27243295e-01  3.20000000e-10  8.97659556e-01  3.20000000e-10  6.49320332e-08  3.20000000e-10  1.79999995e+00  3.20000000e-10  9.00000000e-01  3.20000000e-10  6.68724069e-01  3.20000000e-10  1.63044855e+00                                 
 5.32513796e-10  7.84077805e-01  5.32513796e-10  7.27243288e-01  5.32513796e-10  8.97659424e-01  5.32513796e-10  7.64707229e-06  5.32513796e-10  1.79997923e+00  5.32513796e-10  9.00000000e-01  5.32513796e-10  6.68723975e-01  5.32513796e-10  1.63044855e+00                                 
 7.57947257e-10  7.84117781e-01  7.57947257e-10  7.27315047e-01  7.57947257e-10  8.97691697e-01  7.57947257e-10  1.03649088e+00  7.57947257e-10  1.77464469e+00  7.57947257e-10  9.00000000e-01  7.57947257e-10  6.70597288e-01  7.57947257e-10  1.63044855e+00                                 
 9.21953102e-10  7.83904462e-01  9.21953102e-10  7.27058270e-01  9.21953102e-10  8.94296497e-01  9.21953102e-10  1.79485217e+00  9.21953102e-10  5.13313381e-01  9.21953102e-10  9.00000000e-01  9.21953102e-10  6.77033155e-01  9.21953102e-10  1.63044854e+00                                 
 1.00000000e-09  7.84481375e-01  1.00000000e-09  7.27395793e-01  1.00000000e-09  8.90609624e-01  1.00000000e-09  1.80302279e+00  1.00000000e-09 -8.34394571e-03  1.00000000e-09  9.00000000e-01  1.00000000e-09  6.91363748e-01  1.00000000e-09  1.63044853e+00                                 
 1.01755111e-09  7.84595175e-01  1.01755111e-09  7.27500917e-01  1.01755111e-09  8.89713028e-01  1.01755111e-09  1.80268237e+00  1.01755111e-09 -2.23930905e-03  1.01755111e-09  9.00000000e-01  1.01755111e-09  6.94000306e-01  1.01755111e-09  1.63044852e+00                                 
 1.05265332e-09  7.84632517e-01  1.05265332e-09  7.27565805e-01  1.05265332e-09  8.87939544e-01  1.05265332e-09  1.80283362e+00  1.05265332e-09  4.75102224e-03  1.05265332e-09  9.00000000e-01  1.05265332e-09  6.96060194e-01  1.05265332e-09  1.63044852e+00                                 
 1.12285774e-09  7.84600454e-01  1.12285774e-09  7.27300893e-01  1.12285774e-09  8.84635722e-01  1.12285774e-09  1.80151824e+00  1.12285774e-09  1.94730396e-03  1.12285774e-09  9.00000000e-01  1.12285774e-09  6.89945751e-01  1.12285774e-09  1.63044850e+00                                 
 1.25643365e-09  7.84774655e-01  1.25643365e-09  7.27055307e-01  1.25643365e-09  8.79325672e-01  1.25643365e-09  1.80054135e+00  1.25643365e-09  2.23294265e-05  1.25643365e-09  9.00000000e-01  1.25643365e-09  6.84966015e-01  1.25643365e-09  1.63044848e+00                                 
 1.44651714e-09  7.84831596e-01  1.44651714e-09  7.26880841e-01  1.44651714e-09  8.73706730e-01  1.44651714e-09  1.80073640e+00  1.44651714e-09  4.97795997e-04  1.44651714e-09  9.00000000e-01  1.44651714e-09  6.82829541e-01  1.44651714e-09  1.63044845e+00                                 
 1.70944139e-09  7.84888168e-01  1.70944139e-09  7.26776493e-01  1.70944139e-09  8.68609237e-01  1.70944139e-09  1.80011107e+00  1.70944139e-09  6.23631148e-05  1.70944139e-09  9.00000000e-01  1.70944139e-09  6.80220410e-01  1.70944139e-09  1.63044840e+00                                 
 2.23528989e-09  7.84642619e-01  2.23528989e-09  7.26851331e-01  2.23528989e-09  8.63510184e-01  2.23528989e-09  1.80024757e+00  2.23528989e-09  1.20184746e-04  2.23528989e-09  9.00000000e-01  2.23528989e-09  6.77690369e-01  2.23528989e-09  1.63044831e+00                                 
 2.73761870e-09  7.84390391e-01  2.73761870e-09  7.27038863e-01  2.73761870e-09  8.61917165e-01  2.73761870e-09  1.79981684e+00  2.73761870e-09 -1.01909024e-04  2.73761870e-09  9.00000000e-01  2.73761870e-09  6.75720507e-01  2.73761870e-09  1.63044822e+00                                 
 3.30494046e-09  7.84145667e-01  3.30494046e-09  7.27215695e-01  3.30494046e-09  8.61452196e-01  3.30494046e-09  1.80013749e+00  3.30494046e-09  3.44551644e-05  3.30494046e-09  9.00000000e-01  3.30494046e-09  6.74036765e-01  3.30494046e-09  1.63044812e+00                                 
 3.95285724e-09  7.84049303e-01  3.95285724e-09  7.27355641e-01  3.95285724e-09  8.61562112e-01  3.95285724e-09  1.79981347e+00  3.95285724e-09 -9.80781875e-05  3.95285724e-09  9.00000000e-01  3.95285724e-09  6.72269888e-01  3.95285724e-09  1.63044800e+00                                 
 5.24869081e-09  7.83947312e-01  5.24869081e-09  7.27468881e-01  5.24869081e-09  8.62372044e-01  5.24869081e-09  1.80011779e+00  5.24869081e-09  1.47808086e-05  5.24869081e-09  9.00000000e-01  5.24869081e-09  6.70060861e-01  5.24869081e-09  1.63044778e+00                                 
 6.62604628e-09  7.83966576e-01  6.62604628e-09  7.27459478e-01  6.62604628e-09  8.63512263e-01  6.62604628e-09  1.79981102e+00  6.62604628e-09 -8.77860137e-05  6.62604628e-09  9.00000000e-01  6.62604628e-09  6.68549617e-01  6.62604628e-09  1.63044754e+00                                 
 8.40513291e-09  7.83939551e-01  8.40513291e-09  7.27379289e-01  8.40513291e-09  8.65067390e-01  8.40513291e-09  1.80011597e+00  8.40513291e-09  2.32238504e-05  8.40513291e-09  9.00000000e-01  8.40513291e-09  6.67509502e-01  8.40513291e-09  1.63044722e+00                                 
 1.04927001e-08  7.83983784e-01  1.04927001e-08  7.27292997e-01  1.04927001e-08  8.66901365e-01  1.04927001e-08  1.79983397e+00  1.04927001e-08 -6.76217904e-05  1.04927001e-08  9.00000000e-01  1.04927001e-08  6.66564868e-01  1.04927001e-08  1.63044686e+00                                 
 1.36110664e-08  7.84001584e-01  1.36110664e-08  7.27214145e-01  1.36110664e-08  8.69522272e-01  1.36110664e-08  1.80012610e+00  1.36110664e-08  3.13967465e-05  1.36110664e-08  9.00000000e-01  1.36110664e-08  6.65651849e-01  1.36110664e-08  1.63044632e+00                                 
 1.79526664e-08  7.84055210e-01  1.79526664e-08  7.27194293e-01  1.79526664e-08  8.72843543e-01  1.79526664e-08  1.79984258e+00  1.79526664e-08 -5.49330572e-05  1.79526664e-08  9.00000000e-01  1.79526664e-08  6.64488564e-01  1.79526664e-08  1.63044558e+00                                 
 2.45877291e-08  7.84045525e-01  2.45877291e-08  7.27213041e-01  2.45877291e-08  8.77186591e-01  2.45877291e-08  1.80013396e+00  2.45877291e-08  4.06562475e-05  2.45877291e-08  9.00000000e-01  2.45877291e-08  6.63275306e-01  2.45877291e-08  1.63044445e+00                                 
 3.16515204e-08  7.84090103e-01  3.16515204e-08  7.27235684e-01  3.16515204e-08  8.80968218e-01  3.16515204e-08  1.79985335e+00  3.16515204e-08 -4.77569783e-05  3.16515204e-08  9.00000000e-01  3.16515204e-08  6.62271028e-01  3.16515204e-08  1.63044327e+00                                 
 4.37534298e-08  7.84072404e-01  4.37534298e-08  7.27243121e-01  4.37534298e-08  8.85916920e-01  4.37534298e-08  1.80013743e+00  4.37534298e-08  4.20952076e-05  4.37534298e-08  9.00000000e-01  4.37534298e-08  6.61478650e-01  4.37534298e-08  1.63044127e+00                                 
 5.83728783e-08  7.84095939e-01  5.83728783e-08  7.27247412e-01  5.83728783e-08  8.90008577e-01  5.83728783e-08  1.79985494e+00  5.83728783e-08 -4.65152658e-05  5.83728783e-08  9.00000000e-01  5.83728783e-08  6.61236373e-01  5.83728783e-08  1.63043891e+00                                 
 7.36441663e-08  7.84067370e-01  7.36441663e-08  7.27243504e-01  7.36441663e-08  8.92809558e-01  7.36441663e-08  1.80013609e+00  7.36441663e-08  4.14467837e-05  7.36441663e-08  9.00000000e-01  7.36441663e-08  6.61699653e-01  7.36441663e-08  1.63043650e+00                                 
 1.03505478e-07  7.84091408e-01  1.03505478e-07  7.27245196e-01  1.03505478e-07  8.95887570e-01  1.03505478e-07  1.79985426e+00  1.03505478e-07 -4.62642834e-05  1.03505478e-07  9.00000000e-01  1.03505478e-07  6.63057006e-01  1.03505478e-07  1.63043190e+00                                 
 1.63228102e-07  7.84064841e-01  1.63228102e-07  7.27241695e-01  1.63228102e-07  8.97979267e-01  1.63228102e-07  1.80013210e+00  1.63228102e-07  4.12546958e-05  1.63228102e-07  9.00000000e-01  1.63228102e-07  6.65994015e-01  1.63228102e-07  1.63042308e+00                                 
 2.45686818e-07  7.84090789e-01  2.45686818e-07  7.27244836e-01  2.45686818e-07  8.98332914e-01  2.45686818e-07  1.79985264e+00  2.45686818e-07 -4.45324149e-05  2.45686818e-07  9.00000000e-01  2.45686818e-07  6.68171098e-01  2.45686818e-07  1.63041147e+00                                 
 3.29304616e-07  7.84065005e-01  3.29304616e-07  7.27241785e-01  3.29304616e-07  8.98317418e-01  3.29304616e-07  1.80014077e+00  3.29304616e-07  4.34303526e-05  3.29304616e-07  9.00000000e-01  3.29304616e-07  6.68983289e-01  3.29304616e-07  1.63040007e+00                                 
 3.89446373e-07  7.84090306e-01  3.89446373e-07  7.27244792e-01  3.89446373e-07  8.98270044e-01  3.89446373e-07  1.79985793e+00  3.89446373e-07 -4.30955978e-05  3.89446373e-07  9.00000000e-01  3.89446373e-07  6.69059023e-01  3.89446373e-07  1.63039200e+00                                 
 4.48028641e-07  7.84065572e-01  4.48028641e-07  7.27241802e-01  4.48028641e-07  8.98215143e-01  4.48028641e-07  1.80014264e+00  4.48028641e-07  4.38393896e-05  4.48028641e-07  9.00000000e-01  4.48028641e-07  6.69168781e-01  4.48028641e-07  1.63038420e+00                                 
 4.99042836e-07  7.84089572e-01  4.99042836e-07  7.27244781e-01  4.99042836e-07  8.98157992e-01  4.99042836e-07  1.79985865e+00  4.99042836e-07 -4.30638351e-05  4.99042836e-07  9.00000000e-01  4.99042836e-07  6.69093531e-01  4.99042836e-07  1.63037743e+00                                 
 5.53300909e-07  7.84066155e-01  5.53300909e-07  7.27241818e-01  5.53300909e-07  8.98100545e-01  5.53300909e-07  1.80014191e+00  5.53300909e-07  4.35880489e-05  5.53300909e-07  9.00000000e-01  5.53300909e-07  6.69136052e-01  5.53300909e-07  1.63037025e+00                                 
 6.34531586e-07  7.84089468e-01  6.34531586e-07  7.27244765e-01  6.34531586e-07  8.98012873e-01  6.34531586e-07  1.79985884e+00  6.34531586e-07 -4.30009735e-05  6.34531586e-07  9.00000000e-01  6.34531586e-07  6.69013060e-01  6.34531586e-07  1.63035952e+00                                 
 7.51654832e-07  7.84066139e-01  7.51654832e-07  7.27241829e-01  7.51654832e-07  8.97904634e-01  7.51654832e-07  1.80014172e+00  7.51654832e-07  4.34448937e-05  7.51654832e-07  9.00000000e-01  7.51654832e-07  6.68996107e-01  7.51654832e-07  1.63034406e+00                                 
 9.54950944e-07  7.84089483e-01  9.54950944e-07  7.27244758e-01  9.54950944e-07  8.97756098e-01  9.54950944e-07  1.79985885e+00  9.54950944e-07 -4.30279644e-05  9.54950944e-07  9.00000000e-01  9.54950944e-07  6.68803075e-01  9.54950944e-07  1.63031725e+00                                 
 1.33311930e-06  7.84066130e-01  1.33311930e-06  7.27241832e-01  1.33311930e-06  8.97605515e-01  1.33311930e-06  1.80014161e+00  1.33311930e-06  4.33422027e-05  1.33311930e-06  9.00000000e-01  1.33311930e-06  6.68732995e-01  1.33311930e-06  1.63026737e+00                                 
 2.08945601e-06  7.84089487e-01  2.08945601e-06  7.27244757e-01  2.08945601e-06  8.97514966e-01  2.08945601e-06  1.79985884e+00  2.08945601e-06 -4.30677751e-05  2.08945601e-06  9.00000000e-01  2.08945601e-06  6.68582904e-01  2.08945601e-06  1.63016759e+00                                 
 3.08945601e-06  7.84066127e-01  3.08945601e-06  7.27241833e-01  3.08945601e-06  8.97515235e-01  3.08945601e-06  1.80014158e+00  3.08945601e-06  4.33143210e-05  3.08945601e-06  9.00000000e-01  3.08945601e-06  6.68648858e-01  3.08945601e-06  1.63003568e+00                                 
 4.08945601e-06  7.84089489e-01  4.08945601e-06  7.27244756e-01  4.08945601e-06  8.97513026e-01  4.08945601e-06  1.79985885e+00  4.08945601e-06 -4.30609570e-05  4.08945601e-06  9.00000000e-01  4.08945601e-06  6.68581170e-01  4.08945601e-06  1.62990380e+00                                 
 5.08945601e-06  7.84066125e-01  5.08945601e-06  7.27241834e-01  5.08945601e-06  8.97516104e-01  5.08945601e-06  1.80014157e+00  5.08945601e-06  4.33070115e-05  5.08945601e-06  9.00000000e-01  5.08945601e-06  6.68649431e-01  5.08945601e-06  1.62977197e+00                                 
 6.00100000e-06  7.84089491e-01  6.00100000e-06  7.27244755e-01  6.00100000e-06  8.97513651e-01  6.00100000e-06  1.79985887e+00  6.00100000e-06 -4.30532171e-05  6.00100000e-06  9.00000000e-01  6.00100000e-06  6.68581729e-01  6.00100000e-06  1.62965182e+00                                 
 6.00110000e-06  7.84078431e-01  6.00110000e-06  7.27243344e-01  6.00110000e-06  8.97513840e-01  6.00110000e-06  1.79998886e+00  6.00110000e-06 -7.47764086e-06  6.00110000e-06  9.00000000e-01  6.00110000e-06  6.68608856e-01  6.00110000e-06  1.62965181e+00                                 
 6.00130000e-06  7.84076446e-01  6.00130000e-06  7.27243346e-01  6.00130000e-06  8.97514162e-01  6.00130000e-06  1.80000571e+00  6.00130000e-06  4.49011424e-06  6.00130000e-06  9.00000000e-01  6.00130000e-06  6.68617749e-01  6.00130000e-06  1.62965178e+00                                 
 6.00156535e-06  7.84078006e-01  6.00156535e-06  7.27243355e-01  6.00156535e-06  8.97514282e-01  6.00156535e-06  1.79996284e+00  6.00156535e-06 -3.59950386e-06  6.00156535e-06  9.00000000e-01  6.00156535e-06  6.68612538e-01  6.00156535e-06  1.62965175e+00                                 
 6.00183655e-06  7.84090421e-01  6.00183655e-06  7.27249226e-01  6.00183655e-06  8.97615856e-01  6.00183655e-06  1.80003560e+00  6.00183655e-06  1.18963431e+00  6.00183655e-06  9.00000000e-01  6.00183655e-06  6.68309683e-01  6.00183655e-06  1.62965171e+00                                 
 6.00200000e-06  7.83901392e-01  6.00200000e-06  7.27459101e-01  6.00200000e-06  8.96915722e-01  6.00200000e-06  9.28466386e-01  6.00200000e-06  1.81707576e+00  6.00200000e-06  9.00000000e-01  6.00200000e-06  6.75523753e-01  6.00200000e-06  1.62965168e+00                                 
 6.00202564e-06  7.83986132e-01  6.00202564e-06  7.27530828e-01  6.00202564e-06  8.96515382e-01  6.00202564e-06  5.39203615e-01  6.00202564e-06  1.81241564e+00  6.00202564e-06  9.00000000e-01  6.00202564e-06  6.76381437e-01  6.00202564e-06  1.62965167e+00                                 
 6.00207691e-06  7.84218962e-01  6.00207691e-06  7.27825131e-01  6.00207691e-06  8.95446424e-01  6.00207691e-06  7.76373805e-02  6.00207691e-06  1.80537686e+00  6.00207691e-06  9.00000000e-01  6.00207691e-06  6.81601064e-01  6.00207691e-06  1.62965166e+00                                 
 6.00217946e-06  7.84373187e-01  6.00217946e-06  7.28108222e-01  6.00217946e-06  8.92892667e-01  6.00217946e-06 -2.56457564e-02  6.00217946e-06  1.80134885e+00  6.00217946e-06  9.00000000e-01  6.00217946e-06  6.86114551e-01  6.00217946e-06  1.62965164e+00                                 
 6.00229462e-06  7.84301922e-01  6.00229462e-06  7.27793397e-01  6.00229462e-06  8.90437182e-01  6.00229462e-06  1.43233982e-02  6.00229462e-06  1.79969664e+00  6.00229462e-06  9.00000000e-01  6.00229462e-06  6.76214018e-01  6.00229462e-06  1.62965162e+00                                 
 6.00244671e-06  7.84383840e-01  6.00244671e-06  7.27632691e-01  6.00244671e-06  8.87762852e-01  6.00244671e-06 -8.40109534e-03  6.00244671e-06  1.79982260e+00  6.00244671e-06  9.00000000e-01  6.00244671e-06  6.72559098e-01  6.00244671e-06  1.62965159e+00                                 
 6.00264113e-06  7.84343982e-01  6.00264113e-06  7.27464496e-01  6.00264113e-06  8.85299682e-01  6.00264113e-06  5.66631910e-03  6.00264113e-06  1.80020848e+00  6.00264113e-06  9.00000000e-01  6.00264113e-06  6.71322709e-01  6.00264113e-06  1.62965156e+00                                 
 6.00294770e-06  7.84322891e-01  6.00294770e-06  7.27256414e-01  6.00294770e-06  8.82805174e-01  6.00294770e-06 -4.29784233e-03  6.00294770e-06  1.79981531e+00  6.00294770e-06  9.00000000e-01  6.00294770e-06  6.69019373e-01  6.00294770e-06  1.62965151e+00                                 
 6.00337432e-06  7.84227802e-01  6.00337432e-06  7.27167052e-01  6.00337432e-06  8.81039760e-01  6.00337432e-06  3.65506566e-03  6.00337432e-06  1.80027555e+00  6.00337432e-06  9.00000000e-01  6.00337432e-06  6.69279900e-01  6.00337432e-06  1.62965143e+00                                 
 6.00399994e-06  7.84153477e-01  6.00399994e-06  7.27131618e-01  6.00399994e-06  8.80092788e-01  6.00399994e-06 -3.19636493e-03  6.00399994e-06  1.79979461e+00  6.00399994e-06  9.00000000e-01  6.00399994e-06  6.68468574e-01  6.00399994e-06  1.62965132e+00                                 
 6.00477626e-06  7.84080837e-01  6.00477626e-06  7.27168615e-01  6.00477626e-06  8.79948771e-01  6.00477626e-06  2.89424719e-03  6.00477626e-06  1.80021302e+00  6.00477626e-06  9.00000000e-01  6.00477626e-06  6.68993090e-01  6.00477626e-06  1.62965118e+00                                 
 6.00627538e-06  7.84054358e-01  6.00627538e-06  7.27183830e-01  6.00627538e-06  8.80378288e-01  6.00627538e-06 -2.76784414e-03  6.00627538e-06  1.79977221e+00  6.00627538e-06  9.00000000e-01  6.00627538e-06  6.68153942e-01  6.00627538e-06  1.62965092e+00                                 
 6.00829975e-06  7.84038729e-01  6.00829975e-06  7.27220929e-01  6.00829975e-06  8.81260547e-01  6.00829975e-06  2.63985312e-03  6.00829975e-06  1.80019536e+00  6.00829975e-06  9.00000000e-01  6.00829975e-06  6.68416667e-01  6.00829975e-06  1.62965057e+00                                 
 6.01177198e-06  7.84048922e-01  6.01177198e-06  7.27226581e-01  6.01177198e-06  8.82795111e-01  6.01177198e-06 -2.60387150e-03  6.01177198e-06  1.79977549e+00  6.01177198e-06  9.00000000e-01  6.01177198e-06  6.67316584e-01  6.01177198e-06  1.62964996e+00                                 
 6.01500184e-06  7.84043832e-01  6.01500184e-06  7.27248494e-01  6.01500184e-06  8.84146873e-01  6.01500184e-06  2.52688018e-03  6.01500184e-06  1.80019705e+00  6.01500184e-06  9.00000000e-01  6.01500184e-06  6.67445653e-01  6.01500184e-06  1.62964940e+00                                 
