 time            v(vbep)         time            v(vben)         time            v(vout)         time            v(vphi1)        time            v(vphi2)        time            v(vref)         time            v(voutc)        time            v(voutcc)       yes             currtemp       
 0.00000000e+00  8.25268984e-01  0.00000000e+00  7.74287674e-01  0.00000000e+00  1.70584379e+00  0.00000000e+00  0.00000000e+00  0.00000000e+00  1.80000000e+00  0.00000000e+00  7.77894875e-01  0.00000000e+00  1.70584378e+00  0.00000000e+00  1.71106562e+00  1.00000000e+00 -8.00000000e+00 
 1.00000000e-11  8.25291547e-01  1.00000000e-11  7.74355912e-01  1.00000000e-11  1.70665997e+00  1.00000000e-11  1.80000000e-02  1.00000000e-11  1.80024478e+00  1.00000000e-11  7.78413977e-01  1.00000000e-11  1.70630449e+00  1.00000000e-11  1.71107881e+00                                 
 2.00000000e-11  8.25297827e-01  2.00000000e-11  7.74398901e-01  2.00000000e-11  1.70720368e+00  2.00000000e-11  3.60000000e-02  2.00000000e-11  1.80034642e+00  2.00000000e-11  7.78805177e-01  2.00000000e-11  1.70666355e+00  2.00000000e-11  1.71108464e+00                                 
 4.00000000e-11  8.25297727e-01  4.00000000e-11  7.74455163e-01  4.00000000e-11  1.70791802e+00  4.00000000e-11  7.20000000e-02  4.00000000e-11  1.80039255e+00  4.00000000e-11  7.79382787e-01  4.00000000e-11  1.70721486e+00  4.00000000e-11  1.71108796e+00                                 
 8.00000000e-11  8.25286344e-01  8.00000000e-11  7.74488426e-01  8.00000000e-11  1.70823210e+00  8.00000000e-11  1.44000000e-01  8.00000000e-11  1.80019888e+00  8.00000000e-11  7.79841757e-01  8.00000000e-11  1.70772418e+00  8.00000000e-11  1.71107792e+00                                 
 1.60000000e-10  8.25282968e-01  1.60000000e-10  7.74489082e-01  1.60000000e-10  1.70798661e+00  1.60000000e-10  2.88000000e-01  1.60000000e-10  1.80001158e+00  1.60000000e-10  7.79902419e-01  1.60000000e-10  1.70789797e+00  1.60000000e-10  1.71106577e+00                                 
 3.20000000e-10  8.25280382e-01  3.20000000e-10  7.74488380e-01  3.20000000e-10  1.70767933e+00  3.20000000e-10  5.76000000e-01  3.20000000e-10  1.80001703e+00  3.20000000e-10  7.79853824e-01  3.20000000e-10  1.70783289e+00  3.20000000e-10  1.71106352e+00                                 
 6.40000000e-10  8.25208474e-01  6.40000000e-10  7.74265177e-01  6.40000000e-10  1.70184422e+00  6.40000000e-10  1.15200000e+00  6.40000000e-10  1.81346662e+00  6.40000000e-10  7.79242840e-01  6.40000000e-10  1.71258921e+00  6.40000000e-10  1.71109196e+00                                 
 9.96223776e-10  8.25645366e-01  9.96223776e-10  7.74304420e-01  9.96223776e-10  1.67203373e+00  9.96223776e-10  1.79320280e+00  9.96223776e-10  7.71022813e-02  9.96223776e-10  7.81016796e-01  9.96223776e-10  1.70242145e+00  9.96223776e-10  1.71098061e+00                                 
 1.00000000e-09  8.25658499e-01  1.00000000e-09  7.74323738e-01  1.00000000e-09  1.67177791e+00  1.00000000e-09  1.80000000e+00  1.00000000e-09  5.07860820e-02  1.00000000e-09  7.81309493e-01  1.00000000e-09  1.70230643e+00  1.00000000e-09  1.71098715e+00                                 
 1.00755245e-09  8.25641246e-01  1.00755245e-09  7.74327146e-01  1.00755245e-09  1.67164695e+00  1.00755245e-09  1.80000000e+00  1.00755245e-09  2.77796878e-02  1.00755245e-09  7.81969326e-01  1.00755245e-09  1.70257634e+00  1.00755245e-09  1.71101125e+00                                 
 1.02265735e-09  8.25625931e-01  1.02265735e-09  7.74372342e-01  1.02265735e-09  1.67192464e+00  1.02265735e-09  1.80000000e+00  1.02265735e-09  3.51331977e-03  1.02265735e-09  7.83417329e-01  1.02265735e-09  1.70353492e+00  1.02265735e-09  1.71106071e+00                                 
 1.05286714e-09  8.25668977e-01  1.05286714e-09  7.74448996e-01  1.05286714e-09  1.67251440e+00  1.05286714e-09  1.80000000e+00  1.05286714e-09  7.80297741e-04  1.05286714e-09  7.85285706e-01  1.05286714e-09  1.70517528e+00  1.05286714e-09  1.71109191e+00                                 
 1.11328673e-09  8.25801927e-01  1.11328673e-09  7.74399391e-01  1.11328673e-09  1.67088467e+00  1.11328673e-09  1.80000000e+00  1.11328673e-09  8.20009792e-04  1.11328673e-09  7.85843716e-01  1.11328673e-09  1.70568407e+00  1.11328673e-09  1.71105678e+00                                 
 1.23412592e-09  8.25973825e-01  1.23412592e-09  7.74317531e-01  1.23412592e-09  1.66633426e+00  1.23412592e-09  1.80000000e+00  1.23412592e-09  2.39931001e-04  1.23412592e-09  7.86374076e-01  1.23412592e-09  1.70611497e+00  1.23412592e-09  1.71106850e+00                                 
 1.47580429e-09  8.26063784e-01  1.47580429e-09  7.74295872e-01  1.47580429e-09  1.66153892e+00  1.47580429e-09  1.80000000e+00  1.47580429e-09  1.59661820e-04  1.47580429e-09  7.86803863e-01  1.47580429e-09  1.70647471e+00  1.47580429e-09  1.71106897e+00                                 
 1.72845171e-09  8.25927437e-01  1.72845171e-09  7.74282631e-01  1.72845171e-09  1.66206831e+00  1.72845171e-09  1.80000000e+00  1.72845171e-09 -1.24593378e-04  1.72845171e-09  7.86295688e-01  1.72845171e-09  1.70603889e+00  1.72845171e-09  1.71107185e+00                                 
 1.99726062e-09  8.25749319e-01  1.99726062e-09  7.74281991e-01  1.99726062e-09  1.66397794e+00  1.99726062e-09  1.80000000e+00  1.99726062e-09  5.61521332e-05  1.99726062e-09  7.85845317e-01  1.99726062e-09  1.70566119e+00  1.99726062e-09  1.71107569e+00                                 
 2.31859454e-09  8.25557099e-01  2.31859454e-09  7.74274854e-01  2.31859454e-09  1.66623565e+00  2.31859454e-09  1.80000000e+00  2.31859454e-09 -1.18720142e-04  2.31859454e-09  7.85206633e-01  2.31859454e-09  1.70511737e+00  2.31859454e-09  1.71107910e+00                                 
 2.94000597e-09  8.25316344e-01  2.94000597e-09  7.74270237e-01  2.94000597e-09  1.67002959e+00  2.94000597e-09  1.80000000e+00  2.94000597e-09  4.59260840e-05  2.94000597e-09  7.84136904e-01  2.94000597e-09  1.70421459e+00  2.94000597e-09  1.71108638e+00                                 
 4.18282884e-09  8.25142588e-01  4.18282884e-09  7.74265623e-01  4.18282884e-09  1.67543306e+00  4.18282884e-09  1.80000000e+00  4.18282884e-09 -1.09085783e-04  4.18282884e-09  7.82199246e-01  4.18282884e-09  1.70257115e+00  4.18282884e-09  1.71108498e+00                                 
 6.66847457e-09  8.25169783e-01  6.66847457e-09  7.74274179e-01  6.66847457e-09  1.68034827e+00  6.66847457e-09  1.80000000e+00  6.66847457e-09  5.09143312e-05  6.66847457e-09  7.79619332e-01  6.66847457e-09  1.70038922e+00  6.66847457e-09  1.71101746e+00                                 
 9.11222235e-09  8.25215750e-01  9.11222235e-09  7.74281351e-01  9.11222235e-09  1.68062170e+00  9.11222235e-09  1.80000000e+00  9.11222235e-09 -9.78493420e-05  9.11222235e-09  7.78260934e-01  9.11222235e-09  1.69923538e+00  9.11222235e-09  1.71086948e+00                                 
 1.12951683e-08  8.25227703e-01  1.12951683e-08  7.74285671e-01  1.12951683e-08  1.67950119e+00  1.12951683e-08  1.80000000e+00  1.12951683e-08  5.72692689e-05  1.12951683e-08  7.77693536e-01  1.12951683e-08  1.69875510e+00  1.12951683e-08  1.71069332e+00                                 
 1.37642072e-08  8.25225425e-01  1.37642072e-08  7.74286621e-01  1.37642072e-08  1.67841651e+00  1.37642072e-08  1.80000000e+00  1.37642072e-08 -8.50691784e-05  1.37642072e-08  7.77343098e-01  1.37642072e-08  1.69845088e+00  1.37642072e-08  1.71046609e+00                                 
 1.69321165e-08  8.25226635e-01  1.69321165e-08  7.74287996e-01  1.69321165e-08  1.67736963e+00  1.69321165e-08  1.80000000e+00  1.69321165e-08  6.84563654e-05  1.69321165e-08  7.77216299e-01  1.69321165e-08  1.69833688e+00  1.69321165e-08  1.71016305e+00                                 
 2.10776560e-08  8.25246171e-01  2.10776560e-08  7.74287352e-01  2.10776560e-08  1.67411803e+00  2.10776560e-08  1.80000000e+00  2.10776560e-08 -7.59140717e-05  2.10776560e-08  7.77176090e-01  2.10776560e-08  1.69828552e+00  2.10776560e-08  1.70976911e+00                                 
 2.65472148e-08  8.25264532e-01  2.65472148e-08  7.74288114e-01  2.65472148e-08  1.66703157e+00  2.65472148e-08  1.80000000e+00  2.65472148e-08  7.11843058e-05  2.65472148e-08  7.77270568e-01  2.65472148e-08  1.69834778e+00  2.65472148e-08  1.70928152e+00                                 
 3.43559664e-08  8.25271009e-01  3.43559664e-08  7.74287507e-01  3.43559664e-08  1.65463094e+00  3.43559664e-08  1.80000000e+00  3.43559664e-08 -7.40365450e-05  3.43559664e-08  7.77364995e-01  3.43559664e-08  1.69839920e+00  3.43559664e-08  1.70865155e+00                                 
 4.69004544e-08  8.25272591e-01  4.69004544e-08  7.74288126e-01  4.69004544e-08  1.63319504e+00  4.69004544e-08  1.80000000e+00  4.69004544e-08  7.09709449e-05  4.69004544e-08  7.77539473e-01  4.69004544e-08  1.69851673e+00  4.69004544e-08  1.70779352e+00                                 
 6.49761701e-08  8.25269842e-01  6.49761701e-08  7.74287417e-01  6.49761701e-08  1.60090339e+00  6.49761701e-08  1.80000000e+00  6.49761701e-08 -7.39759488e-05  6.49761701e-08  7.77660886e-01  6.49761701e-08  1.69858460e+00  6.49761701e-08  1.70682392e+00                                 
 1.01127601e-07  8.25270386e-01  1.01127601e-07  7.74288018e-01  1.01127601e-07  1.53426797e+00  1.01127601e-07  1.80000000e+00  1.01127601e-07  7.07033991e-05  1.01127601e-07  7.77830322e-01  1.01127601e-07  1.69869411e+00  1.01127601e-07  1.70554685e+00                                 
 1.73430464e-07  8.25268313e-01  1.73430464e-07  7.74287365e-01  1.73430464e-07  1.39992558e+00  1.73430464e-07  1.80000000e+00  1.73430464e-07 -7.39596573e-05  1.73430464e-07  7.77882458e-01  1.73430464e-07  1.69870762e+00  1.73430464e-07  1.70439685e+00                                 
 2.90645720e-07  8.25269703e-01  2.90645720e-07  7.74288001e-01  2.90645720e-07  1.18561242e+00  2.90645720e-07  1.80000000e+00  2.90645720e-07  7.07484226e-05  2.90645720e-07  7.77906408e-01  2.90645720e-07  1.69871782e+00  2.90645720e-07  1.70397318e+00                                 
 4.49911515e-07  8.25268270e-01  4.49911515e-07  7.74287355e-01  4.49911515e-07  9.10890763e-01  4.49911515e-07  1.80000000e+00  4.49911515e-07 -7.33114554e-05  4.49911515e-07  7.77882867e-01  4.49911515e-07  1.69868768e+00  4.49911515e-07  1.70393775e+00                                 
 6.07844333e-07  8.25269776e-01  6.07844333e-07  7.74287995e-01  6.07844333e-07  7.80068232e-01  6.07844333e-07  1.80000000e+00  6.07844333e-07  7.23900857e-05  6.07844333e-07  7.77906803e-01  6.07844333e-07  1.69870385e+00  6.07844333e-07  1.70393717e+00                                 
 7.62226593e-07  8.25268109e-01  7.62226593e-07  7.74287354e-01  7.62226593e-07  7.81902414e-01  7.62226593e-07  1.80000000e+00  7.62226593e-07 -7.22955337e-05  7.62226593e-07  7.77884028e-01  7.62226593e-07  1.69867549e+00  7.62226593e-07  1.70392980e+00                                 
 8.21219748e-07  8.25269745e-01  8.21219748e-07  7.74287973e-01  8.21219748e-07  7.81724551e-01  8.21219748e-07  1.80000000e+00  8.21219748e-07  7.23209851e-05  8.21219748e-07  7.77905190e-01  8.21219748e-07  1.69869345e+00  8.21219748e-07  1.70392783e+00                                 
 9.08317973e-07  8.25268337e-01  9.08317973e-07  7.74287400e-01  9.08317973e-07  7.81385876e-01  9.08317973e-07  1.80000000e+00  9.08317973e-07 -7.23127148e-05  9.08317973e-07  7.77884382e-01  9.08317973e-07  1.69866965e+00  9.08317973e-07  1.70392310e+00                                 
 1.06309719e-06  8.25269585e-01  1.06309719e-06  7.74287957e-01  1.06309719e-06  7.81647692e-01  1.06309719e-06  1.80000000e+00  1.06309719e-06  7.23358357e-05  1.06309719e-06  7.77905463e-01  1.06309719e-06  1.69868350e+00  1.06309719e-06  1.70391766e+00                                 
 1.21977959e-06  8.25268422e-01  1.21977959e-06  7.74287411e-01  1.21977959e-06  7.81422771e-01  1.21977959e-06  1.80000000e+00  1.21977959e-06 -7.22477207e-05  1.21977959e-06  7.77884259e-01  1.21977959e-06  1.69865643e+00  1.21977959e-06  1.70391006e+00                                 
 1.49591457e-06  8.25269527e-01  1.49591457e-06  7.74287946e-01  1.49591457e-06  7.81668544e-01  1.49591457e-06  1.80000000e+00  1.49591457e-06  7.23120162e-05  1.49591457e-06  7.77905543e-01  1.49591457e-06  1.69866534e+00  1.49591457e-06  1.70389947e+00                                 
 1.86436773e-06  8.25268454e-01  1.86436773e-06  7.74287418e-01  1.86436773e-06  7.81433417e-01  1.86436773e-06  1.80000000e+00  1.86436773e-06 -7.22574992e-05  1.86436773e-06  7.77884215e-01  1.86436773e-06  1.69862927e+00  1.86436773e-06  1.70388301e+00                                 
 2.40479139e-06  8.25269507e-01  2.40479139e-06  7.74287942e-01  2.40479139e-06  7.81671858e-01  2.40479139e-06  1.80000000e+00  2.40479139e-06  7.22865031e-05  2.40479139e-06  7.77905573e-01  2.40479139e-06  1.69862714e+00  2.40479139e-06  1.70386133e+00                                 
 3.31789975e-06  8.25268466e-01  3.31789975e-06  7.74287422e-01  3.31789975e-06  7.81439838e-01  3.31789975e-06  1.80000000e+00  3.31789975e-06 -7.22814348e-05  3.31789975e-06  7.77884199e-01  3.31789975e-06  1.69856814e+00  3.31789975e-06  1.70382205e+00                                 
 4.51789975e-06  8.25269499e-01  4.51789975e-06  7.74287940e-01  4.51789975e-06  7.81671240e-01  4.51789975e-06  1.80000000e+00  4.51789975e-06  7.22750194e-05  4.51789975e-06  7.77905585e-01  4.51789975e-06  1.69853831e+00  4.51789975e-06  1.70377272e+00                                 
 5.71789975e-06  8.25268473e-01  5.71789975e-06  7.74287420e-01  5.71789975e-06  7.81451557e-01  5.71789975e-06  1.80000000e+00  5.71789975e-06 -7.22229597e-05  5.71789975e-06  7.77884180e-01  5.71789975e-06  1.69846722e+00  5.71789975e-06  1.70372140e+00                                 
 6.00100000e-06  8.25269482e-01  6.00100000e-06  7.74287932e-01  6.00100000e-06  7.81671228e-01  6.00100000e-06  1.80000000e+00  6.00100000e-06  7.22276301e-05  6.00100000e-06  7.77905604e-01  6.00100000e-06  1.69847595e+00  6.00100000e-06  1.70371050e+00                                 
 6.00110000e-06  8.25236771e-01  6.00110000e-06  7.74060779e-01  6.00110000e-06  7.79619577e-01  6.00110000e-06  1.62000000e+00  6.00110000e-06 -9.31677989e-05  6.00110000e-06  7.76071377e-01  6.00110000e-06  1.69692141e+00  6.00110000e-06  1.70369580e+00                                 
 6.00130000e-06  8.25266445e-01  6.00130000e-06  7.74115603e-01  6.00130000e-06  7.80293237e-01  6.00130000e-06  1.26000000e+00  6.00130000e-06  4.08549167e-05  6.00130000e-06  7.76351257e-01  6.00130000e-06  1.69716102e+00  6.00130000e-06  1.70371822e+00                                 
 6.00170000e-06  8.25298304e-01  6.00170000e-06  7.74187611e-01  6.00170000e-06  7.83195661e-01  6.00170000e-06  5.40000000e-01  6.00170000e-06  3.14928249e-01  6.00170000e-06  7.75791313e-01  6.00170000e-06  1.68788691e+00  6.00170000e-06  1.70365516e+00                                 
 6.00200000e-06  8.25262747e-01  6.00200000e-06  7.71926881e-01  6.00200000e-06  8.26924745e-01  6.00200000e-06  0.00000000e+00  6.00200000e-06  1.65977802e+00  6.00200000e-06  7.48568026e-01  6.00200000e-06  1.47843113e+00  6.00200000e-06  1.70284820e+00                                 
 6.00204794e-06  8.25270721e-01  6.00204794e-06  7.71895544e-01  6.00204794e-06  8.25605008e-01  6.00204794e-06  0.00000000e+00  6.00204794e-06  1.75179492e+00  6.00204794e-06  7.48092429e-01  6.00204794e-06  1.42104342e+00  6.00204794e-06  1.70311867e+00                                 
 6.00214383e-06  8.25268690e-01  6.00214383e-06  7.71907840e-01  6.00214383e-06  8.18860087e-01  6.00214383e-06  0.00000000e+00  6.00214383e-06  1.81225856e+00  6.00214383e-06  7.48345763e-01  6.00214383e-06  1.31213058e+00  6.00214383e-06  1.70361515e+00                                 
 6.00233560e-06  8.25267814e-01  6.00233560e-06  7.72481374e-01  6.00233560e-06  8.06249057e-01  6.00233560e-06  0.00000000e+00  6.00233560e-06  1.79057237e+00  6.00233560e-06  7.55217661e-01  6.00233560e-06  1.15774592e+00  6.00233560e-06  1.70380607e+00                                 
 6.00251646e-06  8.25268747e-01  6.00251646e-06  7.72822359e-01  6.00251646e-06  8.02733308e-01  6.00251646e-06  0.00000000e+00  6.00251646e-06  1.80463756e+00  6.00251646e-06  7.58845991e-01  6.00251646e-06  1.06396668e+00  6.00251646e-06  1.70387264e+00                                 
 6.00275154e-06  8.25267232e-01  6.00275154e-06  7.73167183e-01  6.00275154e-06  7.97919196e-01  6.00275154e-06  0.00000000e+00  6.00275154e-06  1.79630815e+00  6.00275154e-06  7.62053171e-01  6.00275154e-06  9.68478656e-01  6.00275154e-06  1.70396344e+00                                 
 6.00302267e-06  8.25269005e-01  6.00302267e-06  7.73599427e-01  6.00302267e-06  7.94678296e-01  6.00302267e-06  0.00000000e+00  6.00302267e-06  1.80204530e+00  6.00302267e-06  7.66181353e-01  6.00302267e-06  8.85412155e-01  6.00302267e-06  1.70402376e+00                                 
 6.00356491e-06  8.25267571e-01  6.00356491e-06  7.74355440e-01  6.00356491e-06  7.85600772e-01  6.00356491e-06  0.00000000e+00  6.00356491e-06  1.79785574e+00  6.00356491e-06  7.73554905e-01  6.00356491e-06  7.98593644e-01  6.00356491e-06  1.70398564e+00                                 
 6.00396960e-06  8.25269469e-01  6.00396960e-06  7.74725244e-01  6.00396960e-06  7.82613967e-01  6.00396960e-06  0.00000000e+00  6.00396960e-06  1.80168973e+00  6.00396960e-06  7.77356132e-01  6.00396960e-06  7.86317637e-01  6.00396960e-06  1.70379617e+00                                 
 6.00437132e-06  8.25267889e-01  6.00437132e-06  7.74754775e-01  6.00437132e-06  7.82238561e-01  6.00437132e-06  0.00000000e+00  6.00437132e-06  1.79866705e+00  6.00437132e-06  7.77588019e-01  6.00437132e-06  7.82546924e-01  6.00437132e-06  1.70346212e+00                                 
 6.00489061e-06  8.25269720e-01  6.00489061e-06  7.74794316e-01  6.00489061e-06  7.82073011e-01  6.00489061e-06  0.00000000e+00  6.00489061e-06  1.80112814e+00  6.00489061e-06  7.78621537e-01  6.00489061e-06  7.82532104e-01  6.00489061e-06  1.70290714e+00                                 
 6.00576136e-06  8.25268129e-01  6.00576136e-06  7.74659830e-01  6.00576136e-06  7.82946970e-01  6.00576136e-06  0.00000000e+00  6.00576136e-06  1.79899260e+00  6.00576136e-06  7.78246059e-01  6.00576136e-06  7.82392924e-01  6.00576136e-06  1.70180295e+00                                 
 6.00733512e-06  8.25269839e-01  6.00733512e-06  7.74558031e-01  6.00733512e-06  7.84239876e-01  6.00733512e-06  0.00000000e+00  6.00733512e-06  1.80095886e+00  6.00733512e-06  7.78904764e-01  6.00733512e-06  7.84426810e-01  6.00733512e-06  1.69961292e+00                                 
 6.01048263e-06  8.25268161e-01  6.01048263e-06  7.74375853e-01  6.01048263e-06  7.87861553e-01  6.01048263e-06  0.00000000e+00  6.01048263e-06  1.79907716e+00  6.01048263e-06  7.78450648e-01  6.01048263e-06  7.87240981e-01  6.01048263e-06  1.69506606e+00                                 
 6.01677764e-06  8.25269815e-01  6.01677764e-06  7.74322983e-01  6.01677764e-06  7.94983489e-01  6.01677764e-06  0.00000000e+00  6.01677764e-06  1.80091834e+00  6.01677764e-06  7.78869694e-01  6.01677764e-06  7.95113377e-01  6.01677764e-06  1.68603785e+00                                 
 6.02936768e-06  8.25268157e-01  6.02936768e-06  7.74254603e-01  6.02936768e-06  8.09852792e-01  6.02936768e-06  0.00000000e+00  6.02936768e-06  1.79909699e+00  6.02936768e-06  7.78148554e-01  6.02936768e-06  8.09117460e-01  6.02936768e-06  1.66787185e+00                                 
 6.05218813e-06  8.25269812e-01  6.05218813e-06  7.74308092e-01  6.05218813e-06  8.34829119e-01  6.05218813e-06  0.00000000e+00  6.05218813e-06  1.80090771e+00  6.05218813e-06  7.78413464e-01  6.05218813e-06  8.35040413e-01  6.05218813e-06  1.63359061e+00                                 
