 time            v(vbep)         time            v(vben)         time            v(vout)         time            v(vphi1)        time            v(vphi2)        time            v(vref)         yes             currtemp       
 0.00000000e+00  6.62985952e-01  0.00000000e+00  6.04807911e-01  0.00000000e+00  1.09596475e+00  0.00000000e+00  0.00000000e+00  0.00000000e+00  1.79993965e+00  0.00000000e+00  5.00000000e-01  1.00000000e+00  4.50000000e+01 
 5.00000000e-12  6.62947356e-01  5.00000000e-12  6.04776160e-01  5.00000000e-12  1.09672579e+00  5.00000000e-12  1.80000000e-02  5.00000000e-12  1.80004709e+00  5.00000000e-12  5.00000000e-01                                 
 1.00000000e-11  6.62910177e-01  1.00000000e-11  6.04745399e-01  1.00000000e-11  1.09741797e+00  1.00000000e-11  3.60000000e-02  1.00000000e-11  1.80010497e+00  1.00000000e-11  5.00000000e-01                                 
 2.00000000e-11  6.62836749e-01  2.00000000e-11  6.04684169e-01  2.00000000e-11  1.09869690e+00  2.00000000e-11  7.20000000e-02  2.00000000e-11  1.80016217e+00  2.00000000e-11  5.00000000e-01                                 
 4.00000000e-11  6.62691484e-01  4.00000000e-11  6.04562294e-01  4.00000000e-11  1.10076425e+00  4.00000000e-11  1.44000000e-01  4.00000000e-11  1.80014144e+00  4.00000000e-11  5.00000000e-01                                 
 8.00000000e-11  6.62402664e-01  8.00000000e-11  6.04319892e-01  8.00000000e-11  1.10361329e+00  8.00000000e-11  2.88000000e-01  8.00000000e-11  1.80007940e+00  8.00000000e-11  5.00000000e-01                                 
 1.60000000e-10  6.61832553e-01  1.60000000e-10  6.03840439e-01  1.60000000e-10  1.10640537e+00  1.60000000e-10  5.76000000e-01  1.60000000e-10  1.80001625e+00  1.60000000e-10  5.00000000e-01                                 
 3.20000000e-10  6.60720348e-01  3.20000000e-10  6.02902077e-01  3.20000000e-10  1.10032798e+00  3.20000000e-10  1.15200000e+00  3.20000000e-10  1.80040381e+00  3.20000000e-10  5.00000000e-01                                 
 5.00000000e-10  6.59512051e-01  5.00000000e-10  6.01877827e-01  5.00000000e-10  1.25474916e+00  5.00000000e-10  1.80000000e+00  5.00000000e-10  1.20145536e-01  5.00000000e-10  5.00000000e-01                                 
 5.21641326e-10  6.59370055e-01  5.21641326e-10  6.01757110e-01  5.21641326e-10  1.29129514e+00  5.21641326e-10  1.80000000e+00  5.21641326e-10  2.40084958e-02  5.21641326e-10  5.00000000e-01                                 
 5.64923978e-10  6.59087235e-01  5.64923978e-10  6.01516516e-01  5.64923978e-10  1.35851823e+00  5.64923978e-10  1.80000000e+00  5.64923978e-10 -1.11450738e-02  5.64923978e-10  5.00000000e-01                                 
 6.51489283e-10  6.58528726e-01  6.51489283e-10  6.01040622e-01  6.51489283e-10  1.46982230e+00  6.51489283e-10  1.80000000e+00  6.51489283e-10  9.24828220e-03  6.51489283e-10  5.00000000e-01                                 
 7.73586319e-10  6.57756695e-01  7.73586319e-10  6.00381090e-01  7.73586319e-10  1.59603637e+00  7.73586319e-10  1.80000000e+00  7.73586319e-10 -8.00917697e-03  7.73586319e-10  5.00000000e-01                                 
 9.65983010e-10  6.56575664e-01  9.65983010e-10  5.99368394e-01  9.65983010e-10  1.74242936e+00  9.65983010e-10  1.80000000e+00  9.65983010e-10  7.50663812e-03  9.65983010e-10  5.00000000e-01                                 
 1.35077639e-09  6.54333109e-01  1.35077639e-09  5.97433293e-01  1.35077639e-09  1.90440092e+00  1.35077639e-09  1.80000000e+00  1.35077639e-09 -7.08898489e-03  1.35077639e-09  5.00000000e-01                                 
 1.63336631e-09  6.52780507e-01  1.63336631e-09  5.96083961e-01  1.63336631e-09  1.95175719e+00  1.63336631e-09  1.80000000e+00  1.63336631e-09  6.81161684e-03  1.63336631e-09  5.00000000e-01                                 
 1.98055312e-09  6.50970013e-01  1.98055312e-09  5.94501011e-01  1.98055312e-09  1.97537344e+00  1.98055312e-09  1.80000000e+00  1.98055312e-09 -6.44100893e-03  1.98055312e-09  5.00000000e-01                                 
 2.30949813e-09  6.49344665e-01  2.30949813e-09  5.93071329e-01  2.30949813e-09  1.98257930e+00  2.30949813e-09  1.80000000e+00  2.30949813e-09  6.21220135e-03  2.30949813e-09  5.00000000e-01                                 
 2.87313859e-09  6.46737995e-01  2.87313859e-09  5.90762328e-01  2.87313859e-09  1.98455877e+00  2.87313859e-09  1.80000000e+00  2.87313859e-09 -5.99328838e-03  2.87313859e-09  5.00000000e-01                                 
 3.53068950e-09  6.43946998e-01  3.53068950e-09  5.88268305e-01  3.53068950e-09  1.98250101e+00  3.53068950e-09  1.80000000e+00  3.53068950e-09  5.90315043e-03  3.53068950e-09  5.00000000e-01                                 
 4.79671442e-09  6.39178594e-01  4.79671442e-09  5.83959723e-01  4.79671442e-09  1.97790243e+00  4.79671442e-09  1.80000000e+00  4.79671442e-09 -5.79241379e-03  4.79671442e-09  5.00000000e-01                                 
 6.67925575e-09  6.33217002e-01  6.67925575e-09  5.78492621e-01  6.67925575e-09  1.97227114e+00  6.67925575e-09  1.80000000e+00  6.67925575e-09  5.78986242e-03  6.67925575e-09  5.00000000e-01                                 
 9.42754803e-09  6.26188367e-01  9.42754803e-09  5.71943043e-01  9.42754803e-09  1.96566850e+00  9.42754803e-09  1.80000000e+00  9.42754803e-09 -5.71390260e-03  9.42754803e-09  5.00000000e-01                                 
 1.09111832e-08  6.23012675e-01  1.09111832e-08  5.68947127e-01  1.09111832e-08  1.96276883e+00  1.09111832e-08  1.80000000e+00  1.09111832e-08  5.69068495e-03  1.09111832e-08  5.00000000e-01                                 
 1.23668733e-08  6.20199405e-01  1.23668733e-08  5.66277268e-01  1.23668733e-08  1.96015726e+00  1.23668733e-08  1.80000000e+00  1.23668733e-08 -5.59986447e-03  1.23668733e-08  5.00000000e-01                                 
 1.40173057e-08  6.17305885e-01  1.40173057e-08  5.63516913e-01  1.40173057e-08  1.95756633e+00  1.40173057e-08  1.80000000e+00  1.40173057e-08  5.57773045e-03  1.40173057e-08  5.00000000e-01                                 
 1.67093114e-08  6.13119662e-01  1.67093114e-08  5.59500234e-01  1.67093114e-08  1.95375574e+00  1.67093114e-08  1.80000000e+00  1.67093114e-08 -5.51836503e-03  1.67093114e-08  5.00000000e-01                                 
 1.98380218e-08  6.08907387e-01  1.98380218e-08  5.55432999e-01  1.98380218e-08  1.95003863e+00  1.98380218e-08  1.80000000e+00  1.98380218e-08  5.51890497e-03  1.98380218e-08  5.00000000e-01                                 
 2.46189925e-08  6.03446975e-01  2.46189925e-08  5.50127955e-01  2.46189925e-08  1.94524203e+00  2.46189925e-08  1.80000000e+00  2.46189925e-08 -5.47440072e-03  2.46189925e-08  5.00000000e-01                                 
 3.10044142e-08  5.97464334e-01  3.10044142e-08  5.44276679e-01  3.10044142e-08  1.94022551e+00  3.10044142e-08  1.80000000e+00  3.10044142e-08  5.48849378e-03  3.10044142e-08  5.00000000e-01                                 
 4.32407666e-08  5.88592473e-01  4.32407666e-08  5.35534027e-01  4.32407666e-08  1.93289175e+00  4.32407666e-08  1.80000000e+00  4.32407666e-08 -5.45445938e-03  4.32407666e-08  5.00000000e-01                                 
 6.28924207e-08  5.78361342e-01  6.28924207e-08  5.25379161e-01  6.28924207e-08  1.91939844e+00  6.28924207e-08  1.80000000e+00  6.28924207e-08  5.47771076e-03  6.28924207e-08  5.00000000e-01                                 
 8.27539241e-08  5.69888923e-01  8.27539241e-08  5.17124646e-01  8.27539241e-08  1.90001386e+00  8.27539241e-08  1.80000000e+00  8.27539241e-08 -5.44603010e-03  8.27539241e-08  5.00000000e-01                                 
 1.06794938e-07  5.58080919e-01  1.06794938e-07  5.06317982e-01  1.06794938e-07  1.87110507e+00  1.06794938e-07  1.80000000e+00  1.06794938e-07  5.47006930e-03  1.06794938e-07  5.00000000e-01                                 
 1.28324917e-07  5.47837671e-01  1.28324917e-07  4.97161437e-01  1.28324917e-07  1.83064601e+00  1.28324917e-07  1.80000000e+00  1.28324917e-07 -5.43885794e-03  1.28324917e-07  5.00000000e-01                                 
 1.51235278e-07  5.38607951e-01  1.51235278e-07  4.88930729e-01  1.51235278e-07  1.79049967e+00  1.51235278e-07  1.80000000e+00  1.51235278e-07  5.46279311e-03  1.51235278e-07  5.00000000e-01                                 
 1.81762502e-07  5.36430710e-01  1.81762502e-07  4.86151464e-01  1.81762502e-07  1.76205059e+00  1.81762502e-07  1.80000000e+00  1.81762502e-07 -5.43233144e-03  1.81762502e-07  5.00000000e-01                                 
 2.10252161e-07  5.38954110e-01  2.10252161e-07  4.87274197e-01  2.10252161e-07  1.74767401e+00  2.10252161e-07  1.80000000e+00  2.10252161e-07  5.45739553e-03  2.10252161e-07  5.00000000e-01                                 
 2.32105579e-07  5.36904386e-01  2.32105579e-07  4.85045882e-01  2.32105579e-07  1.72284055e+00  2.32105579e-07  1.80000000e+00  2.32105579e-07 -5.42599247e-03  2.32105579e-07  5.00000000e-01                                 
 2.57704753e-07  5.32158381e-01  2.57704753e-07  4.80648084e-01  2.57704753e-07  1.69322270e+00  2.57704753e-07  1.80000000e+00  2.57704753e-07  5.45039572e-03  2.57704753e-07  5.00000000e-01                                 
 2.93680816e-07  5.23356496e-01  2.93680816e-07  4.72888503e-01  2.93680816e-07  1.64867161e+00  2.93680816e-07  1.80000000e+00  2.93680816e-07 -5.42066621e-03  2.93680816e-07  5.00000000e-01                                 
 3.30734360e-07  5.14181507e-01  3.30734360e-07  4.64925960e-01  3.30734360e-07  1.60227281e+00  3.30734360e-07  1.80000000e+00  3.30734360e-07  5.44593574e-03  3.30734360e-07  5.00000000e-01                                 
 3.94164136e-07  4.98357254e-01  3.94164136e-07  4.51425582e-01  3.94164136e-07  1.52255394e+00  3.94164136e-07  1.80000000e+00  3.94164136e-07 -5.41722574e-03  3.94164136e-07  5.00000000e-01                                 
 4.77379217e-07  4.77622432e-01  4.77379217e-07  4.34071110e-01  4.77379217e-07  1.41537485e+00  4.77379217e-07  1.80000000e+00  4.77379217e-07  5.44368699e-03  4.77379217e-07  5.00000000e-01                                 
 6.00250089e-07  4.28812817e-01  6.00250089e-07  3.94508878e-01  6.00250089e-07  1.23859381e+00  6.00250089e-07  1.80000000e+00  6.00250089e-07 -5.41574168e-03  6.00250089e-07  5.00000000e-01                                 
 7.03406295e-07  6.38321972e-01  7.03406295e-07  5.76452814e-01  7.03406295e-07  1.32926182e+00  7.03406295e-07  1.80000000e+00  7.03406295e-07  5.44469189e-03  7.03406295e-07  5.00000000e-01                                 
 7.97504203e-07  7.60331585e-01  7.97504203e-07  6.96625566e-01  7.97504203e-07  1.34681366e+00  7.97504203e-07  1.80000000e+00  7.97504203e-07 -5.41430224e-03  7.97504203e-07  5.00000000e-01                                 
 8.08965214e-07  7.64239731e-01  8.08965214e-07  7.00043882e-01  8.08965214e-07  1.33799166e+00  8.08965214e-07  1.80000000e+00  8.08965214e-07 -2.99322524e-07  8.08965214e-07  5.00000000e-01                                 
 8.31887234e-07  7.69161908e-01  8.31887234e-07  7.04244792e-01  8.31887234e-07  1.31837150e+00  8.31887234e-07  1.80000000e+00  8.31887234e-07  3.21647409e-06  8.31887234e-07  5.00000000e-01                                 
 8.77731274e-07  7.70966373e-01  8.77731274e-07  7.05766506e-01  8.77731274e-07  1.27148103e+00  8.77731274e-07  1.80000000e+00  8.77731274e-07 -5.25376117e-07  8.77731274e-07  5.00000000e-01                                 
 9.46593816e-07  7.71039812e-01  9.46593816e-07  7.05827629e-01  9.46593816e-07  1.19823009e+00  9.46593816e-07  1.80000000e+00  9.46593816e-07  3.13756795e-06  9.46593816e-07  5.00000000e-01                                 
 1.01171519e-06  7.63280587e-01  1.01171519e-06  6.99254377e-01  1.01171519e-06  1.12171342e+00  1.01171519e-06  1.80000000e+00  1.01171519e-06 -6.83482254e-07  1.01171519e-06  5.00000000e-01                                 
 1.02234063e-06  7.59609251e-01  1.02234063e-06  6.96080735e-01  1.02234063e-06  1.10696606e+00  1.02234063e-06  1.80000000e+00  1.02234063e-06  1.05663969e-06  1.02234063e-06  5.00000000e-01                                 
 1.04359152e-06  7.53320201e-01  1.04359152e-06  6.90542958e-01  1.04359152e-06  1.07854134e+00  1.04359152e-06  1.80000000e+00  1.04359152e-06  1.12418384e-06  1.04359152e-06  5.00000000e-01                                 
 1.08609330e-06  7.53373073e-01  1.08609330e-06  6.90563815e-01  1.08609330e-06  1.03495581e+00  1.08609330e-06  1.80000000e+00  1.08609330e-06  1.48079614e-06  1.08609330e-06  5.00000000e-01                                 
 1.16116701e-06  7.62365232e-01  1.16116701e-06  6.98449933e-01  1.16116701e-06  9.74014843e-01  1.16116701e-06  1.80000000e+00  1.16116701e-06  1.31714854e-06  1.16116701e-06  5.00000000e-01                                 
 1.23654234e-06  7.57640134e-01  1.23654234e-06  6.94349579e-01  1.23654234e-06  9.12474552e-01  1.23654234e-06  1.80000000e+00  1.23654234e-06  1.21574163e-06  1.23654234e-06  5.00000000e-01                                 
 1.34711556e-06  7.56225531e-01  1.34711556e-06  6.93091741e-01  1.34711556e-06  8.39748148e-01  1.34711556e-06  1.80000000e+00  1.34711556e-06  1.38161994e-06  1.34711556e-06  5.00000000e-01                                 
 1.47609518e-06  7.60548798e-01  1.47609518e-06  6.96881792e-01  1.47609518e-06  7.68070628e-01  1.47609518e-06  1.80000000e+00  1.47609518e-06  1.28686077e-06  1.47609518e-06  5.00000000e-01                                 
 1.69208116e-06  7.55946900e-01  1.69208116e-06  6.92852547e-01  1.69208116e-06  6.47547331e-01  1.69208116e-06  1.80000000e+00  1.69208116e-06  1.29940937e-06  1.69208116e-06  5.00000000e-01                                 
 1.94453948e-06  7.59649861e-01  1.94453948e-06  6.96096297e-01  1.94453948e-06  5.42559967e-01  1.94453948e-06  1.80000000e+00  1.94453948e-06  1.34022467e-06  1.94453948e-06  5.00000000e-01                                 
 1.98537156e-06  7.59146364e-01  1.98537156e-06  6.95658907e-01  1.98537156e-06  5.30789318e-01  1.98537156e-06  1.80000000e+00  1.98537156e-06  1.30214802e-06  1.98537156e-06  5.00000000e-01                                 
 2.06703573e-06  7.57638737e-01  2.06703573e-06  6.94341402e-01  2.06703573e-06  5.11668269e-01  2.06703573e-06  1.80000000e+00  2.06703573e-06  1.29119183e-06  2.06703573e-06  5.00000000e-01                                 
 2.23036407e-06  7.58169039e-01  2.23036407e-06  6.94802750e-01  2.23036407e-06  4.94443718e-01  2.23036407e-06  1.80000000e+00  2.23036407e-06  1.33146845e-06  2.23036407e-06  5.00000000e-01                                 
 2.25113932e-06  7.58476562e-01  2.25113932e-06  6.95072558e-01  2.25113932e-06  4.93571408e-01  2.25113932e-06  1.80000000e+00  2.25113932e-06  1.32012600e-06  2.25113932e-06  5.00000000e-01                                 
 2.29268983e-06  7.58532410e-01  2.29268983e-06  6.95122836e-01  2.29268983e-06  4.91487268e-01  2.29268983e-06  1.80000000e+00  2.29268983e-06  1.30029730e-06  2.29268983e-06  5.00000000e-01                                 
 2.37579086e-06  7.57819683e-01  2.37579086e-06  6.94498870e-01  2.37579086e-06  4.88643713e-01  2.37579086e-06  1.80000000e+00  2.37579086e-06  1.30507202e-06  2.37579086e-06  5.00000000e-01                                 
 2.51192276e-06  7.58252948e-01  2.51192276e-06  6.94877213e-01  2.51192276e-06  5.00201933e-01  2.51192276e-06  1.80000000e+00  2.51192276e-06  1.31914474e-06  2.51192276e-06  5.00000000e-01                                 
 2.63642863e-06  7.58244373e-01  2.63642863e-06  6.94870967e-01  2.63642863e-06  5.03200428e-01  2.63642863e-06  1.80000000e+00  2.63642863e-06  1.29365128e-06  2.63642863e-06  5.00000000e-01                                 
 2.66390490e-06  7.58083146e-01  2.66390490e-06  6.94729589e-01  2.66390490e-06  5.01235714e-01  2.66390490e-06  1.80000000e+00  2.66390490e-06  1.30519263e-06  2.66390490e-06  5.00000000e-01                                 
 2.71885745e-06  7.58020186e-01  2.71885745e-06  6.94673964e-01  2.71885745e-06  4.99278214e-01  2.71885745e-06  1.80000000e+00  2.71885745e-06  1.31233529e-06  2.71885745e-06  5.00000000e-01                                 
 2.82876254e-06  7.58248638e-01  2.82876254e-06  6.94874035e-01  2.82876254e-06  4.99990068e-01  2.82876254e-06  1.80000000e+00  2.82876254e-06  1.30826148e-06  2.82876254e-06  5.00000000e-01                                 
 3.04857271e-06  7.58065242e-01  3.04857271e-06  6.94713721e-01  3.04857271e-06  5.00417466e-01  3.04857271e-06  1.80000000e+00  3.04857271e-06  1.30737170e-06  3.04857271e-06  5.00000000e-01                                 
 3.38295808e-06  7.58189182e-01  3.38295808e-06  6.94821891e-01  3.38295808e-06  5.00017657e-01  3.38295808e-06  1.80000000e+00  3.38295808e-06  1.31030869e-06  3.38295808e-06  5.00000000e-01                                 
 4.05172882e-06  7.58105586e-01  4.05172882e-06  6.94749084e-01  4.05172882e-06  5.00347896e-01  4.05172882e-06  1.80000000e+00  4.05172882e-06  1.30656072e-06  4.05172882e-06  5.00000000e-01                                 
 5.05172882e-06  7.58166297e-01  5.05172882e-06  6.94801847e-01  5.05172882e-06  5.00059548e-01  5.05172882e-06  1.80000000e+00  5.05172882e-06  1.31060364e-06  5.05172882e-06  5.00000000e-01                                 
 6.05172882e-06  7.58124067e-01  6.05172882e-06  6.94765281e-01  6.05172882e-06  5.00315508e-01  6.05172882e-06  1.80000000e+00  6.05172882e-06  1.30640086e-06  6.05172882e-06  5.00000000e-01                                 
 7.05172882e-06  7.58148425e-01  7.05172882e-06  6.94786208e-01  7.05172882e-06  5.00088754e-01  7.05172882e-06  1.80000000e+00  7.05172882e-06  1.31070418e-06  7.05172882e-06  5.00000000e-01                                 
 8.05172882e-06  7.58141216e-01  8.05172882e-06  6.94780278e-01  8.05172882e-06  5.00291031e-01  8.05172882e-06  1.80000000e+00  8.05172882e-06  1.30635662e-06  8.05172882e-06  5.00000000e-01                                 
 9.05172882e-06  7.58131706e-01  9.05172882e-06  6.94771573e-01  9.05172882e-06  5.00109232e-01  9.05172882e-06  1.80000000e+00  9.05172882e-06  1.31069481e-06  9.05172882e-06  5.00000000e-01                                 
 1.00005000e-05  7.58157459e-01  1.00005000e-05  6.94794488e-01  1.00005000e-05  5.00273329e-01  1.00005000e-05  1.80000000e+00  1.00005000e-05  1.30641978e-06  1.00005000e-05  5.00000000e-01                                 
 1.00005500e-05  7.58157277e-01  1.00005500e-05  6.94794332e-01  1.00005500e-05  4.92447904e-01  1.00005500e-05  1.62000000e+00  1.00005500e-05 -7.91853094e-05  1.00005500e-05  5.00000000e-01                                 
 1.00006500e-05  7.58156932e-01  1.00006500e-05  6.94794027e-01  1.00006500e-05  4.78637385e-01  1.00006500e-05  1.26000000e+00  1.00006500e-05 -6.23674911e-05  1.00006500e-05  5.00000000e-01                                 
 1.00008500e-05  7.58156281e-01  1.00008500e-05  6.94793449e-01  1.00008500e-05  4.76402669e-01  1.00008500e-05  5.40000000e-01  1.00008500e-05 -3.72975716e-03  1.00008500e-05  5.00000000e-01                                 
 1.00010000e-05  7.58155705e-01  1.00010000e-05  6.94792967e-01  1.00010000e-05  4.37726833e-01  1.00010000e-05  0.00000000e+00  1.00010000e-05  1.57956063e+00  1.00010000e-05  5.00000000e-01                                 
 1.00010255e-05  7.58155563e-01  1.00010255e-05  6.94792858e-01  1.00010255e-05  4.09376328e-01  1.00010255e-05  0.00000000e+00  1.00010255e-05  1.72562254e+00  1.00010255e-05  5.00000000e-01                                 
 1.00010766e-05  7.58155348e-01  1.00010766e-05  6.94792667e-01  1.00010766e-05  3.57793530e-01  1.00010766e-05  0.00000000e+00  1.00010766e-05  1.82054299e+00  1.00010766e-05  5.00000000e-01                                 
