 time            v(vbep)         time            v(vben)         time            v(vout)         time            v(vphi1)        time            v(vphi2)        time            v(vref)         yes             currtemp       
 0.00000000e+00  5.46207541e-01  0.00000000e+00  4.79560773e-01  0.00000000e+00  1.78749999e-01  0.00000000e+00  0.00000000e+00  0.00000000e+00  1.79997280e+00  0.00000000e+00  5.00000000e-01  1.00000000e+00  9.30000000e+01 
 5.00000000e-12  5.46187223e-01  5.00000000e-12  4.79543910e-01  5.00000000e-12  1.79352245e-01  5.00000000e-12  1.80000000e-02  5.00000000e-12  1.80006942e+00  5.00000000e-12  5.00000000e-01                                 
 1.00000000e-11  5.46167203e-01  1.00000000e-11  4.79527407e-01  1.00000000e-11  1.79893385e-01  1.00000000e-11  3.60000000e-02  1.00000000e-11  1.80011789e+00  1.00000000e-11  5.00000000e-01                                 
 2.00000000e-11  5.46127321e-01  2.00000000e-11  4.79494498e-01  2.00000000e-11  1.80881943e-01  2.00000000e-11  7.20000000e-02  2.00000000e-11  1.80016102e+00  2.00000000e-11  5.00000000e-01                                 
 4.00000000e-11  5.46047835e-01  4.00000000e-11  4.79428857e-01  4.00000000e-11  1.82435179e-01  4.00000000e-11  1.44000000e-01  4.00000000e-11  1.80013101e+00  4.00000000e-11  5.00000000e-01                                 
 8.00000000e-11  5.45889378e-01  8.00000000e-11  4.79297947e-01  8.00000000e-11  1.84530544e-01  8.00000000e-11  2.88000000e-01  8.00000000e-11  1.80007714e+00  8.00000000e-11  5.00000000e-01                                 
 1.60000000e-10  5.45574597e-01  1.60000000e-10  4.79037592e-01  1.60000000e-10  1.87036896e-01  1.60000000e-10  5.76000000e-01  1.60000000e-10  1.80003229e+00  1.60000000e-10  5.00000000e-01                                 
 3.20000000e-10  5.44953191e-01  3.20000000e-10  4.78522558e-01  3.20000000e-10  2.06591857e-01  3.20000000e-10  1.15200000e+00  3.20000000e-10  1.80030099e+00  3.20000000e-10  5.00000000e-01                                 
 5.00000000e-10  5.44266727e-01  5.00000000e-10  4.77951923e-01  5.00000000e-10  4.75931065e-01  5.00000000e-10  1.80000000e+00  5.00000000e-10  1.43144969e-01  5.00000000e-10  5.00000000e-01                                 
 5.22933591e-10  5.44180315e-01  5.22933591e-10  4.77879954e-01  5.22933591e-10  5.35631940e-01  5.22933591e-10  1.80000000e+00  5.22933591e-10  3.09646068e-02  5.22933591e-10  5.00000000e-01                                 
 5.68800772e-10  5.44007905e-01  5.68800772e-10  4.77736306e-01  5.68800772e-10  6.47126998e-01  5.68800772e-10  1.80000000e+00  5.68800772e-10 -1.39645932e-02  5.68800772e-10  5.00000000e-01                                 
 6.60535136e-10  5.43665586e-01  6.60535136e-10  4.77450768e-01  6.60535136e-10  8.27010434e-01  6.60535136e-10  1.80000000e+00  6.60535136e-10  1.12579344e-02  6.60535136e-10  5.00000000e-01                                 
 7.83764955e-10  5.43210857e-01  7.83764955e-10  4.77070802e-01  7.83764955e-10  1.00883271e+00  7.83764955e-10  1.80000000e+00  7.83764955e-10 -9.45154112e-03  7.83764955e-10  5.00000000e-01                                 
 9.82664153e-10  5.42488838e-01  9.82664153e-10  4.76465961e-01  9.82664153e-10  1.23382925e+00  9.82664153e-10  1.80000000e+00  9.82664153e-10  8.76435842e-03  9.82664153e-10  5.00000000e-01                                 
 1.29533272e-09  5.41382332e-01  1.29533272e-09  4.75535431e-01  1.29533272e-09  1.48684309e+00  1.29533272e-09  1.80000000e+00  1.29533272e-09 -8.10435395e-03  1.29533272e-09  5.00000000e-01                                 
 1.88884129e-09  5.39370795e-01  1.88884129e-09  4.73832964e-01  1.88884129e-09  1.71625744e+00  1.88884129e-09  1.80000000e+00  1.88884129e-09  7.99654229e-03  1.88884129e-09  5.00000000e-01                                 
 2.17541000e-09  5.38439042e-01  2.17541000e-09  4.73039550e-01  2.17541000e-09  1.75062956e+00  2.17541000e-09  1.80000000e+00  2.17541000e-09 -7.38053870e-03  2.17541000e-09  5.00000000e-01                                 
 2.51287332e-09  5.37372047e-01  2.51287332e-09  4.72127391e-01  2.51287332e-09  1.76810827e+00  2.51287332e-09  1.80000000e+00  2.51287332e-09  7.09001494e-03  2.51287332e-09  5.00000000e-01                                 
 2.89319684e-09  5.36206528e-01  2.89319684e-09  4.71126709e-01  2.89319684e-09  1.77568941e+00  2.89319684e-09  1.80000000e+00  2.89319684e-09 -6.66981616e-03  2.89319684e-09  5.00000000e-01                                 
 3.57069202e-09  5.34219491e-01  3.57069202e-09  4.69410735e-01  3.57069202e-09  1.77816205e+00  3.57069202e-09  1.80000000e+00  3.57069202e-09  6.57431593e-03  3.57069202e-09  5.00000000e-01                                 
 4.33213766e-09  5.32110804e-01  4.33213766e-09  4.67576214e-01  4.33213766e-09  1.77637202e+00  4.33213766e-09  1.80000000e+00  4.33213766e-09 -6.34471249e-03  4.33213766e-09  5.00000000e-01                                 
 5.75209055e-09  5.28477908e-01  5.75209055e-09  4.64385540e-01  5.75209055e-09  1.77230276e+00  5.75209055e-09  1.80000000e+00  5.75209055e-09  6.34108386e-03  5.75209055e-09  5.00000000e-01                                 
 7.91871009e-09  5.23549155e-01  7.91871009e-09  4.60000016e-01  7.91871009e-09  1.76720646e+00  7.91871009e-09  1.80000000e+00  7.91871009e-09 -6.21115866e-03  7.91871009e-09  5.00000000e-01                                 
 9.40017652e-09  5.20533543e-01  9.40017652e-09  4.57285543e-01  9.40017652e-09  1.76374552e+00  9.40017652e-09  1.80000000e+00  9.40017652e-09  6.20529697e-03  9.40017652e-09  5.00000000e-01                                 
 1.14501651e-08  5.16730887e-01  1.14501651e-08  4.53833671e-01  1.14501651e-08  1.75935412e+00  1.14501651e-08  1.80000000e+00  1.14501651e-08 -6.08661502e-03  1.14501651e-08  5.00000000e-01                                 
 1.36170524e-08  5.13101320e-01  1.36170524e-08  4.50510728e-01  1.36170524e-08  1.75485483e+00  1.36170524e-08  1.80000000e+00  1.36170524e-08  6.09598004e-03  1.36170524e-08  5.00000000e-01                                 
 1.59814379e-08  5.09517019e-01  1.59814379e-08  4.47204302e-01  1.59814379e-08  1.75009660e+00  1.59814379e-08  1.80000000e+00  1.59814379e-08 -5.99140757e-03  1.59814379e-08  5.00000000e-01                                 
 1.87397683e-08  5.05747902e-01  1.87397683e-08  4.43701981e-01  1.87397683e-08  1.74467561e+00  1.87397683e-08  1.80000000e+00  1.87397683e-08  6.00932046e-03  1.87397683e-08  5.00000000e-01                                 
 2.27278589e-08  5.00943835e-01  2.27278589e-08  4.39200350e-01  2.27278589e-08  1.73702064e+00  2.27278589e-08  1.80000000e+00  2.27278589e-08 -5.92537020e-03  2.27278589e-08  5.00000000e-01                                 
 2.89657483e-08  4.94641377e-01  2.89657483e-08  4.33225490e-01  2.89657483e-08  1.72582837e+00  2.89657483e-08  1.80000000e+00  2.89657483e-08  5.96501635e-03  2.89657483e-08  5.00000000e-01                                 
 4.02734969e-08  4.85772056e-01  4.02734969e-08  4.24681420e-01  4.02734969e-08  1.70727921e+00  4.02734969e-08  1.80000000e+00  4.02734969e-08 -5.89849725e-03  4.02734969e-08  5.00000000e-01                                 
 6.28889940e-08  4.73087545e-01  6.28889940e-08  4.12278190e-01  6.28889940e-08  1.67325908e+00  6.28889940e-08  1.80000000e+00  6.28889940e-08  5.95108472e-03  6.28889940e-08  5.00000000e-01                                 
 9.08505843e-08  4.62091775e-01  9.08505843e-08  4.01436854e-01  9.08505843e-08  1.63458501e+00  9.08505843e-08  1.80000000e+00  9.08505843e-08 -5.88987384e-03  9.08505843e-08  5.00000000e-01                                 
 1.34668483e-07  4.48121594e-01  1.34668483e-07  3.87934963e-01  1.34668483e-07  1.57655770e+00  1.34668483e-07  1.80000000e+00  1.34668483e-07  5.94493975e-03  1.34668483e-07  5.00000000e-01                                 
 1.79477575e-07  4.31375001e-01  1.79477575e-07  3.72856780e-01  1.79477575e-07  1.51403265e+00  1.79477575e-07  1.80000000e+00  1.79477575e-07 -5.88517021e-03  1.79477575e-07  5.00000000e-01                                 
 2.38473333e-07  4.09175349e-01  2.38473333e-07  3.53503906e-01  2.38473333e-07  1.43045929e+00  2.38473333e-07  1.80000000e+00  2.38473333e-07  5.94077907e-03  2.38473333e-07  5.00000000e-01                                 
 3.01152022e-07  3.85951774e-01  3.01152022e-07  3.33771661e-01  3.01152022e-07  1.34130669e+00  3.01152022e-07  1.80000000e+00  3.01152022e-07 -5.88170397e-03  3.01152022e-07  5.00000000e-01                                 
 4.26509399e-07  3.28163101e-01  4.26509399e-07  2.86356430e-01  4.26509399e-07  1.15429803e+00  4.26509399e-07  1.80000000e+00  4.26509399e-07  5.93817166e-03  4.26509399e-07  5.00000000e-01                                 
 5.52671277e-07  6.30008041e-01  5.52671277e-07  5.60386461e-01  5.52671277e-07  1.30953360e+00  5.52671277e-07  1.80000000e+00  5.52671277e-07 -5.87631460e-03  5.52671277e-07  5.00000000e-01                                 
 6.58010912e-07  7.03860026e-01  6.58010912e-07  6.26338055e-01  6.58010912e-07  1.26882571e+00  6.58010912e-07  1.80000000e+00  6.58010912e-07  5.93439717e-03  6.58010912e-07  5.00000000e-01                                 
 6.70879752e-07  7.04038360e-01  6.70879752e-07  6.26468983e-01  6.70879752e-07  1.25425042e+00  6.70879752e-07  1.80000000e+00  6.70879752e-07  1.67489501e-05  6.70879752e-07  5.00000000e-01                                 
 6.96617430e-07  7.04236662e-01  6.96617430e-07  6.26624153e-01  6.96617430e-07  1.22681693e+00  6.96617430e-07  1.80000000e+00  6.96617430e-07  1.25262795e-05  6.96617430e-07  5.00000000e-01                                 
 7.40425969e-07  7.04176781e-01  7.40425969e-07  6.26579165e-01  7.40425969e-07  1.18046723e+00  7.40425969e-07  1.80000000e+00  7.40425969e-07  1.67997364e-05  7.40425969e-07  5.00000000e-01                                 
 7.87072314e-07  6.88960108e-01  7.87072314e-07  6.14145563e-01  7.87072314e-07  1.11856243e+00  7.87072314e-07  1.80000000e+00  7.87072314e-07  1.19584884e-05  7.87072314e-07  5.00000000e-01                                 
 7.94190036e-07  6.83713915e-01  7.94190036e-07  6.09714090e-01  7.94190036e-07  1.10672950e+00  7.94190036e-07  1.80000000e+00  7.94190036e-07  1.40516583e-05  7.94190036e-07  5.00000000e-01                                 
 8.08425480e-07  6.74360404e-01  8.08425480e-07  6.01628624e-01  8.08425480e-07  1.08431843e+00  8.08425480e-07  1.80000000e+00  8.08425480e-07  1.41449381e-05  8.08425480e-07  5.00000000e-01                                 
 8.36896369e-07  6.71159512e-01  8.36896369e-07  5.98769499e-01  8.36896369e-07  1.05551789e+00  8.36896369e-07  1.80000000e+00  8.36896369e-07  1.49333273e-05  8.36896369e-07  5.00000000e-01                                 
 8.75262084e-07  6.84594092e-01  8.75262084e-07  6.10406890e-01  8.75262084e-07  1.03568142e+00  8.75262084e-07  1.80000000e+00  8.75262084e-07  1.49681253e-05  8.75262084e-07  5.00000000e-01                                 
 9.23533834e-07  6.92473911e-01  9.23533834e-07  6.17044898e-01  9.23533834e-07  1.00503164e+00  9.23533834e-07  1.80000000e+00  9.23533834e-07  1.46331784e-05  9.23533834e-07  5.00000000e-01                                 
 9.75780846e-07  6.86252354e-01  9.75780846e-07  6.11842141e-01  9.75780846e-07  9.62178197e-01  9.75780846e-07  1.80000000e+00  9.75780846e-07  1.44785600e-05  9.75780846e-07  5.00000000e-01                                 
 1.05350047e-06  6.80895052e-01  1.05350047e-06  6.07261009e-01  1.05350047e-06  9.06494040e-01  1.05350047e-06  1.80000000e+00  1.05350047e-06  1.47096679e-05  1.05350047e-06  5.00000000e-01                                 
 1.13812105e-06  6.88927051e-01  1.13812105e-06  6.14079159e-01  1.13812105e-06  8.60821819e-01  1.13812105e-06  1.80000000e+00  1.13812105e-06  1.47589378e-05  1.13812105e-06  5.00000000e-01                                 
 1.27096208e-06  6.84455370e-01  1.27096208e-06  6.10316708e-01  1.27096208e-06  7.77332761e-01  1.27096208e-06  1.80000000e+00  1.27096208e-06  1.44962321e-05  1.27096208e-06  5.00000000e-01                                 
 1.39484031e-06  6.84379557e-01  1.39484031e-06  6.10234731e-01  1.39484031e-06  7.06767598e-01  1.39484031e-06  1.80000000e+00  1.39484031e-06  1.48071040e-05  1.39484031e-06  5.00000000e-01                                 
 1.59881472e-06  6.87740378e-01  1.59881472e-06  6.13093727e-01  1.59881472e-06  6.00465416e-01  1.59881472e-06  1.80000000e+00  1.59881472e-06  1.45319514e-05  1.59881472e-06  5.00000000e-01                                 
 1.88129937e-06  6.83059410e-01  1.88129937e-06  6.09113235e-01  1.88129937e-06  5.03945653e-01  1.88129937e-06  1.80000000e+00  1.88129937e-06  1.47493094e-05  1.88129937e-06  5.00000000e-01                                 
 1.91391200e-06  6.85117196e-01  1.91391200e-06  6.10866866e-01  1.91391200e-06  5.01633363e-01  1.91391200e-06  1.80000000e+00  1.91391200e-06  1.47093632e-05  1.91391200e-06  5.00000000e-01                                 
 1.97913727e-06  6.86787073e-01  1.97913727e-06  6.12283904e-01  1.97913727e-06  4.95455784e-01  1.97913727e-06  1.80000000e+00  1.97913727e-06  1.46449868e-05  1.97913727e-06  5.00000000e-01                                 
 2.10958781e-06  6.84810829e-01  2.10958781e-06  6.10610896e-01  2.10958781e-06  4.92117895e-01  2.10958781e-06  1.80000000e+00  2.10958781e-06  1.46401866e-05  2.10958781e-06  5.00000000e-01                                 
 2.24154679e-06  6.85811023e-01  2.24154679e-06  6.11456400e-01  2.24154679e-06  5.02331868e-01  2.24154679e-06  1.80000000e+00  2.24154679e-06  1.46803839e-05  2.24154679e-06  5.00000000e-01                                 
 2.41681056e-06  6.85837284e-01  2.41681056e-06  6.11482021e-01  2.41681056e-06  5.00061220e-01  2.41681056e-06  1.80000000e+00  2.41681056e-06  1.46270343e-05  2.41681056e-06  5.00000000e-01                                 
 2.59861880e-06  6.85117466e-01  2.59861880e-06  6.10868930e-01  2.59861880e-06  4.99449899e-01  2.59861880e-06  1.80000000e+00  2.59861880e-06  1.46758367e-05  2.59861880e-06  5.00000000e-01                                 
 2.96223527e-06  6.86185360e-01  2.96223527e-06  6.11775885e-01  2.96223527e-06  5.01317357e-01  2.96223527e-06  1.80000000e+00  2.96223527e-06  1.46368262e-05  2.96223527e-06  5.00000000e-01                                 
 3.32257071e-06  6.85004687e-01  3.32257071e-06  6.10773843e-01  3.32257071e-06  4.99068466e-01  3.32257071e-06  1.80000000e+00  3.32257071e-06  1.46665031e-05  3.32257071e-06  5.00000000e-01                                 
 3.92240844e-06  6.86219503e-01  3.92240844e-06  6.11804238e-01  3.92240844e-06  5.01467771e-01  3.92240844e-06  1.80000000e+00  3.92240844e-06  1.46449041e-05  3.92240844e-06  5.00000000e-01                                 
 4.74072933e-06  6.85012572e-01  4.74072933e-06  6.10780887e-01  4.74072933e-06  4.99046436e-01  4.74072933e-06  1.80000000e+00  4.74072933e-06  1.46611277e-05  4.74072933e-06  5.00000000e-01                                 
 5.74072933e-06  6.86198985e-01  5.74072933e-06  6.11786622e-01  5.74072933e-06  5.01453805e-01  5.74072933e-06  1.80000000e+00  5.74072933e-06  1.46490035e-05  5.74072933e-06  5.00000000e-01                                 
 6.74072933e-06  6.85041655e-01  6.74072933e-06  6.10805805e-01  6.74072933e-06  4.99080524e-01  6.74072933e-06  1.80000000e+00  6.74072933e-06  1.46575129e-05  6.74072933e-06  5.00000000e-01                                 
 7.74072933e-06  6.86162103e-01  7.74072933e-06  6.11755202e-01  7.74072933e-06  5.01403668e-01  7.74072933e-06  1.80000000e+00  7.74072933e-06  1.46525176e-05  7.74072933e-06  5.00000000e-01                                 
 8.74072933e-06  6.85087201e-01  8.74072933e-06  6.10844676e-01  8.74072933e-06  4.99144906e-01  8.74072933e-06  1.80000000e+00  8.74072933e-06  1.46541277e-05  8.74072933e-06  5.00000000e-01                                 
 9.74072933e-06  6.86110420e-01  9.74072933e-06  6.11711275e-01  9.74072933e-06  5.01327717e-01  9.74072933e-06  1.80000000e+00  9.74072933e-06  1.46557485e-05  9.74072933e-06  5.00000000e-01                                 
 1.00005000e-05  6.85246087e-01  1.00005000e-05  6.10979904e-01  1.00005000e-05  4.99381159e-01  1.00005000e-05  1.80000000e+00  1.00005000e-05  1.46474846e-05  1.00005000e-05  5.00000000e-01                                 
 1.00005500e-05  6.85245564e-01  1.00005500e-05  6.10979466e-01  1.00005500e-05  4.92100962e-01  1.00005500e-05  1.62000000e+00  1.00005500e-05 -7.27190618e-05  1.00005500e-05  5.00000000e-01                                 
 1.00006500e-05  6.85244549e-01  1.00006500e-05  6.10978597e-01  1.00006500e-05  4.78610364e-01  1.00006500e-05  1.26000000e+00  1.00006500e-05 -6.13065209e-05  1.00006500e-05  5.00000000e-01                                 
 1.00008500e-05  6.85242567e-01  1.00008500e-05  6.10976890e-01  1.00008500e-05  4.78388711e-01  1.00008500e-05  5.40000000e-01  1.00008500e-05  1.69000719e-01  1.00008500e-05  5.00000000e-01                                 
 1.00010000e-05  6.85241006e-01  1.00010000e-05  6.10975575e-01  1.00010000e-05  4.43989439e-01  1.00010000e-05  0.00000000e+00  1.00010000e-05  1.63927163e+00  1.00010000e-05  5.00000000e-01                                 
 1.00010247e-05  6.85240735e-01  1.00010247e-05  6.10975348e-01  1.00010247e-05  4.25631141e-01  1.00010247e-05  0.00000000e+00  1.00010247e-05  1.74623315e+00  1.00010247e-05  5.00000000e-01                                 
 1.00010741e-05  6.85240228e-01  1.00010741e-05  6.10974909e-01  1.00010741e-05  3.93500702e-01  1.00010741e-05  0.00000000e+00  1.00010741e-05  1.81562824e+00  1.00010741e-05  5.00000000e-01                                 
 1.00011729e-05  6.85239308e-01  1.00011729e-05  6.10974096e-01  1.00011729e-05  3.61093983e-01  1.00011729e-05  0.00000000e+00  1.00011729e-05  1.78884986e+00  1.00011729e-05  5.00000000e-01                                 
 1.00013356e-05  6.85237795e-01  1.00013356e-05  6.10972802e-01  1.00013356e-05  3.53073745e-01  1.00013356e-05  0.00000000e+00  1.00013356e-05  1.80789283e+00  1.00013356e-05  5.00000000e-01                                 
 1.00015794e-05  6.85235424e-01  1.00015794e-05  6.10970794e-01  1.00015794e-05  3.53700929e-01  1.00015794e-05  0.00000000e+00  1.00015794e-05  1.79334295e+00  1.00015794e-05  5.00000000e-01                                 
 1.00018234e-05  6.85232959e-01  1.00018234e-05  6.10968705e-01  1.00018234e-05  3.53835349e-01  1.00018234e-05  0.00000000e+00  1.00018234e-05  1.80546945e+00  1.00018234e-05  5.00000000e-01                                 
 1.00022521e-05  6.85228609e-01  1.00022521e-05  6.10965010e-01  1.00022521e-05  3.53784643e-01  1.00022521e-05  0.00000000e+00  1.00022521e-05  1.79506191e+00  1.00022521e-05  5.00000000e-01                                 
 1.00028102e-05  6.85223186e-01  1.00028102e-05  6.10960387e-01  1.00028102e-05  3.54112920e-01  1.00028102e-05  0.00000000e+00  1.00028102e-05  1.80453359e+00  1.00028102e-05  5.00000000e-01                                 
 1.00039263e-05  6.85213614e-01  1.00039263e-05  6.10952201e-01  1.00039263e-05  3.54620905e-01  1.00039263e-05  0.00000000e+00  1.00039263e-05  1.79563199e+00  1.00039263e-05  5.00000000e-01                                 
 1.00061585e-05  6.85198474e-01  1.00061585e-05  6.10939246e-01  1.00061585e-05  3.56452332e-01  1.00061585e-05  0.00000000e+00  1.00061585e-05  1.80426496e+00  1.00061585e-05  5.00000000e-01                                 
 1.00106231e-05  6.85179044e-01  1.00106231e-05  6.10922616e-01  1.00106231e-05  3.60360525e-01  1.00106231e-05  0.00000000e+00  1.00106231e-05  1.79576355e+00  1.00106231e-05  5.00000000e-01                                 
