 time            v(vbep)         time            v(vben)         time            v(vout)         time            v(vphi1)        time            v(vphi2)        time            v(vref)         yes             currtemp       
 0.00000000e+00  7.25517949e-01  0.00000000e+00  6.75553329e-01  0.00000000e+00  7.33473236e-02  0.00000000e+00  0.00000000e+00  0.00000000e+00  1.79997354e+00  0.00000000e+00  5.00000000e-01  1.00000000e+00  0.00000000e+00 
 5.00000000e-12  7.25501071e-01  5.00000000e-12  6.75539265e-01  5.00000000e-12  7.37869140e-02  5.00000000e-12  1.80000000e-02  5.00000000e-12  1.80005634e+00  5.00000000e-12  5.00000000e-01                                 
 1.00000000e-11  7.25484458e-01  1.00000000e-11  6.75525496e-01  1.00000000e-11  7.41819121e-02  1.00000000e-11  3.60000000e-02  1.00000000e-11  1.80009557e+00  1.00000000e-11  5.00000000e-01                                 
 2.00000000e-11  7.25451371e-01  2.00000000e-11  6.75498037e-01  2.00000000e-11  7.49100193e-02  2.00000000e-11  7.20000000e-02  2.00000000e-11  1.80012802e+00  2.00000000e-11  5.00000000e-01                                 
 4.00000000e-11  7.25385442e-01  4.00000000e-11  6.75443267e-01  4.00000000e-11  7.60897689e-02  4.00000000e-11  1.44000000e-01  4.00000000e-11  1.80009690e+00  4.00000000e-11  5.00000000e-01                                 
 8.00000000e-11  7.25254013e-01  8.00000000e-11  6.75334035e-01  8.00000000e-11  7.78672121e-02  8.00000000e-11  2.88000000e-01  8.00000000e-11  1.80004472e+00  8.00000000e-11  5.00000000e-01                                 
 1.60000000e-10  7.24992989e-01  1.60000000e-10  6.75116833e-01  1.60000000e-10  8.07541258e-02  1.60000000e-10  5.76000000e-01  1.60000000e-10  1.80001095e+00  1.60000000e-10  5.00000000e-01                                 
 3.20000000e-10  7.24478075e-01  3.20000000e-10  6.74687420e-01  3.20000000e-10  1.16677547e-01  3.20000000e-10  1.15200000e+00  3.20000000e-10  1.79998239e+00  3.20000000e-10  5.00000000e-01                                 
 5.00000000e-10  7.23910035e-01  5.00000000e-10  6.74212214e-01  5.00000000e-10  4.60068741e-01  5.00000000e-10  1.80000000e+00  5.00000000e-10  1.01336192e-01  5.00000000e-10  5.00000000e-01                                 
 5.21163372e-10  7.23844101e-01  5.21163372e-10  6.74156946e-01  5.21163372e-10  5.22521433e-01  5.21163372e-10  1.80000000e+00  5.21163372e-10  1.82556401e-02  5.21163372e-10  5.00000000e-01                                 
 5.63490116e-10  7.23712547e-01  5.63490116e-10  6.74046628e-01  5.63490116e-10  6.32861201e-01  5.63490116e-10  1.80000000e+00  5.63490116e-10 -8.52714140e-03  5.63490116e-10  5.00000000e-01                                 
 6.48143603e-10  7.23451335e-01  6.48143603e-10  6.73827341e-01  6.48143603e-10  7.92755213e-01  6.48143603e-10  1.80000000e+00  6.48143603e-10  7.52944513e-03  6.48143603e-10  5.00000000e-01                                 
 7.71701034e-10  7.23074552e-01  7.71701034e-10  6.73510464e-01  7.71701034e-10  9.53973162e-01  7.71701034e-10  1.80000000e+00  7.71701034e-10 -6.52734355e-03  7.71701034e-10  5.00000000e-01                                 
 9.61432245e-10  7.22505998e-01  9.61432245e-10  6.73031047e-01  9.61432245e-10  1.13826889e+00  9.61432245e-10  1.80000000e+00  9.61432245e-10  6.23843068e-03  9.61432245e-10  5.00000000e-01                                 
 1.26367547e-09  7.21624211e-01  1.26367547e-09  6.72284560e-01  1.26367547e-09  1.35590761e+00  1.26367547e-09  1.80000000e+00  1.26367547e-09 -5.87997712e-03  1.26367547e-09  5.00000000e-01                                 
 1.80610208e-09  7.20110423e-01  1.80610208e-09  6.70994900e-01  1.80610208e-09  1.56971385e+00  1.80610208e-09  1.80000000e+00  1.80610208e-09  5.82437122e-03  1.80610208e-09  5.00000000e-01                                 
 2.20747194e-09  7.19043597e-01  2.20747194e-09  6.70079796e-01  2.20747194e-09  1.62802081e+00  2.20747194e-09  1.80000000e+00  2.20747194e-09 -5.55421685e-03  2.20747194e-09  5.00000000e-01                                 
 2.58377220e-09  7.18080437e-01  2.58377220e-09  6.69249376e-01  2.58377220e-09  1.64831696e+00  2.58377220e-09  1.80000000e+00  2.58377220e-09  5.44172593e-03  2.58377220e-09  5.00000000e-01                                 
 2.99170849e-09  7.17073614e-01  2.99170849e-09  6.68377143e-01  2.99170849e-09  1.65535196e+00  2.99170849e-09  1.80000000e+00  2.99170849e-09 -5.23048026e-03  2.99170849e-09  5.00000000e-01                                 
 3.37173955e-09  7.16168189e-01  3.37173955e-09  6.67589194e-01  3.37173955e-09  1.65639746e+00  3.37173955e-09  1.80000000e+00  3.37173955e-09  5.08801163e-03  3.37173955e-09  5.00000000e-01                                 
 4.04038975e-09  7.14644315e-01  4.04038975e-09  6.66255799e-01  4.04038975e-09  1.65461192e+00  4.04038975e-09  1.80000000e+00  4.04038975e-09 -4.96838218e-03  4.04038975e-09  5.00000000e-01                                 
 4.88846878e-09  7.12826159e-01  4.88846878e-09  6.64653383e-01  4.88846878e-09  1.65089452e+00  4.88846878e-09  1.80000000e+00  4.88846878e-09  4.91553030e-03  4.88846878e-09  5.00000000e-01                                 
 6.51259635e-09  7.09644048e-01  6.51259635e-09  6.61821328e-01  6.51259635e-09  1.64446688e+00  6.51259635e-09  1.80000000e+00  6.51259635e-09 -4.85703342e-03  6.51259635e-09  5.00000000e-01                                 
 9.43625677e-09  7.04688415e-01  9.43625677e-09  6.57348390e-01  9.43625677e-09  1.63556387e+00  9.43625677e-09  1.80000000e+00  9.43625677e-09  4.85617388e-03  9.43625677e-09  5.00000000e-01                                 
 1.52835776e-08  6.96788486e-01  1.52835776e-08  6.50086515e-01  1.52835776e-08  1.62004609e+00  1.52835776e-08  1.80000000e+00  1.52835776e-08 -4.82540030e-03  1.52835776e-08  5.00000000e-01                                 
 2.69782193e-08  6.85892094e-01  2.69782193e-08  6.39803816e-01  2.69782193e-08  1.57626266e+00  2.69782193e-08  1.80000000e+00  2.69782193e-08  4.84081336e-03  2.69782193e-08  5.00000000e-01                                 
 4.90655568e-08  6.73839131e-01  4.90655568e-08  6.28008948e-01  4.90655568e-08  1.45423482e+00  4.90655568e-08  1.80000000e+00  4.90655568e-08 -4.81707636e-03  4.90655568e-08  5.00000000e-01                                 
 7.43315357e-08  6.64910944e-01  7.43315357e-08  6.19167108e-01  7.43315357e-08  1.30105792e+00  7.43315357e-08  1.80000000e+00  7.43315357e-08  4.83584399e-03  7.43315357e-08  5.00000000e-01                                 
 1.12512514e-07  6.55112464e-01  1.12512514e-07  6.09491290e-01  1.12512514e-07  1.07377490e+00  1.12512514e-07  1.80000000e+00  1.12512514e-07 -4.81302490e-03  1.12512514e-07  5.00000000e-01                                 
 1.58329152e-07  6.46278521e-01  1.58329152e-07  6.00839967e-01  1.58329152e-07  8.52008371e-01  1.58329152e-07  1.80000000e+00  1.58329152e-07  4.83299881e-03  1.58329152e-07  5.00000000e-01                                 
 2.18041412e-07  6.33707099e-01  2.18041412e-07  5.89286066e-01  2.18041412e-07  6.77903868e-01  2.18041412e-07  1.80000000e+00  2.18041412e-07 -4.81072574e-03  2.18041412e-07  5.00000000e-01                                 
 2.86950905e-07  6.20284992e-01  2.86950905e-07  5.77287257e-01  2.86950905e-07  5.60106062e-01  2.86950905e-07  1.80000000e+00  2.86950905e-07  4.83112715e-03  2.86950905e-07  5.00000000e-01                                 
 3.76410432e-07  6.04553351e-01  3.76410432e-07  5.63532953e-01  3.76410432e-07  4.77746829e-01  3.76410432e-07  1.80000000e+00  3.76410432e-07 -4.80917453e-03  3.76410432e-07  5.00000000e-01                                 
 3.89848255e-07  6.02187108e-01  3.89848255e-07  5.61505488e-01  3.89848255e-07  4.76477555e-01  3.89848255e-07  1.80000000e+00  3.89848255e-07 -1.07075863e-06  3.89848255e-07  5.00000000e-01                                 
 4.16723902e-07  5.97499150e-01  4.16723902e-07  5.57500094e-01  4.16723902e-07  4.74701286e-01  4.16723902e-07  1.80000000e+00  4.16723902e-07  1.04618885e-06  4.16723902e-07  5.00000000e-01                                 
 4.70475197e-07  5.88082315e-01  4.70475197e-07  5.49535968e-01  4.70475197e-07  4.71351049e-01  4.70475197e-07  1.80000000e+00  4.70475197e-07 -1.06892418e-06  4.70475197e-07  5.00000000e-01                                 
 5.43075515e-07  5.74834371e-01  5.43075515e-07  5.38500335e-01  5.43075515e-07  4.95330038e-01  5.43075515e-07  1.80000000e+00  5.43075515e-07  1.04122908e-06  5.43075515e-07  5.00000000e-01                                 
 6.25101276e-07  5.59213248e-01  6.25101276e-07  5.25666354e-01  6.25101276e-07  5.27927050e-01  6.25101276e-07  1.80000000e+00  6.25101276e-07 -1.07319390e-06  6.25101276e-07  5.00000000e-01                                 
 6.36389476e-07  5.57011768e-01  6.36389476e-07  5.23870993e-01  6.36389476e-07  5.21968108e-01  6.36389476e-07  1.80000000e+00  6.36389476e-07 -1.85813263e-08  6.36389476e-07  5.00000000e-01                                 
 6.58965878e-07  5.52544306e-01  6.58965878e-07  5.20232782e-01  6.58965878e-07  5.07259552e-01  6.58965878e-07  1.80000000e+00  6.58965878e-07 -1.72610581e-08  6.58965878e-07  5.00000000e-01                                 
 7.04118680e-07  5.43414515e-01  7.04118680e-07  5.12823360e-01  7.04118680e-07  4.86944674e-01  7.04118680e-07  1.80000000e+00  7.04118680e-07 -1.92556280e-08  7.04118680e-07  5.00000000e-01                                 
 7.50446052e-07  5.33734973e-01  7.50446052e-07  5.04998843e-01  7.50446052e-07  4.82731564e-01  7.50446052e-07  1.80000000e+00  7.50446052e-07 -2.17609683e-08  7.50446052e-07  5.00000000e-01                                 
 8.28750343e-07  5.17852571e-01  8.28750343e-07  4.92202738e-01  8.28750343e-07  4.91980052e-01  8.28750343e-07  1.80000000e+00  8.28750343e-07 -1.27883195e-08  8.28750343e-07  5.00000000e-01                                 
 9.15563536e-07  5.16468486e-01  9.15563536e-07  4.91041069e-01  9.15563536e-07  5.20512351e-01  9.15563536e-07  1.80000000e+00  9.15563536e-07  1.19458658e-07  9.15563536e-07  5.00000000e-01                                 
 9.27147048e-07  5.19950774e-01  9.27147048e-07  4.93822245e-01  9.27147048e-07  5.19973514e-01  9.27147048e-07  1.80000000e+00  9.27147048e-07  1.71236572e-07  9.27147048e-07  5.00000000e-01                                 
 9.50314072e-07  5.31761813e-01  9.50314072e-07  5.03260570e-01  9.50314072e-07  5.16345098e-01  9.50314072e-07  1.80000000e+00  9.50314072e-07  3.31362402e-07  9.50314072e-07  5.00000000e-01                                 
 9.86873588e-07  5.90886165e-01  9.86873588e-07  5.50483856e-01  9.86873588e-07  5.26150650e-01  9.86873588e-07  1.80000000e+00  9.86873588e-07  1.04291310e-06  9.86873588e-07  5.00000000e-01                                 
 1.02753735e-06  7.49088375e-01  1.02753735e-06  6.95122286e-01  1.02753735e-06  5.62521733e-01  1.02753735e-06  1.80000000e+00  1.02753735e-06  2.75876297e-06  1.02753735e-06  5.00000000e-01                                 
 1.03435343e-06  7.65593240e-01  1.03435343e-06  7.13347438e-01  1.03435343e-06  5.56291739e-01  1.03435343e-06  1.80000000e+00  1.03435343e-06  1.54909596e-06  1.03435343e-06  5.00000000e-01                                 
 1.04798558e-06  7.85150937e-01  1.04798558e-06  7.33863869e-01  1.04798558e-06  5.38112456e-01  1.04798558e-06  1.80000000e+00  1.04798558e-06  3.64287049e-07  1.04798558e-06  5.00000000e-01                                 
 1.07524988e-06  8.08510829e-01  1.07524988e-06  7.56173260e-01  1.07524988e-06  5.15423121e-01  1.07524988e-06  1.80000000e+00  1.07524988e-06  7.99061405e-07  1.07524988e-06  5.00000000e-01                                 
 1.10575483e-06  8.25868675e-01  1.10575483e-06  7.72148812e-01  1.10575483e-06  5.10073187e-01  1.10575483e-06  1.80000000e+00  1.10575483e-06  4.80344670e-08  1.10575483e-06  5.00000000e-01                                 
 1.15445701e-06  8.54276433e-01  1.15445701e-06  7.96029864e-01  1.15445701e-06  5.11018513e-01  1.15445701e-06  1.80000000e+00  1.15445701e-06  7.81948069e-07  1.15445701e-06  5.00000000e-01                                 
 1.16132613e-06  8.59457390e-01  1.16132613e-06  8.00063356e-01  1.16132613e-06  5.11814760e-01  1.16132613e-06  1.80000000e+00  1.16132613e-06  5.40516524e-07  1.16132613e-06  5.00000000e-01                                 
 1.17506437e-06  8.71470577e-01  1.17506437e-06  8.09003493e-01  1.17506437e-06  5.13672625e-01  1.17506437e-06  1.80000000e+00  1.17506437e-06  6.38715234e-07  1.17506437e-06  5.00000000e-01                                 
 1.19756077e-06  8.86085467e-01  1.19756077e-06  8.19285607e-01  1.19756077e-06  5.11733837e-01  1.19756077e-06  1.80000000e+00  1.19756077e-06  2.82937952e-07  1.19756077e-06  5.00000000e-01                                 
 1.21775449e-06  8.74830679e-01  1.21775449e-06  8.11714264e-01  1.21775449e-06  4.95858437e-01  1.21775449e-06  1.80000000e+00  1.21775449e-06 -7.75866981e-07  1.21775449e-06  5.00000000e-01                                 
 1.23840784e-06  8.58848931e-01  1.23840784e-06  7.99601747e-01  1.23840784e-06  4.80946676e-01  1.23840784e-06  1.80000000e+00  1.23840784e-06 -8.56491727e-08  1.23840784e-06  5.00000000e-01                                 
 1.25784722e-06  8.47349207e-01  1.25784722e-06  7.90682920e-01  1.25784722e-06  4.72987892e-01  1.25784722e-06  1.80000000e+00  1.25784722e-06 -5.06961872e-07  1.25784722e-06  5.00000000e-01                                 
 1.28675887e-06  8.22737363e-01  1.28675887e-06  7.69244654e-01  1.28675887e-06  4.57402914e-01  1.28675887e-06  1.80000000e+00  1.28675887e-06 -4.42300140e-07  1.28675887e-06  5.00000000e-01                                 
 1.31596961e-06  8.19903961e-01  1.31596961e-06  7.66900206e-01  1.31596961e-06  4.67658994e-01  1.31596961e-06  1.80000000e+00  1.31596961e-06  4.35525493e-07  1.31596961e-06  5.00000000e-01                                 
 1.35251183e-06  8.21043066e-01  1.35251183e-06  7.67710643e-01  1.35251183e-06  5.18068191e-01  1.35251183e-06  1.80000000e+00  1.35251183e-06 -2.56986175e-07  1.35251183e-06  5.00000000e-01                                 
 1.38986186e-06  8.28108322e-01  1.38986186e-06  7.74212493e-01  1.38986186e-06  5.51062562e-01  1.38986186e-06  1.80000000e+00  1.38986186e-06  5.77022240e-07  1.38986186e-06  5.00000000e-01                                 
 1.43097471e-06  8.25459326e-01  1.43097471e-06  7.71729809e-01  1.43097471e-06  5.05576336e-01  1.43097471e-06  1.80000000e+00  1.43097471e-06 -5.36734993e-07  1.43097471e-06  5.00000000e-01                                 
 1.47476779e-06  8.22575467e-01  1.47476779e-06  7.69273135e-01  1.47476779e-06  4.68710599e-01  1.47476779e-06  1.80000000e+00  1.47476779e-06  5.77718589e-07  1.47476779e-06  5.00000000e-01                                 
 1.52194671e-06  8.23866971e-01  1.52194671e-06  7.70297651e-01  1.52194671e-06  4.77689165e-01  1.52194671e-06  1.80000000e+00  1.52194671e-06 -4.13045936e-07  1.52194671e-06  5.00000000e-01                                 
 1.57201599e-06  8.25839613e-01  1.57201599e-06  7.72188159e-01  1.57201599e-06  5.03133050e-01  1.57201599e-06  1.80000000e+00  1.57201599e-06  5.75715710e-07  1.57201599e-06  5.00000000e-01                                 
 1.63899843e-06  8.23399221e-01  1.63899843e-06  7.69890268e-01  1.63899843e-06  5.27322629e-01  1.63899843e-06  1.80000000e+00  1.63899843e-06 -4.97888074e-07  1.63899843e-06  5.00000000e-01                                 
 1.64834390e-06  8.23595922e-01  1.64834390e-06  7.70118163e-01  1.64834390e-06  5.22328210e-01  1.64834390e-06  1.80000000e+00  1.64834390e-06  4.64373420e-08  1.64834390e-06  5.00000000e-01                                 
 1.66703485e-06  8.23717909e-01  1.66703485e-06  7.70234265e-01  1.66703485e-06  5.10819714e-01  1.66703485e-06  1.80000000e+00  1.66703485e-06  7.55030646e-08  1.66703485e-06  5.00000000e-01                                 
 1.70441674e-06  8.24478611e-01  1.70441674e-06  7.70909130e-01  1.70441674e-06  4.96711198e-01  1.70441674e-06  1.80000000e+00  1.70441674e-06  7.59139486e-08  1.70441674e-06  5.00000000e-01                                 
 1.77918051e-06  8.24579365e-01  1.77918051e-06  7.71008439e-01  1.77918051e-06  4.95445563e-01  1.77918051e-06  1.80000000e+00  1.77918051e-06  4.59294120e-08  1.77918051e-06  5.00000000e-01                                 
 1.84975294e-06  8.23995022e-01  1.84975294e-06  7.70476978e-01  1.84975294e-06  4.97494728e-01  1.84975294e-06  1.80000000e+00  1.84975294e-06  6.28160083e-08  1.84975294e-06  5.00000000e-01                                 
 1.99089780e-06  8.24582490e-01  1.99089780e-06  7.71009624e-01  1.99089780e-06  5.01892880e-01  1.99089780e-06  1.80000000e+00  1.99089780e-06  6.16433526e-08  1.99089780e-06  5.00000000e-01                                 
 2.14251682e-06  8.24190066e-01  2.14251682e-06  7.70652798e-01  2.14251682e-06  5.00592853e-01  2.14251682e-06  1.80000000e+00  2.14251682e-06  5.42653549e-08  2.14251682e-06  5.00000000e-01                                 
 2.44575485e-06  8.24411221e-01  2.44575485e-06  7.70855798e-01  2.44575485e-06  4.98790547e-01  2.44575485e-06  1.80000000e+00  2.44575485e-06  6.59821311e-08  2.44575485e-06  5.00000000e-01                                 
 2.77150046e-06  8.24301389e-01  2.77150046e-06  7.70752754e-01  2.77150046e-06  5.01697445e-01  2.77150046e-06  1.80000000e+00  2.77150046e-06  5.28579393e-08  2.77150046e-06  5.00000000e-01                                 
 3.39317096e-06  8.24334648e-01  3.39317096e-06  7.70787121e-01  3.39317096e-06  4.98601203e-01  3.39317096e-06  1.80000000e+00  3.39317096e-06  6.64751661e-08  3.39317096e-06  5.00000000e-01                                 
 4.29917433e-06  8.24342715e-01  4.29917433e-06  7.70789812e-01  4.29917433e-06  5.01545255e-01  4.29917433e-06  1.80000000e+00  4.29917433e-06  5.28268648e-08  4.29917433e-06  5.00000000e-01                                 
 5.29917433e-06  8.24304776e-01  5.29917433e-06  7.70760346e-01  5.29917433e-06  4.98828598e-01  5.29917433e-06  1.80000000e+00  5.29917433e-06  6.63848761e-08  5.29917433e-06  5.00000000e-01                                 
 6.29917433e-06  8.24369571e-01  6.29917433e-06  7.70813877e-01  6.29917433e-06  5.01268408e-01  6.29917433e-06  1.80000000e+00  6.29917433e-06  5.29940561e-08  6.29917433e-06  5.00000000e-01                                 
 7.29917433e-06  8.24279749e-01  7.29917433e-06  7.70737924e-01  7.29917433e-06  4.99155823e-01  7.29917433e-06  1.80000000e+00  7.29917433e-06  6.61457337e-08  7.29917433e-06  5.00000000e-01                                 
 8.29917433e-06  8.24392921e-01  8.29917433e-06  7.70834788e-01  8.29917433e-06  5.00907143e-01  8.29917433e-06  1.80000000e+00  8.29917433e-06  5.32995929e-08  8.29917433e-06  5.00000000e-01                                 
 9.29917433e-06  8.24258333e-01  9.29917433e-06  7.70718747e-01  9.29917433e-06  4.99546435e-01  9.29917433e-06  1.80000000e+00  9.29917433e-06  6.57795962e-08  9.29917433e-06  5.00000000e-01                                 
 1.00005000e-05  8.24416194e-01  1.00005000e-05  7.70855612e-01  1.00005000e-05  5.00434690e-01  1.00005000e-05  1.80000000e+00  1.00005000e-05  5.38220873e-08  1.00005000e-05  5.00000000e-01                                 
 1.00005500e-05  8.24416881e-01  1.00005500e-05  7.70856364e-01  1.00005500e-05  4.92474877e-01  1.00005500e-05  1.62000000e+00  1.00005500e-05 -7.75185155e-05  1.00005500e-05  5.00000000e-01                                 
 1.00006500e-05  8.24418141e-01  1.00006500e-05  7.70857734e-01  1.00006500e-05  4.78910824e-01  1.00006500e-05  1.26000000e+00  1.00006500e-05 -5.05398003e-05  1.00006500e-05  5.00000000e-01                                 
