 time            v(vbep)         time            v(vben)         time            v(vout)         time            v(vphi1)        time            v(vphi2)        time            v(vref)         yes             currtemp       
 0.00000000e+00  6.84752885e-01  0.00000000e+00  6.28753216e-01  0.00000000e+00  1.09660182e+00  0.00000000e+00  0.00000000e+00  0.00000000e+00  1.79994082e+00  0.00000000e+00  5.00000000e-01  1.00000000e+00  3.30000000e+01 
 5.00000000e-12  6.84715751e-01  5.00000000e-12  6.28722642e-01  5.00000000e-12  1.09735495e+00  5.00000000e-12  1.80000000e-02  5.00000000e-12  1.80004655e+00  5.00000000e-12  5.00000000e-01                                 
 1.00000000e-11  6.84679969e-01  1.00000000e-11  6.28693011e-01  1.00000000e-11  1.09803891e+00  1.00000000e-11  3.60000000e-02  1.00000000e-11  1.80010328e+00  1.00000000e-11  5.00000000e-01                                 
 2.00000000e-11  6.84609293e-01  2.00000000e-11  6.28634028e-01  2.00000000e-11  1.09930103e+00  2.00000000e-11  7.20000000e-02  2.00000000e-11  1.80015920e+00  2.00000000e-11  5.00000000e-01                                 
 4.00000000e-11  6.84469460e-01  4.00000000e-11  6.28516624e-01  4.00000000e-11  1.10133255e+00  4.00000000e-11  1.44000000e-01  4.00000000e-11  1.80013858e+00  4.00000000e-11  5.00000000e-01                                 
 8.00000000e-11  6.84191443e-01  8.00000000e-11  6.28283113e-01  8.00000000e-11  1.10410381e+00  8.00000000e-11  2.88000000e-01  8.00000000e-11  1.80007668e+00  8.00000000e-11  5.00000000e-01                                 
 1.60000000e-10  6.83642662e-01  1.60000000e-10  6.27821257e-01  1.60000000e-10  1.10674301e+00  1.60000000e-10  5.76000000e-01  1.60000000e-10  1.80001425e+00  1.60000000e-10  5.00000000e-01                                 
 3.20000000e-10  6.82572117e-01  3.20000000e-10  6.26917370e-01  3.20000000e-10  1.10006834e+00  3.20000000e-10  1.15200000e+00  3.20000000e-10  1.80038337e+00  3.20000000e-10  5.00000000e-01                                 
 5.00000000e-10  6.81409147e-01  5.00000000e-10  6.25930812e-01  5.00000000e-10  1.25982512e+00  5.00000000e-10  1.80000000e+00  5.00000000e-10  1.14772335e-01  5.00000000e-10  5.00000000e-01                                 
 5.21412502e-10  6.81273921e-01  5.21412502e-10  6.25815765e-01  5.21412502e-10  1.29707932e+00  5.21412502e-10  1.80000000e+00  5.21412502e-10  2.23615770e-02  5.21412502e-10  5.00000000e-01                                 
 5.64237506e-10  6.81004576e-01  5.64237506e-10  6.25586468e-01  5.64237506e-10  1.36527011e+00  5.64237506e-10  1.80000000e+00  5.64237506e-10 -1.04599802e-02  5.64237506e-10  5.00000000e-01                                 
 6.49887514e-10  6.80472616e-01  6.49887514e-10  6.25132872e-01  6.49887514e-10  1.47735264e+00  6.49887514e-10  1.80000000e+00  6.49887514e-10  8.76242644e-03  6.49887514e-10  5.00000000e-01                                 
 7.72043762e-10  6.79729026e-01  7.72043762e-10  6.24497192e-01  7.72043762e-10  1.60502999e+00  7.72043762e-10  1.80000000e+00  7.72043762e-10 -7.63206770e-03  7.72043762e-10  5.00000000e-01                                 
 9.63333216e-10  6.78598548e-01  9.63333216e-10  6.23527174e-01  9.63333216e-10  1.75159162e+00  9.63333216e-10  1.80000000e+00  9.63333216e-10  7.17789705e-03  9.63333216e-10  5.00000000e-01                                 
 1.34591212e-09  6.76451544e-01  1.34591212e-09  6.21673318e-01  1.34591212e-09  1.91400274e+00  1.34591212e-09  1.80000000e+00  1.34591212e-09 -6.79057529e-03  1.34591212e-09  5.00000000e-01                                 
 1.62472712e-09  6.74975867e-01  1.62472712e-09  6.20390081e-01  1.62472712e-09  1.96153384e+00  1.62472712e-09  1.80000000e+00  1.62472712e-09  6.53684703e-03  1.62472712e-09  5.00000000e-01                                 
 1.97382368e-09  6.73222057e-01  1.97382368e-09  6.18855819e-01  1.97382368e-09  1.98591550e+00  1.97382368e-09  1.80000000e+00  1.97382368e-09 -6.19630747e-03  1.97382368e-09  5.00000000e-01                                 
 2.29936724e-09  6.71672431e-01  2.29936724e-09  6.17491978e-01  2.29936724e-09  1.99323467e+00  2.29936724e-09  1.80000000e+00  2.29936724e-09  5.98518319e-03  2.29936724e-09  5.00000000e-01                                 
 2.86375188e-09  6.69157709e-01  2.86375188e-09  6.15263228e-01  2.86375188e-09  1.99540949e+00  2.86375188e-09  1.80000000e+00  2.86375188e-09 -5.78332603e-03  2.86375188e-09  5.00000000e-01                                 
 3.51590231e-09  6.66490505e-01  3.51590231e-09  6.12878606e-01  3.51590231e-09  1.99345828e+00  3.51590231e-09  1.80000000e+00  3.51590231e-09  5.69979652e-03  3.51590231e-09  5.00000000e-01                                 
 4.78659391e-09  6.61879408e-01  4.78659391e-09  6.08710128e-01  4.78659391e-09  1.98902394e+00  4.78659391e-09  1.80000000e+00  4.78659391e-09 -5.59806275e-03  4.78659391e-09  5.00000000e-01                                 
 6.66195297e-09  6.56159263e-01  6.66195297e-09  6.03461894e-01  6.66195297e-09  1.98360770e+00  6.66195297e-09  1.80000000e+00  6.66195297e-09  5.59532202e-03  6.66195297e-09  5.00000000e-01                                 
 9.47429561e-09  6.49245944e-01  9.47429561e-09  5.97016254e-01  9.47429561e-09  1.97713671e+00  9.47429561e-09  1.80000000e+00  9.47429561e-09 -5.52523831e-03  9.47429561e-09  5.00000000e-01                                 
 1.07883152e-08  6.46534972e-01  1.07883152e-08  5.94457728e-01  1.07883152e-08  1.97465841e+00  1.07883152e-08  1.80000000e+00  1.07883152e-08  5.49750685e-03  1.07883152e-08  5.00000000e-01                                 
 1.24152080e-08  6.43501112e-01  1.24152080e-08  5.91577832e-01  1.24152080e-08  1.97185593e+00  1.24152080e-08  1.80000000e+00  1.24152080e-08 -5.41948910e-03  1.24152080e-08  5.00000000e-01                                 
 1.42587497e-08  6.40416190e-01  1.42587497e-08  5.88632638e-01  1.42587497e-08  1.96908954e+00  1.42587497e-08  1.80000000e+00  1.42587497e-08  5.40392060e-03  1.42587497e-08  5.00000000e-01                                 
 1.73627794e-08  6.35871754e-01  1.73627794e-08  5.84266794e-01  1.73627794e-08  1.96497753e+00  1.73627794e-08  1.80000000e+00  1.73627794e-08 -5.35329508e-03  1.73627794e-08  5.00000000e-01                                 
 2.08597215e-08  6.31505408e-01  2.08597215e-08  5.80043485e-01  2.08597215e-08  1.96113705e+00  2.08597215e-08  1.80000000e+00  2.08597215e-08  5.35608616e-03  2.08597215e-08  5.00000000e-01                                 
 2.65196472e-08  6.25613990e-01  2.65196472e-08  5.74306851e-01  2.65196472e-08  1.95603286e+00  2.65196472e-08  1.80000000e+00  2.65196472e-08 -5.31773587e-03  2.65196472e-08  5.00000000e-01                                 
 3.43318976e-08  6.19120803e-01  3.43318976e-08  5.67936783e-01  3.43318976e-08  1.95067066e+00  3.43318976e-08  1.80000000e+00  3.43318976e-08  5.33273258e-03  3.43318976e-08  5.00000000e-01                                 
 4.99563985e-08  6.09412926e-01  4.99563985e-08  5.58336248e-01  4.99563985e-08  1.94225763e+00  4.99563985e-08  1.80000000e+00  4.99563985e-08 -5.30282625e-03  4.99563985e-08  5.00000000e-01                                 
 6.69532572e-08  6.01683227e-01  6.69532572e-08  5.50659399e-01  6.69532572e-08  1.92801847e+00  6.69532572e-08  1.80000000e+00  6.69532572e-08  5.32347084e-03  6.69532572e-08  5.00000000e-01                                 
 8.59659142e-08  5.93714598e-01  8.59659142e-08  5.42987651e-01  8.59659142e-08  1.91037115e+00  8.59659142e-08  1.80000000e+00  8.59659142e-08 -5.29429483e-03  8.59659142e-08  5.00000000e-01                                 
 1.03929125e-07  5.85566488e-01  1.03929125e-07  5.35489921e-01  1.03929125e-07  1.89279212e+00  1.03929125e-07  1.80000000e+00  1.03929125e-07  5.31516546e-03  1.03929125e-07  5.00000000e-01                                 
 1.22790791e-07  5.76406809e-01  1.22790791e-07  5.27318472e-01  1.22790791e-07  1.85215554e+00  1.22790791e-07  1.80000000e+00  1.22790791e-07 -5.28617997e-03  1.22790791e-07  5.00000000e-01                                 
 1.42851620e-07  5.68008570e-01  1.42851620e-07  5.19843953e-01  1.42851620e-07  1.81796367e+00  1.42851620e-07  1.80000000e+00  1.42851620e-07  5.30751259e-03  1.42851620e-07  5.00000000e-01                                 
 1.63938325e-07  5.60814230e-01  1.63938325e-07  5.13409378e-01  1.63938325e-07  1.78093301e+00  1.63938325e-07  1.80000000e+00  1.63938325e-07 -5.27886672e-03  1.63938325e-07  5.00000000e-01                                 
 1.90935944e-07  5.63955389e-01  1.90935944e-07  5.15045088e-01  1.90935944e-07  1.77537226e+00  1.90935944e-07  1.80000000e+00  1.90935944e-07  5.30161331e-03  1.90935944e-07  5.00000000e-01                                 
 2.15250413e-07  5.66621170e-01  2.15250413e-07  5.16450322e-01  2.15250413e-07  1.75829848e+00  2.15250413e-07  1.80000000e+00  2.15250413e-07 -5.27310251e-03  2.15250413e-07  5.00000000e-01                                 
 2.38469992e-07  5.61494764e-01  2.38469992e-07  5.11785416e-01  2.38469992e-07  1.72949012e+00  2.38469992e-07  1.80000000e+00  2.38469992e-07  5.29499289e-03  2.38469992e-07  5.00000000e-01                                 
 2.59307497e-07  5.57115522e-01  2.59307497e-07  5.07825134e-01  2.59307497e-07  1.70578803e+00  2.59307497e-07  1.80000000e+00  2.59307497e-07 -5.26632221e-03  2.59307497e-07  5.00000000e-01                                 
 2.80862676e-07  5.52027272e-01  2.80862676e-07  5.03331265e-01  2.80862676e-07  1.67990686e+00  2.80862676e-07  1.80000000e+00  2.80862676e-07  5.28786398e-03  2.80862676e-07  5.00000000e-01                                 
 3.18682571e-07  5.42544277e-01  3.18682571e-07  4.95104582e-01  3.18682571e-07  1.63434218e+00  3.18682571e-07  1.80000000e+00  3.18682571e-07 -5.26091529e-03  3.18682571e-07  5.00000000e-01                                 
 3.69211387e-07  5.30214624e-01  3.69211387e-07  4.84550344e-01  3.69211387e-07  1.57081455e+00  3.69211387e-07  1.80000000e+00  3.69211387e-07  5.28439900e-03  3.69211387e-07  5.00000000e-01                                 
 4.52259842e-07  5.08321604e-01  4.52259842e-07  4.66243113e-01  4.52259842e-07  1.46806745e+00  4.52259842e-07  1.80000000e+00  4.52259842e-07 -5.25856493e-03  4.52259842e-07  5.00000000e-01                                 
 5.48863822e-07  4.75620791e-01  5.48863822e-07  4.39605867e-01  5.48863822e-07  1.33574558e+00  5.48863822e-07  1.80000000e+00  5.48863822e-07  5.28266394e-03  5.48863822e-07  5.00000000e-01                                 
 5.67365864e-07  4.68282385e-01  5.67365864e-07  4.33694894e-01  5.67365864e-07  1.31015791e+00  5.67365864e-07  1.80000000e+00  5.67365864e-07  1.49417501e-06  5.67365864e-07  5.00000000e-01                                 
 6.04369949e-07  4.51985971e-01  6.04369949e-07  4.20596396e-01  6.04369949e-07  1.25612253e+00  6.04369949e-07  1.80000000e+00  6.04369949e-07 -6.18398585e-07  6.04369949e-07  5.00000000e-01                                 
 6.66595788e-07  4.34792301e-01  6.66595788e-07  4.06814270e-01  6.66595788e-07  1.17443446e+00  6.66595788e-07  1.80000000e+00  6.66595788e-07  1.63606664e-06  6.66595788e-07  5.00000000e-01                                 
 6.75367979e-07  4.36520275e-01  6.75367979e-07  4.08201850e-01  6.75367979e-07  1.16691565e+00  6.75367979e-07  1.80000000e+00  6.75367979e-07  7.09463393e-07  6.75367979e-07  5.00000000e-01                                 
 6.92912362e-07  4.48540545e-01  6.92912362e-07  4.17834308e-01  6.92912362e-07  1.16000852e+00  6.92912362e-07  1.80000000e+00  6.92912362e-07  1.12141835e-06  6.92912362e-07  5.00000000e-01                                 
 7.20009913e-07  5.38128456e-01  7.20009913e-07  4.89429035e-01  7.20009913e-07  1.21759816e+00  7.20009913e-07  1.80000000e+00  7.20009913e-07  3.02830529e-06  7.20009913e-07  5.00000000e-01                                 
 7.44523989e-07  6.93888757e-01  7.44523989e-07  6.32148073e-01  7.44523989e-07  1.34119434e+00  7.44523989e-07  1.80000000e+00  7.44523989e-07  5.04678066e-06  7.44523989e-07  5.00000000e-01                                 
 7.50652508e-07  7.14268497e-01  7.50652508e-07  6.55271887e-01  7.50652508e-07  1.35508764e+00  7.50652508e-07  1.80000000e+00  7.50652508e-07  3.09695333e-06  7.50652508e-07  5.00000000e-01                                 
 7.62909546e-07  7.39778446e-01  7.62909546e-07  6.81812595e-01  7.62909546e-07  1.36731191e+00  7.62909546e-07  1.80000000e+00  7.62909546e-07  1.34925954e-06  7.62909546e-07  5.00000000e-01                                 
 7.87423621e-07  7.75090489e-01  7.87423621e-07  7.14376848e-01  7.87423621e-07  1.37496568e+00  7.87423621e-07  1.80000000e+00  7.87423621e-07  1.87152816e-06  7.87423621e-07  5.00000000e-01                                 
 8.12223076e-07  7.89464938e-01  8.12223076e-07  7.26907445e-01  8.12223076e-07  1.36364885e+00  8.12223076e-07  1.80000000e+00  8.12223076e-07  3.01864881e-07  8.12223076e-07  5.00000000e-01                                 
 8.51198050e-07  7.91353961e-01  8.51198050e-07  7.28447814e-01  8.51198050e-07  1.32455281e+00  8.51198050e-07  1.80000000e+00  8.51198050e-07  1.01072865e-06  8.51198050e-07  5.00000000e-01                                 
 8.92760514e-07  7.91482327e-01  8.92760514e-07  7.28597243e-01  8.92760514e-07  1.28201246e+00  8.92760514e-07  1.80000000e+00  8.92760514e-07  2.66703692e-07  8.92760514e-07  5.00000000e-01                                 
 9.43097955e-07  7.91189987e-01  9.43097955e-07  7.28314603e-01  9.43097955e-07  1.22884983e+00  9.43097955e-07  1.80000000e+00  9.43097955e-07  9.74386088e-07  9.43097955e-07  5.00000000e-01                                 
 1.00219030e-06  7.81791660e-01  1.00219030e-06  7.20390375e-01  1.00219030e-06  1.15878032e+00  1.00219030e-06  1.80000000e+00  1.00219030e-06  7.70947286e-08  1.00219030e-06  5.00000000e-01                                 
 1.01123335e-06  7.77514774e-01  1.01123335e-06  7.16652863e-01  1.01123335e-06  1.14503910e+00  1.01123335e-06  1.80000000e+00  1.01123335e-06  3.00324348e-07  1.01123335e-06  5.00000000e-01                                 
 1.02931946e-06  7.69130952e-01  1.02931946e-06  7.09197496e-01  1.02931946e-06  1.11798043e+00  1.02931946e-06  1.80000000e+00  1.02931946e-06  3.13322371e-07  1.02931946e-06  5.00000000e-01                                 
 1.06549168e-06  7.65934835e-01  1.06549168e-06  7.06273506e-01  1.06549168e-06  1.07680267e+00  1.06549168e-06  1.80000000e+00  1.06549168e-06  7.96442695e-07  1.06549168e-06  5.00000000e-01                                 
 1.12172472e-06  7.78773620e-01  1.12172472e-06  7.17712543e-01  1.12172472e-06  1.03155148e+00  1.12172472e-06  1.80000000e+00  1.12172472e-06  7.80567326e-07  1.12172472e-06  5.00000000e-01                                 
 1.19730112e-06  7.79424686e-01  1.19730112e-06  7.18304957e-01  1.19730112e-06  9.62313728e-01  1.19730112e-06  1.80000000e+00  1.19730112e-06  5.01954567e-07  1.19730112e-06  5.00000000e-01                                 
 1.26932187e-06  7.72485459e-01  1.26932187e-06  7.12176904e-01  1.26932187e-06  9.01858856e-01  1.26932187e-06  1.80000000e+00  1.26932187e-06  6.22369111e-07  1.26932187e-06  5.00000000e-01                                 
 1.39770069e-06  7.76817436e-01  1.39770069e-06  7.16009387e-01  1.39770069e-06  8.24066023e-01  1.39770069e-06  1.80000000e+00  1.39770069e-06  6.85634384e-07  1.39770069e-06  5.00000000e-01                                 
 1.52731232e-06  7.77571420e-01  1.52731232e-06  7.16675299e-01  1.52731232e-06  7.52096063e-01  1.52731232e-06  1.80000000e+00  1.52731232e-06  5.83722724e-07  1.52731232e-06  5.00000000e-01                                 
 1.71787720e-06  7.73448410e-01  1.71787720e-06  7.13035683e-01  1.71787720e-06  6.50571023e-01  1.71787720e-06  1.80000000e+00  1.71787720e-06  6.44926922e-07  1.71787720e-06  5.00000000e-01                                 
 1.95038339e-06  7.78639613e-01  1.95038339e-06  7.17605437e-01  1.95038339e-06  5.52515425e-01  1.95038339e-06  1.80000000e+00  1.95038339e-06  6.46037287e-07  1.95038339e-06  5.00000000e-01                                 
 1.98950777e-06  7.76641545e-01  1.98950777e-06  7.15859964e-01  1.98950777e-06  5.38620631e-01  1.98950777e-06  1.80000000e+00  1.98950777e-06  5.97483186e-07  1.98950777e-06  5.00000000e-01                                 
 2.06775653e-06  7.74919454e-01  2.06775653e-06  7.14338307e-01  2.06775653e-06  5.18111967e-01  2.06775653e-06  1.80000000e+00  2.06775653e-06  6.33484340e-07  2.06775653e-06  5.00000000e-01                                 
 2.22425405e-06  7.76788157e-01  2.22425405e-06  7.15985096e-01  2.22425405e-06  5.00304923e-01  2.22425405e-06  1.80000000e+00  2.22425405e-06  6.43533008e-07  2.22425405e-06  5.00000000e-01                                 
 2.41891752e-06  7.75613617e-01  2.41891752e-06  7.14953395e-01  2.41891752e-06  4.89392591e-01  2.41891752e-06  1.80000000e+00  2.41891752e-06  6.07833862e-07  2.41891752e-06  5.00000000e-01                                 
 2.60966583e-06  7.75997164e-01  2.60966583e-06  7.15288117e-01  2.60966583e-06  4.98244800e-01  2.60966583e-06  1.80000000e+00  2.60966583e-06  6.54981789e-07  2.60966583e-06  5.00000000e-01                                 
 2.63786230e-06  7.76323597e-01  2.63786230e-06  7.15576770e-01  2.63786230e-06  5.00487249e-01  2.63786230e-06  1.80000000e+00  2.63786230e-06  6.36750220e-07  2.63786230e-06  5.00000000e-01                                 
 2.69425524e-06  7.76270245e-01  2.69425524e-06  7.15531206e-01  2.69425524e-06  5.01922760e-01  2.69425524e-06  1.80000000e+00  2.69425524e-06  6.18131170e-07  2.69425524e-06  5.00000000e-01                                 
 2.80704112e-06  7.75680967e-01  2.80704112e-06  7.15011019e-01  2.80704112e-06  4.99779255e-01  2.80704112e-06  1.80000000e+00  2.80704112e-06  6.32982176e-07  2.80704112e-06  5.00000000e-01                                 
 3.03261287e-06  7.76293022e-01  3.03261287e-06  7.15550375e-01  3.03261287e-06  5.00253251e-01  3.03261287e-06  1.80000000e+00  3.03261287e-06  6.30072193e-07  3.03261287e-06  5.00000000e-01                                 
 3.25251161e-06  7.75825871e-01  3.25251161e-06  7.15139338e-01  3.25251161e-06  5.00212948e-01  3.25251161e-06  1.80000000e+00  3.25251161e-06  6.25591726e-07  3.25251161e-06  5.00000000e-01                                 
 3.69230908e-06  7.76145004e-01  3.69230908e-06  7.15419728e-01  3.69230908e-06  5.00126264e-01  3.69230908e-06  1.80000000e+00  3.69230908e-06  6.34367566e-07  3.69230908e-06  5.00000000e-01                                 
 4.57190403e-06  7.75910742e-01  4.57190403e-06  7.15214261e-01  4.57190403e-06  5.00236627e-01  4.57190403e-06  1.80000000e+00  4.57190403e-06  6.24120423e-07  4.57190403e-06  5.00000000e-01                                 
 5.57190403e-06  7.76091135e-01  5.57190403e-06  7.15372232e-01  5.57190403e-06  5.00113879e-01  5.57190403e-06  1.80000000e+00  5.57190403e-06  6.35023960e-07  5.57190403e-06  5.00000000e-01                                 
 6.57190403e-06  7.75961182e-01  6.57190403e-06  7.15258748e-01  6.57190403e-06  5.00249128e-01  6.57190403e-06  1.80000000e+00  6.57190403e-06  6.23667247e-07  6.57190403e-06  5.00000000e-01                                 
 7.57190403e-06  7.76041604e-01  7.57190403e-06  7.15328575e-01  7.57190403e-06  5.00100158e-01  7.57190403e-06  1.80000000e+00  7.57190403e-06  6.35328989e-07  7.57190403e-06  5.00000000e-01                                 
 8.57190403e-06  7.76009666e-01  8.57190403e-06  7.15301481e-01  8.57190403e-06  5.00264355e-01  8.57190403e-06  1.80000000e+00  8.57190403e-06  6.23506315e-07  8.57190403e-06  5.00000000e-01                                 
