 time            v(vbep)         time            v(vben)         time            v(vout)         time            v(vphi1)        time            v(vphi2)        time            v(vref)         time            v(voutc)        time            v(voutcc)       yes             currtemp       
 0.00000000e+00  7.05265933e-01  0.00000000e+00  6.37268952e-01  0.00000000e+00  1.46644486e+00  0.00000000e+00  0.00000000e+00  0.00000000e+00  1.79999999e+00  0.00000000e+00  6.37501472e-01  0.00000000e+00  1.46644486e+00  0.00000000e+00  1.47416924e+00  1.00000000e+00  7.20000000e+01 
 1.00000000e-11  7.05291058e-01  1.00000000e-11  6.37341978e-01  1.00000000e-11  1.46720366e+00  1.00000000e-11  1.80000000e-02  1.00000000e-11  1.80025375e+00  1.00000000e-11  6.38034447e-01  1.00000000e-11  1.46691478e+00  1.00000000e-11  1.47418303e+00                                 
 2.00000000e-11  7.05297838e-01  2.00000000e-11  6.37386931e-01  2.00000000e-11  1.46765587e+00  2.00000000e-11  3.60000000e-02  2.00000000e-11  1.80035243e+00  2.00000000e-11  6.38427787e-01  2.00000000e-11  1.46726638e+00  2.00000000e-11  1.47418788e+00                                 
 4.00000000e-11  7.05297754e-01  4.00000000e-11  6.37445435e-01  4.00000000e-11  1.46818268e+00  4.00000000e-11  7.20000000e-02  4.00000000e-11  1.80038747e+00  4.00000000e-11  6.39001810e-01  4.00000000e-11  1.46778602e+00  4.00000000e-11  1.47418911e+00                                 
 8.00000000e-11  7.05286140e-01  8.00000000e-11  6.37481538e-01  8.00000000e-11  1.46824732e+00  8.00000000e-11  1.44000000e-01  8.00000000e-11  1.80018124e+00  8.00000000e-11  6.39448410e-01  8.00000000e-11  1.46819822e+00  8.00000000e-11  1.47417872e+00                                 
 1.60000000e-10  7.05283409e-01  1.60000000e-10  6.37490603e-01  1.60000000e-10  1.46791027e+00  1.60000000e-10  2.88000000e-01  1.60000000e-10  1.80000611e+00  1.60000000e-10  6.39547757e-01  1.60000000e-10  1.46824020e+00  1.60000000e-10  1.47416963e+00                                 
 3.20000000e-10  7.05278513e-01  3.20000000e-10  6.37479027e-01  3.20000000e-10  1.46752400e+00  3.20000000e-10  5.76000000e-01  3.20000000e-10  1.79998000e+00  3.20000000e-10  6.39379225e-01  3.20000000e-10  1.46788366e+00  3.20000000e-10  1.47416429e+00                                 
 6.40000000e-10  7.05196251e-01  6.40000000e-10  6.37030093e-01  6.40000000e-10  1.46591101e+00  6.40000000e-10  1.15200000e+00  6.40000000e-10  1.80882981e+00  6.40000000e-10  6.36342366e-01  6.40000000e-10  1.47109169e+00  6.40000000e-10  1.47418718e+00                                 
 1.00000000e-09  7.05736028e-01  1.00000000e-09  6.37472906e-01  1.00000000e-09  1.44675313e+00  1.00000000e-09  1.80000000e+00  1.00000000e-09  1.07859995e-01  1.00000000e-09  6.53222288e-01  1.00000000e-09  1.47784111e+00  1.00000000e-09  1.47420139e+00                                 
 1.03751612e-09  7.05814837e-01  1.03751612e-09  6.37473074e-01  1.03751612e-09  1.44518737e+00  1.03751612e-09  1.80000000e+00  1.03751612e-09  2.57856307e-02  1.03751612e-09  6.56443380e-01  1.03751612e-09  1.47961350e+00  1.03751612e-09  1.47422004e+00                                 
 1.11254837e-09  7.05995187e-01  1.11254837e-09  6.37494025e-01  1.11254837e-09  1.44311350e+00  1.11254837e-09  1.80000000e+00  1.11254837e-09 -1.18755884e-02  1.11254837e-09  6.60454652e-01  1.11254837e-09  1.48271780e+00  1.11254837e-09  1.47423034e+00                                 
 1.26261287e-09  7.06130424e-01  1.26261287e-09  6.37335331e-01  1.26261287e-09  1.43970732e+00  1.26261287e-09  1.80000000e+00  1.26261287e-09  9.29743507e-03  1.26261287e-09  6.60246871e-01  1.26261287e-09  1.48283648e+00  1.26261287e-09  1.47418374e+00                                 
 1.44355562e-09  7.06099985e-01  1.44355562e-09  6.37322977e-01  1.44355562e-09  1.43869105e+00  1.44355562e-09  1.80000000e+00  1.44355562e-09 -7.03036660e-03  1.44355562e-09  6.59139241e-01  1.44355562e-09  1.48166884e+00  1.44355562e-09  1.47422395e+00                                 
 1.64801407e-09  7.05995172e-01  1.64801407e-09  6.37322429e-01  1.64801407e-09  1.43829556e+00  1.64801407e-09  1.80000000e+00  1.64801407e-09  5.73637389e-03  1.64801407e-09  6.57417740e-01  1.64801407e-09  1.48038718e+00  1.64801407e-09  1.47426463e+00                                 
 1.99341615e-09  7.05743494e-01  1.99341615e-09  6.37281479e-01  1.99341615e-09  1.43777533e+00  1.99341615e-09  1.80000000e+00  1.99341615e-09 -5.08418407e-03  1.99341615e-09  6.54528361e-01  1.99341615e-09  1.47775513e+00  1.99341615e-09  1.47440663e+00                                 
 2.54343501e-09  7.05452187e-01  2.54343501e-09  6.37287281e-01  2.54343501e-09  1.43718724e+00  2.54343501e-09  1.80000000e+00  2.54343501e-09  4.64591312e-03  2.54343501e-09  6.50730001e-01  2.54343501e-09  1.47465042e+00  2.54343501e-09  1.47463378e+00                                 
 3.36353594e-09  7.05196340e-01  3.36353594e-09  6.37240125e-01  3.36353594e-09  1.43514116e+00  3.36353594e-09  1.80000000e+00  3.36353594e-09 -4.45970510e-03  3.36353594e-09  6.45753071e-01  3.36353594e-09  1.47025812e+00  3.36353594e-09  1.47494644e+00                                 
 4.77776906e-09  7.05069839e-01  4.77776906e-09  6.37256120e-01  4.77776906e-09  1.43082556e+00  4.77776906e-09  1.80000000e+00  4.77776906e-09  4.29436486e-03  4.77776906e-09  6.40483431e-01  4.77776906e-09  1.46589456e+00  4.77776906e-09  1.47523691e+00                                 
 6.27848761e-09  7.05055037e-01  6.27848761e-09  6.37228900e-01  6.27848761e-09  1.42433719e+00  6.27848761e-09  1.80000000e+00  6.27848761e-09 -4.19211892e-03  6.27848761e-09  6.37226584e-01  6.27848761e-09  1.46299358e+00  6.27848761e-09  1.47525099e+00                                 
 7.56755301e-09  7.05099795e-01  7.56755301e-09  6.37262915e-01  7.56755301e-09  1.41803106e+00  7.56755301e-09  1.80000000e+00  7.56755301e-09  4.04824307e-03  7.56755301e-09  6.36172744e-01  7.56755301e-09  1.46222190e+00  7.56755301e-09  1.47508860e+00                                 
 8.97316380e-09  7.05131879e-01  8.97316380e-09  6.37239605e-01  8.97316380e-09  1.40963642e+00  8.97316380e-09  1.80000000e+00  8.97316380e-09 -3.93258321e-03  8.97316380e-09  6.35291072e-01  8.97316380e-09  1.46134489e+00  8.97316380e-09  1.47483245e+00                                 
 1.05331204e-08  7.05187882e-01  1.05331204e-08  6.37274588e-01  1.05331204e-08  1.39974021e+00  1.05331204e-08  1.80000000e+00  1.05331204e-08  3.82694243e-03  1.05331204e-08  6.35274225e-01  1.05331204e-08  1.46144024e+00  1.05331204e-08  1.47450272e+00                                 
 1.26498822e-08  7.05220391e-01  1.26498822e-08  6.37249809e-01  1.26498822e-08  1.38458288e+00  1.26498822e-08  1.80000000e+00  1.26498822e-08 -3.75067671e-03  1.26498822e-08  6.35062041e-01  1.26498822e-08  1.46112686e+00  1.26498822e-08  1.47405749e+00                                 
 1.51966925e-08  7.05263191e-01  1.51966925e-08  6.37282418e-01  1.51966925e-08  1.36570979e+00  1.51966925e-08  1.80000000e+00  1.51966925e-08  3.69193517e-03  1.51966925e-08  6.35533024e-01  1.51966925e-08  1.46162190e+00  1.51966925e-08  1.47356040e+00                                 
 1.87631168e-08  7.05269674e-01  1.87631168e-08  6.37254356e-01  1.87631168e-08  1.33776596e+00  1.87631168e-08  1.80000000e+00  1.87631168e-08 -3.64556457e-03  1.87631168e-08  6.35677422e-01  1.87631168e-08  1.46160694e+00  1.87631168e-08  1.47297326e+00                                 
 2.36331442e-08  7.05285553e-01  2.36331442e-08  6.37284727e-01  2.36331442e-08  1.29941192e+00  2.36331442e-08  1.80000000e+00  2.36331442e-08  3.61787204e-03  2.36331442e-08  6.36366796e-01  2.36331442e-08  1.46228128e+00  2.36331442e-08  1.47235417e+00                                 
 3.20226238e-08  7.05269498e-01  3.20226238e-08  6.37255026e-01  3.20226238e-08  1.23239267e+00  3.20226238e-08  1.80000000e+00  3.20226238e-08 -3.59637330e-03  3.20226238e-08  6.36653789e-01  3.20226238e-08  1.46239025e+00  3.20226238e-08  1.47165829e+00                                 
 4.51372294e-08  7.05275192e-01  4.51372294e-08  6.37284320e-01  4.51372294e-08  1.12855768e+00  4.51372294e-08  1.80000000e+00  4.51372294e-08  3.58848139e-03  4.51372294e-08  6.37323701e-01  4.51372294e-08  1.46305793e+00  4.51372294e-08  1.47112586e+00                                 
 7.08284261e-08  7.05259600e-01  7.08284261e-08  6.37254092e-01  7.08284261e-08  9.27437131e-01  7.08284261e-08  1.80000000e+00  7.08284261e-08 -3.57836400e-03  7.08284261e-08  6.37349684e-01  7.08284261e-08  1.46296589e+00  7.08284261e-08  1.47084834e+00                                 
 1.02930890e-07  7.05273264e-01  1.02930890e-07  6.37283766e-01  1.02930890e-07  7.16058376e-01  1.02930890e-07  1.80000000e+00  1.02930890e-07  3.58302182e-03  1.02930890e-07  6.37616868e-01  1.02930890e-07  1.46330487e+00  1.02930890e-07  1.47085906e+00                                 
 1.32480232e-07  7.05261658e-01  1.32480232e-07  6.37254515e-01  1.32480232e-07  6.38024163e-01  1.32480232e-07  1.80000000e+00  1.32480232e-07 -3.55999652e-03  1.32480232e-07  6.37392251e-01  1.32480232e-07  1.46300254e+00  1.32480232e-07  1.47087668e+00                                 
 1.61248778e-07  7.05266680e-01  1.61248778e-07  6.37283134e-01  1.61248778e-07  6.38187812e-01  1.61248778e-07  1.80000000e+00  1.61248778e-07  3.57676889e-03  1.61248778e-07  6.37618110e-01  1.61248778e-07  1.46330435e+00  1.61248778e-07  1.47088065e+00                                 
 1.77489683e-07  7.05264199e-01  1.77489683e-07  6.37254771e-01  1.77489683e-07  6.37451535e-01  1.77489683e-07  1.80000000e+00  1.77489683e-07 -3.54611751e-03  1.77489683e-07  6.37384574e-01  1.77489683e-07  1.46299487e+00  1.77489683e-07  1.47087968e+00                                 
 1.99020138e-07  7.05268518e-01  1.99020138e-07  6.37283126e-01  1.99020138e-07  6.38048727e-01  1.99020138e-07  1.80000000e+00  1.99020138e-07  3.56125353e-03  1.99020138e-07  6.37618855e-01  1.99020138e-07  1.46330349e+00  1.99020138e-07  1.47087822e+00                                 
 2.42081049e-07  7.05262946e-01  2.42081049e-07  6.37254762e-01  2.42081049e-07  6.37505967e-01  2.42081049e-07  1.80000000e+00  2.42081049e-07 -3.53619000e-03  2.42081049e-07  6.37383911e-01  2.42081049e-07  1.46299238e+00  2.42081049e-07  1.47087679e+00                                 
 3.01658244e-07  7.05269195e-01  3.01658244e-07  6.37283140e-01  3.01658244e-07  6.38006096e-01  3.01658244e-07  1.80000000e+00  3.01658244e-07  3.55553268e-03  3.01658244e-07  6.37619090e-01  3.01658244e-07  1.46330036e+00  3.01658244e-07  1.47087456e+00                                 
 4.20812633e-07  7.05262538e-01  4.20812633e-07  6.37254752e-01  4.20812633e-07  6.37516412e-01  4.20812633e-07  1.80000000e+00  4.20812633e-07 -3.53261684e-03  4.20812633e-07  6.37383772e-01  4.20812633e-07  1.46298668e+00  4.20812633e-07  1.47087113e+00                                 
 6.59121411e-07  7.05269392e-01  6.59121411e-07  6.37283144e-01  6.59121411e-07  6.37995566e-01  6.59121411e-07  1.80000000e+00  6.59121411e-07  3.55373426e-03  6.59121411e-07  6.37619154e-01  6.59121411e-07  1.46328910e+00  6.59121411e-07  1.47086329e+00                                 
 1.13573897e-06  7.05262441e-01  1.13573897e-06  6.37254750e-01  1.13573897e-06  6.37519062e-01  1.13573897e-06  1.80000000e+00  1.13573897e-06 -3.53172418e-03  1.13573897e-06  6.37383741e-01  1.13573897e-06  1.46296409e+00  1.13573897e-06  1.47084858e+00                                 
 2.08897408e-06  7.05269440e-01  2.08897408e-06  6.37283145e-01  2.08897408e-06  6.37992901e-01  2.08897408e-06  1.80000000e+00  2.08897408e-06  3.55328491e-03  2.08897408e-06  6.37619170e-01  2.08897408e-06  1.46324399e+00  2.08897408e-06  1.47081823e+00                                 
 3.28897408e-06  7.05262413e-01  3.28897408e-06  6.37254749e-01  3.28897408e-06  6.37519811e-01  3.28897408e-06  1.80000000e+00  3.28897408e-06 -3.53146973e-03  3.28897408e-06  6.37383732e-01  3.28897408e-06  1.46289616e+00  3.28897408e-06  1.47078074e+00                                 
 4.48897408e-06  7.05269465e-01  4.48897408e-06  6.37283146e-01  4.48897408e-06  6.37991101e-01  4.48897408e-06  1.80000000e+00  4.48897408e-06  3.55304749e-03  4.48897408e-06  6.37619178e-01  4.48897408e-06  1.46316825e+00  4.48897408e-06  1.47074258e+00                                 
 5.68897408e-06  7.05262388e-01  5.68897408e-06  6.37254749e-01  5.68897408e-06  6.37520565e-01  5.68897408e-06  1.80000000e+00  5.68897408e-06 -3.53123561e-03  5.68897408e-06  6.37383724e-01  5.68897408e-06  1.46282042e+00  5.68897408e-06  1.47070510e+00                                 
 6.00100000e-06  7.05269526e-01  6.00100000e-06  6.37283148e-01  6.00100000e-06  6.37988067e-01  6.00100000e-06  1.80000000e+00  6.00100000e-06  3.55247102e-03  6.00100000e-06  6.37619197e-01  6.00100000e-06  1.46312057e+00  6.00100000e-06  1.47069495e+00                                 
 6.00110000e-06  7.05214538e-01  6.00110000e-06  6.37031105e-01  6.00110000e-06  6.36141947e-01  6.00110000e-06  1.62000000e+00  6.00110000e-06  2.28449868e-04  6.00110000e-06  6.35967111e-01  6.00110000e-06  1.46165852e+00  6.00110000e-06  1.47068439e+00                                 
 6.00130000e-06  7.05247693e-01  6.00130000e-06  6.37025297e-01  6.00130000e-06  6.36107431e-01  6.00130000e-06  1.26000000e+00  6.00130000e-06 -2.60175930e-04  6.00130000e-06  6.35669868e-01  6.00130000e-06  1.46139813e+00  6.00130000e-06  1.47069994e+00                                 
 6.00165218e-06  7.05315587e-01  6.00165218e-06  6.37221317e-01  6.00165218e-06  6.38059284e-01  6.00165218e-06  6.26077949e-01  6.00165218e-06  1.13721911e-02  6.00165218e-06  6.35913067e-01  6.00165218e-06  1.45819432e+00  6.00165218e-06  1.47067576e+00                                 
 6.00200000e-06  7.05248751e-01  6.00200000e-06  6.35876551e-01  6.00200000e-06  6.70500909e-01  6.00200000e-06  0.00000000e+00  6.00200000e-06  1.60685285e+00  6.00200000e-06  6.21824841e-01  6.00200000e-06  1.25718804e+00  6.00200000e-06  1.47010181e+00                                 
 6.00204159e-06  7.05265043e-01  6.00204159e-06  6.35331359e-01  6.00204159e-06  6.77836847e-01  6.00204159e-06  0.00000000e+00  6.00204159e-06  1.72524768e+00  6.00204159e-06  6.15635712e-01  6.00204159e-06  1.19161848e+00  6.00204159e-06  1.47009886e+00                                 
 6.00212476e-06  7.05267581e-01  6.00212476e-06  6.34431245e-01  6.00212476e-06  6.83295005e-01  6.00212476e-06  0.00000000e+00  6.00212476e-06  1.81314280e+00  6.00212476e-06  6.05592948e-01  6.00212476e-06  1.05791370e+00  6.00212476e-06  1.47048430e+00                                 
 6.00229110e-06  7.05263145e-01  6.00229110e-06  6.34379687e-01  6.00229110e-06  6.73522067e-01  6.00229110e-06  0.00000000e+00  6.00229110e-06  1.78934628e+00  6.00229110e-06  6.05630782e-01  6.00229110e-06  8.50194378e-01  6.00229110e-06  1.47096857e+00                                 
 6.00245715e-06  7.05265852e-01  6.00245715e-06  6.35280686e-01  6.00245715e-06  6.61651497e-01  6.00245715e-06  0.00000000e+00  6.00245715e-06  1.80403201e+00  6.00245715e-06  6.15619450e-01  6.00245715e-06  7.35680983e-01  6.00245715e-06  1.47099895e+00                                 
 6.00263634e-06  7.05262832e-01  6.00263634e-06  6.36216716e-01  6.00263634e-06  6.49480956e-01  6.00263634e-06  0.00000000e+00  6.00263634e-06  1.79705269e+00  6.00263634e-06  6.24857979e-01  6.00263634e-06  6.75502491e-01  6.00263634e-06  1.47115628e+00                                 
 6.00285565e-06  7.05265791e-01  6.00285565e-06  6.37097076e-01  6.00285565e-06  6.42203607e-01  6.00285565e-06  0.00000000e+00  6.00285565e-06  1.80188479e+00  6.00285565e-06  6.33116228e-01  6.00285565e-06  6.50568905e-01  6.00285565e-06  1.47064656e+00                                 
 6.00307307e-06  7.05263471e-01  6.00307307e-06  6.37446223e-01  6.00307307e-06  6.39708771e-01  6.00307307e-06  0.00000000e+00  6.00307307e-06  1.79888871e+00  6.00307307e-06  6.35741324e-01  6.00307307e-06  6.42122202e-01  6.00307307e-06  1.46985435e+00                                 
 6.00332933e-06  7.05266106e-01  6.00332933e-06  6.37680836e-01  6.00332933e-06  6.38871360e-01  6.00332933e-06  0.00000000e+00  6.00332933e-06  1.80082031e+00  6.00332933e-06  6.37766103e-01  6.00332933e-06  6.39847643e-01  6.00332933e-06  1.46850446e+00                                 
 6.00370868e-06  7.05264217e-01  6.00370868e-06  6.37722378e-01  6.00370868e-06  6.39351567e-01  6.00370868e-06  0.00000000e+00  6.00370868e-06  1.79940196e+00  6.00370868e-06  6.38128081e-01  6.00370868e-06  6.39022393e-01  6.00370868e-06  1.46633790e+00                                 
 6.00431954e-06  7.05266582e-01  6.00431954e-06  6.37730099e-01  6.00431954e-06  6.40746506e-01  6.00431954e-06  0.00000000e+00  6.00431954e-06  1.80053740e+00  6.00431954e-06  6.38768631e-01  6.00431954e-06  6.40701227e-01  6.00431954e-06  1.46240457e+00                                 
 6.00533586e-06  7.05264783e-01  6.00533586e-06  6.37630790e-01  6.00533586e-06  6.43779567e-01  6.00533586e-06  0.00000000e+00  6.00533586e-06  1.79953783e+00  6.00533586e-06  6.38583798e-01  6.00533586e-06  6.43261810e-01  6.00533586e-06  1.45553488e+00                                 
 6.00730856e-06  7.05266868e-01  6.00730856e-06  6.37520185e-01  6.00730856e-06  6.49557405e-01  6.00730856e-06  0.00000000e+00  6.00730856e-06  1.80046501e+00  6.00730856e-06  6.38872468e-01  6.00730856e-06  6.49432355e-01  6.00730856e-06  1.44140917e+00                                 
 6.01125394e-06  7.05264959e-01  6.01125394e-06  6.37310131e-01  6.01125394e-06  6.61400088e-01  6.01125394e-06  0.00000000e+00  6.01125394e-06  1.79957088e+00  6.01125394e-06  6.38363070e-01  6.01125394e-06  6.60836774e-01  6.01125394e-06  1.41208307e+00                                 
 6.01914470e-06  7.05266898e-01  6.01914470e-06  6.37251904e-01  6.01914470e-06  6.84039324e-01  6.01914470e-06  0.00000000e+00  6.01914470e-06  1.80044775e+00  6.01914470e-06  6.38267332e-01  6.01914470e-06  6.83890556e-01  6.01914470e-06  1.35144534e+00                                 
 6.03178994e-06  7.05264965e-01  6.03178994e-06  6.37251624e-01  6.03178994e-06  7.18932106e-01  6.03178994e-06  0.00000000e+00  6.03178994e-06  1.79957869e+00  6.03178994e-06  6.37612958e-01  6.03178994e-06  7.18280897e-01  6.03178994e-06  1.25618234e+00                                 
 6.04653899e-06  7.05266897e-01  6.04653899e-06  6.37275587e-01  6.04653899e-06  7.56792784e-01  6.04653899e-06  0.00000000e+00  6.04653899e-06  1.80044015e+00  6.04653899e-06  6.37729429e-01  6.04653899e-06  7.56647590e-01  6.04653899e-06  1.15647876e+00                                 
 6.06873241e-06  7.05264969e-01  6.06873241e-06  6.37257871e-01  6.06873241e-06  8.09200878e-01  6.06873241e-06  0.00000000e+00  6.06873241e-06  1.79958128e+00  6.06873241e-06  6.37362494e-01  6.06873241e-06  8.08276420e-01  6.06873241e-06  1.02548742e+00                                 
 6.10236659e-06  7.05266896e-01  6.10236659e-06  6.37279893e-01  6.10236659e-06  8.78077860e-01  6.10236659e-06  0.00000000e+00  6.10236659e-06  1.80043410e+00  6.10236659e-06  6.37635128e-01  6.10236659e-06  8.77948697e-01  6.10236659e-06  9.09713668e-01                                 
 6.14163139e-06  7.05264971e-01  6.14163139e-06  6.37257830e-01  6.14163139e-06  9.44892226e-01  6.14163139e-06  0.00000000e+00  6.14163139e-06  1.79957987e+00  6.14163139e-06  6.37347928e-01  6.14163139e-06  9.43320691e-01  6.14163139e-06  9.14590389e-01                                 
 6.16936945e-06  7.05266895e-01  6.16936945e-06  6.37280423e-01  6.16936945e-06  9.83949060e-01  6.16936945e-06  0.00000000e+00  6.16936945e-06  1.80042901e+00  6.16936945e-06  6.37641137e-01  6.16936945e-06  9.84055215e-01  6.16936945e-06  9.57688803e-01                                 
