 time            v(vbep)         time            v(vben)         time            v(vout)         time            v(vphi1)        time            v(vphi2)        time            v(vref)         yes             currtemp       
 0.00000000e+00  6.69310498e-01  0.00000000e+00  6.14064655e-01  0.00000000e+00  9.11808230e-02  0.00000000e+00  0.00000000e+00  0.00000000e+00  1.79997477e+00  0.00000000e+00  5.00000000e-01  1.00000000e+00  2.90000000e+01 
 5.00000000e-12  6.69293504e-01  5.00000000e-12  6.14050506e-01  5.00000000e-12  9.16530240e-02  5.00000000e-12  1.80000000e-02  5.00000000e-12  1.80005653e+00  5.00000000e-12  5.00000000e-01                                 
 1.00000000e-11  6.69276755e-01  1.00000000e-11  6.14036650e-01  1.00000000e-11  9.20774058e-02  1.00000000e-11  3.60000000e-02  1.00000000e-11  1.80009675e+00  1.00000000e-11  5.00000000e-01                                 
 2.00000000e-11  6.69243384e-01  2.00000000e-11  6.14009015e-01  2.00000000e-11  9.28570285e-02  2.00000000e-11  7.20000000e-02  2.00000000e-11  1.80013282e+00  2.00000000e-11  5.00000000e-01                                 
 4.00000000e-11  6.69176864e-01  4.00000000e-11  6.13953886e-01  4.00000000e-11  9.40959636e-02  4.00000000e-11  1.44000000e-01  4.00000000e-11  1.80011089e+00  4.00000000e-11  5.00000000e-01                                 
 8.00000000e-11  6.69044228e-01  8.00000000e-11  6.13843920e-01  8.00000000e-11  9.58111439e-02  8.00000000e-11  2.88000000e-01  8.00000000e-11  1.80006824e+00  8.00000000e-11  5.00000000e-01                                 
 1.60000000e-10  6.68780676e-01  1.60000000e-10  6.13625166e-01  1.60000000e-10  9.80218209e-02  1.60000000e-10  5.76000000e-01  1.60000000e-10  1.80002928e+00  1.60000000e-10  5.00000000e-01                                 
 3.20000000e-10  6.68260257e-01  3.20000000e-10  6.13192316e-01  3.20000000e-10  1.33225243e-01  3.20000000e-10  1.15200000e+00  3.20000000e-10  1.80003845e+00  3.20000000e-10  5.00000000e-01                                 
 5.00000000e-10  6.67685325e-01  5.00000000e-10  6.12712721e-01  5.00000000e-10  4.89452613e-01  5.00000000e-10  1.80000000e+00  5.00000000e-10  1.13850388e-01  5.00000000e-10  5.00000000e-01                                 
 5.21652180e-10  6.67616991e-01  5.21652180e-10  6.12655611e-01  5.21652180e-10  5.57728480e-01  5.21652180e-10  1.80000000e+00  5.21652180e-10  2.17227350e-02  5.21652180e-10  5.00000000e-01                                 
 5.64956539e-10  6.67480631e-01  5.64956539e-10  6.12541605e-01  5.64956539e-10  6.80846798e-01  5.64956539e-10  1.80000000e+00  5.64956539e-10 -1.02643803e-02  5.64956539e-10  5.00000000e-01                                 
 6.51565258e-10  6.67209772e-01  6.51565258e-10  6.12314910e-01  6.51565258e-10  8.69134103e-01  6.51565258e-10  1.80000000e+00  6.51565258e-10  8.69077505e-03  6.51565258e-10  5.00000000e-01                                 
 7.74379180e-10  6.66829866e-01  7.74379180e-10  6.11996408e-01  7.74379180e-10  1.07026257e+00  7.74379180e-10  1.80000000e+00  7.74379180e-10 -7.54807602e-03  7.74379180e-10  5.00000000e-01                                 
 9.66695507e-10  6.66244525e-01  9.66695507e-10  6.11504457e-01  9.66695507e-10  1.32155678e+00  9.66695507e-10  1.80000000e+00  9.66695507e-10  7.10904047e-03  9.66695507e-10  5.00000000e-01                                 
 1.31942119e-09  6.65199887e-01  1.31942119e-09  6.10622878e-01  1.31942119e-09  1.64156503e+00  1.31942119e-09  1.80000000e+00  1.31942119e-09 -6.71370623e-03  1.31942119e-09  5.00000000e-01                                 
 1.95865105e-09  6.63394838e-01  1.95865105e-09  6.09088989e-01  1.95865105e-09  1.86817776e+00  1.95865105e-09  1.80000000e+00  1.95865105e-09  6.65558976e-03  1.95865105e-09  5.00000000e-01                                 
 2.21879616e-09  6.62691000e-01  2.21879616e-09  6.08487169e-01  2.21879616e-09  1.88900272e+00  2.21879616e-09  1.80000000e+00  2.21879616e-09 -6.21706854e-03  2.21879616e-09  5.00000000e-01                                 
 2.53811988e-09  6.61849254e-01  2.53811988e-09  6.07764837e-01  2.53811988e-09  1.89761387e+00  2.53811988e-09  1.80000000e+00  2.53811988e-09  6.00220823e-03  2.53811988e-09  5.00000000e-01                                 
 2.88990126e-09  6.60948795e-01  2.88990126e-09  6.06989041e-01  2.88990126e-09  1.90069098e+00  2.88990126e-09  1.80000000e+00  2.88990126e-09 -5.71280441e-03  2.88990126e-09  5.00000000e-01                                 
 3.59346403e-09  6.59225255e-01  3.59346403e-09  6.05495615e-01  3.59346403e-09  1.90307182e+00  3.59346403e-09  1.80000000e+00  3.59346403e-09  5.64384517e-03  3.59346403e-09  5.00000000e-01                                 
 4.45876116e-09  6.57233952e-01  4.45876116e-09  6.03756561e-01  4.45876116e-09  1.90329587e+00  4.45876116e-09  1.80000000e+00  4.45876116e-09 -5.51319083e-03  4.45876116e-09  5.00000000e-01                                 
 6.18935543e-09  6.53605376e-01  6.18935543e-09  6.00553360e-01  6.18935543e-09  1.89715597e+00  6.18935543e-09  1.80000000e+00  6.18935543e-09  5.50686024e-03  6.18935543e-09  5.00000000e-01                                 
 9.31352965e-09  6.47974272e-01  9.31352965e-09  5.95503697e-01  9.31352965e-09  1.88392382e+00  9.31352965e-09  1.80000000e+00  9.31352965e-09 -5.44024814e-03  9.31352965e-09  5.00000000e-01                                 
 1.08708363e-08  6.45527173e-01  1.08708363e-08  5.93279509e-01  1.08708363e-08  1.87887308e+00  1.08708363e-08  1.80000000e+00  1.08708363e-08  5.42403570e-03  1.08708363e-08  5.00000000e-01                                 
 1.25381941e-08  6.43109739e-01  1.25381941e-08  5.91067555e-01  1.25381941e-08  1.87375025e+00  1.25381941e-08  1.80000000e+00  1.25381941e-08 -5.34932879e-03  1.25381941e-08  5.00000000e-01                                 
 1.43943662e-08  6.40630553e-01  1.43943662e-08  5.88784676e-01  1.43943662e-08  1.86856366e+00  1.43943662e-08  1.80000000e+00  1.43943662e-08  5.33548278e-03  1.43943662e-08  5.00000000e-01                                 
 1.74794566e-08  6.36924912e-01  1.74794566e-08  5.85346350e-01  1.74794566e-08  1.86068281e+00  1.74794566e-08  1.80000000e+00  1.74794566e-08 -5.28562377e-03  1.74794566e-08  5.00000000e-01                                 
 2.12717052e-08  6.32969173e-01  2.12717052e-08  5.81639188e-01  2.12717052e-08  1.85208523e+00  2.12717052e-08  1.80000000e+00  2.12717052e-08  5.29079109e-03  2.12717052e-08  5.00000000e-01                                 
 2.70145257e-08  6.27973027e-01  2.70145257e-08  5.76895831e-01  2.70145257e-08  1.84074102e+00  2.70145257e-08  1.80000000e+00  2.70145257e-08 -5.25308235e-03  2.70145257e-08  5.00000000e-01                                 
 3.59266906e-08  6.21864585e-01  3.59266906e-08  5.70999963e-01  3.59266906e-08  1.82615447e+00  3.59266906e-08  1.80000000e+00  3.59266906e-08  5.26953822e-03  3.59266906e-08  5.00000000e-01                                 
 5.37510204e-08  6.12670200e-01  5.37510204e-08  5.62016885e-01  5.37510204e-08  1.80045537e+00  5.37510204e-08  1.80000000e+00  5.37510204e-08 -5.24055548e-03  5.37510204e-08  5.00000000e-01                                 
 8.02266628e-08  6.02762809e-01  8.02266628e-08  5.52286930e-01  8.02266628e-08  1.76628790e+00  8.02266628e-08  1.80000000e+00  8.02266628e-08  5.26271423e-03  8.02266628e-08  5.00000000e-01                                 
 1.23825257e-07  5.91385906e-01  1.23825257e-07  5.41059083e-01  1.23825257e-07  1.71443442e+00  1.23825257e-07  1.80000000e+00  1.23825257e-07 -5.23597138e-03  1.23825257e-07  5.00000000e-01                                 
 1.68887265e-07  5.79925912e-01  1.68887265e-07  5.30289157e-01  1.68887265e-07  1.66059571e+00  1.68887265e-07  1.80000000e+00  1.68887265e-07  5.25939138e-03  1.68887265e-07  5.00000000e-01                                 
 2.41904276e-07  5.61842587e-01  2.41904276e-07  5.13954200e-01  2.41904276e-07  1.57196942e+00  2.41904276e-07  1.80000000e+00  2.41904276e-07 -5.23333670e-03  2.41904276e-07  5.00000000e-01                                 
 3.20317825e-07  5.44834379e-01  3.20317825e-07  4.99044003e-01  3.20317825e-07  1.47672995e+00  3.20317825e-07  1.80000000e+00  3.20317825e-07  5.25748142e-03  3.20317825e-07  5.00000000e-01                                 
 4.39118067e-07  5.17842226e-01  4.39118067e-07  4.76211224e-01  4.39118067e-07  1.32963285e+00  4.39118067e-07  1.80000000e+00  4.39118067e-07 -5.23180121e-03  4.39118067e-07  5.00000000e-01                                 
 6.70860079e-07  4.63410642e-01  6.70860079e-07  4.31641142e-01  6.70860079e-07  1.03906876e+00  6.70860079e-07  1.80000000e+00  6.70860079e-07  5.25655238e-03  6.70860079e-07  5.00000000e-01                                 
 7.08479026e-07  4.62477530e-01  7.08479026e-07  4.30856195e-01  7.08479026e-07  1.00139342e+00  7.08479026e-07  1.80000000e+00  7.08479026e-07  9.73922551e-07  7.08479026e-07  5.00000000e-01                                 
 7.83716919e-07  6.77219974e-01  7.83716919e-07  6.18027430e-01  7.83716919e-07  1.13350660e+00  7.83716919e-07  1.80000000e+00  7.83716919e-07  2.77967647e-06  7.83716919e-07  5.00000000e-01                                 
 8.37237743e-07  7.59263944e-01  8.37237743e-07  7.01300754e-01  8.37237743e-07  1.15998848e+00  8.37237743e-07  1.80000000e+00  8.37237743e-07  3.27344985e-07  8.37237743e-07  5.00000000e-01                                 
 8.88574125e-07  7.85023885e-01  8.88574125e-07  7.24830887e-01  8.88574125e-07  1.12899882e+00  8.88574125e-07  1.80000000e+00  8.88574125e-07  1.24582623e-06  8.88574125e-07  5.00000000e-01                                 
 9.46408242e-07  7.92440058e-01  9.46408242e-07  7.31195016e-01  9.46408242e-07  1.07845240e+00  9.46408242e-07  1.80000000e+00  9.46408242e-07 -6.19363280e-09  9.46408242e-07  5.00000000e-01                                 
 1.00892143e-06  7.94298670e-01  1.00892143e-06  7.32810396e-01  1.00892143e-06  1.01379943e+00  1.00892143e-06  1.80000000e+00  1.00892143e-06  9.52527577e-07  1.00892143e-06  5.00000000e-01                                 
 1.08481244e-06  7.85898250e-01  1.08481244e-06  7.25573567e-01  1.08481244e-06  9.41607474e-01  1.08481244e-06  1.80000000e+00  1.08481244e-06 -7.62213504e-08  1.08481244e-06  5.00000000e-01                                 
 1.09624642e-06  7.81715362e-01  1.09624642e-06  7.21929409e-01  1.09624642e-06  9.28373637e-01  1.09624642e-06  1.80000000e+00  1.09624642e-06  1.82755898e-07  1.09624642e-06  5.00000000e-01                                 
 1.11911438e-06  7.76095018e-01  1.11911438e-06  7.16907850e-01  1.11911438e-06  9.06739956e-01  1.11911438e-06  1.80000000e+00  1.11911438e-06  4.29163205e-07  1.11911438e-06  5.00000000e-01                                 
 1.16485029e-06  7.78341062e-01  1.16485029e-06  7.18899403e-01  1.16485029e-06  8.77754464e-01  1.16485029e-06  1.80000000e+00  1.16485029e-06  6.06857928e-07  1.16485029e-06  5.00000000e-01                                 
 1.24512659e-06  7.86429114e-01  1.24512659e-06  7.26043477e-01  1.24512659e-06  8.34850561e-01  1.24512659e-06  1.80000000e+00  1.24512659e-06  5.09298092e-07  1.24512659e-06  5.00000000e-01                                 
 1.32021419e-06  7.80714709e-01  1.32021419e-06  7.21032737e-01  1.32021419e-06  7.87030668e-01  1.32021419e-06  1.80000000e+00  1.32021419e-06  3.64490340e-07  1.32021419e-06  5.00000000e-01                                 
 1.45199260e-06  7.80595918e-01  1.45199260e-06  7.20910924e-01  1.45199260e-06  7.16771675e-01  1.45199260e-06  1.80000000e+00  1.45199260e-06  6.03408498e-07  1.45199260e-06  5.00000000e-01                                 
 1.57429800e-06  7.84570848e-01  1.57429800e-06  7.24426020e-01  1.57429800e-06  6.59150751e-01  1.57429800e-06  1.80000000e+00  1.57429800e-06  4.17881872e-07  1.57429800e-06  5.00000000e-01                                 
 1.80608338e-06  7.79203743e-01  1.80608338e-06  7.19679951e-01  1.80608338e-06  5.52544130e-01  1.80608338e-06  1.80000000e+00  1.80608338e-06  5.22680841e-07  1.80608338e-06  5.00000000e-01                                 
 2.07201014e-06  7.84092343e-01  2.07201014e-06  7.24002329e-01  2.07201014e-06  4.98502537e-01  2.07201014e-06  1.80000000e+00  2.07201014e-06  4.78547456e-07  2.07201014e-06  5.00000000e-01                                 
 2.11056622e-06  7.83043745e-01  2.11056622e-06  7.23082911e-01  2.11056622e-06  4.95890387e-01  2.11056622e-06  1.80000000e+00  2.11056622e-06  4.68251539e-07  2.11056622e-06  5.00000000e-01                                 
 2.18767837e-06  7.81165047e-01  2.18767837e-06  7.21424543e-01  2.18767837e-06  4.91520296e-01  2.18767837e-06  1.80000000e+00  2.18767837e-06  4.70831600e-07  2.18767837e-06  5.00000000e-01                                 
 2.32143862e-06  7.82057184e-01  2.32143862e-06  7.22210027e-01  2.32143862e-06  4.96096553e-01  2.32143862e-06  1.80000000e+00  2.32143862e-06  5.12108820e-07  2.32143862e-06  5.00000000e-01                                 
 2.46378308e-06  7.82349939e-01  2.46378308e-06  7.22471918e-01  2.46378308e-06  5.03066061e-01  2.46378308e-06  1.80000000e+00  2.46378308e-06  4.63079117e-07  2.46378308e-06  5.00000000e-01                                 
 2.65276300e-06  7.81298455e-01  2.65276300e-06  7.21540333e-01  2.65276300e-06  4.98701529e-01  2.65276300e-06  1.80000000e+00  2.65276300e-06  5.00409258e-07  2.65276300e-06  5.00000000e-01                                 
 2.83888389e-06  7.82609246e-01  2.83888389e-06  7.22699084e-01  2.83888389e-06  5.00376339e-01  2.83888389e-06  1.80000000e+00  2.83888389e-06  4.83442172e-07  2.83888389e-06  5.00000000e-01                                 
 3.21112567e-06  7.81307510e-01  3.21112567e-06  7.21549540e-01  3.21112567e-06  5.00290197e-01  3.21112567e-06  1.80000000e+00  3.21112567e-06  4.83606016e-07  3.21112567e-06  5.00000000e-01                                 
 3.54934176e-06  7.82466252e-01  3.54934176e-06  7.22572294e-01  3.54934176e-06  4.99919238e-01  3.54934176e-06  1.80000000e+00  3.54934176e-06  4.94183261e-07  3.54934176e-06  5.00000000e-01                                 
 4.11874243e-06  7.81478434e-01  4.11874243e-06  7.21701316e-01  4.11874243e-06  5.00439645e-01  4.11874243e-06  1.80000000e+00  4.11874243e-06  4.75741038e-07  4.11874243e-06  5.00000000e-01                                 
 4.89863362e-06  7.82336120e-01  4.89863362e-06  7.22457241e-01  4.89863362e-06  4.99913018e-01  4.89863362e-06  1.80000000e+00  4.89863362e-06  4.98425118e-07  4.89863362e-06  5.00000000e-01                                 
 5.89863362e-06  7.81586626e-01  5.89863362e-06  7.21797183e-01  5.89863362e-06  5.00426211e-01  5.89863362e-06  1.80000000e+00  5.89863362e-06  4.73007345e-07  5.89863362e-06  5.00000000e-01                                 
 6.89863362e-06  7.82239056e-01  6.89863362e-06  7.22371471e-01  6.89863362e-06  4.99928719e-01  6.89863362e-06  1.80000000e+00  6.89863362e-06  5.00476264e-07  6.89863362e-06  5.00000000e-01                                 
 7.89863362e-06  7.81687862e-01  7.89863362e-06  7.21886800e-01  7.89863362e-06  5.00407285e-01  7.89863362e-06  1.80000000e+00  7.89863362e-06  4.71263297e-07  7.89863362e-06  5.00000000e-01                                 
 8.89863362e-06  7.82137943e-01  8.89863362e-06  7.22282147e-01  8.89863362e-06  4.99940465e-01  8.89863362e-06  1.80000000e+00  8.89863362e-06  5.01911330e-07  8.89863362e-06  5.00000000e-01                                 
 9.89863362e-06  7.81790577e-01  9.89863362e-06  7.21977643e-01  9.89863362e-06  5.00400565e-01  9.89863362e-06  1.80000000e+00  9.89863362e-06  4.70135663e-07  9.89863362e-06  5.00000000e-01                                 
 1.00005000e-05  7.81689448e-01  1.00005000e-05  7.21886152e-01  1.00005000e-05  4.99841670e-01  1.00005000e-05  1.80000000e+00  1.00005000e-05  5.00813180e-07  1.00005000e-05  5.00000000e-01                                 
 1.00005500e-05  7.81690349e-01  1.00005500e-05  7.21886957e-01  1.00005500e-05  4.91897294e-01  1.00005500e-05  1.62000000e+00  1.00005500e-05 -7.65990325e-05  1.00005500e-05  5.00000000e-01                                 
 1.00006500e-05  7.81692170e-01  1.00006500e-05  7.21888567e-01  1.00006500e-05  4.78101973e-01  1.00006500e-05  1.26000000e+00  1.00006500e-05 -5.78888836e-05  1.00006500e-05  5.00000000e-01                                 
 1.00008500e-05  7.81695794e-01  1.00008500e-05  7.21891767e-01  1.00008500e-05  4.76284658e-01  1.00008500e-05  5.40000000e-01  1.00008500e-05 -3.25213655e-03  1.00008500e-05  5.00000000e-01                                 
 1.00010000e-05  7.81698369e-01  1.00010000e-05  7.21894072e-01  1.00010000e-05  4.37535540e-01  1.00010000e-05  0.00000000e+00  1.00010000e-05  1.56920968e+00  1.00010000e-05  5.00000000e-01                                 
 1.00010194e-05  7.81698649e-01  1.00010194e-05  7.21894339e-01  1.00010194e-05  4.14076235e-01  1.00010194e-05  0.00000000e+00  1.00010194e-05  1.70621536e+00  1.00010194e-05  5.00000000e-01                                 
 1.00010581e-05  7.81699256e-01  1.00010581e-05  7.21894888e-01  1.00010581e-05  3.66269822e-01  1.00010581e-05  0.00000000e+00  1.00010581e-05  1.81384232e+00  1.00010581e-05  5.00000000e-01                                 
 1.00011356e-05  7.81700665e-01  1.00011356e-05  7.21896081e-01  1.00011356e-05  3.01356732e-01  1.00011356e-05  0.00000000e+00  1.00011356e-05  1.78992507e+00  1.00011356e-05  5.00000000e-01                                 
 1.00012314e-05  7.81702493e-01  1.00012314e-05  7.21897662e-01  1.00012314e-05  2.79074166e-01  1.00012314e-05  0.00000000e+00  1.00012314e-05  1.80428652e+00  1.00012314e-05  5.00000000e-01                                 
 1.00014086e-05  7.81705739e-01  1.00014086e-05  7.21900550e-01  1.00014086e-05  2.75448665e-01  1.00014086e-05  0.00000000e+00  1.00014086e-05  1.79638995e+00  1.00014086e-05  5.00000000e-01                                 
 1.00015683e-05  7.81708517e-01  1.00015683e-05  7.21903025e-01  1.00015683e-05  2.77103707e-01  1.00015683e-05  0.00000000e+00  1.00015683e-05  1.80241112e+00  1.00015683e-05  5.00000000e-01                                 
 1.00018879e-05  7.81713714e-01  1.00018879e-05  7.21907669e-01  1.00018879e-05  2.77254041e-01  1.00018879e-05  0.00000000e+00  1.00018879e-05  1.79796290e+00  1.00018879e-05  5.00000000e-01                                 
 1.00022192e-05  7.81718866e-01  1.00022192e-05  7.21912249e-01  1.00022192e-05  2.77352372e-01  1.00022192e-05  0.00000000e+00  1.00022192e-05  1.80169294e+00  1.00022192e-05  5.00000000e-01                                 
 1.00028819e-05  7.81729174e-01  1.00028819e-05  7.21921378e-01  1.00028819e-05  2.77572847e-01  1.00028819e-05  0.00000000e+00  1.00028819e-05  1.79845106e+00  1.00028819e-05  5.00000000e-01                                 
 1.00041953e-05  7.81750632e-01  1.00041953e-05  7.21940299e-01  1.00041953e-05  2.78609914e-01  1.00041953e-05  0.00000000e+00  1.00041953e-05  1.80147118e+00  1.00041953e-05  5.00000000e-01                                 
 1.00068220e-05  7.81794328e-01  1.00068220e-05  7.21978903e-01  1.00068220e-05  2.79622069e-01  1.00068220e-05  0.00000000e+00  1.00068220e-05  1.79855686e+00  1.00068220e-05  5.00000000e-01                                 
 1.00120756e-05  7.81873971e-01  1.00120756e-05  7.22049390e-01  1.00120756e-05  2.82832321e-01  1.00120756e-05  0.00000000e+00  1.00120756e-05  1.80141979e+00  1.00120756e-05  5.00000000e-01                                 
 1.00225826e-05  7.82016913e-01  1.00225826e-05  7.22175673e-01  1.00225826e-05  2.92475692e-01  1.00225826e-05  0.00000000e+00  1.00225826e-05  1.79858240e+00  1.00225826e-05  5.00000000e-01                                 
