 time            v(vbep)         time            v(vben)         time            v(vout)         time            v(vphi1)        time            v(vphi2)        time            v(vref)         yes             currtemp       
 0.00000000e+00  5.94794045e-01  0.00000000e+00  5.32906676e-01  0.00000000e+00  1.31942205e-01  0.00000000e+00  0.00000000e+00  0.00000000e+00  1.79997681e+00  0.00000000e+00  5.00000000e-01  1.00000000e+00  6.60000000e+01 
 5.00000000e-12  5.94777290e-01  5.00000000e-12  5.32892743e-01  5.00000000e-12  1.32488785e-01  5.00000000e-12  1.80000000e-02  5.00000000e-12  1.80006627e+00  5.00000000e-12  5.00000000e-01                                 
 1.00000000e-11  5.94760748e-01  1.00000000e-11  5.32879093e-01  1.00000000e-11  1.32980051e-01  1.00000000e-11  3.60000000e-02  1.00000000e-11  1.80011048e+00  1.00000000e-11  5.00000000e-01                                 
 2.00000000e-11  5.94727772e-01  2.00000000e-11  5.32851865e-01  2.00000000e-11  1.33879819e-01  2.00000000e-11  7.20000000e-02  2.00000000e-11  1.80014957e+00  2.00000000e-11  5.00000000e-01                                 
 4.00000000e-11  5.94662013e-01  4.00000000e-11  5.32797542e-01  4.00000000e-11  1.35301223e-01  4.00000000e-11  1.44000000e-01  4.00000000e-11  1.80012248e+00  4.00000000e-11  5.00000000e-01                                 
 8.00000000e-11  5.94530865e-01  8.00000000e-11  5.32689160e-01  8.00000000e-11  1.37244606e-01  8.00000000e-11  2.88000000e-01  8.00000000e-11  1.80007370e+00  8.00000000e-11  5.00000000e-01                                 
 1.60000000e-10  5.94270114e-01  1.60000000e-10  5.32473453e-01  1.60000000e-10  1.39668481e-01  1.60000000e-10  5.76000000e-01  1.60000000e-10  1.80003179e+00  1.60000000e-10  5.00000000e-01                                 
 3.20000000e-10  5.93754602e-01  3.20000000e-10  5.32046186e-01  3.20000000e-10  1.67526900e-01  3.20000000e-10  1.15200000e+00  3.20000000e-10  1.80018665e+00  3.20000000e-10  5.00000000e-01                                 
 5.00000000e-10  5.93184024e-01  5.00000000e-10  5.31572012e-01  5.00000000e-10  4.78471314e-01  5.00000000e-10  1.80000000e+00  5.00000000e-10  1.30495179e-01  5.00000000e-10  5.00000000e-01                                 
 5.22350132e-10  5.93113939e-01  5.22350132e-10  5.31513667e-01  5.22350132e-10  5.42575758e-01  5.22350132e-10  1.80000000e+00  5.22350132e-10  2.68655617e-02  5.22350132e-10  5.00000000e-01                                 
 5.67050395e-10  5.92974065e-01  5.67050395e-10  5.31397183e-01  5.67050395e-10  6.60222032e-01  5.67050395e-10  1.80000000e+00  5.67050395e-10 -1.23990881e-02  5.67050395e-10  5.00000000e-01                                 
 6.56450923e-10  5.92696100e-01  6.56450923e-10  5.31165466e-01  6.56450923e-10  8.44895516e-01  6.56450923e-10  1.80000000e+00  6.56450923e-10  1.01977262e-02  6.56450923e-10  5.00000000e-01                                 
 7.79217469e-10  5.92318181e-01  7.79217469e-10  5.30849928e-01  7.79217469e-10  1.03533612e+00  7.79217469e-10  1.80000000e+00  7.79217469e-10 -8.69449821e-03  7.79217469e-10  5.00000000e-01                                 
 9.75142597e-10  5.91723846e-01  9.75142597e-10  5.30352550e-01  9.75142597e-10  1.27276339e+00  9.75142597e-10  1.80000000e+00  9.75142597e-10  8.10848443e-03  9.75142597e-10  5.00000000e-01                                 
 1.30092751e-09  5.90758542e-01  1.30092751e-09  5.29541776e-01  1.30092751e-09  1.55310820e+00  1.30092751e-09  1.80000000e+00  1.30092751e-09 -7.57360567e-03  1.30092751e-09  5.00000000e-01                                 
 1.91799715e-09  5.89003365e-01  1.91799715e-09  5.28058488e-01  1.91799715e-09  1.78760817e+00  1.91799715e-09  1.80000000e+00  1.91799715e-09  7.48346815e-03  1.91799715e-09  5.00000000e-01                                 
 2.18925245e-09  5.88260689e-01  2.18925245e-09  5.27427267e-01  2.18925245e-09  1.81525506e+00  2.18925245e-09  1.80000000e+00  2.18925245e-09 -6.94398239e-03  2.18925245e-09  5.00000000e-01                                 
 2.51257927e-09  5.87396708e-01  2.51257927e-09  5.26690375e-01  2.51257927e-09  1.82904143e+00  2.51257927e-09  1.80000000e+00  2.51257927e-09  6.67098360e-03  2.51257927e-09  5.00000000e-01                                 
 2.87640933e-09  5.86450782e-01  2.87640933e-09  5.25880470e-01  2.87640933e-09  1.83479017e+00  2.87640933e-09  1.80000000e+00  2.87640933e-09 -6.31101636e-03  2.87640933e-09  5.00000000e-01                                 
 3.60406944e-09  5.84635918e-01  3.60406944e-09  5.24317794e-01  3.60406944e-09  1.83658617e+00  3.60406944e-09  1.80000000e+00  3.60406944e-09  6.22724804e-03  3.60406944e-09  5.00000000e-01                                 
 4.38091376e-09  5.82802706e-01  4.38091376e-09  5.22727734e-01  4.38091376e-09  1.83520296e+00  4.38091376e-09  1.80000000e+00  4.38091376e-09 -6.04606836e-03  4.38091376e-09  5.00000000e-01                                 
 5.93460240e-09  5.79411259e-01  5.93460240e-09  5.19757852e-01  5.93460240e-09  1.83189333e+00  5.93460240e-09  1.80000000e+00  5.93460240e-09  6.03450366e-03  5.93460240e-09  5.00000000e-01                                 
 8.44809400e-09  5.74555304e-01  8.44809400e-09  5.15446302e-01  8.44809400e-09  1.82451186e+00  8.44809400e-09  1.80000000e+00  8.44809400e-09 -5.94166333e-03  8.44809400e-09  5.00000000e-01                                 
 1.00204173e-08  5.71847460e-01  1.00204173e-08  5.13012309e-01  1.00204173e-08  1.82056704e+00  1.00204173e-08  1.80000000e+00  1.00204173e-08  5.92585742e-03  1.00204173e-08  5.00000000e-01                                 
 1.13554631e-08  5.69709821e-01  1.13554631e-08  5.11077482e-01  1.13554631e-08  1.81736711e+00  1.13554631e-08  1.80000000e+00  1.13554631e-08 -5.81274194e-03  1.13554631e-08  5.00000000e-01                                 
 1.27017213e-08  5.67685507e-01  1.27017213e-08  5.09234965e-01  1.27017213e-08  1.81440135e+00  1.27017213e-08  1.80000000e+00  1.27017213e-08  5.78025219e-03  1.27017213e-08  5.00000000e-01                                 
 1.40398077e-08  5.65790362e-01  1.40398077e-08  5.07501275e-01  1.40398077e-08  1.81144620e+00  1.40398077e-08  1.80000000e+00  1.40398077e-08 -5.67420666e-03  1.40398077e-08  5.00000000e-01                                 
 1.56634230e-08  5.63630718e-01  1.56634230e-08  5.05515627e-01  1.56634230e-08  1.80810988e+00  1.56634230e-08  1.80000000e+00  1.56634230e-08  5.65148032e-03  1.56634230e-08  5.00000000e-01                                 
 1.75262886e-08  5.61322255e-01  1.75262886e-08  5.03381474e-01  1.75262886e-08  1.80427461e+00  1.75262886e-08  1.80000000e+00  1.75262886e-08 -5.56879884e-03  1.75262886e-08  5.00000000e-01                                 
 2.01138891e-08  5.58379223e-01  2.01138891e-08  5.00643190e-01  2.01138891e-08  1.79930723e+00  2.01138891e-08  1.80000000e+00  2.01138891e-08  5.56632973e-03  2.01138891e-08  5.00000000e-01                                 
 2.31121999e-08  5.55302142e-01  2.31121999e-08  4.97758532e-01  2.31121999e-08  1.79380832e+00  2.31121999e-08  1.80000000e+00  2.31121999e-08 -5.50377055e-03  2.31121999e-08  5.00000000e-01                                 
 2.79334439e-08  5.50962420e-01  2.79334439e-08  4.93652302e-01  2.79334439e-08  1.78553663e+00  2.79334439e-08  1.80000000e+00  2.79334439e-08  5.51731968e-03  2.79334439e-08  5.00000000e-01                                 
 3.43438361e-08  5.46078305e-01  3.43438361e-08  4.88979501e-01  3.43438361e-08  1.77524234e+00  3.43438361e-08  1.80000000e+00  3.43438361e-08 -5.47111357e-03  3.43438361e-08  5.00000000e-01                                 
 4.71646206e-08  5.38191218e-01  4.71646206e-08  4.81351533e-01  4.71646206e-08  1.75596911e+00  4.71646206e-08  1.80000000e+00  4.71646206e-08  5.49643389e-03  4.71646206e-08  5.00000000e-01                                 
 7.28061895e-08  5.26562571e-01  7.28061895e-08  4.69991484e-01  7.28061895e-08  1.72021384e+00  7.28061895e-08  1.80000000e+00  7.28061895e-08 -5.46054641e-03  7.28061895e-08  5.00000000e-01                                 
 1.07288716e-07  5.15105440e-01  1.07288716e-07  4.58810903e-01  1.07288716e-07  1.67568501e+00  1.07288716e-07  1.80000000e+00  1.07288716e-07  5.49051194e-03  1.07288716e-07  5.00000000e-01                                 
 1.56054228e-07  4.99217020e-01  1.56054228e-07  4.44073449e-01  1.56054228e-07  1.61214399e+00  1.56054228e-07  1.80000000e+00  1.56054228e-07 -5.45614885e-03  1.56054228e-07  5.00000000e-01                                 
 2.28205174e-07  4.77998121e-01  2.28205174e-07  4.25034944e-01  2.28205174e-07  1.51865359e+00  2.28205174e-07  1.80000000e+00  2.28205174e-07  5.48750018e-03  2.28205174e-07  5.00000000e-01                                 
 2.96884244e-07  4.60180776e-01  2.96884244e-07  4.09445664e-01  2.96884244e-07  1.42996165e+00  2.96884244e-07  1.80000000e+00  2.96884244e-07 -5.45360451e-03  2.96884244e-07  5.00000000e-01                                 
 4.24349021e-07  4.23467332e-01  4.24349021e-07  3.78580552e-01  4.24349021e-07  1.26081355e+00  4.24349021e-07  1.80000000e+00  4.24349021e-07  5.48549920e-03  4.24349021e-07  5.00000000e-01                                 
 5.88194538e-07  4.17329702e-01  5.88194538e-07  3.72681583e-01  5.88194538e-07  1.08553144e+00  5.88194538e-07  1.80000000e+00  5.88194538e-07 -5.45212370e-03  5.88194538e-07  5.00000000e-01                                 
 6.07354680e-07  4.38902417e-01  6.07354680e-07  3.89829138e-01  6.07354680e-07  1.08694631e+00  6.07354680e-07  1.80000000e+00  6.07354680e-07  3.58601305e-06  6.07354680e-07  5.00000000e-01                                 
 6.45674965e-07  5.87836763e-01  6.45674965e-07  5.17840440e-01  6.45674965e-07  1.18987952e+00  6.45674965e-07  1.80000000e+00  6.45674965e-07  8.99363528e-06  6.45674965e-07  5.00000000e-01                                 
 6.78339305e-07  6.75812103e-01  6.78339305e-07  6.11010938e-01  6.78339305e-07  1.24165536e+00  6.78339305e-07  1.80000000e+00  6.78339305e-07  3.34300320e-06  6.78339305e-07  5.00000000e-01                                 
 7.10896488e-07  7.08946571e-01  7.10896488e-07  6.43021183e-01  7.10896488e-07  1.23788714e+00  7.10896488e-07  1.80000000e+00  7.10896488e-07  6.46264203e-06  7.10896488e-07  5.00000000e-01                                 
 7.44017783e-07  7.27019518e-01  7.44017783e-07  6.58755842e-01  7.44017783e-07  1.22127024e+00  7.44017783e-07  1.80000000e+00  7.44017783e-07  2.66675662e-06  7.44017783e-07  5.00000000e-01                                 
 7.82674504e-07  7.35978016e-01  7.82674504e-07  6.66573416e-01  7.82674504e-07  1.18790371e+00  7.82674504e-07  1.80000000e+00  7.82674504e-07  5.90835400e-06  7.82674504e-07  5.00000000e-01                                 
 8.42208423e-07  7.41186720e-01  8.42208423e-07  6.70754444e-01  8.42208423e-07  1.13166077e+00  8.42208423e-07  1.80000000e+00  8.42208423e-07  2.47657031e-06  8.42208423e-07  5.00000000e-01                                 
 9.05321109e-07  7.36230534e-01  9.05321109e-07  6.66790435e-01  9.05321109e-07  1.06233531e+00  9.05321109e-07  1.80000000e+00  9.05321109e-07  5.62180535e-06  9.05321109e-07  5.00000000e-01                                 
 9.18305313e-07  7.31971108e-01  9.18305313e-07  6.63139076e-01  9.18305313e-07  1.04662392e+00  9.18305313e-07  1.80000000e+00  9.18305313e-07  3.88084013e-06  9.18305313e-07  5.00000000e-01                                 
 9.44273720e-07  7.22649760e-01  9.44273720e-07  6.55101706e-01  9.44273720e-07  1.01443144e+00  9.44273720e-07  1.80000000e+00  9.44273720e-07  3.79466334e-06  9.44273720e-07  5.00000000e-01                                 
 9.96210536e-07  7.20398828e-01  9.96210536e-07  6.53101397e-01  9.96210536e-07  9.70069270e-01  9.96210536e-07  1.80000000e+00  9.96210536e-07  4.35296245e-06  9.96210536e-07  5.00000000e-01                                 
 1.06831617e-06  7.31459680e-01  1.06831617e-06  6.62677797e-01  1.06831617e-06  9.28694707e-01  1.06831617e-06  1.80000000e+00  1.06831617e-06  4.12269029e-06  1.06831617e-06  5.00000000e-01                                 
 1.15952595e-06  7.25461032e-01  1.15952595e-06  6.57545554e-01  1.15952595e-06  8.64917098e-01  1.15952595e-06  1.80000000e+00  1.15952595e-06  4.00835512e-06  1.15952595e-06  5.00000000e-01                                 
 1.25337405e-06  7.24309176e-01  1.25337405e-06  6.56521374e-01  1.25337405e-06  8.07689022e-01  1.25337405e-06  1.80000000e+00  1.25337405e-06  4.19726832e-06  1.25337405e-06  5.00000000e-01                                 
 1.38688475e-06  7.29389510e-01  1.38688475e-06  6.60923085e-01  1.38688475e-06  7.35481755e-01  1.38688475e-06  1.80000000e+00  1.38688475e-06  4.09398563e-06  1.38688475e-06  5.00000000e-01                                 
 1.58626868e-06  7.23987424e-01  1.58626868e-06  6.56248666e-01  1.58626868e-06  6.23721712e-01  1.58626868e-06  1.80000000e+00  1.58626868e-06  4.09256780e-06  1.58626868e-06  5.00000000e-01                                 
 1.82024676e-06  7.28313116e-01  1.82024676e-06  6.59995442e-01  1.82024676e-06  5.32951665e-01  1.82024676e-06  1.80000000e+00  1.82024676e-06  4.16700938e-06  1.82024676e-06  5.00000000e-01                                 
 1.85688721e-06  7.27804534e-01  1.85688721e-06  6.59557130e-01  1.85688721e-06  5.23528760e-01  1.85688721e-06  1.80000000e+00  1.85688721e-06  4.10605783e-06  1.85688721e-06  5.00000000e-01                                 
 1.93016811e-06  7.26050301e-01  1.93016811e-06  6.58044731e-01  1.93016811e-06  5.07383364e-01  1.93016811e-06  1.80000000e+00  1.93016811e-06  4.08820209e-06  1.93016811e-06  5.00000000e-01                                 
 2.07672990e-06  7.26473508e-01  2.07672990e-06  6.58406830e-01  2.07672990e-06  4.92661364e-01  2.07672990e-06  1.80000000e+00  2.07672990e-06  4.14598649e-06  2.07672990e-06  5.00000000e-01                                 
 2.09498422e-06  7.26882385e-01  2.09498422e-06  6.58760662e-01  2.09498422e-06  4.92593025e-01  2.09498422e-06  1.80000000e+00  2.09498422e-06  4.13415607e-06  2.09498422e-06  5.00000000e-01                                 
 2.13149286e-06  7.27105955e-01  2.13149286e-06  6.58955188e-01  2.13149286e-06  4.94054811e-01  2.13149286e-06  1.80000000e+00  2.13149286e-06  4.11162723e-06  2.13149286e-06  5.00000000e-01                                 
 2.20451015e-06  7.26290498e-01  2.20451015e-06  6.58251351e-01  2.20451015e-06  4.98862384e-01  2.20451015e-06  1.80000000e+00  2.20451015e-06  4.09972493e-06  2.20451015e-06  5.00000000e-01                                 
 2.32248347e-06  7.26536491e-01  2.32248347e-06  6.58462374e-01  2.32248347e-06  5.00949204e-01  2.32248347e-06  1.80000000e+00  2.32248347e-06  4.13030366e-06  2.32248347e-06  5.00000000e-01                                 
 2.44654069e-06  7.26807018e-01  2.44654069e-06  6.58697441e-01  2.44654069e-06  5.00159059e-01  2.44654069e-06  1.80000000e+00  2.44654069e-06  4.10330857e-06  2.44654069e-06  5.00000000e-01                                 
 2.69465514e-06  7.26287237e-01  2.69465514e-06  6.58247459e-01  2.69465514e-06  5.00102380e-01  2.69465514e-06  1.80000000e+00  2.69465514e-06  4.12202195e-06  2.69465514e-06  5.00000000e-01                                 
 3.07921329e-06  7.26854055e-01  3.07921329e-06  6.58737656e-01  3.07921329e-06  5.00409250e-01  3.07921329e-06  1.80000000e+00  3.07921329e-06  4.10945251e-06  3.07921329e-06  5.00000000e-01                                 
 3.81306276e-06  7.26287071e-01  3.81306276e-06  6.58247557e-01  3.81306276e-06  5.00022257e-01  3.81306276e-06  1.80000000e+00  3.81306276e-06  4.11823900e-06  3.81306276e-06  5.00000000e-01                                 
 4.81306276e-06  7.26843684e-01  4.81306276e-06  6.58728568e-01  4.81306276e-06  5.00433971e-01  4.81306276e-06  1.80000000e+00  4.81306276e-06  4.11166937e-06  4.81306276e-06  5.00000000e-01                                 
 5.81306276e-06  7.26301242e-01  5.81306276e-06  6.58259920e-01  5.81306276e-06  5.00012345e-01  5.81306276e-06  1.80000000e+00  5.81306276e-06  4.11641468e-06  5.81306276e-06  5.00000000e-01                                 
 6.81306276e-06  7.26825560e-01  6.81306276e-06  6.58712815e-01  6.81306276e-06  5.00435420e-01  6.81306276e-06  1.80000000e+00  6.81306276e-06  4.11343415e-06  6.81306276e-06  5.00000000e-01                                 
 7.81306276e-06  7.26323373e-01  7.81306276e-06  6.58279157e-01  7.81306276e-06  5.00018489e-01  7.81306276e-06  1.80000000e+00  7.81306276e-06  4.11472145e-06  7.81306276e-06  5.00000000e-01                                 
 8.81306276e-06  7.26800243e-01  8.81306276e-06  6.58690864e-01  8.81306276e-06  5.00422434e-01  8.81306276e-06  1.80000000e+00  8.81306276e-06  4.11504503e-06  8.81306276e-06  5.00000000e-01                                 
 9.81306276e-06  7.26352036e-01  9.81306276e-06  6.58304026e-01  9.81306276e-06  5.00037515e-01  9.81306276e-06  1.80000000e+00  9.81306276e-06  4.11320270e-06  9.81306276e-06  5.00000000e-01                                 
 1.00005000e-05  7.26691307e-01  1.00005000e-05  6.58596597e-01  1.00005000e-05  5.00323500e-01  1.00005000e-05  1.80000000e+00  1.00005000e-05  4.11874026e-06  1.00005000e-05  5.00000000e-01                                 
 1.00005500e-05  7.26691611e-01  1.00005500e-05  6.58596863e-01  1.00005500e-05  4.92720010e-01  1.00005500e-05  1.62000000e+00  1.00005500e-05 -7.98405516e-05  1.00005500e-05  5.00000000e-01                                 
 1.00006500e-05  7.26692236e-01  1.00006500e-05  6.58597402e-01  1.00006500e-05  4.78995331e-01  1.00006500e-05  1.26000000e+00  1.00006500e-05 -6.57753885e-05  1.00006500e-05  5.00000000e-01                                 
 1.00008500e-05  7.26693517e-01  1.00008500e-05  6.58598503e-01  1.00008500e-05  4.76844000e-01  1.00008500e-05  5.40000000e-01  1.00008500e-05  1.49012078e-02  1.00008500e-05  5.00000000e-01                                 
 1.00010000e-05  7.26694392e-01  1.00010000e-05  6.58599280e-01  1.00010000e-05  4.39974800e-01  1.00010000e-05  0.00000000e+00  1.00010000e-05  1.59636727e+00  1.00010000e-05  5.00000000e-01                                 
 1.00010251e-05  7.26694508e-01  1.00010251e-05  6.58599391e-01  1.00010251e-05  4.16254805e-01  1.00010251e-05  0.00000000e+00  1.00010251e-05  1.73139824e+00  1.00010251e-05  5.00000000e-01                                 
 1.00010753e-05  7.26694791e-01  1.00010753e-05  6.58599632e-01  1.00010753e-05  3.73626994e-01  1.00010753e-05  0.00000000e+00  1.00010753e-05  1.81925392e+00  1.00010753e-05  5.00000000e-01                                 
 1.00011756e-05  7.26695500e-01  1.00011756e-05  6.58600204e-01  1.00011756e-05  3.29481958e-01  1.00011756e-05  0.00000000e+00  1.00011756e-05  1.78608827e+00  1.00011756e-05  5.00000000e-01                                 
 1.00013039e-05  7.26696413e-01  1.00013039e-05  6.58600989e-01  1.00013039e-05  3.21173278e-01  1.00013039e-05  0.00000000e+00  1.00013039e-05  1.80879702e+00  1.00013039e-05  5.00000000e-01                                 
 1.00015159e-05  7.26697776e-01  1.00015159e-05  6.58602186e-01  1.00015159e-05  3.21118628e-01  1.00015159e-05  0.00000000e+00  1.00015159e-05  1.79275537e+00  1.00015159e-05  5.00000000e-01                                 
 1.00017408e-05  7.26699050e-01  1.00017408e-05  6.58603308e-01  1.00017408e-05  3.21616053e-01  1.00017408e-05  0.00000000e+00  1.00017408e-05  1.80576760e+00  1.00017408e-05  5.00000000e-01                                 
 1.00021337e-05  7.26701033e-01  1.00021337e-05  6.58605050e-01  1.00021337e-05  3.21460315e-01  1.00021337e-05  0.00000000e+00  1.00021337e-05  1.79486353e+00  1.00021337e-05  5.00000000e-01                                 
