 time            v(vbep)         time            v(vben)         time            v(vout)         time            v(vphi1)        time            v(vphi2)        time            v(vref)         time            v(voutc)        time            v(voutcc)       yes             currtemp       
 0.00000000e+00  7.91509707e-01  0.00000000e+00  7.33615930e-01  0.00000000e+00  1.63074058e+00  0.00000000e+00  0.00000000e+00  0.00000000e+00  1.80000000e+00  0.00000000e+00  7.36443764e-01  0.00000000e+00  1.63074056e+00  0.00000000e+00  1.63689009e+00  1.00000000e+00  2.10000000e+01 
 5.00000000e-12  7.91531292e-01  5.00000000e-12  7.33670364e-01  5.00000000e-12  1.63137628e+00  5.00000000e-12  1.80000000e-02  5.00000000e-12  1.80018391e+00  5.00000000e-12  7.36837621e-01  5.00000000e-12  1.63108973e+00  5.00000000e-12  1.63690324e+00                                 
 1.00000000e-11  7.91540788e-01  1.00000000e-11  7.33706462e-01  1.00000000e-11  1.63184558e+00  1.00000000e-11  3.60000000e-02  1.00000000e-11  1.80026804e+00  1.00000000e-11  7.37148422e-01  1.00000000e-11  1.63136707e+00  1.00000000e-11  1.63691044e+00                                 
 2.00000000e-11  7.91547036e-01  2.00000000e-11  7.33756819e-01  2.00000000e-11  1.63253764e+00  2.00000000e-11  7.20000000e-02  2.00000000e-11  1.80032295e+00  2.00000000e-11  7.37635467e-01  2.00000000e-11  1.63180615e+00  2.00000000e-11  1.63691756e+00                                 
 4.00000000e-11  7.91534697e-01  4.00000000e-11  7.33793686e-01  4.00000000e-11  1.63304582e+00  4.00000000e-11  1.44000000e-01  4.00000000e-11  1.80019608e+00  4.00000000e-11  7.38105800e-01  4.00000000e-11  1.63225065e+00  4.00000000e-11  1.63691219e+00                                 
 8.00000000e-11  7.91520716e-01  8.00000000e-11  7.33797649e-01  8.00000000e-11  1.63296230e+00  8.00000000e-11  2.88000000e-01  8.00000000e-11  1.80002960e+00  8.00000000e-11  7.38231324e-01  8.00000000e-11  1.63242247e+00  8.00000000e-11  1.63689644e+00                                 
 1.60000000e-10  7.91521750e-01  1.60000000e-10  7.33785416e-01  1.60000000e-10  1.63249736e+00  1.60000000e-10  5.76000000e-01  1.60000000e-10  1.80001313e+00  1.60000000e-10  7.38031452e-01  1.60000000e-10  1.63231797e+00  1.60000000e-10  1.63689090e+00                                 
 3.20000000e-10  7.91457882e-01  3.20000000e-10  7.33342683e-01  3.20000000e-10  1.62828453e+00  3.20000000e-10  1.15200000e+00  3.20000000e-10  1.80069824e+00  3.20000000e-10  7.34167096e-01  3.20000000e-10  1.62913690e+00  3.20000000e-10  1.63685910e+00                                 
 5.00000000e-10  7.91574180e-01  5.00000000e-10  7.33768535e-01  5.00000000e-10  1.62262580e+00  5.00000000e-10  1.80000000e+00  5.00000000e-10  1.46327894e-01  5.00000000e-10  7.39054511e-01  5.00000000e-10  1.63306754e+00  5.00000000e-10  1.63693791e+00                                 
 5.20679149e-10  7.91567063e-01  5.20679149e-10  7.33814096e-01  5.20679149e-10  1.62205083e+00  5.20679149e-10  1.80000000e+00  5.20679149e-10  3.72271855e-02  5.20679149e-10  7.40508807e-01  5.20679149e-10  1.63390900e+00  5.20679149e-10  1.63693321e+00                                 
 5.62037446e-10  7.91614713e-01  5.62037446e-10  7.33898570e-01  5.62037446e-10  1.62171999e+00  5.62037446e-10  1.80000000e+00  5.62037446e-10 -1.38599001e-02  5.62037446e-10  7.42470890e-01  5.62037446e-10  1.63563797e+00  5.62037446e-10  1.63693306e+00                                 
 6.44754041e-10  7.91687679e-01  6.44754041e-10  7.33736796e-01  6.44754041e-10  1.61937809e+00  6.44754041e-10  1.80000000e+00  6.44754041e-10  1.11931863e-02  6.44754041e-10  7.41373336e-01  6.44754041e-10  1.63488308e+00  6.44754041e-10  1.63687532e+00                                 
 7.63075600e-10  7.91704113e-01  7.63075600e-10  7.33712145e-01  7.63075600e-10  1.61855478e+00  7.63075600e-10  1.80000000e+00  7.63075600e-10 -8.82943185e-03  7.63075600e-10  7.42233223e-01  7.63075600e-10  1.63547515e+00  7.63075600e-10  1.63691065e+00                                 
 9.39392070e-10  7.91766580e-01  9.39392070e-10  7.33680076e-01  9.39392070e-10  1.61758676e+00  9.39392070e-10  1.80000000e+00  9.39392070e-10  8.27790492e-03  9.39392070e-10  7.42907181e-01  9.39392070e-10  1.63620374e+00  9.39392070e-10  1.63688208e+00                                 
 1.29202501e-09  7.91786269e-01  1.29202501e-09  7.33609781e-01  1.29202501e-09  1.61459104e+00  1.29202501e-09  1.80000000e+00  1.29202501e-09 -7.51398902e-03  1.29202501e-09  7.42836194e-01  1.29202501e-09  1.63601852e+00  1.29202501e-09  1.63689724e+00                                 
 1.80426469e-09  7.91732460e-01  1.80426469e-09  7.33618661e-01  1.80426469e-09  1.61302562e+00  1.80426469e-09  1.80000000e+00  1.80426469e-09  7.32389920e-03  1.80426469e-09  7.42809380e-01  1.80426469e-09  1.63611703e+00  1.80426469e-09  1.63691245e+00                                 
 2.39639058e-09  7.91603421e-01  2.39639058e-09  7.33585569e-01  2.39639058e-09  1.61194817e+00  2.39639058e-09  1.80000000e+00  2.39639058e-09 -7.04319249e-03  2.39639058e-09  7.41816011e-01  2.39639058e-09  1.63513381e+00  2.39639058e-09  1.63696615e+00                                 
 2.95870523e-09  7.91545137e-01  2.95870523e-09  7.33614844e-01  2.95870523e-09  1.61160867e+00  2.95870523e-09  1.80000000e+00  2.95870523e-09  6.79488254e-03  2.95870523e-09  7.41633931e-01  2.95870523e-09  1.63508587e+00  2.95870523e-09  1.63701516e+00                                 
 3.81846581e-09  7.91485633e-01  3.81846581e-09  7.33586891e-01  3.81846581e-09  1.60996848e+00  3.81846581e-09  1.80000000e+00  3.81846581e-09 -6.62617656e-03  3.81846581e-09  7.40399055e-01  3.81846581e-09  1.63389831e+00  3.81846581e-09  1.63709804e+00                                 
 5.47656251e-09  7.91476202e-01  5.47656251e-09  7.33620446e-01  5.47656251e-09  1.60727940e+00  5.47656251e-09  1.80000000e+00  5.47656251e-09  6.54899135e-03  5.47656251e-09  7.39373430e-01  5.47656251e-09  1.63310898e+00  5.47656251e-09  1.63723529e+00                                 
 8.79275590e-09  7.91469126e-01  8.79275590e-09  7.33598056e-01  8.79275590e-09  1.59993104e+00  8.79275590e-09  1.80000000e+00  8.79275590e-09 -6.50015002e-03  8.79275590e-09  7.36993576e-01  8.79275590e-09  1.63092939e+00  8.79275590e-09  1.63738944e+00                                 
 1.29423999e-08  7.91488372e-01  1.29423999e-08  7.33630640e-01  1.29423999e-08  1.59013581e+00  1.29423999e-08  1.80000000e+00  1.29423999e-08  6.47973296e-03  1.29423999e-08  7.36192006e-01  1.29423999e-08  1.63033867e+00  1.29423999e-08  1.63739372e+00                                 
 1.61432420e-08  7.91480357e-01  1.61432420e-08  7.33601227e-01  1.61432420e-08  1.58132943e+00  1.61432420e-08  1.80000000e+00  1.61432420e-08 -6.42087364e-03  1.61432420e-08  7.35440625e-01  1.61432420e-08  1.62957781e+00  1.61432420e-08  1.63731450e+00                                 
 1.98423417e-08  7.91496365e-01  1.98423417e-08  7.33630699e-01  1.98423417e-08  1.57131028e+00  1.98423417e-08  1.80000000e+00  1.98423417e-08  6.40713294e-03  1.98423417e-08  7.35722709e-01  1.98423417e-08  1.62992392e+00  1.98423417e-08  1.63720063e+00                                 
 2.38877385e-08  7.91494555e-01  2.38877385e-08  7.33601231e-01  2.38877385e-08  1.55866111e+00  2.38877385e-08  1.80000000e+00  2.38877385e-08 -6.35016373e-03  2.38877385e-08  7.35348794e-01  2.38877385e-08  1.62948863e+00  2.38877385e-08  1.63707236e+00                                 
 2.98104305e-08  7.91512517e-01  2.98104305e-08  7.33630852e-01  2.98104305e-08  1.53971107e+00  2.98104305e-08  1.80000000e+00  2.98104305e-08  6.35442293e-03  2.98104305e-08  7.35896762e-01  2.98104305e-08  1.63006234e+00  2.98104305e-08  1.63691420e+00                                 
 3.67212107e-08  7.91507291e-01  3.67212107e-08  7.33601277e-01  3.67212107e-08  1.51565239e+00  3.67212107e-08  1.80000000e+00  3.67212107e-08 -6.30863635e-03  3.67212107e-08  7.35680109e-01  3.67212107e-08  1.62976402e+00  3.67212107e-08  1.63677241e+00                                 
 4.74005089e-08  7.91517549e-01  4.74005089e-08  7.33630791e-01  4.74005089e-08  1.47841152e+00  4.74005089e-08  1.80000000e+00  4.74005089e-08  6.32386244e-03  4.74005089e-08  7.36304607e-01  4.74005089e-08  1.63040589e+00  4.74005089e-08  1.63664160e+00                                 
 6.19499538e-08  7.91506966e-01  6.19499538e-08  7.33601159e-01  6.19499538e-08  1.42631837e+00  6.19499538e-08  1.80000000e+00  6.19499538e-08 -6.28764189e-03  6.19499538e-08  7.36076546e-01  6.19499538e-08  1.63010181e+00  6.19499538e-08  1.63656123e+00                                 
 8.73264904e-08  7.91515032e-01  8.73264904e-08  7.33630719e-01  8.73264904e-08  1.33638718e+00  8.73264904e-08  1.80000000e+00  8.73264904e-08  6.30987071e-03  8.73264904e-08  7.36604368e-01  8.73264904e-08  1.63066457e+00  8.73264904e-08  1.63654567e+00                                 
 1.29619071e-07  7.91505091e-01  1.29619071e-07  7.33601125e-01  1.29619071e-07  1.18665162e+00  1.29619071e-07  1.80000000e+00  1.29619071e-07 -6.27945130e-03  1.29619071e-07  7.36242220e-01  1.29619071e-07  1.63024684e+00  1.29619071e-07  1.63658436e+00                                 
 2.14204233e-07  7.91514341e-01  2.14204233e-07  7.33630712e-01  2.14204233e-07  8.97846723e-01  2.14204233e-07  1.80000000e+00  2.14204233e-07  6.30561201e-03  2.14204233e-07  7.36644428e-01  2.14204233e-07  1.63069729e+00  2.14204233e-07  1.63662439e+00                                 
 3.05523464e-07  7.91505257e-01  3.05523464e-07  7.33601133e-01  3.05523464e-07  7.37727643e-01  3.05523464e-07  1.80000000e+00  3.05523464e-07 -6.27479007e-03  3.05523464e-07  7.36242109e-01  3.05523464e-07  1.63023989e+00  3.05523464e-07  1.63661739e+00                                 
 3.85917054e-07  7.91514104e-01  3.85917054e-07  7.33630731e-01  3.85917054e-07  7.39069175e-01  3.85917054e-07  1.80000000e+00  3.85917054e-07  6.30409436e-03  3.85917054e-07  7.36647995e-01  3.85917054e-07  1.63069313e+00  3.85917054e-07  1.63661793e+00                                 
 4.39103809e-07  7.91504816e-01  4.39103809e-07  7.33601042e-01  4.39103809e-07  7.40065819e-01  4.39103809e-07  1.80000000e+00  4.39103809e-07 -6.27100547e-03  4.39103809e-07  7.36239193e-01  4.39103809e-07  1.63023207e+00  4.39103809e-07  1.63661257e+00                                 
 4.91120225e-07  7.91514966e-01  4.91120225e-07  7.33630857e-01  4.91120225e-07  7.38860182e-01  4.91120225e-07  1.80000000e+00  4.91120225e-07  6.29938799e-03  4.91120225e-07  7.36647436e-01  4.91120225e-07  1.63068832e+00  4.91120225e-07  1.63661233e+00                                 
 5.50581218e-07  7.91504317e-01  5.50581218e-07  7.33600950e-01  5.50581218e-07  7.39566880e-01  5.50581218e-07  1.80000000e+00  5.50581218e-07 -6.26650998e-03  5.50581218e-07  7.36240468e-01  5.50581218e-07  1.63022876e+00  5.50581218e-07  1.63660798e+00                                 
 6.06870479e-07  7.91515120e-01  6.06870479e-07  7.33630912e-01  6.06870479e-07  7.39232941e-01  6.06870479e-07  1.80000000e+00  6.06870479e-07  6.29506267e-03  6.06870479e-07  7.36646598e-01  6.06870479e-07  1.63068293e+00  6.06870479e-07  1.63660790e+00                                 
 6.85055609e-07  7.91504316e-01  6.85055609e-07  7.33600919e-01  6.85055609e-07  7.39341481e-01  6.85055609e-07  1.80000000e+00  6.85055609e-07 -6.26268032e-03  6.85055609e-07  7.36240949e-01  6.85055609e-07  1.63022382e+00  6.85055609e-07  1.63660248e+00                                 
 7.87137831e-07  7.91515068e-01  7.87137831e-07  7.33630927e-01  7.87137831e-07  7.39337801e-01  7.87137831e-07  1.80000000e+00  7.87137831e-07  6.29222434e-03  7.87137831e-07  7.36646367e-01  7.87137831e-07  1.63067549e+00  7.87137831e-07  1.63660077e+00                                 
 9.46737695e-07  7.91504368e-01  9.46737695e-07  7.33600912e-01  9.46737695e-07  7.39285797e-01  9.46737695e-07  1.80000000e+00  9.46737695e-07 -6.26064894e-03  9.46737695e-07  7.36241072e-01  9.46737695e-07  1.63021346e+00  9.46737695e-07  1.63659198e+00                                 
 1.26593742e-06  7.91515034e-01  1.26593742e-06  7.33630930e-01  1.26593742e-06  7.39363732e-01  1.26593742e-06  1.80000000e+00  1.26593742e-06  6.29100799e-03  1.26593742e-06  7.36646308e-01  1.26593742e-06  1.63065625e+00  1.26593742e-06  1.63658164e+00                                 
 1.90433688e-06  7.91504385e-01  1.90433688e-06  7.33600910e-01  1.90433688e-06  7.39274164e-01  1.90433688e-06  1.80000000e+00  1.90433688e-06 -6.25992245e-03  1.90433688e-06  7.36241098e-01  1.90433688e-06  1.63017514e+00  1.90433688e-06  1.63655369e+00                                 
 2.90433688e-06  7.91515024e-01  2.90433688e-06  7.33630931e-01  2.90433688e-06  7.39369611e-01  2.90433688e-06  1.80000000e+00  2.90433688e-06  6.29071475e-03  2.90433688e-06  7.36646294e-01  2.90433688e-06  1.63059062e+00  2.90433688e-06  1.63651615e+00                                 
 3.90433688e-06  7.91504392e-01  3.90433688e-06  7.33600909e-01  3.90433688e-06  7.39269715e-01  3.90433688e-06  1.80000000e+00  3.90433688e-06 -6.25991796e-03  3.90433688e-06  7.36241109e-01  3.90433688e-06  1.63009505e+00  3.90433688e-06  1.63647374e+00                                 
 4.90433688e-06  7.91515017e-01  4.90433688e-06  7.33630932e-01  4.90433688e-06  7.39373884e-01  4.90433688e-06  1.80000000e+00  4.90433688e-06  6.29048274e-03  4.90433688e-06  7.36646284e-01  4.90433688e-06  1.63051050e+00  4.90433688e-06  1.63643620e+00                                 
 5.90433688e-06  7.91504401e-01  5.90433688e-06  7.33600909e-01  5.90433688e-06  7.39265517e-01  5.90433688e-06  1.80000000e+00  5.90433688e-06 -6.25966992e-03  5.90433688e-06  7.36241119e-01  5.90433688e-06  1.63001494e+00  5.90433688e-06  1.63639376e+00                                 
 6.90433688e-06  7.91515009e-01  6.90433688e-06  7.33630932e-01  6.90433688e-06  7.39377903e-01  6.90433688e-06  1.80000000e+00  6.90433688e-06  6.29023219e-03  6.90433688e-06  7.36646275e-01  6.90433688e-06  1.63043038e+00  6.90433688e-06  1.63635623e+00                                 
 7.90433688e-06  7.91504408e-01  7.90433688e-06  7.33600909e-01  7.90433688e-06  7.39261566e-01  7.90433688e-06  1.80000000e+00  7.90433688e-06 -6.25942190e-03  7.90433688e-06  7.36241129e-01  7.90433688e-06  1.62993485e+00  7.90433688e-06  1.63631381e+00                                 
 8.90433688e-06  7.91515001e-01  8.90433688e-06  7.33630932e-01  8.90433688e-06  7.39381687e-01  8.90433688e-06  1.80000000e+00  8.90433688e-06  6.28998165e-03  8.90433688e-06  7.36646265e-01  8.90433688e-06  1.63035029e+00  8.90433688e-06  1.63627630e+00                                 
 9.90433688e-06  7.91504416e-01  9.90433688e-06  7.33600908e-01  9.90433688e-06  7.39257844e-01  9.90433688e-06  1.80000000e+00  9.90433688e-06 -6.25917388e-03  9.90433688e-06  7.36241137e-01  9.90433688e-06  1.62985480e+00  9.90433688e-06  1.63623389e+00                                 
 1.00005000e-05  7.91514955e-01  1.00005000e-05  7.33630934e-01  1.00005000e-05  7.39399607e-01  1.00005000e-05  1.80000000e+00  1.00005000e-05  6.28855985e-03  1.00005000e-05  7.36646220e-01  1.00005000e-05  1.63030637e+00  1.00005000e-05  1.63623252e+00                                 
 1.00005500e-05  7.91478365e-01  1.00005500e-05  7.33425219e-01  1.00005500e-05  7.37446584e-01  1.00005500e-05  1.62000000e+00  1.00005500e-05  4.82983413e-04  1.00005500e-05  7.34878610e-01  1.00005500e-05  1.62871628e+00  1.00005500e-05  1.63621067e+00                                 
 1.00006500e-05  7.91503692e-01  1.00006500e-05  7.33417537e-01  1.00006500e-05  7.37623698e-01  1.00006500e-05  1.26000000e+00  1.00006500e-05 -4.35696278e-04  1.00006500e-05  7.34669981e-01  1.00006500e-05  1.62852738e+00  1.00006500e-05  1.63623498e+00                                 
 1.00008500e-05  7.91538708e-01  1.00008500e-05  7.33664118e-01  1.00008500e-05  7.40194734e-01  1.00008500e-05  5.40000000e-01  1.00008500e-05 -1.33996748e-03  1.00008500e-05  7.36493873e-01  1.00008500e-05  1.62937891e+00  1.00008500e-05  1.63623418e+00                                 
 1.00010000e-05  7.91501113e-01  1.00010000e-05  7.32447262e-01  1.00010000e-05  7.60964028e-01  1.00010000e-05  0.00000000e+00  1.00010000e-05  1.48995946e+00  1.00010000e-05  7.21954099e-01  1.00010000e-05  1.56722109e+00  1.00010000e-05  1.63565194e+00                                 
 1.00010262e-05  7.91517951e-01  1.00010262e-05  7.32155767e-01  1.00010262e-05  7.67736351e-01  1.00010262e-05  0.00000000e+00  1.00010262e-05  1.68424490e+00  1.00010262e-05  7.18291376e-01  1.00010262e-05  1.54129189e+00  1.00010262e-05  1.63551974e+00                                 
 1.00010786e-05  7.91513018e-01  1.00010786e-05  7.31616095e-01  1.00010786e-05  7.73557497e-01  1.00010786e-05  0.00000000e+00  1.00010786e-05  1.82343221e+00  1.00010786e-05  7.11955671e-01  1.00010786e-05  1.48416326e+00  1.00010786e-05  1.63542065e+00                                 
 1.00011835e-05  7.91506177e-01  1.00011835e-05  7.31566582e-01  1.00011835e-05  7.65822628e-01  1.00011835e-05  0.00000000e+00  1.00011835e-05  1.78555245e+00  1.00011835e-05  7.12219156e-01  1.00011835e-05  1.38482372e+00  1.00011835e-05  1.63592955e+00                                 
 1.00013178e-05  7.91514579e-01  1.00013178e-05  7.31953652e-01  1.00013178e-05  7.62052797e-01  1.00013178e-05  0.00000000e+00  1.00013178e-05  1.80792372e+00  1.00013178e-05  7.17591674e-01  1.00013178e-05  1.28876637e+00  1.00013178e-05  1.63628054e+00                                 
 1.00015344e-05  7.91505455e-01  1.00015344e-05  7.32174504e-01  1.00015344e-05  7.57181841e-01  1.00015344e-05  0.00000000e+00  1.00015344e-05  1.79338307e+00  1.00015344e-05  7.19670408e-01  1.00015344e-05  1.16244829e+00  1.00015344e-05  1.63644762e+00                                 
 1.00019063e-05  7.91513682e-01  1.00019063e-05  7.32785291e-01  1.00019063e-05  7.52042250e-01  1.00019063e-05  0.00000000e+00  1.00019063e-05  1.80508578e+00  1.00019063e-05  7.25064809e-01  1.00019063e-05  1.01323396e+00  1.00019063e-05  1.63651318e+00                                 
 1.00023914e-05  7.91505661e-01  1.00023914e-05  7.33173339e-01  1.00023914e-05  7.49108829e-01  1.00023914e-05  0.00000000e+00  1.00023914e-05  1.79523924e+00  1.00023914e-05  7.27307556e-01  1.00023914e-05  8.75462996e-01  1.00023914e-05  1.63618988e+00                                 
 1.00029124e-05  7.91513468e-01  1.00029124e-05  7.33756240e-01  1.00029124e-05  7.44111112e-01  1.00029124e-05  0.00000000e+00  1.00029124e-05  1.80390854e+00  1.00029124e-05  7.32910442e-01  1.00029124e-05  7.91518602e-01  1.00029124e-05  1.63558670e+00                                 
 1.00035958e-05  7.91506048e-01  1.00035958e-05  7.34013063e-01  1.00035958e-05  7.42078845e-01  1.00035958e-05  0.00000000e+00  1.00035958e-05  1.79633744e+00  1.00035958e-05  7.35414227e-01  1.00035958e-05  7.47791560e-01  1.00035958e-05  1.63435361e+00                                 
 1.00042466e-05  7.91513266e-01  1.00042466e-05  7.34154051e-01  1.00042466e-05  7.41260167e-01  1.00042466e-05  0.00000000e+00  1.00042466e-05  1.80326577e+00  1.00042466e-05  7.37711408e-01  1.00042466e-05  7.42987767e-01  1.00042466e-05  1.63283193e+00                                 
 1.00049842e-05  7.91506331e-01  1.00049842e-05  7.33995154e-01  1.00049842e-05  7.43439162e-01  1.00049842e-05  0.00000000e+00  1.00049842e-05  1.79701372e+00  1.00049842e-05  7.36973781e-01  1.00049842e-05  7.41982206e-01  1.00049842e-05  1.63077795e+00                                 
 1.00058061e-05  7.91513039e-01  1.00058061e-05  7.33985175e-01  1.00058061e-05  7.44160724e-01  1.00058061e-05  0.00000000e+00  1.00058061e-05  1.80272670e+00  1.00058061e-05  7.38045518e-01  1.00058061e-05  7.44371059e-01  1.00058061e-05  1.62838708e+00                                 
