 time            v(vbep)         time            v(vben)         time            v(vout)         time            v(vphi1)        time            v(vphi2)        time            v(vref)         time            v(voutc)        time            v(voutcc)       yes             currtemp       
 0.00000000e+00  6.83485724e-01  0.00000000e+00  6.08939294e-01  0.00000000e+00  1.41314476e+00  0.00000000e+00  0.00000000e+00  0.00000000e+00  1.79999998e+00  0.00000000e+00  6.08038420e-01  0.00000000e+00  1.41314475e+00  0.00000000e+00  1.42155333e+00  1.00000000e+00  9.40000000e+01 
 5.00000000e-12  6.83507334e-01  5.00000000e-12  6.08994454e-01  5.00000000e-12  1.41374413e+00  5.00000000e-12  1.80000000e-02  5.00000000e-12  1.80018638e+00  5.00000000e-12  6.08422904e-01  5.00000000e-12  1.41348587e+00  5.00000000e-12  1.42156603e+00                                 
 1.00000000e-11  6.83516698e-01  1.00000000e-11  6.09030163e-01  1.00000000e-11  1.41416592e+00  1.00000000e-11  3.60000000e-02  1.00000000e-11  1.80026975e+00  1.00000000e-11  6.08723310e-01  1.00000000e-11  1.41375330e+00  1.00000000e-11  1.42157241e+00                                 
 2.00000000e-11  6.83522796e-01  2.00000000e-11  6.09079095e-01  2.00000000e-11  1.41475817e+00  2.00000000e-11  7.20000000e-02  2.00000000e-11  1.80032044e+00  2.00000000e-11  6.09191832e-01  2.00000000e-11  1.41417268e+00  2.00000000e-11  1.42157792e+00                                 
 4.00000000e-11  6.83510728e-01  4.00000000e-11  6.09112703e-01  4.00000000e-11  1.41510503e+00  4.00000000e-11  1.44000000e-01  4.00000000e-11  1.80018448e+00  4.00000000e-11  6.09638359e-01  4.00000000e-11  1.41458202e+00  4.00000000e-11  1.42157131e+00                                 
 8.00000000e-11  6.83497899e-01  8.00000000e-11  6.09116649e-01  8.00000000e-11  1.41493497e+00  8.00000000e-11  2.88000000e-01  8.00000000e-11  1.80002872e+00  8.00000000e-11  6.09785604e-01  8.00000000e-11  1.41473653e+00  8.00000000e-11  1.42155805e+00                                 
 1.60000000e-10  6.83497551e-01  1.60000000e-10  6.09100868e-01  1.60000000e-10  1.41444817e+00  1.60000000e-10  5.76000000e-01  1.60000000e-10  1.80000852e+00  1.60000000e-10  6.09614230e-01  1.60000000e-10  1.41459231e+00  1.60000000e-10  1.42155213e+00                                 
 3.20000000e-10  6.83430893e-01  3.20000000e-10  6.08656328e-01  3.20000000e-10  1.41114108e+00  3.20000000e-10  1.15200000e+00  3.20000000e-10  1.80068693e+00  3.20000000e-10  6.05798226e-01  3.20000000e-10  1.41148608e+00  3.20000000e-10  1.42152331e+00                                 
 5.00000000e-10  6.83444355e-01  5.00000000e-10  6.09214051e-01  5.00000000e-10  1.41015438e+00  5.00000000e-10  1.80000000e+00  5.00000000e-10  1.92289632e-01  5.00000000e-10  6.14419585e-01  5.00000000e-10  1.41920042e+00  5.00000000e-10  1.42163110e+00                                 
 5.22239252e-10  6.83454092e-01  5.22239252e-10  6.09219614e-01  5.22239252e-10  1.40928253e+00  5.22239252e-10  1.80000000e+00  5.22239252e-10  5.49082000e-02  5.22239252e-10  6.16170969e-01  5.22239252e-10  1.42011564e+00  5.22239252e-10  1.42161127e+00                                 
 5.66717756e-10  6.83564700e-01  5.66717756e-10  6.09258672e-01  5.66717756e-10  1.40846642e+00  5.66717756e-10  1.80000000e+00  5.66717756e-10 -1.81224477e-02  5.66717756e-10  6.18707839e-01  5.66717756e-10  1.42222187e+00  5.66717756e-10  1.42160325e+00                                 
 6.55674764e-10  6.83693486e-01  6.55674764e-10  6.09078826e-01  6.55674764e-10  1.40545400e+00  6.55674764e-10  1.80000000e+00  6.55674764e-10  1.37002786e-02  6.55674764e-10  6.19029951e-01  6.55674764e-10  1.42275191e+00  6.55674764e-10  1.42155322e+00                                 
 7.77149919e-10  6.83748462e-01  7.77149919e-10  6.09019902e-01  7.77149919e-10  1.40344605e+00  7.77149919e-10  1.80000000e+00  7.77149919e-10 -1.05800790e-02  7.77149919e-10  6.20348693e-01  7.77149919e-10  1.42372496e+00  7.77149919e-10  1.42156313e+00                                 
 9.58937495e-10  6.83816749e-01  9.58937495e-10  6.08990120e-01  9.58937495e-10  1.40184841e+00  9.58937495e-10  1.80000000e+00  9.58937495e-10  9.38124815e-03  9.58937495e-10  6.20902850e-01  9.58937495e-10  1.42437608e+00  9.58937495e-10  1.42154857e+00                                 
 1.29102124e-09  6.83761807e-01  1.29102124e-09  6.08925673e-01  1.29102124e-09  1.39922766e+00  1.29102124e-09  1.80000000e+00  1.29102124e-09 -8.49415273e-03  1.29102124e-09  6.19958878e-01  1.29102124e-09  1.42341222e+00  1.29102124e-09  1.42161301e+00                                 
 1.64634030e-09  6.83702528e-01  1.64634030e-09  6.08953906e-01  1.64634030e-09  1.39729286e+00  1.64634030e-09  1.80000000e+00  1.64634030e-09  7.96761770e-03  1.64634030e-09  6.19252278e-01  1.64634030e-09  1.42292412e+00  1.64634030e-09  1.42171883e+00                                 
 2.27461337e-09  6.83559628e-01  2.27461337e-09  6.08912600e-01  2.27461337e-09  1.39273885e+00  2.27461337e-09  1.80000000e+00  2.27461337e-09 -7.58397811e-03  2.27461337e-09  6.17052067e-01  2.27461337e-09  1.42086989e+00  2.27461337e-09  1.42194865e+00                                 
 3.15558829e-09  6.83487602e-01  3.15558829e-09  6.08945239e-01  3.15558829e-09  1.38672685e+00  3.15558829e-09  1.80000000e+00  3.15558829e-09  7.40010412e-03  3.15558829e-09  6.15134140e-01  3.15558829e-09  1.41930939e+00  3.15558829e-09  1.42226131e+00                                 
 4.67556732e-09  6.83415434e-01  4.67556732e-09  6.08904983e-01  4.67556732e-09  1.37474792e+00  4.67556732e-09  1.80000000e+00  4.67556732e-09 -7.23026304e-03  4.67556732e-09  6.11587590e-01  4.67556732e-09  1.41609267e+00  4.67556732e-09  1.42265559e+00                                 
 7.25456438e-09  6.83432063e-01  7.25456438e-09  6.08946068e-01  7.25456438e-09  1.35439423e+00  7.25456438e-09  1.80000000e+00  7.25456438e-09  7.20215197e-03  7.25456438e-09  6.08711195e-01  7.25456438e-09  1.41370356e+00  7.25456438e-09  1.42290758e+00                                 
 9.76842888e-09  6.83430625e-01  9.76842888e-09  6.08915175e-01  9.76842888e-09  1.33262198e+00  9.76842888e-09  1.80000000e+00  9.76842888e-09 -7.07875702e-03  9.76842888e-09  6.06844080e-01  9.76842888e-09  1.41195746e+00  9.76842888e-09  1.42280788e+00                                 
 1.19666915e-08  6.83465366e-01  1.19666915e-08  6.08955920e-01  1.19666915e-08  1.31329061e+00  1.19666915e-08  1.80000000e+00  1.19666915e-08  7.04372147e-03  1.19666915e-08  6.06723216e-01  1.19666915e-08  1.41195866e+00  1.19666915e-08  1.42260587e+00                                 
 1.43747851e-08  6.83458623e-01  1.43747851e-08  6.08920210e-01  1.43747851e-08  1.29077247e+00  1.43747851e-08  1.80000000e+00  1.43747851e-08 -6.91733013e-03  1.43747851e-08  6.06139888e-01  1.43747851e-08  1.41132507e+00  1.43747851e-08  1.42234535e+00                                 
 1.71131593e-08  6.83487841e-01  1.71131593e-08  6.08958278e-01  1.71131593e-08  1.26540648e+00  1.71131593e-08  1.80000000e+00  1.71131593e-08  6.90156727e-03  1.71131593e-08  6.06592944e-01  1.71131593e-08  1.41182001e+00  1.71131593e-08  1.42206625e+00                                 
 2.07463685e-08  6.83476540e-01  2.07463685e-08  6.08920981e-01  2.07463685e-08  1.23043456e+00  2.07463685e-08  1.80000000e+00  2.07463685e-08 -6.80124974e-03  2.07463685e-08  6.06398380e-01  2.07463685e-08  1.41152481e+00  2.07463685e-08  1.42174483e+00                                 
 2.52567243e-08  6.83499658e-01  2.52567243e-08  6.08958538e-01  2.52567243e-08  1.18737855e+00  2.52567243e-08  1.80000000e+00  2.52567243e-08  6.81277056e-03  2.52567243e-08  6.07114968e-01  2.52567243e-08  1.41224917e+00  2.52567243e-08  1.42145882e+00                                 
 3.14496499e-08  6.83481669e-01  3.14496499e-08  6.08920981e-01  3.14496499e-08  1.12723922e+00  3.14496499e-08  1.80000000e+00  3.14496499e-08 -6.73294460e-03  3.14496499e-08  6.07063636e-01  3.14496499e-08  1.41208572e+00  3.14496499e-08  1.42121590e+00                                 
 4.04159772e-08  6.83498854e-01  4.04159772e-08  6.08958362e-01  4.04159772e-08  1.04127030e+00  4.04159772e-08  1.80000000e+00  4.04159772e-08  6.76462629e-03  4.04159772e-08  6.07812793e-01  4.04159772e-08  1.41284673e+00  4.04159772e-08  1.42108602e+00                                 
 5.59251007e-08  6.83476138e-01  5.59251007e-08  6.08920574e-01  5.59251007e-08  8.93766776e-01  5.59251007e-08  1.80000000e+00  5.59251007e-08 -6.70167853e-03  5.59251007e-08  6.07686575e-01  5.59251007e-08  1.41263035e+00  5.59251007e-08  1.42110458e+00                                 
 8.69433477e-08  6.83497490e-01  8.69433477e-08  6.08958099e-01  8.69433477e-08  6.62130424e-01  8.69433477e-08  1.80000000e+00  8.69433477e-08  6.75167299e-03  8.69433477e-08  6.08235011e-01  8.69433477e-08  1.41322569e+00  8.69433477e-08  1.42129896e+00                                 
 1.09812301e-07  6.83477596e-01  1.09812301e-07  6.08921010e-01  1.09812301e-07  6.05760803e-01  1.09812301e-07  1.80000000e+00  1.09812301e-07 -6.68213102e-03  1.09812301e-07  6.07851027e-01  1.09812301e-07  1.41278253e+00  1.09812301e-07  1.42137562e+00                                 
 1.32377887e-07  6.83490277e-01  1.32377887e-07  6.08957197e-01  1.32377887e-07  6.07887970e-01  1.32377887e-07  1.80000000e+00  1.32377887e-07  6.73805276e-03  1.32377887e-07  6.08237564e-01  1.32377887e-07  1.41322915e+00  1.32377887e-07  1.42140630e+00                                 
 1.44470827e-07  6.83478956e-01  1.44470827e-07  6.08921448e-01  1.44470827e-07  6.06664838e-01  1.44470827e-07  1.80000000e+00  1.44470827e-07 -6.66068392e-03  1.44470827e-07  6.07840490e-01  1.44470827e-07  1.41277305e+00  1.44470827e-07  1.42140437e+00                                 
 1.62460038e-07  6.83493304e-01  1.62460038e-07  6.08957112e-01  1.62460038e-07  6.07650663e-01  1.62460038e-07  1.80000000e+00  1.62460038e-07  6.71454090e-03  1.62460038e-07  6.08237258e-01  1.62460038e-07  1.41322781e+00  1.62460038e-07  1.42141065e+00                                 
 1.98438461e-07  6.83477771e-01  1.98438461e-07  6.08921450e-01  1.98438461e-07  6.06717165e-01  1.98438461e-07  1.80000000e+00  1.98438461e-07 -6.64667935e-03  1.98438461e-07  6.07839613e-01  1.98438461e-07  1.41277076e+00  1.98438461e-07  1.42140590e+00                                 
 2.51004816e-07  6.83493892e-01  2.51004816e-07  6.08957134e-01  2.51004816e-07  6.07592020e-01  2.51004816e-07  1.80000000e+00  2.51004816e-07  6.70659316e-03  2.51004816e-07  6.08237147e-01  2.51004816e-07  1.41322492e+00  2.51004816e-07  1.42140894e+00                                 
 3.51231651e-07  6.83477452e-01  3.51231651e-07  6.08921437e-01  3.51231651e-07  6.06727638e-01  3.51231651e-07  1.80000000e+00  3.51231651e-07 -6.64180957e-03  3.51231651e-07  6.07839601e-01  3.51231651e-07  1.41276604e+00  3.51231651e-07  1.42140117e+00                                 
 5.20254600e-07  6.83494054e-01  5.20254600e-07  6.08957141e-01  5.20254600e-07  6.07577952e-01  5.20254600e-07  1.80000000e+00  5.20254600e-07  6.70389619e-03  5.20254600e-07  6.08237155e-01  5.20254600e-07  1.41321653e+00  5.20254600e-07  1.42140058e+00                                 
 8.13229282e-07  6.83477361e-01  8.13229282e-07  6.08921433e-01  8.13229282e-07  6.06731111e-01  8.13229282e-07  1.80000000e+00  8.13229282e-07 -6.64024341e-03  8.13229282e-07  6.07839596e-01  8.13229282e-07  1.41275167e+00  8.13229282e-07  1.42138682e+00                                 
 1.39917865e-06  6.83494103e-01  1.39917865e-06  6.08957144e-01  1.39917865e-06  6.07573706e-01  1.39917865e-06  1.80000000e+00  1.39917865e-06  6.70302754e-03  1.39917865e-06  6.08237158e-01  1.39917865e-06  1.41318919e+00  1.39917865e-06  1.42137328e+00                                 
 2.39917865e-06  6.83477336e-01  2.39917865e-06  6.08921431e-01  2.39917865e-06  6.06732113e-01  2.39917865e-06  1.80000000e+00  2.39917865e-06 -6.63978909e-03  2.39917865e-06  6.07839595e-01  2.39917865e-06  1.41270236e+00  2.39917865e-06  1.42133756e+00                                 
 3.39917865e-06  6.83494121e-01  3.39917865e-06  6.08957145e-01  3.39917865e-06  6.07571571e-01  3.39917865e-06  1.80000000e+00  3.39917865e-06  6.70268708e-03  3.39917865e-06  6.08237159e-01  3.39917865e-06  1.41312701e+00  3.39917865e-06  1.42131118e+00                                 
 4.39917865e-06  6.83477317e-01  4.39917865e-06  6.08921431e-01  4.39917865e-06  6.06730504e-01  4.39917865e-06  1.80000000e+00  4.39917865e-06 -6.63942625e-03  4.39917865e-06  6.07839594e-01  4.39917865e-06  1.41264018e+00  4.39917865e-06  1.42127546e+00                                 
 5.39917865e-06  6.83494139e-01  5.39917865e-06  6.08957146e-01  5.39917865e-06  6.07569902e-01  5.39917865e-06  1.80000000e+00  5.39917865e-06  6.70234779e-03  5.39917865e-06  6.08237160e-01  5.39917865e-06  1.41306481e+00  5.39917865e-06  1.42124906e+00                                 
 6.39917865e-06  6.83477299e-01  6.39917865e-06  6.08921429e-01  6.39917865e-06  6.06731237e-01  6.39917865e-06  1.80000000e+00  6.39917865e-06 -6.63909057e-03  6.39917865e-06  6.07839593e-01  6.39917865e-06  1.41257800e+00  6.39917865e-06  1.42121336e+00                                 
 7.39917865e-06  6.83494157e-01  7.39917865e-06  6.08957147e-01  7.39917865e-06  6.07568272e-01  7.39917865e-06  1.80000000e+00  7.39917865e-06  6.70200851e-03  7.39917865e-06  6.08237160e-01  7.39917865e-06  1.41300262e+00  7.39917865e-06  1.42118694e+00                                 
 8.39917865e-06  6.83477281e-01  8.39917865e-06  6.08921428e-01  8.39917865e-06  6.06732014e-01  8.39917865e-06  1.80000000e+00  8.39917865e-06 -6.63875491e-03  8.39917865e-06  6.07839593e-01  8.39917865e-06  1.41251581e+00  8.39917865e-06  1.42115124e+00                                 
 9.39917865e-06  6.83494176e-01  9.39917865e-06  6.08957148e-01  9.39917865e-06  6.07566656e-01  9.39917865e-06  1.80000000e+00  9.39917865e-06  6.70166925e-03  9.39917865e-06  6.08237161e-01  9.39917865e-06  1.41294045e+00  9.39917865e-06  1.42112486e+00                                 
 1.00005000e-05  6.83477257e-01  1.00005000e-05  6.08921427e-01  1.00005000e-05  6.06734624e-01  1.00005000e-05  1.80000000e+00  1.00005000e-05 -6.63832500e-03  1.00005000e-05  6.07839591e-01  1.00005000e-05  1.41246605e+00  1.00005000e-05  1.42110154e+00                                 
 1.00005500e-05  6.83447224e-01  1.00005500e-05  6.08747428e-01  1.00005500e-05  6.05218775e-01  1.00005500e-05  1.62000000e+00  1.00005500e-05 -8.22246907e-04  1.00005500e-05  6.06571922e-01  1.00005500e-05  1.41140277e+00  1.00005500e-05  1.42108923e+00                                 
 1.00006500e-05  6.83474668e-01  1.00006500e-05  6.08713934e-01  1.00006500e-05  6.05065954e-01  1.00006500e-05  1.26000000e+00  1.00006500e-05  5.93313724e-04  1.00006500e-05  6.06075924e-01  1.00006500e-05  1.41098058e+00  1.00006500e-05  1.42110313e+00                                 
 1.00008500e-05  6.83530338e-01  1.00008500e-05  6.08889469e-01  1.00008500e-05  6.07305272e-01  1.00008500e-05  5.40000000e-01  1.00008500e-05  6.33303239e-02  1.00008500e-05  6.06479731e-01  1.00008500e-05  1.40928081e+00  1.00008500e-05  1.42109214e+00                                 
 1.00010000e-05  6.83467570e-01  1.00010000e-05  6.08299101e-01  1.00010000e-05  6.28425770e-01  1.00010000e-05  0.00000000e+00  1.00010000e-05  1.56146384e+00  1.00010000e-05  6.00146686e-01  1.00010000e-05  1.35066392e+00  1.00010000e-05  1.42061233e+00                                 
 1.00010247e-05  6.83485376e-01  1.00010247e-05  6.07863217e-01  1.00010247e-05  6.34242859e-01  1.00010247e-05  0.00000000e+00  1.00010247e-05  1.70838698e+00  1.00010247e-05  5.94947251e-01  1.00010247e-05  1.32076228e+00  1.00010247e-05  1.42038407e+00                                 
 1.00010742e-05  6.83490989e-01  1.00010742e-05  6.07118400e-01  1.00010742e-05  6.39754249e-01  1.00010742e-05  0.00000000e+00  1.00010742e-05  1.81775307e+00  1.00010742e-05  5.85862567e-01  1.00010742e-05  1.25640354e+00  1.00010742e-05  1.42024213e+00                                 
 1.00011730e-05  6.83484835e-01  1.00011730e-05  6.06975619e-01  1.00011730e-05  6.35760374e-01  1.00011730e-05  0.00000000e+00  1.00011730e-05  1.78852857e+00  1.00011730e-05  5.84027794e-01  1.00011730e-05  1.14487962e+00  1.00011730e-05  1.42081899e+00                                 
 1.00013071e-05  6.83488755e-01  1.00013071e-05  6.07222730e-01  1.00013071e-05  6.33051375e-01  1.00013071e-05  0.00000000e+00  1.00013071e-05  1.80621044e+00  1.00013071e-05  5.87287769e-01  1.00013071e-05  1.02520058e+00  1.00013071e-05  1.42122746e+00                                 
 1.00015249e-05  6.83484340e-01  1.00015249e-05  6.07398673e-01  1.00015249e-05  6.29074094e-01  1.00015249e-05  0.00000000e+00  1.00015249e-05  1.79430418e+00  1.00015249e-05  5.88172151e-01  1.00015249e-05  8.64966345e-01  1.00015249e-05  1.42146488e+00                                 
 1.00017980e-05  6.83487745e-01  1.00017980e-05  6.08122431e-01  1.00017980e-05  6.21337982e-01  1.00017980e-05  0.00000000e+00  1.00017980e-05  1.80390770e+00  1.00017980e-05  5.95518500e-01  1.00017980e-05  7.33402923e-01  1.00017980e-05  1.42122982e+00                                 
 1.00022002e-05  6.83484348e-01  1.00022002e-05  6.08862305e-01  1.00022002e-05  6.12867268e-01  1.00022002e-05  0.00000000e+00  1.00022002e-05  1.79623822e+00  1.00022002e-05  6.02600131e-01  1.00022002e-05  6.38882670e-01  1.00022002e-05  1.41982855e+00                                 
 1.00026094e-05  6.83487377e-01  1.00026094e-05  6.09345925e-01  1.00026094e-05  6.09273755e-01  1.00026094e-05  0.00000000e+00  1.00026094e-05  1.80322088e+00  1.00026094e-05  6.07918739e-01  1.00026094e-05  6.15562033e-01  1.00026094e-05  1.41730293e+00                                 
 1.00029894e-05  6.83484484e-01  1.00029894e-05  6.09343517e-01  1.00029894e-05  6.09912979e-01  1.00029894e-05  0.00000000e+00  1.00029894e-05  1.79723087e+00  1.00029894e-05  6.08031488e-01  1.00029894e-05  6.10159321e-01  1.00029894e-05  1.41453456e+00                                 
 1.00034020e-05  6.83487133e-01  1.00034020e-05  6.09410027e-01  1.00034020e-05  6.10308053e-01  1.00034020e-05  0.00000000e+00  1.00034020e-05  1.80242391e+00  1.00034020e-05  6.09464243e-01  1.00034020e-05  6.10827540e-01  1.00034020e-05  1.41129791e+00                                 
 1.00040731e-05  6.83484577e-01  1.00040731e-05  6.09282315e-01  1.00040731e-05  6.12827835e-01  1.00040731e-05  0.00000000e+00  1.00040731e-05  1.79778335e+00  1.00040731e-05  6.08824461e-01  1.00040731e-05  6.11527563e-01  1.00040731e-05  1.40582041e+00                                 
 1.00052874e-05  6.83486972e-01  1.00052874e-05  6.09233625e-01  1.00052874e-05  6.16269654e-01  1.00052874e-05  0.00000000e+00  1.00052874e-05  1.80212497e+00  1.00052874e-05  6.09678631e-01  1.00052874e-05  6.16203597e-01  1.00052874e-05  1.39538696e+00                                 
 1.00076123e-05  6.83484540e-01  1.00076123e-05  6.09018231e-01  1.00076123e-05  6.24246961e-01  1.00076123e-05  0.00000000e+00  1.00076123e-05  1.79793595e+00  1.00076123e-05  6.08794831e-01  1.00076123e-05  6.22880303e-01  1.00076123e-05  1.37447116e+00                                 
 1.00122620e-05  6.83486906e-01  1.00122620e-05  6.08961233e-01  1.00122620e-05  6.38505881e-01  1.00122620e-05  0.00000000e+00  1.00122620e-05  1.80204833e+00  1.00122620e-05  6.09293820e-01  1.00122620e-05  6.38362016e-01  1.00122620e-05  1.33136271e+00                                 
 1.00200233e-05  6.83484546e-01  1.00200233e-05  6.08895460e-01  1.00200233e-05  6.62800495e-01  1.00200233e-05  0.00000000e+00  1.00200233e-05  1.79797570e+00  1.00200233e-05  6.08186650e-01  1.00200233e-05  6.61252997e-01  1.00200233e-05  1.25815783e+00                                 
