 time            v(vbep)         time            v(vben)         time            v(vout)         time            v(vphi1)        time            v(vphi2)        time            v(vref)         yes             currtemp       
 0.00000000e+00  6.64488946e-01  0.00000000e+00  6.07238444e-01  0.00000000e+00  1.03700274e+00  0.00000000e+00  0.00000000e+00  0.00000000e+00  1.79995455e+00  0.00000000e+00  5.00000000e-01  1.00000000e+00  4.00000000e+01 
 5.00000000e-12  6.64459355e-01  5.00000000e-12  6.07213946e-01  5.00000000e-12  1.03775636e+00  5.00000000e-12  1.80000000e-02  5.00000000e-12  1.80005812e+00  5.00000000e-12  5.00000000e-01                                 
 1.00000000e-11  6.64430562e-01  1.00000000e-11  6.07190096e-01  1.00000000e-11  1.03844007e+00  1.00000000e-11  3.60000000e-02  1.00000000e-11  1.80011221e+00  1.00000000e-11  5.00000000e-01                                 
 2.00000000e-11  6.64373462e-01  2.00000000e-11  6.07142583e-01  2.00000000e-11  1.03969919e+00  2.00000000e-11  7.20000000e-02  2.00000000e-11  1.80016381e+00  2.00000000e-11  5.00000000e-01                                 
 4.00000000e-11  6.64260099e-01  4.00000000e-11  6.07047933e-01  4.00000000e-11  1.04171502e+00  4.00000000e-11  1.44000000e-01  4.00000000e-11  1.80013919e+00  4.00000000e-11  5.00000000e-01                                 
 8.00000000e-11  6.64034494e-01  8.00000000e-11  6.06859488e-01  8.00000000e-11  1.04441816e+00  8.00000000e-11  2.88000000e-01  8.00000000e-11  1.80007605e+00  8.00000000e-11  5.00000000e-01                                 
 1.60000000e-10  6.63588119e-01  1.60000000e-10  6.06485996e-01  1.60000000e-10  1.04691888e+00  1.60000000e-10  5.76000000e-01  1.60000000e-10  1.80001462e+00  1.60000000e-10  5.00000000e-01                                 
 3.20000000e-10  6.62713564e-01  3.20000000e-10  6.05752116e-01  3.20000000e-10  1.04064351e+00  3.20000000e-10  1.15200000e+00  3.20000000e-10  1.80038608e+00  3.20000000e-10  5.00000000e-01                                 
 5.00000000e-10  6.61757714e-01  5.00000000e-10  6.04946664e-01  5.00000000e-10  1.20056730e+00  5.00000000e-10  1.80000000e+00  5.00000000e-10  1.17844168e-01  5.00000000e-10  5.00000000e-01                                 
 5.21562708e-10  6.61645350e-01  5.21562708e-10  6.04851733e-01  5.21562708e-10  1.23823769e+00  5.21562708e-10  1.80000000e+00  5.21562708e-10  2.32866976e-02  5.21562708e-10  5.00000000e-01                                 
 5.64688124e-10  6.61421396e-01  5.64688124e-10  6.04662421e-01  5.64688124e-10  1.30775925e+00  5.64688124e-10  1.80000000e+00  5.64688124e-10 -1.08605357e-02  5.64688124e-10  5.00000000e-01                                 
 6.50938955e-10  6.60978192e-01  6.50938955e-10  6.04287225e-01  6.50938955e-10  1.42396620e+00  6.50938955e-10  1.80000000e+00  6.50938955e-10  9.03898915e-03  6.50938955e-10  5.00000000e-01                                 
 7.73123546e-10  6.60360822e-01  7.73123546e-10  6.03763375e-01  7.73123546e-10  1.55794062e+00  7.73123546e-10  1.80000000e+00  7.73123546e-10 -7.85281986e-03  7.73123546e-10  5.00000000e-01                                 
 9.65141292e-10  6.59414387e-01  9.65141292e-10  6.02957599e-01  9.65141292e-10  1.71511529e+00  9.65141292e-10  1.80000000e+00  9.65141292e-10  7.36929776e-03  9.65141292e-10  5.00000000e-01                                 
 1.34917678e-09  6.57602490e-01  1.34917678e-09  6.01406079e-01  1.34917678e-09  1.89223289e+00  1.34917678e-09  1.80000000e+00  1.34917678e-09 -6.96480102e-03  1.34917678e-09  5.00000000e-01                                 
 1.61974035e-09  6.56386895e-01  1.61974035e-09  6.00358488e-01  1.61974035e-09  1.94377112e+00  1.61974035e-09  1.80000000e+00  1.61974035e-09  6.68498163e-03  1.61974035e-09  5.00000000e-01                                 
 1.93259745e-09  6.55038227e-01  1.93259745e-09  5.99190167e-01  1.93259745e-09  1.96994587e+00  1.93259745e-09  1.80000000e+00  1.93259745e-09 -6.29616957e-03  1.93259745e-09  5.00000000e-01                                 
 2.26165693e-09  6.53680625e-01  2.26165693e-09  5.98007786e-01  2.26165693e-09  1.98014822e+00  2.26165693e-09  1.80000000e+00  2.26165693e-09  6.07921423e-03  2.26165693e-09  5.00000000e-01                                 
 2.77730636e-09  6.51666315e-01  2.77730636e-09  5.96242205e-01  2.77730636e-09  1.98383325e+00  2.77730636e-09  1.80000000e+00  2.77730636e-09 -5.85380857e-03  2.77730636e-09  5.00000000e-01                                 
 3.40077460e-09  6.49395721e-01  3.40077460e-09  5.94236180e-01  3.40077460e-09  1.98267926e+00  3.40077460e-09  1.80000000e+00  3.40077460e-09  5.76144156e-03  3.40077460e-09  5.00000000e-01                                 
 4.48524291e-09  6.45806494e-01  4.48524291e-09  5.91033208e-01  4.48524291e-09  1.97928482e+00  4.48524291e-09  1.80000000e+00  4.48524291e-09 -5.64391095e-03  4.48524291e-09  5.00000000e-01                                 
 6.13915258e-09  6.41038194e-01  6.13915258e-09  5.86720716e-01  6.13915258e-09  1.97487256e+00  6.13915258e-09  1.80000000e+00  6.13915258e-09  5.63317410e-03  6.13915258e-09  5.00000000e-01                                 
 9.44697193e-09  6.33274239e-01  9.44697193e-09  5.79576985e-01  9.44697193e-09  1.96685575e+00  9.44697193e-09  1.80000000e+00  9.44697193e-09 -5.56540332e-03  9.44697193e-09  5.00000000e-01                                 
 1.09899911e-08  6.30283246e-01  1.09899911e-08  5.76782147e-01  1.09899911e-08  1.96378552e+00  1.09899911e-08  1.80000000e+00  1.09899911e-08  5.54581278e-03  1.09899911e-08  5.00000000e-01                                 
 1.24804653e-08  6.27659462e-01  1.24804653e-08  5.74314895e-01  1.24804653e-08  1.96093522e+00  1.24804653e-08  1.80000000e+00  1.24804653e-08 -5.46165950e-03  1.24804653e-08  5.00000000e-01                                 
 1.42160864e-08  6.24873717e-01  1.42160864e-08  5.71680858e-01  1.42160864e-08  1.95790390e+00  1.42160864e-08  1.80000000e+00  1.42160864e-08  5.44283496e-03  1.42160864e-08  5.00000000e-01                                 
 1.70258356e-08  6.20852084e-01  1.70258356e-08  5.67855076e-01  1.70258356e-08  1.95311509e+00  1.70258356e-08  1.80000000e+00  1.70258356e-08 -5.38815939e-03  1.70258356e-08  5.00000000e-01                                 
 2.05656388e-08  6.16449909e-01  2.05656388e-08  5.63640279e-01  2.05656388e-08  1.94745939e+00  2.05656388e-08  1.80000000e+00  2.05656388e-08  5.39126023e-03  2.05656388e-08  5.00000000e-01                                 
 2.55470975e-08  6.11130314e-01  2.55470975e-08  5.58522804e-01  2.55470975e-08  1.93987533e+00  2.55470975e-08  1.80000000e+00  2.55470975e-08 -5.35001529e-03  2.55470975e-08  5.00000000e-01                                 
 3.30820916e-08  6.04270675e-01  3.30820916e-08  5.51925569e-01  3.30820916e-08  1.92997437e+00  3.30820916e-08  1.80000000e+00  3.30820916e-08  5.36492367e-03  3.30820916e-08  5.00000000e-01                                 
 4.70309512e-08  5.93878952e-01  4.70309512e-08  5.41973869e-01  4.70309512e-08  1.91496376e+00  4.70309512e-08  1.80000000e+00  4.70309512e-08 -5.33375377e-03  4.70309512e-08  5.00000000e-01                                 
 6.12937804e-08  5.83308479e-01  6.12937804e-08  5.32245987e-01  6.12937804e-08  1.89317755e+00  6.12937804e-08  1.80000000e+00  6.12937804e-08  5.35371042e-03  6.12937804e-08  5.00000000e-01                                 
 7.59227625e-08  5.74696261e-01  7.59227625e-08  5.24298484e-01  7.59227625e-08  1.86110693e+00  7.59227625e-08  1.80000000e+00  7.59227625e-08 -5.32280276e-03  7.59227625e-08  5.00000000e-01                                 
 9.44748932e-08  5.65323573e-01  9.44748932e-08  5.15710207e-01  9.44748932e-08  1.82639951e+00  9.44748932e-08  1.80000000e+00  9.44748932e-08  5.34427562e-03  9.44748932e-08  5.00000000e-01                                 
 1.14080463e-07  5.57229816e-01  1.14080463e-07  5.08293775e-01  1.14080463e-07  1.79171800e+00  1.14080463e-07  1.80000000e+00  1.14080463e-07 -5.31460449e-03  1.14080463e-07  5.00000000e-01                                 
 1.39276820e-07  5.58173470e-01  1.39276820e-07  5.07920679e-01  1.39276820e-07  1.78062479e+00  1.39276820e-07  1.80000000e+00  1.39276820e-07  5.33766838e-03  1.39276820e-07  5.00000000e-01                                 
 1.64970188e-07  5.59817817e-01  1.64970188e-07  5.08225547e-01  1.64970188e-07  1.76441610e+00  1.64970188e-07  1.80000000e+00  1.64970188e-07 -5.30854918e-03  1.64970188e-07  5.00000000e-01                                 
 1.89950720e-07  5.54643892e-01  1.89950720e-07  5.03294500e-01  1.89950720e-07  1.73409436e+00  1.89950720e-07  1.80000000e+00  1.89950720e-07  5.33126291e-03  1.89950720e-07  5.00000000e-01                                 
 2.12532455e-07  5.49628364e-01  2.12532455e-07  4.98658194e-01  2.12532455e-07  1.70788593e+00  2.12532455e-07  1.80000000e+00  2.12532455e-07 -5.30206455e-03  2.12532455e-07  5.00000000e-01                                 
 2.38037396e-07  5.42725146e-01  2.38037396e-07  4.92525539e-01  2.38037396e-07  1.67631114e+00  2.38037396e-07  1.80000000e+00  2.38037396e-07  5.32471468e-03  2.38037396e-07  5.00000000e-01                                 
 2.80507019e-07  5.31024485e-01  2.80507019e-07  4.82316099e-01  2.80507019e-07  1.62343576e+00  2.80507019e-07  1.80000000e+00  2.80507019e-07 -5.29723930e-03  2.80507019e-07  5.00000000e-01                                 
 3.39399760e-07  5.15915346e-01  3.39399760e-07  4.69317113e-01  3.39399760e-07  1.54911283e+00  3.39399760e-07  1.80000000e+00  3.39399760e-07  5.32159232e-03  3.39399760e-07  5.00000000e-01                                 
 4.33909753e-07  4.84903714e-01  4.33909753e-07  4.43612992e-01  4.33909753e-07  1.42399713e+00  4.33909753e-07  1.80000000e+00  4.33909753e-07 -5.29518662e-03  4.33909753e-07  5.00000000e-01                                 
 5.22638964e-07  4.63859376e-01  5.22638964e-07  4.26287952e-01  5.22638964e-07  1.31090924e+00  5.22638964e-07  1.80000000e+00  5.22638964e-07  5.31999437e-03  5.22638964e-07  5.00000000e-01                                 
 6.13145948e-07  4.27504206e-01  6.13145948e-07  3.97029083e-01  6.13145948e-07  1.18232944e+00  6.13145948e-07  1.80000000e+00  6.13145948e-07 -5.29360147e-03  6.13145948e-07  5.00000000e-01                                 
 6.98977355e-07  7.10623333e-01  6.98977355e-07  6.51176976e-01  6.98977355e-07  1.36207779e+00  6.98977355e-07  1.80000000e+00  6.98977355e-07  5.32208621e-03  6.98977355e-07  5.00000000e-01                                 
 7.63007865e-07  7.77577360e-01  7.63007865e-07  7.13652131e-01  7.63007865e-07  1.36252797e+00  7.63007865e-07  1.80000000e+00  7.63007865e-07 -5.29332002e-03  7.63007865e-07  5.00000000e-01                                 
 7.70797284e-07  7.78700644e-01  7.70797284e-07  7.14589442e-01  7.70797284e-07  1.35389565e+00  7.70797284e-07  1.80000000e+00  7.70797284e-07 -1.71579091e-06  7.70797284e-07  5.00000000e-01                                 
 7.86376121e-07  7.80276608e-01  7.86376121e-07  7.15907715e-01  7.86376121e-07  1.33895931e+00  7.86376121e-07  1.80000000e+00  7.86376121e-07  3.67245170e-06  7.86376121e-07  5.00000000e-01                                 
 8.17533795e-07  7.81057946e-01  8.17533795e-07  7.16566378e-01  8.17533795e-07  1.30743435e+00  8.17533795e-07  1.80000000e+00  8.17533795e-07 -1.65089147e-06  8.17533795e-07  5.00000000e-01                                 
 8.55944257e-07  7.81204694e-01  8.55944257e-07  7.16683330e-01  8.55944257e-07  1.26726361e+00  8.55944257e-07  1.80000000e+00  8.55944257e-07  3.57849730e-06  8.55944257e-07  5.00000000e-01                                 
 9.21027255e-07  7.81225565e-01  9.21027255e-07  7.16705857e-01  9.21027255e-07  1.19939121e+00  9.21027255e-07  1.80000000e+00  9.21027255e-07 -1.62413069e-06  9.21027255e-07  5.00000000e-01                                 
 9.92887887e-07  7.66214940e-01  9.92887887e-07  7.03909278e-01  9.92887887e-07  1.10968558e+00  9.92887887e-07  1.80000000e+00  9.92887887e-07  3.26888621e-06  9.92887887e-07  5.00000000e-01                                 
 1.05971883e-06  7.52867730e-01  1.05971883e-06  6.91957223e-01  1.05971883e-06  1.02875955e+00  1.05971883e-06  1.80000000e+00  1.05971883e-06 -1.61081789e-06  1.05971883e-06  5.00000000e-01                                 
 1.14488037e-06  7.68313034e-01  1.14488037e-06  7.05702949e-01  1.14488037e-06  9.65226599e-01  1.14488037e-06  1.80000000e+00  1.14488037e-06  3.80522189e-06  1.14488037e-06  5.00000000e-01                                 
 1.22870955e-06  7.72623886e-01  1.22870955e-06  7.09450149e-01  1.22870955e-06  9.06803788e-01  1.22870955e-06  1.80000000e+00  1.22870955e-06 -1.76855783e-06  1.22870955e-06  5.00000000e-01                                 
 1.32860596e-06  7.57865524e-01  1.32860596e-06  6.96484400e-01  1.32860596e-06  8.30501443e-01  1.32860596e-06  1.80000000e+00  1.32860596e-06  3.49675086e-06  1.32860596e-06  5.00000000e-01                                 
 1.42844347e-06  7.66231714e-01  1.42844347e-06  7.03887076e-01  1.42844347e-06  7.80746516e-01  1.42844347e-06  1.80000000e+00  1.42844347e-06 -1.43329645e-06  1.42844347e-06  5.00000000e-01                                 
 1.44285634e-06  7.68887379e-01  1.44285634e-06  7.06207866e-01  1.44285634e-06  7.74962092e-01  1.44285634e-06  1.80000000e+00  1.44285634e-06  1.10211693e-06  1.44285634e-06  5.00000000e-01                                 
 1.47168208e-06  7.70946614e-01  1.47168208e-06  7.08001157e-01  1.47168208e-06  7.60755169e-01  1.47168208e-06  1.80000000e+00  1.47168208e-06  9.54798048e-07  1.47168208e-06  5.00000000e-01                                 
 1.52933358e-06  7.64402107e-01  1.52933358e-06  7.02305833e-01  1.52933358e-06  7.23730299e-01  1.52933358e-06  1.80000000e+00  1.52933358e-06  8.31567567e-07  1.52933358e-06  5.00000000e-01                                 
 1.60912846e-06  7.62495119e-01  1.60912846e-06  7.00600987e-01  1.60912846e-06  6.80426606e-01  1.60912846e-06  1.80000000e+00  1.60912846e-06  1.07182242e-06  1.60912846e-06  5.00000000e-01                                 
 1.69497501e-06  7.68865238e-01  1.69497501e-06  7.06198584e-01  1.69497501e-06  6.42723000e-01  1.69497501e-06  1.80000000e+00  1.69497501e-06  9.81088243e-07  1.69497501e-06  5.00000000e-01                                 
 1.84955688e-06  7.63516124e-01  1.84955688e-06  7.01516938e-01  1.84955688e-06  5.65286736e-01  1.84955688e-06  1.80000000e+00  1.84955688e-06  9.14602137e-07  1.84955688e-06  5.00000000e-01                                 
 1.99482531e-06  7.65765446e-01  1.99482531e-06  7.03487720e-01  1.99482531e-06  5.21242828e-01  1.99482531e-06  1.80000000e+00  1.99482531e-06  1.05291729e-06  1.99482531e-06  5.00000000e-01                                 
 2.20758233e-06  7.66509980e-01  2.20758233e-06  7.04150307e-01  2.20758233e-06  4.94736751e-01  2.20758233e-06  1.80000000e+00  2.20758233e-06  8.98882687e-07  2.20758233e-06  5.00000000e-01                                 
 2.41372697e-06  7.63955417e-01  2.41372697e-06  7.01897142e-01  2.41372697e-06  4.90465064e-01  2.41372697e-06  1.80000000e+00  2.41372697e-06  1.02654920e-06  2.41372697e-06  5.00000000e-01                                 
 2.44026123e-06  7.65364797e-01  2.44026123e-06  7.03138539e-01  2.44026123e-06  4.93900793e-01  2.44026123e-06  1.80000000e+00  2.44026123e-06  1.01245367e-06  2.44026123e-06  5.00000000e-01                                 
 2.49332973e-06  7.66708162e-01  2.49332973e-06  7.04318827e-01  2.49332973e-06  4.99312901e-01  2.49332973e-06  1.80000000e+00  2.49332973e-06  9.69804768e-07  2.49332973e-06  5.00000000e-01                                 
 2.59946674e-06  7.65077796e-01  2.59946674e-06  7.02890894e-01  2.59946674e-06  5.00512035e-01  2.59946674e-06  1.80000000e+00  2.59946674e-06  9.49861605e-07  2.59946674e-06  5.00000000e-01                                 
 2.76076723e-06  7.65587810e-01  2.76076723e-06  7.03335285e-01  2.76076723e-06  4.99927615e-01  2.76076723e-06  1.80000000e+00  2.76076723e-06  9.98239833e-07  2.76076723e-06  5.00000000e-01                                 
 3.01506539e-06  7.65913763e-01  3.01506539e-06  7.03624967e-01  3.01506539e-06  5.00571962e-01  3.01506539e-06  1.80000000e+00  3.01506539e-06  9.47565850e-07  3.01506539e-06  5.00000000e-01                                 
 3.37531977e-06  7.65135073e-01  3.37531977e-06  7.02938037e-01  3.37531977e-06  4.99676369e-01  3.37531977e-06  1.80000000e+00  3.37531977e-06  9.92811946e-07  3.37531977e-06  5.00000000e-01                                 
 4.09582854e-06  7.66131228e-01  4.09582854e-06  7.03815208e-01  4.09582854e-06  5.00760314e-01  4.09582854e-06  1.80000000e+00  4.09582854e-06  9.52952879e-07  4.09582854e-06  5.00000000e-01                                 
 5.09582854e-06  7.65034620e-01  5.09582854e-06  7.02850025e-01  5.09582854e-06  4.99576636e-01  5.09582854e-06  1.80000000e+00  5.09582854e-06  9.89094616e-07  5.09582854e-06  5.00000000e-01                                 
 6.09582854e-06  7.66196026e-01  6.09582854e-06  7.03871698e-01  6.09582854e-06  5.00833480e-01  6.09582854e-06  1.80000000e+00  6.09582854e-06  9.56316743e-07  6.09582854e-06  5.00000000e-01                                 
 7.09582854e-06  7.64981788e-01  7.09582854e-06  7.02803832e-01  7.09582854e-06  4.99512018e-01  7.09582854e-06  1.80000000e+00  7.09582854e-06  9.85571613e-07  7.09582854e-06  5.00000000e-01                                 
 8.09582854e-06  7.66234006e-01  8.09582854e-06  7.03904700e-01  8.09582854e-06  5.00886627e-01  8.09582854e-06  1.80000000e+00  8.09582854e-06  9.59959786e-07  8.09582854e-06  5.00000000e-01                                 
 9.09582854e-06  7.64956007e-01  9.09582854e-06  7.02781448e-01  9.09582854e-06  4.99471713e-01  9.09582854e-06  1.80000000e+00  9.09582854e-06  9.81847814e-07  9.09582854e-06  5.00000000e-01                                 
 1.00005000e-05  7.66245974e-01  1.00005000e-05  7.03914884e-01  1.00005000e-05  5.00914568e-01  1.00005000e-05  1.80000000e+00  1.00005000e-05  9.63925451e-07  1.00005000e-05  5.00000000e-01                                 
 1.00005500e-05  7.66245398e-01  1.00005500e-05  7.03914378e-01  1.00005500e-05  4.93041586e-01  1.00005500e-05  1.62000000e+00  1.00005500e-05 -7.86403045e-05  1.00005500e-05  5.00000000e-01                                 
 1.00006500e-05  7.66244250e-01  1.00006500e-05  7.03913372e-01  1.00006500e-05  4.79229537e-01  1.00006500e-05  1.26000000e+00  1.00006500e-05 -6.10819555e-05  1.00006500e-05  5.00000000e-01                                 
 1.00008500e-05  7.66241993e-01  1.00008500e-05  7.03911396e-01  1.00008500e-05  4.77101169e-01  1.00008500e-05  5.40000000e-01  1.00008500e-05 -4.10405708e-03  1.00008500e-05  5.00000000e-01                                 
 1.00010000e-05  7.66240215e-01  1.00010000e-05  7.03909865e-01  1.00010000e-05  4.38116774e-01  1.00010000e-05  0.00000000e+00  1.00010000e-05  1.57623290e+00  1.00010000e-05  5.00000000e-01                                 
 1.00010217e-05  7.66239913e-01  1.00010217e-05  7.03909618e-01  1.00010217e-05  4.13269352e-01  1.00010217e-05  0.00000000e+00  1.00010217e-05  1.71572207e+00  1.00010217e-05  5.00000000e-01                                 
 1.00010650e-05  7.66239363e-01  1.00010650e-05  7.03909142e-01  1.00010650e-05  3.65172598e-01  1.00010650e-05  0.00000000e+00  1.00010650e-05  1.81710794e+00  1.00010650e-05  5.00000000e-01                                 
 1.00011517e-05  7.66238454e-01  1.00011517e-05  7.03908293e-01  1.00011517e-05  3.06593708e-01  1.00011517e-05  0.00000000e+00  1.00011517e-05  1.78771697e+00  1.00011517e-05  5.00000000e-01                                 
