 time            v(vbep)         time            v(vben)         time            v(vout)         time            v(vphi1)        time            v(vphi2)        time            v(vref)         yes             currtemp       
 0.00000000e+00  5.93606130e-01  0.00000000e+00  5.26028351e-01  0.00000000e+00  9.99584868e-01  0.00000000e+00  0.00000000e+00  0.00000000e+00  1.79984487e+00  0.00000000e+00  5.26028351e-01  1.00000000e+00  9.60000000e+01 
 5.00000000e-12  5.93517378e-01  5.00000000e-12  5.25958624e-01  5.00000000e-12  1.00032842e+00  5.00000000e-12  1.80000000e-02  5.00000000e-12  1.79998750e+00  5.00000000e-12  5.25958624e-01                                 
 1.00000000e-11  5.93435701e-01  1.00000000e-11  5.25892765e-01  1.00000000e-11  1.00099842e+00  1.00000000e-11  3.60000000e-02  1.00000000e-11  1.80007955e+00  1.00000000e-11  5.25892765e-01                                 
 2.00000000e-11  5.93278107e-01  2.00000000e-11  5.25762232e-01  2.00000000e-11  1.00222055e+00  2.00000000e-11  7.20000000e-02  2.00000000e-11  1.80018948e+00  2.00000000e-11  5.25762232e-01                                 
 4.00000000e-11  5.92973725e-01  4.00000000e-11  5.25503346e-01  4.00000000e-11  1.00411840e+00  4.00000000e-11  1.44000000e-01  4.00000000e-11  1.80019374e+00  4.00000000e-11  5.25503346e-01                                 
 8.00000000e-11  5.92370987e-01  8.00000000e-11  5.24990130e-01  8.00000000e-11  1.00647217e+00  8.00000000e-11  2.88000000e-01  8.00000000e-11  1.80008764e+00  8.00000000e-11  5.24990130e-01                                 
 1.60000000e-10  5.91189651e-01  1.60000000e-10  5.23981707e-01  1.60000000e-10  1.00800900e+00  1.60000000e-10  5.76000000e-01  1.60000000e-10  1.79996961e+00  1.60000000e-10  5.23981707e-01                                 
 3.20000000e-10  5.88914510e-01  3.20000000e-10  5.22032757e-01  3.20000000e-10  1.00148256e+00  3.20000000e-10  1.15200000e+00  3.20000000e-10  1.80029728e+00  3.20000000e-10  5.22032757e-01                                 
 5.00000000e-10  5.86487628e-01  5.00000000e-10  5.19942379e-01  5.00000000e-10  1.12024312e+00  5.00000000e-10  1.80000000e+00  5.00000000e-10  1.92791716e-01  5.00000000e-10  5.19942379e-01                                 
 5.22776105e-10  5.86191280e-01  5.22776105e-10  5.19686270e-01  5.22776105e-10  1.15064282e+00  5.22776105e-10  1.80000000e+00  5.22776105e-10  5.31917078e-02  5.22776105e-10  5.19686270e-01                                 
 5.68328315e-10  5.85602304e-01  5.68328315e-10  5.19176798e-01  5.68328315e-10  1.21153654e+00  5.68328315e-10  1.80000000e+00  5.68328315e-10 -1.78914984e-02  5.68328315e-10  5.19176798e-01                                 
 6.59432736e-10  5.84447622e-01  6.59432736e-10  5.18176090e-01  6.59432736e-10  1.32100262e+00  6.59432736e-10  1.80000000e+00  6.59432736e-10  1.47926705e-02  6.59432736e-10  5.18176090e-01                                 
 7.81477935e-10  5.82947766e-01  7.81477935e-10  5.16872282e-01  7.81477935e-10  1.44625674e+00  7.81477935e-10  1.80000000e+00  7.81477935e-10 -1.06211223e-02  7.81477935e-10  5.16872282e-01                                 
 9.68146982e-10  5.80750672e-01  9.68146982e-10  5.14954445e-01  9.68146982e-10  1.59820041e+00  9.68146982e-10  1.80000000e+00  9.68146982e-10  1.04427945e-02  9.68146982e-10  5.14954445e-01                                 
 1.34148508e-09  5.76668876e-01  1.34148508e-09  5.11366930e-01  1.34148508e-09  1.78080309e+00  1.34148508e-09  1.80000000e+00  1.34148508e-09 -8.95545558e-03  1.34148508e-09  5.11366930e-01                                 
 1.66715096e-09  5.73414547e-01  1.66715096e-09  5.08482460e-01  1.66715096e-09  1.85111605e+00  1.66715096e-09  1.80000000e+00  1.66715096e-09  8.68707224e-03  1.66715096e-09  5.08482460e-01                                 
 2.03349254e-09  5.70042537e-01  2.03349254e-09  5.05471627e-01  2.03349254e-09  1.88195104e+00  2.03349254e-09  1.80000000e+00  2.03349254e-09 -7.90244795e-03  2.03349254e-09  5.05471627e-01                                 
 2.37124021e-09  5.67169998e-01  2.37124021e-09  5.02889194e-01  2.37124021e-09  1.89170575e+00  2.37124021e-09  1.80000000e+00  2.37124021e-09  7.44318420e-03  2.37124021e-09  5.02889194e-01                                 
 2.88786836e-09  5.63144208e-01  2.88786836e-09  4.99244114e-01  2.88786836e-09  1.89372054e+00  2.88786836e-09  1.80000000e+00  2.88786836e-09 -7.01793401e-03  2.88786836e-09  4.99244114e-01                                 
 3.51801198e-09  5.58742274e-01  3.51801198e-09  4.95224440e-01  3.51801198e-09  1.89120187e+00  3.51801198e-09  1.80000000e+00  3.51801198e-09  6.79495622e-03  3.51801198e-09  4.95224440e-01                                 
 4.60555859e-09  5.52157604e-01  4.60555859e-09  4.89150291e-01  4.60555859e-09  1.88457795e+00  4.60555859e-09  1.80000000e+00  4.60555859e-09 -6.59116594e-03  4.60555859e-09  4.89150291e-01                                 
 6.22861925e-09  5.44080120e-01  6.22861925e-09  4.81604030e-01  6.22861925e-09  1.87700883e+00  6.22861925e-09  1.80000000e+00  6.22861925e-09  6.54588419e-03  6.22861925e-09  4.81604030e-01                                 
 9.31316351e-09  5.32323187e-01  9.31316351e-09  4.70459817e-01  9.31316351e-09  1.86532505e+00  9.31316351e-09  1.80000000e+00  9.31316351e-09 -6.43301215e-03  9.31316351e-09  4.70459817e-01                                 
 1.10492726e-08  5.27176203e-01  1.10492726e-08  4.65518515e-01  1.10492726e-08  1.86069794e+00  1.10492726e-08  1.80000000e+00  1.10492726e-08  6.39395478e-03  1.10492726e-08  4.65518515e-01                                 
 1.22473593e-08  5.24027265e-01  1.22473593e-08  4.62480727e-01  1.22473593e-08  1.85735930e+00  1.22473593e-08  1.80000000e+00  1.22473593e-08 -6.21080506e-03  1.22473593e-08  4.62480727e-01                                 
 1.38622543e-08  5.20186263e-01  1.38622543e-08  4.58762220e-01  1.38622543e-08  1.85400512e+00  1.38622543e-08  1.80000000e+00  1.38622543e-08  6.16451724e-03  1.38622543e-08  4.58762220e-01                                 
 1.54522182e-08  5.16781514e-01  1.54522182e-08  4.55454533e-01  1.54522182e-08  1.85043590e+00  1.54522182e-08  1.80000000e+00  1.54522182e-08 -6.01948948e-03  1.54522182e-08  4.55454533e-01                                 
 1.74243096e-08  5.12976434e-01  1.74243096e-08  4.51746360e-01  1.74243096e-08  1.84711826e+00  1.74243096e-08  1.80000000e+00  1.74243096e-08  5.99218889e-03  1.74243096e-08  4.51746360e-01                                 
 1.96893481e-08  5.09070136e-01  1.96893481e-08  4.47927658e-01  1.96893481e-08  1.84308555e+00  1.96893481e-08  1.80000000e+00  1.96893481e-08 -5.87767429e-03  1.96893481e-08  4.47927658e-01                                 
 2.29747705e-08  5.04089450e-01  2.29747705e-08  4.43043040e-01  2.29747705e-08  1.83865007e+00  2.29747705e-08  1.80000000e+00  2.29747705e-08  5.88259436e-03  2.29747705e-08  4.43043040e-01                                 
 2.71225788e-08  4.98689581e-01  2.71225788e-08  4.37728977e-01  2.71225788e-08  1.83321651e+00  2.71225788e-08  1.80000000e+00  2.71225788e-08 -5.79719044e-03  2.71225788e-08  4.37728977e-01                                 
 3.42512195e-08  4.91024087e-01  3.42512195e-08  4.30155391e-01  3.42512195e-08  1.82627756e+00  3.42512195e-08  1.80000000e+00  3.42512195e-08  5.82823935e-03  3.42512195e-08  4.30155391e-01                                 
 4.55031085e-08  4.81682314e-01  4.55031085e-08  4.20871821e-01  4.55031085e-08  1.81737611e+00  4.55031085e-08  1.80000000e+00  4.55031085e-08 -5.76298187e-03  4.55031085e-08  4.20871821e-01                                 
 6.80068866e-08  4.68614738e-01  6.80068866e-08  4.07757994e-01  6.80068866e-08  1.80658838e+00  6.80068866e-08  1.80000000e+00  6.80068866e-08  5.81040877e-03  6.80068866e-08  4.07757994e-01                                 
 9.82878104e-08  4.57167551e-01  9.82878104e-08  3.96127005e-01  9.82878104e-08  1.79791205e+00  9.82878104e-08  1.80000000e+00  9.82878104e-08 -5.75087283e-03  9.82878104e-08  3.96127005e-01                                 
 1.26300386e-07  4.49290492e-01  1.26300386e-07  3.88146399e-01  1.26300386e-07  1.79220765e+00  1.26300386e-07  1.80000000e+00  1.26300386e-07  5.80107654e-03  1.26300386e-07  3.88146399e-01                                 
 1.57547124e-07  4.40977766e-01  1.57547124e-07  3.80021354e-01  1.57547124e-07  1.77205620e+00  1.57547124e-07  1.80000000e+00  1.57547124e-07 -5.74183189e-03  1.57547124e-07  3.80021354e-01                                 
 1.94103445e-07  4.24079383e-01  1.94103445e-07  3.65201092e-01  1.94103445e-07  1.72425574e+00  1.94103445e-07  1.80000000e+00  1.94103445e-07  5.79113353e-03  1.94103445e-07  3.65201092e-01                                 
 2.25885431e-07  4.11118897e-01  2.25885431e-07  3.53916137e-01  2.25885431e-07  1.66877923e+00  2.25885431e-07  1.80000000e+00  2.25885431e-07 -5.73397144e-03  2.25885431e-07  3.53916137e-01                                 
 2.53865352e-07  4.11377589e-01  2.53865352e-07  3.53336415e-01  2.53865352e-07  1.65127777e+00  2.53865352e-07  1.80000000e+00  2.53865352e-07  5.78454503e-03  2.53865352e-07  3.53336415e-01                                 
 2.83071859e-07  4.13182731e-01  2.83071859e-07  3.54008373e-01  2.83071859e-07  1.62718444e+00  2.83071859e-07  1.80000000e+00  2.83071859e-07 -5.72435147e-03  2.83071859e-07  3.54008373e-01                                 
 3.12391686e-07  4.09314352e-01  3.12391686e-07  3.50245510e-01  3.12391686e-07  1.59118746e+00  3.12391686e-07  1.80000000e+00  3.12391686e-07  5.77380764e-03  3.12391686e-07  3.50245510e-01                                 
 3.40562698e-07  4.07382863e-01  3.40562698e-07  3.48102714e-01  3.40562698e-07  1.55909854e+00  3.40562698e-07  1.80000000e+00  3.40562698e-07 -5.71432438e-03  3.40562698e-07  3.48102714e-01                                 
 3.70127468e-07  4.05235430e-01  3.70127468e-07  3.45807612e-01  3.70127468e-07  1.52689868e+00  3.70127468e-07  1.80000000e+00  3.70127468e-07  5.76414494e-03  3.70127468e-07  3.45807612e-01                                 
 4.19358170e-07  3.96235906e-01  4.19358170e-07  3.37784495e-01  4.19358170e-07  1.46506633e+00  4.19358170e-07  1.80000000e+00  4.19358170e-07 -5.70735774e-03  4.19358170e-07  3.37784495e-01                                 
 4.70968825e-07  3.84725577e-01  4.70968825e-07  3.27852368e-01  4.70968825e-07  1.39991784e+00  4.70968825e-07  1.80000000e+00  4.70968825e-07  5.75849001e-03  4.70968825e-07  3.27852368e-01                                 
 5.42942712e-07  3.68992135e-01  5.42942712e-07  3.14441024e-01  5.42942712e-07  1.30657090e+00  5.42942712e-07  1.80000000e+00  5.42942712e-07 -5.70277045e-03  5.42942712e-07  3.14441024e-01                                 
 6.47878670e-07  3.45385987e-01  6.47878670e-07  2.94665253e-01  6.47878670e-07  1.17418960e+00  6.47878670e-07  1.80000000e+00  6.47878670e-07  5.75530866e-03  6.47878670e-07  2.94665253e-01                                 
 7.74152195e-07  2.98754702e-01  7.74152195e-07  2.56726641e-01  7.74152195e-07  1.01429161e+00  7.74152195e-07  1.80000000e+00  7.74152195e-07 -5.70074797e-03  7.74152195e-07  2.56726641e-01                                 
 7.89946759e-07  2.94611083e-01  7.89946759e-07  2.53367521e-01  7.89946759e-07  9.99460380e-01  7.89946759e-07  1.80000000e+00  7.89946759e-07  1.36352504e-05  7.89946759e-07  2.53367521e-01                                 
 8.21535889e-07  2.86773230e-01  8.21535889e-07  2.47024568e-01  8.21535889e-07  9.69909069e-01  8.21535889e-07  1.80000000e+00  8.21535889e-07  1.78324698e-05  8.21535889e-07  2.47024568e-01                                 
 8.84714147e-07  3.40123101e-01  8.84714147e-07  2.89889851e-01  8.84714147e-07  9.74671201e-01  8.84714147e-07  1.80000000e+00  8.84714147e-07  1.80573836e-05  8.84714147e-07  2.89889851e-01                                 
 9.00508712e-07  4.02381327e-01  9.00508712e-07  3.39802665e-01  9.00508712e-07  1.01961073e+00  9.00508712e-07  1.80000000e+00  9.00508712e-07  2.43738138e-05  9.00508712e-07  3.39802665e-01                                 
 9.32097841e-07  5.72741473e-01  9.32097841e-07  4.98643385e-01  9.32097841e-07  1.15194148e+00  9.32097841e-07  1.80000000e+00  9.32097841e-07  3.45534210e-05  9.32097841e-07  4.98643385e-01                                 
 9.80166114e-07  6.72221584e-01  9.80166114e-07  5.98516913e-01  9.80166114e-07  1.19990325e+00  9.80166114e-07  1.80000000e+00  9.80166114e-07  9.62627366e-06  9.80166114e-07  5.98516913e-01                                 
 1.02474622e-06  7.11706240e-01  1.02474622e-06  6.30661741e-01  1.02474622e-06  1.18869286e+00  1.02474622e-06  1.80000000e+00  1.02474622e-06  2.70928181e-05  1.02474622e-06  6.30661741e-01                                 
 1.07085067e-06  7.13385590e-01  1.07085067e-06  6.32103426e-01  1.07085067e-06  1.14514319e+00  1.07085067e-06  1.80000000e+00  1.07085067e-06  5.21275804e-06  1.07085067e-06  6.32103426e-01                                 
 1.07614069e-06  7.12716205e-01  1.07614069e-06  6.31532606e-01  1.07614069e-06  1.13813763e+00  1.07614069e-06  1.80000000e+00  1.07614069e-06  1.54553813e-05  1.07614069e-06  6.31532606e-01                                 
 1.08672071e-06  7.12488658e-01  1.08672071e-06  6.31335365e-01  1.08672071e-06  1.12705711e+00  1.08672071e-06  1.80000000e+00  1.08672071e-06  1.64236439e-05  1.08672071e-06  6.31335365e-01                                 
 1.10788076e-06  7.12610108e-01  1.10788076e-06  6.31445275e-01  1.10788076e-06  1.10675985e+00  1.10788076e-06  1.80000000e+00  1.10788076e-06  1.57087974e-05  1.10788076e-06  6.31445275e-01                                 
 1.14138212e-06  6.92795700e-01  1.14138212e-06  6.15832006e-01  1.14138212e-06  1.05770065e+00  1.14138212e-06  1.80000000e+00  1.14138212e-06  1.32994308e-05  1.14138212e-06  6.15832006e-01                                 
 1.17553873e-06  6.58367158e-01  1.17553873e-06  5.86270206e-01  1.17553873e-06  9.98514232e-01  1.17553873e-06  1.80000000e+00  1.17553873e-06  1.34995079e-05  1.17553873e-06  5.86270206e-01                                 
 1.21738213e-06  6.51556278e-01  1.21738213e-06  5.80025386e-01  1.21738213e-06  9.62363299e-01  1.21738213e-06  1.80000000e+00  1.21738213e-06  1.80445364e-05  1.21738213e-06  5.80025386e-01                                 
 1.26368519e-06  6.78605803e-01  1.26368519e-06  6.03906411e-01  1.26368519e-06  9.55785047e-01  1.26368519e-06  1.80000000e+00  1.26368519e-06  1.76812679e-05  1.26368519e-06  6.03906411e-01                                 
 1.31835224e-06  6.96309913e-01  1.31835224e-06  6.18623546e-01  1.31835224e-06  9.35482371e-01  1.31835224e-06  1.80000000e+00  1.31835224e-06  1.65968034e-05  1.31835224e-06  6.18623546e-01                                 
 1.38562763e-06  6.77544111e-01  1.38562763e-06  6.03067680e-01  1.38562763e-06  8.76067419e-01  1.38562763e-06  1.80000000e+00  1.38562763e-06  1.45080583e-05  1.38562763e-06  6.03067680e-01                                 
 1.44842895e-06  6.70426386e-01  1.44842895e-06  5.96878572e-01  1.44842895e-06  8.31231495e-01  1.44842895e-06  1.80000000e+00  1.44842895e-06  1.75174076e-05  1.44842895e-06  5.96878572e-01                                 
 1.51375524e-06  6.86612460e-01  1.51375524e-06  6.10673849e-01  1.51375524e-06  8.07071868e-01  1.51375524e-06  1.80000000e+00  1.51375524e-06  1.64861377e-05  1.51375524e-06  6.10673849e-01                                 
 1.52610136e-06  6.87676659e-01  1.52610136e-06  6.11559603e-01  1.52610136e-06  8.00702605e-01  1.52610136e-06  1.80000000e+00  1.52610136e-06  1.65726372e-05  1.52610136e-06  6.11559603e-01                                 
 1.55079359e-06  6.86850771e-01  1.55079359e-06  6.10886027e-01  1.55079359e-06  7.85446815e-01  1.55079359e-06  1.80000000e+00  1.55079359e-06  1.59600244e-05  1.55079359e-06  6.10886027e-01                                 
 1.60017804e-06  6.77870919e-01  1.60017804e-06  6.03328466e-01  1.60017804e-06  7.48830462e-01  1.60017804e-06  1.80000000e+00  1.60017804e-06  1.58178930e-05  1.60017804e-06  6.03328466e-01                                 
 1.67480722e-06  6.78515789e-01  1.67480722e-06  6.03856226e-01  1.67480722e-06  7.07918689e-01  1.67480722e-06  1.80000000e+00  1.67480722e-06  1.70080954e-05  1.67480722e-06  6.03856226e-01                                 
 1.75214446e-06  6.85147627e-01  1.75214446e-06  6.09462435e-01  1.75214446e-06  6.74102454e-01  1.75214446e-06  1.80000000e+00  1.75214446e-06  1.62891858e-05  1.75214446e-06  6.09462435e-01                                 
 1.90681895e-06  6.77752755e-01  1.90681895e-06  6.03219457e-01  1.90681895e-06  6.14575484e-01  1.90681895e-06  1.80000000e+00  1.90681895e-06  1.65148268e-05  1.90681895e-06  6.03219457e-01                                 
 2.04651808e-06  6.82259887e-01  2.04651808e-06  6.07033057e-01  2.04651808e-06  5.98786360e-01  2.04651808e-06  1.80000000e+00  2.04651808e-06  1.68889482e-05  2.04651808e-06  6.07033057e-01                                 
 2.06878251e-06  6.82829880e-01  2.06878251e-06  6.07516935e-01  2.06878251e-06  5.97413484e-01  2.06878251e-06  1.80000000e+00  2.06878251e-06  1.67107478e-05  2.06878251e-06  6.07516935e-01                                 
 2.11331138e-06  6.81944337e-01  2.11331138e-06  6.06775893e-01  2.11331138e-06  5.93125392e-01  2.11331138e-06  1.80000000e+00  2.11331138e-06  1.64861908e-05  2.11331138e-06  6.06775893e-01                                 
 2.20236911e-06  6.79677165e-01  2.20236911e-06  6.04854095e-01  2.20236911e-06  5.99181026e-01  2.20236911e-06  1.80000000e+00  2.20236911e-06  1.68337085e-05  2.20236911e-06  6.04854095e-01                                 
 2.28636420e-06  6.81690654e-01  2.28636420e-06  6.06557122e-01  2.28636420e-06  6.08404460e-01  2.28636420e-06  1.80000000e+00  2.28636420e-06  1.67231850e-05  2.28636420e-06  6.06557122e-01                                 
 2.41261239e-06  6.81127563e-01  2.41261239e-06  6.06085262e-01  2.41261239e-06  6.05382897e-01  2.41261239e-06  1.80000000e+00  2.41261239e-06  1.66012117e-05  2.41261239e-06  6.06085262e-01                                 
 2.54731412e-06  6.80487374e-01  2.54731412e-06  6.05540132e-01  2.54731412e-06  6.06016982e-01  2.54731412e-06  1.80000000e+00  2.54731412e-06  1.67467095e-05  2.54731412e-06  6.05540132e-01                                 
 2.70331134e-06  6.81773136e-01  2.70331134e-06  6.06629028e-01  2.70331134e-06  6.06814133e-01  2.70331134e-06  1.80000000e+00  2.70331134e-06  1.66565396e-05  2.70331134e-06  6.06629028e-01                                 
 3.01530578e-06  6.80337584e-01  3.01530578e-06  6.05414644e-01  3.01530578e-06  6.05617648e-01  3.01530578e-06  1.80000000e+00  3.01530578e-06  1.66846002e-05  3.01530578e-06  6.05414644e-01                                 
 3.55288115e-06  6.81721677e-01  3.55288115e-06  6.06584993e-01  3.55288115e-06  6.06837207e-01  3.55288115e-06  1.80000000e+00  3.55288115e-06  1.66921832e-05  3.55288115e-06  6.06584993e-01                                 
 4.30555087e-06  6.80409911e-01  4.30555087e-06  6.05476287e-01  4.30555087e-06  6.05653883e-01  4.30555087e-06  1.80000000e+00  4.30555087e-06  1.66630290e-05  4.30555087e-06  6.05476287e-01                                 
 5.30555087e-06  6.81654926e-01  5.30555087e-06  6.06528327e-01  5.30555087e-06  6.06792605e-01  5.30555087e-06  1.80000000e+00  5.30555087e-06  1.67071429e-05  5.30555087e-06  6.06528327e-01                                 
 6.30555087e-06  6.80477907e-01  6.30555087e-06  6.05534080e-01  6.30555087e-06  6.05705329e-01  6.30555087e-06  1.80000000e+00  6.30555087e-06  1.66508898e-05  6.30555087e-06  6.05534080e-01                                 
