 time            v(vbep)         time            v(vben)         time            v(vout)         time            v(vphi1)        time            v(vphi2)        time            v(vref)         yes             currtemp       
 0.00000000e+00  5.63352454e-01  0.00000000e+00  4.98637182e-01  0.00000000e+00  2.69140219e-01  0.00000000e+00  0.00000000e+00  0.00000000e+00  1.79996964e+00  0.00000000e+00  4.98637182e-01  1.00000000e+00  8.20000000e+01 
 5.00000000e-12  5.63335082e-01  5.00000000e-12  4.98622747e-01  5.00000000e-12  2.69665108e-01  5.00000000e-12  1.80000000e-02  5.00000000e-12  1.80007785e+00  5.00000000e-12  4.98622747e-01                                 
 1.00000000e-11  5.63317931e-01  1.00000000e-11  4.98608607e-01  1.00000000e-11  2.70093725e-01  1.00000000e-11  3.60000000e-02  1.00000000e-11  1.80013719e+00  1.00000000e-11  4.98608607e-01                                 
 2.00000000e-11  5.63283740e-01  2.00000000e-11  4.98580402e-01  2.00000000e-11  2.70805157e-01  2.00000000e-11  7.20000000e-02  2.00000000e-11  1.80019575e+00  2.00000000e-11  4.98580402e-01                                 
 4.00000000e-11  5.63215559e-01  4.00000000e-11  4.98524130e-01  4.00000000e-11  2.71643906e-01  4.00000000e-11  1.44000000e-01  4.00000000e-11  1.80016268e+00  4.00000000e-11  4.98524130e-01                                 
 8.00000000e-11  5.63079587e-01  8.00000000e-11  4.98411866e-01  8.00000000e-11  2.72352314e-01  8.00000000e-11  2.88000000e-01  8.00000000e-11  1.80008072e+00  8.00000000e-11  4.98411866e-01                                 
 1.60000000e-10  5.62809259e-01  1.60000000e-10  4.98188443e-01  1.60000000e-10  2.72969118e-01  1.60000000e-10  5.76000000e-01  1.60000000e-10  1.80003910e+00  1.60000000e-10  4.98188443e-01                                 
 3.20000000e-10  5.62274825e-01  3.20000000e-10  4.97745906e-01  3.20000000e-10  2.76465699e-01  3.20000000e-10  1.15200000e+00  3.20000000e-10  1.80034019e+00  3.20000000e-10  4.97745906e-01                                 
 5.00000000e-10  5.61683253e-01  5.00000000e-10  4.97254748e-01  5.00000000e-10  5.14301089e-01  5.00000000e-10  1.80000000e+00  5.00000000e-10  1.91210071e-01  5.00000000e-10  4.97254748e-01                                 
 5.22669352e-10  5.61609548e-01  5.22669352e-10  4.97193448e-01  5.22669352e-10  5.71441662e-01  5.22669352e-10  1.80000000e+00  5.22669352e-10  4.77100367e-02  5.22669352e-10  4.97193448e-01                                 
 5.68008057e-10  5.61462455e-01  5.68008057e-10  4.97071066e-01  5.68008057e-10  6.77124502e-01  5.68008057e-10  1.80000000e+00  5.68008057e-10 -1.73127768e-02  5.68008057e-10  4.97071066e-01                                 
 6.58685467e-10  5.61170163e-01  6.58685467e-10  4.96827632e-01  6.58685467e-10  8.45761587e-01  6.58685467e-10  1.80000000e+00  6.58685467e-10  1.52064815e-02  6.58685467e-10  4.96827632e-01                                 
 7.76329948e-10  5.60794627e-01  7.76329948e-10  4.96514384e-01  7.76329948e-10  1.01450665e+00  7.76329948e-10  1.80000000e+00  7.76329948e-10 -1.08455369e-02  7.76329948e-10  4.96514384e-01                                 
 9.64795315e-10  5.60201395e-01  9.64795315e-10  4.96018452e-01  9.64795315e-10  1.23034862e+00  9.64795315e-10  1.80000000e+00  9.64795315e-10  1.11253364e-02  9.64795315e-10  4.96018452e-01                                 
 1.30046837e-09  5.59169263e-01  1.30046837e-09  4.95152458e-01  1.30046837e-09  1.50590980e+00  1.30046837e-09  1.80000000e+00  1.30046837e-09 -9.21687286e-03  1.30046837e-09  4.95152458e-01                                 
 1.87641504e-09  5.57466665e-01  1.87641504e-09  4.93715377e-01  1.87641504e-09  1.73302027e+00  1.87641504e-09  1.80000000e+00  1.87641504e-09  9.49825832e-03  1.87641504e-09  4.93715377e-01                                 
 2.16984063e-09  5.56630779e-01  2.16984063e-09  4.93005911e-01  2.16984063e-09  1.77050207e+00  2.16984063e-09  1.80000000e+00  2.16984063e-09 -8.51826241e-03  2.16984063e-09  4.93005911e-01                                 
 2.51081091e-09  5.55684203e-01  2.51081091e-09  4.92199488e-01  2.51081091e-09  1.79007837e+00  2.51081091e-09  1.80000000e+00  2.51081091e-09  8.12604471e-03  2.51081091e-09  4.92199488e-01                                 
 2.89164049e-09  5.54656791e-01  2.89164049e-09  4.91320642e-01  2.89164049e-09  1.79807277e+00  2.89164049e-09  1.80000000e+00  2.89164049e-09 -7.55222094e-03  2.89164049e-09  4.91320642e-01                                 
 3.55742069e-09  5.52930601e-01  3.55742069e-09  4.89836009e-01  3.55742069e-09  1.80149649e+00  3.55742069e-09  1.80000000e+00  3.55742069e-09  7.37097548e-03  3.55742069e-09  4.89836009e-01                                 
 4.30049533e-09  5.51100914e-01  4.30049533e-09  4.88251516e-01  4.30049533e-09  1.79998945e+00  4.30049533e-09  1.80000000e+00  4.30049533e-09 -7.09112065e-03  4.30049533e-09  4.88251516e-01                                 
 5.69388584e-09  5.47907611e-01  5.69388584e-09  4.85461268e-01  5.69388584e-09  1.79696941e+00  5.69388584e-09  1.80000000e+00  5.69388584e-09  7.03528682e-03  5.69388584e-09  4.85461268e-01                                 
 7.78090379e-09  5.43607852e-01  7.78090379e-09  4.81657347e-01  7.78090379e-09  1.79157688e+00  7.78090379e-09  1.80000000e+00  7.78090379e-09 -6.89833035e-03  7.78090379e-09  4.81657347e-01                                 
 9.23815933e-09  5.40895348e-01  9.23815933e-09  4.79230721e-01  9.23815933e-09  1.78863364e+00  9.23815933e-09  1.80000000e+00  9.23815933e-09  6.84558367e-03  9.23815933e-09  4.79230721e-01                                 
 1.08848782e-08  5.38063676e-01  1.08848782e-08  4.76677655e-01  1.08848782e-08  1.78477898e+00  1.08848782e-08  1.80000000e+00  1.08848782e-08 -6.70331405e-03  1.08848782e-08  4.76677655e-01                                 
 1.24692700e-08  5.35541577e-01  1.24692700e-08  4.74387480e-01  1.24692700e-08  1.78176598e+00  1.24692700e-08  1.80000000e+00  1.24692700e-08  6.65245690e-03  1.24692700e-08  4.74387480e-01                                 
 1.39856075e-08  5.33289926e-01  1.39856075e-08  4.72330575e-01  1.39856075e-08  1.77842801e+00  1.39856075e-08  1.80000000e+00  1.39856075e-08 -6.51109737e-03  1.39856075e-08  4.72330575e-01                                 
 1.55933757e-08  5.31055510e-01  1.55933757e-08  4.70278349e-01  1.55933757e-08  1.77552018e+00  1.55933757e-08  1.80000000e+00  1.55933757e-08  6.46064402e-03  1.55933757e-08  4.70278349e-01                                 
 1.74325667e-08  5.28671237e-01  1.74325667e-08  4.68076559e-01  1.74325667e-08  1.77168173e+00  1.74325667e-08  1.80000000e+00  1.74325667e-08 -6.34131927e-03  1.74325667e-08  4.68076559e-01                                 
 1.99722058e-08  5.25643291e-01  1.99722058e-08  4.65262755e-01  1.99722058e-08  1.76712054e+00  1.99722058e-08  1.80000000e+00  1.99722058e-08  6.32448036e-03  1.99722058e-08  4.65262755e-01                                 
 2.30841644e-08  5.22295096e-01  2.30841644e-08  4.62127895e-01  2.30841644e-08  1.76115195e+00  2.30841644e-08  1.80000000e+00  2.30841644e-08 -6.23908653e-03  2.30841644e-08  4.62127895e-01                                 
 2.78837360e-08  5.17767950e-01  2.78837360e-08  4.57849677e-01  2.78837360e-08  1.75305717e+00  2.78837360e-08  1.80000000e+00  2.78837360e-08  6.24939275e-03  2.78837360e-08  4.57849677e-01                                 
 3.44807104e-08  5.12505738e-01  3.44807104e-08  4.52821199e-01  3.44807104e-08  1.74202061e+00  3.44807104e-08  1.80000000e+00  3.44807104e-08 -6.18792864e-03  3.44807104e-08  4.52821199e-01                                 
 4.76746592e-08  5.04062041e-01  4.76746592e-08  4.44659944e-01  4.76746592e-08  1.72192349e+00  4.76746592e-08  1.80000000e+00  4.76746592e-08  6.21793120e-03  4.76746592e-08  4.44659944e-01                                 
 7.40625568e-08  4.91712677e-01  7.40625568e-08  4.32594743e-01  7.40625568e-08  1.68431704e+00  7.40625568e-08  1.80000000e+00  7.40625568e-08 -6.17143198e-03  7.40625568e-08  4.32594743e-01                                 
 1.14701638e-07  4.77590256e-01  1.14701638e-07  4.18901623e-01  1.14701638e-07  1.63081215e+00  1.14701638e-07  1.80000000e+00  1.14701638e-07  6.20970699e-03  1.14701638e-07  4.18901623e-01                                 
 1.57354634e-07  4.63143477e-01  1.57354634e-07  4.05565466e-01  1.57354634e-07  1.57367598e+00  1.57354634e-07  1.80000000e+00  1.57354634e-07 -6.16472952e-03  1.57354634e-07  4.05565466e-01                                 
 2.21217490e-07  4.43426392e-01  2.21217490e-07  3.87865111e-01  2.21217490e-07  1.48931642e+00  2.21217490e-07  1.80000000e+00  2.21217490e-07  6.20441819e-03  2.21217490e-07  3.87865111e-01                                 
 2.91505151e-07  4.23849730e-01  2.91505151e-07  3.70730090e-01  2.91505151e-07  1.39642458e+00  2.91505151e-07  1.80000000e+00  2.91505151e-07 -6.16050803e-03  2.91505151e-07  3.70730090e-01                                 
 4.14135860e-07  3.85981535e-01  4.14135860e-07  3.38879453e-01  4.14135860e-07  1.23088946e+00  4.14135860e-07  1.80000000e+00  4.14135860e-07  6.20127558e-03  4.14135860e-07  3.38879453e-01                                 
 4.37773634e-07  3.77753513e-01  4.37773634e-07  3.32132051e-01  4.37773634e-07  1.19799543e+00  4.37773634e-07  1.80000000e+00  4.37773634e-07  9.10978737e-06  4.37773634e-07  3.32132051e-01                                 
 4.85049181e-07  3.59524056e-01  4.85049181e-07  3.17266870e-01  4.85049181e-07  1.13155735e+00  4.85049181e-07  1.80000000e+00  4.85049181e-07  6.06725234e-06  4.85049181e-07  3.17266870e-01                                 
 5.79600275e-07  3.69550312e-01  5.79600275e-07  3.24946760e-01  5.79600275e-07  1.05060664e+00  5.79600275e-07  1.80000000e+00  5.79600275e-07  1.09969260e-05  5.79600275e-07  3.24946760e-01                                 
 7.68702463e-07  6.88047507e-01  7.68702463e-07  6.18002912e-01  7.68702463e-07  1.17105466e+00  7.68702463e-07  1.80000000e+00  7.68702463e-07  1.28921378e-05  7.68702463e-07  6.18002912e-01                                 
 7.92514407e-07  6.99896775e-01  7.92514407e-07  6.28467911e-01  7.92514407e-07  1.15828682e+00  7.92514407e-07  1.80000000e+00  7.92514407e-07  9.51821578e-06  7.92514407e-07  6.28467911e-01                                 
 8.40138295e-07  7.14768015e-01  8.40138295e-07  6.40993206e-01  8.40138295e-07  1.12379163e+00  8.40138295e-07  1.80000000e+00  8.40138295e-07  8.57727413e-06  8.40138295e-07  6.40993206e-01                                 
 9.35386070e-07  7.12841141e-01  9.35386070e-07  6.39424499e-01  9.35386070e-07  1.03313731e+00  9.35386070e-07  1.80000000e+00  9.35386070e-07  8.05980176e-06  9.35386070e-07  6.39424499e-01                                 
 1.02599845e-06  6.92534477e-01  1.02599845e-06  6.22105518e-01  1.02599845e-06  9.45915311e-01  1.02599845e-06  1.80000000e+00  1.02599845e-06  7.86382545e-06  1.02599845e-06  6.22105518e-01                                 
 1.11906807e-06  7.00320951e-01  1.11906807e-06  6.28839140e-01  1.11906807e-06  8.92383432e-01  1.11906807e-06  1.80000000e+00  1.11906807e-06  9.65518002e-06  1.11906807e-06  6.28839140e-01                                 
 1.22824421e-06  7.10368856e-01  1.22824421e-06  6.37370630e-01  1.22824421e-06  8.34541117e-01  1.22824421e-06  1.80000000e+00  1.22824421e-06  7.97114782e-06  1.22824421e-06  6.37370630e-01                                 
 1.35213651e-06  6.93705594e-01  1.35213651e-06  6.23122945e-01  1.35213651e-06  7.47367659e-01  1.35213651e-06  1.80000000e+00  1.35213651e-06  8.69516879e-06  1.35213651e-06  6.23122945e-01                                 
 1.47982155e-06  7.05909288e-01  1.47982155e-06  6.33607890e-01  1.47982155e-06  6.93503654e-01  1.47982155e-06  1.80000000e+00  1.47982155e-06  9.13262176e-06  1.47982155e-06  6.33607890e-01                                 
 1.60698115e-06  7.02928014e-01  1.60698115e-06  6.31106805e-01  1.60698115e-06  6.47326323e-01  1.60698115e-06  1.80000000e+00  1.60698115e-06  8.35124982e-06  1.60698115e-06  6.31106805e-01                                 
 1.76190179e-06  6.98958500e-01  1.76190179e-06  6.27672250e-01  1.76190179e-06  6.20235603e-01  1.76190179e-06  1.80000000e+00  1.76190179e-06  9.29759393e-06  1.76190179e-06  6.27672250e-01                                 
 1.78631821e-06  7.02366193e-01  1.78631821e-06  6.30604430e-01  1.78631821e-06  6.22220840e-01  1.78631821e-06  1.80000000e+00  1.78631821e-06  9.23173889e-06  1.78631821e-06  6.30604430e-01                                 
 1.83515105e-06  7.05079480e-01  1.83515105e-06  6.32920370e-01  1.83515105e-06  6.26368079e-01  1.83515105e-06  1.80000000e+00  1.83515105e-06  8.93490451e-06  1.83515105e-06  6.32920370e-01                                 
 1.93281673e-06  7.00805028e-01  1.93281673e-06  6.29278252e-01  1.93281673e-06  6.29454971e-01  1.93281673e-06  1.80000000e+00  1.93281673e-06  8.82172192e-06  1.93281673e-06  6.29278252e-01                                 
 2.06308897e-06  7.02307563e-01  2.06308897e-06  6.30556898e-01  2.06308897e-06  6.30988963e-01  2.06308897e-06  1.80000000e+00  2.06308897e-06  9.11665900e-06  2.06308897e-06  6.30556898e-01                                 
 2.19540941e-06  7.03480022e-01  2.19540941e-06  6.31564581e-01  2.19540941e-06  6.31608803e-01  2.19540941e-06  1.80000000e+00  2.19540941e-06  8.80938185e-06  2.19540941e-06  6.31564581e-01                                 
 2.43566085e-06  7.00841988e-01  2.43566085e-06  6.29304180e-01  2.43566085e-06  6.29580636e-01  2.43566085e-06  1.80000000e+00  2.43566085e-06  9.03190605e-06  2.43566085e-06  6.29304180e-01                                 
 2.78728033e-06  7.03851572e-01  2.78728033e-06  6.31878687e-01  2.78728033e-06  6.32021468e-01  2.78728033e-06  1.80000000e+00  2.78728033e-06  8.89380232e-06  2.78728033e-06  6.31878687e-01                                 
 3.29401211e-06  7.00778411e-01  3.29401211e-06  6.29251146e-01  3.29401211e-06  6.29478374e-01  3.29401211e-06  1.80000000e+00  3.29401211e-06  8.96853501e-06  3.29401211e-06  6.29251146e-01                                 
 3.97809907e-06  7.03796573e-01  3.97809907e-06  6.31830874e-01  3.97809907e-06  6.31998120e-01  3.97809907e-06  1.80000000e+00  3.97809907e-06  8.93925339e-06  3.97809907e-06  6.31830874e-01                                 
 4.94884743e-06  7.00866718e-01  4.94884743e-06  6.29328692e-01  4.94884743e-06  6.29543512e-01  4.94884743e-06  1.80000000e+00  4.94884743e-06  8.93629241e-06  4.94884743e-06  6.29328692e-01                                 
 5.94884743e-06  7.03704584e-01  5.94884743e-06  6.31752644e-01  5.94884743e-06  6.31926666e-01  5.94884743e-06  1.80000000e+00  5.94884743e-06  8.96466291e-06  5.94884743e-06  6.31752644e-01                                 
 6.94884743e-06  7.00984998e-01  6.94884743e-06  6.29430097e-01  6.94884743e-06  6.29641517e-01  6.94884743e-06  1.80000000e+00  6.94884743e-06  8.91217711e-06  6.94884743e-06  6.29430097e-01                                 
 7.94884743e-06  7.03573885e-01  7.94884743e-06  6.31640730e-01  7.94884743e-06  6.31815279e-01  7.94884743e-06  1.80000000e+00  7.94884743e-06  8.98769262e-06  7.94884743e-06  6.31640730e-01                                 
 8.94884743e-06  7.01138715e-01  8.94884743e-06  6.29562305e-01  8.94884743e-06  6.29775595e-01  8.94884743e-06  1.80000000e+00  8.94884743e-06  8.89039310e-06  8.94884743e-06  6.29562305e-01                                 
 9.94884743e-06  7.03413184e-01  9.94884743e-06  6.31503325e-01  9.94884743e-06  6.31673715e-01  9.94884743e-06  1.80000000e+00  9.94884743e-06  9.00809856e-06  9.94884743e-06  6.31503325e-01                                 
 1.00005000e-05  7.02796394e-01  1.00005000e-05  6.30980958e-01  1.00005000e-05  6.31281494e-01  1.00005000e-05  1.80000000e+00  1.00005000e-05  8.83073687e-06  1.00005000e-05  6.30980958e-01                                 
 1.00005500e-05  7.02794137e-01  1.00005500e-05  6.30979056e-01  1.00005500e-05  6.24482422e-01  1.00005500e-05  1.62000000e+00  1.00005500e-05 -1.24201238e-04  1.00005500e-05  6.30979056e-01                                 
 1.00006500e-05  7.02789710e-01  1.00006500e-05  6.30975274e-01  1.00006500e-05  6.12883062e-01  1.00006500e-05  1.26000000e+00  1.00006500e-05 -9.93974606e-05  1.00006500e-05  6.30975274e-01                                 
 1.00008500e-05  7.02780918e-01  1.00008500e-05  6.30967734e-01  1.00008500e-05  6.03732175e-01  1.00008500e-05  5.40000000e-01  1.00008500e-05  2.42268030e-02  1.00008500e-05  6.30967734e-01                                 
 1.00010000e-05  7.02774268e-01  1.00010000e-05  6.30962061e-01  1.00010000e-05  5.58298755e-01  1.00010000e-05  0.00000000e+00  1.00010000e-05  1.54723140e+00  1.00010000e-05  6.30962061e-01                                 
 1.00010248e-05  7.02773158e-01  1.00010248e-05  6.30961115e-01  1.00010248e-05  5.37674210e-01  1.00010248e-05  0.00000000e+00  1.00010248e-05  1.70148695e+00  1.00010248e-05  6.30961115e-01                                 
 1.00010745e-05  7.02770969e-01  1.00010745e-05  6.30959236e-01  1.00010745e-05  5.06570162e-01  1.00010745e-05  0.00000000e+00  1.00010745e-05  1.81881998e+00  1.00010745e-05  6.30959236e-01                                 
 1.00011739e-05  7.02766635e-01  1.00011739e-05  6.30955514e-01  1.00011739e-05  4.89777992e-01  1.00011739e-05  0.00000000e+00  1.00011739e-05  1.78965731e+00  1.00011739e-05  6.30955514e-01                                 
 1.00013161e-05  7.02760375e-01  1.00013161e-05  6.30950174e-01  1.00013161e-05  4.94791535e-01  1.00013161e-05  0.00000000e+00  1.00013161e-05  1.80693915e+00  1.00013161e-05  6.30950174e-01                                 
 1.00014703e-05  7.02753548e-01  1.00014703e-05  6.30944347e-01  1.00014703e-05  4.94588292e-01  1.00014703e-05  0.00000000e+00  1.00014703e-05  1.79540324e+00  1.00014703e-05  6.30944347e-01                                 
 1.00017488e-05  7.02741176e-01  1.00017488e-05  6.30933786e-01  1.00017488e-05  4.95747625e-01  1.00017488e-05  0.00000000e+00  1.00017488e-05  1.80372442e+00  1.00017488e-05  6.30933786e-01                                 
 1.00023058e-05  7.02716412e-01  1.00023058e-05  6.30912647e-01  1.00023058e-05  4.95493698e-01  1.00023058e-05  0.00000000e+00  1.00023058e-05  1.79665221e+00  1.00023058e-05  6.30912647e-01                                 
 1.00029877e-05  7.02686208e-01  1.00029877e-05  6.30886861e-01  1.00029877e-05  4.95843066e-01  1.00029877e-05  0.00000000e+00  1.00029877e-05  1.80305017e+00  1.00029877e-05  6.30886861e-01                                 
 1.00043515e-05  7.02626312e-01  1.00043515e-05  6.30835722e-01  1.00043515e-05  4.95746119e-01  1.00043515e-05  0.00000000e+00  1.00043515e-05  1.79707265e+00  1.00043515e-05  6.30835722e-01                                 
 1.00070791e-05  7.02508486e-01  1.00070791e-05  6.30735097e-01  1.00070791e-05  4.96742655e-01  1.00070791e-05  0.00000000e+00  1.00070791e-05  1.80285391e+00  1.00070791e-05  6.30735097e-01                                 
 1.00125343e-05  7.02284908e-01  1.00125343e-05  6.30543990e-01  1.00125343e-05  4.98520040e-01  1.00125343e-05  0.00000000e+00  1.00125343e-05  1.79716942e+00  1.00125343e-05  6.30543990e-01                                 
 1.00234448e-05  7.01925170e-01  1.00234448e-05  6.30235868e-01  1.00234448e-05  5.08288050e-01  1.00234448e-05  0.00000000e+00  1.00234448e-05  1.80280902e+00  1.00234448e-05  6.30235868e-01                                 
 1.00452657e-05  7.01655349e-01  1.00452657e-05  6.30003550e-01  1.00452657e-05  5.54339967e-01  1.00452657e-05  0.00000000e+00  1.00452657e-05  1.79719872e+00  1.00452657e-05  6.30003550e-01                                 
