 time            v(vbep)         time            v(vben)         time            v(vout)         time            v(vphi1)        time            v(vphi2)        time            v(vref)         time            v(voutc)        time            v(voutcc)       yes             currtemp       
 0.00000000e+00  8.03321927e-01  0.00000000e+00  7.49217472e-01  0.00000000e+00  1.66327908e+00  0.00000000e+00  0.00000000e+00  0.00000000e+00  1.80000000e+00  0.00000000e+00  7.52359493e-01  0.00000000e+00  1.66327907e+00  0.00000000e+00  1.66900218e+00  1.00000000e+00  7.00000000e+00 
 1.00000000e-11  8.03345740e-01  1.00000000e-11  7.49287900e-01  1.00000000e-11  1.66408158e+00  1.00000000e-11  1.80000000e-02  1.00000000e-11  1.80024732e+00  1.00000000e-11  7.52883543e-01  1.00000000e-11  1.66374375e+00  1.00000000e-11  1.66901633e+00                                 
 2.00000000e-11  8.03352286e-01  2.00000000e-11  7.49332208e-01  2.00000000e-11  1.66459938e+00  2.00000000e-11  3.60000000e-02  2.00000000e-11  1.80034809e+00  2.00000000e-11  7.53275935e-01  2.00000000e-11  1.66410159e+00  2.00000000e-11  1.66902230e+00                                 
 4.00000000e-11  8.03352099e-01  4.00000000e-11  7.49390350e-01  4.00000000e-11  1.66525657e+00  4.00000000e-11  7.20000000e-02  4.00000000e-11  1.80039069e+00  4.00000000e-11  7.53852231e-01  4.00000000e-11  1.66464392e+00  4.00000000e-11  1.66902540e+00                                 
 8.00000000e-11  8.03340250e-01  8.00000000e-11  7.49425924e-01  8.00000000e-11  1.66548292e+00  8.00000000e-11  1.44000000e-01  8.00000000e-11  1.80019210e+00  8.00000000e-11  7.54301244e-01  8.00000000e-11  1.66511740e+00  8.00000000e-11  1.66901509e+00                                 
 1.60000000e-10  8.03336967e-01  1.60000000e-10  7.49430771e-01  1.60000000e-10  1.66518833e+00  1.60000000e-10  2.88000000e-01  1.60000000e-10  1.80000652e+00  1.60000000e-10  7.54355848e-01  1.60000000e-10  1.66522769e+00  1.60000000e-10  1.66900413e+00                                 
 3.20000000e-10  8.03333965e-01  3.20000000e-10  7.49432525e-01  3.20000000e-10  1.66486083e+00  3.20000000e-10  5.76000000e-01  3.20000000e-10  1.80000739e+00  3.20000000e-10  7.54278210e-01  3.20000000e-10  1.66506771e+00  3.20000000e-10  1.66900149e+00                                 
 6.40000000e-10  8.03257947e-01  6.40000000e-10  7.49159169e-01  6.40000000e-10  1.66059093e+00  6.40000000e-10  1.15200000e+00  6.40000000e-10  1.81311017e+00  6.40000000e-10  7.53160751e-01  6.40000000e-10  1.67010871e+00  6.40000000e-10  1.66903087e+00                                 
 9.98429840e-10  8.03792991e-01  9.98429840e-10  7.49259513e-01  9.98429840e-10  1.63199182e+00  9.98429840e-10  1.79717371e+00  9.98429840e-10  8.15834553e-02  9.98429840e-10  7.57808178e-01  9.98429840e-10  1.66316471e+00  9.98429840e-10  1.66894281e+00                                 
 1.00000000e-09  8.03798124e-01  1.00000000e-09  7.49264127e-01  1.00000000e-09  1.63186003e+00  1.00000000e-09  1.80000000e+00  1.00000000e-09  6.93437940e-02  1.00000000e-09  7.57914333e-01  1.00000000e-09  1.66308363e+00  1.00000000e-09  1.66894329e+00                                 
 1.00314032e-09  8.03787022e-01  1.00314032e-09  7.49249662e-01  1.00314032e-09  1.63159872e+00  1.00314032e-09  1.80000000e+00  1.00314032e-09  5.21553847e-02  1.00314032e-09  7.58079913e-01  1.00314032e-09  1.66299025e+00  1.00314032e-09  1.66894641e+00                                 
 1.00942096e-09  8.03769337e-01  1.00942096e-09  7.49248092e-01  1.00942096e-09  1.63139515e+00  1.00942096e-09  1.80000000e+00  1.00942096e-09  2.65759490e-02  1.00942096e-09  7.58602982e-01  1.00942096e-09  1.66309843e+00  1.00942096e-09  1.66896375e+00                                 
 1.02198224e-09  8.03753878e-01  1.02198224e-09  7.49307490e-01  1.02198224e-09  1.63186218e+00  1.02198224e-09  1.80000000e+00  1.02198224e-09  6.36606852e-03  1.02198224e-09  7.60061513e-01  1.02198224e-09  1.66411491e+00  1.02198224e-09  1.66901210e+00                                 
 1.04710481e-09  8.03775796e-01  1.04710481e-09  7.49392087e-01  1.04710481e-09  1.63268692e+00  1.04710481e-09  1.80000000e+00  1.04710481e-09  6.15767344e-04  1.04710481e-09  7.62027351e-01  1.04710481e-09  1.66579186e+00  1.04710481e-09  1.66904203e+00                                 
 1.09734993e-09  8.03857066e-01  1.09734993e-09  7.49374693e-01  1.09734993e-09  1.63233766e+00  1.09734993e-09  1.80000000e+00  1.09734993e-09  9.99748421e-04  1.09734993e-09  7.63048671e-01  1.09734993e-09  1.66671509e+00  1.09734993e-09  1.66901140e+00                                 
 1.19784019e-09  8.03983760e-01  1.19784019e-09  7.49278263e-01  1.19784019e-09  1.63015024e+00  1.19784019e-09  1.80000000e+00  1.19784019e-09  2.56509028e-04  1.19784019e-09  7.63533182e-01  1.19784019e-09  1.66711299e+00  1.19784019e-09  1.66900940e+00                                 
 1.39882069e-09  8.04104085e-01  1.39882069e-09  7.49244366e-01  1.39882069e-09  1.62672140e+00  1.39882069e-09  1.80000000e+00  1.39882069e-09  3.36180502e-04  1.39882069e-09  7.63923361e-01  1.39882069e-09  1.66744253e+00  1.39882069e-09  1.66901453e+00                                 
 1.69107016e-09  8.04006770e-01  1.69107016e-09  7.49222853e-01  1.69107016e-09  1.62603678e+00  1.69107016e-09  1.80000000e+00  1.69107016e-09 -1.90969309e-04  1.69107016e-09  7.63066649e-01  1.69107016e-09  1.66670875e+00  1.69107016e-09  1.66901516e+00                                 
 1.97178638e-09  8.03818450e-01  1.97178638e-09  7.49215943e-01  1.97178638e-09  1.62753602e+00  1.97178638e-09  1.80000000e+00  1.97178638e-09  1.11832426e-04  1.97178638e-09  7.62260376e-01  1.97178638e-09  1.66602956e+00  1.97178638e-09  1.66903101e+00                                 
 2.29758475e-09  8.03619260e-01  2.29758475e-09  7.49203425e-01  2.29758475e-09  1.62913207e+00  2.29758475e-09  1.80000000e+00  2.29758475e-09 -1.82814737e-04  2.29758475e-09  7.61264260e-01  2.29758475e-09  1.66517943e+00  2.29758475e-09  1.66904323e+00                                 
 2.77521412e-09  8.03417678e-01  2.77521412e-09  7.49196723e-01  2.77521412e-09  1.63124196e+00  2.77521412e-09  1.80000000e+00  2.77521412e-09  8.82023541e-05  2.77521412e-09  7.59978655e-01  2.77521412e-09  1.66409174e+00  2.77521412e-09  1.66907179e+00                                 
 3.73047287e-09  8.03237606e-01  3.73047287e-09  7.49189104e-01  3.73047287e-09  1.63397370e+00  3.73047287e-09  1.80000000e+00  3.73047287e-09 -1.66623743e-04  3.73047287e-09  7.57665613e-01  3.73047287e-09  1.66212277e+00  3.73047287e-09  1.66910835e+00                                 
 5.64099037e-09  8.03207031e-01  5.64099037e-09  7.49198416e-01  5.64099037e-09  1.63589278e+00  5.64099037e-09  1.80000000e+00  5.64099037e-09  8.85206089e-05  5.64099037e-09  7.54527026e-01  5.64099037e-09  1.65946099e+00  5.64099037e-09  1.66912110e+00                                 
 7.66380044e-09  8.03246269e-01  7.66380044e-09  7.49207699e-01  7.66380044e-09  1.63480590e+00  7.66380044e-09  1.80000000e+00  7.66380044e-09 -1.51673491e-04  7.66380044e-09  7.52715155e-01  7.66380044e-09  1.65791866e+00  7.66380044e-09  1.66902354e+00                                 
 9.38826929e-09  8.03242326e-01  9.38826929e-09  7.49214283e-01  9.38826929e-09  1.63382319e+00  9.38826929e-09  1.80000000e+00  9.38826929e-09  1.01714371e-04  9.38826929e-09  7.51988029e-01  9.38826929e-09  1.65730431e+00  9.38826929e-09  1.66888271e+00                                 
 1.13672871e-08  8.03237018e-01  1.13672871e-08  7.49215181e-01  1.13672871e-08  1.63298509e+00  1.13672871e-08  1.80000000e+00  1.13672871e-08 -1.28649185e-04  1.13672871e-08  7.51536792e-01  1.13672871e-08  1.65691427e+00  1.13672871e-08  1.66867523e+00                                 
 1.38087924e-08  8.03256328e-01  1.38087924e-08  7.49217680e-01  1.38087924e-08  1.63096763e+00  1.38087924e-08  1.80000000e+00  1.38087924e-08  1.10931630e-04  1.38087924e-08  7.51375364e-01  1.38087924e-08  1.65677392e+00  1.38087924e-08  1.66840255e+00                                 
 1.70698029e-08  8.03288672e-01  1.70698029e-08  7.49216438e-01  1.70698029e-08  1.62585217e+00  1.70698029e-08  1.80000000e+00  1.70698029e-08 -1.19207677e-04  1.70698029e-08  7.51334868e-01  1.70698029e-08  1.65672305e+00  1.70698029e-08  1.66802894e+00                                 
 2.12307746e-08  8.03313414e-01  2.12307746e-08  7.49218264e-01  2.12307746e-08  1.61702240e+00  2.12307746e-08  1.80000000e+00  2.12307746e-08  1.12294313e-04  2.12307746e-08  7.51467401e-01  2.12307746e-08  1.65682123e+00  2.12307746e-08  1.66758587e+00                                 
 2.71842604e-08  8.03325873e-01  2.71842604e-08  7.49216940e-01  2.71842604e-08  1.60247716e+00  2.71842604e-08  1.80000000e+00  2.71842604e-08 -1.16875565e-04  2.71842604e-08  7.51616566e-01  2.71842604e-08  1.65692038e+00  2.71842604e-08  1.66701387e+00                                 
 3.62759685e-08  8.03326664e-01  3.62759685e-08  7.49218442e-01  3.62759685e-08  1.57917783e+00  3.62759685e-08  1.80000000e+00  3.62759685e-08  1.11663062e-04  3.62759685e-08  7.51857699e-01  3.62759685e-08  1.65710015e+00  3.62759685e-08  1.66629075e+00                                 
 5.03137166e-08  8.03324913e-01  5.03137166e-08  7.49216788e-01  5.03137166e-08  1.54218357e+00  5.03137166e-08  1.80000000e+00  5.03137166e-08 -1.16358365e-04  5.03137166e-08  7.52048289e-01  5.03137166e-08  1.65722864e+00  5.03137166e-08  1.66543419e+00                                 
 7.83892128e-08  8.03322910e-01  7.83892128e-08  7.49218247e-01  7.83892128e-08  1.46728546e+00  7.83892128e-08  1.80000000e+00  7.83892128e-08  1.11201624e-04  7.83892128e-08  7.52281390e-01  7.83892128e-08  1.65739901e+00  7.83892128e-08  1.66436628e+00                                 
 1.34540205e-07  8.03322115e-01  1.34540205e-07  7.49216706e-01  1.34540205e-07  1.31732177e+00  1.34540205e-07  1.80000000e+00  1.34540205e-07 -1.16290090e-04  1.34540205e-07  7.52349156e-01  1.34540205e-07  1.65743143e+00  1.34540205e-07  1.66347101e+00                                 
 2.17747074e-07  8.03321817e-01  2.17747074e-07  7.49218238e-01  2.17747074e-07  1.09857350e+00  2.17747074e-07  1.80000000e+00  2.17747074e-07  1.11274092e-04  2.17747074e-07  7.52371451e-01  2.17747074e-07  1.65744597e+00  2.17747074e-07  1.66319524e+00                                 
 3.37729324e-07  8.03322039e-01  3.37729324e-07  7.49216704e-01  3.37729324e-07  8.29019870e-01  3.37729324e-07  1.80000000e+00  3.37729324e-07 -1.14513865e-04  3.37729324e-07  7.52345947e-01  3.37729324e-07  1.65741467e+00  3.37729324e-07  1.66315992e+00                                 
 4.43616794e-07  8.03322055e-01  4.43616794e-07  7.49218259e-01  4.43616794e-07  7.45342528e-01  4.43616794e-07  1.80000000e+00  4.43616794e-07  1.13788266e-04  4.43616794e-07  7.52374157e-01  4.43616794e-07  1.65743810e+00  4.43616794e-07  1.66316291e+00                                 
 5.43260522e-07  8.03321426e-01  5.43260522e-07  7.49216667e-01  5.43260522e-07  7.58917836e-01  5.43260522e-07  1.80000000e+00  5.43260522e-07 -1.13400838e-04  5.43260522e-07  7.52345911e-01  5.43260522e-07  1.65740643e+00  5.43260522e-07  1.66315590e+00                                 
 5.89855986e-07  8.03322585e-01  5.89855986e-07  7.49218275e-01  5.89855986e-07  7.55865833e-01  5.89855986e-07  1.80000000e+00  5.89855986e-07  1.13474416e-04  5.89855986e-07  7.52372158e-01  5.89855986e-07  1.65743049e+00  5.89855986e-07  1.66315636e+00                                 
 6.49323884e-07  8.03321361e-01  6.49323884e-07  7.49216679e-01  6.49323884e-07  7.55424126e-01  6.49323884e-07  1.80000000e+00  6.49323884e-07 -1.13457435e-04  6.49323884e-07  7.52346799e-01  6.49323884e-07  1.65740292e+00  6.49323884e-07  1.66315109e+00                                 
 7.31864327e-07  8.03322434e-01  7.31864327e-07  7.49218257e-01  7.31864327e-07  7.55672585e-01  7.31864327e-07  1.80000000e+00  7.31864327e-07  1.13384982e-04  7.31864327e-07  7.52372264e-01  7.31864327e-07  1.65742489e+00  7.31864327e-07  1.66315078e+00                                 
 8.65510396e-07  8.03321452e-01  8.65510396e-07  7.49216689e-01  8.65510396e-07  7.55441823e-01  8.65510396e-07  1.80000000e+00  8.65510396e-07 -1.13480934e-04  8.65510396e-07  7.52346691e-01  8.65510396e-07  1.65739416e+00  8.65510396e-07  1.66314245e+00                                 
 1.13280253e-06  8.03322388e-01  1.13280253e-06  7.49218254e-01  1.13280253e-06  7.55648480e-01  1.13280253e-06  1.80000000e+00  1.13280253e-06  1.13438409e-04  1.13280253e-06  7.52372325e-01  1.13280253e-06  1.65740884e+00  1.13280253e-06  1.66313469e+00                                 
 1.66738681e-06  8.03321473e-01  1.66738681e-06  7.49216691e-01  1.66738681e-06  7.55448794e-01  1.66738681e-06  1.80000000e+00  1.66738681e-06 -1.13572995e-04  1.66738681e-06  7.52346671e-01  1.66738681e-06  1.65736193e+00  1.66738681e-06  1.66311031e+00                                 
 2.73655536e-06  8.03322378e-01  2.73655536e-06  7.49218253e-01  2.73655536e-06  7.55650508e-01  2.73655536e-06  1.80000000e+00  2.73655536e-06  1.13429360e-04  2.73655536e-06  7.52372335e-01  2.73655536e-06  1.65734445e+00  2.73655536e-06  1.66307041e+00                                 
 3.93655536e-06  8.03321479e-01  3.93655536e-06  7.49216691e-01  3.93655536e-06  7.55453888e-01  3.93655536e-06  1.80000000e+00  3.93655536e-06 -1.13337256e-04  3.93655536e-06  7.52346660e-01  3.93655536e-06  1.65727074e+00  3.93655536e-06  1.66301932e+00                                 
 5.13655536e-06  8.03322373e-01  5.13655536e-06  7.49218253e-01  5.13655536e-06  7.55654202e-01  5.13655536e-06  1.80000000e+00  5.13655536e-06  1.13365638e-04  5.13655536e-06  7.52372336e-01  5.13655536e-06  1.65724803e+00  5.13655536e-06  1.66297419e+00                                 
 6.00100000e-06  8.03321486e-01  6.00100000e-06  7.49216692e-01  6.00100000e-06  7.55456053e-01  6.00100000e-06  1.80000000e+00  6.00100000e-06 -1.13251529e-04  6.00100000e-06  7.52346652e-01  6.00100000e-06  1.65718795e+00  6.00100000e-06  1.66293669e+00                                 
 6.00110000e-06  8.03284956e-01  6.00110000e-06  7.48980710e-01  6.00110000e-06  7.53510683e-01  6.00110000e-06  1.62000000e+00  6.00110000e-06 -1.07964645e-04  6.00110000e-06  7.50609784e-01  6.00110000e-06  1.65571415e+00  6.00110000e-06  1.66292509e+00                                 
 6.00130000e-06  8.03316264e-01  6.00130000e-06  7.49017414e-01  6.00130000e-06  7.54076292e-01  6.00130000e-06  1.26000000e+00  6.00130000e-06  4.44864781e-05  6.00130000e-06  7.50769463e-01  6.00130000e-06  1.65585259e+00  6.00130000e-06  1.66294546e+00                                 
 6.00170000e-06  8.03356224e-01  6.00170000e-06  7.49023453e-01  6.00170000e-06  7.62621271e-01  6.00170000e-06  5.40000000e-01  6.00170000e-06  1.01266949e+00  6.00170000e-06  7.49287617e-01  6.00170000e-06  1.62873991e+00  6.00170000e-06  1.66280632e+00                                 
 6.00200000e-06  8.03311577e-01  6.00200000e-06  7.46730444e-01  6.00200000e-06  7.97645034e-01  6.00200000e-06  0.00000000e+00  6.00200000e-06  1.78688840e+00  6.00200000e-06  7.23583857e-01  6.00200000e-06  1.37136609e+00  6.00200000e-06  1.66216756e+00                                 
 6.00204290e-06  8.03321591e-01  6.00204290e-06  7.46615630e-01  6.00204290e-06  7.96240883e-01  6.00204290e-06  0.00000000e+00  6.00204290e-06  1.79419126e+00  6.00204290e-06  7.22384616e-01  6.00204290e-06  1.31795224e+00  6.00204290e-06  1.66253166e+00                                 
 6.00212871e-06  8.03322578e-01  6.00212871e-06  7.46601230e-01  6.00212871e-06  7.90735509e-01  6.00212871e-06  0.00000000e+00  6.00212871e-06  1.79932566e+00  6.00212871e-06  7.22695751e-01  6.00212871e-06  1.22411292e+00  6.00212871e-06  1.66299586e+00                                 
 6.00230033e-06  8.03320093e-01  6.00230033e-06  7.46977794e-01  6.00230033e-06  7.82419251e-01  6.00230033e-06  0.00000000e+00  6.00230033e-06  1.79873550e+00  6.00230033e-06  7.27604773e-01  6.00230033e-06  1.08814893e+00  6.00230033e-06  1.66304780e+00                                 
 6.00251005e-06  8.03321567e-01  6.00251005e-06  7.47386591e-01  6.00251005e-06  7.77599029e-01  6.00251005e-06  0.00000000e+00  6.00251005e-06  1.80000186e+00  6.00251005e-06  7.31819188e-01  6.00251005e-06  9.69168562e-01  6.00251005e-06  1.66318841e+00                                 
 6.00276663e-06  8.03319874e-01  6.00276663e-06  7.47977316e-01  6.00276663e-06  7.71477537e-01  6.00276663e-06  0.00000000e+00  6.00276663e-06  1.79923596e+00  6.00276663e-06  7.37328151e-01  6.00276663e-06  8.63424697e-01  6.00276663e-06  1.66322197e+00                                 
 6.00310838e-06  8.03321718e-01  6.00310838e-06  7.48839844e-01  6.00310838e-06  7.62990021e-01  6.00310838e-06  0.00000000e+00  6.00310838e-06  1.80006240e+00  6.00310838e-06  7.45219576e-01  6.00310838e-06  7.87288895e-01  6.00310838e-06  1.66324798e+00                                 
 6.00345268e-06  8.03320384e-01  6.00345268e-06  7.49438903e-01  6.00345268e-06  7.57591590e-01  6.00345268e-06  0.00000000e+00  6.00345268e-06  1.79985874e+00  6.00345268e-06  7.50319662e-01  6.00345268e-06  7.63636318e-01  6.00345268e-06  1.66304948e+00                                 
 6.00379401e-06  8.03322083e-01  6.00379401e-06  7.49673824e-01  6.00379401e-06  7.56713198e-01  6.00379401e-06  0.00000000e+00  6.00379401e-06  1.80015081e+00  6.00379401e-06  7.51991404e-01  6.00379401e-06  7.57936268e-01  6.00379401e-06  1.66270100e+00                                 
 6.00420965e-06  8.03320885e-01  6.00420965e-06  7.49762701e-01  6.00420965e-06  7.56156250e-01  6.00420965e-06  0.00000000e+00  6.00420965e-06  1.79988819e+00  6.00420965e-06  7.52831473e-01  6.00420965e-06  7.56616403e-01  6.00420965e-06  1.66204805e+00                                 
 6.00477909e-06  8.03322396e-01  6.00477909e-06  7.49730058e-01  6.00477909e-06  7.57079608e-01  6.00477909e-06  0.00000000e+00  6.00477909e-06  1.80011974e+00  6.00477909e-06  7.53038120e-01  6.00477909e-06  7.56694236e-01  6.00477909e-06  1.66101069e+00                                 
 6.00586412e-06  8.03321227e-01  6.00586412e-06  7.49621955e-01  6.00586412e-06  7.58202294e-01  6.00586412e-06  0.00000000e+00  6.00586412e-06  1.79989924e+00  6.00586412e-06  7.53306850e-01  6.00586412e-06  7.58195763e-01  6.00586412e-06  1.65873993e+00                                 
 6.00781236e-06  8.03322551e-01  6.00781236e-06  7.49462780e-01  6.00781236e-06  7.61554852e-01  6.00781236e-06  0.00000000e+00  6.00781236e-06  1.80011289e+00  6.00781236e-06  7.53333820e-01  6.00781236e-06  7.61064198e-01  6.00781236e-06  1.65443732e+00                                 
 6.01170885e-06  8.03321284e-01  6.01170885e-06  7.49308793e-01  6.01170885e-06  7.67649240e-01  6.01170885e-06  0.00000000e+00  6.01170885e-06  1.79990230e+00  6.01170885e-06  7.53363885e-01  6.01170885e-06  7.67565945e-01  6.01170885e-06  1.64569555e+00                                 
 6.01950183e-06  8.03322562e-01  6.01950183e-06  7.49198728e-01  6.01950183e-06  7.80996237e-01  6.01950183e-06  0.00000000e+00  6.01950183e-06  1.80011101e+00  6.01950183e-06  7.53051256e-01  6.01950183e-06  7.80427707e-01  6.01950183e-06  1.62849626e+00                                 
 6.03508778e-06  8.03321292e-01  6.03508778e-06  7.49212272e-01  6.03508778e-06  8.05527004e-01  6.03508778e-06  0.00000000e+00  6.03508778e-06  1.79990255e+00  6.03508778e-06  7.52791786e-01  6.03508778e-06  8.05445228e-01  6.03508778e-06  1.59440507e+00                                 
 6.06625968e-06  8.03322560e-01  6.06625968e-06  7.49213406e-01  6.06625968e-06  8.50992313e-01  6.06625968e-06  0.00000000e+00  6.06625968e-06  1.80010927e+00  6.06625968e-06  7.52413393e-01  6.06625968e-06  8.50088408e-01  6.06625968e-06  1.52784522e+00                                 
