 time            v(vbep)         time            v(vben)         time            v(vout)         time            v(vphi1)        time            v(vphi2)        time            v(vref)         yes             currtemp       
 0.00000000e+00  5.89181787e-01  0.00000000e+00  5.26584189e-01  0.00000000e+00  2.31948478e-01  0.00000000e+00  0.00000000e+00  0.00000000e+00  1.79996761e+00  0.00000000e+00  5.26584189e-01  1.00000000e+00  7.00000000e+01 
 5.00000000e-12  5.89163680e-01  5.00000000e-12  5.26569138e-01  5.00000000e-12  2.32460292e-01  5.00000000e-12  1.80000000e-02  5.00000000e-12  1.80007399e+00  5.00000000e-12  5.26569138e-01                                 
 1.00000000e-11  5.89145822e-01  1.00000000e-11  5.26554402e-01  1.00000000e-11  2.32876787e-01  1.00000000e-11  3.60000000e-02  1.00000000e-11  1.80013246e+00  1.00000000e-11  5.26554402e-01                                 
 2.00000000e-11  5.89110233e-01  2.00000000e-11  5.26525009e-01  2.00000000e-11  2.33566611e-01  2.00000000e-11  7.20000000e-02  2.00000000e-11  1.80019060e+00  2.00000000e-11  5.26525009e-01                                 
 4.00000000e-11  5.89039284e-01  4.00000000e-11  5.26466374e-01  4.00000000e-11  2.34376891e-01  4.00000000e-11  1.44000000e-01  4.00000000e-11  1.80016013e+00  4.00000000e-11  5.26466374e-01                                 
 8.00000000e-11  5.88897812e-01  8.00000000e-11  5.26349410e-01  8.00000000e-11  2.35073036e-01  8.00000000e-11  2.88000000e-01  8.00000000e-11  1.80008234e+00  8.00000000e-11  5.26349410e-01                                 
 1.60000000e-10  5.88616649e-01  1.60000000e-10  5.26116703e-01  1.60000000e-10  2.35736757e-01  1.60000000e-10  5.76000000e-01  1.60000000e-10  1.80004220e+00  1.60000000e-10  5.26116703e-01                                 
 3.20000000e-10  5.88061197e-01  3.20000000e-10  5.25656065e-01  3.20000000e-10  2.42262957e-01  3.20000000e-10  1.15200000e+00  3.20000000e-10  1.80032927e+00  3.20000000e-10  5.25656065e-01                                 
 5.00000000e-10  5.87447032e-01  5.00000000e-10  5.25145298e-01  5.00000000e-10  4.92591399e-01  5.00000000e-10  1.80000000e+00  5.00000000e-10  1.83171595e-01  5.00000000e-10  5.25145298e-01                                 
 5.22388718e-10  5.87371513e-01  5.22388718e-10  5.25082379e-01  5.22388718e-10  5.51203088e-01  5.22388718e-10  1.80000000e+00  5.22388718e-10  4.47807344e-02  5.22388718e-10  5.25082379e-01                                 
 5.67166154e-10  5.87220816e-01  5.67166154e-10  5.24956777e-01  5.67166154e-10  6.59324450e-01  5.67166154e-10  1.80000000e+00  5.67166154e-10 -1.66046848e-02  5.67166154e-10  5.24956777e-01                                 
 6.56721026e-10  5.86921460e-01  6.56721026e-10  5.24707008e-01  6.56721026e-10  8.30831258e-01  6.56721026e-10  1.80000000e+00  6.56721026e-10  1.46746585e-02  6.56721026e-10  5.24707008e-01                                 
 7.73950455e-10  5.86533615e-01  7.73950455e-10  5.24382884e-01  7.73950455e-10  1.00251752e+00  7.73950455e-10  1.80000000e+00  7.73950455e-10 -1.05605671e-02  7.73950455e-10  5.24382884e-01                                 
 9.61325229e-10  5.85922846e-01  9.61325229e-10  5.23871281e-01  9.61325229e-10  1.22059645e+00  9.61325229e-10  1.80000000e+00  9.61325229e-10  1.08630090e-02  9.61325229e-10  5.23871281e-01                                 
 1.28391657e-09  5.84896570e-01  1.28391657e-09  5.23008427e-01  1.28391657e-09  1.49373456e+00  1.28391657e-09  1.80000000e+00  1.28391657e-09 -8.99838167e-03  1.28391657e-09  5.23008427e-01                                 
 1.86504134e-09  5.83122900e-01  1.86504134e-09  5.21507956e-01  1.86504134e-09  1.73593592e+00  1.86504134e-09  1.80000000e+00  1.86504134e-09  9.30071918e-03  1.86504134e-09  5.21507956e-01                                 
 2.16859866e-09  5.82232770e-01  2.16859866e-09  5.20750467e-01  2.16859866e-09  1.77659906e+00  2.16859866e-09  1.80000000e+00  2.16859866e-09 -8.39182798e-03  2.16859866e-09  5.20750467e-01                                 
 2.50555813e-09  5.81271614e-01  2.50555813e-09  5.19929320e-01  2.50555813e-09  1.79670691e+00  2.50555813e-09  1.80000000e+00  2.50555813e-09  8.01266047e-03  2.50555813e-09  5.19929320e-01                                 
 2.88308543e-09  5.80226508e-01  2.88308543e-09  5.19032734e-01  2.88308543e-09  1.80506247e+00  2.88308543e-09  1.80000000e+00  2.88308543e-09 -7.46768528e-03  2.88308543e-09  5.19032734e-01                                 
 3.53198866e-09  5.78502549e-01  3.53198866e-09  5.17545592e-01  3.53198866e-09  1.80857369e+00  3.53198866e-09  1.80000000e+00  3.53198866e-09  7.28392382e-03  3.53198866e-09  5.17545592e-01                                 
 4.27116608e-09  5.76641125e-01  4.27116608e-09  5.15928653e-01  4.27116608e-09  1.80706565e+00  4.27116608e-09  1.80000000e+00  4.27116608e-09 -7.02268126e-03  4.27116608e-09  5.15928653e-01                                 
 5.61608751e-09  5.73495565e-01  5.61608751e-09  5.13171560e-01  5.61608751e-09  1.80427431e+00  5.61608751e-09  1.80000000e+00  5.61608751e-09  6.95683127e-03  5.61608751e-09  5.13171560e-01                                 
 7.64423188e-09  5.69239957e-01  7.64423188e-09  5.09395382e-01  7.64423188e-09  1.79876535e+00  7.64423188e-09  1.80000000e+00  7.64423188e-09 -6.83165825e-03  7.64423188e-09  5.09395382e-01                                 
 9.29415389e-09  5.66136191e-01  9.29415389e-09  5.06609241e-01  9.29415389e-09  1.79533970e+00  9.29415389e-09  1.80000000e+00  9.29415389e-09  6.78862121e-03  9.29415389e-09  5.06609241e-01                                 
 1.11478075e-08  5.62956111e-01  1.11478075e-08  5.03729692e-01  1.11478075e-08  1.79101942e+00  1.11478075e-08  1.80000000e+00  1.11478075e-08 -6.66833646e-03  1.11478075e-08  5.03729692e-01                                 
 1.26837441e-08  5.60531029e-01  1.26837441e-08  5.01517746e-01  1.26837441e-08  1.78811799e+00  1.26837441e-08  1.80000000e+00  1.26837441e-08  6.61140316e-03  1.26837441e-08  5.01517746e-01                                 
 1.42094293e-08  5.58283972e-01  1.42094293e-08  4.99456577e-01  1.42094293e-08  1.78476636e+00  1.42094293e-08  1.80000000e+00  1.42094293e-08 -6.48257569e-03  1.42094293e-08  4.99456577e-01                                 
 1.58487338e-08  5.56028247e-01  1.58487338e-08  4.97376631e-01  1.58487338e-08  1.78182085e+00  1.58487338e-08  1.80000000e+00  1.58487338e-08  6.43037989e-03  1.58487338e-08  4.97376631e-01                                 
 1.76640276e-08  5.53700984e-01  1.76640276e-08  4.95219513e-01  1.76640276e-08  1.77804833e+00  1.76640276e-08  1.80000000e+00  1.76640276e-08 -6.32092923e-03  1.76640276e-08  4.95219513e-01                                 
 2.02462729e-08  5.50661546e-01  2.02462729e-08  4.92385112e-01  2.02462729e-08  1.77343689e+00  2.02462729e-08  1.80000000e+00  2.02462729e-08  6.29994153e-03  2.02462729e-08  4.92385112e-01                                 
 2.32116673e-08  5.47514722e-01  2.32116673e-08  4.89429013e-01  2.32116673e-08  1.76776965e+00  2.32116673e-08  1.80000000e+00  2.32116673e-08 -6.22178463e-03  2.32116673e-08  4.89429013e-01                                 
 2.81104401e-08  5.42974087e-01  2.81104401e-08  4.85123241e-01  2.81104401e-08  1.75960493e+00  2.81104401e-08  1.80000000e+00  2.81104401e-08  6.22643027e-03  2.81104401e-08  4.85123241e-01                                 
 3.41609672e-08  5.38244137e-01  3.41609672e-08  4.80586021e-01  3.41609672e-08  1.74967694e+00  3.41609672e-08  1.80000000e+00  3.41609672e-08 -6.17149398e-03  3.41609672e-08  4.80586021e-01                                 
 4.62620215e-08  5.30579789e-01  4.62620215e-08  4.73153506e-01  4.62620215e-08  1.73157284e+00  4.62620215e-08  1.80000000e+00  4.62620215e-08  6.19344942e-03  4.62620215e-08  4.73153506e-01                                 
 7.03144180e-08  5.19204439e-01  7.03144180e-08  4.62025786e-01  7.03144180e-08  1.69741680e+00  7.03144180e-08  1.80000000e+00  7.03144180e-08 -6.15433307e-03  7.03144180e-08  4.62025786e-01                                 
 1.10382631e-07  5.06124012e-01  1.10382631e-07  4.49143274e-01  1.10382631e-07  1.64590117e+00  1.10382631e-07  1.80000000e+00  1.10382631e-07  6.18514967e-03  1.10382631e-07  4.49143274e-01                                 
 1.50455793e-07  4.93765418e-01  1.50455793e-07  4.37543198e-01  1.50455793e-07  1.59391108e+00  1.50455793e-07  1.80000000e+00  1.50455793e-07 -6.14762450e-03  1.50455793e-07  4.37543198e-01                                 
 2.18979677e-07  4.72945136e-01  2.18979677e-07  4.18792520e-01  2.18979677e-07  1.50461592e+00  2.18979677e-07  1.80000000e+00  2.18979677e-07  6.17992711e-03  2.18979677e-07  4.18792520e-01                                 
 2.90843755e-07  4.53817990e-01  2.90843755e-07  4.01997457e-01  2.90843755e-07  1.41119636e+00  2.90843755e-07  1.80000000e+00  2.90843755e-07 -6.14373333e-03  2.90843755e-07  4.01997457e-01                                 
 3.89285966e-07  4.25887217e-01  3.89285966e-07  3.78341170e-01  3.89285966e-07  1.28143842e+00  3.89285966e-07  1.80000000e+00  3.89285966e-07  6.17672521e-03  3.89285966e-07  3.78341170e-01                                 
 5.86170389e-07  6.08712830e-01  5.86170389e-07  5.43493388e-01  5.86170389e-07  1.24735958e+00  5.86170389e-07  1.80000000e+00  5.86170389e-07 -6.13698086e-03  5.86170389e-07  5.43493388e-01                                 
 7.43329408e-07  7.32405873e-01  7.43329408e-07  6.61549271e-01  7.43329408e-07  1.20071062e+00  7.43329408e-07  1.80000000e+00  7.43329408e-07  6.17516683e-03  7.43329408e-07  6.61549271e-01                                 
 7.62896031e-07  7.33853488e-01  7.62896031e-07  6.62770709e-01  7.62896031e-07  1.18102581e+00  7.62896031e-07  1.80000000e+00  7.62896031e-07  6.41650413e-06  7.62896031e-07  6.62770709e-01                                 
 8.02029276e-07  7.35391973e-01  8.02029276e-07  6.64040918e-01  8.02029276e-07  1.14163646e+00  8.02029276e-07  1.80000000e+00  8.02029276e-07  2.56178646e-06  8.02029276e-07  6.64040918e-01                                 
 8.63930009e-07  7.31954910e-01  8.63930009e-07  6.61210176e-01  8.63930009e-07  1.07602758e+00  8.63930009e-07  1.80000000e+00  8.63930009e-07  6.04271143e-06  8.63930009e-07  6.61210176e-01                                 
 9.31345401e-07  7.13222336e-01  9.31345401e-07  6.45201456e-01  9.31345401e-07  9.98155900e-01  9.31345401e-07  1.80000000e+00  9.31345401e-07  1.71175339e-06  9.31345401e-07  6.45201456e-01                                 
 1.00687315e-06  7.14656256e-01  1.00687315e-06  6.46409703e-01  1.00687315e-06  9.43011418e-01  1.00687315e-06  1.80000000e+00  1.00687315e-06  7.58080017e-06  1.00687315e-06  6.46409703e-01                                 
 1.09401247e-06  7.29568883e-01  1.09401247e-06  6.59220327e-01  1.09401247e-06  8.99135566e-01  1.09401247e-06  1.80000000e+00  1.09401247e-06  2.51572329e-06  1.09401247e-06  6.59220327e-01                                 
 1.10768657e-06  7.26232478e-01  1.10768657e-06  6.56421203e-01  1.10768657e-06  8.87583928e-01  1.10768657e-06  1.80000000e+00  1.10768657e-06  4.15388126e-06  1.10768657e-06  6.56421203e-01                                 
 1.13503476e-06  7.19546224e-01  1.13503476e-06  6.50704129e-01  1.13503476e-06  8.64647347e-01  1.13503476e-06  1.80000000e+00  1.13503476e-06  4.16483896e-06  1.13503476e-06  6.50704129e-01                                 
 1.18973115e-06  7.16154505e-01  1.18973115e-06  6.47739987e-01  1.18973115e-06  8.28605983e-01  1.18973115e-06  1.80000000e+00  1.18973115e-06  4.99021087e-06  1.18973115e-06  6.47739987e-01                                 
 1.29345770e-06  7.23754828e-01  1.29345770e-06  6.54302302e-01  1.29345770e-06  7.75279155e-01  1.29345770e-06  1.80000000e+00  1.29345770e-06  4.81123525e-06  1.29345770e-06  6.54302302e-01                                 
 1.40267483e-06  7.19462778e-01  1.40267483e-06  6.50625302e-01  1.40267483e-06  7.13940152e-01  1.40267483e-06  1.80000000e+00  1.40267483e-06  4.59387941e-06  1.40267483e-06  6.50625302e-01                                 
 1.54223833e-06  7.19704628e-01  1.54223833e-06  6.50822369e-01  1.54223833e-06  6.66318811e-01  1.54223833e-06  1.80000000e+00  1.54223833e-06  5.18436445e-06  1.54223833e-06  6.50822369e-01                                 
 1.72735045e-06  7.22226614e-01  1.72735045e-06  6.53002041e-01  1.72735045e-06  6.45236228e-01  1.72735045e-06  1.80000000e+00  1.72735045e-06  4.83501422e-06  1.72735045e-06  6.53002041e-01                                 
 1.89536589e-06  7.18420920e-01  1.89536589e-06  6.49715544e-01  1.89536589e-06  6.48509217e-01  1.89536589e-06  1.80000000e+00  1.89536589e-06  5.16701410e-06  1.89536589e-06  6.49715544e-01                                 
 2.06507957e-06  7.22257320e-01  2.06507957e-06  6.53023723e-01  2.06507957e-06  6.55873299e-01  2.06507957e-06  1.80000000e+00  2.06507957e-06  5.00738326e-06  2.06507957e-06  6.53023723e-01                                 
 2.25195817e-06  7.19343053e-01  2.25195817e-06  6.50517878e-01  2.25195817e-06  6.48545542e-01  2.25195817e-06  1.80000000e+00  2.25195817e-06  4.97086923e-06  2.25195817e-06  6.50517878e-01                                 
 2.49977624e-06  7.21102315e-01  2.49977624e-06  6.52030085e-01  2.49977624e-06  6.53425981e-01  2.49977624e-06  1.80000000e+00  2.49977624e-06  5.13256313e-06  2.49977624e-06  6.52030085e-01                                 
 2.75170275e-06  7.20489746e-01  2.75170275e-06  6.51508354e-01  2.75170275e-06  6.51060148e-01  2.75170275e-06  1.80000000e+00  2.75170275e-06  4.91433563e-06  2.75170275e-06  6.51508354e-01                                 
 3.10689773e-06  7.20207776e-01  3.10689773e-06  6.51259723e-01  3.10689773e-06  6.51734344e-01  3.10689773e-06  1.80000000e+00  3.10689773e-06  5.14770127e-06  3.10689773e-06  6.51259723e-01                                 
 3.62366787e-06  7.21045601e-01  3.62366787e-06  6.51986512e-01  3.62366787e-06  6.52015331e-01  3.62366787e-06  1.80000000e+00  3.62366787e-06  4.92126297e-06  3.62366787e-06  6.51986512e-01                                 
 4.47416892e-06  7.19876357e-01  4.47416892e-06  6.50974131e-01  4.47416892e-06  6.51207596e-01  4.47416892e-06  1.80000000e+00  4.47416892e-06  5.13636701e-06  4.47416892e-06  6.50974131e-01                                 
 5.47416892e-06  7.21244976e-01  5.47416892e-06  6.52157642e-01  5.47416892e-06  6.52324504e-01  5.47416892e-06  1.80000000e+00  5.47416892e-06  4.93225453e-06  5.47416892e-06  6.52157642e-01                                 
 6.47416892e-06  7.19711677e-01  6.47416892e-06  6.50832306e-01  6.47416892e-06  6.50957230e-01  6.47416892e-06  1.80000000e+00  6.47416892e-06  5.12447667e-06  6.47416892e-06  6.50832306e-01                                 
 7.47416892e-06  7.21382685e-01  7.47416892e-06  6.52275650e-01  7.47416892e-06  6.52536933e-01  7.47416892e-06  1.80000000e+00  7.47416892e-06  4.94556528e-06  7.47416892e-06  6.52275650e-01                                 
 8.47416892e-06  7.19590014e-01  8.47416892e-06  6.50727627e-01  8.47416892e-06  6.50772091e-01  8.47416892e-06  1.80000000e+00  8.47416892e-06  5.10994634e-06  8.47416892e-06  6.50727627e-01                                 
 9.47416892e-06  7.21479631e-01  9.47416892e-06  6.52358575e-01  9.47416892e-06  6.52688407e-01  9.47416892e-06  1.80000000e+00  9.47416892e-06  4.96112549e-06  9.47416892e-06  6.52358575e-01                                 
 1.00005000e-05  7.19487645e-01  1.00005000e-05  6.50639759e-01  1.00005000e-05  6.50608912e-01  1.00005000e-05  1.80000000e+00  1.00005000e-05  5.08579244e-06  1.00005000e-05  6.50639759e-01                                 
 1.00005500e-05  7.19488776e-01  1.00005500e-05  6.50640716e-01  1.00005500e-05  6.43751047e-01  1.00005500e-05  1.62000000e+00  1.00005500e-05 -1.24495819e-04  1.00005500e-05  6.50640716e-01                                 
 1.00006500e-05  7.19491081e-01  1.00006500e-05  6.50642678e-01  1.00006500e-05  6.32367728e-01  1.00006500e-05  1.26000000e+00  1.00006500e-05 -9.43772411e-05  1.00006500e-05  6.50642678e-01                                 
 1.00008500e-05  7.19495992e-01  1.00008500e-05  6.50646870e-01  1.00008500e-05  6.24034224e-01  1.00008500e-05  5.40000000e-01  1.00008500e-05  5.92402418e-03  1.00008500e-05  6.50646870e-01                                 
 1.00010000e-05  7.19499843e-01  1.00010000e-05  6.50650170e-01  1.00010000e-05  5.59563410e-01  1.00010000e-05  0.00000000e+00  1.00010000e-05  1.53461112e+00  1.00010000e-05  6.50650170e-01                                 
 1.00010250e-05  7.19500493e-01  1.00010250e-05  6.50650729e-01  1.00010250e-05  5.33012370e-01  1.00010250e-05  0.00000000e+00  1.00010250e-05  1.69653189e+00  1.00010250e-05  6.50650729e-01                                 
 1.00010751e-05  7.19501846e-01  1.00010751e-05  6.50651874e-01  1.00010751e-05  4.95014175e-01  1.00010751e-05  0.00000000e+00  1.00010751e-05  1.81956050e+00  1.00010751e-05  6.50651874e-01                                 
 1.00011752e-05  7.19504646e-01  1.00011752e-05  6.50654248e-01  1.00011752e-05  4.77509195e-01  1.00011752e-05  0.00000000e+00  1.00011752e-05  1.78947987e+00  1.00011752e-05  6.50654248e-01                                 
 1.00013188e-05  7.19508673e-01  1.00013188e-05  6.50657710e-01  1.00013188e-05  4.84815182e-01  1.00013188e-05  0.00000000e+00  1.00013188e-05  1.80718126e+00  1.00013188e-05  6.50657710e-01                                 
 1.00014729e-05  7.19513057e-01  1.00014729e-05  6.50661468e-01  1.00014729e-05  4.85143059e-01  1.00014729e-05  0.00000000e+00  1.00014729e-05  1.79534629e+00  1.00014729e-05  6.50661468e-01                                 
 1.00017458e-05  7.19520981e-01  1.00017458e-05  6.50668267e-01  1.00017458e-05  4.86962663e-01  1.00017458e-05  0.00000000e+00  1.00017458e-05  1.80375651e+00  1.00017458e-05  6.50668267e-01                                 
 1.00022101e-05  7.19534951e-01  1.00022101e-05  6.50680260e-01  1.00022101e-05  4.86922218e-01  1.00022101e-05  0.00000000e+00  1.00022101e-05  1.79671382e+00  1.00022101e-05  6.50680260e-01                                 
 1.00027927e-05  7.19553205e-01  1.00027927e-05  6.50695951e-01  1.00027927e-05  4.87383332e-01  1.00027927e-05  0.00000000e+00  1.00027927e-05  1.80293789e+00  1.00027927e-05  6.50695951e-01                                 
 1.00039272e-05  7.19590406e-01  1.00039272e-05  6.50727977e-01  1.00039272e-05  4.87406008e-01  1.00039272e-05  0.00000000e+00  1.00039272e-05  1.79721020e+00  1.00039272e-05  6.50727977e-01                                 
 1.00061962e-05  7.19669003e-01  1.00061962e-05  6.50795736e-01  1.00061962e-05  4.88534100e-01  1.00061962e-05  0.00000000e+00  1.00061962e-05  1.80270457e+00  1.00061962e-05  6.50795736e-01                                 
 1.00107342e-05  7.19835988e-01  1.00107342e-05  6.50939783e-01  1.00107342e-05  4.90304977e-01  1.00107342e-05  0.00000000e+00  1.00107342e-05  1.79732431e+00  1.00107342e-05  6.50939783e-01                                 
 1.00198103e-05  7.20185023e-01  1.00198103e-05  6.51240838e-01  1.00198103e-05  4.97227884e-01  1.00198103e-05  0.00000000e+00  1.00198103e-05  1.80265032e+00  1.00198103e-05  6.51240838e-01                                 
 1.00379623e-05  7.20796916e-01  1.00379623e-05  6.51768476e-01  1.00379623e-05  5.31377657e-01  1.00379623e-05  0.00000000e+00  1.00379623e-05  1.79735720e+00  1.00379623e-05  6.51768476e-01                                 
 1.00628920e-05  7.21167225e-01  1.00628920e-05  6.52088402e-01  1.00628920e-05  5.93739683e-01  1.00628920e-05  0.00000000e+00  1.00628920e-05  1.80263699e+00  1.00628920e-05  6.52088402e-01                                 
