 time            v(vbep)         time            v(vben)         time            v(vout)         time            v(vphi1)        time            v(vphi2)        time            v(vref)         yes             currtemp       
 0.00000000e+00  5.53106026e-01  0.00000000e+00  4.87513498e-01  0.00000000e+00  2.84473068e-01  0.00000000e+00  0.00000000e+00  0.00000000e+00  1.79996989e+00  0.00000000e+00  4.87513498e-01  1.00000000e+00  8.70000000e+01 
 5.00000000e-12  5.53088651e-01  5.00000000e-12  4.87499064e-01  5.00000000e-12  2.85003455e-01  5.00000000e-12  1.80000000e-02  5.00000000e-12  1.80007892e+00  5.00000000e-12  4.87499064e-01                                 
 1.00000000e-11  5.53071494e-01  1.00000000e-11  4.87484924e-01  1.00000000e-11  2.85437206e-01  1.00000000e-11  3.60000000e-02  1.00000000e-11  1.80013869e+00  1.00000000e-11  4.87484924e-01                                 
 2.00000000e-11  5.53037291e-01  2.00000000e-11  4.87456719e-01  2.00000000e-11  2.86157811e-01  2.00000000e-11  7.20000000e-02  2.00000000e-11  1.80019758e+00  2.00000000e-11  4.87456719e-01                                 
 4.00000000e-11  5.52969083e-01  4.00000000e-11  4.87400446e-01  4.00000000e-11  2.87008845e-01  4.00000000e-11  1.44000000e-01  4.00000000e-11  1.80016359e+00  4.00000000e-11  4.87400446e-01                                 
 8.00000000e-11  5.52833056e-01  8.00000000e-11  4.87288179e-01  8.00000000e-11  2.87722690e-01  8.00000000e-11  2.88000000e-01  8.00000000e-11  1.80007992e+00  8.00000000e-11  4.87288179e-01                                 
 1.60000000e-10  5.52562606e-01  1.60000000e-10  4.87064743e-01  1.60000000e-10  2.88319066e-01  1.60000000e-10  5.76000000e-01  1.60000000e-10  1.80003765e+00  1.60000000e-10  4.87064743e-01                                 
 3.20000000e-10  5.52027877e-01  3.20000000e-10  4.86622141e-01  3.20000000e-10  2.90699835e-01  3.20000000e-10  1.15200000e+00  3.20000000e-10  1.80034585e+00  3.20000000e-10  4.86622141e-01                                 
 5.00000000e-10  5.51435874e-01  5.00000000e-10  4.86130836e-01  5.00000000e-10  5.23472001e-01  5.00000000e-10  1.80000000e+00  5.00000000e-10  1.94612330e-01  5.00000000e-10  4.86130836e-01                                 
 5.22788618e-10  5.51361719e-01  5.22788618e-10  4.86069189e-01  5.22788618e-10  5.79989258e-01  5.22788618e-10  1.80000000e+00  5.22788618e-10  4.89671614e-02  5.22788618e-10  4.86069189e-01                                 
 5.68365853e-10  5.51213725e-01  5.68365853e-10  4.85946113e-01  5.68365853e-10  6.84644288e-01  5.68365853e-10  1.80000000e+00  5.68365853e-10 -1.76058104e-02  5.68365853e-10  4.85946113e-01                                 
 6.59520323e-10  5.50919633e-01  6.59520323e-10  4.85701289e-01  6.59520323e-10  8.52059359e-01  6.59520323e-10  1.80000000e+00  6.59520323e-10  1.54221813e-02  6.59520323e-10  4.85701289e-01                                 
 7.77360311e-10  5.50543109e-01  7.77360311e-10  4.85387360e-01  7.77360311e-10  1.01954680e+00  7.77360311e-10  1.80000000e+00  7.77360311e-10 -1.09585345e-02  7.77360311e-10  4.85387360e-01                                 
 9.66292672e-10  5.49947758e-01  9.66292672e-10  4.84889891e-01  9.66292672e-10  1.23432925e+00  9.66292672e-10  1.80000000e+00  9.66292672e-10  1.12284967e-02  9.66292672e-10  4.84889891e-01                                 
 1.30777133e-09  5.48896632e-01  1.30777133e-09  4.84008365e-01  1.30777133e-09  1.51079807e+00  1.30777133e-09  1.80000000e+00  1.30777133e-09 -9.30294957e-03  1.30777133e-09  4.84008365e-01                                 
 1.88140829e-09  5.47198538e-01  1.88140829e-09  4.82575774e-01  1.88140829e-09  1.73159295e+00  1.88140829e-09  1.80000000e+00  1.88140829e-09  9.57566016e-03  1.88140829e-09  4.82575774e-01                                 
 2.17100600e-09  5.46371874e-01  2.17100600e-09  4.81874529e-01  2.17100600e-09  1.76784704e+00  2.17100600e-09  1.80000000e+00  2.17100600e-09 -8.56465885e-03  2.17100600e-09  4.81874529e-01                                 
 2.51400468e-09  5.45417395e-01  2.51400468e-09  4.81061859e-01  2.51400468e-09  1.78722469e+00  2.51400468e-09  1.80000000e+00  2.51400468e-09  8.16889766e-03  2.51400468e-09  4.81061859e-01                                 
 2.89650737e-09  5.44382860e-01  2.89650737e-09  4.80177452e-01  2.89650737e-09  1.79507563e+00  2.89650737e-09  1.80000000e+00  2.89650737e-09 -7.58240844e-03  2.89650737e-09  4.80177452e-01                                 
 3.56977366e-09  5.42632757e-01  3.56977366e-09  4.78673136e-01  3.56977366e-09  1.79841085e+00  3.56977366e-09  1.80000000e+00  3.56977366e-09  7.40351764e-03  3.56977366e-09  4.78673136e-01                                 
 4.31589679e-09  5.40790599e-01  4.31589679e-09  4.77078755e-01  4.31589679e-09  1.79683857e+00  4.31589679e-09  1.80000000e+00  4.31589679e-09 -7.11503265e-03  4.31589679e-09  4.77078755e-01                                 
 5.72866072e-09  5.37543835e-01  5.72866072e-09  4.74243331e-01  5.72866072e-09  1.79365922e+00  5.72866072e-09  1.80000000e+00  5.72866072e-09  7.06465644e-03  5.72866072e-09  4.74243331e-01                                 
 7.83755178e-09  5.33187523e-01  7.83755178e-09  4.70391167e-01  7.83755178e-09  1.78836148e+00  7.83755178e-09  1.80000000e+00  7.83755178e-09 -6.92180867e-03  7.83755178e-09  4.70391167e-01                                 
 9.22818488e-09  5.30587155e-01  9.22818488e-09  4.68066247e-01  9.22818488e-09  1.78553101e+00  9.22818488e-09  1.80000000e+00  9.22818488e-09  6.86581511e-03  9.22818488e-09  4.68066247e-01                                 
 1.07976802e-08  5.27864794e-01  1.07976802e-08  4.65614035e-01  1.07976802e-08  1.78185108e+00  1.07976802e-08  1.80000000e+00  1.07976802e-08 -6.71264744e-03  1.07976802e-08  4.65614035e-01                                 
 1.23969768e-08  5.25292021e-01  1.23969768e-08  4.63280282e-01  1.23969768e-08  1.77878263e+00  1.23969768e-08  1.80000000e+00  1.23969768e-08  6.66527893e-03  1.23969768e-08  4.63280282e-01                                 
 1.39103634e-08  5.23021296e-01  1.39103634e-08  4.61207931e-01  1.39103634e-08  1.77544355e+00  1.39103634e-08  1.80000000e+00  1.39103634e-08 -6.51754422e-03  1.39103634e-08  4.61207931e-01                                 
 1.55096048e-08  5.20774627e-01  1.55096048e-08  4.59146352e-01  1.55096048e-08  1.77252956e+00  1.55096048e-08  1.80000000e+00  1.55096048e-08  6.46929839e-03  1.55096048e-08  4.59146352e-01                                 
 1.73604142e-08  5.18348852e-01  1.73604142e-08  4.56908200e-01  1.73604142e-08  1.76865365e+00  1.73604142e-08  1.80000000e+00  1.73604142e-08 -6.34473280e-03  1.73604142e-08  4.56908200e-01                                 
 1.98880319e-08  5.15301084e-01  1.98880319e-08  4.54078356e-01  1.98880319e-08  1.76408525e+00  1.98880319e-08  1.80000000e+00  1.98880319e-08  6.33099565e-03  1.98880319e-08  4.54078356e-01                                 
 2.30636371e-08  5.11846579e-01  2.30636371e-08  4.50846480e-01  2.30636371e-08  1.75796916e+00  2.30636371e-08  1.80000000e+00  2.30636371e-08 -6.24137726e-03  2.30636371e-08  4.50846480e-01                                 
 2.78349121e-08  5.07295558e-01  2.78349121e-08  4.46548957e-01  2.78349121e-08  1.74986216e+00  2.78349121e-08  1.80000000e+00  2.78349121e-08  6.25538244e-03  2.78349121e-08  4.46548957e-01                                 
 3.46783687e-08  5.01781992e-01  3.46783687e-08  4.41284004e-01  3.46783687e-08  1.73833087e+00  3.46783687e-08  1.80000000e+00  3.46783687e-08 -6.18993679e-03  3.46783687e-08  4.41284004e-01                                 
 4.83652819e-08  4.92987730e-01  4.83652819e-08  4.32786959e-01  4.83652819e-08  1.71737937e+00  4.83652819e-08  1.80000000e+00  4.83652819e-08  6.22458596e-03  4.83652819e-08  4.32786959e-01                                 
 7.57391084e-08  4.80233264e-01  7.57391084e-08  4.20323579e-01  7.57391084e-08  1.67830191e+00  7.57391084e-08  1.80000000e+00  7.57391084e-08 -6.17372313e-03  7.57391084e-08  4.20323579e-01                                 
 1.19311335e-07  4.64758602e-01  1.19311335e-07  4.05416044e-01  1.19311335e-07  1.62035821e+00  1.19311335e-07  1.80000000e+00  1.19311335e-07  6.21661643e-03  1.19311335e-07  4.05416044e-01                                 
 1.64740266e-07  4.49216637e-01  1.64740266e-07  3.91143470e-01  1.64740266e-07  1.55903470e+00  1.64740266e-07  1.80000000e+00  1.64740266e-07 -6.16732707e-03  1.64740266e-07  3.91143470e-01                                 
 2.30534829e-07  4.29058637e-01  2.30534829e-07  3.73101698e-01  2.30534829e-07  1.47175044e+00  2.30534829e-07  1.80000000e+00  2.30534829e-07  6.21153019e-03  2.30534829e-07  3.73101698e-01                                 
 3.03004443e-07  4.08388577e-01  3.03004443e-07  3.55112795e-01  3.03004443e-07  1.37512296e+00  3.03004443e-07  1.80000000e+00  3.03004443e-07 -6.16316657e-03  3.03004443e-07  3.55112795e-01                                 
 4.29432920e-07  3.67472864e-01  4.29432920e-07  3.20879178e-01  4.29432920e-07  1.20265006e+00  4.29432920e-07  1.80000000e+00  4.29432920e-07  6.20839842e-03  4.29432920e-07  3.20879178e-01                                 
 4.57302996e-07  3.57041736e-01  4.57302996e-07  3.12365062e-01  4.57302996e-07  1.16363508e+00  4.57302996e-07  1.80000000e+00  4.57302996e-07  1.11442405e-05  4.57302996e-07  3.12365062e-01                                 
 5.13043146e-07  3.35891888e-01  5.13043146e-07  2.95164055e-01  5.13043146e-07  1.08790842e+00  5.13043146e-07  1.80000000e+00  5.13043146e-07  8.66446256e-06  5.13043146e-07  2.95164055e-01                                 
 6.24523447e-07  5.98402639e-01  6.24523447e-07  5.30088302e-01  6.24523447e-07  1.22525754e+00  6.24523447e-07  1.80000000e+00  6.24523447e-07  2.22190505e-05  6.24523447e-07  5.30088302e-01                                 
 7.36223146e-07  7.02340912e-01  7.36223146e-07  6.28220225e-01  7.36223146e-07  1.20814601e+00  7.36223146e-07  1.80000000e+00  7.36223146e-07  3.52527167e-06  7.36223146e-07  6.28220225e-01                                 
 8.42156162e-07  7.15651569e-01  8.42156162e-07  6.39048438e-01  8.42156162e-07  1.11064368e+00  8.42156162e-07  1.80000000e+00  8.42156162e-07  1.82069818e-05  8.42156162e-07  6.39048438e-01                                 
 8.55877935e-07  7.12301341e-01  8.55877935e-07  6.36382613e-01  8.55877935e-07  1.09539798e+00  8.55877935e-07  1.80000000e+00  8.55877935e-07  1.01164110e-05  8.55877935e-07  6.36382613e-01                                 
 8.83321480e-07  6.97699799e-01  8.83321480e-07  6.24377456e-01  8.83321480e-07  1.05645260e+00  8.83321480e-07  1.80000000e+00  8.83321480e-07  8.64373434e-06  8.83321480e-07  6.24377456e-01                                 
 9.24345855e-07  6.76474299e-01  9.24345855e-07  6.05874797e-01  9.24345855e-07  1.00245473e+00  9.24345855e-07  1.80000000e+00  9.24345855e-07  1.02783266e-05  9.24345855e-07  6.05874797e-01                                 
 9.69702489e-07  6.87797436e-01  9.69702489e-07  6.15827516e-01  9.69702489e-07  9.79260543e-01  9.69702489e-07  1.80000000e+00  9.69702489e-07  1.24851561e-05  9.69702489e-07  6.15827516e-01                                 
 1.03089389e-06  7.05487230e-01  1.03089389e-06  6.30816699e-01  1.03089389e-06  9.52906361e-01  1.03089389e-06  1.80000000e+00  1.03089389e-06  1.05234021e-05  1.03089389e-06  6.30816699e-01                                 
 1.09515406e-06  6.92867708e-01  1.09515406e-06  6.20253902e-01  1.09515406e-06  8.99760702e-01  1.09515406e-06  1.80000000e+00  1.09515406e-06  1.02487229e-05  1.09515406e-06  6.20253902e-01                                 
 1.16978013e-06  6.88283079e-01  1.16978013e-06  6.16256936e-01  1.16978013e-06  8.49471703e-01  1.16978013e-06  1.80000000e+00  1.16978013e-06  1.12164763e-05  1.16978013e-06  6.16256936e-01                                 
 1.24413816e-06  6.99912071e-01  1.24413816e-06  6.26197334e-01  1.24413816e-06  8.15421804e-01  1.24413816e-06  1.80000000e+00  1.24413816e-06  1.13187359e-05  1.24413816e-06  6.26197334e-01                                 
 1.34121771e-06  6.93730779e-01  1.34121771e-06  6.20967989e-01  1.34121771e-06  7.53510435e-01  1.34121771e-06  1.80000000e+00  1.34121771e-06  1.02418966e-05  1.34121771e-06  6.20967989e-01                                 
 1.44124775e-06  6.92028192e-01  1.44124775e-06  6.19507239e-01  1.44124775e-06  6.97539212e-01  1.44124775e-06  1.80000000e+00  1.44124775e-06  1.16111444e-05  1.44124775e-06  6.19507239e-01                                 
 1.57790201e-06  6.98207340e-01  1.57790201e-06  6.24756867e-01  1.57790201e-06  6.49426853e-01  1.57790201e-06  1.80000000e+00  1.57790201e-06  1.07052451e-05  1.57790201e-06  6.24756867e-01                                 
 1.76124317e-06  6.91482074e-01  1.76124317e-06  6.19046737e-01  1.76124317e-06  6.11219517e-01  1.76124317e-06  1.80000000e+00  1.76124317e-06  1.14543977e-05  1.76124317e-06  6.19046737e-01                                 
 1.78792193e-06  6.92774547e-01  1.78792193e-06  6.20145489e-01  1.78792193e-06  6.11291040e-01  1.78792193e-06  1.80000000e+00  1.78792193e-06  1.13272958e-05  1.78792193e-06  6.20145489e-01                                 
 1.84127946e-06  6.95598611e-01  1.84127946e-06  6.22552447e-01  1.84127946e-06  6.16013675e-01  1.84127946e-06  1.80000000e+00  1.84127946e-06  1.14199834e-05  1.84127946e-06  6.22552447e-01                                 
 1.94799450e-06  6.95098115e-01  1.94799450e-06  6.22133550e-01  1.94799450e-06  6.22949096e-01  1.94799450e-06  1.80000000e+00  1.94799450e-06  1.10902547e-05  1.94799450e-06  6.22133550e-01                                 
 2.08240249e-06  6.93766145e-01  2.08240249e-06  6.20993136e-01  2.08240249e-06  6.21170138e-01  2.08240249e-06  1.80000000e+00  2.08240249e-06  1.13334539e-05  2.08240249e-06  6.20993136e-01                                 
 2.23285125e-06  6.95801102e-01  2.23285125e-06  6.22728175e-01  2.23285125e-06  6.22823679e-01  2.23285125e-06  1.80000000e+00  2.23285125e-06  1.11995458e-05  2.23285125e-06  6.22728175e-01                                 
 2.46819651e-06  6.93784327e-01  2.46819651e-06  6.21010922e-01  2.46819651e-06  6.21338791e-01  2.46819651e-06  1.80000000e+00  2.46819651e-06  1.12358943e-05  2.46819651e-06  6.21010922e-01                                 
 2.88246246e-06  6.95545799e-01  2.88246246e-06  6.22510229e-01  2.88246246e-06  6.22580847e-01  2.88246246e-06  1.80000000e+00  2.88246246e-06  1.12553685e-05  2.88246246e-06  6.22510229e-01                                 
 3.40343622e-06  6.94037833e-01  3.40343622e-06  6.21228010e-01  3.40343622e-06  6.21563414e-01  3.40343622e-06  1.80000000e+00  3.40343622e-06  1.12050031e-05  3.40343622e-06  6.21228010e-01                                 
 4.34644875e-06  6.95355891e-01  4.34644875e-06  6.22348651e-01  4.34644875e-06  6.22414491e-01  4.34644875e-06  1.80000000e+00  4.34644875e-06  1.12738230e-05  4.34644875e-06  6.22348651e-01                                 
 5.34644875e-06  6.94182595e-01  5.34644875e-06  6.21351649e-01  5.34644875e-06  6.21692895e-01  5.34644875e-06  1.80000000e+00  5.34644875e-06  1.11940164e-05  5.34644875e-06  6.21351649e-01                                 
 6.34644875e-06  6.95214105e-01  6.34644875e-06  6.22227842e-01  6.34644875e-06  6.22288785e-01  6.34644875e-06  1.80000000e+00  6.34644875e-06  1.12831870e-05  6.34644875e-06  6.22227842e-01                                 
 7.34644875e-06  6.94329888e-01  7.34644875e-06  6.21477366e-01  7.34644875e-06  6.21822259e-01  7.34644875e-06  1.80000000e+00  7.34644875e-06  1.11859427e-05  7.34644875e-06  6.21477366e-01                                 
 8.34644875e-06  6.95068149e-01  8.34644875e-06  6.22103602e-01  8.34644875e-06  6.22161020e-01  8.34644875e-06  1.80000000e+00  8.34644875e-06  1.12899543e-05  8.34644875e-06  6.22103602e-01                                 
 9.34644875e-06  6.94478282e-01  9.34644875e-06  6.21603912e-01  9.34644875e-06  6.21952137e-01  9.34644875e-06  1.80000000e+00  9.34644875e-06  1.11804856e-05  9.34644875e-06  6.21603912e-01                                 
 1.00005000e-05  6.94885059e-01  1.00005000e-05  6.21947766e-01  1.00005000e-05  6.22001334e-01  1.00005000e-05  1.80000000e+00  1.00005000e-05  1.12947754e-05  1.00005000e-05  6.21947766e-01                                 
 1.00005500e-05  6.94886228e-01  1.00005500e-05  6.21948753e-01  1.00005500e-05  6.15247424e-01  1.00005500e-05  1.62000000e+00  1.00005500e-05 -1.22704716e-04  1.00005500e-05  6.21948753e-01                                 
 1.00006500e-05  6.94888616e-01  1.00006500e-05  6.21950771e-01  1.00006500e-05  6.03602878e-01  1.00006500e-05  1.26000000e+00  1.00006500e-05 -1.00180267e-04  1.00006500e-05  6.21950771e-01                                 
 1.00008500e-05  6.94893636e-01  1.00008500e-05  6.21955013e-01  1.00008500e-05  5.94320749e-01  1.00008500e-05  5.40000000e-01  1.00008500e-05  3.59531804e-02  1.00008500e-05  6.21955013e-01                                 
 1.00010000e-05  6.94897530e-01  1.00010000e-05  6.21958314e-01  1.00010000e-05  5.56157349e-01  1.00010000e-05  0.00000000e+00  1.00010000e-05  1.55323340e+00  1.00010000e-05  6.21958314e-01                                 
 1.00010248e-05  6.94898173e-01  1.00010248e-05  6.21958862e-01  1.00010248e-05  5.37872124e-01  1.00010248e-05  0.00000000e+00  1.00010248e-05  1.70389890e+00  1.00010248e-05  6.21958862e-01                                 
 1.00010743e-05  6.94899493e-01  1.00010743e-05  6.21959974e-01  1.00010743e-05  5.09688174e-01  1.00010743e-05  0.00000000e+00  1.00010743e-05  1.81844590e+00  1.00010743e-05  6.21959974e-01                                 
 1.00011734e-05  6.94902207e-01  1.00011734e-05  6.21962255e-01  1.00011734e-05  4.93615913e-01  1.00011734e-05  0.00000000e+00  1.00011734e-05  1.78977704e+00  1.00011734e-05  6.21962255e-01                                 
 1.00013148e-05  6.94906089e-01  1.00013148e-05  6.21965550e-01  1.00013148e-05  4.97811249e-01  1.00013148e-05  0.00000000e+00  1.00013148e-05  1.80680863e+00  1.00013148e-05  6.21965550e-01                                 
 1.00014686e-05  6.94910329e-01  1.00014686e-05  6.21969146e-01  1.00014686e-05  4.97445145e-01  1.00014686e-05  0.00000000e+00  1.00014686e-05  1.79545487e+00  1.00014686e-05  6.21969146e-01                                 
 1.00017521e-05  6.94918208e-01  1.00017521e-05  6.21975830e-01  1.00017521e-05  4.98424075e-01  1.00017521e-05  0.00000000e+00  1.00017521e-05  1.80369731e+00  1.00017521e-05  6.21975830e-01                                 
 1.00023191e-05  6.94934092e-01  1.00023191e-05  6.21989319e-01  1.00023191e-05  4.98180769e-01  1.00023191e-05  0.00000000e+00  1.00023191e-05  1.79666574e+00  1.00023191e-05  6.21989319e-01                                 
 1.00030924e-05  6.94955762e-01  1.00030924e-05  6.22007743e-01  1.00030924e-05  4.98624025e-01  1.00030924e-05  0.00000000e+00  1.00030924e-05  1.80307542e+00  1.00030924e-05  6.22007743e-01                                 
 1.00046390e-05  6.94997976e-01  1.00046390e-05  6.22043686e-01  1.00046390e-05  4.98736504e-01  1.00046390e-05  0.00000000e+00  1.00046390e-05  1.79703309e+00  1.00046390e-05  6.22043686e-01                                 
 1.00077324e-05  6.95075039e-01  1.00077324e-05  6.22109380e-01  1.00077324e-05  5.00194371e-01  1.00077324e-05  0.00000000e+00  1.00077324e-05  1.80290265e+00  1.00077324e-05  6.22109380e-01                                 
 1.00139190e-05  6.95196273e-01  1.00139190e-05  6.22212800e-01  1.00139190e-05  5.03002021e-01  1.00139190e-05  0.00000000e+00  1.00139190e-05  1.79711858e+00  1.00139190e-05  6.22212800e-01                                 
