 time            v(vbep)         time            v(vben)         time            v(vout)         time            v(vphi1)        time            v(vphi2)        time            v(vref)         yes             currtemp       
 0.00000000e+00  5.48309811e-01  0.00000000e+00  4.82014743e-01  0.00000000e+00  2.92511622e-01  0.00000000e+00  0.00000000e+00  0.00000000e+00  1.79996672e+00  0.00000000e+00  4.82014743e-01  1.00000000e+00  9.10000000e+01 
 5.00000000e-12  5.48290627e-01  5.00000000e-12  4.81998815e-01  5.00000000e-12  2.93045259e-01  5.00000000e-12  1.80000000e-02  5.00000000e-12  1.80007654e+00  5.00000000e-12  4.81998815e-01                                 
 1.00000000e-11  5.48271707e-01  1.00000000e-11  4.81983220e-01  1.00000000e-11  2.93482037e-01  1.00000000e-11  3.60000000e-02  1.00000000e-11  1.80013701e+00  1.00000000e-11  4.81983220e-01                                 
 2.00000000e-11  5.48234006e-01  2.00000000e-11  4.81952118e-01  2.00000000e-11  2.94207925e-01  2.00000000e-11  7.20000000e-02  2.00000000e-11  1.80019679e+00  2.00000000e-11  4.81952118e-01                                 
 4.00000000e-11  5.48158849e-01  4.00000000e-11  4.81890077e-01  4.00000000e-11  2.95065087e-01  4.00000000e-11  1.44000000e-01  4.00000000e-11  1.80016280e+00  4.00000000e-11  4.81890077e-01                                 
 8.00000000e-11  5.48008999e-01  8.00000000e-11  4.81766327e-01  8.00000000e-11  2.95776284e-01  8.00000000e-11  2.88000000e-01  8.00000000e-11  1.80007805e+00  8.00000000e-11  4.81766327e-01                                 
 1.60000000e-10  5.47711220e-01  1.60000000e-10  4.81520145e-01  1.60000000e-10  2.96342874e-01  1.60000000e-10  5.76000000e-01  1.60000000e-10  1.80003520e+00  1.60000000e-10  4.81520145e-01                                 
 3.20000000e-10  5.47123027e-01  3.20000000e-10  4.81032897e-01  3.20000000e-10  2.98225923e-01  3.20000000e-10  1.15200000e+00  3.20000000e-10  1.80035019e+00  3.20000000e-10  4.81032897e-01                                 
 5.00000000e-10  5.46472715e-01  5.00000000e-10  4.80492662e-01  5.00000000e-10  5.28599038e-01  5.00000000e-10  1.80000000e+00  5.00000000e-10  1.97327996e-01  5.00000000e-10  4.80492662e-01                                 
 5.22885126e-10  5.46390983e-01  5.22885126e-10  4.80424640e-01  5.22885126e-10  5.84913314e-01  5.22885126e-10  1.80000000e+00  5.22885126e-10  4.99896108e-02  5.22885126e-10  4.80424640e-01                                 
 5.68655379e-10  5.46227894e-01  5.68655379e-10  4.80288855e-01  5.68655379e-10  6.89303288e-01  5.68655379e-10  1.80000000e+00  5.68655379e-10 -1.78329288e-02  5.68655379e-10  4.80288855e-01                                 
 6.60195885e-10  5.45903973e-01  6.60195885e-10  4.80018873e-01  6.60195885e-10  8.56630579e-01  6.60195885e-10  1.80000000e+00  6.60195885e-10  1.55929046e-02  6.60195885e-10  4.80018873e-01                                 
 7.78212845e-10  5.45490708e-01  7.78212845e-10  4.79673856e-01  7.78212845e-10  1.02395133e+00  7.78212845e-10  1.80000000e+00  7.78212845e-10 -1.10379714e-02  7.78212845e-10  4.79673856e-01                                 
 9.67526035e-10  5.44837653e-01  9.67526035e-10  4.79127373e-01  9.67526035e-10  1.23883291e+00  9.67526035e-10  1.80000000e+00  9.67526035e-10  1.13067338e-02  9.67526035e-10  4.79127373e-01                                 
 1.31274914e-09  5.43676663e-01  1.31274914e-09  4.78152041e-01  1.31274914e-09  1.51645239e+00  1.31274914e-09  1.80000000e+00  1.31274914e-09 -9.36074395e-03  1.31274914e-09  4.78152041e-01                                 
 1.88447745e-09  5.41833123e-01  1.88447745e-09  4.76593533e-01  1.88447745e-09  1.73338351e+00  1.88447745e-09  1.80000000e+00  1.88447745e-09  9.62947757e-03  1.88447745e-09  4.76593533e-01                                 
 2.17079948e-09  5.40945009e-01  2.17079948e-09  4.75838400e-01  2.17079948e-09  1.76865129e+00  2.17079948e-09  1.80000000e+00  2.17079948e-09 -8.59265601e-03  2.17079948e-09  4.75838400e-01                                 
 2.51423875e-09  5.39908231e-01  2.51423875e-09  4.74953450e-01  2.51423875e-09  1.78788019e+00  2.51423875e-09  1.80000000e+00  2.51423875e-09  8.19287180e-03  2.51423875e-09  4.74953450e-01                                 
 2.89703643e-09  5.38787284e-01  2.89703643e-09  4.73992587e-01  2.89703643e-09  1.79559455e+00  2.89703643e-09  1.80000000e+00  2.89703643e-09 -7.59525729e-03  2.89703643e-09  4.73992587e-01                                 
 3.57563435e-09  5.36882790e-01  3.57563435e-09  4.72350730e-01  3.57563435e-09  1.79871456e+00  3.57563435e-09  1.80000000e+00  3.57563435e-09  7.41799901e-03  3.57563435e-09  4.72350730e-01                                 
 4.32445076e-09  5.34893695e-01  4.32445076e-09  4.70623580e-01  4.32445076e-09  1.79683414e+00  4.32445076e-09  1.80000000e+00  4.32445076e-09 -7.12330063e-03  4.32445076e-09  4.70623580e-01                                 
 5.74370817e-09  5.31399999e-01  5.74370817e-09  4.67561712e-01  5.74370817e-09  1.79325884e+00  5.74370817e-09  1.80000000e+00  5.74370817e-09  7.07619614e-03  5.74370817e-09  4.67561712e-01                                 
 7.84685262e-09  5.26773076e-01  7.84685262e-09  4.63454722e-01  7.84685262e-09  1.78770459e+00  7.84685262e-09  1.80000000e+00  7.84685262e-09 -6.92801223e-03  7.84685262e-09  4.63454722e-01                                 
 9.30293399e-09  5.23891325e-01  9.30293399e-09  4.60867788e-01  9.30293399e-09  1.78469847e+00  9.30293399e-09  1.80000000e+00  9.30293399e-09  6.87928653e-03  9.30293399e-09  4.60867788e-01                                 
 1.08571399e-08  5.21049985e-01  1.08571399e-08  4.58297821e-01  1.08571399e-08  1.78092561e+00  1.08571399e-08  1.80000000e+00  1.08571399e-08 -6.71998170e-03  1.08571399e-08  4.58297821e-01                                 
 1.24379381e-08  5.18373321e-01  1.24379381e-08  4.55860355e-01  1.24379381e-08  1.77781547e+00  1.24379381e-08  1.80000000e+00  1.24379381e-08  6.67383255e-03  1.24379381e-08  4.55860355e-01                                 
 1.41150054e-08  5.15736719e-01  1.41150054e-08  4.53444684e-01  1.41150054e-08  1.77405549e+00  1.41150054e-08  1.80000000e+00  1.41150054e-08 -6.53069639e-03  1.41150054e-08  4.53444684e-01                                 
 1.56308050e-08  5.13512137e-01  1.56308050e-08  4.51395577e-01  1.56308050e-08  1.77125627e+00  1.56308050e-08  1.80000000e+00  1.56308050e-08  6.47976164e-03  1.56308050e-08  4.51395577e-01                                 
 1.76314753e-08  5.10777411e-01  1.76314753e-08  4.48863416e-01  1.76314753e-08  1.76701141e+00  1.76314753e-08  1.80000000e+00  1.76314753e-08 -6.35606765e-03  1.76314753e-08  4.48863416e-01                                 
 2.00903279e-08  5.07692945e-01  2.00903279e-08  4.45990030e-01  2.00903279e-08  1.76249316e+00  2.00903279e-08  1.80000000e+00  2.00903279e-08  6.34391540e-03  2.00903279e-08  4.45990030e-01                                 
 2.35844864e-08  5.03758021e-01  2.35844864e-08  4.42297086e-01  2.35844864e-08  1.75566864e+00  2.35844864e-08  1.80000000e+00  2.35844864e-08 -6.25368688e-03  2.35844864e-08  4.42297086e-01                                 
 2.83512435e-08  4.99090728e-01  2.83512435e-08  4.37874849e-01  2.83512435e-08  1.74746515e+00  2.83512435e-08  1.80000000e+00  2.83512435e-08  6.27144518e-03  2.83512435e-08  4.37874849e-01                                 
 3.60671028e-08  4.92807920e-01  3.60671028e-08  4.31850151e-01  3.60671028e-08  1.73446158e+00  3.60671028e-08  1.80000000e+00  3.60671028e-08 -6.20374475e-03  3.60671028e-08  4.31850151e-01                                 
 5.13882377e-08  4.83146918e-01  5.13882377e-08  4.22463233e-01  5.13882377e-08  1.71120249e+00  5.13882377e-08  1.80000000e+00  5.13882377e-08  6.24381296e-03  5.13882377e-08  4.22463233e-01                                 
 8.08552759e-08  4.69874548e-01  8.08552759e-08  4.09438887e-01  8.08552759e-08  1.66937685e+00  8.08552759e-08  1.80000000e+00  8.08552759e-08 -6.18879158e-03  8.08552759e-08  4.09438887e-01                                 
 1.15826646e-07  4.58372043e-01  1.15826646e-07  3.98183131e-01  1.15826646e-07  1.62359994e+00  1.15826646e-07  1.80000000e+00  1.15826646e-07  6.23532248e-03  1.15826646e-07  3.98183131e-01                                 
 1.69364073e-07  4.38979285e-01  1.69364073e-07  3.80450805e-01  1.69364073e-07  1.55022622e+00  1.69364073e-07  1.80000000e+00  1.69364073e-07 -6.18214796e-03  1.69364073e-07  3.80450805e-01                                 
 2.32982569e-07  4.16925488e-01  2.32982569e-07  3.60996269e-01  2.32982569e-07  1.46311066e+00  2.32982569e-07  1.80000000e+00  2.32982569e-07  6.23048941e-03  2.32982569e-07  3.60996269e-01                                 
 2.96309193e-07  3.96902150e-01  2.96309193e-07  3.43727031e-01  2.96309193e-07  1.37660556e+00  2.96309193e-07  1.80000000e+00  2.96309193e-07 -6.17755894e-03  2.96309193e-07  3.43727031e-01                                 
 4.13167539e-07  3.50901930e-01  4.13167539e-07  3.05593906e-01  4.13167539e-07  1.20914585e+00  4.13167539e-07  1.80000000e+00  4.13167539e-07  6.22680540e-03  4.13167539e-07  3.05593906e-01                                 
 4.31597031e-07  3.42739728e-01  4.31597031e-07  2.98957819e-01  4.31597031e-07  1.18195652e+00  4.31597031e-07  1.80000000e+00  4.31597031e-07  1.38611867e-05  4.31597031e-07  2.98957819e-01                                 
 4.68456016e-07  3.25950404e-01  4.68456016e-07  2.85345981e-01  4.68456016e-07  1.12818618e+00  4.68456016e-07  1.80000000e+00  4.68456016e-07  9.96492213e-06  4.68456016e-07  2.85345981e-01                                 
 5.42173986e-07  5.09966641e-01  5.42173986e-07  4.37881511e-01  5.42173986e-07  1.22686042e+00  5.42173986e-07  1.80000000e+00  5.42173986e-07  2.52537981e-05  5.42173986e-07  4.37881511e-01                                 
 6.32465694e-07  6.77803689e-01  6.32465694e-07  6.05275830e-01  6.32465694e-07  1.29231135e+00  6.32465694e-07  1.80000000e+00  6.32465694e-07  9.40255977e-06  6.32465694e-07  6.05275830e-01                                 
 7.25271846e-07  7.16544975e-01  7.25271846e-07  6.37509182e-01  7.25271846e-07  1.22894336e+00  7.25271846e-07  1.80000000e+00  7.25271846e-07  1.80790433e-05  7.25271846e-07  6.37509182e-01                                 
 7.95909104e-07  7.01487570e-01  7.95909104e-07  6.25449039e-01  7.95909104e-07  1.14265298e+00  7.95909104e-07  1.80000000e+00  7.95909104e-07  6.40779750e-06  7.95909104e-07  6.25449039e-01                                 
 8.06028850e-07  6.94194075e-01  8.06028850e-07  6.19496953e-01  8.06028850e-07  1.12500865e+00  8.06028850e-07  1.80000000e+00  8.06028850e-07  1.09633881e-05  8.06028850e-07  6.19496953e-01                                 
 8.26268343e-07  6.79522530e-01  8.26268343e-07  6.06991209e-01  8.26268343e-07  1.09127625e+00  8.26268343e-07  1.80000000e+00  8.26268343e-07  1.10449139e-05  8.26268343e-07  6.06991209e-01                                 
 8.66747329e-07  6.68789404e-01  8.66747329e-07  5.97447119e-01  8.66747329e-07  1.04462555e+00  8.66747329e-07  1.80000000e+00  8.66747329e-07  1.33315258e-05  8.66747329e-07  5.97447119e-01                                 
 8.74193313e-07  6.71801628e-01  8.74193313e-07  6.00130140e-01  8.74193313e-07  1.04113614e+00  8.74193313e-07  1.80000000e+00  8.74193313e-07  1.38860052e-05  8.74193313e-07  6.00130140e-01                                 
 8.89085282e-07  6.78685348e-01  8.89085282e-07  6.06192221e-01  8.89085282e-07  1.03520043e+00  8.89085282e-07  1.80000000e+00  8.89085282e-07  1.41917872e-05  8.89085282e-07  6.06192221e-01                                 
 9.18869219e-07  6.90725237e-01  9.18869219e-07  6.16539561e-01  9.18869219e-07  1.02249214e+00  9.18869219e-07  1.80000000e+00  9.18869219e-07  1.36276489e-05  9.18869219e-07  6.16539561e-01                                 
 9.78437093e-07  6.96566221e-01  9.78437093e-07  6.21441357e-01  9.78437093e-07  9.83198010e-01  9.78437093e-07  1.80000000e+00  9.78437093e-07  1.27615512e-05  9.78437093e-07  6.21441357e-01                                 
 1.04714308e-06  6.84640609e-01  1.04714308e-06  6.11389976e-01  1.04714308e-06  9.25898275e-01  1.04714308e-06  1.80000000e+00  1.04714308e-06  1.24230444e-05  1.04714308e-06  6.11389976e-01                                 
 1.14263345e-06  6.86000511e-01  1.14263345e-06  6.12527748e-01  1.14263345e-06  8.66982091e-01  1.14263345e-06  1.80000000e+00  1.14263345e-06  1.37441849e-05  1.14263345e-06  6.12527748e-01                                 
 1.22865998e-06  6.94378042e-01  1.22865998e-06  6.19621464e-01  1.22865998e-06  8.22533446e-01  1.22865998e-06  1.80000000e+00  1.22865998e-06  1.28756432e-05  1.22865998e-06  6.19621464e-01                                 
 1.37387778e-06  6.83554198e-01  1.37387778e-06  6.10446200e-01  1.37387778e-06  7.28959992e-01  1.37387778e-06  1.80000000e+00  1.37387778e-06  1.30057008e-05  1.37387778e-06  6.10446200e-01                                 
 1.51389752e-06  6.90750476e-01  1.51389752e-06  6.16567626e-01  1.51389752e-06  6.67675218e-01  1.51389752e-06  1.80000000e+00  1.51389752e-06  1.36087118e-05  1.51389752e-06  6.16567626e-01                                 
 1.66879426e-06  6.88956345e-01  1.66879426e-06  6.15068667e-01  1.66879426e-06  6.20838813e-01  1.66879426e-06  1.80000000e+00  1.66879426e-06  1.29292876e-05  1.66879426e-06  6.15068667e-01                                 
 1.82488738e-06  6.86507689e-01  1.82488738e-06  6.12967231e-01  1.82488738e-06  6.03695428e-01  1.82488738e-06  1.80000000e+00  1.82488738e-06  1.37698221e-05  1.82488738e-06  6.12967231e-01                                 
 1.99746660e-06  6.91496130e-01  1.99746660e-06  6.17208928e-01  1.99746660e-06  6.17963338e-01  1.99746660e-06  1.80000000e+00  1.99746660e-06  1.32621633e-05  1.99746660e-06  6.17208928e-01                                 
 2.17231609e-06  6.85746012e-01  2.17231609e-06  6.12322442e-01  2.17231609e-06  6.14394144e-01  2.17231609e-06  1.80000000e+00  2.17231609e-06  1.34463099e-05  2.17231609e-06  6.12322442e-01                                 
 2.35393528e-06  6.90728706e-01  2.35393528e-06  6.16556712e-01  2.35393528e-06  6.14807106e-01  2.35393528e-06  1.80000000e+00  2.35393528e-06  1.35104040e-05  2.35393528e-06  6.16556712e-01                                 
 2.60101391e-06  6.87248968e-01  2.60101391e-06  6.13610210e-01  2.60101391e-06  6.15066586e-01  2.60101391e-06  1.80000000e+00  2.60101391e-06  1.32889617e-05  2.60101391e-06  6.13610210e-01                                 
 2.85662399e-06  6.89260562e-01  2.85662399e-06  6.15313756e-01  2.85662399e-06  6.14649479e-01  2.85662399e-06  1.80000000e+00  2.85662399e-06  1.35900342e-05  2.85662399e-06  6.15313756e-01                                 
 3.18728912e-06  6.88619446e-01  3.18728912e-06  6.14776546e-01  3.18728912e-06  6.15630592e-01  3.18728912e-06  1.80000000e+00  3.18728912e-06  1.32567239e-05  3.18728912e-06  6.14776546e-01                                 
 3.64566970e-06  6.88321249e-01  3.64566970e-06  6.14516879e-01  3.64566970e-06  6.14190798e-01  3.64566970e-06  1.80000000e+00  3.64566970e-06  1.35891132e-05  3.64566970e-06  6.14516879e-01                                 
 4.30078819e-06  6.89224042e-01  4.30078819e-06  6.15288928e-01  4.30078819e-06  6.15973522e-01  4.30078819e-06  1.80000000e+00  4.30078819e-06  1.32697156e-05  4.30078819e-06  6.15288928e-01                                 
 5.30078819e-06  6.87943702e-01  5.30078819e-06  6.14196270e-01  5.30078819e-06  6.13965720e-01  5.30078819e-06  1.80000000e+00  5.30078819e-06  1.35748575e-05  5.30078819e-06  6.14196270e-01                                 
 6.30078819e-06  6.89486933e-01  6.30078819e-06  6.15511241e-01  6.30078819e-06  6.16131696e-01  6.30078819e-06  1.80000000e+00  6.30078819e-06  1.32840559e-05  6.30078819e-06  6.15511241e-01                                 
 7.30078819e-06  6.87697813e-01  7.30078819e-06  6.13987434e-01  7.30078819e-06  6.13813824e-01  7.30078819e-06  1.80000000e+00  7.30078819e-06  1.35583528e-05  7.30078819e-06  6.13987434e-01                                 
 8.30078819e-06  6.89698942e-01  8.30078819e-06  6.15690250e-01  8.30078819e-06  6.16259553e-01  8.30078819e-06  1.80000000e+00  8.30078819e-06  1.33025077e-05  8.30078819e-06  6.15690250e-01                                 
 9.30078819e-06  6.87503833e-01  9.30078819e-06  6.13822735e-01  9.30078819e-06  6.13695203e-01  9.30078819e-06  1.80000000e+00  9.30078819e-06  1.35381774e-05  9.30078819e-06  6.13822735e-01                                 
 1.00005000e-05  6.89886959e-01  1.00005000e-05  6.15848820e-01  1.00005000e-05  6.16367236e-01  1.00005000e-05  1.80000000e+00  1.00005000e-05  1.33291439e-05  1.00005000e-05  6.15848820e-01                                 
 1.00005500e-05  6.89885098e-01  1.00005500e-05  6.15847262e-01  1.00005500e-05  6.09640469e-01  1.00005500e-05  1.62000000e+00  1.00005500e-05 -1.21764183e-04  1.00005500e-05  6.15847262e-01                                 
 1.00006500e-05  6.89881307e-01  1.00006500e-05  6.15844084e-01  1.00006500e-05  5.97971928e-01  1.00006500e-05  1.26000000e+00  1.00006500e-05 -1.00470897e-04  1.00006500e-05  6.15844084e-01                                 
 1.00008500e-05  6.89873296e-01  1.00008500e-05  6.15837366e-01  1.00008500e-05  5.88693037e-01  1.00008500e-05  5.40000000e-01  1.00008500e-05  4.74650930e-02  1.00008500e-05  6.15837366e-01                                 
 1.00010000e-05  6.89866912e-01  1.00010000e-05  6.15832025e-01  1.00010000e-05  5.53615239e-01  1.00010000e-05  0.00000000e+00  1.00010000e-05  1.55834319e+00  1.00010000e-05  6.15832025e-01                                 
 1.00010247e-05  6.89865821e-01  1.00010247e-05  6.15831114e-01  1.00010247e-05  5.36500335e-01  1.00010247e-05  0.00000000e+00  1.00010247e-05  1.70595923e+00  1.00010247e-05  6.15831114e-01                                 
 1.00010742e-05  6.89863653e-01  1.00010742e-05  6.15829293e-01  1.00010742e-05  5.09850605e-01  1.00010742e-05  0.00000000e+00  1.00010742e-05  1.81813411e+00  1.00010742e-05  6.15829293e-01                                 
 1.00011731e-05  6.89859293e-01  1.00011731e-05  6.15825624e-01  1.00011731e-05  4.94282022e-01  1.00011731e-05  0.00000000e+00  1.00011731e-05  1.78991123e+00  1.00011731e-05  6.15825624e-01                                 
 1.00013136e-05  6.89852913e-01  1.00013136e-05  6.15820281e-01  1.00013136e-05  4.98039101e-01  1.00013136e-05  0.00000000e+00  1.00013136e-05  1.80669105e+00  1.00013136e-05  6.15820281e-01                                 
 1.00014669e-05  6.89845760e-01  1.00014669e-05  6.15814284e-01  1.00014669e-05  4.97584621e-01  1.00014669e-05  0.00000000e+00  1.00014669e-05  1.79551339e+00  1.00014669e-05  6.15814284e-01                                 
 1.00017540e-05  6.89831956e-01  1.00017540e-05  6.15802696e-01  1.00017540e-05  4.98446662e-01  1.00017540e-05  0.00000000e+00  1.00017540e-05  1.80366114e+00  1.00017540e-05  6.15802696e-01                                 
 1.00023282e-05  6.89803262e-01  1.00023282e-05  6.15778564e-01  1.00023282e-05  4.98153287e-01  1.00023282e-05  0.00000000e+00  1.00023282e-05  1.79669008e+00  1.00023282e-05  6.15778564e-01                                 
 1.00031680e-05  6.89759666e-01  1.00031680e-05  6.15741822e-01  1.00031680e-05  4.98566784e-01  1.00031680e-05  0.00000000e+00  1.00031680e-05  1.80307426e+00  1.00031680e-05  6.15741822e-01                                 
 1.00048477e-05  6.89668901e-01  1.00048477e-05  6.15665203e-01  1.00048477e-05  4.98621710e-01  1.00048477e-05  0.00000000e+00  1.00048477e-05  1.79702384e+00  1.00048477e-05  6.15665203e-01                                 
