 time            v(vbep)         time            v(vben)         time            v(vout)         time            v(vphi1)        time            v(vphi2)        time            v(vref)         time            v(voutc)        time            v(voutcc)       yes             currtemp       
 0.00000000e+00  7.28213818e-01  0.00000000e+00  6.63486729e-01  0.00000000e+00  1.51379014e+00  0.00000000e+00  0.00000000e+00  0.00000000e+00  1.79999999e+00  0.00000000e+00  6.64588204e-01  0.00000000e+00  1.51379014e+00  0.00000000e+00  1.52104989e+00  1.00000000e+00  5.70000000e+01 
 1.00000000e-11  7.28238927e-01  1.00000000e-11  6.63558882e-01  1.00000000e-11  1.51455864e+00  1.00000000e-11  1.80000000e-02  1.00000000e-11  1.80025331e+00  1.00000000e-11  6.65122260e-01  1.00000000e-11  1.51426177e+00  1.00000000e-11  1.52106167e+00                                 
 2.00000000e-11  7.28245780e-01  2.00000000e-11  6.63603690e-01  2.00000000e-11  1.51502247e+00  2.00000000e-11  3.60000000e-02  2.00000000e-11  1.80035276e+00  2.00000000e-11  6.65517506e-01  2.00000000e-11  1.51461642e+00  2.00000000e-11  1.52106552e+00                                 
 4.00000000e-11  7.28245791e-01  4.00000000e-11  6.63662402e-01  4.00000000e-11  1.51557058e+00  4.00000000e-11  7.20000000e-02  4.00000000e-11  1.80038959e+00  4.00000000e-11  6.66095107e-01  4.00000000e-11  1.51514269e+00  4.00000000e-11  1.52106565e+00                                 
 8.00000000e-11  7.28234176e-01  8.00000000e-11  6.63699548e-01  8.00000000e-11  1.51565753e+00  8.00000000e-11  1.44000000e-01  8.00000000e-11  1.80018440e+00  8.00000000e-11  6.66544308e-01  8.00000000e-11  1.51556521e+00  8.00000000e-11  1.52105491e+00                                 
 1.60000000e-10  7.28231435e-01  1.60000000e-10  6.63709697e-01  1.60000000e-10  1.51532035e+00  1.60000000e-10  2.88000000e-01  1.60000000e-10  1.80000535e+00  1.60000000e-10  6.66633664e-01  1.60000000e-10  1.51560976e+00  1.60000000e-10  1.52104568e+00                                 
 3.20000000e-10  7.28226996e-01  3.20000000e-10  6.63701944e-01  3.20000000e-10  1.51493627e+00  3.20000000e-10  5.76000000e-01  3.20000000e-10  1.79998315e+00  3.20000000e-10  6.66471645e-01  3.20000000e-10  1.51526822e+00  3.20000000e-10  1.52104071e+00                                 
 6.40000000e-10  7.28143661e-01  6.40000000e-10  6.63286579e-01  6.40000000e-10  1.51316055e+00  6.40000000e-10  1.15200000e+00  6.40000000e-10  1.81027146e+00  6.40000000e-10  6.63823342e-01  6.40000000e-10  1.51931910e+00  6.40000000e-10  1.52106692e+00                                 
 1.00000000e-09  7.28733767e-01  1.00000000e-09  6.63642024e-01  1.00000000e-09  1.49155360e+00  1.00000000e-09  1.80000000e+00  1.00000000e-09  1.00714800e-01  1.00000000e-09  6.78371623e-01  1.00000000e-09  1.52323046e+00  1.00000000e-09  1.52105739e+00                                 
 1.03699184e-09  7.28800107e-01  1.03699184e-09  6.63661226e-01  1.03699184e-09  1.49022064e+00  1.03699184e-09  1.80000000e+00  1.03699184e-09  2.33709823e-02  1.03699184e-09  6.81542666e-01  1.03699184e-09  1.52498927e+00  1.03699184e-09  1.52108570e+00                                 
 1.11097552e-09  7.28957712e-01  1.11097552e-09  6.63708394e-01  1.11097552e-09  1.48855910e+00  1.11097552e-09  1.80000000e+00  1.11097552e-09 -1.10112004e-02  1.11097552e-09  6.85588864e-01  1.11097552e-09  1.52813482e+00  1.11097552e-09  1.52110376e+00                                 
 1.25894287e-09  7.29086740e-01  1.25894287e-09  6.63566122e-01  1.25894287e-09  1.48560888e+00  1.25894287e-09  1.80000000e+00  1.25894287e-09  8.83251600e-03  1.25894287e-09  6.85664716e-01  1.25894287e-09  1.52847879e+00  1.25894287e-09  1.52105582e+00                                 
 1.44883747e-09  7.29058708e-01  1.44883747e-09  6.63546926e-01  1.44883747e-09  1.48482837e+00  1.44883747e-09  1.80000000e+00  1.44883747e-09 -6.76305289e-03  1.44883747e-09  6.84768574e-01  1.44883747e-09  1.52749997e+00  1.44883747e-09  1.52109123e+00                                 
 1.66088568e-09  7.28959416e-01  1.66088568e-09  6.63543453e-01  1.66088568e-09  1.48460001e+00  1.66088568e-09  1.80000000e+00  1.66088568e-09  5.64930856e-03  1.66088568e-09  6.83193203e-01  1.66088568e-09  1.52634030e+00  1.66088568e-09  1.52111647e+00                                 
 2.01461108e-09  7.28710837e-01  2.01461108e-09  6.63497522e-01  2.01461108e-09  1.48432134e+00  2.01461108e-09  1.80000000e+00  2.01461108e-09 -5.05397959e-03  2.01461108e-09  6.80552340e-01  2.01461108e-09  1.52392372e+00  2.01461108e-09  1.52123209e+00                                 
 2.50874660e-09  7.28447859e-01  2.50874660e-09  6.63500451e-01  2.50874660e-09  1.48422586e+00  2.50874660e-09  1.80000000e+00  2.50874660e-09  4.57308541e-03  2.50874660e-09  6.77476365e-01  2.50874660e-09  1.52143760e+00  2.50874660e-09  1.52138985e+00                                 
 3.21846705e-09  7.28198658e-01  3.21846705e-09  6.63454374e-01  3.21846705e-09  1.48327934e+00  3.21846705e-09  1.80000000e+00  3.21846705e-09 -4.39368125e-03  3.21846705e-09  6.73354357e-01  3.21846705e-09  1.51777813e+00  3.21846705e-09  1.52161824e+00                                 
 4.30968602e-09  7.28053592e-01  4.30968602e-09  6.63471701e-01  4.30968602e-09  1.48179116e+00  4.30968602e-09  1.80000000e+00  4.30968602e-09  4.17899339e-03  4.30968602e-09  6.69115927e-01  4.30968602e-09  1.51428986e+00  4.30968602e-09  1.52184654e+00                                 
 5.92063673e-09  7.27993241e-01  5.92063673e-09  6.63446515e-01  5.92063673e-09  1.47777270e+00  5.92063673e-09  1.80000000e+00  5.92063673e-09 -4.10699703e-03  5.92063673e-09  6.65050004e-01  5.92063673e-09  1.51069932e+00  5.92063673e-09  1.52194286e+00                                 
 7.34706138e-09  7.28029333e-01  7.34706138e-09  6.63481803e-01  7.34706138e-09  1.47320119e+00  7.34706138e-09  1.80000000e+00  7.34706138e-09  3.97653962e-03  7.34706138e-09  6.63623694e-01  7.34706138e-09  1.50960941e+00  7.34706138e-09  1.52182480e+00                                 
 8.91685121e-09  7.28065206e-01  8.91685121e-09  6.63459784e-01  8.91685121e-09  1.46621667e+00  8.91685121e-09  1.80000000e+00  8.91685121e-09 -3.88510805e-03  8.91685121e-09  6.62574115e-01  8.91685121e-09  1.50859254e+00  8.91685121e-09  1.52158910e+00                                 
 1.03457909e-08  7.28118666e-01  1.03457909e-08  6.63492927e-01  1.03457909e-08  1.45921005e+00  1.03457909e-08  1.80000000e+00  1.03457909e-08  3.77342476e-03  1.03457909e-08  6.62532843e-01  1.03457909e-08  1.50866906e+00  1.03457909e-08  1.52132316e+00                                 
 1.25175157e-08  7.28158633e-01  1.25175157e-08  6.63468532e-01  1.25175157e-08  1.44662585e+00  1.25175157e-08  1.80000000e+00  1.25175157e-08 -3.70671418e-03  1.25175157e-08  6.62267352e-01  1.25175157e-08  1.50831414e+00  1.25175157e-08  1.52091310e+00                                 
 1.49297369e-08  7.28203755e-01  1.49297369e-08  6.63499770e-01  1.49297369e-08  1.43189859e+00  1.49297369e-08  1.80000000e+00  1.49297369e-08  3.64582442e-03  1.49297369e-08  6.62690645e-01  1.49297369e-08  1.50877080e+00  1.49297369e-08  1.52047745e+00                                 
 1.86021370e-08  7.28216374e-01  1.86021370e-08  6.63472610e-01  1.86021370e-08  1.40767172e+00  1.86021370e-08  1.80000000e+00  1.86021370e-08 -3.60589988e-03  1.86021370e-08  6.62819563e-01  1.86021370e-08  1.50874428e+00  1.86021370e-08  1.51990589e+00                                 
 2.31588983e-08  7.28232464e-01  2.31588983e-08  6.63501903e-01  2.31588983e-08  1.37723429e+00  2.31588983e-08  1.80000000e+00  2.31588983e-08  3.57547384e-03  2.31588983e-08  6.63462824e-01  2.31588983e-08  1.50937974e+00  2.31588983e-08  1.51933711e+00                                 
 3.14053985e-08  7.28218453e-01  3.14053985e-08  6.63473164e-01  3.14053985e-08  1.32086728e+00  3.14053985e-08  1.80000000e+00  3.14053985e-08 -3.55748816e-03  3.14053985e-08  6.63735646e-01  3.14053985e-08  1.50947543e+00  3.14053985e-08  1.51862157e+00                                 
 4.41990881e-08  7.28222985e-01  4.41990881e-08  6.63501508e-01  4.41990881e-08  1.23381580e+00  4.41990881e-08  1.80000000e+00  4.41990881e-08  3.54711246e-03  4.41990881e-08  6.64395970e-01  4.41990881e-08  1.51013009e+00  4.41990881e-08  1.51801013e+00                                 
 6.97864673e-08  7.28209065e-01  6.97864673e-08  6.63472383e-01  6.97864673e-08  1.06010913e+00  6.97864673e-08  1.80000000e+00  6.97864673e-08 -3.54073457e-03  6.97864673e-08  6.64435120e-01  6.97864673e-08  1.51004533e+00  6.97864673e-08  1.51757760e+00                                 
 1.02675973e-07  7.28218119e-01  1.02675973e-07  6.63501038e-01  1.02675973e-07  8.44081362e-01  1.02675973e-07  1.80000000e+00  1.02675973e-07  3.53888928e-03  1.02675973e-07  6.64705204e-01  1.02675973e-07  1.51038419e+00  1.02675973e-07  1.51750062e+00                                 
 1.34123902e-07  7.28212425e-01  1.34123902e-07  6.63472472e-01  1.34123902e-07  7.02454458e-01  1.34123902e-07  1.80000000e+00  1.34123902e-07 -3.52604889e-03  1.34123902e-07  6.64468365e-01  1.34123902e-07  1.51007156e+00  1.34123902e-07  1.51749510e+00                                 
 1.57798757e-07  7.28214978e-01  1.57798757e-07  6.63501210e-01  1.57798757e-07  6.70332315e-01  1.57798757e-07  1.80000000e+00  1.57798757e-07  3.53418177e-03  1.57798757e-07  6.64714805e-01  1.57798757e-07  1.51039004e+00  1.57798757e-07  1.51749423e+00                                 
 1.80317597e-07  7.28210330e-01  1.80317597e-07  6.63472039e-01  1.80317597e-07  6.66307361e-01  1.80317597e-07  1.80000000e+00  1.80317597e-07 -3.51272988e-03  1.80317597e-07  6.64466804e-01  1.80317597e-07  1.51006889e+00  1.80317597e-07  1.51749495e+00                                 
 2.03090000e-07  7.28217042e-01  2.03090000e-07  6.63501404e-01  2.03090000e-07  6.65859867e-01  2.03090000e-07  1.80000000e+00  2.03090000e-07  3.52241365e-03  2.03090000e-07  6.64710419e-01  2.03090000e-07  1.51038459e+00  2.03090000e-07  1.51749198e+00                                 
 2.28924959e-07  7.28210224e-01  2.28924959e-07  6.63472038e-01  2.28924959e-07  6.65670893e-01  2.28924959e-07  1.80000000e+00  2.28924959e-07 -3.50159003e-03  2.28924959e-07  6.64466381e-01  2.28924959e-07  1.51006702e+00  2.28924959e-07  1.51749152e+00                                 
 2.80594877e-07  7.28217524e-01  2.80594877e-07  6.63501405e-01  2.80594877e-07  6.65770025e-01  2.80594877e-07  1.80000000e+00  2.80594877e-07  3.51457507e-03  2.80594877e-07  6.64709934e-01  2.80594877e-07  1.51038146e+00  2.80594877e-07  1.51748825e+00                                 
 3.83934714e-07  7.28210054e-01  3.83934714e-07  6.63472046e-01  3.83934714e-07  6.65661062e-01  3.83934714e-07  1.80000000e+00  3.83934714e-07 -3.49768365e-03  3.83934714e-07  6.64466451e-01  3.83934714e-07  1.51006201e+00  3.83934714e-07  1.51748582e+00                                 
 5.90614387e-07  7.28217611e-01  5.90614387e-07  6.63501401e-01  5.90614387e-07  6.65772749e-01  5.90614387e-07  1.80000000e+00  5.90614387e-07  3.51261792e-03  5.90614387e-07  6.64709899e-01  5.90614387e-07  1.51037116e+00  5.90614387e-07  1.51747801e+00                                 
 1.00397373e-06  7.28210011e-01  1.00397373e-06  6.63472048e-01  1.00397373e-06  6.65659905e-01  1.00397373e-06  1.80000000e+00  1.00397373e-06 -3.49671197e-03  1.00397373e-06  6.64466468e-01  1.00397373e-06  1.51004154e+00  1.00397373e-06  1.51746535e+00                                 
 1.83069243e-06  7.28217632e-01  1.83069243e-06  6.63501400e-01  1.83069243e-06  6.65773295e-01  1.83069243e-06  1.80000000e+00  1.83069243e-06  3.51212886e-03  1.83069243e-06  6.64709891e-01  1.83069243e-06  1.51033015e+00  1.83069243e-06  1.51743707e+00                                 
 3.03069243e-06  7.28210000e-01  3.03069243e-06  6.63472049e-01  3.03069243e-06  6.65659607e-01  3.03069243e-06  1.80000000e+00  3.03069243e-06 -3.49645021e-03  3.03069243e-06  6.64466472e-01  3.03069243e-06  1.50997456e+00  3.03069243e-06  1.51739845e+00                                 
 4.23069243e-06  7.28217641e-01  4.23069243e-06  6.63501399e-01  4.23069243e-06  6.65773537e-01  4.23069243e-06  1.80000000e+00  4.23069243e-06  3.51190512e-03  4.23069243e-06  6.64709888e-01  4.23069243e-06  1.51025085e+00  4.23069243e-06  1.51735788e+00                                 
 5.43069243e-06  7.28209990e-01  5.43069243e-06  6.63472050e-01  5.43069243e-06  6.65659371e-01  5.43069243e-06  1.80000000e+00  5.43069243e-06 -3.49623223e-03  5.43069243e-06  6.64466476e-01  5.43069243e-06  1.50989532e+00  5.43069243e-06  1.51731930e+00                                 
 6.00100000e-06  7.28217656e-01  6.00100000e-06  6.63501398e-01  6.00100000e-06  6.65773897e-01  6.00100000e-06  1.80000000e+00  6.00100000e-06  3.51155662e-03  6.00100000e-06  6.64709882e-01  6.00100000e-06  1.51019240e+00  6.00100000e-06  1.51729951e+00                                 
 6.00110000e-06  7.28165453e-01  6.00110000e-06  6.63249025e-01  6.00110000e-06  6.63904691e-01  6.00110000e-06  1.62000000e+00  6.00110000e-06  2.08414400e-04  6.00110000e-06  6.63024448e-01  6.00110000e-06  1.50870265e+00  6.00110000e-06  1.51728872e+00                                 
 6.00130000e-06  7.28197958e-01  6.00130000e-06  6.63246767e-01  6.00130000e-06  6.64017607e-01  6.00130000e-06  1.26000000e+00  6.00130000e-06 -2.43073151e-04  6.00130000e-06  6.62801599e-01  6.00130000e-06  1.50850621e+00  6.00130000e-06  1.51730522e+00                                 
 6.00165659e-06  7.28261520e-01  6.00165659e-06  6.63443750e-01  6.00165659e-06  6.66008478e-01  6.00165659e-06  6.18143910e-01  6.00165659e-06  3.94843289e-03  6.00165659e-06  6.63145702e-01  6.00165659e-06  1.50552606e+00  6.00165659e-06  1.51728161e+00                                 
 6.00200000e-06  7.28200180e-01  6.00200000e-06  6.61995661e-01  6.00200000e-06  6.98436464e-01  6.00200000e-06  0.00000000e+00  6.00200000e-06  1.60122320e+00  6.00200000e-06  6.47836870e-01  6.00200000e-06  1.31261463e+00  6.00200000e-06  1.51670311e+00                                 
 6.00204112e-06  7.28215397e-01  6.00204112e-06  6.61543809e-01  6.00204112e-06  7.05030717e-01  6.00204112e-06  0.00000000e+00  6.00204112e-06  1.72266362e+00  6.00204112e-06  6.42714179e-01  6.00204112e-06  1.25106241e+00  6.00204112e-06  1.51670758e+00                                 
 6.00212337e-06  7.28216208e-01  6.00212337e-06  6.60736166e-01  6.00212337e-06  7.09816010e-01  6.00212337e-06  0.00000000e+00  6.00212337e-06  1.81334732e+00  6.00212337e-06  6.33804255e-01  6.00212337e-06  1.12394530e+00  6.00212337e-06  1.51707718e+00                                 
 6.00228787e-06  7.28211789e-01  6.00228787e-06  6.60612299e-01  6.00228787e-06  7.00731802e-01  6.00228787e-06  0.00000000e+00  6.00228787e-06  1.78947373e+00  6.00228787e-06  6.33267431e-01  6.00228787e-06  9.22214319e-01  6.00228787e-06  1.51756193e+00                                 
 6.00244374e-06  7.28214308e-01  6.00244374e-06  6.61226158e-01  6.00244374e-06  6.92981656e-01  6.00244374e-06  0.00000000e+00  6.00244374e-06  1.80377604e+00  6.00244374e-06  6.40277023e-01  6.00244374e-06  8.03308003e-01  6.00244374e-06  1.51753140e+00                                 
 6.00262964e-06  7.28211006e-01  6.00262964e-06  6.62103958e-01  6.00262964e-06  6.80926375e-01  6.00262964e-06  0.00000000e+00  6.00262964e-06  1.79677991e+00  6.00262964e-06  6.49033709e-01  6.00262964e-06  7.21219378e-01  6.00262964e-06  1.51774448e+00                                 
 6.00285485e-06  7.28214092e-01  6.00285485e-06  6.63120222e-01  6.00285485e-06  6.71413850e-01  6.00285485e-06  0.00000000e+00  6.00285485e-06  1.80190017e+00  6.00285485e-06  6.58714815e-01  6.00285485e-06  6.84377237e-01  6.00285485e-06  1.51751519e+00                                 
 6.00307650e-06  7.28211443e-01  6.00307650e-06  6.63562774e-01  6.00307650e-06  6.68302174e-01  6.00307650e-06  0.00000000e+00  6.00307650e-06  1.79885543e+00  6.00307650e-06  6.62005698e-01  6.00307650e-06  6.71902723e-01  6.00307650e-06  1.51702425e+00                                 
 6.00332670e-06  7.28214301e-01  6.00332670e-06  6.63872544e-01  6.00332670e-06  6.66674007e-01  6.00332670e-06  0.00000000e+00  6.00332670e-06  1.80083125e+00  6.00332670e-06  6.64554324e-01  6.00332670e-06  6.68387875e-01  6.00332670e-06  1.51604388e+00                                 
 6.00366562e-06  7.28212122e-01  6.00366562e-06  6.63946620e-01  6.00366562e-06  6.67055116e-01  6.00366562e-06  0.00000000e+00  6.00366562e-06  1.79942024e+00  6.00366562e-06  6.64996508e-01  6.00366562e-06  6.66721518e-01  6.00366562e-06  1.51454060e+00                                 
 6.00420603e-06  7.28214651e-01  6.00420603e-06  6.63987674e-01  6.00420603e-06  6.67777405e-01  6.00420603e-06  0.00000000e+00  6.00420603e-06  1.80050867e+00  6.00420603e-06  6.65838673e-01  6.00420603e-06  6.67917350e-01  6.00420603e-06  1.51172042e+00                                 
 6.00508440e-06  7.28212629e-01  6.00508440e-06  6.63892136e-01  6.00508440e-06  6.70425169e-01  6.00508440e-06  0.00000000e+00  6.00508440e-06  1.79957196e+00  6.00508440e-06  6.65632699e-01  6.00508440e-06  6.69758264e-01  6.00508440e-06  1.50682507e+00                                 
 6.00667567e-06  7.28214847e-01  6.00667567e-06  6.63806988e-01  6.00667567e-06  6.74559095e-01  6.00667567e-06  0.00000000e+00  6.00667567e-06  1.80042541e+00  6.00667567e-06  6.66058885e-01  6.00667567e-06  6.74578333e-01  6.00667567e-06  1.49730788e+00                                 
 6.00985822e-06  7.28212755e-01  6.00985822e-06  6.63591150e-01  6.00985822e-06  6.83988584e-01  6.00985822e-06  0.00000000e+00  6.00985822e-06  1.79961165e+00  6.00985822e-06  6.65557795e-01  6.00985822e-06  6.83262225e-01  6.00985822e-06  1.47748925e+00                                 
 6.01622331e-06  7.28214864e-01  6.01622331e-06  6.63479020e-01  6.01622331e-06  7.01439459e-01  6.01622331e-06  0.00000000e+00  6.01622331e-06  1.80040503e+00  6.01622331e-06  6.65556023e-01  6.01622331e-06  7.01449077e-01  6.01622331e-06  1.43661856e+00                                 
 6.02895348e-06  7.28212769e-01  6.02895348e-06  6.63459244e-01  6.02895348e-06  7.35698924e-01  6.02895348e-06  0.00000000e+00  6.02895348e-06  1.79962029e+00  6.02895348e-06  6.64751499e-01  6.02895348e-06  7.34855858e-01  6.02895348e-06  1.35909485e+00                                 
 6.04365937e-06  7.28214862e-01  6.04365937e-06  6.63497001e-01  6.04365937e-06  7.71937202e-01  6.04365937e-06  0.00000000e+00  6.04365937e-06  1.80039782e+00  6.04365937e-06  6.64874181e-01  6.04365937e-06  7.72004702e-01  6.04365937e-06  1.27848468e+00                                 
 6.07307116e-06  7.28212774e-01  6.07307116e-06  6.63472047e-01  6.07307116e-06  8.37664632e-01  6.07307116e-06  0.00000000e+00  6.07307116e-06  1.79962176e+00  6.07307116e-06  6.64407959e-01  6.07307116e-06  8.36328668e-01  6.07307116e-06  1.13740850e+00                                 
 6.11778271e-06  7.28214861e-01  6.11778271e-06  6.63501368e-01  6.11778271e-06  9.19135202e-01  6.11778271e-06  0.00000000e+00  6.11778271e-06  1.80039185e+00  6.11778271e-06  6.64751761e-01  6.11778271e-06  9.19572667e-01  6.11778271e-06  9.89540257e-01                                 
 6.20720581e-06  7.28212775e-01  6.20720581e-06  6.63472109e-01  6.20720581e-06  1.03385992e+00  6.20720581e-06  0.00000000e+00  6.20720581e-06  1.79961749e+00  6.20720581e-06  6.64407185e-01  6.20720581e-06  1.03129230e+00  6.20720581e-06  9.81095224e-01                                 
 6.26495033e-06  7.28214860e-01  6.26495033e-06  6.63501431e-01  6.26495033e-06  1.08038470e+00  6.26495033e-06  0.00000000e+00  6.26495033e-06  1.80038691e+00  6.26495033e-06  6.64761085e-01  6.26495033e-06  1.08158511e+00  6.26495033e-06  1.06616729e+00                                 
