 time            v(vbep)         time            v(vben)         time            v(vout)         time            v(vphi1)        time            v(vphi2)        time            v(vref)         time            v(voutc)        time            v(voutcc)       yes             currtemp       
 0.00000000e+00  7.19047125e-01  0.00000000e+00  6.53018157e-01  0.00000000e+00  1.49404614e+00  0.00000000e+00  0.00000000e+00  0.00000000e+00  1.79999999e+00  0.00000000e+00  6.53783464e-01  0.00000000e+00  1.49404613e+00  0.00000000e+00  1.50149155e+00  1.00000000e+00  6.30000000e+01 
 1.00000000e-11  7.19072230e-01  1.00000000e-11  6.53090695e-01  1.00000000e-11  1.49481182e+00  1.00000000e-11  1.80000000e-02  1.00000000e-11  1.80025379e+00  1.00000000e-11  6.54317769e-01  1.00000000e-11  1.49451773e+00  1.00000000e-11  1.50150502e+00                                 
 2.00000000e-11  7.19079056e-01  2.00000000e-11  6.53135592e-01  2.00000000e-11  1.49527147e+00  2.00000000e-11  3.60000000e-02  2.00000000e-11  1.80035306e+00  2.00000000e-11  6.54712775e-01  2.00000000e-11  1.49487164e+00  2.00000000e-11  1.50150975e+00                                 
 4.00000000e-11  7.19079041e-01  4.00000000e-11  6.53194277e-01  4.00000000e-11  1.49581147e+00  4.00000000e-11  7.20000000e-02  4.00000000e-11  1.80038927e+00  4.00000000e-11  6.55289810e-01  4.00000000e-11  1.49539600e+00  4.00000000e-11  1.50151085e+00                                 
 8.00000000e-11  7.19067445e-01  8.00000000e-11  6.53231090e-01  8.00000000e-11  1.49588916e+00  8.00000000e-11  1.44000000e-01  8.00000000e-11  1.80018356e+00  8.00000000e-11  6.55739023e-01  8.00000000e-11  1.49581513e+00  8.00000000e-11  1.50150033e+00                                 
 1.60000000e-10  7.19064714e-01  1.60000000e-10  6.53240913e-01  1.60000000e-10  1.49555149e+00  1.60000000e-10  2.88000000e-01  1.60000000e-10  1.80000589e+00  1.60000000e-10  6.55833611e-01  1.60000000e-10  1.49585911e+00  1.60000000e-10  1.50149114e+00                                 
 3.20000000e-10  7.19060087e-01  3.20000000e-10  6.53231491e-01  3.20000000e-10  1.49516396e+00  3.20000000e-10  5.76000000e-01  3.20000000e-10  1.79998154e+00  3.20000000e-10  6.55667535e-01  3.20000000e-10  1.49550899e+00  3.20000000e-10  1.50148600e+00                                 
 6.40000000e-10  7.18977098e-01  6.40000000e-10  6.52802553e-01  6.40000000e-10  1.49348529e+00  6.40000000e-10  1.15200000e+00  6.40000000e-10  1.80971602e+00  6.40000000e-10  6.52861917e-01  6.40000000e-10  1.49925026e+00  6.40000000e-10  1.50151101e+00                                 
 1.00000000e-09  7.19544698e-01  1.00000000e-09  6.53192258e-01  1.00000000e-09  1.47297989e+00  1.00000000e-09  1.80000000e+00  1.00000000e-09  1.03443684e-01  1.00000000e-09  6.68505346e-01  1.00000000e-09  1.50441297e+00  1.00000000e-09  1.50151146e+00                                 
 1.03718705e-09  7.19616879e-01  1.03718705e-09  6.53204484e-01  1.03718705e-09  1.47155665e+00  1.03718705e-09  1.80000000e+00  1.03718705e-09  2.42921423e-02  1.03718705e-09  6.71732244e-01  1.03718705e-09  1.50620723e+00  1.03718705e-09  1.50153613e+00                                 
 1.11156114e-09  7.19785542e-01  1.11156114e-09  6.53242088e-01  1.11156114e-09  1.46970204e+00  1.11156114e-09  1.80000000e+00  1.11156114e-09 -1.13533308e-02  1.11156114e-09  6.75822393e-01  1.11156114e-09  1.50938509e+00  1.11156114e-09  1.50155112e+00                                 
 1.26030932e-09  7.19919687e-01  1.26030932e-09  6.53093569e-01  1.26030932e-09  1.46650088e+00  1.26030932e-09  1.80000000e+00  1.26030932e-09  9.00404820e-03  1.26030932e-09  6.75836838e-01  1.26030932e-09  1.50968394e+00  1.26030932e-09  1.50150327e+00                                 
 1.44599213e-09  7.19891940e-01  1.44599213e-09  6.53077058e-01  1.44599213e-09  1.46559608e+00  1.44599213e-09  1.80000000e+00  1.44599213e-09 -6.86697896e-03  1.44599213e-09  6.74873555e-01  1.44599213e-09  1.50864486e+00  1.44599213e-09  1.50154036e+00                                 
 1.65460262e-09  7.19790896e-01  1.65460262e-09  6.53074850e-01  1.65460262e-09  1.46528224e+00  1.65460262e-09  1.80000000e+00  1.65460262e-09  5.67976661e-03  1.65460262e-09  6.73251431e-01  1.65460262e-09  1.50744646e+00  1.65460262e-09  1.50157203e+00                                 
 2.00242744e-09  7.19542474e-01  2.00242744e-09  6.53030748e-01  2.00242744e-09  1.46489185e+00  2.00242744e-09  1.80000000e+00  2.00242744e-09 -5.05797044e-03  2.00242744e-09  6.70532181e-01  2.00242744e-09  1.50496158e+00  2.00242744e-09  1.50169872e+00                                 
 2.52186350e-09  7.19264459e-01  2.52186350e-09  6.53034385e-01  2.52186350e-09  1.46461858e+00  2.52186350e-09  1.80000000e+00  2.52186350e-09  4.59873098e-03  2.52186350e-09  6.67145017e-01  2.52186350e-09  1.50220857e+00  2.52186350e-09  1.50188735e+00                                 
 3.27142045e-09  7.19010561e-01  3.27142045e-09  6.52987496e-01  3.27142045e-09  1.46331613e+00  3.27142045e-09  1.80000000e+00  3.27142045e-09 -4.41436869e-03  3.27142045e-09  6.62665396e-01  3.27142045e-09  1.49824209e+00  3.27142045e-09  1.50215336e+00                                 
 4.47905881e-09  7.18870775e-01  4.47905881e-09  6.53004014e-01  4.47905881e-09  1.46088109e+00  4.47905881e-09  1.80000000e+00  4.47905881e-09  4.22123344e-03  4.47905881e-09  6.57936890e-01  4.47905881e-09  1.49433661e+00  4.47905881e-09  1.50241903e+00                                 
 6.09081463e-09  7.18829528e-01  6.09081463e-09  6.52977813e-01  6.09081463e-09  1.45567016e+00  6.09081463e-09  1.80000000e+00  6.09081463e-09 -4.14012469e-03  6.09081463e-09  6.53988056e-01  6.09081463e-09  1.49084578e+00  6.09081463e-09  1.50249592e+00                                 
 7.49593272e-09  7.18870794e-01  7.49593272e-09  6.53012722e-01  7.49593272e-09  1.45015981e+00  7.49593272e-09  1.80000000e+00  7.49593272e-09  4.00779465e-03  7.49593272e-09  6.52643646e-01  7.49593272e-09  1.48982617e+00  7.49593272e-09  1.50235622e+00                                 
 9.03649700e-09  7.18906378e-01  9.03649700e-09  6.52990288e-01  9.03649700e-09  1.44233008e+00  9.03649700e-09  1.80000000e+00  9.03649700e-09 -3.90974392e-03  9.03649700e-09  6.51632350e-01  9.03649700e-09  1.48884021e+00  9.03649700e-09  1.50210162e+00                                 
 1.04892454e-08  7.18959750e-01  1.04892454e-08  6.53024142e-01  1.04892454e-08  1.43436759e+00  1.04892454e-08  1.80000000e+00  1.04892454e-08  3.79811047e-03  1.04892454e-08  6.51600609e-01  1.04892454e-08  1.48892425e+00  1.04892454e-08  1.50181229e+00                                 
 1.26506089e-08  7.18996333e-01  1.26506089e-08  6.52999600e-01  1.26506089e-08  1.42070324e+00  1.26506089e-08  1.80000000e+00  1.26506089e-08 -3.72827952e-03  1.26506089e-08  6.51352015e-01  1.26506089e-08  1.48858163e+00  1.26506089e-08  1.50137948e+00                                 
 1.50766158e-08  7.19039825e-01  1.50766158e-08  6.53031405e-01  1.50766158e-08  1.40468030e+00  1.50766158e-08  1.80000000e+00  1.50766158e-08  3.66680294e-03  1.50766158e-08  6.51794100e-01  1.50766158e-08  1.48905356e+00  1.50766158e-08  1.50091992e+00                                 
 1.87033012e-08  7.19050018e-01  1.87033012e-08  6.53003834e-01  1.87033012e-08  1.37902542e+00  1.87033012e-08  1.80000000e+00  1.87033012e-08 -3.62468499e-03  1.87033012e-08  6.51938679e-01  1.87033012e-08  1.48903918e+00  1.87033012e-08  1.50033239e+00                                 
 2.32547158e-08  7.19066300e-01  2.32547158e-08  6.53033600e-01  2.32547158e-08  1.34650784e+00  2.32547158e-08  1.80000000e+00  2.32547158e-08  3.59402260e-03  2.32547158e-08  6.52604460e-01  2.32547158e-08  1.48969395e+00  2.32547158e-08  1.49974837e+00                                 
 3.13566593e-08  7.19051686e-01  3.13566593e-08  6.53004448e-01  3.13566593e-08  1.28745288e+00  3.13566593e-08  1.80000000e+00  3.13566593e-08 -3.57460903e-03  3.13566593e-08  6.52894812e-01  3.13566593e-08  1.48980479e+00  3.13566593e-08  1.49903877e+00                                 
 4.41455181e-08  7.19056564e-01  4.41455181e-08  6.53033228e-01  4.41455181e-08  1.19478558e+00  4.41455181e-08  1.80000000e+00  4.41455181e-08  3.56466174e-03  4.41455181e-08  6.53579895e-01  4.41455181e-08  1.49048216e+00  4.41455181e-08  1.49844623e+00                                 
 6.97232357e-08  7.19041880e-01  6.97232357e-08  6.53003589e-01  6.97232357e-08  1.01033100e+00  6.97232357e-08  1.80000000e+00  6.97232357e-08 -3.55727773e-03  6.97232357e-08  6.53629791e-01  6.97232357e-08  1.49040812e+00  6.97232357e-08  1.49807012e+00                                 
 1.01134260e-07  7.19051715e-01  1.01134260e-07  6.53032663e-01  1.01134260e-07  7.94643541e-01  1.01134260e-07  1.80000000e+00  1.01134260e-07  3.55664232e-03  1.01134260e-07  6.53898834e-01  1.01134260e-07  1.49074751e+00  1.01134260e-07  1.49803570e+00                                 
 1.30126858e-07  7.19046903e-01  1.30126858e-07  6.53003839e-01  1.30126858e-07  6.75196336e-01  1.30126858e-07  1.80000000e+00  1.30126858e-07 -3.54040234e-03  1.30126858e-07  6.53667121e-01  1.30126858e-07  1.49043925e+00  1.30126858e-07  1.49804151e+00                                 
 1.57249689e-07  7.19045374e-01  1.57249689e-07  6.53032544e-01  1.57249689e-07  6.55482829e-01  1.57249689e-07  1.80000000e+00  1.57249689e-07  3.55193454e-03  1.57249689e-07  6.53907873e-01  1.57249689e-07  1.49075332e+00  1.57249689e-07  1.49804409e+00                                 
 1.74968861e-07  7.19046111e-01  1.74968861e-07  6.53003538e-01  1.74968861e-07  6.54732342e-01  1.74968861e-07  1.80000000e+00  1.74968861e-07 -3.52649299e-03  1.74968861e-07  6.53662763e-01  1.74968861e-07  1.49043439e+00  1.74968861e-07  1.49804469e+00                                 
 1.95499301e-07  7.19048703e-01  1.95499301e-07  6.53032768e-01  1.95499301e-07  6.54666885e-01  1.95499301e-07  1.80000000e+00  1.95499301e-07  3.53735202e-03  1.95499301e-07  6.53904620e-01  1.95499301e-07  1.49074905e+00  1.95499301e-07  1.49804233e+00                                 
 2.30957240e-07  7.19044997e-01  2.30957240e-07  6.53003533e-01  2.30957240e-07  6.54506682e-01  2.30957240e-07  1.80000000e+00  2.30957240e-07 -3.51586535e-03  2.30957240e-07  6.53662534e-01  2.30957240e-07  1.49043249e+00  2.30957240e-07  1.49804142e+00                                 
 3.01873118e-07  7.19049478e-01  3.01873118e-07  6.53032769e-01  3.01873118e-07  6.54625688e-01  3.01873118e-07  1.80000000e+00  3.01873118e-07  3.53149424e-03  3.01873118e-07  6.53904307e-01  3.01873118e-07  1.49074524e+00  3.01873118e-07  1.49803799e+00                                 
 4.43704874e-07  7.19044663e-01  4.43704874e-07  6.53003537e-01  4.43704874e-07  6.54505934e-01  4.43704874e-07  1.80000000e+00  4.43704874e-07 -3.51295179e-03  4.43704874e-07  6.53662596e-01  4.43704874e-07  1.49042572e+00  4.43704874e-07  1.49803432e+00                                 
 7.27368385e-07  7.19049639e-01  7.27368385e-07  6.53032766e-01  7.27368385e-07  6.54626004e-01  7.27368385e-07  1.80000000e+00  7.27368385e-07  3.53003147e-03  7.27368385e-07  6.53904282e-01  7.27368385e-07  1.49073148e+00  7.27368385e-07  1.49802432e+00                                 
 1.29469541e-06  7.19044584e-01  1.29469541e-06  6.53003538e-01  1.29469541e-06  6.54505438e-01  1.29469541e-06  1.80000000e+00  1.29469541e-06 -3.51222551e-03  1.29469541e-06  6.53662606e-01  1.29469541e-06  1.49039830e+00  1.29469541e-06  1.49800690e+00                                 
 2.42934945e-06  7.19049678e-01  2.42934945e-06  6.53032766e-01  2.42934945e-06  6.54626149e-01  2.42934945e-06  1.80000000e+00  2.42934945e-06  3.52966591e-03  2.42934945e-06  6.53904277e-01  2.42934945e-06  1.49067657e+00  2.42934945e-06  1.49796950e+00                                 
 3.62934945e-06  7.19044559e-01  3.62934945e-06  6.53003538e-01  3.62934945e-06  6.54505257e-01  3.62934945e-06  1.80000000e+00  3.62934945e-06 -3.51200549e-03  3.62934945e-06  6.53662610e-01  3.62934945e-06  1.49032299e+00  3.62934945e-06  1.49793169e+00                                 
 4.82934945e-06  7.19049702e-01  4.82934945e-06  6.53032766e-01  4.82934945e-06  6.54626243e-01  4.82934945e-06  1.80000000e+00  4.82934945e-06  3.52943621e-03  4.82934945e-06  6.53904274e-01  4.82934945e-06  1.49059914e+00  4.82934945e-06  1.49789217e+00                                 
 6.00100000e-06  7.19044534e-01  6.00100000e-06  6.53003539e-01  6.00100000e-06  6.54505082e-01  6.00100000e-06  1.80000000e+00  6.00100000e-06 -3.51177449e-03  6.00100000e-06  6.53662613e-01  6.00100000e-06  1.49024645e+00  6.00100000e-06  1.49785523e+00                                 
 6.00110000e-06  7.19001366e-01  6.00110000e-06  6.52779829e-01  6.00110000e-06  6.52844633e-01  6.00110000e-06  1.62000000e+00  6.00110000e-06 -4.06957894e-04  6.00110000e-06  6.52236187e-01  6.00110000e-06  1.48907663e+00  6.00110000e-06  1.49784556e+00                                 
 6.00130000e-06  7.19034656e-01  6.00130000e-06  6.52777813e-01  6.00130000e-06  6.52926419e-01  6.00130000e-06  1.26000000e+00  6.00130000e-06  2.60809318e-04  6.00130000e-06  6.51980993e-01  6.00130000e-06  1.48886918e+00  6.00130000e-06  1.49785867e+00                                 
 6.00165026e-06  7.19097311e-01  6.00165026e-06  6.53007578e-01  6.00165026e-06  6.55095244e-01  6.00165026e-06  6.29539835e-01  6.00165026e-06 -7.55978409e-04  6.00165026e-06  6.52689995e-01  6.00165026e-06  1.48670566e+00  6.00165026e-06  1.49784140e+00                                 
 6.00200000e-06  7.19035501e-01  6.00200000e-06  6.51560897e-01  6.00200000e-06  6.86042000e-01  6.00200000e-06  0.00000000e+00  6.00200000e-06  1.60065669e+00  6.00200000e-06  6.37364412e-01  6.00200000e-06  1.29258107e+00  6.00200000e-06  1.49726651e+00                                 
 6.00204079e-06  7.19050683e-01  6.00204079e-06  6.51080324e-01  6.00204079e-06  6.93601664e-01  6.00204079e-06  0.00000000e+00  6.00204079e-06  1.72162079e+00  6.00204079e-06  6.31910592e-01  6.00204079e-06  1.23034792e+00  6.00204079e-06  1.49725672e+00                                 
 6.00212238e-06  7.19051101e-01  6.00212238e-06  6.50245826e-01  6.00212238e-06  6.99468868e-01  6.00212238e-06  0.00000000e+00  6.00212238e-06  1.81303734e+00  6.00212238e-06  6.22680141e-01  6.00212238e-06  1.10194830e+00  6.00212238e-06  1.49762015e+00                                 
 6.00228556e-06  7.19046340e-01  6.00228556e-06  6.50112940e-01  6.00228556e-06  6.90293948e-01  6.00228556e-06  0.00000000e+00  6.00228556e-06  1.78961996e+00  6.00228556e-06  6.21964374e-01  6.00228556e-06  8.97648228e-01  6.00228556e-06  1.49811890e+00                                 
 6.00244412e-06  7.19048919e-01  6.00244412e-06  6.50822596e-01  6.00244412e-06  6.81090107e-01  6.00244412e-06  0.00000000e+00  6.00244412e-06  1.80364138e+00  6.00244412e-06  6.29980862e-01  6.00244412e-06  7.78470402e-01  6.00244412e-06  1.49810604e+00                                 
 6.00262555e-06  7.19045276e-01  6.00262555e-06  6.51730608e-01  6.00262555e-06  6.68788166e-01  6.00262555e-06  0.00000000e+00  6.00262555e-06  1.79702341e+00  6.00262555e-06  6.39047777e-01  6.00262555e-06  7.03955410e-01  6.00262555e-06  1.49831725e+00                                 
 6.00284943e-06  7.19048380e-01  6.00284943e-06  6.52714533e-01  6.00284943e-06  6.59825369e-01  6.00284943e-06  0.00000000e+00  6.00284943e-06  1.80178434e+00  6.00284943e-06  6.48375426e-01  6.00284943e-06  6.70976925e-01  6.00284943e-06  1.49800116e+00                                 
 6.00310112e-06  7.19045475e-01  6.00310112e-06  6.53176935e-01  6.00310112e-06  6.56670398e-01  6.00310112e-06  0.00000000e+00  6.00310112e-06  1.79889284e+00  6.00310112e-06  6.51873617e-01  6.00310112e-06  6.59144013e-01  6.00310112e-06  1.49728547e+00                                 
 6.00333490e-06  7.19048336e-01  6.00333490e-06  6.53419306e-01  6.00333490e-06  6.55547544e-01  6.00333490e-06  0.00000000e+00  6.00333490e-06  1.80076914e+00  6.00333490e-06  6.53905185e-01  6.00333490e-06  6.56901417e-01  6.00333490e-06  1.49621985e+00                                 
 6.00370970e-06  7.19045921e-01  6.00370970e-06  6.53479678e-01  6.00370970e-06  6.56081535e-01  6.00370970e-06  0.00000000e+00  6.00370970e-06  1.79945627e+00  6.00370970e-06  6.54338884e-01  6.00370970e-06  6.55678138e-01  6.00370970e-06  1.49435137e+00                                 
 6.00425420e-06  7.19048392e-01  6.00425420e-06  6.53500542e-01  6.00425420e-06  6.57010207e-01  6.00425420e-06  0.00000000e+00  6.00425420e-06  1.80047375e+00  6.00425420e-06  6.55032845e-01  6.00425420e-06  6.57089881e-01  6.00425420e-06  1.49122392e+00                                 
 6.00529141e-06  7.19046091e-01  6.00529141e-06  6.53398340e-01  6.00529141e-06  6.60168530e-01  6.00529141e-06  0.00000000e+00  6.00529141e-06  1.79959864e+00  6.00529141e-06  6.54870726e-01  6.00529141e-06  6.59536614e-01  6.00529141e-06  1.48491821e+00                                 
 6.00699087e-06  7.19048270e-01  6.00699087e-06  6.53304767e-01  6.00699087e-06  6.64829086e-01  6.00699087e-06  0.00000000e+00  6.00699087e-06  1.80040090e+00  6.00699087e-06  6.55206401e-01  6.00699087e-06  6.64802302e-01  6.00699087e-06  1.47390811e+00                                 
 6.01038977e-06  7.19046001e-01  6.01038977e-06  6.53095799e-01  6.01038977e-06  6.75074162e-01  6.01038977e-06  0.00000000e+00  6.01038977e-06  1.79963581e+00  6.01038977e-06  6.54721239e-01  6.01038977e-06  6.74394447e-01  6.01038977e-06  1.45110425e+00                                 
 6.01718758e-06  7.19048220e-01  6.01718758e-06  6.53004854e-01  6.01718758e-06  6.94179690e-01  6.01718758e-06  0.00000000e+00  6.01718758e-06  1.80038179e+00  6.01718758e-06  6.54665723e-01  6.01718758e-06  6.94140468e-01  6.01718758e-06  1.40379304e+00                                 
 6.03078320e-06  7.19046020e-01  6.03078320e-06  6.52996494e-01  6.03078320e-06  7.31445811e-01  6.03078320e-06  0.00000000e+00  6.03078320e-06  1.79964381e+00  6.03078320e-06  6.53915230e-01  6.03078320e-06  7.30651822e-01  6.03078320e-06  1.31349380e+00                                 
 6.04521017e-06  7.19048222e-01  6.04521017e-06  6.53026221e-01  6.04521017e-06  7.67793023e-01  6.04521017e-06  0.00000000e+00  6.04521017e-06  1.80037467e+00  6.04521017e-06  6.54030996e-01  6.04521017e-06  7.67793435e-01  6.04521017e-06  1.22780474e+00                                 
 6.07406412e-06  7.19046027e-01  6.07406412e-06  6.53005996e-01  6.07406412e-06  8.34021503e-01  6.07406412e-06  0.00000000e+00  6.07406412e-06  1.79964544e+00  6.07406412e-06  6.53624791e-01  6.07406412e-06  8.32778222e-01  6.07406412e-06  1.07869300e+00                                 
 6.11180594e-06  7.19048221e-01  6.11180594e-06  6.53030424e-01  6.11180594e-06  9.06514028e-01  6.11180594e-06  0.00000000e+00  6.11180594e-06  1.80036883e+00  6.11180594e-06  6.53925941e-01  6.11180594e-06  9.06724421e-01  6.11180594e-06  9.55712959e-01                                 
 6.17260961e-06  7.19046029e-01  6.17260961e-06  6.53005817e-01  6.17260961e-06  9.97412436e-01  6.17260961e-06  0.00000000e+00  6.17260961e-06  1.79964253e+00  6.17260961e-06  6.53622181e-01  6.17260961e-06  9.95019415e-01  6.17260961e-06  9.55866888e-01                                 
 6.21485215e-06  7.19048220e-01  6.21485215e-06  6.53030719e-01  6.21485215e-06  1.04390647e+00  6.21485215e-06  0.00000000e+00  6.21485215e-06  1.80036398e+00  6.21485215e-06  6.53934260e-01  6.21485215e-06  1.04473478e+00  6.21485215e-06  1.02063255e+00                                 
 6.26515407e-06  7.19046030e-01  6.26515407e-06  6.53005401e-01  6.26515407e-06  1.08709359e+00  6.26515407e-06  0.00000000e+00  6.26515407e-06  1.79964172e+00  6.26515407e-06  6.53619202e-01  6.26515407e-06  1.08531573e+00  6.26515407e-06  1.07148077e+00                                 
