 time            v(vbep)         time            v(vben)         time            v(vout)         time            v(vphi1)        time            v(vphi2)        time            v(vref)         yes             currtemp       
 0.00000000e+00  6.51335483e-01  0.00000000e+00  5.91315018e-01  0.00000000e+00  1.00265013e+00  0.00000000e+00  0.00000000e+00  0.00000000e+00  1.79991629e+00  0.00000000e+00  5.91315018e-01  1.00000000e+00  5.50000000e+01 
 5.00000000e-12  6.51286516e-01  5.00000000e-12  5.91275082e-01  5.00000000e-12  1.00338398e+00  5.00000000e-12  1.80000000e-02  5.00000000e-12  1.80004796e+00  5.00000000e-12  5.91275082e-01                                 
 1.00000000e-11  6.51239867e-01  1.00000000e-11  5.91236611e-01  1.00000000e-11  1.00405022e+00  1.00000000e-11  3.60000000e-02  1.00000000e-11  1.80012937e+00  1.00000000e-11  5.91236611e-01                                 
 2.00000000e-11  6.51148177e-01  2.00000000e-11  5.91160102e-01  2.00000000e-11  1.00527495e+00  2.00000000e-11  7.20000000e-02  2.00000000e-11  1.80022308e+00  2.00000000e-11  5.91160102e-01                                 
 4.00000000e-11  6.50967593e-01  4.00000000e-11  5.91007946e-01  4.00000000e-11  1.00722703e+00  4.00000000e-11  1.44000000e-01  4.00000000e-11  1.80021992e+00  4.00000000e-11  5.91007946e-01                                 
 8.00000000e-11  6.50608875e-01  8.00000000e-11  5.90705597e-01  8.00000000e-11  1.00977104e+00  8.00000000e-11  2.88000000e-01  8.00000000e-11  1.80011887e+00  8.00000000e-11  5.90705597e-01                                 
 1.60000000e-10  6.49902269e-01  1.60000000e-10  5.90108689e-01  1.60000000e-10  1.01174827e+00  1.60000000e-10  5.76000000e-01  1.60000000e-10  1.80000380e+00  1.60000000e-10  5.90108689e-01                                 
 3.20000000e-10  6.48528996e-01  3.20000000e-10  5.88944637e-01  3.20000000e-10  1.00453935e+00  3.20000000e-10  1.15200000e+00  3.20000000e-10  1.80028075e+00  3.20000000e-10  5.88944637e-01                                 
 5.00000000e-10  6.47045016e-01  5.00000000e-10  5.87680339e-01  5.00000000e-10  1.11411255e+00  5.00000000e-10  1.80000000e+00  5.00000000e-10  1.64163541e-01  5.00000000e-10  5.87680339e-01                                 
 5.21771103e-10  6.46870201e-01  5.21771103e-10  5.87530941e-01  5.21771103e-10  1.14185687e+00  5.21771103e-10  1.80000000e+00  5.21771103e-10  4.24667137e-02  5.21771103e-10  5.87530941e-01                                 
 5.65313310e-10  6.46522229e-01  5.65313310e-10  5.87233344e-01  5.65313310e-10  1.19725007e+00  5.65313310e-10  1.80000000e+00  5.65313310e-10 -1.53737922e-02  5.65313310e-10  5.87233344e-01                                 
 6.52397724e-10  6.45836394e-01  6.52397724e-10  5.86645776e-01  6.52397724e-10  1.29746970e+00  6.52397724e-10  1.80000000e+00  6.52397724e-10  1.29760615e-02  6.52397724e-10  5.86645776e-01                                 
 7.72977101e-10  6.44908360e-01  7.72977101e-10  5.85848525e-01  7.72977101e-10  1.41850303e+00  7.72977101e-10  1.80000000e+00  7.72977101e-10 -9.65429357e-03  7.72977101e-10  5.85848525e-01                                 
 9.56231383e-10  6.43543382e-01  9.56231383e-10  5.84671408e-01  9.56231383e-10  1.56741701e+00  9.56231383e-10  1.80000000e+00  9.56231383e-10  9.56144058e-03  9.56231383e-10  5.84671408e-01                                 
 1.32273995e-09  6.40963053e-01  1.32273995e-09  5.82431975e-01  1.32273995e-09  1.75338467e+00  1.32273995e-09  1.80000000e+00  1.32273995e-09 -8.30094447e-03  1.32273995e-09  5.82431975e-01                                 
 1.67353875e-09  6.38663623e-01  1.67353875e-09  5.80420319e-01  1.67353875e-09  1.83468273e+00  1.67353875e-09  1.80000000e+00  1.67353875e-09  8.15242531e-03  1.67353875e-09  5.80420319e-01                                 
 2.01621642e-09  6.36559057e-01  2.01621642e-09  5.78566206e-01  2.01621642e-09  1.86627825e+00  2.01621642e-09  1.80000000e+00  2.01621642e-09 -7.46968539e-03  2.01621642e-09  5.78566206e-01                                 
 2.37776364e-09  6.34472998e-01  2.37776364e-09  5.76716539e-01  2.37776364e-09  1.87892129e+00  2.37776364e-09  1.80000000e+00  2.37776364e-09  7.11831882e-03  2.37776364e-09  5.76716539e-01                                 
 2.86024667e-09  6.31877509e-01  2.86024667e-09  5.74399281e-01  2.86024667e-09  1.88247539e+00  2.86024667e-09  1.80000000e+00  2.86024667e-09 -6.74943585e-03  2.86024667e-09  5.74399281e-01                                 
 3.51649505e-09  6.28644596e-01  3.51649505e-09  5.71489152e-01  3.51649505e-09  1.88149510e+00  3.51649505e-09  1.80000000e+00  3.51649505e-09  6.56031407e-03  3.51649505e-09  5.71489152e-01                                 
 4.51876910e-09  6.24247915e-01  4.51876910e-09  5.67491422e-01  4.51876910e-09  1.87711170e+00  4.51876910e-09  1.80000000e+00  4.51876910e-09 -6.39100549e-03  4.51876910e-09  5.67491422e-01                                 
 6.17391517e-09  6.18074685e-01  6.17391517e-09  5.61806354e-01  6.17391517e-09  1.87142594e+00  6.17391517e-09  1.80000000e+00  6.17391517e-09  6.33298581e-03  6.17391517e-09  5.61806354e-01                                 
 9.48420732e-09  6.08403044e-01  9.48420732e-09  5.52751951e-01  9.48420732e-09  1.86192883e+00  9.48420732e-09  1.80000000e+00  9.48420732e-09 -6.25870841e-03  9.48420732e-09  5.52751951e-01                                 
 1.15765794e-08  6.03615992e-01  1.15765794e-08  5.48200331e-01  1.15765794e-08  1.85771849e+00  1.15765794e-08  1.80000000e+00  1.15765794e-08  6.22365325e-03  1.15765794e-08  5.48200331e-01                                 
 1.31468213e-08  6.00469137e-01  1.31468213e-08  5.45187772e-01  1.31468213e-08  1.85450088e+00  1.31468213e-08  1.80000000e+00  1.31468213e-08 -6.11119358e-03  1.31468213e-08  5.45187772e-01                                 
 1.46801149e-08  5.97685289e-01  1.46801149e-08  5.42510509e-01  1.46801149e-08  1.85222541e+00  1.46801149e-08  1.80000000e+00  1.46801149e-08  6.04984838e-03  1.46801149e-08  5.42510509e-01                                 
 1.64235443e-08  5.94805763e-01  1.64235443e-08  5.39729892e-01  1.64235443e-08  1.84929730e+00  1.64235443e-08  1.80000000e+00  1.64235443e-08 -5.95049924e-03  1.64235443e-08  5.39729892e-01                                 
 1.82935613e-08  5.91999477e-01  1.82935613e-08  5.37009433e-01  1.82935613e-08  1.84703974e+00  1.82935613e-08  1.80000000e+00  1.82935613e-08  5.90502728e-03  1.82935613e-08  5.37009433e-01                                 
 2.05851580e-08  5.88888615e-01  2.05851580e-08  5.33982145e-01  2.05851580e-08  1.84395580e+00  2.05851580e-08  1.80000000e+00  2.05851580e-08 -5.82567429e-03  2.05851580e-08  5.33982145e-01                                 
 2.38563082e-08  5.84950273e-01  2.38563082e-08  5.30133141e-01  2.38563082e-08  1.84074460e+00  2.38563082e-08  1.80000000e+00  2.38563082e-08  5.81057828e-03  2.38563082e-08  5.30133141e-01                                 
 2.76535380e-08  5.80966334e-01  2.76535380e-08  5.26221216e-01  2.76535380e-08  1.83697699e+00  2.76535380e-08  1.80000000e+00  2.76535380e-08 -5.75342652e-03  2.76535380e-08  5.26221216e-01                                 
 3.52479976e-08  5.74351969e-01  3.52479976e-08  5.19685102e-01  3.52479976e-08  1.83165663e+00  3.52479976e-08  1.80000000e+00  3.52479976e-08  5.76154539e-03  3.52479976e-08  5.19685102e-01                                 
 4.29168242e-08  5.68930681e-01  4.29168242e-08  5.14303156e-01  4.29168242e-08  1.82689412e+00  4.29168242e-08  1.80000000e+00  4.29168242e-08 -5.72009001e-03  4.29168242e-08  5.14303156e-01                                 
 5.82544775e-08  5.60278450e-01  5.82544775e-08  5.05693823e-01  5.82544775e-08  1.82008215e+00  5.82544775e-08  1.80000000e+00  5.82544775e-08  5.73777710e-03  5.82544775e-08  5.05693823e-01                                 
 7.62328390e-08  5.52623166e-01  7.62328390e-08  4.98044595e-01  7.62328390e-08  1.81380826e+00  7.62328390e-08  1.80000000e+00  7.62328390e-08 -5.70455231e-03  7.62328390e-08  4.98044595e-01                                 
 1.01300998e-07  5.44324819e-01  1.01300998e-07  4.89758203e-01  1.01300998e-07  1.79730814e+00  1.01300998e-07  1.80000000e+00  1.01300998e-07  5.72584511e-03  1.01300998e-07  4.89758203e-01                                 
 1.26301336e-07  5.35566951e-01  1.26301336e-07  4.81484010e-01  1.26301336e-07  1.77561643e+00  1.26301336e-07  1.80000000e+00  1.26301336e-07 -5.69498445e-03  1.26301336e-07  4.81484010e-01                                 
 1.46908479e-07  5.24736449e-01  1.46908479e-07  4.72001514e-01  1.46908479e-07  1.75863700e+00  1.46908479e-07  1.80000000e+00  1.46908479e-07  5.71455149e-03  1.46908479e-07  4.72001514e-01                                 
 1.68307119e-07  5.16139608e-01  1.68307119e-07  4.64385517e-01  1.68307119e-07  1.72035069e+00  1.68307119e-07  1.80000000e+00  1.68307119e-07 -5.68424546e-03  1.68307119e-07  4.64385517e-01                                 
 1.88574275e-07  5.08723332e-01  1.88574275e-07  4.57851024e-01  1.88574275e-07  1.68648482e+00  1.88574275e-07  1.80000000e+00  1.88574275e-07  5.70314822e-03  1.88574275e-07  4.57851024e-01                                 
 2.07177089e-07  5.06496266e-01  2.07177089e-07  4.55538946e-01  2.07177089e-07  1.66740107e+00  2.07177089e-07  1.80000000e+00  2.07177089e-07 -5.67033720e-03  2.07177089e-07  4.55538946e-01                                 
 2.32762164e-07  5.11530280e-01  2.32762164e-07  4.58810784e-01  2.32762164e-07  1.66353105e+00  2.32762164e-07  1.80000000e+00  2.32762164e-07  5.69376271e-03  2.32762164e-07  4.58810784e-01                                 
 2.50742590e-07  5.12127202e-01  2.50742590e-07  4.58810214e-01  2.50742590e-07  1.64667114e+00  2.50742590e-07  1.80000000e+00  2.50742590e-07 -5.66036042e-03  2.50742590e-07  4.58810214e-01                                 
 2.69614054e-07  5.09516883e-01  2.69614054e-07  4.56280745e-01  2.69614054e-07  1.62380771e+00  2.69614054e-07  1.80000000e+00  2.69614054e-07  5.67983093e-03  2.69614054e-07  4.56280745e-01                                 
 2.88375492e-07  5.06979478e-01  2.88375492e-07  4.53842871e-01  2.88375492e-07  1.60162052e+00  2.88375492e-07  1.80000000e+00  2.88375492e-07 -5.64753409e-03  2.88375492e-07  4.53842871e-01                                 
 3.08926843e-07  5.02590812e-01  3.08926843e-07  4.49931223e-01  3.08926843e-07  1.57766110e+00  3.08926843e-07  1.80000000e+00  3.08926843e-07  5.66731079e-03  3.08926843e-07  4.49931223e-01                                 
 3.50029546e-07  4.92488718e-01  3.50029546e-07  4.41154195e-01  3.50029546e-07  1.52514871e+00  3.50029546e-07  1.80000000e+00  3.50029546e-07 -5.63900118e-03  3.50029546e-07  4.41154195e-01                                 
 3.97314331e-07  4.81439080e-01  3.97314331e-07  4.31649418e-01  3.97314331e-07  1.46679346e+00  3.97314331e-07  1.80000000e+00  3.97314331e-07  5.66193744e-03  3.97314331e-07  4.31649418e-01                                 
 4.91883902e-07  4.56228138e-01  4.91883902e-07  4.10534627e-01  4.91883902e-07  1.34334958e+00  4.91883902e-07  1.80000000e+00  4.91883902e-07 -5.63536887e-03  4.91883902e-07  4.10534627e-01                                 
 5.94102132e-07  4.38660573e-01  5.94102132e-07  3.95780635e-01  5.94102132e-07  1.22041138e+00  5.94102132e-07  1.80000000e+00  5.94102132e-07  5.65991359e-03  5.94102132e-07  3.95780635e-01                                 
 6.80546176e-07  4.02983189e-01  6.80546176e-07  3.66948367e-01  6.80546176e-07  1.09520688e+00  6.80546176e-07  1.80000000e+00  6.80546176e-07 -5.63371309e-03  6.80546176e-07  3.66948367e-01                                 
 7.69810858e-07  4.18359192e-01  7.69810858e-07  3.79189515e-01  7.69810858e-07  1.02336943e+00  7.69810858e-07  1.80000000e+00  7.69810858e-07  5.65945610e-03  7.69810858e-07  3.79189515e-01                                 
 7.83751263e-07  4.47550726e-01  7.83751263e-07  4.02537728e-01  7.83751263e-07  1.03706018e+00  7.83751263e-07  1.80000000e+00  7.83751263e-07  7.64026013e-06  7.83751263e-07  4.02537728e-01                                 
 8.11632072e-07  5.85614788e-01  8.11632072e-07  5.16401247e-01  8.11632072e-07  1.14063771e+00  8.11632072e-07  1.80000000e+00  8.11632072e-07  1.49023856e-05  8.11632072e-07  5.16401247e-01                                 
 8.58769136e-07  7.19748575e-01  8.58769136e-07  6.56072560e-01  8.58769136e-07  1.22299190e+00  8.58769136e-07  1.80000000e+00  8.58769136e-07  2.83991779e-06  8.58769136e-07  6.56072560e-01                                 
 9.09007482e-07  7.65258345e-01  9.09007482e-07  6.96139359e-01  9.09007482e-07  1.21177246e+00  9.09007482e-07  1.80000000e+00  9.09007482e-07  4.96239056e-06  9.09007482e-07  6.96139359e-01                                 
 9.51411326e-07  7.68163064e-01  9.51411326e-07  6.98363530e-01  9.51411326e-07  1.17232478e+00  9.51411326e-07  1.80000000e+00  9.51411326e-07 -1.15822020e-06  9.51411326e-07  6.98363530e-01                                 
 9.94998672e-07  7.66906260e-01  9.94998672e-07  6.97463537e-01  9.94998672e-07  1.12330923e+00  9.94998672e-07  1.80000000e+00  9.94998672e-07  4.35444087e-06  9.94998672e-07  6.97463537e-01                                 
 1.03652881e-06  7.68182539e-01  1.03652881e-06  6.98379744e-01  1.03652881e-06  1.08407071e+00  1.03652881e-06  1.80000000e+00  1.03652881e-06 -6.86661811e-07  1.03652881e-06  6.98379744e-01                                 
 1.07915594e-06  7.48017935e-01  1.07915594e-06  6.81906734e-01  1.07915594e-06  1.02165610e+00  1.07915594e-06  1.80000000e+00  1.07915594e-06  1.89870530e-06  1.07915594e-06  6.81906734e-01                                 
 1.12772474e-06  7.21062224e-01  1.12772474e-06  6.57518875e-01  1.12772474e-06  9.57574929e-01  1.12772474e-06  1.80000000e+00  1.12772474e-06 -8.61765322e-07  1.12772474e-06  6.57518875e-01                                 
 1.13417875e-06  7.19310562e-01  1.13417875e-06  6.56099885e-01  1.13417875e-06  9.50562482e-01  1.13417875e-06  1.80000000e+00  1.13417875e-06  1.22099885e-06  1.13417875e-06  6.56099885e-01                                 
 1.14708676e-06  7.20479784e-01  1.14708676e-06  6.57187913e-01  1.14708676e-06  9.41898636e-01  1.14708676e-06  1.80000000e+00  1.14708676e-06  3.02052348e-06  1.14708676e-06  6.57187913e-01                                 
 1.17290278e-06  7.31811050e-01  1.17290278e-06  6.67482829e-01  1.17290278e-06  9.33817838e-01  1.17290278e-06  1.80000000e+00  1.17290278e-06  2.95099344e-06  1.17290278e-06  6.67482829e-01                                 
 1.21468177e-06  7.46109113e-01  1.21468177e-06  6.80113394e-01  1.21468177e-06  9.17905553e-01  1.21468177e-06  1.80000000e+00  1.21468177e-06  2.56946243e-06  1.21468177e-06  6.80113394e-01                                 
 1.25886279e-06  7.51081022e-01  1.25886279e-06  6.84359318e-01  1.25886279e-06  8.93570004e-01  1.25886279e-06  1.80000000e+00  1.25886279e-06  1.89636797e-06  1.25886279e-06  6.84359318e-01                                 
 1.34227081e-06  7.40904205e-01  1.34227081e-06  6.75618594e-01  1.34227081e-06  8.33225446e-01  1.34227081e-06  1.80000000e+00  1.34227081e-06  1.53051681e-06  1.34227081e-06  6.75618594e-01                                 
 1.42413602e-06  7.38216773e-01  1.42413602e-06  6.73212025e-01  1.42413602e-06  7.83659780e-01  1.42413602e-06  1.80000000e+00  1.42413602e-06  2.38126071e-06  1.42413602e-06  6.73212025e-01                                 
 1.52605582e-06  7.48810359e-01  1.52605582e-06  6.82439921e-01  1.52605582e-06  7.41508221e-01  1.52605582e-06  1.80000000e+00  1.52605582e-06  2.25867414e-06  1.52605582e-06  6.82439921e-01                                 
 1.64404579e-06  7.39627026e-01  1.64404579e-06  6.74476351e-01  1.64404579e-06  6.93142993e-01  1.64404579e-06  1.80000000e+00  1.64404579e-06  1.71843683e-06  1.64404579e-06  6.74476351e-01                                 
 1.77219161e-06  7.42867789e-01  1.77219161e-06  6.77305539e-01  1.77219161e-06  6.75303306e-01  1.77219161e-06  1.80000000e+00  1.77219161e-06  2.87674747e-06  1.77219161e-06  6.77305539e-01                                 
 1.92023026e-06  7.45720836e-01  1.92023026e-06  6.79785450e-01  1.92023026e-06  6.66669550e-01  1.92023026e-06  1.80000000e+00  1.92023026e-06  1.75974874e-06  1.92023026e-06  6.79785450e-01                                 
 2.06861935e-06  7.39527872e-01  2.06861935e-06  6.74389864e-01  2.06861935e-06  6.72177666e-01  2.06861935e-06  1.80000000e+00  2.06861935e-06  2.71790066e-06  2.06861935e-06  6.74389864e-01                                 
 2.22611838e-06  7.46112248e-01  2.22611838e-06  6.80114572e-01  2.22611838e-06  6.84861326e-01  2.22611838e-06  1.80000000e+00  2.22611838e-06  2.10621922e-06  2.22611838e-06  6.80114572e-01                                 
 2.39165009e-06  7.41159952e-01  2.39165009e-06  6.75829075e-01  2.39165009e-06  6.72187290e-01  2.39165009e-06  1.80000000e+00  2.39165009e-06  2.32785365e-06  2.39165009e-06  6.75829075e-01                                 
 2.56028405e-06  7.43668918e-01  2.56028405e-06  6.77996198e-01  2.56028405e-06  6.79106076e-01  2.56028405e-06  1.80000000e+00  2.56028405e-06  2.36687305e-06  2.56028405e-06  6.77996198e-01                                 
 2.74167458e-06  7.43771493e-01  2.74167458e-06  6.78105865e-01  2.74167458e-06  6.78286914e-01  2.74167458e-06  1.80000000e+00  2.74167458e-06  2.23677628e-06  2.74167458e-06  6.78105865e-01                                 
 2.97101413e-06  7.41877982e-01  2.97101413e-06  6.76437421e-01  2.97101413e-06  6.76322913e-01  2.97101413e-06  1.80000000e+00  2.97101413e-06  2.33186127e-06  2.97101413e-06  6.76437421e-01                                 
 3.39918735e-06  7.44591097e-01  3.39918735e-06  6.78814514e-01  3.39918735e-06  6.79298939e-01  3.39918735e-06  1.80000000e+00  3.39918735e-06  2.30323927e-06  3.39918735e-06  6.78814514e-01                                 
 3.90479818e-06  7.41545724e-01  3.90479818e-06  6.76148517e-01  3.90479818e-06  6.75957397e-01  3.90479818e-06  1.80000000e+00  3.90479818e-06  2.27497246e-06  3.90479818e-06  6.76148517e-01                                 
 4.68478683e-06  7.44720828e-01  4.68478683e-06  6.78925643e-01  4.68478683e-06  6.79427246e-01  4.68478683e-06  1.80000000e+00  4.68478683e-06  2.34975147e-06  4.68478683e-06  6.78925643e-01                                 
 5.68478683e-06  7.41504161e-01  5.68478683e-06  6.76113027e-01  5.68478683e-06  6.75920232e-01  5.68478683e-06  1.80000000e+00  5.68478683e-06  2.24139329e-06  5.68478683e-06  6.76113027e-01                                 
 6.68478683e-06  7.44717373e-01  6.68478683e-06  6.78921935e-01  6.68478683e-06  6.79415679e-01  6.68478683e-06  1.80000000e+00  6.68478683e-06  2.37937466e-06  6.68478683e-06  6.78921935e-01                                 
 7.68478683e-06  7.41537847e-01  7.68478683e-06  6.76143227e-01  7.68478683e-06  6.75958546e-01  7.68478683e-06  1.80000000e+00  7.68478683e-06  2.21194567e-06  7.68478683e-06  6.76143227e-01                                 
 8.68478683e-06  7.44657591e-01  8.68478683e-06  6.78869503e-01  8.68478683e-06  6.79348418e-01  8.68478683e-06  1.80000000e+00  8.68478683e-06  2.40838903e-06  8.68478683e-06  6.78869503e-01                                 
 9.68478683e-06  7.41629316e-01  9.68478683e-06  6.76223907e-01  9.68478683e-06  6.76055312e-01  9.68478683e-06  1.80000000e+00  9.68478683e-06  2.18363064e-06  9.68478683e-06  6.76223907e-01                                 
 1.00005000e-05  7.44382561e-01  1.00005000e-05  6.78630195e-01  1.00005000e-05  6.79057004e-01  1.00005000e-05  1.80000000e+00  1.00005000e-05  2.46249511e-06  1.00005000e-05  6.78630195e-01                                 
