 time            v(vbep)         time            v(vben)         time            v(vout)         time            v(vphi1)        time            v(vphi2)        time            v(vref)         yes             currtemp       
 0.00000000e+00  7.28980017e-01  0.00000000e+00  6.78105606e-01  0.00000000e+00  1.04178508e+00  0.00000000e+00  0.00000000e+00  0.00000000e+00  1.79995371e+00  0.00000000e+00  6.78105606e-01  1.00000000e+00  5.00000000e+00 
 5.00000000e-12  7.28952761e-01  5.00000000e-12  6.78083011e-01  5.00000000e-12  1.04251871e+00  5.00000000e-12  1.80000000e-02  5.00000000e-12  1.80007703e+00  5.00000000e-12  6.78083011e-01                                 
 1.00000000e-11  7.28926250e-01  1.00000000e-11  6.78061005e-01  1.00000000e-11  1.04319263e+00  1.00000000e-11  3.60000000e-02  1.00000000e-11  1.80015089e+00  1.00000000e-11  6.78061005e-01                                 
 2.00000000e-11  7.28873690e-01  2.00000000e-11  6.78017165e-01  2.00000000e-11  1.04444604e+00  2.00000000e-11  7.20000000e-02  2.00000000e-11  1.80023520e+00  2.00000000e-11  6.78017165e-01                                 
 4.00000000e-11  7.28769362e-01  4.00000000e-11  6.77929837e-01  4.00000000e-11  1.04651830e+00  4.00000000e-11  1.44000000e-01  4.00000000e-11  1.80023401e+00  4.00000000e-11  6.77929837e-01                                 
 8.00000000e-11  7.28561763e-01  8.00000000e-11  6.77755991e-01  8.00000000e-11  1.04939997e+00  8.00000000e-11  2.88000000e-01  8.00000000e-11  1.80014556e+00  8.00000000e-11  6.77755991e-01                                 
 1.60000000e-10  7.28151164e-01  1.60000000e-10  6.77411545e-01  1.60000000e-10  1.05207346e+00  1.60000000e-10  5.76000000e-01  1.60000000e-10  1.80003646e+00  1.60000000e-10  6.77411545e-01                                 
 3.20000000e-10  7.27347275e-01  3.20000000e-10  6.76735175e-01  3.20000000e-10  1.04294642e+00  3.20000000e-10  1.15200000e+00  3.20000000e-10  1.80026763e+00  3.20000000e-10  6.76735175e-01                                 
 5.00000000e-10  7.26469518e-01  5.00000000e-10  6.75993500e-01  5.00000000e-10  1.12946693e+00  5.00000000e-10  1.80000000e+00  5.00000000e-10  1.32294184e-01  5.00000000e-10  6.75993500e-01                                 
 5.20749984e-10  7.26370273e-01  5.20749984e-10  6.75909420e-01  5.20749984e-10  1.15235346e+00  5.20749984e-10  1.80000000e+00  5.20749984e-10  3.09846332e-02  5.20749984e-10  6.75909420e-01                                 
 5.62249952e-10  7.26172469e-01  5.62249952e-10  6.75741749e-01  5.62249952e-10  1.19799368e+00  5.62249952e-10  1.80000000e+00  5.62249952e-10 -1.22538599e-02  5.62249952e-10  6.75741749e-01                                 
 6.45249889e-10  7.25781000e-01  6.45249889e-10  6.75409439e-01  6.45249889e-10  1.28105250e+00  6.45249889e-10  1.80000000e+00  6.45249889e-10  1.05938763e-02  6.45249889e-10  6.75409439e-01                                 
 7.65246519e-10  7.25224552e-01  7.65246519e-10  6.74935991e-01  7.65246519e-10  1.38838671e+00  7.65246519e-10  1.80000000e+00  7.65246519e-10 -8.28040938e-03  7.65246519e-10  6.74935991e-01                                 
 9.45322683e-10  7.24409735e-01  9.45322683e-10  6.74240432e-01  9.45322683e-10  1.52233449e+00  9.45322683e-10  1.80000000e+00  9.45322683e-10  8.23682971e-03  9.45322683e-10  6.74240432e-01                                 
 1.30547501e-09  7.22847804e-01  1.30547501e-09  6.72899723e-01  1.30547501e-09  1.69823922e+00  1.30547501e-09  1.80000000e+00  1.30547501e-09 -7.27860701e-03  1.30547501e-09  6.72899723e-01                                 
 1.69826135e-09  7.21239295e-01  1.69826135e-09  6.71508884e-01  1.69826135e-09  1.79003546e+00  1.69826135e-09  1.80000000e+00  1.69826135e-09  7.24578098e-03  1.69826135e-09  6.71508884e-01                                 
 2.06608053e-09  7.19814155e-01  2.06608053e-09  6.70268143e-01  2.06608053e-09  1.82354651e+00  2.06608053e-09  1.80000000e+00  2.06608053e-09 -6.75199255e-03  2.06608053e-09  6.70268143e-01                                 
 2.45657892e-09  7.18378381e-01  2.45657892e-09  6.69010346e-01  2.45657892e-09  1.83689383e+00  2.45657892e-09  1.80000000e+00  2.45657892e-09  6.51902923e-03  2.45657892e-09  6.69010346e-01                                 
 2.94936241e-09  7.16668242e-01  2.94936241e-09  6.67502315e-01  2.94936241e-09  1.84092088e+00  2.94936241e-09  1.80000000e+00  2.94936241e-09 -6.23787001e-03  2.94936241e-09  6.67502315e-01                                 
 3.65697553e-09  7.14386655e-01  3.65697553e-09  6.65474303e-01  3.65697553e-09  1.84078839e+00  3.65697553e-09  1.80000000e+00  3.65697553e-09  6.10986589e-03  3.65697553e-09  6.65474303e-01                                 
 4.71385405e-09  7.11301275e-01  4.71385405e-09  6.62704029e-01  4.71385405e-09  1.83767166e+00  4.71385405e-09  1.80000000e+00  4.71385405e-09 -5.97990715e-03  4.71385405e-09  6.62704029e-01                                 
 6.55394838e-09  7.06647654e-01  6.55394838e-09  6.58470094e-01  6.55394838e-09  1.83340238e+00  6.55394838e-09  1.80000000e+00  6.55394838e-09  5.94416340e-03  6.55394838e-09  6.58470094e-01                                 
 1.02341370e-08  6.99210215e-01  1.02341370e-08  6.51581577e-01  1.02341370e-08  1.82598602e+00  1.02341370e-08  1.80000000e+00  1.02341370e-08 -5.89117506e-03  1.02341370e-08  6.51581577e-01                                 
 1.62287601e-08  6.90331687e-01  1.62287601e-08  6.43184682e-01  1.62287601e-08  1.81633840e+00  1.62287601e-08  1.80000000e+00  1.62287601e-08  5.89882298e-03  1.62287601e-08  6.43184682e-01                                 
 1.79410369e-08  6.88309759e-01  1.79410369e-08  6.41246152e-01  1.79410369e-08  1.81347560e+00  1.79410369e-08  1.80000000e+00  1.79410369e-08 -5.81411124e-03  1.79410369e-08  6.41246152e-01                                 
 1.91063410e-08  6.87018800e-01  1.91063410e-08  6.40004990e-01  1.91063410e-08  1.81198866e+00  1.91063410e-08  1.80000000e+00  1.91063410e-08  5.74464017e-03  1.91063410e-08  6.40004990e-01                                 
 2.08952929e-08  6.85150467e-01  2.08952929e-08  6.38204737e-01  2.08952929e-08  1.80905244e+00  2.08952929e-08  1.80000000e+00  2.08952929e-08 -5.66571774e-03  2.08952929e-08  6.38204737e-01                                 
 2.40923654e-08  6.82092769e-01  2.40923654e-08  6.35250909e-01  2.40923654e-08  1.80446250e+00  2.40923654e-08  1.80000000e+00  2.40923654e-08  5.65384846e-03  2.40923654e-08  6.35250909e-01                                 
 2.92968962e-08  6.77675523e-01  2.92968962e-08  6.30979297e-01  2.92968962e-08  1.79667318e+00  2.92968962e-08  1.80000000e+00  2.92968962e-08 -5.61380815e-03  2.92968962e-08  6.30979297e-01                                 
 3.43495834e-08  6.73827432e-01  3.43495834e-08  6.27271178e-01  3.43495834e-08  1.79065494e+00  3.43495834e-08  1.80000000e+00  3.43495834e-08  5.61432824e-03  3.43495834e-08  6.27271178e-01                                 
 4.37511656e-08  6.67374172e-01  4.37511656e-08  6.21103186e-01  4.37511656e-08  1.78080548e+00  4.37511656e-08  1.80000000e+00  4.37511656e-08 -5.58252963e-03  4.37511656e-08  6.21103186e-01                                 
 5.31889340e-08  6.62233746e-01  5.31889340e-08  6.16141228e-01  5.31889340e-08  1.77493307e+00  5.31889340e-08  1.80000000e+00  5.31889340e-08  5.59353382e-03  5.31889340e-08  6.16141228e-01                                 
 6.30449420e-08  6.56740067e-01  6.30449420e-08  6.10994647e-01  6.30449420e-08  1.75815688e+00  6.30449420e-08  1.80000000e+00  6.30449420e-08 -5.56285673e-03  6.30449420e-08  6.10994647e-01                                 
 7.49706479e-08  6.49596740e-01  7.49706479e-08  6.04513192e-01  7.49706479e-08  1.73695196e+00  7.49706479e-08  1.80000000e+00  7.49706479e-08  5.57478437e-03  7.49706479e-08  6.04513192e-01                                 
 8.73442418e-08  6.43682782e-01  8.73442418e-08  5.99095136e-01  8.73442418e-08  1.71456339e+00  8.73442418e-08  1.80000000e+00  8.73442418e-08 -5.54616148e-03  8.73442418e-08  5.99095136e-01                                 
 1.09997234e-07  6.34246302e-01  1.09997234e-07  5.90506448e-01  1.09997234e-07  1.67469011e+00  1.09997234e-07  1.80000000e+00  1.09997234e-07  5.56249626e-03  1.09997234e-07  5.90506448e-01                                 
 1.39374135e-07  6.28537229e-01  1.39374135e-07  5.84824272e-01  1.39374135e-07  1.63941412e+00  1.39374135e-07  1.80000000e+00  1.39374135e-07 -5.53731049e-03  1.39374135e-07  5.84824272e-01                                 
 1.76406109e-07  6.32097106e-01  1.76406109e-07  5.86423408e-01  1.76406109e-07  1.62611971e+00  1.76406109e-07  1.80000000e+00  1.76406109e-07  5.55791789e-03  1.76406109e-07  5.86423408e-01                                 
 2.00577138e-07  6.28292643e-01  2.00577138e-07  5.82723039e-01  2.00577138e-07  1.60004371e+00  2.00577138e-07  1.80000000e+00  2.00577138e-07 -5.53188481e-03  2.00577138e-07  5.82723039e-01                                 
 2.23876906e-07  6.20144121e-01  2.23876906e-07  5.75687577e-01  2.23876906e-07  1.56959041e+00  2.23876906e-07  1.80000000e+00  2.23876906e-07  5.54894653e-03  2.23876906e-07  5.75687577e-01                                 
 2.48892549e-07  6.14514261e-01  2.48892549e-07  5.70678824e-01  2.48892549e-07  1.53782118e+00  2.48892549e-07  1.80000000e+00  2.48892549e-07 -5.52343256e-03  2.48892549e-07  5.70678824e-01                                 
 2.75667388e-07  6.07688315e-01  2.75667388e-07  5.64755280e-01  2.75667388e-07  1.50553898e+00  2.75667388e-07  1.80000000e+00  2.75667388e-07  5.54133715e-03  2.75667388e-07  5.64755280e-01                                 
 3.17882073e-07  5.97150413e-01  3.17882073e-07  5.55722445e-01  3.17882073e-07  1.45211448e+00  3.17882073e-07  1.80000000e+00  3.17882073e-07 -5.51751478e-03  3.17882073e-07  5.55722445e-01                                 
 3.78365579e-07  5.81265844e-01  3.78365579e-07  5.42382645e-01  3.78365579e-07  1.37729059e+00  3.78365579e-07  1.80000000e+00  3.78365579e-07  5.53740155e-03  3.78365579e-07  5.42382645e-01                                 
 4.82782887e-07  5.48336820e-01  4.82782887e-07  5.15449080e-01  4.82782887e-07  1.23892283e+00  4.82782887e-07  1.80000000e+00  4.82782887e-07 -5.51500958e-03  4.82782887e-07  5.15449080e-01                                 
 5.07203435e-07  5.39349286e-01  5.07203435e-07  5.08208449e-01  5.07203435e-07  1.20601543e+00  5.07203435e-07  1.80000000e+00  5.07203435e-07 -1.88346399e-06  5.07203435e-07  5.08208449e-01                                 
 5.56044531e-07  5.18993310e-01  5.56044531e-07  4.91858435e-01  5.56044531e-07  1.13602228e+00  5.56044531e-07  1.80000000e+00  5.56044531e-07 -1.42820382e-07  5.56044531e-07  4.91858435e-01                                 
 5.68254805e-07  5.13447908e-01  5.68254805e-07  4.87418319e-01  5.68254805e-07  1.11784354e+00  5.68254805e-07  1.80000000e+00  5.68254805e-07 -1.06505355e-06  5.68254805e-07  4.87418319e-01                                 
 5.92675353e-07  5.02269886e-01  5.92675353e-07  4.78474086e-01  5.92675353e-07  1.08112821e+00  5.92675353e-07  1.80000000e+00  5.92675353e-07 -1.06760970e-06  5.92675353e-07  4.78474086e-01                                 
 6.41516450e-07  5.11031114e-01  6.41516450e-07  4.85492594e-01  6.41516450e-07  1.03758861e+00  6.41516450e-07  1.80000000e+00  6.41516450e-07  8.00049529e-07  6.41516450e-07  4.85492594e-01                                 
 7.39198642e-07  7.84532327e-01  7.39198642e-07  7.31736703e-01  7.39198642e-07  1.20463851e+00  7.39198642e-07  1.80000000e+00  7.39198642e-07  8.20187548e-06  7.39198642e-07  7.31736703e-01                                 
 8.27356019e-07  8.49929468e-01  8.27356019e-07  7.89981545e-01  8.27356019e-07  1.18064276e+00  8.27356019e-07  1.80000000e+00  8.27356019e-07 -5.91515583e-06  8.27356019e-07  7.89981545e-01                                 
 8.91202110e-07  8.80823267e-01  8.91202110e-07  8.12313164e-01  8.91202110e-07  1.13878701e+00  8.91202110e-07  1.80000000e+00  8.91202110e-07  6.81129739e-06  8.91202110e-07  8.12313164e-01                                 
 9.00189290e-07  8.79595147e-01  9.00189290e-07  8.11560933e-01  9.00189290e-07  1.13133168e+00  9.00189290e-07  1.80000000e+00  9.00189290e-07 -3.81025878e-07  9.00189290e-07  8.11560933e-01                                 
 9.18163651e-07  8.69875067e-01  9.18163651e-07  8.04935906e-01  9.18163651e-07  1.10507134e+00  9.18163651e-07  1.80000000e+00  9.18163651e-07 -2.25434479e-06  9.18163651e-07  8.04935906e-01                                 
 9.38755934e-07  8.51021320e-01  9.38755934e-07  7.90912710e-01  9.38755934e-07  1.06509683e+00  9.38755934e-07  1.80000000e+00  9.38755934e-07 -2.00046739e-06  9.38755934e-07  7.90912710e-01                                 
 9.65995017e-07  8.26222654e-01  9.65995017e-07  7.70579654e-01  9.65995017e-07  1.01187470e+00  9.65995017e-07  1.80000000e+00  9.65995017e-07 -2.34644854e-06  9.65995017e-07  7.70579654e-01                                 
 9.90881479e-07  8.09933270e-01  9.90881479e-07  7.55985396e-01  9.90881479e-07  9.69953325e-01  9.90881479e-07  1.80000000e+00  9.90881479e-07 -1.03645163e-06  9.90881479e-07  7.55985396e-01                                 
 1.04065440e-06  8.11383387e-01  1.04065440e-06  7.57326069e-01  1.04065440e-06  9.28076378e-01  1.04065440e-06  1.80000000e+00  1.04065440e-06  6.02742559e-07  1.04065440e-06  7.57326069e-01                                 
 1.08846870e-06  8.22019596e-01  1.08846870e-06  7.66810420e-01  1.08846870e-06  9.01062484e-01  1.08846870e-06  1.80000000e+00  1.08846870e-06 -1.72990528e-07  1.08846870e-06  7.66810420e-01                                 
 1.14714905e-06  8.19198514e-01  1.14714905e-06  7.64380374e-01  1.14714905e-06  8.57854749e-01  1.14714905e-06  1.80000000e+00  1.14714905e-06 -3.63460461e-07  1.14714905e-06  7.64380374e-01                                 
 1.22558674e-06  8.12291025e-01  1.22558674e-06  7.58117377e-01  1.22558674e-06  8.09428670e-01  1.22558674e-06  1.80000000e+00  1.22558674e-06 -1.82728226e-07  1.22558674e-06  7.58117377e-01                                 
 1.32911310e-06  8.20801289e-01  1.32911310e-06  7.65778982e-01  1.32911310e-06  7.83766008e-01  1.32911310e-06  1.80000000e+00  1.32911310e-06  4.61182219e-07  1.32911310e-06  7.65778982e-01                                 
 1.44782922e-06  8.15529426e-01  1.44782922e-06  7.61059705e-01  1.44782922e-06  7.60780297e-01  1.44782922e-06  1.80000000e+00  1.44782922e-06 -5.49818433e-07  1.44782922e-06  7.61059705e-01                                 
 1.57948442e-06  8.16297065e-01  1.57948442e-06  7.61767002e-01  1.57948442e-06  7.52288737e-01  1.57948442e-06  1.80000000e+00  1.57948442e-06  7.04927671e-07  1.57948442e-06  7.61767002e-01                                 
 1.59943080e-06  8.18229362e-01  1.59943080e-06  7.63479650e-01  1.59943080e-06  7.53369907e-01  1.59943080e-06  1.80000000e+00  1.59943080e-06  2.60101540e-07  1.59943080e-06  7.63479650e-01                                 
 1.63932358e-06  8.19026915e-01  1.63932358e-06  7.64196788e-01  1.63932358e-06  7.52725004e-01  1.63932358e-06  1.80000000e+00  1.63932358e-06 -2.81423551e-08  1.63932358e-06  7.64196788e-01                                 
 1.71910912e-06  8.15530605e-01  1.71910912e-06  7.61072846e-01  1.71910912e-06  7.53376748e-01  1.71910912e-06  1.80000000e+00  1.71910912e-06  7.35926316e-08  1.71910912e-06  7.61072846e-01                                 
 1.82007401e-06  8.17535356e-01  1.82007401e-06  7.62861494e-01  1.82007401e-06  7.65212187e-01  1.82007401e-06  1.80000000e+00  1.82007401e-06  2.39483945e-07  1.82007401e-06  7.62861494e-01                                 
 1.92563665e-06  8.17653419e-01  1.92563665e-06  7.62975666e-01  1.92563665e-06  7.63300900e-01  1.92563665e-06  1.80000000e+00  1.92563665e-06 -7.62570603e-08  1.92563665e-06  7.62975666e-01                                 
 2.04666428e-06  8.16083405e-01  2.04666428e-06  7.61563880e-01  2.04666428e-06  7.60537320e-01  2.04666428e-06  1.80000000e+00  2.04666428e-06  1.99714218e-07  2.04666428e-06  7.61563880e-01                                 
 2.21318477e-06  8.18143308e-01  2.21318477e-06  7.63409468e-01  2.21318477e-06  7.64345887e-01  2.21318477e-06  1.80000000e+00  2.21318477e-06  2.90255824e-08  2.21318477e-06  7.63409468e-01                                 
 2.40220147e-06  8.16216387e-01  2.40220147e-06  7.61685823e-01  2.40220147e-06  7.61135102e-01  2.40220147e-06  1.80000000e+00  2.40220147e-06  1.04153661e-07  2.40220147e-06  7.61685823e-01                                 
 2.65648705e-06  8.17765085e-01  2.65648705e-06  7.63070459e-01  2.65648705e-06  7.63577903e-01  2.65648705e-06  1.80000000e+00  2.65648705e-06  9.72561517e-08  2.65648705e-06  7.63070459e-01                                 
 3.00172106e-06  8.16609001e-01  3.00172106e-06  7.62038711e-01  3.00172106e-06  7.61773975e-01  3.00172106e-06  1.80000000e+00  3.00172106e-06  6.47823684e-08  3.00172106e-06  7.62038711e-01                                 
 3.52056517e-06  8.17459354e-01  3.52056517e-06  7.62797066e-01  3.52056517e-06  7.63144946e-01  3.52056517e-06  1.80000000e+00  3.52056517e-06  1.18129655e-07  3.52056517e-06  7.62797066e-01                                 
 4.36091822e-06  8.16816322e-01  4.36091822e-06  7.62224577e-01  4.36091822e-06  7.62046702e-01  4.36091822e-06  1.80000000e+00  4.36091822e-06  5.46057303e-08  4.36091822e-06  7.62224577e-01                                 
 5.36091822e-06  8.17315039e-01  5.36091822e-06  7.62668008e-01  5.36091822e-06  7.62962970e-01  5.36091822e-06  1.80000000e+00  5.36091822e-06  1.23578960e-07  5.36091822e-06  7.62668008e-01                                 
 6.36091822e-06  8.16948155e-01  6.36091822e-06  7.62342601e-01  6.36091822e-06  7.62208100e-01  6.36091822e-06  1.80000000e+00  6.36091822e-06  5.07752917e-08  6.36091822e-06  7.62342601e-01                                 
 7.36091822e-06  8.17186349e-01  7.36091822e-06  7.62552948e-01  7.36091822e-06  7.62808296e-01  7.36091822e-06  1.80000000e+00  7.36091822e-06  1.26379481e-07  7.36091822e-06  7.62552948e-01                                 
 8.36091822e-06  8.17075043e-01  8.36091822e-06  7.62456104e-01  8.36091822e-06  7.62357389e-01  8.36091822e-06  1.80000000e+00  8.36091822e-06  4.89817046e-08  8.36091822e-06  7.62456104e-01                                 
 9.36091822e-06  8.17063836e-01  9.36091822e-06  7.62443422e-01  9.36091822e-06  7.62666194e-01  9.36091822e-06  1.80000000e+00  9.36091822e-06  1.27193449e-07  9.36091822e-06  7.62443422e-01                                 
 1.00005000e-05  8.17225348e-01  1.00005000e-05  7.62590414e-01  1.00005000e-05  7.62528337e-01  1.00005000e-05  1.80000000e+00  1.00005000e-05  4.94730467e-08  1.00005000e-05  7.62590414e-01                                 
 1.00005500e-05  8.17223924e-01  1.00005500e-05  7.62589185e-01  1.00005500e-05  7.55634938e-01  1.00005500e-05  1.62000000e+00  1.00005500e-05 -1.04727910e-04  1.00005500e-05  7.62589185e-01                                 
 1.00006500e-05  8.17221132e-01  1.00006500e-05  7.62586732e-01  1.00006500e-05  7.46194206e-01  1.00006500e-05  1.26000000e+00  1.00006500e-05 -4.87009096e-05  1.00006500e-05  7.62586732e-01                                 
 1.00008500e-05  8.17215407e-01  1.00008500e-05  7.62581693e-01  1.00008500e-05  7.46308997e-01  1.00008500e-05  5.40000000e-01  1.00008500e-05 -8.01414022e-04  1.00008500e-05  7.62581693e-01                                 
 1.00010000e-05  8.17210906e-01  1.00010000e-05  7.62577748e-01  1.00010000e-05  7.59041759e-01  1.00010000e-05  0.00000000e+00  1.00010000e-05  1.48927780e+00  1.00010000e-05  7.62577748e-01                                 
