 time            v(vbep)         time            v(vben)         time            v(vout)         time            v(vphi1)        time            v(vphi2)        time            v(vref)         yes             currtemp       
 0.00000000e+00  5.64292695e-01  0.00000000e+00  4.97585296e-01  0.00000000e+00  1.03237383e+00  0.00000000e+00  0.00000000e+00  0.00000000e+00  1.79995262e+00  0.00000000e+00  5.00000000e-01  1.00000000e+00  9.30000000e+01 
 5.00000000e-12  5.64259043e-01  5.00000000e-12  4.97557519e-01  5.00000000e-12  1.03317809e+00  5.00000000e-12  1.80000000e-02  5.00000000e-12  1.80007097e+00  5.00000000e-12  5.00000000e-01                                 
 1.00000000e-11  5.64226300e-01  1.00000000e-11  4.97530498e-01  1.00000000e-11  1.03391383e+00  1.00000000e-11  3.60000000e-02  1.00000000e-11  1.80013200e+00  1.00000000e-11  5.00000000e-01                                 
 2.00000000e-11  5.64161360e-01  2.00000000e-11  4.97476669e-01  2.00000000e-11  1.03528018e+00  2.00000000e-11  7.20000000e-02  2.00000000e-11  1.80018693e+00  2.00000000e-11  5.00000000e-01                                 
 4.00000000e-11  5.64032416e-01  4.00000000e-11  4.97369438e-01  4.00000000e-11  1.03754088e+00  4.00000000e-11  1.44000000e-01  4.00000000e-11  1.80014613e+00  4.00000000e-11  5.00000000e-01                                 
 8.00000000e-11  5.63775785e-01  8.00000000e-11  4.97155927e-01  8.00000000e-11  1.04089979e+00  8.00000000e-11  2.88000000e-01  8.00000000e-11  1.80006528e+00  8.00000000e-11  5.00000000e-01                                 
 1.60000000e-10  5.63267884e-01  1.60000000e-10  4.96732644e-01  1.60000000e-10  1.04518449e+00  1.60000000e-10  5.76000000e-01  1.60000000e-10  1.80000390e+00  1.60000000e-10  5.00000000e-01                                 
 3.20000000e-10  5.62272245e-01  3.20000000e-10  4.95900495e-01  3.20000000e-10  1.04190647e+00  3.20000000e-10  1.15200000e+00  3.20000000e-10  1.80051497e+00  3.20000000e-10  5.00000000e-01                                 
 5.00000000e-10  5.61183199e-01  5.00000000e-10  4.94986499e-01  5.00000000e-10  1.14924694e+00  5.00000000e-10  1.80000000e+00  5.00000000e-10  1.42704594e-01  5.00000000e-10  5.00000000e-01                                 
 5.22698040e-10  5.61048393e-01  5.22698040e-10  4.94873065e-01  5.22698040e-10  1.17700275e+00  5.22698040e-10  1.80000000e+00  5.22698040e-10  3.13489784e-02  5.22698040e-10  5.00000000e-01                                 
 5.68094121e-10  5.60779733e-01  5.68094121e-10  4.94646870e-01  5.68094121e-10  1.22933717e+00  5.68094121e-10  1.80000000e+00  5.68094121e-10 -1.37922667e-02  5.68094121e-10  5.00000000e-01                                 
 6.58886283e-10  5.60248207e-01  6.58886283e-10  4.94198672e-01  6.58886283e-10  1.31970512e+00  6.58886283e-10  1.80000000e+00  6.58886283e-10  1.12113056e-02  6.58886283e-10  5.00000000e-01                                 
 7.81722626e-10  5.59541084e-01  7.81722626e-10  4.93600995e-01  7.81722626e-10  1.42186789e+00  7.81722626e-10  1.80000000e+00  7.81722626e-10 -9.32908537e-03  7.81722626e-10  5.00000000e-01                                 
 9.79315379e-10  5.58431343e-01  9.79315379e-10  4.92659812e-01  9.79315379e-10  1.54558558e+00  9.79315379e-10  1.80000000e+00  9.79315379e-10  8.69552872e-03  9.79315379e-10  5.00000000e-01                                 
 1.37450088e-09  5.56307347e-01  1.37450088e-09  4.90847767e-01  1.37450088e-09  1.68504657e+00  1.37450088e-09  1.80000000e+00  1.37450088e-09 -8.12420868e-03  1.37450088e-09  5.00000000e-01                                 
 1.67390272e-09  5.54777669e-01  1.67390272e-09  4.89533934e-01  1.67390272e-09  1.72882383e+00  1.67390272e-09  1.80000000e+00  1.67390272e-09  7.76775860e-03  1.67390272e-09  5.00000000e-01                                 
 2.03787742e-09  5.53001154e-01  2.03787742e-09  4.87999175e-01  2.03787742e-09  1.75142299e+00  2.03787742e-09  1.80000000e+00  2.03787742e-09 -7.25162005e-03  2.03787742e-09  5.00000000e-01                                 
 2.38561686e-09  5.51382276e-01  2.38561686e-09  4.86592359e-01  2.38561686e-09  1.75894144e+00  2.38561686e-09  1.80000000e+00  2.38561686e-09  6.99168437e-03  2.38561686e-09  5.00000000e-01                                 
 2.77819012e-09  5.49638476e-01  2.77819012e-09  4.85068428e-01  2.77819012e-09  1.76103631e+00  2.77819012e-09  1.80000000e+00  2.77819012e-09 -6.58415342e-03  2.77819012e-09  5.00000000e-01                                 
 3.24223902e-09  5.47681334e-01  3.24223902e-09  4.83347755e-01  3.24223902e-09  1.76082781e+00  3.24223902e-09  1.80000000e+00  3.24223902e-09  6.39754074e-03  3.24223902e-09  5.00000000e-01                                 
 3.73383860e-09  5.45719450e-01  3.73383860e-09  4.81612214e-01  3.73383860e-09  1.75949543e+00  3.73383860e-09  1.80000000e+00  3.73383860e-09 -6.10562667e-03  3.73383860e-09  5.00000000e-01                                 
 4.41961665e-09  5.43151955e-01  4.41961665e-09  4.79325443e-01  4.41961665e-09  1.75758933e+00  4.41961665e-09  1.80000000e+00  4.41961665e-09  5.99954432e-03  4.41961665e-09  5.00000000e-01                                 
 5.37285541e-09  5.39867093e-01  5.37285541e-09  4.76375160e-01  5.37285541e-09  1.75484345e+00  5.37285541e-09  1.80000000e+00  5.37285541e-09 -5.83359330e-03  5.37285541e-09  5.00000000e-01                                 
 7.20420216e-09  5.34296586e-01  7.20420216e-09  4.71314368e-01  7.20420216e-09  1.75021493e+00  7.20420216e-09  1.80000000e+00  7.20420216e-09  5.82828009e-03  7.20420216e-09  5.00000000e-01                                 
 1.06938809e-08  5.25617099e-01  1.06938809e-08  4.63299329e-01  1.06938809e-08  1.74190291e+00  1.06938809e-08  1.80000000e+00  1.06938809e-08 -5.74533718e-03  1.06938809e-08  5.00000000e-01                                 
 1.76732383e-08  5.12793780e-01  1.76732383e-08  4.51217334e-01  1.76732383e-08  1.72452853e+00  1.76732383e-08  1.80000000e+00  1.76732383e-08  5.78396566e-03  1.76732383e-08  5.00000000e-01                                 
 3.16319531e-08  4.95569943e-01  3.16319531e-08  4.34712443e-01  3.16319531e-08  1.68141514e+00  3.16319531e-08  1.80000000e+00  3.16319531e-08 -5.72228562e-03  3.16319531e-08  5.00000000e-01                                 
 5.11140677e-08  4.76778317e-01  5.11140677e-08  4.17118531e-01  5.11140677e-08  1.61344442e+00  5.11140677e-08  1.80000000e+00  5.11140677e-08  5.77159401e-03  5.11140677e-08  5.00000000e-01                                 
 6.93530622e-08  4.63050710e-01  6.93530622e-08  4.04430133e-01  6.93530622e-08  1.54379313e+00  6.93530622e-08  1.80000000e+00  6.93530622e-08 -5.71109390e-03  6.93530622e-08  5.00000000e-01                                 
 8.85917044e-08  4.51927393e-01  8.85917044e-08  3.94127916e-01  8.85917044e-08  1.43431907e+00  8.85917044e-08  1.80000000e+00  8.85917044e-08  5.76078528e-03  8.85917044e-08  5.00000000e-01                                 
 1.11268177e-07  4.42427193e-01  1.11268177e-07  3.85190467e-01  1.11268177e-07  1.29022435e+00  1.11268177e-07  1.80000000e+00  1.11268177e-07 -5.70106985e-03  1.11268177e-07  5.00000000e-01                                 
 1.35497227e-07  4.43077284e-01  1.35497227e-07  3.84418247e-01  1.35497227e-07  1.16536845e+00  1.35497227e-07  1.80000000e+00  1.35497227e-07  5.75253416e-03  1.35497227e-07  5.00000000e-01                                 
 1.55382794e-07  4.43232942e-01  1.55382794e-07  3.83614266e-01  1.55382794e-07  1.05191773e+00  1.55382794e-07  1.80000000e+00  1.55382794e-07 -5.69178818e-03  1.55382794e-07  5.00000000e-01                                 
 1.77102831e-07  4.38195516e-01  1.77102831e-07  3.78738273e-01  1.77102831e-07  9.55584193e-01  1.77102831e-07  1.80000000e+00  1.77102831e-07  5.74238488e-03  1.77102831e-07  5.00000000e-01                                 
 2.00242168e-07  4.34813978e-01  2.00242168e-07  3.75220649e-01  2.00242168e-07  8.84143409e-01  2.00242168e-07  1.80000000e+00  2.00242168e-07 -5.68265115e-03  2.00242168e-07  5.00000000e-01                                 
 2.22735256e-07  4.32005985e-01  2.22735256e-07  3.72264565e-01  2.22735256e-07  8.24034337e-01  2.22735256e-07  1.80000000e+00  2.22735256e-07  5.73344591e-03  2.22735256e-07  5.00000000e-01                                 
 2.59842367e-07  4.25387160e-01  2.59842367e-07  3.65957658e-01  2.59842367e-07  7.24249737e-01  2.59842367e-07  1.80000000e+00  2.59842367e-07 -5.67549895e-03  2.59842367e-07  5.00000000e-01                                 
 3.08363375e-07  4.13269976e-01  3.08363375e-07  3.55182752e-01  3.08363375e-07  6.04975168e-01  3.08363375e-07  1.80000000e+00  3.08363375e-07  5.72851871e-03  3.08363375e-07  5.00000000e-01                                 
 3.75254276e-07  3.96249422e-01  3.75254276e-07  3.40389535e-01  3.75254276e-07  4.89132218e-01  3.75254276e-07  1.80000000e+00  3.75254276e-07 -5.67191719e-03  3.75254276e-07  5.00000000e-01                                 
 4.46307689e-07  3.78621333e-01  4.46307689e-07  3.25343778e-01  4.46307689e-07  4.44100663e-01  4.46307689e-07  1.80000000e+00  4.46307689e-07  5.72558482e-03  4.46307689e-07  5.00000000e-01                                 
 5.02865064e-07  3.61838364e-01  5.02865064e-07  3.11362907e-01  5.02865064e-07  4.48010179e-01  5.02865064e-07  1.80000000e+00  5.02865064e-07 -5.66878373e-03  5.02865064e-07  5.00000000e-01                                 
 5.67769513e-07  3.44343474e-01  5.67769513e-07  2.96881553e-01  5.67769513e-07  5.48489716e-01  5.67769513e-07  1.80000000e+00  5.67769513e-07  5.72227419e-03  5.67769513e-07  5.00000000e-01                                 
 6.32348492e-07  3.16904872e-01  6.32348492e-07  2.74605859e-01  6.32348492e-07  5.23245034e-01  6.32348492e-07  1.80000000e+00  6.32348492e-07 -5.66587218e-03  6.32348492e-07  5.00000000e-01                                 
 6.90586634e-07  3.03078615e-01  6.90586634e-07  2.63402902e-01  6.90586634e-07  4.22396916e-01  6.90586634e-07  1.80000000e+00  6.90586634e-07  5.71919848e-03  6.90586634e-07  5.00000000e-01                                 
 7.33914908e-07  3.51172068e-01  7.33914908e-07  3.01996045e-01  7.33914908e-07  4.91158429e-01  7.33914908e-07  1.80000000e+00  7.33914908e-07 -5.66038810e-03  7.33914908e-07  5.00000000e-01                                 
 7.67421252e-07  5.30507489e-01  7.67421252e-07  4.54011260e-01  7.67421252e-07  6.62282677e-01  7.67421252e-07  1.80000000e+00  7.67421252e-07  5.71914154e-03  7.67421252e-07  5.00000000e-01                                 
 7.90317102e-07  6.19879392e-01  7.90317102e-07  5.49293187e-01  7.90317102e-07  6.58107498e-01  7.90317102e-07  1.80000000e+00  7.90317102e-07 -5.65313056e-03  7.90317102e-07  5.00000000e-01                                 
 8.20133382e-07  6.77401740e-01  8.20133382e-07  6.04386954e-01  8.20133382e-07  5.70449343e-01  8.20133382e-07  1.80000000e+00  8.20133382e-07  5.70806100e-03  8.20133382e-07  5.00000000e-01                                 
 8.46022433e-07  7.04001693e-01  8.46022433e-07  6.26299175e-01  8.46022433e-07  5.33781525e-01  8.46022433e-07  1.80000000e+00  8.46022433e-07 -5.64705203e-03  8.46022433e-07  5.00000000e-01                                 
 8.72165011e-07  7.05800790e-01  8.72165011e-07  6.27987922e-01  8.72165011e-07  4.96782649e-01  8.72165011e-07  1.80000000e+00  8.72165011e-07  5.69813808e-03  8.72165011e-07  5.00000000e-01                                 
 9.09266064e-07  7.06018364e-01  9.09266064e-07  6.27937660e-01  9.09266064e-07  4.86850017e-01  9.09266064e-07  1.80000000e+00  9.09266064e-07 -5.64021239e-03  9.09266064e-07  5.00000000e-01                                 
 9.13964631e-07  7.06029140e-01  9.13964631e-07  6.28042765e-01  9.13964631e-07  4.86465804e-01  9.13964631e-07  1.80000000e+00  9.13964631e-07  9.19836214e-06  9.13964631e-07  5.00000000e-01                                 
 9.23361764e-07  7.06029094e-01  9.23361764e-07  6.28063408e-01  9.23361764e-07  4.85712185e-01  9.23361764e-07  1.80000000e+00  9.23361764e-07  2.00958812e-05  9.23361764e-07  5.00000000e-01                                 
 9.42156031e-07  7.05963983e-01  9.42156031e-07  6.27995509e-01  9.42156031e-07  4.84304375e-01  9.42156031e-07  1.80000000e+00  9.42156031e-07  9.21392925e-06  9.42156031e-07  5.00000000e-01                                 
 9.74046109e-07  7.06058149e-01  9.74046109e-07  6.28084025e-01  9.74046109e-07  4.82620277e-01  9.74046109e-07  1.80000000e+00  9.74046109e-07  2.00953405e-05  9.74046109e-07  5.00000000e-01                                 
 1.01674022e-06  6.90027919e-01  1.01674022e-06  6.15038775e-01  1.01674022e-06  4.84000864e-01  1.01674022e-06  1.80000000e+00  1.01674022e-06  8.58244504e-06  1.01674022e-06  5.00000000e-01                                 
 1.07059217e-06  6.62794060e-01  1.07059217e-06  5.91351377e-01  1.07059217e-06  5.07284846e-01  1.07059217e-06  1.80000000e+00  1.07059217e-06  1.98575532e-05  1.07059217e-06  5.00000000e-01                                 
 1.11948903e-06  6.78135900e-01  1.11948903e-06  6.04840824e-01  1.11948903e-06  5.14648020e-01  1.11948903e-06  1.80000000e+00  1.11948903e-06  9.97252832e-06  1.11948903e-06  5.00000000e-01                                 
 1.16976879e-06  6.98975073e-01  1.16976879e-06  6.22375599e-01  1.16976879e-06  4.95553524e-01  1.16976879e-06  1.80000000e+00  1.16976879e-06  2.00517149e-05  1.16976879e-06  5.00000000e-01                                 
 1.22283313e-06  6.88084810e-01  1.22283313e-06  6.13404842e-01  1.22283313e-06  4.90401973e-01  1.22283313e-06  1.80000000e+00  1.22283313e-06  8.91280917e-06  1.22283313e-06  5.00000000e-01                                 
 1.27926815e-06  6.75172207e-01  1.27926815e-06  6.02305065e-01  1.27926815e-06  5.03155075e-01  1.27926815e-06  1.80000000e+00  1.27926815e-06  2.00002602e-05  1.27926815e-06  5.00000000e-01                                 
 1.34520189e-06  6.87080003e-01  1.34520189e-06  6.12520911e-01  1.34520189e-06  5.08402040e-01  1.34520189e-06  1.80000000e+00  1.34520189e-06  9.61338960e-06  1.34520189e-06  5.00000000e-01                                 
 1.41697132e-06  6.90841099e-01  1.41697132e-06  6.15687949e-01  1.41697132e-06  4.92356044e-01  1.41697132e-06  1.80000000e+00  1.41697132e-06  1.97876646e-05  1.41697132e-06  5.00000000e-01                                 
 1.50233359e-06  6.80715820e-01  1.50233359e-06  6.07117593e-01  1.50233359e-06  5.00765294e-01  1.50233359e-06  1.80000000e+00  1.50233359e-06  9.31892839e-06  1.50233359e-06  5.00000000e-01                                 
 1.60087541e-06  6.86250482e-01  1.60087541e-06  6.11816710e-01  1.60087541e-06  5.05470790e-01  1.60087541e-06  1.80000000e+00  1.60087541e-06  2.00825316e-05  1.60087541e-06  5.00000000e-01                                 
 1.69610440e-06  6.88386425e-01  1.69610440e-06  6.13641871e-01  1.69610440e-06  4.94035046e-01  1.69610440e-06  1.80000000e+00  1.69610440e-06  9.26684730e-06  1.69610440e-06  5.00000000e-01                                 
 1.84158280e-06  6.81908890e-01  1.84158280e-06  6.08128837e-01  1.84158280e-06  5.04213907e-01  1.84158280e-06  1.80000000e+00  1.84158280e-06  1.99646729e-05  1.84158280e-06  5.00000000e-01                                 
 1.98684880e-06  6.88650703e-01  1.98684880e-06  6.13855430e-01  1.98684880e-06  4.99681753e-01  1.98684880e-06  1.80000000e+00  1.98684880e-06  9.42281810e-06  1.98684880e-06  5.00000000e-01                                 
 2.14261837e-06  6.83607572e-01  2.14261837e-06  6.09587578e-01  2.14261837e-06  4.97903541e-01  2.14261837e-06  1.80000000e+00  2.14261837e-06  1.98309377e-05  2.14261837e-06  5.00000000e-01                                 
 2.35833942e-06  6.86525931e-01  2.35833942e-06  6.12061094e-01  2.35833942e-06  5.04103640e-01  2.35833942e-06  1.80000000e+00  2.35833942e-06  9.49989271e-06  2.35833942e-06  5.00000000e-01                                 
 2.61715242e-06  6.85511453e-01  2.61715242e-06  6.11206648e-01  2.61715242e-06  4.95729892e-01  2.61715242e-06  1.80000000e+00  2.61715242e-06  1.98022745e-05  2.61715242e-06  5.00000000e-01                                 
 3.02108525e-06  6.85261850e-01  3.02108525e-06  6.10990445e-01  3.02108525e-06  5.04925647e-01  3.02108525e-06  1.80000000e+00  3.02108525e-06  9.50476083e-06  3.02108525e-06  5.00000000e-01                                 
 3.46564295e-06  6.86316583e-01  3.46564295e-06  6.11887525e-01  3.46564295e-06  4.95672721e-01  3.46564295e-06  1.80000000e+00  3.46564295e-06  1.98078485e-05  3.46564295e-06  5.00000000e-01                                 
 4.00857703e-06  6.84668163e-01  4.00857703e-06  6.10486936e-01  4.00857703e-06  5.04668900e-01  4.00857703e-06  1.80000000e+00  4.00857703e-06  9.49520641e-06  4.00857703e-06  5.00000000e-01                                 
 4.65178923e-06  6.86702795e-01  4.65178923e-06  6.12213065e-01  4.65178923e-06  4.96101476e-01  4.65178923e-06  1.80000000e+00  4.65178923e-06  1.98186283e-05  4.65178923e-06  5.00000000e-01                                 
 5.39131107e-06  6.84395421e-01  5.39131107e-06  6.10255735e-01  5.39131107e-06  5.04165342e-01  5.39131107e-06  1.80000000e+00  5.39131107e-06  9.48436481e-06  5.39131107e-06  5.00000000e-01                                 
 6.28117437e-06  6.86874211e-01  6.28117437e-06  6.12357103e-01  6.28117437e-06  4.96617028e-01  6.28117437e-06  1.80000000e+00  6.28117437e-06  1.98287694e-05  6.28117437e-06  5.00000000e-01                                 
 7.28117437e-06  6.84279742e-01  7.28117437e-06  6.10157915e-01  7.28117437e-06  5.03664460e-01  7.28117437e-06  1.80000000e+00  7.28117437e-06  9.47515886e-06  7.28117437e-06  5.00000000e-01                                 
 8.28117437e-06  6.86945721e-01  8.28117437e-06  6.12416875e-01  8.28117437e-06  4.97131426e-01  8.28117437e-06  1.80000000e+00  8.28117437e-06  1.98377453e-05  8.28117437e-06  5.00000000e-01                                 
 9.28117437e-06  6.84234245e-01  9.28117437e-06  6.10119792e-01  9.28117437e-06  5.03114080e-01  9.28117437e-06  1.80000000e+00  9.28117437e-06  9.46600591e-06  9.28117437e-06  5.00000000e-01                                 
 1.00005000e-05  6.86957275e-01  1.00005000e-05  6.12425933e-01  1.00005000e-05  4.97829868e-01  1.00005000e-05  1.80000000e+00  1.00005000e-05  1.98487731e-05  1.00005000e-05  5.00000000e-01                                 
 1.00005500e-05  6.86968042e-01  1.00005500e-05  6.12436747e-01  1.00005500e-05  4.90561890e-01  1.00005500e-05  1.62000000e+00  1.00005500e-05 -7.95000796e-05  1.00005500e-05  5.00000000e-01                                 
 1.00006500e-05  6.86993005e-01  1.00006500e-05  6.12457753e-01  1.00006500e-05  4.77066365e-01  1.00006500e-05  1.26000000e+00  1.00006500e-05 -6.99331585e-05  1.00006500e-05  5.00000000e-01                                 
 1.00008500e-05  6.87035234e-01  1.00008500e-05  6.12491548e-01  1.00008500e-05  4.76822046e-01  1.00008500e-05  5.40000000e-01  1.00008500e-05  1.68463902e-01  1.00008500e-05  5.00000000e-01                                 
 1.00010000e-05  6.87057778e-01  1.00010000e-05  6.12510601e-01  1.00010000e-05  4.48372423e-01  1.00010000e-05  0.00000000e+00  1.00010000e-05  1.63889981e+00  1.00010000e-05  5.00000000e-01                                 
 1.00010247e-05  6.87061149e-01  1.00010247e-05  6.12513262e-01  1.00010247e-05  4.33198915e-01  1.00010247e-05  0.00000000e+00  1.00010247e-05  1.74587340e+00  1.00010247e-05  5.00000000e-01                                 
 1.00010741e-05  6.87067402e-01  1.00010741e-05  6.12518366e-01  1.00010741e-05  4.08224469e-01  1.00010741e-05  0.00000000e+00  1.00010741e-05  1.81549640e+00  1.00010741e-05  5.00000000e-01                                 
