 time            v(vbep)         time            v(vben)         time            v(vout)         time            v(vphi1)        time            v(vphi2)        time            v(vref)         yes             currtemp       
 0.00000000e+00  6.90320892e-01  0.00000000e+00  6.37605624e-01  0.00000000e+00  9.40691538e-02  0.00000000e+00  0.00000000e+00  0.00000000e+00  1.79997988e+00  0.00000000e+00  5.00000000e-01  1.00000000e+00  1.50000000e+01 
 5.00000000e-12  6.90307464e-01  5.00000000e-12  6.37594431e-01  5.00000000e-12  9.45472100e-02  5.00000000e-12  1.80000000e-02  5.00000000e-12  1.80005989e+00  5.00000000e-12  5.00000000e-01                                 
 1.00000000e-11  6.90294189e-01  1.00000000e-11  6.37583452e-01  1.00000000e-11  9.49757083e-02  1.00000000e-11  3.60000000e-02  1.00000000e-11  1.80009847e+00  1.00000000e-11  5.00000000e-01                                 
 2.00000000e-11  6.90267714e-01  2.00000000e-11  6.37561548e-01  2.00000000e-11  9.57610684e-02  2.00000000e-11  7.20000000e-02  2.00000000e-11  1.80013234e+00  2.00000000e-11  5.00000000e-01                                 
 4.00000000e-11  6.90214901e-01  4.00000000e-11  6.37517836e-01  4.00000000e-11  9.69999177e-02  4.00000000e-11  1.44000000e-01  4.00000000e-11  1.80010936e+00  4.00000000e-11  5.00000000e-01                                 
 8.00000000e-11  6.90109539e-01  8.00000000e-11  6.37430599e-01  8.00000000e-11  9.86938073e-02  8.00000000e-11  2.88000000e-01  8.00000000e-11  1.80006597e+00  8.00000000e-11  5.00000000e-01                                 
 1.60000000e-10  6.89899940e-01  1.60000000e-10  6.37256890e-01  1.60000000e-10  1.00837139e-01  1.60000000e-10  5.76000000e-01  1.60000000e-10  1.80002697e+00  1.60000000e-10  5.00000000e-01                                 
 3.20000000e-10  6.89485169e-01  3.20000000e-10  6.36912526e-01  3.20000000e-10  1.35260931e-01  3.20000000e-10  1.15200000e+00  3.20000000e-10  1.80000231e+00  3.20000000e-10  5.00000000e-01                                 
 5.00000000e-10  6.89025613e-01  5.00000000e-10  6.36530009e-01  5.00000000e-10  4.95687744e-01  5.00000000e-10  1.80000000e+00  5.00000000e-10  1.07677127e-01  5.00000000e-10  5.00000000e-01                                 
 5.21413322e-10  6.88971492e-01  5.21413322e-10  6.36484887e-01  5.21413322e-10  5.63896366e-01  5.21413322e-10  1.80000000e+00  5.21413322e-10  1.99035861e-02  5.21413322e-10  5.00000000e-01                                 
 5.64239967e-10  6.88863455e-01  5.64239967e-10  6.36394784e-01  5.64239967e-10  6.86330552e-01  5.64239967e-10  1.80000000e+00  5.64239967e-10 -9.47725896e-03  5.64239967e-10  5.00000000e-01                                 
 6.49893257e-10  6.88648617e-01  6.49893257e-10  6.36215445e-01  6.49893257e-10  8.72383115e-01  6.49893257e-10  1.80000000e+00  6.49893257e-10  8.10496073e-03  6.49893257e-10  5.00000000e-01                                 
 7.72986720e-10  6.88342716e-01  7.72986720e-10  6.35959712e-01  7.72986720e-10  1.07392745e+00  7.72986720e-10  1.80000000e+00  7.72986720e-10 -7.08916193e-03  7.72986720e-10  5.00000000e-01                                 
 9.64079908e-10  6.87874312e-01  9.64079908e-10  6.35567273e-01  9.64079908e-10  1.32505104e+00  9.64079908e-10  1.80000000e+00  9.64079908e-10  6.70197119e-03  9.64079908e-10  5.00000000e-01                                 
 1.32497192e-09  6.87010355e-01  1.32497192e-09  6.34840765e-01  1.32497192e-09  1.65382514e+00  1.32497192e-09  1.80000000e+00  1.32497192e-09 -6.35117907e-03  1.32497192e-09  5.00000000e-01                                 
 1.97050018e-09  6.85527870e-01  1.97050018e-09  6.33586279e-01  1.97050018e-09  1.87692386e+00  1.97050018e-09  1.80000000e+00  1.97050018e-09  6.30337914e-03  1.97050018e-09  5.00000000e-01                                 
 2.22678928e-09  6.84960605e-01  2.22678928e-09  6.33103587e-01  2.22678928e-09  1.89553479e+00  2.22678928e-09  1.80000000e+00  2.22678928e-09 -5.90356429e-03  2.22678928e-09  5.00000000e-01                                 
 2.54271603e-09  6.84276748e-01  2.54271603e-09  6.32519809e-01  2.54271603e-09  1.90318838e+00  2.54271603e-09  1.80000000e+00  2.54271603e-09  5.71081213e-03  2.54271603e-09  5.00000000e-01                                 
 2.89269341e-09  6.83538158e-01  2.89269341e-09  6.31887037e-01  2.89269341e-09  1.90712656e+00  2.89269341e-09  1.80000000e+00  2.89269341e-09 -5.44698223e-03  2.89269341e-09  5.00000000e-01                                 
 3.59264816e-09  6.82116463e-01  3.59264816e-09  6.30662629e-01  3.59264816e-09  1.91093992e+00  3.59264816e-09  1.80000000e+00  3.59264816e-09  5.38623063e-03  3.59264816e-09  5.00000000e-01                                 
 4.57239342e-09  6.80239815e-01  4.57239342e-09  6.29033832e-01  4.57239342e-09  1.90938657e+00  4.57239342e-09  1.80000000e+00  4.57239342e-09 -5.27787068e-03  4.57239342e-09  5.00000000e-01                                 
 6.53188395e-09  6.76820080e-01  6.53188395e-09  6.26031820e-01  6.53188395e-09  1.89945189e+00  6.53188395e-09  1.80000000e+00  6.53188395e-09  5.27882685e-03  6.53188395e-09  5.00000000e-01                                 
 9.18357872e-09  6.72763057e-01  9.18357872e-09  6.22417002e-01  9.18357872e-09  1.88719992e+00  9.18357872e-09  1.80000000e+00  9.18357872e-09 -5.21292210e-03  9.18357872e-09  5.00000000e-01                                 
 1.05896622e-08  6.70831631e-01  1.05896622e-08  6.20676361e-01  1.05896622e-08  1.88218953e+00  1.05896622e-08  1.80000000e+00  1.05896622e-08  5.19510430e-03  1.05896622e-08  5.00000000e-01                                 
 1.24546905e-08  6.68459573e-01  1.24546905e-08  6.18523255e-01  1.24546905e-08  1.87624570e+00  1.24546905e-08  1.80000000e+00  1.24546905e-08 -5.13039513e-03  1.24546905e-08  5.00000000e-01                                 
 1.44458916e-08  6.66136641e-01  1.44458916e-08  6.16398614e-01  1.44458916e-08  1.87062673e+00  1.44458916e-08  1.80000000e+00  1.44458916e-08  5.12103065e-03  1.44458916e-08  5.00000000e-01                                 
 1.78369481e-08  6.62597070e-01  1.78369481e-08  6.13131550e-01  1.78369481e-08  1.86220368e+00  1.78369481e-08  1.80000000e+00  1.78369481e-08 -5.07721182e-03  1.78369481e-08  5.00000000e-01                                 
 2.17640640e-08  6.59044437e-01  2.17640640e-08  6.09814956e-01  2.17640640e-08  1.85374374e+00  2.17640640e-08  1.80000000e+00  2.17640640e-08  5.08293309e-03  2.17640640e-08  5.00000000e-01                                 
 2.83573641e-08  6.54051502e-01  2.83573641e-08  6.05092495e-01  2.83573641e-08  1.84153690e+00  2.83573641e-08  1.80000000e+00  2.83573641e-08 -5.04975655e-03  2.83573641e-08  5.00000000e-01                                 
 3.82827012e-08  6.48048449e-01  3.82827012e-08  5.99333704e-01  3.82827012e-08  1.82588873e+00  3.82827012e-08  1.80000000e+00  3.82827012e-08  5.06587451e-03  3.82827012e-08  5.00000000e-01                                 
 5.81333753e-08  6.38957319e-01  5.81333753e-08  5.90511982e-01  5.81333753e-08  1.79801160e+00  5.81333753e-08  1.80000000e+00  5.81333753e-08 -5.03956437e-03  5.81333753e-08  5.00000000e-01                                 
 9.40371098e-08  6.27572533e-01  9.40371098e-08  5.79353914e-01  9.40371098e-08  1.75394657e+00  9.40371098e-08  1.80000000e+00  9.40371098e-08  5.06073108e-03  9.40371098e-08  5.00000000e-01                                 
 1.41662993e-07  6.14725909e-01  1.41662993e-07  5.67198215e-01  1.41662993e-07  1.69748351e+00  1.41662993e-07  1.80000000e+00  1.41662993e-07 -5.03624559e-03  1.41662993e-07  5.00000000e-01                                 
 1.89901129e-07  6.02868906e-01  1.89901129e-07  5.56340510e-01  1.89901129e-07  1.64036602e+00  1.89901129e-07  1.80000000e+00  1.89901129e-07  5.05795257e-03  1.89901129e-07  5.00000000e-01                                 
 2.86377400e-07  5.83373961e-01  2.86377400e-07  5.38811876e-01  2.86377400e-07  1.52734888e+00  2.86377400e-07  1.80000000e+00  2.86377400e-07 -5.03413344e-03  2.86377400e-07  5.00000000e-01                                 
 3.81625649e-07  5.65378363e-01  3.81625649e-07  5.23198849e-01  3.81625649e-07  1.41438526e+00  3.81625649e-07  1.80000000e+00  3.81625649e-07  5.05657501e-03  3.81625649e-07  5.00000000e-01                                 
 5.72122148e-07  5.28465082e-01  5.72122148e-07  4.92323637e-01  5.72122148e-07  1.18470238e+00  5.72122148e-07  1.80000000e+00  5.72122148e-07 -5.03309137e-03  5.72122148e-07  5.00000000e-01                                 
 6.15013800e-07  5.19432586e-01  6.15013800e-07  4.84966087e-01  6.15013800e-07  1.13145627e+00  6.15013800e-07  1.80000000e+00  6.15013800e-07 -2.68369358e-07  6.15013800e-07  5.00000000e-01                                 
 7.00797105e-07  5.00402026e-01  7.00797105e-07  4.69533317e-01  7.00797105e-07  1.02309716e+00  7.00797105e-07  1.80000000e+00  7.00797105e-07  4.59447891e-07  7.00797105e-07  5.00000000e-01                                 
 7.22242931e-07  4.95758406e-01  7.22242931e-07  4.65785782e-01  7.22242931e-07  9.96935384e-01  7.22242931e-07  1.80000000e+00  7.22242931e-07  9.77158051e-08  7.22242931e-07  5.00000000e-01                                 
 7.65134583e-07  4.86897131e-01  7.65134583e-07  4.58640369e-01  7.65134583e-07  9.49244743e-01  7.65134583e-07  1.80000000e+00  7.65134583e-07  1.06728535e-07  7.65134583e-07  5.00000000e-01                                 
 8.26177652e-07  4.82718131e-01  8.26177652e-07  4.55242488e-01  8.26177652e-07  8.98550998e-01  8.26177652e-07  1.80000000e+00  8.26177652e-07  2.08522073e-07  8.26177652e-07  5.00000000e-01                                 
 8.91119787e-07  5.36052774e-01  8.91119787e-07  4.97819833e-01  8.91119787e-07  8.96794929e-01  8.91119787e-07  1.80000000e+00  8.91119787e-07  8.23886309e-07  8.91119787e-07  5.00000000e-01                                 
 9.53515967e-07  7.33561854e-01  9.53515967e-07  6.78244836e-01  9.53515967e-07  1.01969063e+00  9.53515967e-07  1.80000000e+00  9.53515967e-07  2.67079208e-06  9.53515967e-07  5.00000000e-01                                 
 9.63211152e-07  7.49969691e-01  9.63211152e-07  6.95513451e-01  9.63211152e-07  1.02674381e+00  9.63211152e-07  1.80000000e+00  9.63211152e-07  1.35788689e-06  9.63211152e-07  5.00000000e-01                                 
 9.82601522e-07  7.70371822e-01  9.82601522e-07  7.15873232e-01  9.82601522e-07  1.02765535e+00  9.82601522e-07  1.80000000e+00  9.82601522e-07  4.71535758e-07  9.82601522e-07  5.00000000e-01                                 
 1.02138226e-06  7.94895772e-01  1.02138226e-06  7.38820009e-01  1.02138226e-06  1.01160005e+00  1.02138226e-06  1.80000000e+00  1.02138226e-06  6.96562678e-07  1.02138226e-06  5.00000000e-01                                 
 1.06311953e-06  8.08886336e-01  1.06311953e-06  7.51345625e-01  1.06311953e-06  9.84188156e-01  1.06311953e-06  1.80000000e+00  1.06311953e-06  1.43730610e-07  1.06311953e-06  5.00000000e-01                                 
 1.13156025e-06  8.19607758e-01  1.13156025e-06  7.60466379e-01  1.13156025e-06  9.33826162e-01  1.13156025e-06  1.80000000e+00  1.13156025e-06  4.23783463e-07  1.13156025e-06  5.00000000e-01                                 
 1.13934468e-06  8.20290063e-01  1.13934468e-06  7.61045722e-01  1.13934468e-06  9.28449783e-01  1.13934468e-06  1.80000000e+00  1.13934468e-06  2.64077340e-07  1.13934468e-06  5.00000000e-01                                 
 1.15491355e-06  8.21617415e-01  1.15491355e-06  7.62148857e-01  1.15491355e-06  9.17600527e-01  1.15491355e-06  1.80000000e+00  1.15491355e-06  2.32237633e-07  1.15491355e-06  5.00000000e-01                                 
 1.18605128e-06  8.14079760e-01  1.18605128e-06  7.55857086e-01  1.18605128e-06  8.88817926e-01  1.18605128e-06  1.80000000e+00  1.18605128e-06 -1.41633675e-07  1.18605128e-06  5.00000000e-01                                 
 1.19122969e-06  8.09763490e-01  1.19122969e-06  7.52155065e-01  1.19122969e-06  8.81703552e-01  1.19122969e-06  1.80000000e+00  1.19122969e-06 -3.14090855e-07  1.19122969e-06  5.00000000e-01                                 
 1.20158651e-06  8.00803249e-01  1.20158651e-06  7.44257979e-01  1.20158651e-06  8.67105994e-01  1.20158651e-06  1.80000000e+00  1.20158651e-06 -4.01821188e-07  1.20158651e-06  5.00000000e-01                                 
 1.22230015e-06  7.90479843e-01  1.22230015e-06  7.34837706e-01  1.22230015e-06  8.44728543e-01  1.22230015e-06  1.80000000e+00  1.22230015e-06  8.15960417e-08  1.22230015e-06  5.00000000e-01                                 
 1.25990013e-06  7.95565991e-01  1.25990013e-06  7.39464320e-01  1.25990013e-06  8.26324128e-01  1.25990013e-06  1.80000000e+00  1.25990013e-06  4.38936473e-07  1.25990013e-06  5.00000000e-01                                 
 1.30753100e-06  8.06529880e-01  1.30753100e-06  7.49275863e-01  1.30753100e-06  8.08390631e-01  1.30753100e-06  1.80000000e+00  1.30753100e-06  2.46491151e-07  1.30753100e-06  5.00000000e-01                                 
 1.36381981e-06  8.06490927e-01  1.36381981e-06  7.49257073e-01  1.36381981e-06  7.77526599e-01  1.36381981e-06  1.80000000e+00  1.36381981e-06  1.30081494e-07  1.36381981e-06  5.00000000e-01                                 
 1.45060725e-06  7.97966934e-01  1.45060725e-06  7.41663998e-01  1.45060725e-06  7.25560452e-01  1.45060725e-06  1.80000000e+00  1.45060725e-06  1.14923931e-07  1.45060725e-06  5.00000000e-01                                 
 1.55060917e-06  8.03639654e-01  1.55060917e-06  7.46725410e-01  1.55060917e-06  6.82277925e-01  1.55060917e-06  1.80000000e+00  1.55060917e-06  3.25158015e-07  1.55060917e-06  5.00000000e-01                                 
 1.68147766e-06  8.04070276e-01  1.68147766e-06  7.47124385e-01  1.68147766e-06  6.22967998e-01  1.68147766e-06  1.80000000e+00  1.68147766e-06  5.64405177e-08  1.68147766e-06  5.00000000e-01                                 
 1.83903790e-06  7.99457710e-01  1.83903790e-06  7.42996527e-01  1.83903790e-06  5.54566576e-01  1.83903790e-06  1.80000000e+00  1.83903790e-06  2.73887567e-07  1.83903790e-06  5.00000000e-01                                 
 2.04657245e-06  8.05806930e-01  2.04657245e-06  7.48649890e-01  2.04657245e-06  5.10918845e-01  2.04657245e-06  1.80000000e+00  2.04657245e-06  1.42354588e-07  2.04657245e-06  5.00000000e-01                                 
 2.07764745e-06  8.03476396e-01  2.07764745e-06  7.46594135e-01  2.07764745e-06  5.06331666e-01  2.07764745e-06  1.80000000e+00  2.07764745e-06  1.37601301e-07  2.07764745e-06  5.00000000e-01                                 
 2.13979743e-06  8.01057487e-01  2.13979743e-06  7.44436134e-01  2.13979743e-06  5.00225524e-01  2.13979743e-06  1.80000000e+00  2.13979743e-06  1.81936236e-07  2.13979743e-06  5.00000000e-01                                 
 2.26409740e-06  8.03313566e-01  2.26409740e-06  7.46443264e-01  2.26409740e-06  4.97408299e-01  2.26409740e-06  1.80000000e+00  2.26409740e-06  2.12747707e-07  2.26409740e-06  5.00000000e-01                                 
 2.44279762e-06  8.02365051e-01  2.44279762e-06  7.45605062e-01  2.44279762e-06  4.96341072e-01  2.44279762e-06  1.80000000e+00  2.44279762e-06  1.53170030e-07  2.44279762e-06  5.00000000e-01                                 
 2.63983379e-06  8.02188935e-01  2.63983379e-06  7.45443026e-01  2.63983379e-06  5.01906979e-01  2.63983379e-06  1.80000000e+00  2.63983379e-06  2.15998481e-07  2.63983379e-06  5.00000000e-01                                 
 2.89610893e-06  8.03179303e-01  2.89610893e-06  7.46328225e-01  2.89610893e-06  5.00346058e-01  2.89610893e-06  1.80000000e+00  2.89610893e-06  1.60022914e-07  2.89610893e-06  5.00000000e-01                                 
 3.21134412e-06  8.01724810e-01  3.21134412e-06  7.45030350e-01  3.21134412e-06  4.98850696e-01  3.21134412e-06  1.80000000e+00  3.21134412e-06  2.05434175e-07  3.21134412e-06  5.00000000e-01                                 
 3.76275247e-06  8.03386703e-01  3.76275247e-06  7.46511391e-01  3.76275247e-06  5.01784953e-01  3.76275247e-06  1.80000000e+00  3.76275247e-06  1.69463755e-07  3.76275247e-06  5.00000000e-01                                 
 4.34283068e-06  8.01644659e-01  4.34283068e-06  7.44959552e-01  4.34283068e-06  4.98367545e-01  4.34283068e-06  1.80000000e+00  4.34283068e-06  1.97917900e-07  4.34283068e-06  5.00000000e-01                                 
 5.34283068e-06  8.03414431e-01  5.34283068e-06  7.46535447e-01  5.34283068e-06  5.01937306e-01  5.34283068e-06  1.80000000e+00  5.34283068e-06  1.75469140e-07  5.34283068e-06  5.00000000e-01                                 
 6.34283068e-06  8.01645574e-01  6.34283068e-06  7.44960779e-01  6.34283068e-06  4.98386300e-01  6.34283068e-06  1.80000000e+00  6.34283068e-06  1.93436003e-07  6.34283068e-06  5.00000000e-01                                 
 7.34283068e-06  8.03398221e-01  7.34283068e-06  7.46520672e-01  7.34283068e-06  5.01842954e-01  7.34283068e-06  1.80000000e+00  7.34283068e-06  1.79948053e-07  7.34283068e-06  5.00000000e-01                                 
 8.34283068e-06  8.01677378e-01  8.34283068e-06  7.44989554e-01  8.34283068e-06  4.98541161e-01  8.34283068e-06  1.80000000e+00  8.34283068e-06  1.89002763e-07  8.34283068e-06  5.00000000e-01                                 
 9.34283068e-06  8.03353631e-01  9.34283068e-06  7.46480735e-01  9.34283068e-06  5.01647768e-01  9.34283068e-06  1.80000000e+00  9.34283068e-06  1.84295528e-07  9.34283068e-06  5.00000000e-01                                 
 1.00005000e-05  8.01756545e-01  1.00005000e-05  7.45060670e-01  1.00005000e-05  4.98830909e-01  1.00005000e-05  1.80000000e+00  1.00005000e-05  1.83739001e-07  1.00005000e-05  5.00000000e-01                                 
 1.00005500e-05  8.01756184e-01  1.00005500e-05  7.45060328e-01  1.00005500e-05  4.90822955e-01  1.00005500e-05  1.62000000e+00  1.00005500e-05 -7.33432115e-05  1.00005500e-05  5.00000000e-01                                 
 1.00006500e-05  8.01755460e-01  1.00006500e-05  7.45059665e-01  1.00006500e-05  4.77075770e-01  1.00006500e-05  1.26000000e+00  1.00006500e-05 -5.34715741e-05  1.00006500e-05  5.00000000e-01                                 
 1.00008500e-05  8.01754146e-01  1.00008500e-05  7.45058470e-01  1.00008500e-05  4.75826433e-01  1.00008500e-05  5.40000000e-01  1.00008500e-05 -1.78792838e-03  1.00008500e-05  5.00000000e-01                                 
 1.00010000e-05  8.01753151e-01  1.00010000e-05  7.45057589e-01  1.00010000e-05  4.38021317e-01  1.00010000e-05  0.00000000e+00  1.00010000e-05  1.56044982e+00  1.00010000e-05  5.00000000e-01                                 
 1.00010170e-05  8.01752985e-01  1.00010170e-05  7.45057463e-01  1.00010170e-05  4.16468106e-01  1.00010170e-05  0.00000000e+00  1.00010170e-05  1.69413169e+00  1.00010170e-05  5.00000000e-01                                 
 1.00010511e-05  8.01752692e-01  1.00010511e-05  7.45057219e-01  1.00010511e-05  3.69446499e-01  1.00010511e-05  0.00000000e+00  1.00010511e-05  1.80877986e+00  1.00010511e-05  5.00000000e-01                                 
 1.00011192e-05  8.01752327e-01  1.00011192e-05  7.45056835e-01  1.00011192e-05  2.96912714e-01  1.00011192e-05  0.00000000e+00  1.00011192e-05  1.79287362e+00  1.00011192e-05  5.00000000e-01                                 
 1.00012039e-05  8.01752038e-01  1.00012039e-05  7.45056510e-01  1.00012039e-05  2.65293584e-01  1.00012039e-05  0.00000000e+00  1.00012039e-05  1.80162213e+00  1.00012039e-05  5.00000000e-01                                 
 1.00013408e-05  8.01751548e-01  1.00013408e-05  7.45056059e-01  1.00013408e-05  2.57879232e-01  1.00013408e-05  0.00000000e+00  1.00013408e-05  1.79838417e+00  1.00013408e-05  5.00000000e-01                                 
