 time            v(vbep)         time            v(vben)         time            v(vout)         time            v(vphi1)        time            v(vphi2)        time            v(vref)         yes             currtemp       
 0.00000000e+00  8.21007717e-01  0.00000000e+00  7.77658107e-01  0.00000000e+00  9.79008040e-01  0.00000000e+00  0.00000000e+00  0.00000000e+00  1.79989121e+00  0.00000000e+00  7.77658107e-01  1.00000000e+00 -3.60000000e+01 
 5.00000000e-12  8.20951404e-01  5.00000000e-12  7.77613220e-01  5.00000000e-12  9.79737558e-01  5.00000000e-12  1.80000000e-02  5.00000000e-12  1.80001864e+00  5.00000000e-12  7.77613220e-01                                 
 1.00000000e-11  8.20899219e-01  1.00000000e-11  7.77570521e-01  1.00000000e-11  9.80415676e-01  1.00000000e-11  3.60000000e-02  1.00000000e-11  1.80010218e+00  1.00000000e-11  7.77570521e-01                                 
 2.00000000e-11  8.20798197e-01  2.00000000e-11  7.77485814e-01  2.00000000e-11  9.81686458e-01  2.00000000e-11  7.20000000e-02  2.00000000e-11  1.80020521e+00  2.00000000e-11  7.77485814e-01                                 
 4.00000000e-11  8.20602432e-01  4.00000000e-11  7.77317747e-01  4.00000000e-11  9.83854719e-01  4.00000000e-11  1.44000000e-01  4.00000000e-11  1.80023174e+00  4.00000000e-11  7.77317747e-01                                 
 8.00000000e-11  8.20214674e-01  8.00000000e-11  7.76984622e-01  8.00000000e-11  9.87094701e-01  8.00000000e-11  2.88000000e-01  8.00000000e-11  1.80016404e+00  8.00000000e-11  7.76984622e-01                                 
 1.60000000e-10  8.19455090e-01  1.60000000e-10  7.76330445e-01  1.60000000e-10  9.91213088e-01  1.60000000e-10  5.76000000e-01  1.60000000e-10  1.80007780e+00  1.60000000e-10  7.76330445e-01                                 
 3.20000000e-10  8.17993998e-01  3.20000000e-10  7.75067504e-01  3.20000000e-10  9.80193594e-01  3.20000000e-10  1.15200000e+00  3.20000000e-10  1.80021530e+00  3.20000000e-10  7.75067504e-01                                 
 5.00000000e-10  8.16437778e-01  5.00000000e-10  7.73714834e-01  5.00000000e-10  1.03942525e+00  5.00000000e-10  1.80000000e+00  5.00000000e-10  1.07163450e-01  5.00000000e-10  7.73714834e-01                                 
 5.20022456e-10  8.16270721e-01  5.20022456e-10  7.73569142e-01  5.20022456e-10  1.05732900e+00  5.20022456e-10  1.80000000e+00  5.20022456e-10  2.24780589e-02  5.20022456e-10  7.73569142e-01                                 
 5.60067369e-10  8.15938530e-01  5.60067369e-10  7.73279192e-01  5.60067369e-10  1.09327053e+00  5.60067369e-10  1.80000000e+00  5.60067369e-10 -9.60253740e-03  5.60067369e-10  7.73279192e-01                                 
 6.40157194e-10  8.15286029e-01  6.40157194e-10  7.72708697e-01  6.40157194e-10  1.16013379e+00  6.40157194e-10  1.80000000e+00  6.40157194e-10  8.41033262e-03  6.40157194e-10  7.72708697e-01                                 
 7.60473759e-10  8.14334525e-01  7.60473759e-10  7.71874377e-01  7.60473759e-10  1.25547462e+00  7.60473759e-10  1.80000000e+00  7.60473759e-10 -6.87585180e-03  7.60473759e-10  7.71874377e-01                                 
 9.39936466e-10  8.12975179e-01  9.39936466e-10  7.70677565e-01  9.39936466e-10  1.38247275e+00  9.39936466e-10  1.80000000e+00  9.39936466e-10  6.88373699e-03  9.39936466e-10  7.70677565e-01                                 
 1.29886188e-09  8.10447471e-01  1.29886188e-09  7.68437219e-01  1.29886188e-09  1.56830749e+00  1.29886188e-09  1.80000000e+00  1.29886188e-09 -6.13912702e-03  1.29886188e-09  7.68437219e-01                                 
 1.83726210e-09  8.07062861e-01  1.83726210e-09  7.65406963e-01  1.83726210e-09  1.71125324e+00  1.83726210e-09  1.80000000e+00  1.83726210e-09  6.23538192e-03  1.83726210e-09  7.65406963e-01                                 
 2.22723441e-09  8.04872170e-01  2.22723441e-09  7.63426035e-01  2.22723441e-09  1.74917160e+00  2.22723441e-09  1.80000000e+00  2.22723441e-09 -5.87795899e-03  2.22723441e-09  7.63426035e-01                                 
 2.70185945e-09  8.02443007e-01  2.70185945e-09  7.61212889e-01  2.70185945e-09  1.76695513e+00  2.70185945e-09  1.80000000e+00  2.70185945e-09  5.75427679e-03  2.70185945e-09  7.61212889e-01                                 
 3.16989906e-09  8.00264222e-01  3.16989906e-09  7.59213275e-01  3.16989906e-09  1.77121868e+00  3.16989906e-09  1.80000000e+00  3.16989906e-09 -5.53792708e-03  3.16989906e-09  7.59213275e-01                                 
 4.01411685e-09  7.96765261e-01  4.01411685e-09  7.55975788e-01  4.01411685e-09  1.77107843e+00  4.01411685e-09  1.80000000e+00  4.01411685e-09  5.46073956e-03  4.01411685e-09  7.55975788e-01                                 
 5.07311577e-09  7.92999190e-01  5.07311577e-09  7.52455756e-01  5.07311577e-09  1.76722734e+00  5.07311577e-09  1.80000000e+00  5.07311577e-09 -5.36573103e-03  5.07311577e-09  7.52455756e-01                                 
 7.19111361e-09  7.86873694e-01  7.19111361e-09  7.46663467e-01  7.19111361e-09  1.76137177e+00  7.19111361e-09  1.80000000e+00  7.19111361e-09  5.34484186e-03  7.19111361e-09  7.46663467e-01                                 
 1.08992400e-08  7.78944349e-01  1.08992400e-08  7.39055238e-01  1.08992400e-08  1.75344140e+00  1.08992400e-08  1.80000000e+00  1.08992400e-08 -5.30566952e-03  1.08992400e-08  7.39055238e-01                                 
 1.73524392e-08  7.69523438e-01  1.73524392e-08  7.29883296e-01  1.73524392e-08  1.74455657e+00  1.73524392e-08  1.80000000e+00  1.73524392e-08  5.31237564e-03  1.73524392e-08  7.29883296e-01                                 
 2.46394865e-08  7.62310360e-01  2.46394865e-08  7.22778321e-01  2.46394865e-08  1.73749508e+00  2.46394865e-08  1.80000000e+00  2.46394865e-08 -5.28075077e-03  2.46394865e-08  7.22778321e-01                                 
 2.87375151e-08  7.59154390e-01  2.87375151e-08  7.19650908e-01  2.87375151e-08  1.73470809e+00  2.87375151e-08  1.80000000e+00  2.87375151e-08  5.28126568e-03  2.87375151e-08  7.19650908e-01                                 
 3.07958140e-08  7.57734299e-01  3.07958140e-08  7.18240233e-01  3.07958140e-08  1.73319028e+00  3.07958140e-08  1.80000000e+00  3.07958140e-08 -5.22359451e-03  3.07958140e-08  7.18240233e-01                                 
 3.38827032e-08  7.55770810e-01  3.38827032e-08  7.16285891e-01  3.38827032e-08  1.73158717e+00  3.38827032e-08  1.80000000e+00  3.38827032e-08  5.21768158e-03  3.38827032e-08  7.16285891e-01                                 
 3.84550678e-08  7.53174116e-01  3.84550678e-08  7.13692936e-01  3.84550678e-08  1.72905741e+00  3.84550678e-08  1.80000000e+00  3.84550678e-08 -5.18123323e-03  3.84550678e-08  7.13692936e-01                                 
 4.62356785e-08  7.49410786e-01  4.62356785e-08  7.09917298e-01  4.62356785e-08  1.72602382e+00  4.62356785e-08  1.80000000e+00  4.62356785e-08  5.19088558e-03  4.62356785e-08  7.09917298e-01                                 
 5.42890130e-08  7.46154783e-01  5.42890130e-08  7.06636047e-01  5.42890130e-08  1.72321609e+00  5.42890130e-08  1.80000000e+00  5.42890130e-08 -5.16168833e-03  5.42890130e-08  7.06636047e-01                                 
 7.03956820e-08  7.40973422e-01  7.03956820e-08  7.01371423e-01  7.03956820e-08  1.71974132e+00  7.03956820e-08  1.80000000e+00  7.03956820e-08  5.17681895e-03  7.03956820e-08  7.01371423e-01                                 
 8.84923653e-08  7.36528800e-01  8.84923653e-08  6.96816866e-01  8.84923653e-08  1.71658517e+00  8.84923653e-08  1.80000000e+00  8.84923653e-08 -5.15249826e-03  8.84923653e-08  6.96816866e-01                                 
 1.06927824e-07  7.32824436e-01  1.06927824e-07  6.93020480e-01  1.06927824e-07  1.71441855e+00  1.06927824e-07  1.80000000e+00  1.06927824e-07  5.16854827e-03  1.06927824e-07  6.93020480e-01                                 
 1.31230132e-07  7.28762775e-01  1.31230132e-07  6.88860688e-01  1.31230132e-07  1.71149751e+00  1.31230132e-07  1.80000000e+00  1.31230132e-07 -5.14515105e-03  1.31230132e-07  6.88860688e-01                                 
 1.59403798e-07  7.24258187e-01  1.59403798e-07  6.84388785e-01  1.59403798e-07  1.68952097e+00  1.59403798e-07  1.80000000e+00  1.59403798e-07  5.16212913e-03  1.59403798e-07  6.84388785e-01                                 
 1.98993376e-07  7.14709513e-01  1.98993376e-07  6.75777425e-01  1.98993376e-07  1.65192132e+00  1.98993376e-07  1.80000000e+00  1.98993376e-07 -5.14077464e-03  1.98993376e-07  6.75777425e-01                                 
 2.24771666e-07  7.06216667e-01  2.24771666e-07  6.68480015e-01  2.24771666e-07  1.62480206e+00  2.24771666e-07  1.80000000e+00  2.24771666e-07  5.15701233e-03  2.24771666e-07  6.68480015e-01                                 
 2.54110268e-07  6.98312519e-01  2.54110268e-07  6.61669137e-01  2.54110268e-07  1.58609266e+00  2.54110268e-07  1.80000000e+00  2.54110268e-07 -5.13538203e-03  2.54110268e-07  6.61669137e-01                                 
 2.81651174e-07  7.01118359e-01  2.81651174e-07  6.63444128e-01  2.81651174e-07  1.57967724e+00  2.81651174e-07  1.80000000e+00  2.81651174e-07  5.15326118e-03  2.81651174e-07  6.63444128e-01                                 
 3.10498903e-07  7.05855511e-01  3.10498903e-07  6.66747677e-01  3.10498903e-07  1.56146440e+00  3.10498903e-07  1.80000000e+00  3.10498903e-07 -5.13032561e-03  3.10498903e-07  6.66747677e-01                                 
 3.36626689e-07  7.02118423e-01  3.36626689e-07  6.63391002e-01  3.36626689e-07  1.53343881e+00  3.36626689e-07  1.80000000e+00  3.36626689e-07  5.14689067e-03  3.36626689e-07  6.63391002e-01                                 
 3.60925934e-07  6.98842581e-01  3.60925934e-07  6.60456651e-01  3.60925934e-07  1.50616994e+00  3.60925934e-07  1.80000000e+00  3.60925934e-07 -5.12440961e-03  3.60925934e-07  6.60456651e-01                                 
 3.87967485e-07  6.95537763e-01  3.87967485e-07  6.57490390e-01  3.87967485e-07  1.47737472e+00  3.87967485e-07  1.80000000e+00  3.87967485e-07  5.14108484e-03  3.87967485e-07  6.57490390e-01                                 
 4.37175783e-07  6.89174969e-01  4.37175783e-07  6.51882799e-01  4.37175783e-07  1.42321928e+00  4.37175783e-07  1.80000000e+00  4.37175783e-07 -5.12017155e-03  4.37175783e-07  6.51882799e-01                                 
 5.03059021e-07  6.81386247e-01  5.03059021e-07  6.45070298e-01  5.03059021e-07  1.35214672e+00  5.03059021e-07  1.80000000e+00  5.03059021e-07  5.13847061e-03  5.03059021e-07  6.45070298e-01                                 
 6.26789901e-07  6.66764308e-01  6.26789901e-07  6.32550274e-01  6.26789901e-07  1.21603140e+00  6.26789901e-07  1.80000000e+00  6.26789901e-07 -5.11844770e-03  6.26789901e-07  6.32550274e-01                                 
 8.25792946e-07  6.45026648e-01  8.25792946e-07  6.14329813e-01  8.25792946e-07  9.73614408e-01  8.25792946e-07  1.80000000e+00  8.25792946e-07  5.13748679e-03  8.25792946e-07  6.14329813e-01                                 
 1.02968291e-06  6.22327341e-01  1.02968291e-06  5.95719676e-01  1.02968291e-06  8.08849402e-01  1.02968291e-06  1.80000000e+00  1.02968291e-06 -5.11730063e-03  1.02968291e-06  5.95719676e-01                                 
 1.21745726e-06  6.03570945e-01  1.21745726e-06  5.80487616e-01  1.21745726e-06  6.90084469e-01  1.21745726e-06  1.80000000e+00  1.21745726e-06  5.13698916e-03  1.21745726e-06  5.80487616e-01                                 
 1.41766571e-06  5.85592123e-01  1.41766571e-06  5.65961905e-01  1.41766571e-06  6.10855685e-01  1.41766571e-06  1.80000000e+00  1.41766571e-06 -5.11643695e-03  1.41766571e-06  5.65961905e-01                                 
 1.46382608e-06  5.82698831e-01  1.46382608e-06  5.63624842e-01  1.46382608e-06  5.99288400e-01  1.46382608e-06  1.80000000e+00  1.46382608e-06 -4.43353896e-07  1.46382608e-06  5.63624842e-01                                 
 1.55614682e-06  5.79296450e-01  1.55614682e-06  5.60863464e-01  1.55614682e-06  5.82919794e-01  1.55614682e-06  1.80000000e+00  1.55614682e-06  3.36784396e-07  1.55614682e-06  5.60863464e-01                                 
 1.57002458e-06  5.79411384e-01  1.57002458e-06  5.60950524e-01  1.57002458e-06  5.81934540e-01  1.57002458e-06  1.80000000e+00  1.57002458e-06 -1.43885088e-09  1.57002458e-06  5.60950524e-01                                 
 1.59778009e-06  5.80146337e-01  1.59778009e-06  5.61529302e-01  1.59778009e-06  5.80601291e-01  1.59778009e-06  1.80000000e+00  1.59778009e-06  3.45367363e-08  1.59778009e-06  5.61529302e-01                                 
 1.65329110e-06  5.86164891e-01  1.65329110e-06  5.66329672e-01  1.65329110e-06  5.82907258e-01  1.65329110e-06  1.80000000e+00  1.65329110e-06  1.56850142e-07  1.65329110e-06  5.66329672e-01                                 
 1.72965667e-06  6.20031665e-01  1.72965667e-06  5.93416730e-01  1.72965667e-06  6.10284301e-01  1.72965667e-06  1.80000000e+00  1.72965667e-06  6.77286184e-07  1.72965667e-06  5.93416730e-01                                 
 1.74229372e-06  6.31800582e-01  1.74229372e-06  6.02831265e-01  1.74229372e-06  6.20438107e-01  1.74229372e-06  1.80000000e+00  1.74229372e-06  8.97640008e-07  1.74229372e-06  6.02831265e-01                                 
 1.76756782e-06  6.64597505e-01  1.76756782e-06  6.29063882e-01  1.76756782e-06  6.49060561e-01  1.76756782e-06  1.80000000e+00  1.76756782e-06  1.66167580e-06  1.76756782e-06  6.29063882e-01                                 
 1.81811601e-06  8.17129040e-01  1.81811601e-06  7.71231969e-01  1.81811601e-06  7.78905927e-01  1.81811601e-06  1.80000000e+00  1.81811601e-06  5.81477304e-06  1.81811601e-06  7.71231969e-01                                 
 1.86789088e-06  8.87919487e-01  1.86789088e-06  8.40492691e-01  1.86789088e-06  8.18222859e-01  1.86789088e-06  1.80000000e+00  1.86789088e-06 -1.63629672e-06  1.86789088e-06  8.40492691e-01                                 
 1.87462833e-06  8.96229369e-01  1.87462833e-06  8.47507299e-01  1.87462833e-06  8.19002890e-01  1.87462833e-06  1.80000000e+00  1.87462833e-06  1.48293661e-06  1.87462833e-06  8.47507299e-01                                 
 1.88810323e-06  9.13919547e-01  1.88810323e-06  8.61348325e-01  1.88810323e-06  8.23323833e-01  1.88810323e-06  1.80000000e+00  1.88810323e-06  1.74758377e-06  1.88810323e-06  8.61348325e-01                                 
 1.91084096e-06  9.47475726e-01  1.91084096e-06  8.83775222e-01  1.91084096e-06  8.36120328e-01  1.91084096e-06  1.80000000e+00  1.91084096e-06  1.73070197e-06  1.91084096e-06  8.83775222e-01                                 
 1.93528305e-06  9.78367768e-01  1.93528305e-06  9.00711968e-01  1.93528305e-06  9.04267585e-01  1.93528305e-06  1.80000000e+00  1.93528305e-06  3.34420508e-06  1.93528305e-06  9.00711968e-01                                 
 1.96159569e-06  9.78826446e-01  1.96159569e-06  9.01271992e-01  1.96159569e-06  8.90241249e-01  1.96159569e-06  1.80000000e+00  1.96159569e-06 -3.91170452e-06  1.96159569e-06  9.01271992e-01                                 
 1.98575997e-06  9.75795791e-01  1.98575997e-06  8.99489624e-01  1.98575997e-06  8.79889025e-01  1.98575997e-06  1.80000000e+00  1.98575997e-06  3.24153683e-06  1.98575997e-06  8.99489624e-01                                 
 2.01653012e-06  9.79075242e-01  2.01653012e-06  9.01308418e-01  2.01653012e-06  9.01676690e-01  2.01653012e-06  1.80000000e+00  2.01653012e-06 -2.28991830e-06  2.01653012e-06  9.01308418e-01                                 
 2.05620712e-06  9.75002559e-01  2.05620712e-06  8.99163280e-01  2.05620712e-06  8.79261920e-01  2.05620712e-06  1.80000000e+00  2.05620712e-06  1.50212913e-06  2.05620712e-06  8.99163280e-01                                 
 2.09604443e-06  9.76990455e-01  2.09604443e-06  9.00222752e-01  2.09604443e-06  8.99070871e-01  2.09604443e-06  1.80000000e+00  2.09604443e-06 -8.67099085e-07  2.09604443e-06  9.00222752e-01                                 
 2.14900329e-06  9.74189319e-01  2.14900329e-06  8.98784741e-01  2.14900329e-06  8.81909973e-01  2.14900329e-06  1.80000000e+00  2.14900329e-06  4.25916679e-07  2.14900329e-06  8.98784741e-01                                 
 2.21400706e-06  9.75007077e-01  2.21400706e-06  8.99203980e-01  2.21400706e-06  8.96531739e-01  2.21400706e-06  1.80000000e+00  2.21400706e-06 -1.52022524e-07  2.21400706e-06  8.99203980e-01                                 
 2.29826351e-06  9.72658159e-01  2.29826351e-06  8.98014556e-01  2.29826351e-06  8.83915949e-01  2.29826351e-06  1.80000000e+00  2.29826351e-06 -5.47712666e-08  2.29826351e-06  8.98014556e-01                                 
 2.41189618e-06  9.72507525e-01  2.41189618e-06  8.97920152e-01  2.41189618e-06  8.95093363e-01  2.41189618e-06  1.80000000e+00  2.41189618e-06  1.66477130e-07  2.41189618e-06  8.97920152e-01                                 
 2.56461403e-06  9.69830455e-01  2.56461403e-06  8.96554185e-01  2.56461403e-06  8.84893231e-01  2.56461403e-06  1.80000000e+00  2.56461403e-06 -2.63421436e-07  2.56461403e-06  8.96554185e-01                                 
 2.77839608e-06  9.68474283e-01  2.77839608e-06  8.95816408e-01  2.77839608e-06  8.93801568e-01  2.77839608e-06  1.80000000e+00  2.77839608e-06  3.05261129e-07  2.77839608e-06  8.95816408e-01                                 
 3.07974933e-06  9.64541545e-01  3.07974933e-06  8.93745694e-01  3.07974933e-06  8.84402757e-01  3.07974933e-06  1.80000000e+00  3.07974933e-06 -3.54426608e-07  3.07974933e-06  8.93745694e-01                                 
 3.51195931e-06  9.60913485e-01  3.51195931e-06  8.91730271e-01  3.51195931e-06  8.90953690e-01  3.51195931e-06  1.80000000e+00  3.51195931e-06  3.64362598e-07  3.51195931e-06  8.91730271e-01                                 
 4.14098394e-06  9.53397692e-01  4.14098394e-06  8.87513551e-01  4.14098394e-06  8.80212443e-01  4.14098394e-06  1.80000000e+00  4.14098394e-06 -3.95401769e-07  4.14098394e-06  8.87513551e-01                                 
 5.05363698e-06  9.42324917e-01  5.05363698e-06  8.80824438e-01  5.05363698e-06  8.80432481e-01  5.05363698e-06  1.80000000e+00  5.05363698e-06  3.82158447e-07  5.05363698e-06  8.80824438e-01                                 
 6.05363698e-06  8.97036287e-01  6.05363698e-06  8.48345359e-01  6.05363698e-06  8.43250805e-01  6.05363698e-06  1.80000000e+00  6.05363698e-06 -5.02583305e-07  6.05363698e-06  8.48345359e-01                                 
 6.17863698e-06  8.88995431e-01  6.17863698e-06  8.41499405e-01  6.17863698e-06  8.38694385e-01  6.17863698e-06  1.80000000e+00  6.17863698e-06 -8.62313969e-08  6.17863698e-06  8.41499405e-01                                 
 6.42863698e-06  8.78000828e-01  6.42863698e-06  8.31814309e-01  6.42863698e-06  8.30691375e-01  6.42863698e-06  1.80000000e+00  6.42863698e-06 -3.68522878e-08  6.42863698e-06  8.31814309e-01                                 
 6.92863698e-06  8.74538870e-01  6.92863698e-06  8.28677836e-01  6.92863698e-06  8.28566419e-01  6.92863698e-06  1.80000000e+00  6.92863698e-06  2.56909772e-08  6.92863698e-06  8.28677836e-01                                 
 7.38649579e-06  8.75544953e-01  7.38649579e-06  8.29590588e-01  7.38649579e-06  8.29400884e-01  7.38649579e-06  1.80000000e+00  7.38649579e-06 -9.32399879e-09  7.38649579e-06  8.29590588e-01                                 
 8.06655989e-06  8.75172984e-01  8.06655989e-06  8.29255815e-01  8.06655989e-06  8.29032726e-01  8.06655989e-06  1.80000000e+00  8.06655989e-06  1.71213310e-08  8.06655989e-06  8.29255815e-01                                 
 9.06655989e-06  8.75379372e-01  9.06655989e-06  8.29439926e-01  9.06655989e-06  8.29259438e-01  9.06655989e-06  1.80000000e+00  9.06655989e-06 -6.90175976e-09  9.06655989e-06  8.29439926e-01                                 
