 time            v(vbep)         time            v(vben)         time            v(vout)         time            v(vphi1)        time            v(vphi2)        time            v(vref)         time            v(voutc)        time            v(voutcc)       yes             currtemp       
 0.00000000e+00  7.58586597e-01  0.00000000e+00  6.98150647e-01  0.00000000e+00  1.57413176e+00  0.00000000e+00  0.00000000e+00  0.00000000e+00  1.80000000e+00  0.00000000e+00  7.00232292e-01  0.00000000e+00  1.57413175e+00  0.00000000e+00  1.58078537e+00  1.00000000e+00  3.70000000e+01 
 1.00000000e-11  7.58611649e-01  1.00000000e-11  6.98221931e-01  1.00000000e-11  1.57491324e+00  1.00000000e-11  1.80000000e-02  1.00000000e-11  1.80025142e+00  1.00000000e-11  7.00763717e-01  1.00000000e-11  1.57460197e+00  1.00000000e-11  1.58079904e+00                                 
 2.00000000e-11  7.58618507e-01  2.00000000e-11  6.98266621e-01  2.00000000e-11  1.57539499e+00  2.00000000e-11  3.60000000e-02  2.00000000e-11  1.80035134e+00  2.00000000e-11  7.01158500e-01  2.00000000e-11  1.57495828e+00  2.00000000e-11  1.58080416e+00                                 
 4.00000000e-11  7.58618452e-01  4.00000000e-11  6.98325536e-01  4.00000000e-11  1.57597733e+00  4.00000000e-11  7.20000000e-02  4.00000000e-11  1.80038997e+00  4.00000000e-11  7.01736001e-01  4.00000000e-11  1.57549024e+00  4.00000000e-11  1.58080581e+00                                 
 8.00000000e-11  7.58606598e-01  8.00000000e-11  6.98363502e-01  8.00000000e-11  1.57610329e+00  8.00000000e-11  1.44000000e-01  8.00000000e-11  1.80018642e+00  8.00000000e-11  7.02183065e-01  8.00000000e-11  1.57592639e+00  8.00000000e-11  1.58079515e+00                                 
 1.60000000e-10  7.58603704e-01  1.60000000e-10  6.98374198e-01  1.60000000e-10  1.57577165e+00  1.60000000e-10  2.88000000e-01  1.60000000e-10  1.80000402e+00  1.60000000e-10  7.02253388e-01  1.60000000e-10  1.57598112e+00  1.60000000e-10  1.58078547e+00                                 
 3.20000000e-10  7.58599874e-01  3.20000000e-10  6.98373016e-01  3.20000000e-10  1.57540635e+00  3.20000000e-10  5.76000000e-01  3.20000000e-10  1.79999099e+00  3.20000000e-10  7.02116893e-01  3.20000000e-10  1.57569136e+00  3.20000000e-10  1.58078140e+00                                 
 6.40000000e-10  7.58517329e-01  6.40000000e-10  6.98004432e-01  6.40000000e-10  1.57306554e+00  6.40000000e-10  1.15200000e+00  6.40000000e-10  1.81168708e+00  6.40000000e-10  7.00013055e-01  6.40000000e-10  1.58045855e+00  6.40000000e-10  1.58081001e+00                                 
 1.00000000e-09  7.59150309e-01  1.00000000e-09  6.98248783e-01  1.00000000e-09  1.54796662e+00  1.00000000e-09  1.80000000e+00  1.00000000e-09  9.22249180e-02  1.00000000e-09  7.10644419e-01  1.00000000e-09  1.58003560e+00  1.00000000e-09  1.58076816e+00                                 
 1.03643865e-09  7.59184277e-01  1.03643865e-09  6.98286175e-01  1.03643865e-09  1.54706113e+00  1.03643865e-09  1.80000000e+00  1.03643865e-09  2.05608199e-02  1.03643865e-09  7.13549176e-01  1.03643865e-09  1.58161650e+00  1.03643865e-09  1.58080719e+00                                 
 1.10931595e-09  7.59283060e-01  1.10931595e-09  6.98356039e-01  1.10931595e-09  1.54641234e+00  1.10931595e-09  1.80000000e+00  1.10931595e-09 -9.85686277e-03  1.10931595e-09  7.17307070e-01  1.10931595e-09  1.58454053e+00  1.10931595e-09  1.58083468e+00                                 
 1.25507056e-09  7.59394298e-01  1.25507056e-09  6.98228286e-01  1.25507056e-09  1.54450292e+00  1.25507056e-09  1.80000000e+00  1.25507056e-09  8.28720961e-03  1.25507056e-09  7.17517250e-01  1.25507056e-09  1.58497109e+00  1.25507056e-09  1.58078807e+00                                 
 1.46824693e-09  7.59384847e-01  1.46824693e-09  6.98202913e-01  1.46824693e-09  1.54363717e+00  1.46824693e-09  1.80000000e+00  1.46824693e-09 -6.45617600e-03  1.46824693e-09  7.16954139e-01  1.46824693e-09  1.58428541e+00  1.46824693e-09  1.58082040e+00                                 
 1.69789520e-09  7.59293478e-01  1.69789520e-09  6.98197445e-01  1.69789520e-09  1.54353777e+00  1.69789520e-09  1.80000000e+00  1.69789520e-09  5.57073235e-03  1.69789520e-09  7.15621935e-01  1.69789520e-09  1.58332926e+00  1.69789520e-09  1.58082596e+00                                 
 2.08480655e-09  7.59036371e-01  2.08480655e-09  6.98151203e-01  2.08480655e-09  1.54383453e+00  2.08480655e-09  1.80000000e+00  2.08480655e-09 -5.07103226e-03  2.08480655e-09  7.13413523e-01  2.08480655e-09  1.58128733e+00  2.08480655e-09  1.58090765e+00                                 
 2.47187122e-09  7.58839720e-01  2.47187122e-09  6.98156853e-01  2.47187122e-09  1.54437731e+00  2.47187122e-09  1.80000000e+00  2.47187122e-09  4.50606437e-03  2.47187122e-09  7.11571875e-01  2.47187122e-09  1.57985931e+00  2.47187122e-09  1.58097521e+00                                 
 3.12706661e-09  7.58617598e-01  3.12706661e-09  6.98114294e-01  3.12706661e-09  1.54414498e+00  3.12706661e-09  1.80000000e+00  3.12706661e-09 -4.34449701e-03  3.12706661e-09  7.08441717e-01  3.12706661e-09  1.57705361e+00  3.12706661e-09  1.58111067e+00                                 
 4.07515556e-09  7.58499980e-01  4.07515556e-09  6.98132939e-01  4.07515556e-09  1.54359965e+00  4.07515556e-09  1.80000000e+00  4.07515556e-09  4.08784495e-03  4.07515556e-09  7.05285590e-01  4.07515556e-09  1.57448942e+00  4.07515556e-09  1.58124327e+00                                 
 5.97133345e-09  7.58404888e-01  5.97133345e-09  6.98114238e-01  5.97133345e-09  1.54150445e+00  5.97133345e-09  1.80000000e+00  5.97133345e-09 -4.06322462e-03  5.97133345e-09  7.00986797e-01  5.97133345e-09  1.57070348e+00  5.97133345e-09  1.58133075e+00                                 
 7.54411835e-09  7.58412984e-01  7.54411835e-09  6.98150497e-01  7.54411835e-09  1.53957748e+00  7.54411835e-09  1.80000000e+00  7.54411835e-09  3.94249403e-03  7.54411835e-09  6.99626733e-01  7.54411835e-09  1.56966907e+00  7.54411835e-09  1.58122404e+00                                 
 9.04835531e-09  7.58433926e-01  9.04835531e-09  6.98129014e-01  9.04835531e-09  1.53596044e+00  9.04835531e-09  1.80000000e+00  9.04835531e-09 -3.85825462e-03  9.04835531e-09  6.98712480e-01  9.04835531e-09  1.56877013e+00  9.04835531e-09  1.58104584e+00                                 
 1.06493907e-08  7.58481135e-01  1.06493907e-08  6.98159341e-01  1.06493907e-08  1.53134468e+00  1.06493907e-08  1.80000000e+00  1.06493907e-08  3.76383644e-03  1.06493907e-08  6.98625841e-01  1.06493907e-08  1.56880895e+00  1.06493907e-08  1.58080538e+00                                 
 1.29169420e-08  7.58522675e-01  1.29169420e-08  6.98134905e-01  1.29169420e-08  1.52248794e+00  1.29169420e-08  1.80000000e+00  1.29169420e-08 -3.70438411e-03  1.29169420e-08  6.98337313e-01  1.29169420e-08  1.56843796e+00  1.29169420e-08  1.58045531e+00                                 
 1.56579368e-08  7.58569560e-01  1.56579368e-08  6.98163355e-01  1.56579368e-08  1.51071797e+00  1.56579368e-08  1.80000000e+00  1.56579368e-08  3.65553307e-03  1.56579368e-08  6.98704565e-01  1.56579368e-08  1.56884822e+00  1.56579368e-08  1.58004082e+00                                 
 1.94976748e-08  7.58586838e-01  1.94976748e-08  6.98137354e-01  1.94976748e-08  1.49221491e+00  1.94976748e-08  1.80000000e+00  1.94976748e-08 -3.61832779e-03  1.94976748e-08  6.98764808e-01  1.94976748e-08  1.56876581e+00  1.94976748e-08  1.57953129e+00                                 
 2.46566148e-08  7.58601317e-01  2.46566148e-08  6.98164633e-01  2.46566148e-08  1.46701805e+00  2.46566148e-08  1.80000000e+00  2.46566148e-08  3.59497243e-03  2.46566148e-08  6.99333795e-01  2.46566148e-08  1.56933775e+00  2.46566148e-08  1.57896164e+00                                 
 3.34768993e-08  7.58591092e-01  3.34768993e-08  6.98137589e-01  3.34768993e-08  1.42270503e+00  3.34768993e-08  1.80000000e+00  3.34768993e-08 -3.57747366e-03  3.34768993e-08  6.99515410e-01  3.34768993e-08  1.56935465e+00  3.34768993e-08  1.57824834e+00                                 
 4.74511045e-08  7.58593836e-01  4.74511045e-08  6.98164266e-01  4.74511045e-08  1.35297532e+00  4.74511045e-08  1.80000000e+00  4.74511045e-08  3.57029841e-03  4.74511045e-08  7.00087805e-01  4.74511045e-08  1.56993059e+00  4.74511045e-08  1.57754840e+00                                 
 7.53995150e-08  7.58583554e-01  7.53995150e-08  6.98137184e-01  7.53995150e-08  1.21325998e+00  7.53995150e-08  1.80000000e+00  7.53995150e-08 -3.56329746e-03  7.53995150e-08  7.00090235e-01  7.53995150e-08  1.56980770e+00  7.53995150e-08  1.57692986e+00                                 
 1.15434702e-07  7.58590224e-01  1.15434702e-07  6.98164102e-01  1.15434702e-07  1.01601875e+00  1.15434702e-07  1.80000000e+00  1.15434702e-07  3.56274102e-03  1.15434702e-07  7.00347505e-01  1.15434702e-07  1.57013224e+00  1.15434702e-07  1.57669823e+00                                 
 1.75439945e-07  7.58582921e-01  1.75439945e-07  6.98137157e-01  1.75439945e-07  7.72239718e-01  1.75439945e-07  1.80000000e+00  1.75439945e-07 -3.55500470e-03  1.75439945e-07  7.00115617e-01  1.75439945e-07  1.56982091e+00  1.75439945e-07  1.57663994e+00                                 
 2.25875077e-07  7.58591574e-01  2.25875077e-07  6.98164234e-01  2.25875077e-07  6.96350243e-01  2.25875077e-07  1.80000000e+00  2.25875077e-07  3.56320131e-03  2.25875077e-07  7.00350916e-01  2.25875077e-07  1.57012925e+00  2.25875077e-07  1.57663410e+00                                 
 2.75616955e-07  7.58579969e-01  2.75616955e-07  6.98136973e-01  2.75616955e-07  7.03485314e-01  2.75616955e-07  1.80000000e+00  2.75616955e-07 -3.54790439e-03  2.75616955e-07  7.00116742e-01  2.75616955e-07  1.56981821e+00  2.75616955e-07  1.57663485e+00                                 
 2.99780945e-07  7.58593603e-01  2.99780945e-07  6.98164305e-01  2.99780945e-07  7.02687276e-01  2.99780945e-07  1.80000000e+00  2.99780945e-07  3.55525436e-03  2.99780945e-07  7.00346661e-01  2.99780945e-07  1.57012286e+00  2.99780945e-07  1.57663085e+00                                 
 3.32604010e-07  7.58579929e-01  3.32604010e-07  6.98137005e-01  3.32604010e-07  7.02207122e-01  3.32604010e-07  1.80000000e+00  3.32604010e-07 -3.53886003e-03  3.32604010e-07  7.00117578e-01  3.32604010e-07  1.56981696e+00  3.32604010e-07  1.57663137e+00                                 
 3.83808786e-07  7.58593073e-01  3.83808786e-07  6.98164271e-01  3.83808786e-07  7.02508191e-01  3.83808786e-07  1.80000000e+00  3.83808786e-07  3.54895382e-03  3.83808786e-07  7.00347061e-01  3.83808786e-07  1.57012008e+00  3.83808786e-07  1.57662751e+00                                 
 4.51839289e-07  7.58580264e-01  4.51839289e-07  6.98137018e-01  4.51839289e-07  7.02201110e-01  4.51839289e-07  1.80000000e+00  4.51839289e-07 -3.53457404e-03  4.51839289e-07  7.00117420e-01  4.51839289e-07  1.56981262e+00  4.51839289e-07  1.57662702e+00                                 
 5.87900296e-07  7.58592857e-01  5.87900296e-07  6.98164266e-01  5.87900296e-07  7.02510350e-01  5.87900296e-07  1.80000000e+00  5.87900296e-07  3.54617230e-03  5.87900296e-07  7.00347146e-01  5.87900296e-07  1.57011280e+00  5.87900296e-07  1.57662020e+00                                 
 8.09282627e-07  7.58580380e-01  8.09282627e-07  6.98137020e-01  8.09282627e-07  7.02200253e-01  8.09282627e-07  1.80000000e+00  8.09282627e-07 -3.53308189e-03  8.09282627e-07  7.00117379e-01  8.09282627e-07  1.56979980e+00  8.09282627e-07  1.57661423e+00                                 
 1.20861660e-06  7.58592789e-01  1.20861660e-06  6.98164264e-01  1.20861660e-06  7.02510672e-01  1.20861660e-06  1.80000000e+00  1.20861660e-06  3.54528749e-03  1.20861660e-06  7.00347169e-01  1.20861660e-06  1.57009056e+00  1.20861660e-06  1.57659799e+00                                 
 1.94701560e-06  7.58580417e-01  1.94701560e-06  6.98137021e-01  1.94701560e-06  7.02200076e-01  1.94701560e-06  1.80000000e+00  1.94701560e-06 -3.53259238e-03  1.94701560e-06  7.00117366e-01  1.94701560e-06  1.56975903e+00  1.94701560e-06  1.57657352e+00                                 
 3.14701560e-06  7.58592768e-01  3.14701560e-06  6.98164264e-01  3.14701560e-06  7.02510743e-01  3.14701560e-06  1.80000000e+00  3.14701560e-06  3.54501202e-03  3.14701560e-06  7.00347176e-01  3.14701560e-06  1.57002112e+00  3.14701560e-06  1.57652864e+00                                 
 4.34701560e-06  7.58580433e-01  4.34701560e-06  6.98137021e-01  4.34701560e-06  7.02200018e-01  4.34701560e-06  1.80000000e+00  4.34701560e-06 -3.53240113e-03  4.34701560e-06  7.00117361e-01  4.34701560e-06  1.56967300e+00  4.34701560e-06  1.57648762e+00                                 
 5.54701560e-06  7.58592752e-01  5.54701560e-06  6.98164264e-01  5.54701560e-06  7.02510789e-01  5.54701560e-06  1.80000000e+00  5.54701560e-06  3.54480252e-03  5.54701560e-06  7.00347181e-01  5.54701560e-06  1.56993511e+00  5.54701560e-06  1.57644275e+00                                 
 6.00100000e-06  7.58580463e-01  6.00100000e-06  6.98137021e-01  6.00100000e-06  7.02199927e-01  6.00100000e-06  1.80000000e+00  6.00100000e-06 -3.53202510e-03  6.00100000e-06  7.00117352e-01  6.00100000e-06  1.56961377e+00  6.00100000e-06  1.57642847e+00                                 
 6.00110000e-06  7.58540353e-01  6.00110000e-06  6.97909822e-01  6.00110000e-06  7.00459522e-01  6.00110000e-06  1.62000000e+00  6.00110000e-06 -3.84721970e-04  6.00110000e-06  6.98614181e-01  6.00110000e-06  1.56838146e+00  6.00110000e-06  1.57641739e+00                                 
 6.00130000e-06  7.58574039e-01  6.00130000e-06  6.97917540e-01  6.00130000e-06  7.00749630e-01  6.00130000e-06  1.26000000e+00  6.00130000e-06  2.57240758e-04  6.00130000e-06  6.98522662e-01  6.00130000e-06  1.56831343e+00  6.00130000e-06  1.57643228e+00                                 
 6.00170000e-06  7.58631860e-01  6.00170000e-06  6.97406596e-01  6.00170000e-06  7.19727797e-01  6.00170000e-06  5.40000000e-01  6.00170000e-06  1.53185652e+00  6.00170000e-06  6.91075122e-01  6.00170000e-06  1.47216772e+00  6.00170000e-06  1.57608591e+00                                 
 6.00200000e-06  7.58569441e-01  6.00200000e-06  6.95103163e-01  6.00200000e-06  7.48079417e-01  6.00200000e-06  0.00000000e+00  6.00200000e-06  1.87682782e+00  6.00200000e-06  6.66808393e-01  6.00200000e-06  1.13237737e+00  6.00200000e-06  1.57606603e+00                                 
 6.00203619e-06  7.58582172e-01  6.00203619e-06  6.95174597e-01  6.00203619e-06  7.42484362e-01  6.00203619e-06  0.00000000e+00  6.00203619e-06  1.83021619e+00  6.00203619e-06  6.67861772e-01  6.00203619e-06  1.08920275e+00  6.00203619e-06  1.57638938e+00                                 
 6.00210858e-06  7.58588879e-01  6.00210858e-06  6.95425422e-01  6.00210858e-06  7.34512145e-01  6.00210858e-06  0.00000000e+00  6.00210858e-06  1.79219429e+00  6.00210858e-06  6.71228097e-01  6.00210858e-06  1.01626967e+00  6.00210858e-06  1.57665220e+00                                 
 6.00225334e-06  7.58584611e-01  6.00225334e-06  6.95772769e-01  6.00225334e-06  7.30603856e-01  6.00225334e-06  0.00000000e+00  6.00225334e-06  1.80229672e+00  6.00225334e-06  6.75391159e-01  6.00225334e-06  9.03541664e-01  6.00225334e-06  1.57658417e+00                                 
 6.00246460e-06  7.58586020e-01  6.00246460e-06  6.96455055e-01  6.00246460e-06  7.21208281e-01  6.00246460e-06  0.00000000e+00  6.00246460e-06  1.79742355e+00  6.00246460e-06  6.82092067e-01  6.00246460e-06  7.90071873e-01  6.00246460e-06  1.57671828e+00                                 
 6.00268565e-06  7.58584536e-01  6.00268565e-06  6.97440106e-01  6.00268565e-06  7.10939366e-01  6.00268565e-06  0.00000000e+00  6.00268565e-06  1.80106877e+00  6.00268565e-06  6.91541144e-01  6.00268565e-06  7.35401867e-01  6.00268565e-06  1.57666043e+00                                 
 6.00290643e-06  7.58585672e-01  6.00290643e-06  6.98025407e-01  6.00290643e-06  7.06399389e-01  6.00290643e-06  0.00000000e+00  6.00290643e-06  1.79934054e+00  6.00290643e-06  6.96138734e-01  6.00290643e-06  7.14252690e-01  6.00290643e-06  1.57648356e+00                                 
 6.00322027e-06  7.58585197e-01  6.00322027e-06  6.98509634e-01  6.00322027e-06  7.03304277e-01  6.00322027e-06  0.00000000e+00  6.00322027e-06  1.80048729e+00  6.00322027e-06  6.99787997e-01  6.00322027e-06  7.05568625e-01  6.00322027e-06  1.57578033e+00                                 
 6.00350588e-06  7.58586100e-01  6.00350588e-06  6.98627096e-01  6.00350588e-06  7.03495220e-01  6.00350588e-06  0.00000000e+00  6.00350588e-06  1.79973631e+00  6.00350588e-06  7.00431887e-01  6.00350588e-06  7.03567985e-01  6.00350588e-06  1.57494624e+00                                 
 6.00401110e-06  7.58585854e-01  6.00401110e-06  6.98692871e-01  6.00401110e-06  7.03645141e-01  6.00401110e-06  0.00000000e+00  6.00401110e-06  1.80021912e+00  6.00401110e-06  7.01261416e-01  6.00401110e-06  7.03804284e-01  6.00401110e-06  1.57311956e+00                                 
 6.00468967e-06  7.58586611e-01  6.00468967e-06  6.98625555e-01  6.00468967e-06  7.05513741e-01  6.00468967e-06  0.00000000e+00  6.00468967e-06  1.79985095e+00  6.00468967e-06  7.01252213e-01  6.00468967e-06  7.04927956e-01  6.00468967e-06  1.57042581e+00                                 
 6.00604681e-06  7.58586270e-01  6.00604681e-06  6.98530143e-01  6.00604681e-06  7.08303922e-01  6.00604681e-06  0.00000000e+00  6.00604681e-06  1.80015071e+00  6.00604681e-06  7.01591875e-01  6.00604681e-06  7.08296195e-01  6.00604681e-06  1.56457280e+00                                 
 6.00876109e-06  7.58586828e-01  6.00876109e-06  6.98333881e-01  6.00876109e-06  7.15538931e-01  6.00876109e-06  0.00000000e+00  6.00876109e-06  1.79988045e+00  6.00876109e-06  7.01367157e-01  6.00876109e-06  7.14866417e-01  6.00876109e-06  1.55236188e+00                                 
 6.01418964e-06  7.58586355e-01  6.01418964e-06  6.98162489e-01  6.01418964e-06  7.28756147e-01  6.01418964e-06  0.00000000e+00  6.01418964e-06  1.80013558e+00  6.01418964e-06  7.01259490e-01  6.01418964e-06  7.28716269e-01  6.01418964e-06  1.52776832e+00                                 
 6.02504676e-06  7.58586840e-01  6.02504676e-06  6.98116919e-01  6.02504676e-06  7.55339357e-01  6.02504676e-06  0.00000000e+00  6.02504676e-06  1.79988665e+00  6.02504676e-06  7.00641859e-01  6.02504676e-06  7.54568141e-01  6.02504676e-06  1.48079780e+00                                 
 6.04676098e-06  7.58586353e-01  6.04676098e-06  6.98160176e-01  6.04676098e-06  8.03072155e-01  6.04676098e-06  0.00000000e+00  6.04676098e-06  1.80013066e+00  6.04676098e-06  7.00422575e-01  6.04676098e-06  8.03089243e-01  6.04676098e-06  1.39524573e+00                                 
 6.09018944e-06  7.58586841e-01  6.09018944e-06  6.98139159e-01  6.09018944e-06  8.84804996e-01  6.09018944e-06  0.00000000e+00  6.09018944e-06  1.79988505e+00  6.09018944e-06  7.00120253e-01  6.09018944e-06  8.83179687e-01  6.09018944e-06  1.24749965e+00                                 
 6.17704635e-06  7.58586353e-01  6.17704635e-06  6.98161967e-01  6.17704635e-06  9.99967919e-01  6.17704635e-06  0.00000000e+00  6.17704635e-06  1.80012462e+00  6.17704635e-06  7.00319189e-01  6.17704635e-06  1.00083694e+00  6.17704635e-06  1.05402178e+00                                 
 6.31838414e-06  7.58586841e-01  6.31838414e-06  6.98139519e-01  6.31838414e-06  1.10179497e+00  6.31838414e-06  0.00000000e+00  6.31838414e-06  1.79987991e+00  6.31838414e-06  7.00136170e-01  6.31838414e-06  1.10009522e+00  6.31838414e-06  1.05878650e+00                                 
 6.40673407e-06  7.58586353e-01  6.40673407e-06  6.98161515e-01  6.40673407e-06  1.13142887e+00  6.40673407e-06  0.00000000e+00  6.40673407e-06  1.80012161e+00  6.40673407e-06  7.00322947e-01  6.40673407e-06  1.13248841e+00  6.40673407e-06  1.13247383e+00                                 
