 time            v(vbep)         time            v(vben)         time            v(vout)         time            v(vphi1)        time            v(vphi2)        time            v(vref)         time            v(voutc)        time            v(voutcc)       yes             currtemp       
 0.00000000e+00  8.16007403e-01  0.00000000e+00  7.61808815e-01  0.00000000e+00  1.67731999e+00  0.00000000e+00  0.00000000e+00  0.00000000e+00  1.80000000e+00  0.00000000e+00  7.65180489e-01  0.00000000e+00  1.67731997e+00  0.00000000e+00  1.68293338e+00  1.00000000e+00  4.00000000e+00 
 5.00000000e-12  8.16028241e-01  5.00000000e-12  7.61863017e-01  5.00000000e-12  1.67796473e+00  5.00000000e-12  1.80000000e-02  5.00000000e-12  1.80018299e+00  5.00000000e-12  7.65575493e-01  5.00000000e-12  1.67766945e+00  5.00000000e-12  1.68294600e+00                                 
 1.00000000e-11  8.16037442e-01  1.00000000e-11  7.61898984e-01  1.00000000e-11  1.67845015e+00  1.00000000e-11  3.60000000e-02  1.00000000e-11  1.80026745e+00  1.00000000e-11  7.65888316e-01  1.00000000e-11  1.67794831e+00  1.00000000e-11  1.68295308e+00                                 
 2.00000000e-11  8.16043503e-01  2.00000000e-11  7.61949078e-01  2.00000000e-11  1.67918057e+00  2.00000000e-11  7.20000000e-02  2.00000000e-11  1.80032396e+00  2.00000000e-11  7.66379473e-01  2.00000000e-11  1.67839142e+00  2.00000000e-11  1.68296030e+00                                 
 4.00000000e-11  8.16031487e-01  4.00000000e-11  7.61985302e-01  4.00000000e-11  1.67976492e+00  4.00000000e-11  1.44000000e-01  4.00000000e-11  1.80020044e+00  4.00000000e-11  7.66857953e-01  4.00000000e-11  1.67884807e+00  4.00000000e-11  1.68295540e+00                                 
 8.00000000e-11  8.16017591e-01  8.00000000e-11  7.61986717e-01  8.00000000e-11  1.67974593e+00  8.00000000e-11  2.88000000e-01  8.00000000e-11  1.80003097e+00  8.00000000e-11  7.66986284e-01  8.00000000e-11  1.67903939e+00  8.00000000e-11  1.68293879e+00                                 
 1.60000000e-10  8.16018826e-01  1.60000000e-10  7.61972050e-01  1.60000000e-10  1.67930763e+00  1.60000000e-10  5.76000000e-01  1.60000000e-10  1.80001628e+00  1.60000000e-10  7.66795877e-01  1.60000000e-10  1.67897833e+00  1.60000000e-10  1.68293261e+00                                 
 3.20000000e-10  8.15958290e-01  3.20000000e-10  7.61535813e-01  3.20000000e-10  1.67463244e+00  3.20000000e-10  1.15200000e+00  3.20000000e-10  1.80064974e+00  3.20000000e-10  7.62876813e-01  3.20000000e-10  1.67572390e+00  3.20000000e-10  1.68289855e+00                                 
 5.00000000e-10  8.16080524e-01  5.00000000e-10  7.61934719e-01  5.00000000e-10  1.66757716e+00  5.00000000e-10  1.80000000e+00  5.00000000e-10  1.36517634e-01  5.00000000e-10  7.66923343e-01  5.00000000e-10  1.67877366e+00  5.00000000e-10  1.68297249e+00                                 
 5.20423510e-10  8.16066521e-01  5.20423510e-10  7.61984414e-01  5.20423510e-10  1.66706011e+00  5.20423510e-10  1.80000000e+00  5.20423510e-10  3.35257544e-02  5.20423510e-10  7.68304540e-01  5.20423510e-10  1.67959609e+00  5.20423510e-10  1.68297126e+00                                 
 5.61270529e-10  8.16091686e-01  5.61270529e-10  7.62075771e-01  5.61270529e-10  1.66699841e+00  5.61270529e-10  1.80000000e+00  5.61270529e-10 -1.28108466e-02  5.61270529e-10  7.70193322e-01  5.61270529e-10  1.68129062e+00  5.61270529e-10  1.68297414e+00                                 
 6.42964567e-10  8.16140267e-01  6.42964567e-10  7.61911776e-01  6.42964567e-10  1.66530769e+00  6.42964567e-10  1.80000000e+00  6.42964567e-10  1.05742180e-02  6.42964567e-10  7.68726609e-01  6.42964567e-10  1.68020393e+00  6.42964567e-10  1.68291004e+00                                 
 7.60868124e-10  8.16159424e-01  7.60868124e-10  7.61890766e-01  7.60868124e-10  1.66475153e+00  7.60868124e-10  1.80000000e+00  7.60868124e-10 -8.35020512e-03  7.60868124e-10  7.69278138e-01  7.60868124e-10  1.68053328e+00  7.60868124e-10  1.68295094e+00                                 
 9.36547445e-10  8.16240408e-01  9.36547445e-10  7.61859738e-01  9.36547445e-10  1.66305052e+00  9.36547445e-10  1.80000000e+00  9.36547445e-10  7.94415202e-03  9.36547445e-10  7.69815621e-01  9.36547445e-10  1.68113322e+00  9.36547445e-10  1.68292415e+00                                 
 1.28790609e-09  8.16287204e-01  1.28790609e-09  7.61802706e-01  1.28790609e-09  1.65867103e+00  1.28790609e-09  1.80000000e+00  1.28790609e-09 -7.21941387e-03  1.28790609e-09  7.69875391e-01  1.28790609e-09  1.68106566e+00  1.28790609e-09  1.68293614e+00                                 
 1.72334021e-09  8.16247268e-01  1.72334021e-09  7.61812666e-01  1.72334021e-09  1.65720225e+00  1.72334021e-09  1.80000000e+00  1.72334021e-09  7.00986623e-03  1.72334021e-09  7.70118315e-01  1.72334021e-09  1.68139357e+00  1.72334021e-09  1.68293434e+00                                 
 2.21335724e-09  8.16132210e-01  2.21335724e-09  7.61783200e-01  2.21335724e-09  1.65671644e+00  2.21335724e-09  1.80000000e+00  2.21335724e-09 -6.70592970e-03  2.21335724e-09  7.69457111e-01  2.21335724e-09  1.68070816e+00  2.21335724e-09  1.68295571e+00                                 
 2.72962854e-09  8.16062384e-01  2.72962854e-09  7.61808587e-01  2.72962854e-09  1.65717391e+00  2.72962854e-09  1.80000000e+00  2.72962854e-09  6.46668875e-03  2.72962854e-09  7.69507666e-01  2.72962854e-09  1.68085831e+00  2.72962854e-09  1.68297737e+00                                 
 3.50091854e-09  8.15991825e-01  3.50091854e-09  7.61784073e-01  3.50091854e-09  1.65680222e+00  3.50091854e-09  1.80000000e+00  3.50091854e-09 -6.29877906e-03  3.50091854e-09  7.68643201e-01  3.50091854e-09  1.68000216e+00  3.50091854e-09  1.68301589e+00                                 
 4.91483658e-09  8.15974674e-01  4.91483658e-09  7.61813035e-01  4.91483658e-09  1.65647594e+00  4.91483658e-09  1.80000000e+00  4.91483658e-09  6.21821519e-03  4.91483658e-09  7.68191601e-01  4.91483658e-09  1.67970902e+00  4.91483658e-09  1.68308979e+00                                 
 7.74267266e-09  8.15969902e-01  7.74267266e-09  7.61791820e-01  7.74267266e-09  1.65354706e+00  7.74267266e-09  1.80000000e+00  7.74267266e-09 -6.16807872e-03  7.74267266e-09  7.66461195e-01  7.74267266e-09  1.67810250e+00  7.74267266e-09  1.68319986e+00                                 
 1.33983448e-08  8.15991225e-01  1.33983448e-08  7.61821763e-01  1.33983448e-08  1.64656032e+00  1.33983448e-08  1.80000000e+00  1.33983448e-08  6.15820449e-03  1.33983448e-08  7.65328638e-01  1.33983448e-08  1.67721945e+00  1.33983448e-08  1.68327522e+00                                 
 1.75288928e-08  8.15989894e-01  1.75288928e-08  7.61796030e-01  1.75288928e-08  1.63934562e+00  1.75288928e-08  1.80000000e+00  1.75288928e-08 -6.11464591e-03  1.75288928e-08  7.64529297e-01  1.75288928e-08  1.67642565e+00  1.75288928e-08  1.68323108e+00                                 
 2.22225392e-08  8.15999966e-01  2.22225392e-08  7.61821789e-01  2.22225392e-08  1.63132540e+00  2.22225392e-08  1.80000000e+00  2.22225392e-08  6.10797762e-03  2.22225392e-08  7.64758257e-01  2.22225392e-08  1.67672157e+00  2.22225392e-08  1.68315403e+00                                 
 2.65713200e-08  8.15994474e-01  2.65713200e-08  7.61795860e-01  2.65713200e-08  1.62279467e+00  2.65713200e-08  1.80000000e+00  2.65713200e-08 -6.05916446e-03  2.65713200e-08  7.64353455e-01  2.65713200e-08  1.67626740e+00  2.65713200e-08  1.68307014e+00                                 
 3.38151469e-08  8.16007921e-01  3.38151469e-08  7.61821883e-01  3.38151469e-08  1.60831095e+00  3.38151469e-08  1.80000000e+00  3.38151469e-08  6.06736965e-03  3.38151469e-08  7.64817475e-01  3.38151469e-08  1.67676355e+00  3.38151469e-08  1.68295197e+00                                 
 4.17195101e-08  8.16004400e-01  4.17195101e-08  7.61795872e-01  4.17195101e-08  1.59022628e+00  4.17195101e-08  1.80000000e+00  4.17195101e-08 -6.02720155e-03  4.17195101e-08  7.64543080e-01  4.17195101e-08  1.67642170e+00  4.17195101e-08  1.68284165e+00                                 
 5.50482099e-08  8.16013106e-01  5.50482099e-08  7.61821878e-01  5.50482099e-08  1.55916957e+00  5.50482099e-08  1.80000000e+00  5.50482099e-08  6.04449705e-03  5.50482099e-08  7.65093821e-01  5.50482099e-08  1.67699332e+00  5.50482099e-08  1.68272407e+00                                 
 7.18306520e-08  8.16005062e-01  7.18306520e-08  7.61795801e-01  7.18306520e-08  1.51825231e+00  7.18306520e-08  1.80000000e+00  7.18306520e-08 -6.01159483e-03  7.18306520e-08  7.64831638e-01  7.18306520e-08  1.67666436e+00  7.18306520e-08  1.68263983e+00                                 
 1.01250350e-07  8.16011573e-01  1.01250350e-07  7.61821841e-01  1.01250350e-07  1.44706692e+00  1.01250350e-07  1.80000000e+00  1.01250350e-07  6.03366124e-03  1.01250350e-07  7.65325325e-01  1.01250350e-07  1.67718992e+00  1.01250350e-07  1.68259718e+00                                 
 1.50556770e-07  8.16003845e-01  1.50556770e-07  7.61795773e-01  1.50556770e-07  1.32721971e+00  1.50556770e-07  1.80000000e+00  1.50556770e-07 -6.00527145e-03  1.50556770e-07  7.64981951e-01  1.50556770e-07  1.67679264e+00  1.50556770e-07  1.68259862e+00                                 
 2.49169612e-07  8.16011041e-01  2.49169612e-07  7.61821837e-01  2.49169612e-07  1.09253183e+00  2.49169612e-07  1.80000000e+00  2.49169612e-07  6.03021947e-03  2.49169612e-07  7.65375943e-01  2.49169612e-07  1.67722957e+00  2.49169612e-07  1.68262653e+00                                 
 3.58438997e-07  8.16003733e-01  3.58438997e-07  7.61795767e-01  3.58438997e-07  8.56467445e-01  3.58438997e-07  1.80000000e+00  3.58438997e-07 -6.00280460e-03  3.58438997e-07  7.64984573e-01  3.58438997e-07  1.67678638e+00  3.58438997e-07  1.68262031e+00                                 
 4.51937324e-07  8.16011276e-01  4.51937324e-07  7.61821857e-01  4.51937324e-07  7.65533528e-01  4.51937324e-07  1.80000000e+00  4.51937324e-07  6.02925894e-03  4.51937324e-07  7.65376303e-01  4.51937324e-07  1.67722068e+00  4.51937324e-07  1.68262019e+00                                 
 5.49349422e-07  8.16003367e-01  5.49349422e-07  7.61795747e-01  5.49349422e-07  7.69096295e-01  5.49349422e-07  1.80000000e+00  5.49349422e-07 -5.99988779e-03  5.49349422e-07  7.64986249e-01  5.49349422e-07  1.67677965e+00  5.49349422e-07  1.68261266e+00                                 
 5.95647037e-07  8.16011295e-01  5.95647037e-07  7.61821847e-01  5.95647037e-07  7.69159435e-01  5.95647037e-07  1.80000000e+00  5.95647037e-07  6.02562504e-03  5.95647037e-07  7.65374170e-01  5.95647037e-07  1.67721271e+00  5.95647037e-07  1.68261430e+00                                 
 6.55597985e-07  8.16003631e-01  6.55597985e-07  7.61795775e-01  6.55597985e-07  7.68247892e-01  6.55597985e-07  1.80000000e+00  6.55597985e-07 -5.99550912e-03  6.55597985e-07  7.64986373e-01  6.55597985e-07  1.67677527e+00  6.55597985e-07  1.68260735e+00                                 
 7.75499881e-07  8.16011142e-01  7.75499881e-07  7.61821830e-01  7.75499881e-07  7.68935800e-01  7.75499881e-07  1.80000000e+00  7.75499881e-07  6.02275601e-03  7.75499881e-07  7.65374549e-01  7.75499881e-07  1.67720540e+00  7.75499881e-07  1.68260655e+00                                 
 8.94417213e-07  8.16003686e-01  8.94417213e-07  7.61795782e-01  8.94417213e-07  7.68324199e-01  8.94417213e-07  1.80000000e+00  8.94417213e-07 -5.99369713e-03  8.94417213e-07  7.64986238e-01  8.94417213e-07  1.67676506e+00  8.94417213e-07  1.68259728e+00                                 
 1.13225188e-06  8.16011110e-01  1.13225188e-06  7.61821826e-01  1.13225188e-06  7.68890723e-01  1.13225188e-06  1.80000000e+00  1.13225188e-06  6.02134335e-03  1.13225188e-06  7.65374624e-01  1.13225188e-06  1.67719035e+00  1.13225188e-06  1.68259146e+00                                 
 1.60792121e-06  8.16003700e-01  1.60792121e-06  7.61795784e-01  1.60792121e-06  7.68342429e-01  1.60792121e-06  1.80000000e+00  1.60792121e-06 -5.99273703e-03  1.60792121e-06  7.64986210e-01  1.60792121e-06  1.67673482e+00  1.60792121e-06  1.68256714e+00                                 
 2.55925986e-06  8.16011104e-01  2.55925986e-06  7.61821825e-01  2.55925986e-06  7.68882401e-01  2.55925986e-06  1.80000000e+00  2.55925986e-06  6.02099037e-03  2.55925986e-06  7.65374637e-01  2.55925986e-06  1.67712994e+00  2.55925986e-06  1.68253118e+00                                 
 3.55925986e-06  8.16003703e-01  3.55925986e-06  7.61795785e-01  3.55925986e-06  7.68347529e-01  3.55925986e-06  1.80000000e+00  3.55925986e-06 -5.99276305e-03  3.55925986e-06  7.64986202e-01  3.55925986e-06  1.67665221e+00  3.55925986e-06  1.68248472e+00                                 
 4.55925986e-06  8.16011100e-01  4.55925986e-06  7.61821825e-01  4.55925986e-06  7.68877585e-01  4.55925986e-06  1.80000000e+00  4.55925986e-06  6.02082165e-03  4.55925986e-06  7.65374644e-01  4.55925986e-06  1.67704527e+00  4.55925986e-06  1.68244670e+00                                 
 5.55925986e-06  8.16003707e-01  5.55925986e-06  7.61795785e-01  5.55925986e-06  7.68352161e-01  5.55925986e-06  1.80000000e+00  5.55925986e-06 -5.99254783e-03  5.55925986e-06  7.64986196e-01  5.55925986e-06  1.67656753e+00  5.55925986e-06  1.68240025e+00                                 
 6.55925986e-06  8.16011097e-01  6.55925986e-06  7.61821824e-01  6.55925986e-06  7.68873091e-01  6.55925986e-06  1.80000000e+00  6.55925986e-06  6.02059780e-03  6.55925986e-06  7.65374650e-01  6.55925986e-06  1.67696058e+00  6.55925986e-06  1.68236221e+00                                 
 7.55925986e-06  8.16003710e-01  7.55925986e-06  7.61795786e-01  7.55925986e-06  7.68356485e-01  7.55925986e-06  1.80000000e+00  7.55925986e-06 -5.99232617e-03  7.55925986e-06  7.64986190e-01  7.55925986e-06  1.67648282e+00  7.55925986e-06  1.68231574e+00                                 
 8.55925986e-06  8.16011094e-01  8.55925986e-06  7.61821824e-01  8.55925986e-06  7.68868895e-01  8.55925986e-06  1.80000000e+00  8.55925986e-06  6.02037396e-03  8.55925986e-06  7.65374655e-01  8.55925986e-06  1.67687591e+00  8.55925986e-06  1.68227773e+00                                 
 9.55925986e-06  8.16003713e-01  9.55925986e-06  7.61795786e-01  9.55925986e-06  7.68360523e-01  9.55925986e-06  1.80000000e+00  9.55925986e-06 -5.99210452e-03  9.55925986e-06  7.64986185e-01  9.55925986e-06  1.67639814e+00  9.55925986e-06  1.68223127e+00                                 
 1.00005000e-05  8.16011090e-01  1.00005000e-05  7.61821823e-01  1.00005000e-05  7.68862628e-01  1.00005000e-05  1.80000000e+00  1.00005000e-05  6.02001549e-03  1.00005000e-05  7.65374663e-01  1.00005000e-05  1.67681488e+00  1.00005000e-05  1.68221683e+00                                 
 1.00005500e-05  8.15977867e-01  1.00005500e-05  7.61620992e-01  1.00005500e-05  7.66866531e-01  1.00005500e-05  1.62000000e+00  1.00005500e-05  4.29748774e-04  1.00005500e-05  7.63576618e-01  1.00005500e-05  1.67520444e+00  1.00005500e-05  1.68219316e+00                                 
 1.00006500e-05  8.16003264e-01  1.00006500e-05  7.61629373e-01  1.00006500e-05  7.67139736e-01  1.00006500e-05  1.26000000e+00  1.00006500e-05 -3.89300350e-04  1.00006500e-05  7.63462395e-01  1.00006500e-05  1.67509916e+00  1.00006500e-05  1.68221905e+00                                 
 1.00008500e-05  8.16031190e-01  1.00008500e-05  7.61904927e-01  1.00008500e-05  7.69917277e-01  1.00008500e-05  5.40000000e-01  1.00008500e-05 -3.40689627e-04  1.00008500e-05  7.65833572e-01  1.00008500e-05  1.67678816e+00  1.00008500e-05  1.68222463e+00                                 
 1.00010000e-05  8.16001515e-01  1.00010000e-05  7.60493988e-01  1.00010000e-05  7.91135276e-01  1.00010000e-05  0.00000000e+00  1.00010000e-05  1.47771305e+00  1.00010000e-05  7.48266379e-01  1.00010000e-05  1.61043635e+00  1.00010000e-05  1.68156014e+00                                 
 1.00010269e-05  8.16017060e-01  1.00010269e-05  7.60210967e-01  1.00010269e-05  7.98859292e-01  1.00010269e-05  0.00000000e+00  1.00010269e-05  1.68223495e+00  1.00010269e-05  7.44478234e-01  1.00010269e-05  1.58386689e+00  1.00010269e-05  1.68144549e+00                                 
 1.00010806e-05  8.16009510e-01  1.00010806e-05  7.59755714e-01  1.00010806e-05  8.04586978e-01  1.00010806e-05  0.00000000e+00  1.00010806e-05  1.82499967e+00  1.00010806e-05  7.38861131e-01  1.00010806e-05  1.52741321e+00  1.00010806e-05  1.68139392e+00                                 
 1.00011880e-05  8.16003090e-01  1.00011880e-05  7.59823491e-01  1.00011880e-05  7.95239582e-01  1.00011880e-05  0.00000000e+00  1.00011880e-05  1.78454884e+00  1.00011880e-05  7.40168441e-01  1.00011880e-05  1.43115562e+00  1.00011880e-05  1.68190425e+00                                 
 1.00013332e-05  8.16012270e-01  1.00013332e-05  7.60304265e-01  1.00013332e-05  7.91294014e-01  1.00013332e-05  0.00000000e+00  1.00013332e-05  1.80891302e+00  1.00013332e-05  7.46364664e-01  1.00013332e-05  1.33400807e+00  1.00013332e-05  1.68224656e+00                                 
 1.00015584e-05  8.16002417e-01  1.00015584e-05  7.60588575e-01  1.00015584e-05  7.85393178e-01  1.00015584e-05  0.00000000e+00  1.00015584e-05  1.79263664e+00  1.00015584e-05  7.49290383e-01  1.00015584e-05  1.21409743e+00  1.00015584e-05  1.68238118e+00                                 
 1.00019909e-05  8.16011762e-01  1.00019909e-05  7.61227552e-01  1.00019909e-05  7.79937471e-01  1.00019909e-05  0.00000000e+00  1.00019909e-05  1.80587826e+00  1.00019909e-05  7.55228668e-01  1.00019909e-05  1.06283893e+00  1.00019909e-05  1.68250615e+00                                 
 1.00025317e-05  8.16002714e-01  1.00025317e-05  7.61532847e-01  1.00025317e-05  7.77087658e-01  1.00025317e-05  0.00000000e+00  1.00025317e-05  1.79453193e+00  1.00025317e-05  7.57055072e-01  1.00025317e-05  9.33905523e-01  1.00025317e-05  1.68229630e+00                                 
 1.00031174e-05  8.16011672e-01  1.00031174e-05  7.61945587e-01  1.00031174e-05  7.73891615e-01  1.00031174e-05  0.00000000e+00  1.00031174e-05  1.80461394e+00  1.00031174e-05  7.61200933e-01  1.00031174e-05  8.44724966e-01  1.00031174e-05  1.68184678e+00                                 
 1.00039914e-05  8.16003107e-01  1.00039914e-05  7.62143481e-01  1.00039914e-05  7.71335143e-01  1.00039914e-05  0.00000000e+00  1.00039914e-05  1.79556815e+00  1.00039914e-05  7.63747284e-01  1.00039914e-05  7.80557413e-01  1.00039914e-05  1.68080546e+00                                 
 1.00048829e-05  8.16011563e-01  1.00048829e-05  7.62276959e-01  1.00048829e-05  7.70213219e-01  1.00048829e-05  0.00000000e+00  1.00048829e-05  1.80404200e+00  1.00048829e-05  7.66436302e-01  1.00048829e-05  7.71929711e-01  1.00048829e-05  1.67946300e+00                                 
 1.00057615e-05  8.16003349e-01  1.00057615e-05  7.62083700e-01  1.00057615e-05  7.72211408e-01  1.00057615e-05  0.00000000e+00  1.00057615e-05  1.79623413e+00  1.00057615e-05  7.65416263e-01  1.00057615e-05  7.70709152e-01  1.00057615e-05  1.67784838e+00                                 
 1.00066951e-05  8.16011371e-01  1.00066951e-05  7.62093933e-01  1.00066951e-05  7.72595813e-01  1.00066951e-05  0.00000000e+00  1.00066951e-05  1.80345671e+00  1.00066951e-05  7.66658997e-01  1.00066951e-05  7.72992128e-01  1.00066951e-05  1.67608578e+00                                 
 1.00085625e-05  8.16003500e-01  1.00085625e-05  7.61896703e-01  1.00085625e-05  7.76275147e-01  1.00085625e-05  0.00000000e+00  1.00085625e-05  1.79664599e+00  1.00085625e-05  7.65617492e-01  1.00085625e-05  7.74644277e-01  1.00085625e-05  1.67243004e+00                                 
 1.00122971e-05  8.16011289e-01  1.00122971e-05  7.61887504e-01  1.00122971e-05  7.81138007e-01  1.00122971e-05  0.00000000e+00  1.00122971e-05  1.80326298e+00  1.00122971e-05  7.66593808e-01  1.00122971e-05  7.81380200e-01  1.00122971e-05  1.66519110e+00                                 
