 time            v(vbep)         time            v(vben)         time            v(vout)         time            v(vphi1)        time            v(vphi2)        time            v(vref)         yes             currtemp       
 0.00000000e+00  6.45253693e-01  0.00000000e+00  5.85454845e-01  0.00000000e+00  1.10973544e+00  0.00000000e+00  0.00000000e+00  0.00000000e+00  1.79994149e+00  0.00000000e+00  5.00000000e-01  1.00000000e+00  5.40000000e+01 
 5.00000000e-12  6.45215565e-01  5.00000000e-12  5.85423461e-01  5.00000000e-12  1.11050374e+00  5.00000000e-12  1.80000000e-02  5.00000000e-12  1.80004979e+00  5.00000000e-12  5.00000000e-01                                 
 1.00000000e-11  6.45178779e-01  1.00000000e-11  5.85393037e-01  1.00000000e-11  1.11120350e+00  1.00000000e-11  3.60000000e-02  1.00000000e-11  1.80010804e+00  1.00000000e-11  5.00000000e-01                                 
 2.00000000e-11  6.45106076e-01  2.00000000e-11  5.85332471e-01  2.00000000e-11  1.11249815e+00  2.00000000e-11  7.20000000e-02  2.00000000e-11  1.80016542e+00  2.00000000e-11  5.00000000e-01                                 
 4.00000000e-11  6.44962155e-01  4.00000000e-11  5.85211904e-01  4.00000000e-11  1.11459963e+00  4.00000000e-11  1.44000000e-01  4.00000000e-11  1.80014401e+00  4.00000000e-11  5.00000000e-01                                 
 8.00000000e-11  6.44675970e-01  8.00000000e-11  5.84972065e-01  8.00000000e-11  1.11752701e+00  8.00000000e-11  2.88000000e-01  8.00000000e-11  1.80008185e+00  8.00000000e-11  5.00000000e-01                                 
 1.60000000e-10  6.44110837e-01  1.60000000e-10  5.84497517e-01  1.60000000e-10  1.12048783e+00  1.60000000e-10  5.76000000e-01  1.60000000e-10  1.80001816e+00  1.60000000e-10  5.00000000e-01                                 
 3.20000000e-10  6.43007525e-01  3.20000000e-10  5.83568106e-01  3.20000000e-10  1.11482773e+00  3.20000000e-10  1.15200000e+00  3.20000000e-10  1.80041836e+00  3.20000000e-10  5.00000000e-01                                 
 5.00000000e-10  6.41807615e-01  5.00000000e-10  5.82552630e-01  5.00000000e-10  1.26298328e+00  5.00000000e-10  1.80000000e+00  5.00000000e-10  1.24248646e-01  5.00000000e-10  5.00000000e-01                                 
 5.21819410e-10  6.41665350e-01  5.21819410e-10  5.82431887e-01  5.21819410e-10  1.29851241e+00  5.21819410e-10  1.80000000e+00  5.21819410e-10  2.52879346e-02  5.21819410e-10  5.00000000e-01                                 
 5.65458230e-10  6.41381972e-01  5.65458230e-10  5.82191224e-01  5.65458230e-10  1.36407998e+00  5.65458230e-10  1.80000000e+00  5.65458230e-10 -1.16648021e-02  5.65458230e-10  5.00000000e-01                                 
 6.52735871e-10  6.40822214e-01  6.52735871e-10  5.81715073e-01  6.52735871e-10  1.47313816e+00  6.52735871e-10  1.80000000e+00  6.52735871e-10  9.60994587e-03  6.52735871e-10  5.00000000e-01                                 
 7.74843192e-10  6.40054319e-01  7.74843192e-10  5.81060202e-01  7.74843192e-10  1.59621907e+00  7.74843192e-10  1.80000000e+00  7.74843192e-10 -8.28616748e-03  7.74843192e-10  5.00000000e-01                                 
 9.68104857e-10  6.38873542e-01  9.68104857e-10  5.80049505e-01  9.68104857e-10  1.73969934e+00  9.68104857e-10  1.80000000e+00  9.68104857e-10  7.74634599e-03  9.68104857e-10  5.00000000e-01                                 
 1.35462819e-09  6.36628809e-01  1.35462819e-09  5.78116025e-01  1.35462819e-09  1.89781907e+00  1.35462819e-09  1.80000000e+00  1.35462819e-09 -7.30567469e-03  1.35462819e-09  5.00000000e-01                                 
 1.64394255e-09  6.35043397e-01  1.64394255e-09  5.76740678e-01  1.64394255e-09  1.94433138e+00  1.64394255e-09  1.80000000e+00  1.64394255e-09  7.01545940e-03  1.64394255e-09  5.00000000e-01                                 
 1.98949531e-09  6.33244457e-01  1.98949531e-09  5.75170697e-01  1.98949531e-09  1.96653450e+00  1.98949531e-09  1.80000000e+00  1.98949531e-09 -6.62081528e-03  1.98949531e-09  5.00000000e-01                                 
 2.32565907e-09  6.31584586e-01  2.32565907e-09  5.73713341e-01  2.32565907e-09  1.97345965e+00  2.32565907e-09  1.80000000e+00  2.32565907e-09  6.38311295e-03  2.32565907e-09  5.00000000e-01                                 
 2.89287536e-09  6.28961022e-01  2.89287536e-09  5.71393587e-01  2.89287536e-09  1.97514598e+00  2.89287536e-09  1.80000000e+00  2.89287536e-09 -6.15148766e-03  2.89287536e-09  5.00000000e-01                                 
 3.56854892e-09  6.26090716e-01  3.56854892e-09  5.68833173e-01  3.56854892e-09  1.97298686e+00  3.56854892e-09  1.80000000e+00  3.56854892e-09  6.05981512e-03  3.56854892e-09  5.00000000e-01                                 
 4.85141673e-09  6.21251775e-01  4.85141673e-09  5.64467896e-01  4.85141673e-09  1.96830882e+00  4.85141673e-09  1.80000000e+00  4.85141673e-09 -5.94223091e-03  4.85141673e-09  5.00000000e-01                                 
 6.79993529e-09  6.15071666e-01  6.79993529e-09  5.58808329e-01  6.79993529e-09  1.96249365e+00  6.79993529e-09  1.80000000e+00  6.79993529e-09  5.94221177e-03  6.79993529e-09  5.00000000e-01                                 
 9.51806408e-09  6.08092540e-01  9.51806408e-09  5.52313060e-01  9.51806408e-09  1.95592706e+00  9.51806408e-09  1.80000000e+00  9.51806408e-09 -5.86130245e-03  9.51806408e-09  5.00000000e-01                                 
 1.11893711e-08  6.04502291e-01  1.11893711e-08  5.48929953e-01  1.11893711e-08  1.95265722e+00  1.11893711e-08  1.80000000e+00  1.11893711e-08  5.84368742e-03  1.11893711e-08  5.00000000e-01                                 
 1.24813412e-08  6.01995049e-01  1.24813412e-08  5.46553021e-01  1.24813412e-08  1.95032189e+00  1.24813412e-08  1.80000000e+00  1.24813412e-08 -5.73857773e-03  1.24813412e-08  5.00000000e-01                                 
 1.39457419e-08  5.99383915e-01  1.39457419e-08  5.44066228e-01  1.39457419e-08  1.94799413e+00  1.39457419e-08  1.80000000e+00  1.39457419e-08  5.70892160e-03  1.39457419e-08  5.00000000e-01                                 
 1.62767855e-08  5.95639766e-01  1.62767855e-08  5.40481939e-01  1.62767855e-08  1.94457392e+00  1.62767855e-08  1.80000000e+00  1.62767855e-08 -5.63986565e-03  1.62767855e-08  5.00000000e-01                                 
 1.90699557e-08  5.91692098e-01  1.90699557e-08  5.36680755e-01  1.90699557e-08  1.94109163e+00  1.90699557e-08  1.80000000e+00  1.90699557e-08  5.63798268e-03  1.90699557e-08  5.00000000e-01                                 
 2.31357665e-08  5.86736059e-01  2.31357665e-08  5.31879950e-01  2.31357665e-08  1.93672338e+00  2.31357665e-08  1.80000000e+00  2.31357665e-08 -5.58676521e-03  2.31357665e-08  5.00000000e-01                                 
 2.82027671e-08  5.81533979e-01  2.82027671e-08  5.26808897e-01  2.82027671e-08  1.93233544e+00  2.82027671e-08  1.80000000e+00  2.82027671e-08  5.59891627e-03  2.82027671e-08  5.00000000e-01                                 
 3.71364448e-08  5.74117000e-01  3.71364448e-08  5.19529386e-01  3.71364448e-08  1.92612867e+00  3.71364448e-08  1.80000000e+00  3.71364448e-08 -5.55943901e-03  3.71364448e-08  5.00000000e-01                                 
 5.50038002e-08  5.63163019e-01  5.50038002e-08  5.08699573e-01  5.50038002e-08  1.91301344e+00  5.50038002e-08  1.80000000e+00  5.50038002e-08  5.58442812e-03  5.50038002e-08  5.00000000e-01                                 
 7.35679101e-08  5.54343165e-01  7.35679101e-08  5.00060431e-01  7.35679101e-08  1.89332193e+00  7.35679101e-08  1.80000000e+00  7.35679101e-08 -5.54983715e-03  7.35679101e-08  5.00000000e-01                                 
 9.58947881e-08  5.43121664e-01  9.58947881e-08  4.89634992e-01  9.58947881e-08  1.86891903e+00  9.58947881e-08  1.80000000e+00  9.58947881e-08  5.57582571e-03  9.58947881e-08  5.00000000e-01                                 
 1.13450720e-07  5.33397740e-01  1.13450720e-07  4.80960850e-01  1.13450720e-07  1.84065785e+00  1.13450720e-07  1.80000000e+00  1.13450720e-07 -5.54115473e-03  1.13450720e-07  5.00000000e-01                                 
 1.33676663e-07  5.24480690e-01  1.33676663e-07  4.72952688e-01  1.33676663e-07  1.80422353e+00  1.33676663e-07  1.80000000e+00  1.33676663e-07  5.56673145e-03  1.33676663e-07  5.00000000e-01                                 
 1.55050111e-07  5.16536540e-01  1.55050111e-07  4.65816787e-01  1.55050111e-07  1.76570623e+00  1.55050111e-07  1.80000000e+00  1.55050111e-07 -5.53282170e-03  1.55050111e-07  5.00000000e-01                                 
 1.77870468e-07  5.17982504e-01  1.77870468e-07  4.66150381e-01  1.77870468e-07  1.75723362e+00  1.77870468e-07  1.80000000e+00  1.77870468e-07  5.55937360e-03  1.77870468e-07  5.00000000e-01                                 
 2.04821502e-07  5.20699902e-01  2.04821502e-07  4.67425590e-01  2.04821502e-07  1.73924444e+00  2.04821502e-07  1.80000000e+00  2.04821502e-07 -5.52592266e-03  2.04821502e-07  5.00000000e-01                                 
 2.29513504e-07  5.16738910e-01  2.29513504e-07  4.63574813e-01  2.29513504e-07  1.71045948e+00  2.29513504e-07  1.80000000e+00  2.29513504e-07  5.55244293e-03  2.29513504e-07  5.00000000e-01                                 
 2.52214190e-07  5.13564673e-01  2.52214190e-07  4.60468541e-01  2.52214190e-07  1.68457517e+00  2.52214190e-07  1.80000000e+00  2.52214190e-07 -5.51871261e-03  2.52214190e-07  5.00000000e-01                                 
 2.77966557e-07  5.07695021e-01  2.77966557e-07  4.55213163e-01  2.77966557e-07  1.65300615e+00  2.77966557e-07  1.80000000e+00  2.77966557e-07  5.54523239e-03  2.77966557e-07  5.00000000e-01                                 
 3.21374391e-07  4.96530120e-01  3.21374391e-07  4.45483589e-01  3.21374391e-07  1.59897936e+00  3.21374391e-07  1.80000000e+00  3.21374391e-07 -5.51348935e-03  3.21374391e-07  5.00000000e-01                                 
 3.76377103e-07  4.83127222e-01  3.76377103e-07  4.33950451e-01  3.76377103e-07  1.52772506e+00  3.76377103e-07  1.80000000e+00  3.76377103e-07  5.54171617e-03  3.76377103e-07  5.00000000e-01                                 
 4.57715172e-07  4.61996796e-01  4.57715172e-07  4.16186739e-01  4.57715172e-07  1.42334812e+00  4.57715172e-07  1.80000000e+00  4.57715172e-07 -5.51091906e-03  4.57715172e-07  5.00000000e-01                                 
 5.57580860e-07  4.27189679e-01  5.57580860e-07  3.87761165e-01  5.57580860e-07  1.28306047e+00  5.57580860e-07  1.80000000e+00  5.57580860e-07  5.53973447e-03  5.57580860e-07  5.00000000e-01                                 
 5.80670991e-07  4.18286200e-01  5.80670991e-07  3.80572575e-01  5.80670991e-07  1.25027487e+00  5.80670991e-07  1.80000000e+00  5.80670991e-07  2.94587348e-06  5.80670991e-07  5.00000000e-01                                 
 6.26851255e-07  3.98305376e-01  6.26851255e-07  3.64483836e-01  6.26851255e-07  1.18174853e+00  6.26851255e-07  1.80000000e+00  6.26851255e-07  1.00792417e-06  6.26851255e-07  5.00000000e-01                                 
 6.85796085e-07  3.92288270e-01  6.85796085e-07  3.59637982e-01  6.85796085e-07  1.11311103e+00  6.85796085e-07  1.80000000e+00  6.85796085e-07  3.25217000e-06  6.85796085e-07  5.00000000e-01                                 
 6.97807025e-07  4.03125583e-01  6.97807025e-07  3.68326013e-01  6.97807025e-07  1.11083208e+00  6.97807025e-07  1.80000000e+00  6.97807025e-07  2.59255579e-06  6.97807025e-07  5.00000000e-01                                 
 7.21828907e-07  4.57263336e-01  7.21828907e-07  4.11643704e-01  7.21828907e-07  1.13726854e+00  7.21828907e-07  1.80000000e+00  7.21828907e-07  3.87390898e-06  7.21828907e-07  5.00000000e-01                                 
 7.69872670e-07  6.93792343e-01  7.69872670e-07  6.31055923e-01  7.69872670e-07  1.31300653e+00  7.69872670e-07  1.80000000e+00  7.69872670e-07  6.32281481e-06  7.69872670e-07  5.00000000e-01                                 
 7.98752832e-07  7.44226744e-01  7.98752832e-07  6.78968318e-01  7.98752832e-07  1.33238306e+00  7.98752832e-07  1.80000000e+00  7.98752832e-07  9.89693919e-07  7.98752832e-07  5.00000000e-01                                 
 8.27764745e-07  7.64996297e-01  8.27764745e-07  6.96316250e-01  8.27764745e-07  1.31940583e+00  8.27764745e-07  1.80000000e+00  8.27764745e-07  4.24762251e-06  8.27764745e-07  5.00000000e-01                                 
 8.61361147e-07  7.66345636e-01  8.61361147e-07  6.97556121e-01  8.61361147e-07  1.28685623e+00  8.61361147e-07  1.80000000e+00  8.61361147e-07  3.55171207e-07  8.61361147e-07  5.00000000e-01                                 
 8.96898791e-07  7.65535139e-01  8.96898791e-07  6.96772376e-01  8.96898791e-07  1.24611906e+00  8.96898791e-07  1.80000000e+00  8.96898791e-07  3.84340302e-06  8.96898791e-07  5.00000000e-01                                 
 9.40594888e-07  7.66215652e-01  9.40594888e-07  6.97324069e-01  9.40594888e-07  1.20193107e+00  9.40594888e-07  1.80000000e+00  9.40594888e-07  6.18620438e-07  9.40594888e-07  5.00000000e-01                                 
 9.96054161e-07  7.47690138e-01  9.96054161e-07  6.81859244e-01  9.96054161e-07  1.12348566e+00  9.96054161e-07  1.80000000e+00  9.96054161e-07  3.20353481e-06  9.96054161e-07  5.00000000e-01                                 
 1.05018422e-06  7.21805091e-01  1.05018422e-06  6.58945895e-01  1.05018422e-06  1.04487096e+00  1.05018422e-06  1.80000000e+00  1.05018422e-06  4.76742763e-07  1.05018422e-06  5.00000000e-01                                 
 1.11572890e-06  7.36757051e-01  1.11572890e-06  6.72182574e-01  1.11572890e-06  9.95275359e-01  1.11572890e-06  1.80000000e+00  1.11572890e-06  4.17385595e-06  1.11572890e-06  5.00000000e-01                                 
 1.17972384e-06  7.65475657e-01  1.17972384e-06  6.96808802e-01  1.17972384e-06  9.69570472e-01  1.17972384e-06  1.80000000e+00  1.17972384e-06  9.09118791e-07  1.17972384e-06  5.00000000e-01                                 
 1.23502202e-06  7.44104928e-01  1.23502202e-06  6.78798733e-01  1.23502202e-06  9.09146654e-01  1.23502202e-06  1.80000000e+00  1.23502202e-06  2.86372543e-06  1.23502202e-06  5.00000000e-01                                 
 1.29097301e-06  7.22965373e-01  1.29097301e-06  6.59920239e-01  1.29097301e-06  8.56066624e-01  1.29097301e-06  1.80000000e+00  1.29097301e-06  9.38401084e-07  1.29097301e-06  5.00000000e-01                                 
 1.34789871e-06  7.42465182e-01  1.34789871e-06  6.77300355e-01  1.34789871e-06  8.37370275e-01  1.34789871e-06  1.80000000e+00  1.34789871e-06  3.89548038e-06  1.34789871e-06  5.00000000e-01                                 
 1.41806632e-06  7.56979786e-01  1.41806632e-06  6.89815743e-01  1.41806632e-06  8.08889406e-01  1.41806632e-06  1.80000000e+00  1.41806632e-06  8.15914607e-07  1.41806632e-06  5.00000000e-01                                 
 1.49264232e-06  7.38523901e-01  1.49264232e-06  6.73878132e-01  1.49264232e-06  7.48473564e-01  1.49264232e-06  1.80000000e+00  1.49264232e-06  3.15498181e-06  1.49264232e-06  5.00000000e-01                                 
 1.57648600e-06  7.37754659e-01  1.57648600e-06  6.73236417e-01  1.57648600e-06  7.02485098e-01  1.57648600e-06  1.80000000e+00  1.57648600e-06  1.19728933e-06  1.57648600e-06  5.00000000e-01                                 
 1.65783068e-06  7.53620610e-01  1.65783068e-06  6.86961229e-01  1.65783068e-06  6.71669463e-01  1.65783068e-06  1.80000000e+00  1.65783068e-06  3.44463564e-06  1.65783068e-06  5.00000000e-01                                 
 1.76589151e-06  7.39584150e-01  1.76589151e-06  6.74888304e-01  1.76589151e-06  6.04178774e-01  1.76589151e-06  1.80000000e+00  1.76589151e-06  7.37898006e-07  1.76589151e-06  5.00000000e-01                                 
 1.86529136e-06  7.42141980e-01  1.86529136e-06  6.77042810e-01  1.86529136e-06  5.59507114e-01  1.86529136e-06  1.80000000e+00  1.86529136e-06  3.63992380e-06  1.86529136e-06  5.00000000e-01                                 
 1.97523953e-06  7.50149746e-01  1.97523953e-06  6.84047528e-01  1.97523953e-06  5.28770453e-01  1.97523953e-06  1.80000000e+00  1.97523953e-06  8.51899581e-07  1.97523953e-06  5.00000000e-01                                 
 2.13261023e-06  7.39345511e-01  2.13261023e-06  6.74593157e-01  2.13261023e-06  4.92238135e-01  2.13261023e-06  1.80000000e+00  2.13261023e-06  3.39720023e-06  2.13261023e-06  5.00000000e-01                                 
 2.28043297e-06  7.47096891e-01  2.28043297e-06  6.81414694e-01  2.28043297e-06  4.92639420e-01  2.28043297e-06  1.80000000e+00  2.28043297e-06  1.05051486e-06  2.28043297e-06  5.00000000e-01                                 
 2.43251693e-06  7.44779951e-01  2.43251693e-06  6.79379616e-01  2.43251693e-06  4.95477528e-01  2.43251693e-06  1.80000000e+00  2.43251693e-06  3.28246789e-06  2.43251693e-06  5.00000000e-01                                 
 2.45559377e-06  7.43097541e-01  2.45559377e-06  6.77928339e-01  2.45559377e-06  4.96582787e-01  2.45559377e-06  1.80000000e+00  2.45559377e-06  2.13556185e-06  2.45559377e-06  5.00000000e-01                                 
 2.50174745e-06  7.42994876e-01  2.50174745e-06  6.77834021e-01  2.50174745e-06  4.99263776e-01  2.50174745e-06  1.80000000e+00  2.50174745e-06  2.21483001e-06  2.50174745e-06  5.00000000e-01                                 
 2.59405481e-06  7.46205561e-01  2.59405481e-06  6.80629327e-01  2.59405481e-06  5.02397784e-01  2.59405481e-06  1.80000000e+00  2.59405481e-06  2.19741523e-06  2.59405481e-06  5.00000000e-01                                 
 2.75011505e-06  7.43731447e-01  2.75011505e-06  6.78483093e-01  2.75011505e-06  4.98849580e-01  2.75011505e-06  1.80000000e+00  2.75011505e-06  2.13973905e-06  2.75011505e-06  5.00000000e-01                                 
 2.95714034e-06  7.44936934e-01  2.95714034e-06  6.79526134e-01  2.95714034e-06  5.00753541e-01  2.95714034e-06  1.80000000e+00  2.95714034e-06  2.22848509e-06  2.95714034e-06  5.00000000e-01                                 
 3.25584646e-06  7.44764455e-01  3.25584646e-06  6.79383809e-01  3.25584646e-06  5.00207341e-01  3.25584646e-06  1.80000000e+00  3.25584646e-06  2.13136177e-06  3.25584646e-06  5.00000000e-01                                 
 3.82858348e-06  7.44348924e-01  3.82858348e-06  6.79014383e-01  3.82858348e-06  4.99957674e-01  3.82858348e-06  1.80000000e+00  3.82858348e-06  2.22746282e-06  3.82858348e-06  5.00000000e-01                                 
 4.62947449e-06  7.45068848e-01  4.62947449e-06  6.79648285e-01  4.62947449e-06  5.00619388e-01  4.62947449e-06  1.80000000e+00  4.62947449e-06  2.13426952e-06  4.62947449e-06  5.00000000e-01                                 
 5.62947449e-06  7.44139252e-01  5.62947449e-06  6.78831870e-01  5.62947449e-06  4.99679192e-01  5.62947449e-06  1.80000000e+00  5.62947449e-06  2.22437035e-06  5.62947449e-06  5.00000000e-01                                 
 6.62947449e-06  7.45233150e-01  6.62947449e-06  6.79790811e-01  6.62947449e-06  5.00842595e-01  6.62947449e-06  1.80000000e+00  6.62947449e-06  2.13761071e-06  6.62947449e-06  5.00000000e-01                                 
 7.62947449e-06  7.43988016e-01  7.62947449e-06  6.78700285e-01  7.62947449e-06  4.99478470e-01  7.62947449e-06  1.80000000e+00  7.62947449e-06  2.22056189e-06  7.62947449e-06  5.00000000e-01                                 
 8.62947449e-06  7.45363212e-01  8.62947449e-06  6.79903521e-01  8.62947449e-06  5.01020212e-01  8.62947449e-06  1.80000000e+00  8.62947449e-06  2.14183380e-06  8.62947449e-06  5.00000000e-01                                 
 9.62947449e-06  7.43872287e-01  9.62947449e-06  6.78599676e-01  9.62947449e-06  4.99325010e-01  9.62947449e-06  1.80000000e+00  9.62947449e-06  2.21597858e-06  9.62947449e-06  5.00000000e-01                                 
