 time            v(vbep)         time            v(vben)         time            v(vout)         time            v(vphi1)        time            v(vphi2)        time            v(vref)         yes             currtemp       
 0.00000000e+00  6.95149657e-01  0.00000000e+00  6.41357374e-01  0.00000000e+00  5.98854249e-01  0.00000000e+00  0.00000000e+00  0.00000000e+00  1.79995636e+00  0.00000000e+00  6.41357374e-01  1.00000000e+00  2.10000000e+01 
 5.00000000e-12  6.95125439e-01  5.00000000e-12  6.41337261e-01  5.00000000e-12  5.99418766e-01  5.00000000e-12  1.80000000e-02  5.00000000e-12  1.80006578e+00  5.00000000e-12  6.41337261e-01                                 
 1.00000000e-11  6.95101765e-01  1.00000000e-11  6.41317634e-01  1.00000000e-11  5.99898999e-01  1.00000000e-11  3.60000000e-02  1.00000000e-11  1.80012905e+00  1.00000000e-11  6.41317634e-01                                 
 2.00000000e-11  6.95054734e-01  2.00000000e-11  6.41278519e-01  2.00000000e-11  6.00725710e-01  2.00000000e-11  7.20000000e-02  2.00000000e-11  1.80019679e+00  2.00000000e-11  6.41278519e-01                                 
 4.00000000e-11  6.94961221e-01  4.00000000e-11  6.41200563e-01  4.00000000e-11  6.01820784e-01  4.00000000e-11  1.44000000e-01  4.00000000e-11  1.80017939e+00  4.00000000e-11  6.41200563e-01                                 
 8.00000000e-11  6.94775023e-01  8.00000000e-11  6.41045273e-01  8.00000000e-11  6.02881657e-01  8.00000000e-11  2.88000000e-01  8.00000000e-11  1.80009653e+00  8.00000000e-11  6.41045273e-01                                 
 1.60000000e-10  6.94406174e-01  1.60000000e-10  6.40737175e-01  1.60000000e-10  6.03622890e-01  1.60000000e-10  5.76000000e-01  1.60000000e-10  1.80003809e+00  1.60000000e-10  6.40737175e-01                                 
 3.20000000e-10  6.93681910e-01  3.20000000e-10  6.40130578e-01  3.20000000e-10  5.95856023e-01  3.20000000e-10  1.15200000e+00  3.20000000e-10  1.80017939e+00  3.20000000e-10  6.40130578e-01                                 
 5.00000000e-10  6.92887822e-01  5.00000000e-10  6.39462950e-01  5.00000000e-10  7.41503100e-01  5.00000000e-10  1.80000000e+00  5.00000000e-10  1.44436962e-01  5.00000000e-10  6.39462950e-01                                 
 5.21207644e-10  6.92795819e-01  5.21207644e-10  6.39385412e-01  5.21207644e-10  7.76789726e-01  5.21207644e-10  1.80000000e+00  5.21207644e-10  3.28725721e-02  5.21207644e-10  6.39385412e-01                                 
 5.63622932e-10  6.92612377e-01  5.63622932e-10  6.39230737e-01  5.63622932e-10  8.43313554e-01  5.63622932e-10  1.80000000e+00  5.63622932e-10 -1.30288595e-02  5.63622932e-10  6.39230737e-01                                 
 6.48453508e-10  6.92248899e-01  6.48453508e-10  6.38923849e-01  6.48453508e-10  9.57777135e-01  6.48453508e-10  1.80000000e+00  6.48453508e-10  1.14822540e-02  6.48453508e-10  6.38923849e-01                                 
 7.66860041e-10  6.91748976e-01  7.66860041e-10  6.38500872e-01  7.66860041e-10  1.09933600e+00  7.66860041e-10  1.80000000e+00  7.66860041e-10 -8.73722732e-03  7.66860041e-10  6.38500872e-01                                 
 9.51194102e-10  6.90987240e-01  9.51194102e-10  6.37854433e-01  9.51194102e-10  1.29151832e+00  9.51194102e-10  1.80000000e+00  9.51194102e-10  8.98235918e-03  9.51194102e-10  6.37854433e-01                                 
 1.31986222e-09  6.89520340e-01  1.31986222e-09  6.36603100e-01  1.31986222e-09  1.56760807e+00  1.31986222e-09  1.80000000e+00  1.31986222e-09 -7.69102686e-03  1.31986222e-09  6.36603100e-01                                 
 1.86941813e-09  6.87461378e-01  1.86941813e-09  6.34832627e-01  1.86941813e-09  1.76548727e+00  1.86941813e-09  1.80000000e+00  1.86941813e-09  7.89240023e-03  1.86941813e-09  6.34832627e-01                                 
 2.16297105e-09  6.86419377e-01  2.16297105e-09  6.33930262e-01  2.16297105e-09  1.80071440e+00  2.16297105e-09  1.80000000e+00  2.16297105e-09 -7.21986471e-03  2.16297105e-09  6.33930262e-01                                 
 2.51726740e-09  6.85209703e-01  2.51726740e-09  6.32877625e-01  2.51726740e-09  1.82010045e+00  2.51726740e-09  1.80000000e+00  2.51726740e-09  6.95692174e-03  2.51726740e-09  6.32877625e-01                                 
 2.91182709e-09  6.83919629e-01  2.91182709e-09  6.31749143e-01  2.91182709e-09  1.82739726e+00  2.91182709e-09  1.80000000e+00  2.91182709e-09 -6.57471942e-03  2.91182709e-09  6.31749143e-01                                 
 3.59285939e-09  6.81819248e-01  3.59285939e-09  6.29899473e-01  3.59285939e-09  1.82996457e+00  3.59285939e-09  1.80000000e+00  3.59285939e-09  6.43749772e-03  3.59285939e-09  6.29899473e-01                                 
 4.38544217e-09  6.79553512e-01  4.38544217e-09  6.27887370e-01  4.38544217e-09  1.82780880e+00  4.38544217e-09  1.80000000e+00  4.38544217e-09 -6.25875081e-03  4.38544217e-09  6.27887370e-01                                 
 5.85165717e-09  6.75775263e-01  5.85165717e-09  6.24496733e-01  5.85165717e-09  1.82424881e+00  5.85165717e-09  1.80000000e+00  5.85165717e-09  6.20625817e-03  5.85165717e-09  6.24496733e-01                                 
 8.13528844e-09  6.70718982e-01  8.13528844e-09  6.19895680e-01  8.13528844e-09  1.81872707e+00  8.13528844e-09  1.80000000e+00  8.13528844e-09 -6.12994935e-03  8.13528844e-09  6.19895680e-01                                 
 1.27025510e-08  6.62583121e-01  1.27025510e-08  6.12370809e-01  1.27025510e-08  1.80949794e+00  1.27025510e-08  1.80000000e+00  1.27025510e-08  6.13370644e-03  1.27025510e-08  6.12370809e-01                                 
 1.49558916e-08  6.59281477e-01  1.49558916e-08  6.09277598e-01  1.49558916e-08  1.80511926e+00  1.49558916e-08  1.80000000e+00  1.49558916e-08 -6.05838990e-03  1.49558916e-08  6.09277598e-01                                 
 1.62415997e-08  6.57538448e-01  1.62415997e-08  6.07639118e-01  1.62415997e-08  1.80325301e+00  1.62415997e-08  1.80000000e+00  1.62415997e-08  5.99397004e-03  1.62415997e-08  6.07639118e-01                                 
 1.79925326e-08  6.55296462e-01  1.79925326e-08  6.05527933e-01  1.79925326e-08  1.80008495e+00  1.79925326e-08  1.80000000e+00  1.79925326e-08 -5.90832302e-03  1.79925326e-08  6.05527933e-01                                 
 1.98821711e-08  6.53022872e-01  1.98821711e-08  6.03384061e-01  1.98821711e-08  1.79728549e+00  1.98821711e-08  1.80000000e+00  1.98821711e-08  5.87191003e-03  1.98821711e-08  6.03384061e-01                                 
 2.27777790e-08  6.49778711e-01  2.27777790e-08  6.00322785e-01  2.27777790e-08  1.79219289e+00  2.27777790e-08  1.80000000e+00  2.27777790e-08 -5.81326906e-03  2.27777790e-08  6.00322785e-01                                 
 2.58638426e-08  6.46585148e-01  2.58638426e-08  5.97309412e-01  2.58638426e-08  1.78693490e+00  2.58638426e-08  1.80000000e+00  2.58638426e-08  5.79918758e-03  2.58638426e-08  5.97309412e-01                                 
 3.12810061e-08  6.41480999e-01  3.12810061e-08  5.92500182e-01  3.12810061e-08  1.77575817e+00  3.12810061e-08  1.80000000e+00  3.12810061e-08 -5.75884709e-03  3.12810061e-08  5.92500182e-01                                 
 3.71365114e-08  6.36527752e-01  3.71365114e-08  5.87847122e-01  3.71365114e-08  1.76227852e+00  3.71365114e-08  1.80000000e+00  3.71365114e-08  5.76101621e-03  3.71365114e-08  5.87847122e-01                                 
 4.88475221e-08  6.27857161e-01  4.88475221e-08  5.79744180e-01  4.88475221e-08  1.73736353e+00  4.88475221e-08  1.80000000e+00  4.88475221e-08 -5.73127253e-03  4.88475221e-08  5.79744180e-01                                 
 6.96194708e-08  6.15562615e-01  6.96194708e-08  5.68311743e-01  6.96194708e-08  1.69551841e+00  6.96194708e-08  1.80000000e+00  6.96194708e-08  5.74731730e-03  6.96194708e-08  5.68311743e-01                                 
 9.14001812e-08  6.07791381e-01  9.14001812e-08  5.60808027e-01  9.14001812e-08  1.66202389e+00  9.14001812e-08  1.80000000e+00  9.14001812e-08 -5.72030837e-03  9.14001812e-08  5.60808027e-01                                 
 1.18024926e-07  6.10234292e-01  1.18024926e-07  5.61401147e-01  1.18024926e-07  1.66159300e+00  1.18024926e-07  1.80000000e+00  1.18024926e-07  5.74112023e-03  1.18024926e-07  5.61401147e-01                                 
 1.36507216e-07  6.10030175e-01  1.36507216e-07  5.60460806e-01  1.36507216e-07  1.64349883e+00  1.36507216e-07  1.80000000e+00  1.36507216e-07 -5.71206613e-03  1.36507216e-07  5.60460806e-01                                 
 1.54545312e-07  6.05134222e-01  1.54545312e-07  5.55920506e-01  1.54545312e-07  1.62047531e+00  1.54545312e-07  1.80000000e+00  1.54545312e-07  5.72884908e-03  1.54545312e-07  5.55920506e-01                                 
 1.71031723e-07  6.01391779e-01  1.71031723e-07  5.52407343e-01  1.71031723e-07  1.59859989e+00  1.71031723e-07  1.80000000e+00  1.71031723e-07 -5.69997573e-03  1.71031723e-07  5.52407343e-01                                 
 1.88860576e-07  5.96241302e-01  1.88860576e-07  5.47787726e-01  1.88860576e-07  1.57820148e+00  1.88860576e-07  1.80000000e+00  1.88860576e-07  5.71674282e-03  1.88860576e-07  5.47787726e-01                                 
 2.19219142e-07  5.87194888e-01  2.19219142e-07  5.39809242e-01  2.19219142e-07  1.53751171e+00  2.19219142e-07  1.80000000e+00  2.19219142e-07 -5.69087480e-03  2.19219142e-07  5.39809242e-01                                 
 2.62053134e-07  5.75278790e-01  2.62053134e-07  5.29417385e-01  2.62053134e-07  1.48513600e+00  2.62053134e-07  1.80000000e+00  2.62053134e-07  5.71107493e-03  2.62053134e-07  5.29417385e-01                                 
 3.40884418e-07  5.53198973e-01  3.40884418e-07  5.10631179e-01  3.40884418e-07  1.38228072e+00  3.40884418e-07  1.80000000e+00  3.40884418e-07 -5.68721427e-03  3.40884418e-07  5.10631179e-01                                 
 4.98546986e-07  4.95893277e-01  4.98546986e-07  4.63807980e-01  4.98546986e-07  1.16831578e+00  4.98546986e-07  1.80000000e+00  4.98546986e-07  5.70897523e-03  4.98546986e-07  4.63807980e-01                                 
 5.37962628e-07  4.77854971e-01  5.37962628e-07  4.49360622e-01  5.37962628e-07  1.10841177e+00  5.37962628e-07  1.80000000e+00  5.37962628e-07 -2.51900218e-07  5.37962628e-07  4.49360622e-01                                 
 6.16793912e-07  6.92919499e-01  6.16793912e-07  6.35693043e-01  6.16793912e-07  1.23351262e+00  6.16793912e-07  1.80000000e+00  6.16793912e-07  8.48227406e-06  6.16793912e-07  6.35693043e-01                                 
 6.26301644e-07  7.24738039e-01  6.26301644e-07  6.68292177e-01  6.26301644e-07  1.25489917e+00  6.26301644e-07  1.80000000e+00  6.26301644e-07  6.39857526e-06  6.26301644e-07  6.68292177e-01                                 
 6.45317109e-07  7.58669802e-01  6.45317109e-07  7.03003335e-01  6.45317109e-07  1.26867285e+00  6.45317109e-07  1.80000000e+00  6.45317109e-07  5.31441527e-07  6.45317109e-07  7.03003335e-01                                 
 6.83348037e-07  7.90268693e-01  6.83348037e-07  7.32516196e-01  6.83348037e-07  1.25908439e+00  6.83348037e-07  1.80000000e+00  6.83348037e-07  2.34767586e-06  6.83348037e-07  7.32516196e-01                                 
 7.26513087e-07  7.99867837e-01  7.26513087e-07  7.41044325e-01  7.26513087e-07  1.22460310e+00  7.26513087e-07  1.80000000e+00  7.26513087e-07 -1.89638718e-06  7.26513087e-07  7.41044325e-01                                 
 7.83735386e-07  8.03721427e-01  7.83735386e-07  7.44340181e-01  7.83735386e-07  1.16838382e+00  7.83735386e-07  1.80000000e+00  7.83735386e-07  1.66949851e-06  7.83735386e-07  7.44340181e-01                                 
 8.46218791e-07  8.06842624e-01  8.46218791e-07  7.47022091e-01  8.46218791e-07  1.10722104e+00  8.46218791e-07  1.80000000e+00  8.46218791e-07 -1.91812534e-06  8.46218791e-07  7.47022091e-01                                 
 9.26869218e-07  7.97320137e-01  9.26869218e-07  7.38814383e-01  9.26869218e-07  1.01407447e+00  9.26869218e-07  1.80000000e+00  9.26869218e-07  1.00083100e-06  9.26869218e-07  7.38814383e-01                                 
 9.37687457e-07  7.93969577e-01  9.37687457e-07  7.35875716e-01  9.37687457e-07  1.00060012e+00  9.37687457e-07  1.80000000e+00  9.37687457e-07 -7.70468536e-07  9.37687457e-07  7.35875716e-01                                 
 9.59323934e-07  7.88764043e-01  9.59323934e-07  7.31217671e-01  9.59323934e-07  9.75247877e-01  9.59323934e-07  1.80000000e+00  9.59323934e-07 -4.99777727e-07  9.59323934e-07  7.31217671e-01                                 
 1.00259689e-06  7.90166548e-01  1.00259689e-06  7.32454871e-01  1.00259689e-06  9.39393934e-01  1.00259689e-06  1.80000000e+00  1.00259689e-06  4.07936613e-07  1.00259689e-06  7.32454871e-01                                 
 1.08261487e-06  7.97790980e-01  1.08261487e-06  7.39224529e-01  1.08261487e-06  8.87340311e-01  1.08261487e-06  1.80000000e+00  1.08261487e-06 -1.15473073e-07  1.08261487e-06  7.39224529e-01                                 
 1.15818257e-06  7.92769746e-01  1.15818257e-06  7.34799893e-01  1.15818257e-06  8.34971368e-01  1.15818257e-06  1.80000000e+00  1.15818257e-06 -9.23186042e-08  1.15818257e-06  7.34799893e-01                                 
 1.28832485e-06  7.92378980e-01  1.28832485e-06  7.34439449e-01  1.28832485e-06  7.74704849e-01  1.28832485e-06  1.80000000e+00  1.28832485e-06  3.00349413e-07  1.28832485e-06  7.34439449e-01                                 
 1.41704271e-06  7.96167722e-01  1.41704271e-06  7.37802152e-01  1.41704271e-06  7.47254247e-01  1.41704271e-06  1.80000000e+00  1.41704271e-06  2.10439276e-07  1.41704271e-06  7.37802152e-01                                 
 1.44613906e-06  7.94414628e-01  1.44613906e-06  7.36256224e-01  1.44613906e-06  7.42017266e-01  1.44613906e-06  1.80000000e+00  1.44613906e-06  1.29762952e-07  1.44613906e-06  7.36256224e-01                                 
 1.50433175e-06  7.92499162e-01  1.50433175e-06  7.34552854e-01  1.50433175e-06  7.33908663e-01  1.50433175e-06  1.80000000e+00  1.50433175e-06  2.41958611e-07  1.50433175e-06  7.34552854e-01                                 
 1.62071714e-06  7.94267387e-01  1.62071714e-06  7.36120522e-01  1.62071714e-06  7.27315235e-01  1.62071714e-06  1.80000000e+00  1.62071714e-06  3.35169635e-07  1.62071714e-06  7.36120522e-01                                 
 1.75021762e-06  7.93938627e-01  1.75021762e-06  7.35833496e-01  1.75021762e-06  7.32677630e-01  1.75021762e-06  1.80000000e+00  1.75021762e-06  2.55799344e-07  1.75021762e-06  7.35833496e-01                                 
 1.89541623e-06  7.93073473e-01  1.89541623e-06  7.35061890e-01  1.89541623e-06  7.38531793e-01  1.89541623e-06  1.80000000e+00  1.89541623e-06  3.17955138e-07  1.89541623e-06  7.35061890e-01                                 
 2.05934312e-06  7.94522843e-01  2.05934312e-06  7.36349057e-01  2.05934312e-06  7.34293686e-01  2.05934312e-06  1.80000000e+00  2.05934312e-06  2.58948360e-07  2.05934312e-06  7.36349057e-01                                 
 2.22766169e-06  7.93060627e-01  2.22766169e-06  7.35052486e-01  2.22766169e-06  7.35399370e-01  2.22766169e-06  1.80000000e+00  2.22766169e-06  2.87735602e-07  2.22766169e-06  7.35052486e-01                                 
 2.41346404e-06  7.94145143e-01  2.41346404e-06  7.36013138e-01  2.41346404e-06  7.36551530e-01  2.41346404e-06  1.80000000e+00  2.41346404e-06  3.00248310e-07  2.41346404e-06  7.36013138e-01                                 
 2.70808936e-06  7.93524974e-01  2.70808936e-06  7.35465761e-01  2.70808936e-06  7.35036979e-01  2.70808936e-06  1.80000000e+00  2.70808936e-06  2.58136952e-07  2.70808936e-06  7.35465761e-01                                 
 3.08153987e-06  7.93790559e-01  3.08153987e-06  7.35698609e-01  3.08153987e-06  7.36302785e-01  3.08153987e-06  1.80000000e+00  3.08153987e-06  3.13175413e-07  3.08153987e-06  7.35698609e-01                                 
 3.62641918e-06  7.93786619e-01  3.62641918e-06  7.35697924e-01  3.62641918e-06  7.35336266e-01  3.62641918e-06  1.80000000e+00  3.62641918e-06  2.53410781e-07  3.62641918e-06  7.35697924e-01                                 
 4.35003014e-06  7.93615454e-01  4.35003014e-06  7.35543332e-01  4.35003014e-06  7.36058788e-01  4.35003014e-06  1.80000000e+00  4.35003014e-06  3.13724193e-07  4.35003014e-06  7.35543332e-01                                 
 5.35003014e-06  7.93907525e-01  5.35003014e-06  7.35805042e-01  5.35003014e-06  7.35511348e-01  5.35003014e-06  1.80000000e+00  5.35003014e-06  2.54415108e-07  5.35003014e-06  7.35805042e-01                                 
 6.35003014e-06  7.93520773e-01  6.35003014e-06  7.35459399e-01  6.35003014e-06  7.35910306e-01  6.35003014e-06  1.80000000e+00  6.35003014e-06  3.11943703e-07  6.35003014e-06  7.35459399e-01                                 
 7.35003014e-06  7.93994466e-01  7.35003014e-06  7.35881987e-01  7.35003014e-06  7.35647740e-01  7.35003014e-06  1.80000000e+00  7.35003014e-06  2.56928576e-07  7.35003014e-06  7.35881987e-01                                 
 8.35003014e-06  7.93440446e-01  8.35003014e-06  7.35388223e-01  8.35003014e-06  7.35780088e-01  8.35003014e-06  1.80000000e+00  8.35003014e-06  3.08752735e-07  8.35003014e-06  7.35388223e-01                                 
 9.35003014e-06  7.94066025e-01  9.35003014e-06  7.35945252e-01  9.35003014e-06  7.35764263e-01  9.35003014e-06  1.80000000e+00  9.35003014e-06  2.60737232e-07  9.35003014e-06  7.35945252e-01                                 
 1.00005000e-05  7.93362055e-01  1.00005000e-05  7.35318824e-01  1.00005000e-05  7.35646321e-01  1.00005000e-05  1.80000000e+00  1.00005000e-05  3.03056442e-07  1.00005000e-05  7.35318824e-01                                 
 1.00005500e-05  7.93362950e-01  1.00005500e-05  7.35319634e-01  1.00005500e-05  7.28632070e-01  1.00005500e-05  1.62000000e+00  1.00005500e-05 -1.12969632e-04  1.00005500e-05  7.35319634e-01                                 
 1.00006500e-05  7.93364796e-01  1.00006500e-05  7.35321268e-01  1.00006500e-05  7.18518132e-01  1.00006500e-05  1.26000000e+00  1.00006500e-05 -6.06937564e-05  1.00006500e-05  7.35321268e-01                                 
 1.00008500e-05  7.93368480e-01  1.00008500e-05  7.35324521e-01  1.00008500e-05  7.16263637e-01  1.00008500e-05  5.40000000e-01  1.00008500e-05 -1.81374631e-03  1.00008500e-05  7.35324521e-01                                 
 1.00010000e-05  7.93371169e-01  1.00010000e-05  7.35326917e-01  1.00010000e-05  7.26012912e-01  1.00010000e-05  0.00000000e+00  1.00010000e-05  1.50361213e+00  1.00010000e-05  7.35326917e-01                                 
 1.00010263e-05  7.93371621e-01  1.00010263e-05  7.35327322e-01  1.00010263e-05  7.24094382e-01  1.00010263e-05  0.00000000e+00  1.00010263e-05  1.68804301e+00  1.00010263e-05  7.35327322e-01                                 
 1.00010788e-05  7.93372503e-01  1.00010788e-05  7.35328120e-01  1.00010788e-05  7.13103559e-01  1.00010788e-05  0.00000000e+00  1.00010788e-05  1.82254988e+00  1.00010788e-05  7.35328120e-01                                 
 1.00011838e-05  7.93374333e-01  1.00011838e-05  7.35329733e-01  1.00011838e-05  6.93314057e-01  1.00011838e-05  0.00000000e+00  1.00011838e-05  1.78683764e+00  1.00011838e-05  7.35329733e-01                                 
 1.00013454e-05  7.93377186e-01  1.00013454e-05  7.35332254e-01  1.00013454e-05  6.91694042e-01  1.00013454e-05  0.00000000e+00  1.00013454e-05  1.80840841e+00  1.00013454e-05  7.35332254e-01                                 
 1.00015742e-05  7.93381128e-01  1.00015742e-05  7.35335771e-01  1.00015742e-05  6.90946777e-01  1.00015742e-05  0.00000000e+00  1.00015742e-05  1.79356381e+00  1.00015742e-05  7.35335771e-01                                 
