 time            v(vbep)         time            v(vben)         time            v(vout)         time            v(vphi1)        time            v(vphi2)        time            v(vref)         time            v(voutc)        time            v(voutcc)       yes             currtemp       
 0.00000000e+00  8.39774613e-01  0.00000000e+00  7.90857392e-01  0.00000000e+00  1.73311103e+00  0.00000000e+00  0.00000000e+00  0.00000000e+00  1.80000000e+00  0.00000000e+00  7.94746803e-01  0.00000000e+00  1.73311102e+00  0.00000000e+00  1.73797372e+00  1.00000000e+00 -1.80000000e+01 
 1.00000000e-11  8.39796168e-01  1.00000000e-11  7.90923197e-01  1.00000000e-11  1.73393889e+00  1.00000000e-11  1.80000000e-02  1.00000000e-11  1.80024297e+00  1.00000000e-11  7.95261886e-01  1.00000000e-11  1.73356848e+00  1.00000000e-11  1.73798708e+00                                 
 2.00000000e-11  8.39802246e-01  2.00000000e-11  7.90964785e-01  2.00000000e-11  1.73450460e+00  2.00000000e-11  3.60000000e-02  2.00000000e-11  1.80034549e+00  2.00000000e-11  7.95652348e-01  2.00000000e-11  1.73392875e+00  2.00000000e-11  1.73799341e+00                                 
 4.00000000e-11  8.39802262e-01  4.00000000e-11  7.91019306e-01  4.00000000e-11  1.73526890e+00  4.00000000e-11  7.20000000e-02  4.00000000e-11  1.80039494e+00  4.00000000e-11  7.96232203e-01  4.00000000e-11  1.73448854e+00  4.00000000e-11  1.73799777e+00                                 
 8.00000000e-11  8.39791360e-01  8.00000000e-11  7.91051462e-01  8.00000000e-11  1.73566612e+00  8.00000000e-11  1.44000000e-01  8.00000000e-11  1.80020607e+00  8.00000000e-11  7.96703997e-01  8.00000000e-11  1.73503287e+00  8.00000000e-11  1.73798853e+00                                 
 1.60000000e-10  8.39787986e-01  1.60000000e-10  7.91050608e-01  1.60000000e-10  1.73547863e+00  1.60000000e-10  2.88000000e-01  1.60000000e-10  1.80001703e+00  1.60000000e-10  7.96777674e-01  1.60000000e-10  1.73527257e+00  1.60000000e-10  1.73797531e+00                                 
 3.20000000e-10  8.39785692e-01  3.20000000e-10  7.91048310e-01  3.20000000e-10  1.73519169e+00  3.20000000e-10  5.76000000e-01  3.20000000e-10  1.80002361e+00  3.20000000e-10  7.96743988e-01  3.20000000e-10  1.73529173e+00  3.20000000e-10  1.73797291e+00                                 
 6.40000000e-10  8.39716474e-01  6.40000000e-10  7.90851090e-01  6.40000000e-10  1.72805404e+00  6.40000000e-10  1.15200000e+00  6.40000000e-10  1.81355443e+00  6.40000000e-10  7.96402788e-01  6.40000000e-10  1.73966025e+00  6.40000000e-10  1.73799994e+00                                 
 9.94957280e-10  8.40100801e-01  9.94957280e-10  7.90856630e-01  9.94957280e-10  1.69670004e+00  9.94957280e-10  1.79092310e+00  9.94957280e-10  7.41118376e-02  9.94957280e-10  7.96439950e-01  9.94957280e-10  1.72744361e+00  9.94957280e-10  1.73787269e+00                                 
 1.00000000e-09  8.40117232e-01  1.00000000e-09  7.90887471e-01  1.00000000e-09  1.69638890e+00  1.00000000e-09  1.80000000e+00  1.00000000e-09  4.12487180e-02  1.00000000e-09  7.96851684e-01  1.00000000e-09  1.72734378e+00  1.00000000e-09  1.73788460e+00                                 
 1.01008544e-09  8.40100379e-01  1.01008544e-09  7.90902055e-01  1.01008544e-09  1.69635345e+00  1.01008544e-09  1.80000000e+00  1.01008544e-09  1.94094967e-02  1.01008544e-09  7.97754022e-01  1.01008544e-09  1.72785147e+00  1.01008544e-09  1.73791957e+00                                 
 1.03025632e-09  8.40100829e-01  1.03025632e-09  7.90957790e-01  1.03025632e-09  1.69665773e+00  1.03025632e-09  1.80000000e+00  1.03025632e-09 -7.11815638e-05  1.03025632e-09  7.99428773e-01  1.03025632e-09  1.72908781e+00  1.03025632e-09  1.73797563e+00                                 
 1.07059808e-09  8.40197715e-01  1.07059808e-09  7.91000453e-01  1.07059808e-09  1.69629549e+00  1.07059808e-09  1.80000000e+00  1.07059808e-09  1.67692368e-03  1.07059808e-09  8.00830863e-01  1.07059808e-09  1.73038471e+00  1.07059808e-09  1.73798522e+00                                 
 1.15128159e-09  8.40378102e-01  1.15128159e-09  7.90916330e-01  1.15128159e-09  1.69225794e+00  1.15128159e-09  1.80000000e+00  1.15128159e-09 -5.64668067e-05  1.15128159e-09  8.00915667e-01  1.15128159e-09  1.73043947e+00  1.15128159e-09  1.73795465e+00                                 
 1.31264862e-09  8.40550758e-01  1.31264862e-09  7.90870659e-01  1.31264862e-09  1.68546153e+00  1.31264862e-09  1.80000000e+00  1.31264862e-09  6.76828361e-04  1.31264862e-09  8.01664895e-01  1.31264862e-09  1.73107370e+00  1.31264862e-09  1.73798058e+00                                 
 1.52822843e-09  8.40547281e-01  1.52822843e-09  7.90854360e-01  1.52822843e-09  1.68257442e+00  1.52822843e-09  1.80000000e+00  1.52822843e-09 -4.06259872e-04  1.52822843e-09  8.01742566e-01  1.52822843e-09  1.73112055e+00  1.52822843e-09  1.73796971e+00                                 
 1.79052069e-09  8.40385354e-01  1.79052069e-09  7.90849674e-01  1.79052069e-09  1.68413538e+00  1.79052069e-09  1.80000000e+00  1.79052069e-09  3.48875340e-04  1.79052069e-09  8.01500201e-01  1.79052069e-09  1.73092550e+00  1.79052069e-09  1.73798245e+00                                 
 2.04477673e-09  8.40222918e-01  2.04477673e-09  7.90846349e-01  2.04477673e-09  1.68635941e+00  2.04477673e-09  1.80000000e+00  2.04477673e-09 -3.68514628e-04  2.04477673e-09  8.01119517e-01  2.04477673e-09  1.73059281e+00  2.04477673e-09  1.73797597e+00                                 
 2.44033749e-09  8.40002683e-01  2.44033749e-09  7.90845492e-01  2.44033749e-09  1.68989962e+00  2.44033749e-09  1.80000000e+00  2.44033749e-09  2.79687908e-04  2.44033749e-09  8.00624881e-01  2.44033749e-09  1.73018455e+00  2.44033749e-09  1.73798281e+00                                 
 3.12854767e-09  8.39775689e-01  3.12854767e-09  7.90840344e-01  3.12854767e-09  1.69498796e+00  3.12854767e-09  1.80000000e+00  3.12854767e-09 -3.29179698e-04  3.12854767e-09  7.99707338e-01  3.12854767e-09  1.72939998e+00  3.12854767e-09  1.73797358e+00                                 
 4.50496804e-09  8.39628579e-01  4.50496804e-09  7.90841285e-01  4.50496804e-09  1.70255417e+00  4.50496804e-09  1.80000000e+00  4.50496804e-09  2.65230362e-04  4.50496804e-09  7.98229310e-01  4.50496804e-09  1.72816075e+00  4.50496804e-09  1.73795593e+00                                 
 7.25780878e-09  8.39686929e-01  7.25780878e-09  7.90845484e-01  7.25780878e-09  1.70979151e+00  7.25780878e-09  1.80000000e+00  7.25780878e-09 -3.10957028e-04  7.25780878e-09  7.96135630e-01  7.25780878e-09  1.72638337e+00  7.25780878e-09  1.73784746e+00                                 
 1.03662088e-08  8.39735430e-01  1.03662088e-08  7.90854455e-01  1.03662088e-08  1.71123590e+00  1.03662088e-08  1.80000000e+00  1.03662088e-08  2.69571214e-04  1.03662088e-08  7.95021217e-01  1.03662088e-08  1.72544941e+00  1.03662088e-08  1.73766353e+00                                 
 1.32673733e-08  8.39748688e-01  1.32673733e-08  7.90854751e-01  1.32673733e-08  1.71014439e+00  1.32673733e-08  1.80000000e+00  1.32673733e-08 -2.97541914e-04  1.32673733e-08  7.94513072e-01  1.32673733e-08  1.72500741e+00  1.32673733e-08  1.73744067e+00                                 
 1.61021361e-08  8.39746155e-01  1.61021361e-08  7.90858088e-01  1.61021361e-08  1.70919200e+00  1.61021361e-08  1.80000000e+00  1.61021361e-08  2.71975530e-04  1.61021361e-08  7.94353688e-01  1.61021361e-08  1.72487547e+00  1.61021361e-08  1.73721621e+00                                 
 2.00792890e-08  8.39748582e-01  2.00792890e-08  7.90856235e-01  2.00792890e-08  1.70827244e+00  2.00792890e-08  1.80000000e+00  2.00792890e-08 -2.82585680e-04  2.00792890e-08  7.94226644e-01  2.00792890e-08  1.72474820e+00  2.00792890e-08  1.73688527e+00                                 
 2.52498096e-08  8.39760361e-01  2.52498096e-08  7.90858623e-01  2.52498096e-08  1.70546491e+00  2.52498096e-08  1.80000000e+00  2.52498096e-08  2.75306265e-04  2.52498096e-08  7.94269226e-01  2.52498096e-08  1.72477607e+00  2.52498096e-08  1.73647714e+00                                 
 3.27828224e-08  8.39775978e-01  3.27828224e-08  7.90856343e-01  3.27828224e-08  1.69802398e+00  3.27828224e-08  1.80000000e+00  3.27828224e-08 -2.77072808e-04  3.27828224e-08  7.94293964e-01  3.27828224e-08  1.72476432e+00  3.27828224e-08  1.73590886e+00                                 
 4.35754383e-08  8.39774970e-01  4.35754383e-08  7.90858673e-01  4.35754383e-08  1.68520143e+00  4.35754383e-08  1.80000000e+00  4.35754383e-08  2.74312598e-04  4.35754383e-08  7.94419336e-01  4.35754383e-08  1.72484916e+00  4.35754383e-08  1.73518543e+00                                 
 6.00922707e-08  8.39778272e-01  6.00922707e-08  7.90856301e-01  6.00922707e-08  1.66401207e+00  6.00922707e-08  1.80000000e+00  6.00922707e-08 -2.75913143e-04  6.00922707e-08  7.94484492e-01  6.00922707e-08  1.72486070e+00  6.00922707e-08  1.73422757e+00                                 
 8.69511935e-08  8.39773359e-01  8.69511935e-08  7.90858595e-01  8.69511935e-08  1.62739626e+00  8.69511935e-08  1.80000000e+00  8.69511935e-08  2.73778866e-04  8.69511935e-08  7.94628540e-01  8.69511935e-08  1.72495246e+00  8.69511935e-08  1.73302385e+00                                 
 1.40669039e-07  8.39776991e-01  1.40669039e-07  7.90856235e-01  1.40669039e-07  1.55028913e+00  1.40669039e-07  1.80000000e+00  1.40669039e-07 -2.75591315e-04  1.40669039e-07  7.94689917e-01  1.40669039e-07  1.72495406e+00  1.40669039e-07  1.73148104e+00                                 
 2.48104730e-07  8.39772509e-01  2.48104730e-07  7.90858560e-01  2.48104730e-07  1.39511797e+00  2.48104730e-07  1.80000000e+00  2.48104730e-07  2.73705726e-04  2.48104730e-07  7.94767451e-01  2.48104730e-07  1.72499694e+00  2.48104730e-07  1.73022280e+00                                 
 4.58108186e-07  8.39776722e-01  4.58108186e-07  7.90856227e-01  4.58108186e-07  1.09993239e+00  4.58108186e-07  1.80000000e+00  4.58108186e-07 -2.75335475e-04  4.58108186e-07  7.94727415e-01  4.58108186e-07  1.72493771e+00  4.58108186e-07  1.72980599e+00                                 
 7.38686686e-07  8.39772519e-01  7.38686686e-07  7.90858556e-01  7.38686686e-07  8.29205249e-01  7.38686686e-07  1.80000000e+00  7.38686686e-07  2.74104713e-04  7.38686686e-07  7.94765377e-01  7.38686686e-07  1.72496683e+00  7.38686686e-07  1.72985471e+00                                 
 1.02233839e-06  8.39776709e-01  1.02233839e-06  7.90856229e-01  1.02233839e-06  7.86470932e-01  1.02233839e-06  1.80000000e+00  1.02233839e-06 -2.74128471e-04  1.02233839e-06  7.94729079e-01  1.02233839e-06  1.72491504e+00  1.02233839e-06  1.72982457e+00                                 
 1.18894036e-06  8.39772456e-01  1.18894036e-06  7.90858547e-01  1.18894036e-06  8.02451627e-01  1.18894036e-06  1.80000000e+00  1.18894036e-06  2.74263939e-04  1.18894036e-06  7.94764289e-01  1.18894036e-06  1.72494618e+00  1.18894036e-06  1.72982406e+00                                 
 1.30317707e-06  8.39776833e-01  1.30317707e-06  7.90856246e-01  1.30317707e-06  7.98357352e-01  1.30317707e-06  1.80000000e+00  1.30317707e-06 -2.74134733e-04  1.30317707e-06  7.94729118e-01  1.30317707e-06  1.72490296e+00  1.30317707e-06  1.72981469e+00                                 
 1.40693798e-06  8.39772376e-01  1.40693798e-06  7.90858533e-01  1.40693798e-06  7.98703939e-01  1.40693798e-06  1.80000000e+00  1.40693798e-06  2.74315315e-04  1.40693798e-06  7.94764627e-01  1.40693798e-06  1.72493705e+00  1.40693798e-06  1.72981480e+00                                 
 1.50203628e-06  8.39776854e-01  1.50203628e-06  7.90856261e-01  1.50203628e-06  7.98668275e-01  1.50203628e-06  1.80000000e+00  1.50203628e-06 -2.75099284e-04  1.50203628e-06  7.94728950e-01  1.50203628e-06  1.72489420e+00  1.50203628e-06  1.72980619e+00                                 
 1.66695092e-06  8.39772375e-01  1.66695092e-06  7.90858526e-01  1.66695092e-06  7.98723157e-01  1.66695092e-06  1.80000000e+00  1.66695092e-06  2.74461288e-04  1.66695092e-06  7.94764707e-01  1.66695092e-06  1.72492588e+00  1.66695092e-06  1.72980356e+00                                 
 1.99678018e-06  8.39776851e-01  1.99678018e-06  7.90856262e-01  1.99678018e-06  7.98696866e-01  1.99678018e-06  1.80000000e+00  1.99678018e-06 -2.73911585e-04  1.99678018e-06  7.94728914e-01  1.99678018e-06  1.72487280e+00  1.99678018e-06  1.72978489e+00                                 
 2.57663247e-06  8.39772376e-01  2.57663247e-06  7.90858524e-01  2.57663247e-06  7.98717668e-01  2.57663247e-06  1.80000000e+00  2.57663247e-06  2.74431557e-04  2.57663247e-06  7.94764719e-01  2.57663247e-06  1.72488654e+00  2.57663247e-06  1.72976436e+00                                 
 3.73633705e-06  8.39776850e-01  3.73633705e-06  7.90856263e-01  3.73633705e-06  7.98698906e-01  3.73633705e-06  1.80000000e+00  3.73633705e-06 -2.73891722e-04  3.73633705e-06  7.94728908e-01  3.73633705e-06  1.72479755e+00  3.73633705e-06  1.72970988e+00                                 
 4.93633705e-06  8.39772377e-01  4.93633705e-06  7.90858521e-01  4.93633705e-06  7.98717192e-01  4.93633705e-06  1.80000000e+00  4.93633705e-06  2.74172432e-04  4.93633705e-06  7.94764712e-01  4.93633705e-06  1.72478448e+00  4.93633705e-06  1.72966263e+00                                 
 6.00100000e-06  8.39776849e-01  6.00100000e-06  7.90856266e-01  6.00100000e-06  7.98699514e-01  6.00100000e-06  1.80000000e+00  6.00100000e-06 -2.74958681e-04  6.00100000e-06  7.94728915e-01  6.00100000e-06  1.72469965e+00  6.00100000e-06  1.72961228e+00                                 
 6.00110000e-06  8.39744132e-01  6.00110000e-06  7.90638448e-01  6.00110000e-06  7.96642920e-01  6.00110000e-06  1.62000000e+00  6.00110000e-06 -1.12873069e-04  6.00110000e-06  7.92866582e-01  6.00110000e-06  1.72313043e+00  6.00110000e-06  1.72959885e+00                                 
 6.00130000e-06  8.39772573e-01  6.00130000e-06  7.90702882e-01  6.00130000e-06  7.97412397e-01  6.00130000e-06  1.26000000e+00  6.00130000e-06  6.39948140e-05  6.00130000e-06  7.93226340e-01  6.00130000e-06  1.72343774e+00  6.00130000e-06  1.72962357e+00                                 
 6.00170000e-06  8.39800299e-01  6.00170000e-06  7.90738875e-01  6.00170000e-06  7.98610457e-01  6.00170000e-06  5.40000000e-01  6.00170000e-06  2.49310241e-02  6.00170000e-06  7.92311344e-01  6.00170000e-06  1.71669665e+00  6.00170000e-06  1.72956938e+00                                 
 6.00200000e-06  8.39770400e-01  6.00200000e-06  7.88458356e-01  6.00200000e-06  8.47974222e-01  6.00200000e-06  0.00000000e+00  6.00200000e-06  1.58983927e+00  6.00200000e-06  7.63129040e-01  6.00200000e-06  1.51252309e+00  6.00200000e-06  1.72868909e+00                                 
 6.00205092e-06  8.39777265e-01  6.00205092e-06  7.88440810e-01  6.00205092e-06  8.45864440e-01  6.00205092e-06  0.00000000e+00  6.00205092e-06  1.73201106e+00  6.00205092e-06  7.62605424e-01  6.00205092e-06  1.45382268e+00  6.00205092e-06  1.72897313e+00                                 
 6.00215277e-06  8.39773442e-01  6.00215277e-06  7.88605606e-01  6.00215277e-06  8.36371127e-01  6.00215277e-06  0.00000000e+00  6.00215277e-06  1.81972504e+00  6.00215277e-06  7.64466257e-01  6.00215277e-06  1.34231510e+00  6.00215277e-06  1.72949436e+00                                 
 6.00230663e-06  8.39773314e-01  6.00230663e-06  7.89272516e-01  6.00230663e-06  8.23460270e-01  6.00230663e-06  0.00000000e+00  6.00230663e-06  1.78752506e+00  6.00230663e-06  7.72586295e-01  6.00230663e-06  1.22015794e+00  6.00230663e-06  1.72964494e+00                                 
 6.00247532e-06  8.39774332e-01  6.00247532e-06  7.89595362e-01  6.00247532e-06  8.19965957e-01  6.00247532e-06  0.00000000e+00  6.00247532e-06  1.80589619e+00  6.00247532e-06  7.76192980e-01  6.00247532e-06  1.13115907e+00  6.00247532e-06  1.72971580e+00                                 
 6.00271534e-06  8.39772690e-01  6.00271534e-06  7.89921771e-01  6.00271534e-06  8.14198650e-01  6.00271534e-06  0.00000000e+00  6.00271534e-06  1.79540861e+00  6.00271534e-06  7.79505667e-01  6.00271534e-06  1.03701332e+00  6.00271534e-06  1.72979199e+00                                 
 6.00297061e-06  8.39774698e-01  6.00297061e-06  7.90251596e-01  6.00297061e-06  8.12015223e-01  6.00297061e-06  0.00000000e+00  6.00297061e-06  1.80273176e+00  6.00297061e-06  7.82873472e-01  6.00297061e-06  9.62028166e-01  6.00297061e-06  1.72987948e+00                                 
 6.00348113e-06  8.39773014e-01  6.00348113e-06  7.90683180e-01  6.00348113e-06  8.06503788e-01  6.00348113e-06  0.00000000e+00  6.00348113e-06  1.79724574e+00  6.00348113e-06  7.87045926e-01  6.00348113e-06  8.53722228e-01  6.00348113e-06  1.72992196e+00                                 
 6.00406510e-06  8.39775262e-01  6.00406510e-06  7.91226692e-01  6.00406510e-06  8.00490812e-01  6.00406510e-06  0.00000000e+00  6.00406510e-06  1.80212644e+00  6.00406510e-06  7.93331740e-01  6.00406510e-06  8.07181237e-01  6.00406510e-06  1.72983062e+00                                 
 6.00453752e-06  8.39773402e-01  6.00453752e-06  7.91288868e-01  6.00453752e-06  7.99258737e-01  6.00453752e-06  0.00000000e+00  6.00453752e-06  1.79825979e+00  6.00453752e-06  7.94186473e-01  6.00453752e-06  8.00293274e-01  6.00453752e-06  1.72959174e+00                                 
 6.00512063e-06  8.39775503e-01  6.00512063e-06  7.91327204e-01  6.00512063e-06  7.99035382e-01  6.00512063e-06  0.00000000e+00  6.00512063e-06  1.80148449e+00  6.00512063e-06  7.95328250e-01  6.00512063e-06  7.99502171e-01  6.00512063e-06  1.72919016e+00                                 
 6.00576023e-06  8.39773610e-01  6.00576023e-06  7.91219695e-01  6.00576023e-06  7.99376844e-01  6.00576023e-06  0.00000000e+00  6.00576023e-06  1.79872351e+00  6.00576023e-06  7.94930330e-01  6.00576023e-06  7.99009755e-01  6.00576023e-06  1.72862984e+00                                 
 6.00703945e-06  8.39775586e-01  6.00703945e-06  7.91134779e-01  6.00703945e-06  8.00122367e-01  6.00703945e-06  0.00000000e+00  6.00703945e-06  1.80119021e+00  6.00703945e-06  7.95553723e-01  6.00703945e-06  8.00246909e-01  6.00703945e-06  1.72741310e+00                                 
 6.00959787e-06  8.39773664e-01  6.00959787e-06  7.90955471e-01  6.00959787e-06  8.02102830e-01  6.00959787e-06  0.00000000e+00  6.00959787e-06  1.79885796e+00  6.00959787e-06  7.95164442e-01  6.00959787e-06  8.01646737e-01  6.00959787e-06  1.72478419e+00                                 
 6.01471472e-06  8.39775565e-01  6.01471472e-06  7.90906770e-01  6.01471472e-06  8.06349633e-01  6.01471472e-06  0.00000000e+00  6.01471472e-06  1.80112647e+00  6.01471472e-06  7.95637749e-01  6.01471472e-06  8.06404765e-01  6.01471472e-06  1.71950471e+00                                 
 6.02494842e-06  8.39773660e-01  6.02494842e-06  7.90835028e-01  6.02494842e-06  8.15456780e-01  6.02494842e-06  0.00000000e+00  6.02494842e-06  1.79888937e+00  6.02494842e-06  7.95047044e-01  6.02494842e-06  8.14915907e-01  6.02494842e-06  1.70892167e+00                                 
 6.04281458e-06  8.39775565e-01  6.04281458e-06  7.90870744e-01  6.04281458e-06  8.30829067e-01  6.04281458e-06  0.00000000e+00  6.04281458e-06  1.80111016e+00  6.04281458e-06  7.95339366e-01  6.04281458e-06  8.30901445e-01  6.04281458e-06  1.68952352e+00                                 
 6.07854690e-06  8.39773662e-01  6.07854690e-06  7.90839648e-01  6.07854690e-06  8.59752327e-01  6.07854690e-06  0.00000000e+00  6.07854690e-06  1.79889761e+00  6.07854690e-06  7.94677839e-01  6.07854690e-06  8.58930453e-01  6.07854690e-06  1.64710017e+00                                 
 6.15001153e-06  8.39775564e-01  6.15001153e-06  7.90873819e-01  6.15001153e-06  9.10464138e-01  6.15001153e-06  0.00000000e+00  6.15001153e-06  1.80110493e+00  6.15001153e-06  7.94996570e-01  6.15001153e-06  9.10816918e-01  6.15001153e-06  1.55630436e+00                                 
