 time            v(vbep)         time            v(vben)         time            v(vout)         time            v(vphi1)        time            v(vphi2)        time            v(vref)         yes             currtemp       
 0.00000000e+00  6.49459716e-01  0.00000000e+00  5.90764457e-01  0.00000000e+00  1.02430755e+00  0.00000000e+00  0.00000000e+00  0.00000000e+00  1.79995441e+00  0.00000000e+00  5.00000000e-01  1.00000000e+00  4.80000000e+01 
 5.00000000e-12  6.49429624e-01  5.00000000e-12  5.90739553e-01  5.00000000e-12  1.02506509e+00  5.00000000e-12  1.80000000e-02  5.00000000e-12  1.80006363e+00  5.00000000e-12  5.00000000e-01                                 
 1.00000000e-11  6.49400340e-01  1.00000000e-11  5.90715309e-01  1.00000000e-11  1.02575528e+00  1.00000000e-11  3.60000000e-02  1.00000000e-11  1.80011914e+00  1.00000000e-11  5.00000000e-01                                 
 2.00000000e-11  6.49342263e-01  2.00000000e-11  5.90667011e-01  2.00000000e-11  1.02703333e+00  2.00000000e-11  7.20000000e-02  2.00000000e-11  1.80016858e+00  2.00000000e-11  5.00000000e-01                                 
 4.00000000e-11  6.49226952e-01  4.00000000e-11  5.90570796e-01  4.00000000e-11  1.02913138e+00  4.00000000e-11  1.44000000e-01  4.00000000e-11  1.80013081e+00  4.00000000e-11  5.00000000e-01                                 
 8.00000000e-11  6.48997464e-01  8.00000000e-11  5.90379230e-01  8.00000000e-11  1.03219528e+00  8.00000000e-11  2.88000000e-01  8.00000000e-11  1.80005559e+00  8.00000000e-11  5.00000000e-01                                 
 1.60000000e-10  6.48543372e-01  1.60000000e-10  5.89999526e-01  1.60000000e-10  1.03599528e+00  1.60000000e-10  5.76000000e-01  1.60000000e-10  1.80000088e+00  1.60000000e-10  5.00000000e-01                                 
 3.20000000e-10  6.47653554e-01  3.20000000e-10  5.89253329e-01  3.20000000e-10  1.03223572e+00  3.20000000e-10  1.15200000e+00  3.20000000e-10  1.80042274e+00  3.20000000e-10  5.00000000e-01                                 
 5.00000000e-10  6.46680781e-01  5.00000000e-10  5.88434169e-01  5.00000000e-10  1.17014637e+00  5.00000000e-10  1.80000000e+00  5.00000000e-10  1.21726338e-01  5.00000000e-10  5.00000000e-01                                 
 5.21724002e-10  6.46565555e-01  5.21724002e-10  5.88336887e-01  5.21724002e-10  1.20257342e+00  5.21724002e-10  1.80000000e+00  5.21724002e-10  2.46250788e-02  5.21724002e-10  5.00000000e-01                                 
 5.65172007e-10  6.46335898e-01  5.65172007e-10  5.88142886e-01  5.65172007e-10  1.26187529e+00  5.65172007e-10  1.80000000e+00  5.65172007e-10 -1.11874828e-02  5.65172007e-10  5.00000000e-01                                 
 6.52068017e-10  6.45881405e-01  6.52068017e-10  5.87758394e-01  6.52068017e-10  1.35907241e+00  6.52068017e-10  1.80000000e+00  6.52068017e-10  9.43077252e-03  6.52068017e-10  5.00000000e-01                                 
 7.74253425e-10  6.45252959e-01  7.74253425e-10  5.87225507e-01  7.74253425e-10  1.46947732e+00  7.74253425e-10  1.80000000e+00  7.74253425e-10 -8.04477743e-03  7.74253425e-10  5.00000000e-01                                 
 9.66992395e-10  6.44285799e-01  9.66992395e-10  5.86402650e-01  9.66992395e-10  1.59914333e+00  9.66992395e-10  1.80000000e+00  9.66992395e-10  7.57778365e-03  9.66992395e-10  5.00000000e-01                                 
 1.35247034e-09  6.42433963e-01  1.35247034e-09  5.84818010e-01  1.35247034e-09  1.74525582e+00  1.35247034e-09  1.80000000e+00  1.35247034e-09 -7.14486571e-03  1.35247034e-09  5.00000000e-01                                 
 1.63934242e-09  6.41122996e-01  1.63934242e-09  5.83688837e-01  1.63934242e-09  1.78996416e+00  1.63934242e-09  1.80000000e+00  1.63934242e-09  6.85599555e-03  1.63934242e-09  5.00000000e-01                                 
 1.99072665e-09  6.39587689e-01  1.99072665e-09  5.82358963e-01  1.99072665e-09  1.81344568e+00  1.99072665e-09  1.80000000e+00  1.99072665e-09 -6.46591223e-03  1.99072665e-09  5.00000000e-01                                 
 2.32045522e-09  6.38212053e-01  2.32045522e-09  5.81160637e-01  2.32045522e-09  1.82137340e+00  2.32045522e-09  1.80000000e+00  2.32045522e-09  6.25542732e-03  2.32045522e-09  5.00000000e-01                                 
 2.68801028e-09  6.36746340e-01  2.68801028e-09  5.79876999e-01  2.68801028e-09  1.82387925e+00  2.68801028e-09  1.80000000e+00  2.68801028e-09 -5.93313748e-03  2.68801028e-09  5.00000000e-01                                 
 3.13282920e-09  6.35059486e-01  3.13282920e-09  5.78391184e-01  3.13282920e-09  1.82398975e+00  3.13282920e-09  1.80000000e+00  3.13282920e-09  5.77136602e-03  3.13282920e-09  5.00000000e-01                                 
 3.58018241e-09  6.33450492e-01  3.58018241e-09  5.76965618e-01  3.58018241e-09  1.82301071e+00  3.58018241e-09  1.80000000e+00  3.58018241e-09 -5.54494293e-03  3.58018241e-09  5.00000000e-01                                 
 4.18871950e-09  6.31387101e-01  4.18871950e-09  5.75126048e-01  4.18871950e-09  1.82153508e+00  4.18871950e-09  1.80000000e+00  4.18871950e-09  5.43127648e-03  4.18871950e-09  5.00000000e-01                                 
 5.01409241e-09  6.28791111e-01  5.01409241e-09  5.72794103e-01  5.01409241e-09  1.81944293e+00  5.01409241e-09  1.80000000e+00  5.01409241e-09 -5.30730140e-03  5.01409241e-09  5.00000000e-01                                 
 6.56289538e-09  6.24434349e-01  6.56289538e-09  5.68839943e-01  6.56289538e-09  1.81594299e+00  6.56289538e-09  1.80000000e+00  6.56289538e-09  5.27782988e-03  6.56289538e-09  5.00000000e-01                                 
 9.35056659e-09  6.17860342e-01  9.35056659e-09  5.62785632e-01  9.35056659e-09  1.81000907e+00  9.35056659e-09  1.80000000e+00  9.35056659e-09 -5.22558910e-03  9.35056659e-09  5.00000000e-01                                 
 1.49259090e-08  6.07797447e-01  1.49259090e-08  5.53345124e-01  1.49259090e-08  1.79788536e+00  1.49259090e-08  1.80000000e+00  1.49259090e-08  5.23496688e-03  1.49259090e-08  5.00000000e-01                                 
 2.60765939e-08  5.93943848e-01  2.60765939e-08  5.40101498e-01  2.60765939e-08  1.76634156e+00  2.60765939e-08  1.80000000e+00  2.60765939e-08 -5.20353485e-03  2.60765939e-08  5.00000000e-01                                 
 4.30442771e-08  5.79498446e-01  4.30442771e-08  5.26239127e-01  4.30442771e-08  1.71624538e+00  4.30442771e-08  1.80000000e+00  4.30442771e-08  5.22358635e-03  4.30442771e-08  5.00000000e-01                                 
 5.76015502e-08  5.68336449e-01  5.76015502e-08  5.15900646e-01  5.76015502e-08  1.68051270e+00  5.76015502e-08  1.80000000e+00  5.76015502e-08 -5.19333012e-03  5.76015502e-08  5.00000000e-01                                 
 7.31468558e-08  5.58716724e-01  7.31468558e-08  5.07009408e-01  7.31468558e-08  1.59354676e+00  7.31468558e-08  1.80000000e+00  7.31468558e-08  5.21314681e-03  7.31468558e-08  5.00000000e-01                                 
 9.16381813e-08  5.49020818e-01  9.16381813e-08  4.98110657e-01  9.16381813e-08  1.46930567e+00  9.16381813e-08  1.80000000e+00  9.16381813e-08 -5.18386463e-03  9.16381813e-08  5.00000000e-01                                 
 1.08541927e-07  5.41581463e-01  1.08541927e-07  4.91301068e-01  1.08541927e-07  1.36862493e+00  1.08541927e-07  1.80000000e+00  1.08541927e-07  5.20426562e-03  1.08541927e-07  5.00000000e-01                                 
 1.31544865e-07  5.39562062e-01  1.31544865e-07  4.88618052e-01  1.31544865e-07  1.26070299e+00  1.31544865e-07  1.80000000e+00  1.31544865e-07 -5.17545708e-03  1.31544865e-07  5.00000000e-01                                 
 1.59223918e-07  5.41852078e-01  1.59223918e-07  4.89294541e-01  1.59223918e-07  1.12767995e+00  1.59223918e-07  1.80000000e+00  1.59223918e-07  5.19814748e-03  1.59223918e-07  5.00000000e-01                                 
 1.79527453e-07  5.39583117e-01  1.79527453e-07  4.86771937e-01  1.79527453e-07  1.00446610e+00  1.79527453e-07  1.80000000e+00  1.79527453e-07 -5.16898633e-03  1.79527453e-07  5.00000000e-01                                 
 2.02288910e-07  5.35179459e-01  2.02288910e-07  4.82561854e-01  2.02288910e-07  9.00430245e-01  2.02288910e-07  1.80000000e+00  2.02288910e-07  5.19073379e-03  2.02288910e-07  5.00000000e-01                                 
 2.31127250e-07  5.27874077e-01  2.31127250e-07  4.75971424e-01  2.31127250e-07  8.09589438e-01  2.31127250e-07  1.80000000e+00  2.31127250e-07 -5.16293118e-03  2.31127250e-07  5.00000000e-01                                 
 2.61636982e-07  5.19129629e-01  2.61636982e-07  4.68307853e-01  2.61636982e-07  7.30863571e-01  2.61636982e-07  1.80000000e+00  2.61636982e-07  5.18540632e-03  2.61636982e-07  5.00000000e-01                                 
 3.17007263e-07  5.04666821e-01  3.17007263e-07  4.55749879e-01  3.17007263e-07  5.97886697e-01  3.17007263e-07  1.80000000e+00  3.17007263e-07 -5.15895776e-03  3.17007263e-07  5.00000000e-01                                 
 3.88814143e-07  4.84049484e-01  3.88814143e-07  4.38354755e-01  3.88814143e-07  4.98982104e-01  3.88814143e-07  1.80000000e+00  3.88814143e-07  5.18289018e-03  3.88814143e-07  5.00000000e-01                                 
 4.85869067e-07  4.61900288e-01  4.85869067e-07  4.19823879e-01  4.85869067e-07  4.67828632e-01  4.85869067e-07  1.80000000e+00  4.85869067e-07 -5.15702584e-03  4.85869067e-07  5.00000000e-01                                 
 4.99227170e-07  4.56659814e-01  4.99227170e-07  4.15566740e-01  4.99227170e-07  4.64331250e-01  4.99227170e-07  1.80000000e+00  4.99227170e-07 -7.08468445e-09  4.99227170e-07  5.00000000e-01                                 
 5.25943377e-07  4.45589947e-01  5.25943377e-07  4.06597199e-01  5.25943377e-07  4.56858343e-01  5.25943377e-07  1.80000000e+00  5.25943377e-07  2.72782419e-06  5.25943377e-07  5.00000000e-01                                 
 5.79375789e-07  4.20688535e-01  5.79375789e-07  3.86534613e-01  5.79375789e-07  4.57489915e-01  5.79375789e-07  1.80000000e+00  5.79375789e-07 -4.70355886e-08  5.79375789e-07  5.00000000e-01                                 
 6.35133316e-07  4.05090893e-01  6.35133316e-07  3.74008933e-01  6.35133316e-07  5.36941487e-01  6.35133316e-07  1.80000000e+00  6.35133316e-07  2.90493365e-06  6.35133316e-07  5.00000000e-01                                 
 6.79921018e-07  5.09192276e-01  6.79921018e-07  4.57222796e-01  6.79921018e-07  5.82050171e-01  6.79921018e-07  1.80000000e+00  6.79921018e-07  2.38948781e-06  6.79921018e-07  5.00000000e-01                                 
 7.20291117e-07  7.01838702e-01  7.20291117e-07  6.40079245e-01  7.20291117e-07  5.71449080e-01  7.20291117e-07  1.80000000e+00  7.20291117e-07  6.54566829e-06  7.20291117e-07  5.00000000e-01                                 
 7.49394914e-07  7.50570299e-01  7.49394914e-07  6.87017596e-01  7.49394914e-07  5.30835337e-01  7.49394914e-07  1.80000000e+00  7.49394914e-07 -8.70151828e-07  7.49394914e-07  5.00000000e-01                                 
 7.78771538e-07  7.70725782e-01  7.78771538e-07  7.04015860e-01  7.78771538e-07  5.03137076e-01  7.78771538e-07  1.80000000e+00  7.78771538e-07  4.95583256e-06  7.78771538e-07  5.00000000e-01                                 
 8.20045269e-07  7.72298803e-01  8.20045269e-07  7.05494635e-01  8.20045269e-07  4.87900681e-01  8.20045269e-07  1.80000000e+00  8.20045269e-07 -1.72687668e-06  8.20045269e-07  5.00000000e-01                                 
 8.64902173e-07  7.71758253e-01  8.64902173e-07  7.04883915e-01  8.64902173e-07  4.82076401e-01  8.64902173e-07  1.80000000e+00  8.64902173e-07  4.77465445e-06  8.64902173e-07  5.00000000e-01                                 
 9.11835522e-07  7.72310232e-01  9.11835522e-07  7.05491869e-01  9.11835522e-07  4.88270681e-01  9.11835522e-07  1.80000000e+00  9.11835522e-07 -1.59731348e-06  9.11835522e-07  5.00000000e-01                                 
 9.20808739e-07  7.72084635e-01  9.20808739e-07  7.05239452e-01  9.20808739e-07  4.91835372e-01  9.20808739e-07  1.80000000e+00  9.20808739e-07  1.48644760e-06  9.20808739e-07  5.00000000e-01                                 
 9.38755172e-07  7.72222895e-01  9.38755172e-07  7.05339409e-01  9.38755172e-07  5.03607650e-01  9.38755172e-07  1.80000000e+00  9.38755172e-07  1.64010167e-06  9.38755172e-07  5.00000000e-01                                 
 9.66337285e-07  7.59198994e-01  9.66337285e-07  6.94489896e-01  9.66337285e-07  5.07323297e-01  9.66337285e-07  1.80000000e+00  9.66337285e-07  7.74549633e-07  9.66337285e-07  5.00000000e-01                                 
 9.95466106e-07  7.38854191e-01  9.95466106e-07  6.76418388e-01  9.95466106e-07  4.93279179e-01  9.95466106e-07  1.80000000e+00  9.95466106e-07  1.28837888e-06  9.95466106e-07  5.00000000e-01                                 
 1.03960034e-06  7.41637070e-01  1.03960034e-06  6.78924146e-01  1.03960034e-06  4.98106663e-01  1.03960034e-06  1.80000000e+00  1.03960034e-06  1.91470992e-06  1.03960034e-06  5.00000000e-01                                 
 1.08036839e-06  7.54175421e-01  1.08036839e-06  6.90058610e-01  1.08036839e-06  5.08677862e-01  1.08036839e-06  1.80000000e+00  1.08036839e-06  1.65683460e-06  1.08036839e-06  5.00000000e-01                                 
 1.14467874e-06  7.60502194e-01  1.14467874e-06  6.95550482e-01  1.14467874e-06  5.00639064e-01  1.14467874e-06  1.80000000e+00  1.14467874e-06  1.60301536e-06  1.14467874e-06  5.00000000e-01                                 
 1.21310699e-06  7.51180798e-01  1.21310699e-06  6.87461867e-01  1.21310699e-06  4.91601832e-01  1.21310699e-06  1.80000000e+00  1.21310699e-06  1.31061637e-06  1.21310699e-06  5.00000000e-01                                 
 1.30478828e-06  7.50346379e-01  1.30478828e-06  6.86716380e-01  1.30478828e-06  5.06883986e-01  1.30478828e-06  1.80000000e+00  1.30478828e-06  1.78694420e-06  1.30478828e-06  5.00000000e-01                                 
 1.39989365e-06  7.58479572e-01  1.39989365e-06  6.93802220e-01  1.39989365e-06  5.01201744e-01  1.39989365e-06  1.80000000e+00  1.39989365e-06  1.45360196e-06  1.39989365e-06  5.00000000e-01                                 
 1.53748457e-06  7.50015925e-01  1.53748457e-06  6.86441503e-01  1.53748457e-06  4.93821630e-01  1.53748457e-06  1.80000000e+00  1.53748457e-06  1.56920617e-06  1.53748457e-06  5.00000000e-01                                 
 1.68471692e-06  7.54570477e-01  1.68471692e-06  6.90409402e-01  1.68471692e-06  5.08700665e-01  1.68471692e-06  1.80000000e+00  1.68471692e-06  1.58898342e-06  1.68471692e-06  5.00000000e-01                                 
 1.85374492e-06  7.54725362e-01  1.85374492e-06  6.90574066e-01  1.85374492e-06  4.92455446e-01  1.85374492e-06  1.80000000e+00  1.85374492e-06  1.52625562e-06  1.85374492e-06  5.00000000e-01                                 
 2.08429127e-06  7.51480561e-01  2.08429127e-06  6.87706484e-01  2.08429127e-06  5.06035124e-01  2.08429127e-06  1.80000000e+00  2.08429127e-06  1.56603663e-06  2.08429127e-06  5.00000000e-01                                 
 2.31710819e-06  7.56258739e-01  2.31710819e-06  6.91901659e-01  2.31710819e-06  4.97095191e-01  2.31710819e-06  1.80000000e+00  2.31710819e-06  1.57745968e-06  2.31710819e-06  5.00000000e-01                                 
 2.60573539e-06  7.50787574e-01  2.60573539e-06  6.87100900e-01  2.60573539e-06  5.00914424e-01  2.60573539e-06  1.80000000e+00  2.60573539e-06  1.50809408e-06  2.60573539e-06  5.00000000e-01                                 
 2.95903307e-06  7.56172429e-01  2.95903307e-06  6.91823266e-01  2.95903307e-06  5.01421165e-01  2.95903307e-06  1.80000000e+00  2.95903307e-06  1.62735304e-06  2.95903307e-06  5.00000000e-01                                 
 3.39827141e-06  7.51208313e-01  3.39827141e-06  6.87474502e-01  3.39827141e-06  4.97562876e-01  3.39827141e-06  1.80000000e+00  3.39827141e-06  1.46956759e-06  3.39827141e-06  5.00000000e-01                                 
 3.93341208e-06  7.55691786e-01  3.93341208e-06  6.91404406e-01  3.93341208e-06  5.03866097e-01  3.93341208e-06  1.80000000e+00  3.93341208e-06  1.65578210e-06  3.93341208e-06  5.00000000e-01                                 
 4.61505751e-06  7.51737510e-01  4.61505751e-06  6.87941503e-01  4.61505751e-06  4.95823044e-01  4.61505751e-06  1.80000000e+00  4.61505751e-06  1.44917745e-06  4.61505751e-06  5.00000000e-01                                 
 5.48845099e-06  7.55273968e-01  5.48845099e-06  6.91040523e-01  5.48845099e-06  5.05055362e-01  5.48845099e-06  1.80000000e+00  5.48845099e-06  1.66988238e-06  5.48845099e-06  5.00000000e-01                                 
 6.48845099e-06  7.52137778e-01  6.48845099e-06  6.88293809e-01  6.48845099e-06  4.94973440e-01  6.48845099e-06  1.80000000e+00  6.48845099e-06  1.43893793e-06  6.48845099e-06  5.00000000e-01                                 
 7.48845099e-06  7.54917014e-01  7.48845099e-06  6.90729517e-01  7.48845099e-06  5.05738242e-01  7.48845099e-06  1.80000000e+00  7.48845099e-06  1.67827097e-06  7.48845099e-06  5.00000000e-01                                 
 8.48845099e-06  7.52530335e-01  8.48845099e-06  6.88638688e-01  8.48845099e-06  4.94395675e-01  8.48845099e-06  1.80000000e+00  8.48845099e-06  1.43165392e-06  8.48845099e-06  5.00000000e-01                                 
 9.48845099e-06  7.54544398e-01  9.48845099e-06  6.90404670e-01  9.48845099e-06  5.06195556e-01  9.48845099e-06  1.80000000e+00  9.48845099e-06  1.68442981e-06  9.48845099e-06  5.00000000e-01                                 
 1.00005000e-05  7.53107790e-01  1.00005000e-05  6.89144923e-01  1.00005000e-05  4.93960365e-01  1.00005000e-05  1.80000000e+00  1.00005000e-05  1.42502057e-06  1.00005000e-05  5.00000000e-01                                 
 1.00005500e-05  7.53107842e-01  1.00005500e-05  6.89146694e-01  1.00005500e-05  4.86256018e-01  1.00005500e-05  1.62000000e+00  1.00005500e-05 -8.73084642e-05  1.00005500e-05  5.00000000e-01                                 
 1.00006500e-05  7.53111139e-01  1.00006500e-05  6.89150313e-01  1.00006500e-05  4.72546112e-01  1.00006500e-05  1.26000000e+00  1.00006500e-05 -6.80915044e-05  1.00006500e-05  5.00000000e-01                                 
 1.00008500e-05  7.53115932e-01  1.00008500e-05  6.89154311e-01  1.00008500e-05  4.70434143e-01  1.00008500e-05  5.40000000e-01  1.00008500e-05 -3.03003621e-03  1.00008500e-05  5.00000000e-01                                 
 1.00010000e-05  7.53115680e-01  1.00010000e-05  6.89154740e-01  1.00010000e-05  4.37280586e-01  1.00010000e-05  0.00000000e+00  1.00010000e-05  1.58133278e+00  1.00010000e-05  5.00000000e-01                                 
 1.00010255e-05  7.53115579e-01  1.00010255e-05  6.89154605e-01  1.00010255e-05  4.14164667e-01  1.00010255e-05  0.00000000e+00  1.00010255e-05  1.72565507e+00  1.00010255e-05  5.00000000e-01                                 
 1.00010764e-05  7.53115149e-01  1.00010764e-05  6.89154257e-01  1.00010764e-05  3.75264147e-01  1.00010764e-05  0.00000000e+00  1.00010764e-05  1.82003190e+00  1.00010764e-05  5.00000000e-01                                 
 1.00011782e-05  7.53113675e-01  1.00011782e-05  6.89153156e-01  1.00011782e-05  3.42873410e-01  1.00011782e-05  0.00000000e+00  1.00011782e-05  1.78547358e+00  1.00011782e-05  5.00000000e-01                                 
 1.00013119e-05  7.53110779e-01  1.00013119e-05  6.89150871e-01  1.00013119e-05  3.41678701e-01  1.00013119e-05  0.00000000e+00  1.00013119e-05  1.80955953e+00  1.00013119e-05  5.00000000e-01                                 
 1.00014731e-05  7.53105896e-01  1.00014731e-05  6.89146936e-01  1.00014731e-05  3.40482788e-01  1.00014731e-05  0.00000000e+00  1.00014731e-05  1.79287381e+00  1.00014731e-05  5.00000000e-01                                 
