 time            v(vbep)         time            v(vben)         time            v(vout)         time            v(vphi1)        time            v(vphi2)        time            v(vref)         yes             currtemp       
 0.00000000e+00  7.41378928e-01  0.00000000e+00  6.93591268e-01  0.00000000e+00  1.03146459e-01  0.00000000e+00  0.00000000e+00  0.00000000e+00  1.79997484e+00  0.00000000e+00  6.93591268e-01  1.00000000e+00 -1.20000000e+01 
 5.00000000e-12  7.41366208e-01  5.00000000e-12  6.93580657e-01  5.00000000e-12  1.03586586e-01  5.00000000e-12  1.80000000e-02  5.00000000e-12  1.80006902e+00  5.00000000e-12  6.93580657e-01                                 
 1.00000000e-11  7.41353637e-01  1.00000000e-11  6.93570247e-01  1.00000000e-11  1.03941938e-01  1.00000000e-11  3.60000000e-02  1.00000000e-11  1.80012081e+00  1.00000000e-11  6.93570247e-01                                 
 2.00000000e-11  7.41328568e-01  2.00000000e-11  6.93549477e-01  2.00000000e-11  1.04530562e-01  2.00000000e-11  7.20000000e-02  2.00000000e-11  1.80017450e+00  2.00000000e-11  6.93549477e-01                                 
 4.00000000e-11  7.41278564e-01  4.00000000e-11  6.93508030e-01  4.00000000e-11  1.05247874e-01  4.00000000e-11  1.44000000e-01  4.00000000e-11  1.80016010e+00  4.00000000e-11  6.93508030e-01                                 
 8.00000000e-11  7.41178813e-01  8.00000000e-11  6.93425319e-01  8.00000000e-11  1.06024103e-01  8.00000000e-11  2.88000000e-01  8.00000000e-11  1.80010837e+00  8.00000000e-11  6.93425319e-01                                 
 1.60000000e-10  7.40980413e-01  1.60000000e-10  6.93260644e-01  1.60000000e-10  1.07149500e-01  1.60000000e-10  5.76000000e-01  1.60000000e-10  1.80007700e+00  1.60000000e-10  6.93260644e-01                                 
 3.20000000e-10  7.40587930e-01  3.20000000e-10  6.92934274e-01  3.20000000e-10  1.23072904e-01  3.20000000e-10  1.15200000e+00  3.20000000e-10  1.80016812e+00  3.20000000e-10  6.92934274e-01                                 
 5.00000000e-10  7.40153262e-01  5.00000000e-10  6.92571872e-01  5.00000000e-10  4.01805428e-01  5.00000000e-10  1.80000000e+00  5.00000000e-10  1.31091278e-01  5.00000000e-10  6.92571872e-01                                 
 5.20739517e-10  7.40103702e-01  5.20739517e-10  6.92530482e-01  5.20739517e-10  4.60734943e-01  5.20739517e-10  1.80000000e+00  5.20739517e-10  2.70879938e-02  5.20739517e-10  6.92530482e-01                                 
 5.62218552e-10  7.40004773e-01  5.62218552e-10  6.92447834e-01  5.62218552e-10  5.68296930e-01  5.62218552e-10  1.80000000e+00  5.62218552e-10 -1.14266287e-02  5.62218552e-10  6.92447834e-01                                 
 6.45176622e-10  7.39808066e-01  6.45176622e-10  6.92283347e-01  6.45176622e-10  7.34371481e-01  6.45176622e-10  1.80000000e+00  6.45176622e-10  1.03877530e-02  6.45176622e-10  6.92283347e-01                                 
 7.61900614e-10  7.39533835e-01  7.61900614e-10  6.92053698e-01  7.61900614e-10  9.02362839e-01  7.61900614e-10  1.80000000e+00  7.61900614e-10 -8.18252354e-03  7.61900614e-10  6.92053698e-01                                 
 9.43599332e-10  7.39112692e-01  9.43599332e-10  6.91700264e-01  9.43599332e-10  1.09755073e+00  9.43599332e-10  1.80000000e+00  9.43599332e-10  8.42102770e-03  9.43599332e-10  6.91700264e-01                                 
 1.20805340e-09  7.38511835e-01  1.20805340e-09  6.91194438e-01  1.20805340e-09  1.32184612e+00  1.20805340e-09  1.80000000e+00  1.20805340e-09 -7.13574030e-03  1.20805340e-09  6.91194438e-01                                 
 1.68770923e-09  7.37456652e-01  1.68770923e-09  6.90301774e-01  1.68770923e-09  1.58910342e+00  1.68770923e-09  1.80000000e+00  1.68770923e-09  7.46982117e-03  1.68770923e-09  6.90301774e-01                                 
 2.26262695e-09  7.36246792e-01  2.26262695e-09  6.89271501e-01  2.26262695e-09  1.72068589e+00  2.26262695e-09  1.80000000e+00  2.26262695e-09 -6.99578734e-03  2.26262695e-09  6.89271501e-01                                 
 2.61802895e-09  7.35526847e-01  2.61802895e-09  6.88655020e-01  2.61802895e-09  1.74739745e+00  2.61802895e-09  1.80000000e+00  2.61802895e-09  6.80639376e-03  2.61802895e-09  6.88655020e-01                                 
 3.08715823e-09  7.34606590e-01  3.08715823e-09  6.87863478e-01  3.08715823e-09  1.76010231e+00  3.08715823e-09  1.80000000e+00  3.08715823e-09 -6.51120381e-03  3.08715823e-09  6.87863478e-01                                 
 3.55442740e-09  7.33721935e-01  3.55442740e-09  6.87098871e-01  3.55442740e-09  1.76402550e+00  3.55442740e-09  1.80000000e+00  3.55442740e-09  6.33593909e-03  3.55442740e-09  6.87098871e-01                                 
 4.48896574e-09  7.32038917e-01  4.48896574e-09  6.85634789e-01  4.48896574e-09  1.76449974e+00  4.48896574e-09  1.80000000e+00  4.48896574e-09 -6.19394236e-03  4.48896574e-09  6.85634789e-01                                 
 5.57080436e-09  7.30219993e-01  5.57080436e-09  6.84038845e-01  5.57080436e-09  1.76388456e+00  5.57080436e-09  1.80000000e+00  5.57080436e-09  6.13317833e-03  5.57080436e-09  6.84038845e-01                                 
 7.73448162e-09  7.26925013e-01  7.73448162e-09  6.81115104e-01  7.73448162e-09  1.76132029e+00  7.73448162e-09  1.80000000e+00  7.73448162e-09 -6.06056253e-03  7.73448162e-09  6.81115104e-01                                 
 1.20618361e-08  7.21373095e-01  1.20618361e-08  6.76103183e-01  1.20618361e-08  1.75572269e+00  1.20618361e-08  1.80000000e+00  1.20618361e-08  6.06544386e-03  1.20618361e-08  6.76103183e-01                                 
 1.87570523e-08  7.14675605e-01  1.87570523e-08  6.69923547e-01  1.87570523e-08  1.74544531e+00  1.87570523e-08  1.80000000e+00  1.87570523e-08 -6.02403181e-03  1.87570523e-08  6.69923547e-01                                 
 2.04816518e-08  7.13242143e-01  2.04816518e-08  6.68580040e-01  2.04816518e-08  1.74293100e+00  2.04816518e-08  1.80000000e+00  2.04816518e-08  5.99225303e-03  2.04816518e-08  6.68580040e-01                                 
 2.18589830e-08  7.12162992e-01  2.18589830e-08  6.67564040e-01  2.18589830e-08  1.74072040e+00  2.18589830e-08  1.80000000e+00  2.18589830e-08 -5.89969543e-03  2.18589830e-08  6.67564040e-01                                 
 2.38659511e-08  7.10683556e-01  2.38659511e-08  6.66164831e-01  2.38659511e-08  1.73802754e+00  2.38659511e-08  1.80000000e+00  2.38659511e-08  5.87577766e-03  2.38659511e-08  6.66164831e-01                                 
 2.78798873e-08  7.08002238e-01  2.78798873e-08  6.63611240e-01  2.78798873e-08  1.73219316e+00  2.78798873e-08  1.80000000e+00  2.78798873e-08 -5.82927598e-03  2.78798873e-08  6.63611240e-01                                 
 3.50960014e-08  7.03868278e-01  3.50960014e-08  6.59637445e-01  3.50960014e-08  1.72257647e+00  3.50960014e-08  1.80000000e+00  3.50960014e-08  5.83956700e-03  3.50960014e-08  6.59637445e-01                                 
 4.28203380e-08  7.00126996e-01  4.28203380e-08  6.56013097e-01  4.28203380e-08  1.71198734e+00  4.28203380e-08  1.80000000e+00  4.28203380e-08 -5.80450285e-03  4.28203380e-08  6.56013097e-01                                 
 5.82690113e-08  6.93962951e-01  5.82690113e-08  6.50006781e-01  5.82690113e-08  1.69206631e+00  5.82690113e-08  1.80000000e+00  5.82690113e-08  5.82167536e-03  5.82690113e-08  6.50006781e-01                                 
 8.75096451e-08  6.85346305e-01  8.75096451e-08  6.41531254e-01  8.75096451e-08  1.65614790e+00  8.75096451e-08  1.80000000e+00  8.75096451e-08 -5.79514502e-03  8.75096451e-08  6.41531254e-01                                 
 1.45990913e-07  6.71809647e-01  1.45990913e-07  6.28507396e-01  1.45990913e-07  1.58889171e+00  1.45990913e-07  1.80000000e+00  1.45990913e-07  5.81723392e-03  1.45990913e-07  6.28507396e-01                                 
 2.05571173e-07  6.59969055e-01  2.05571173e-07  6.17530865e-01  2.05571173e-07  1.52027870e+00  2.05571173e-07  1.80000000e+00  2.05571173e-07 -5.79195149e-03  2.05571173e-07  6.17530865e-01                                 
 2.69446046e-07  6.49572034e-01  2.69446046e-07  6.08018996e-01  2.69446046e-07  1.44824075e+00  2.69446046e-07  1.80000000e+00  2.69446046e-07  5.81434138e-03  2.69446046e-07  6.08018996e-01                                 
 3.90039881e-07  6.32235622e-01  3.90039881e-07  5.92558565e-01  3.90039881e-07  1.31261267e+00  3.90039881e-07  1.80000000e+00  3.90039881e-07 -5.78943172e-03  3.90039881e-07  5.92558565e-01                                 
 6.23383204e-07  6.01901389e-01  6.23383204e-07  5.66547403e-01  6.23383204e-07  1.04446333e+00  6.23383204e-07  1.80000000e+00  6.23383204e-07  5.81317843e-03  6.23383204e-07  5.66547403e-01                                 
 1.01016927e-06  5.53606827e-01  1.01016927e-06  5.26779140e-01  1.01016927e-06  7.32223099e-01  1.01016927e-06  1.80000000e+00  1.01016927e-06 -5.78864577e-03  1.01016927e-06  5.26779140e-01                                 
 1.06520052e-06  5.47727055e-01  1.06520052e-06  5.22019601e-01  1.06520052e-06  7.03428996e-01  1.06520052e-06  1.80000000e+00  1.06520052e-06 -5.71465821e-07  1.06520052e-06  5.22019601e-01                                 
 1.17526301e-06  5.39543148e-01  1.17526301e-06  5.15378215e-01  1.17526301e-06  6.51478169e-01  1.17526301e-06  1.80000000e+00  1.17526301e-06  2.76344225e-07  1.17526301e-06  5.15378215e-01                                 
 1.20277863e-06  5.39981004e-01  1.20277863e-06  5.15711099e-01  1.20277863e-06  6.41560451e-01  1.20277863e-06  1.80000000e+00  1.20277863e-06 -4.56755332e-08  1.20277863e-06  5.15711099e-01                                 
 1.25780988e-06  5.45783029e-01  1.25780988e-06  5.20321638e-01  1.25780988e-06  6.26483474e-01  1.25780988e-06  1.80000000e+00  1.25780988e-06  1.40528672e-07  1.25780988e-06  5.20321638e-01                                 
 1.36787237e-06  7.68702470e-01  1.36787237e-06  7.18869648e-01  1.36787237e-06  7.85535223e-01  1.36787237e-06  1.80000000e+00  1.36787237e-06  4.57848253e-06  1.36787237e-06  7.18869648e-01                                 
 1.38154201e-06  7.89426472e-01  1.38154201e-06  7.40235446e-01  1.38154201e-06  7.98381695e-01  1.38154201e-06  1.80000000e+00  1.38154201e-06  2.23913671e-06  1.38154201e-06  7.40235446e-01                                 
 1.40888128e-06  8.16544594e-01  1.40888128e-06  7.67190632e-01  1.40888128e-06  8.10750241e-01  1.40888128e-06  1.80000000e+00  1.40888128e-06  6.46805389e-07  1.40888128e-06  7.67190632e-01                                 
 1.46355981e-06  8.66249200e-01  1.46355981e-06  8.11683038e-01  1.46355981e-06  8.30840927e-01  1.46355981e-06  1.80000000e+00  1.46355981e-06  1.92399124e-06  1.46355981e-06  8.11683038e-01                                 
 1.50776344e-06  9.16938566e-01  1.50776344e-06  8.47648425e-01  1.50776344e-06  8.52033929e-01  1.50776344e-06  1.80000000e+00  1.50776344e-06  1.01519594e-06  1.50776344e-06  8.47648425e-01                                 
 1.54306029e-06  9.26113580e-01  1.54306029e-06  8.53462728e-01  1.54306029e-06  8.44927168e-01  1.54306029e-06  1.80000000e+00  1.54306029e-06 -5.04608769e-07  1.54306029e-06  8.53462728e-01                                 
 1.58192954e-06  9.17017701e-01  1.58192954e-06  8.47862582e-01  1.58192954e-06  8.49552474e-01  1.58192954e-06  1.80000000e+00  1.58192954e-06  3.45646670e-07  1.58192954e-06  8.47862582e-01                                 
 1.61355998e-06  9.20672274e-01  1.61355998e-06  8.50090104e-01  1.61355998e-06  8.49009639e-01  1.61355998e-06  1.80000000e+00  1.61355998e-06 -1.94042322e-07  1.61355998e-06  8.50090104e-01                                 
 1.64789248e-06  9.15635967e-01  1.64789248e-06  8.47078622e-01  1.64789248e-06  8.43155406e-01  1.64789248e-06  1.80000000e+00  1.64789248e-06 -1.69139996e-07  1.64789248e-06  8.47078622e-01                                 
 1.68606150e-06  9.14768293e-01  1.68606150e-06  8.46401772e-01  1.68606150e-06  8.47260246e-01  1.68606150e-06  1.80000000e+00  1.68606150e-06  2.66144139e-07  1.68606150e-06  8.46401772e-01                                 
 1.72990835e-06  9.10373392e-01  1.72990835e-06  8.43764583e-01  1.72990835e-06  8.39379714e-01  1.72990835e-06  1.80000000e+00  1.72990835e-06 -5.96710035e-07  1.72990835e-06  8.43764583e-01                                 
 1.79491902e-06  9.02912942e-01  1.79491902e-06  8.38716682e-01  1.79491902e-06  8.38327197e-01  1.79491902e-06  1.80000000e+00  1.79491902e-06  4.01045255e-07  1.79491902e-06  8.38716682e-01                                 
 1.89990494e-06  8.74535998e-01  1.89990494e-06  8.18513965e-01  1.89990494e-06  8.13483145e-01  1.89990494e-06  1.80000000e+00  1.89990494e-06 -1.14446934e-06  1.89990494e-06  8.18513965e-01                                 
 2.04130556e-06  8.43693448e-01  2.04130556e-06  7.92130354e-01  2.04130556e-06  7.92191808e-01  2.04130556e-06  1.80000000e+00  2.04130556e-06  5.49374829e-07  2.04130556e-06  7.92130354e-01                                 
 2.17920253e-06  8.42560286e-01  2.17920253e-06  7.91825077e-01  2.17920253e-06  7.91141797e-01  2.17920253e-06  1.80000000e+00  2.17920253e-06 -5.24027390e-07  2.17920253e-06  7.91825077e-01                                 
 2.45499646e-06  8.40448696e-01  2.45499646e-06  7.89185503e-01  2.45499646e-06  7.89946115e-01  2.45499646e-06  1.80000000e+00  2.45499646e-06  5.44350541e-07  2.45499646e-06  7.89185503e-01                                 
 2.73096933e-06  8.44507867e-01  2.73096933e-06  7.93539264e-01  2.73096933e-06  7.92904299e-01  2.73096933e-06  1.80000000e+00  2.73096933e-06 -4.51212197e-07  2.73096933e-06  7.93539264e-01                                 
 2.78522334e-06  8.41577214e-01  2.78522334e-06  7.90592402e-01  2.78522334e-06  7.90553785e-01  2.78522334e-06  1.80000000e+00  2.78522334e-06 -6.26800607e-08  2.78522334e-06  7.90592402e-01                                 
 2.89373136e-06  8.41226152e-01  2.89373136e-06  7.90261785e-01  2.89373136e-06  7.90404346e-01  2.89373136e-06  1.80000000e+00  2.89373136e-06  9.94307701e-08  2.89373136e-06  7.90261785e-01                                 
 3.11074739e-06  8.41891500e-01  3.11074739e-06  7.90874395e-01  3.11074739e-06  7.90855188e-01  3.11074739e-06  1.80000000e+00  3.11074739e-06 -4.45355414e-08  3.11074739e-06  7.90874395e-01                                 
 3.33102116e-06  8.41215413e-01  3.33102116e-06  7.90252971e-01  3.33102116e-06  7.90363018e-01  3.33102116e-06  1.80000000e+00  3.33102116e-06  8.12906437e-08  3.33102116e-06  7.90252971e-01                                 
 3.77156870e-06  8.41848665e-01  3.77156870e-06  7.90835220e-01  3.77156870e-06  7.90839853e-01  3.77156870e-06  1.80000000e+00  3.77156870e-06 -3.11565034e-08  3.77156870e-06  7.90835220e-01                                 
 4.65266378e-06  8.41245812e-01  4.65266378e-06  7.90280712e-01  4.65266378e-06  7.90379375e-01  4.65266378e-06  1.80000000e+00  4.65266378e-06  7.49807513e-08  4.65266378e-06  7.90280712e-01                                 
 5.65266378e-06  8.41824328e-01  5.65266378e-06  7.90813111e-01  5.65266378e-06  7.90824659e-01  5.65266378e-06  1.80000000e+00  5.65266378e-06 -2.73984154e-08  5.65266378e-06  7.90813111e-01                                 
 6.65266378e-06  8.41269496e-01  6.65266378e-06  7.90302223e-01  6.65266378e-06  7.90394612e-01  6.65266378e-06  1.80000000e+00  6.65266378e-06  7.16072332e-08  6.65266378e-06  7.90302223e-01                                 
 7.65266378e-06  8.41798756e-01  7.65266378e-06  7.90789939e-01  7.65266378e-06  7.90807624e-01  7.65266378e-06  1.80000000e+00  7.65266378e-06 -2.41707878e-08  7.65266378e-06  7.90789939e-01                                 
 8.65266378e-06  8.41294424e-01  8.65266378e-06  7.90324858e-01  8.65266378e-06  7.90411326e-01  8.65266378e-06  1.80000000e+00  8.65266378e-06  6.85294787e-08  8.65266378e-06  7.90324858e-01                                 
 9.65266378e-06  8.41771754e-01  9.65266378e-06  7.90765491e-01  9.65266378e-06  7.90788935e-01  9.65266378e-06  1.80000000e+00  9.65266378e-06 -2.12472863e-08  9.65266378e-06  7.90765491e-01                                 
 1.00005000e-05  8.41345240e-01  1.00005000e-05  7.90370940e-01  1.00005000e-05  7.90447087e-01  1.00005000e-05  1.80000000e+00  1.00005000e-05  6.34553780e-08  1.00005000e-05  7.90370940e-01                                 
 1.00005500e-05  8.41346354e-01  1.00005500e-05  7.90372244e-01  1.00005500e-05  7.83770683e-01  1.00005500e-05  1.62000000e+00  1.00005500e-05 -9.49651762e-05  1.00005500e-05  7.90372244e-01                                 
 1.00006500e-05  8.41348691e-01  1.00006500e-05  7.90374817e-01  1.00006500e-05  7.75099369e-01  1.00006500e-05  1.26000000e+00  1.00006500e-05 -3.59176960e-05  1.00006500e-05  7.90374817e-01                                 
 1.00008500e-05  8.41352873e-01  1.00008500e-05  7.90379375e-01  1.00008500e-05  7.76985084e-01  1.00008500e-05  5.40000000e-01  1.00008500e-05 -2.14419209e-04  1.00008500e-05  7.90379375e-01                                 
 1.00010000e-05  8.41354434e-01  1.00010000e-05  7.90381565e-01  1.00010000e-05  6.26630325e-01  1.00010000e-05  0.00000000e+00  1.00010000e-05  1.47313232e+00  1.00010000e-05  7.90381565e-01                                 
 1.00010166e-05  8.41354590e-01  1.00010166e-05  7.90381749e-01  1.00010166e-05  5.81609932e-01  1.00010166e-05  0.00000000e+00  1.00010166e-05  1.63545014e+00  1.00010166e-05  7.90381749e-01                                 
 1.00010497e-05  8.41355317e-01  1.00010497e-05  7.90382314e-01  1.00010497e-05  5.07696160e-01  1.00010497e-05  0.00000000e+00  1.00010497e-05  1.79270385e+00  1.00010497e-05  7.90382314e-01                                 
 1.00011160e-05  8.41356980e-01  1.00011160e-05  7.90383733e-01  1.00011160e-05  4.53031744e-01  1.00011160e-05  0.00000000e+00  1.00011160e-05  1.80382764e+00  1.00011160e-05  7.90383733e-01                                 
 1.00011967e-05  8.41358566e-01  1.00011967e-05  7.90385423e-01  1.00011967e-05  4.64204647e-01  1.00011967e-05  0.00000000e+00  1.00011967e-05  1.79921479e+00  1.00011967e-05  7.90385423e-01                                 
 1.00013321e-05  8.41360504e-01  1.00013321e-05  7.90387592e-01  1.00013321e-05  4.77506061e-01  1.00013321e-05  0.00000000e+00  1.00013321e-05  1.80211563e+00  1.00013321e-05  7.90387592e-01                                 
 1.00014731e-05  8.41361886e-01  1.00014731e-05  7.90389203e-01  1.00014731e-05  4.85092722e-01  1.00014731e-05  0.00000000e+00  1.00014731e-05  1.79893958e+00  1.00014731e-05  7.90389203e-01                                 
 1.00017552e-05  8.41363484e-01  1.00017552e-05  7.90391210e-01  1.00017552e-05  4.93636916e-01  1.00017552e-05  0.00000000e+00  1.00017552e-05  1.80136736e+00  1.00017552e-05  7.90391210e-01                                 
 1.00021642e-05  8.41364644e-01  1.00021642e-05  7.90392764e-01  1.00021642e-05  4.97847665e-01  1.00021642e-05  0.00000000e+00  1.00021642e-05  1.79883457e+00  1.00021642e-05  7.90392764e-01                                 
 1.00028155e-05  8.41366316e-01  1.00028155e-05  7.90394626e-01  1.00028155e-05  4.99868041e-01  1.00028155e-05  0.00000000e+00  1.00028155e-05  1.80116050e+00  1.00028155e-05  7.90394626e-01                                 
 1.00037669e-05  8.41370276e-01  1.00037669e-05  7.90398290e-01  1.00037669e-05  5.00392838e-01  1.00037669e-05  0.00000000e+00  1.00037669e-05  1.79887354e+00  1.00037669e-05  7.90398290e-01                                 
 1.00055779e-05  8.41380533e-01  1.00055779e-05  7.90407493e-01  1.00055779e-05  5.01794581e-01  1.00055779e-05  0.00000000e+00  1.00055779e-05  1.80112042e+00  1.00055779e-05  7.90407493e-01                                 
