 time            v(vbep)         time            v(vben)         time            v(vout)         time            v(vphi1)        time            v(vphi2)        time            v(vref)         yes             currtemp       
 0.00000000e+00  6.00586111e-01  0.00000000e+00  5.36864226e-01  0.00000000e+00  1.09581180e+00  0.00000000e+00  0.00000000e+00  0.00000000e+00  1.79994199e+00  0.00000000e+00  5.36864226e-01  1.00000000e+00  7.60000000e+01 
 5.00000000e-12  6.00549896e-01  5.00000000e-12  5.36834373e-01  5.00000000e-12  1.09655414e+00  5.00000000e-12  1.80000000e-02  5.00000000e-12  1.80007220e+00  5.00000000e-12  5.36834373e-01                                 
 1.00000000e-11  6.00514802e-01  1.00000000e-11  5.36805382e-01  1.00000000e-11  1.09722585e+00  1.00000000e-11  3.60000000e-02  1.00000000e-11  1.80014952e+00  1.00000000e-11  5.36805382e-01                                 
 2.00000000e-11  6.00445316e-01  2.00000000e-11  5.36747649e-01  2.00000000e-11  1.09845841e+00  2.00000000e-11  7.20000000e-02  2.00000000e-11  1.80023489e+00  2.00000000e-11  5.36747649e-01                                 
 4.00000000e-11  6.00307540e-01  4.00000000e-11  5.36632680e-01  4.00000000e-11  1.10041001e+00  4.00000000e-11  1.44000000e-01  4.00000000e-11  1.80021992e+00  4.00000000e-11  5.36632680e-01                                 
 8.00000000e-11  6.00033450e-01  8.00000000e-11  5.36403870e-01  8.00000000e-11  1.10296892e+00  8.00000000e-11  2.88000000e-01  8.00000000e-11  1.80011757e+00  8.00000000e-11  5.36403870e-01                                 
 1.60000000e-10  5.99491590e-01  1.60000000e-10  5.35950688e-01  1.60000000e-10  1.10507506e+00  1.60000000e-10  5.76000000e-01  1.60000000e-10  1.80001099e+00  1.60000000e-10  5.35950688e-01                                 
 3.20000000e-10  5.98431505e-01  3.20000000e-10  5.35061398e-01  3.20000000e-10  1.09890261e+00  3.20000000e-10  1.15200000e+00  3.20000000e-10  1.80033144e+00  3.20000000e-10  5.35061398e-01                                 
 5.00000000e-10  5.97275236e-01  5.00000000e-10  5.34087144e-01  5.00000000e-10  1.20890648e+00  5.00000000e-10  1.80000000e+00  5.00000000e-10  1.79976393e-01  5.00000000e-10  5.34087144e-01                                 
 5.22265701e-10  5.97135086e-01  5.22265701e-10  5.33968732e-01  5.22265701e-10  1.23661003e+00  5.22265701e-10  1.80000000e+00  5.22265701e-10  4.83540939e-02  5.22265701e-10  5.33968732e-01                                 
 5.66797102e-10  5.96855856e-01  5.66797102e-10  5.33732666e-01  5.66797102e-10  1.29179297e+00  5.66797102e-10  1.80000000e+00  5.66797102e-10 -1.68832530e-02  5.66797102e-10  5.33732666e-01                                 
 6.55859905e-10  5.96303868e-01  6.55859905e-10  5.33265268e-01  6.55859905e-10  1.38977452e+00  6.55859905e-10  1.80000000e+00  6.55859905e-10  1.40234195e-02  6.55859905e-10  5.33265268e-01                                 
 7.76909790e-10  5.95567116e-01  7.76909790e-10  5.32639889e-01  7.76909790e-10  1.50239144e+00  7.76909790e-10  1.80000000e+00  7.76909790e-10 -1.03241677e-02  7.76909790e-10  5.32639889e-01                                 
 9.60785298e-10  5.94476401e-01  9.60785298e-10  5.31710878e-01  9.60785298e-10  1.63678091e+00  9.60785298e-10  1.80000000e+00  9.60785298e-10  1.00746211e-02  9.60785298e-10  5.31710878e-01                                 
 1.32853631e-09  5.92390236e-01  1.32853631e-09  5.29923714e-01  1.32853631e-09  1.79724972e+00  1.32853631e-09  1.80000000e+00  1.32853631e-09 -8.76323613e-03  1.32853631e-09  5.29923714e-01                                 
 1.64118249e-09  5.90709760e-01  1.64118249e-09  5.28474132e-01  1.64118249e-09  1.85818635e+00  1.64118249e-09  1.80000000e+00  1.64118249e-09  8.46943632e-03  1.64118249e-09  5.28474132e-01                                 
 2.00014780e-09  5.88875162e-01  2.00014780e-09  5.26881782e-01  2.00014780e-09  1.88667609e+00  2.00014780e-09  1.80000000e+00  2.00014780e-09 -7.74547582e-03  2.00014780e-09  5.26881782e-01                                 
 2.35373064e-09  5.87158511e-01  2.35373064e-09  5.25382665e-01  2.35373064e-09  1.89688856e+00  2.35373064e-09  1.80000000e+00  2.35373064e-09  7.34393323e-03  2.35373064e-09  5.25382665e-01                                 
 2.88621421e-09  5.84723785e-01  2.88621421e-09  5.23241939e-01  2.88621421e-09  1.89976872e+00  2.88621421e-09  1.80000000e+00  2.88621421e-09 -6.96114033e-03  2.88621421e-09  5.23241939e-01                                 
 3.54795069e-09  5.81920751e-01  3.54795069e-09  5.20756754e-01  3.54795069e-09  1.89859829e+00  3.54795069e-09  1.80000000e+00  3.54795069e-09  6.76278011e-03  3.54795069e-09  5.20756754e-01                                 
 4.67662689e-09  5.77611074e-01  4.67662689e-09  5.16895504e-01  4.67662689e-09  1.89426458e+00  4.67662689e-09  1.80000000e+00  4.67662689e-09 -6.58302492e-03  4.67662689e-09  5.16895504e-01                                 
 6.44200428e-09  5.71805164e-01  6.44200428e-09  5.11621135e-01  6.44200428e-09  1.88908250e+00  6.44200428e-09  1.80000000e+00  6.44200428e-09  6.53853314e-03  6.44200428e-09  5.11621135e-01                                 
 9.84250467e-09  5.62814454e-01  9.84250467e-09  5.03309619e-01  9.84250467e-09  1.88035671e+00  9.84250467e-09  1.80000000e+00  9.84250467e-09 -6.44789949e-03  9.84250467e-09  5.03309619e-01                                 
 1.15086650e-08  5.59214531e-01  1.15086650e-08  4.99929950e-01  1.15086650e-08  1.87734975e+00  1.15086650e-08  1.80000000e+00  1.15086650e-08  6.39515497e-03  1.15086650e-08  4.99929950e-01                                 
 1.26372540e-08  5.56988464e-01  1.26372540e-08  4.97828024e-01  1.26372540e-08  1.87500559e+00  1.26372540e-08  1.80000000e+00  1.26372540e-08 -6.22761901e-03  1.26372540e-08  4.97828024e-01                                 
 1.42498662e-08  5.54051373e-01  1.42498662e-08  4.95042067e-01  1.42498662e-08  1.87263800e+00  1.42498662e-08  1.80000000e+00  1.42498662e-08  6.17088404e-03  1.42498662e-08  4.95042067e-01                                 
 1.59063848e-08  5.51291161e-01  1.59063848e-08  4.92411223e-01  1.59063848e-08  1.86981855e+00  1.59063848e-08  1.80000000e+00  1.59063848e-08 -6.05095541e-03  1.59063848e-08  4.92411223e-01                                 
 1.80552840e-08  5.48031372e-01  1.80552840e-08  4.89289615e-01  1.80552840e-08  1.86718781e+00  1.80552840e-08  1.80000000e+00  1.80552840e-08  6.01723832e-03  1.80552840e-08  4.89289615e-01                                 
 2.03328750e-08  5.44906765e-01  2.03328750e-08  4.86283381e-01  2.03328750e-08  1.86406929e+00  2.03328750e-08  1.80000000e+00  2.03328750e-08 -5.92320104e-03  2.03328750e-08  4.86283381e-01                                 
 2.38394321e-08  5.40622356e-01  2.38394321e-08  4.82141152e-01  2.38394321e-08  1.86042017e+00  2.38394321e-08  1.80000000e+00  2.38394321e-08  5.91599510e-03  2.38394321e-08  4.82141152e-01                                 
 2.82504411e-08  5.35943045e-01  2.82504411e-08  4.77592721e-01  2.82504411e-08  1.85544816e+00  2.82504411e-08  1.80000000e+00  2.82504411e-08 -5.85185068e-03  2.82504411e-08  4.77592721e-01                                 
 3.65448231e-08  5.28616763e-01  3.65448231e-08  4.70432399e-01  3.65448231e-08  1.84601884e+00  3.65448231e-08  1.80000000e+00  3.65448231e-08  5.86840682e-03  3.65448231e-08  4.70432399e-01                                 
 4.86667363e-08  5.19997811e-01  4.86667363e-08  4.62001025e-01  4.86667363e-08  1.82927885e+00  4.86667363e-08  1.80000000e+00  4.86667363e-08 -5.82374449e-03  4.86667363e-08  4.62001025e-01                                 
 7.29105625e-08  5.04289798e-01  7.29105625e-08  4.47154997e-01  7.29105625e-08  1.80107204e+00  7.29105625e-08  1.80000000e+00  7.29105625e-08  5.85204929e-03  7.29105625e-08  4.47154997e-01                                 
 8.98020244e-08  4.92784865e-01  8.98020244e-08  4.36798343e-01  8.98020244e-08  1.78039035e+00  8.98020244e-08  1.80000000e+00  8.98020244e-08 -5.81023783e-03  8.98020244e-08  4.36798343e-01                                 
 1.08177251e-07  4.83491870e-01  1.08177251e-07  4.28315981e-01  1.08177251e-07  1.74475183e+00  1.08177251e-07  1.80000000e+00  1.08177251e-07  5.83618974e-03  1.08177251e-07  4.28315981e-01                                 
 1.26322823e-07  4.75372549e-01  1.26322823e-07  4.20955390e-01  1.26322823e-07  1.71163381e+00  1.26322823e-07  1.80000000e+00  1.26322823e-07 -5.79506286e-03  1.26322823e-07  4.20955390e-01                                 
 1.45033581e-07  4.71257283e-01  1.45033581e-07  4.16857066e-01  1.45033581e-07  1.68895097e+00  1.45033581e-07  1.80000000e+00  1.45033581e-07  5.82299925e-03  1.45033581e-07  4.16857066e-01                                 
 1.71669488e-07  4.74359124e-01  1.71669488e-07  4.18230791e-01  1.71669488e-07  1.68056167e+00  1.71669488e-07  1.80000000e+00  1.71669488e-07 -5.78068073e-03  1.71669488e-07  4.18230791e-01                                 
 1.89719785e-07  4.74298439e-01  1.89719785e-07  4.17520309e-01  1.89719785e-07  1.66317730e+00  1.89719785e-07  1.80000000e+00  1.89719785e-07  5.80921798e-03  1.89719785e-07  4.17520309e-01                                 
 2.09813339e-07  4.70671520e-01  2.09813339e-07  4.13981332e-01  2.09813339e-07  1.63745416e+00  2.09813339e-07  1.80000000e+00  2.09813339e-07 -5.76751868e-03  2.09813339e-07  4.13981332e-01                                 
 2.28881957e-07  4.68449358e-01  2.28881957e-07  4.11642547e-01  2.28881957e-07  1.61624227e+00  2.28881957e-07  1.80000000e+00  2.28881957e-07  5.79589084e-03  2.28881957e-07  4.11642547e-01                                 
 2.49677640e-07  4.65425534e-01  2.49677640e-07  4.08667989e-01  2.49677640e-07  1.59212500e+00  2.49677640e-07  1.80000000e+00  2.49677640e-07 -5.75428336e-03  2.49677640e-07  4.08667989e-01                                 
 2.89962588e-07  4.55601129e-01  2.89962588e-07  3.99895639e-01  2.89962588e-07  1.54115321e+00  2.89962588e-07  1.80000000e+00  2.89962588e-07  5.78571600e-03  2.89962588e-07  3.99895639e-01                                 
 3.46544982e-07  4.41250794e-01  3.46544982e-07  3.87378957e-01  3.46544982e-07  1.46842932e+00  3.46544982e-07  1.80000000e+00  3.46544982e-07 -5.74868449e-03  3.46544982e-07  3.87378957e-01                                 
 4.02784437e-07  4.27358684e-01  4.02784437e-07  3.75459343e-01  4.02784437e-07  1.39584026e+00  4.02784437e-07  1.80000000e+00  4.02784437e-07  5.78103832e-03  4.02784437e-07  3.75459343e-01                                 
 5.15263347e-07  4.01453092e-01  5.15263347e-07  3.53581759e-01  5.15263347e-07  1.25187768e+00  5.15263347e-07  1.80000000e+00  5.15263347e-07 -5.74507873e-03  5.15263347e-07  3.53581759e-01                                 
 6.18284573e-07  3.56944135e-01  6.18284573e-07  3.17448004e-01  6.18284573e-07  1.10270152e+00  6.18284573e-07  1.80000000e+00  6.18284573e-07  5.77787553e-03  6.18284573e-07  3.17448004e-01                                 
 7.23719238e-07  6.35257707e-01  7.23719238e-07  5.69098395e-01  7.23719238e-07  1.25866282e+00  7.23719238e-07  1.80000000e+00  7.23719238e-07 -5.72856005e-03  7.23719238e-07  5.69098395e-01                                 
 7.38475792e-07  6.68196249e-01  7.38475792e-07  6.01553344e-01  7.38475792e-07  1.27523659e+00  7.38475792e-07  1.80000000e+00  7.38475792e-07  9.91231717e-06  7.38475792e-07  6.01553344e-01                                 
 7.67988901e-07  7.07295800e-01  7.67988901e-07  6.37473418e-01  7.67988901e-07  1.28152373e+00  7.67988901e-07  1.80000000e+00  7.67988901e-07  9.39177129e-06  7.67988901e-07  6.37473418e-01                                 
 8.13608601e-07  7.27814133e-01  8.13608601e-07  6.54745752e-01  8.13608601e-07  1.25239112e+00  8.13608601e-07  1.80000000e+00  8.13608601e-07  5.10796708e-06  8.13608601e-07  6.54745752e-01                                 
 8.60243346e-07  7.28513074e-01  8.60243346e-07  6.55343126e-01  8.60243346e-07  1.20386190e+00  8.60243346e-07  1.80000000e+00  8.60243346e-07  7.13982808e-06  8.60243346e-07  6.55343126e-01                                 
 9.11566957e-07  7.28290318e-01  9.11566957e-07  6.55136823e-01  9.11566957e-07  1.14947681e+00  9.11566957e-07  1.80000000e+00  9.11566957e-07  5.00879725e-06  9.11566957e-07  6.55136823e-01                                 
 9.68675234e-07  7.20225496e-01  9.68675234e-07  6.48539209e-01  9.68675234e-07  1.08453311e+00  9.68675234e-07  1.80000000e+00  9.68675234e-07  6.52219925e-06  9.68675234e-07  6.48539209e-01                                 
 9.77696522e-07  7.16118734e-01  9.77696522e-07  6.45085184e-01  9.77696522e-07  1.07189226e+00  9.77696522e-07  1.80000000e+00  9.77696522e-07  4.97072960e-06  9.77696522e-07  6.45085184e-01                                 
 9.95739098e-07  7.07286243e-01  9.95739098e-07  6.37515200e-01  9.95739098e-07  1.04666858e+00  9.95739098e-07  1.80000000e+00  9.95739098e-07  4.83259442e-06  9.95739098e-07  6.37515200e-01                                 
 1.03182425e-06  7.01691798e-01  1.03182425e-06  6.32582255e-01  1.03182425e-06  1.01001908e+00  1.03182425e-06  1.80000000e+00  1.03182425e-06  6.79535612e-06  1.03182425e-06  6.32582255e-01                                 
 1.09068641e-06  7.14107293e-01  1.09068641e-06  6.43342250e-01  1.09068641e-06  9.75723993e-01  1.09068641e-06  1.80000000e+00  1.09068641e-06  6.86637206e-06  1.09068641e-06  6.43342250e-01                                 
 1.16054221e-06  7.14816038e-01  1.16054221e-06  6.43967062e-01  1.16054221e-06  9.27869165e-01  1.16054221e-06  1.80000000e+00  1.16054221e-06  5.86946316e-06  1.16054221e-06  6.43967062e-01                                 
 1.23271228e-06  7.07746990e-01  1.23271228e-06  6.37888888e-01  1.23271228e-06  8.75388241e-01  1.23271228e-06  1.80000000e+00  1.23271228e-06  6.39816050e-06  1.23271228e-06  6.37888888e-01                                 
 1.35728570e-06  7.12643840e-01  1.35728570e-06  6.42103177e-01  1.35728570e-06  8.04677411e-01  1.35728570e-06  1.80000000e+00  1.35728570e-06  6.63958187e-06  1.35728570e-06  6.42103177e-01                                 
 1.48320861e-06  7.12443701e-01  1.48320861e-06  6.41938574e-01  1.48320861e-06  7.33098157e-01  1.48320861e-06  1.80000000e+00  1.48320861e-06  6.27557242e-06  1.48320861e-06  6.41938574e-01                                 
 1.66354138e-06  7.09394797e-01  1.66354138e-06  6.39314135e-01  1.66354138e-06  6.59767138e-01  1.66354138e-06  1.80000000e+00  1.66354138e-06  6.77758183e-06  1.66354138e-06  6.39314135e-01                                 
 1.88561100e-06  7.13767177e-01  1.88561100e-06  6.43064317e-01  1.88561100e-06  6.30610545e-01  1.88561100e-06  1.80000000e+00  1.88561100e-06  6.68085219e-06  1.88561100e-06  6.43064317e-01                                 
 2.09745036e-06  7.09109393e-01  2.09745036e-06  6.39072044e-01  2.09745036e-06  6.38065093e-01  2.09745036e-06  1.80000000e+00  2.09745036e-06  6.74586016e-06  2.09745036e-06  6.39072044e-01                                 
 2.27510335e-06  7.13103851e-01  2.27510335e-06  6.42494392e-01  2.27510335e-06  6.46929196e-01  2.27510335e-06  1.80000000e+00  2.27510335e-06  6.86991819e-06  2.27510335e-06  6.42494392e-01                                 
 2.47267085e-06  7.10495018e-01  2.47267085e-06  6.40270076e-01  2.47267085e-06  6.36700228e-01  2.47267085e-06  1.80000000e+00  2.47267085e-06  6.52035227e-06  2.47267085e-06  6.40270076e-01                                 
 2.68781900e-06  7.11605903e-01  2.68781900e-06  6.41211142e-01  2.68781900e-06  6.43034968e-01  2.68781900e-06  1.80000000e+00  2.68781900e-06  7.01052420e-06  2.68781900e-06  6.41211142e-01                                 
 2.90735443e-06  7.11905851e-01  2.90735443e-06  6.41481307e-01  2.90735443e-06  6.41121800e-01  2.90735443e-06  1.80000000e+00  2.90735443e-06  6.47303325e-06  2.90735443e-06  6.41481307e-01                                 
 3.17878944e-06  7.10550734e-01  3.17878944e-06  6.40305658e-01  3.17878944e-06  6.40509684e-01  3.17878944e-06  1.80000000e+00  3.17878944e-06  6.99084068e-06  3.17878944e-06  6.40305658e-01                                 
 3.58116911e-06  7.12479347e-01  3.58116911e-06  6.41971001e-01  3.58116911e-06  6.42348209e-01  3.58116911e-06  1.80000000e+00  3.58116911e-06  6.51778295e-06  3.58116911e-06  6.41971001e-01                                 
 4.19280892e-06  7.10269846e-01  4.19280892e-06  6.40064851e-01  4.19280892e-06  6.39957670e-01  4.19280892e-06  1.80000000e+00  4.19280892e-06  6.95009184e-06  4.19280892e-06  6.40064851e-01                                 
 5.02433440e-06  7.12604408e-01  5.02433440e-06  6.42077228e-01  5.02433440e-06  6.42601783e-01  5.02433440e-06  1.80000000e+00  5.02433440e-06  6.54946735e-06  5.02433440e-06  6.42077228e-01                                 
 6.02433440e-06  7.10200654e-01  6.02433440e-06  6.40005839e-01  6.02433440e-06  6.39813461e-01  6.02433440e-06  1.80000000e+00  6.02433440e-06  6.92417340e-06  6.02433440e-06  6.40005839e-01                                 
 7.02433440e-06  7.12639984e-01  7.02433440e-06  6.42107122e-01  7.02433440e-06  6.42691342e-01  7.02433440e-06  1.80000000e+00  7.02433440e-06  6.57366739e-06  7.02433440e-06  6.42107122e-01                                 
 8.02433440e-06  7.10185070e-01  8.02433440e-06  6.39992950e-01  8.02433440e-06  6.39756747e-01  8.02433440e-06  1.80000000e+00  8.02433440e-06  6.89963614e-06  8.02433440e-06  6.39992950e-01                                 
 9.02433440e-06  7.12634687e-01  9.02433440e-06  6.42102082e-01  9.02433440e-06  6.42718660e-01  9.02433440e-06  1.80000000e+00  9.02433440e-06  6.59832411e-06  9.02433440e-06  6.42102082e-01                                 
 1.00005000e-05  7.10211710e-01  1.00005000e-05  6.40016423e-01  1.00005000e-05  6.39756968e-01  1.00005000e-05  1.80000000e+00  1.00005000e-05  6.87478076e-06  1.00005000e-05  6.40016423e-01                                 
 1.00005500e-05  7.10213844e-01  1.00005500e-05  6.40018292e-01  1.00005500e-05  6.32948757e-01  1.00005500e-05  1.62000000e+00  1.00005500e-05 -1.23378805e-04  1.00005500e-05  6.40018292e-01                                 
 1.00006500e-05  7.10217772e-01  1.00006500e-05  6.40021869e-01  1.00006500e-05  6.21486368e-01  1.00006500e-05  1.26000000e+00  1.00006500e-05 -9.74224928e-05  1.00006500e-05  6.40021869e-01                                 
 1.00008500e-05  7.10224807e-01  1.00008500e-05  6.40028353e-01  1.00008500e-05  6.12552550e-01  1.00008500e-05  5.40000000e-01  1.00008500e-05  1.62088187e-02  1.00008500e-05  6.40028353e-01                                 
 1.00010000e-05  7.10229644e-01  1.00010000e-05  6.40032750e-01  1.00010000e-05  6.75701332e-01  1.00010000e-05  0.00000000e+00  1.00010000e-05  1.54216472e+00  1.00010000e-05  6.40032750e-01                                 
 1.00010249e-05  7.10230389e-01  1.00010249e-05  6.40033438e-01  1.00010249e-05  6.99294579e-01  1.00010249e-05  0.00000000e+00  1.00010249e-05  1.70284933e+00  1.00010249e-05  6.40033438e-01                                 
 1.00010748e-05  7.10231850e-01  1.00010748e-05  6.40034788e-01  1.00010748e-05  7.41355798e-01  1.00010748e-05  0.00000000e+00  1.00010748e-05  1.82190623e+00  1.00010748e-05  6.40034788e-01                                 
 1.00011745e-05  7.10234668e-01  1.00011745e-05  6.40037366e-01  1.00011745e-05  7.87478223e-01  1.00011745e-05  0.00000000e+00  1.00011745e-05  1.78828566e+00  1.00011745e-05  6.40037366e-01                                 
 1.00012888e-05  7.10237789e-01  1.00012888e-05  6.40040194e-01  1.00012888e-05  8.05464068e-01  1.00012888e-05  0.00000000e+00  1.00012888e-05  1.80644133e+00  1.00012888e-05  6.40040194e-01                                 
