 time            v(vbep)         time            v(vben)         time            v(vout)         time            v(vphi1)        time            v(vphi2)        time            v(vref)         time            v(voutc)        time            v(voutcc)       yes             currtemp       
 0.00000000e+00  7.20576199e-01  0.00000000e+00  6.54764747e-01  0.00000000e+00  1.49690805e+00  0.00000000e+00  0.00000000e+00  0.00000000e+00  1.79999999e+00  0.00000000e+00  6.55587213e-01  0.00000000e+00  1.49690804e+00  0.00000000e+00  1.50432296e+00  1.00000000e+00  6.20000000e+01 
 1.00000000e-11  7.20601305e-01  1.00000000e-11  6.54837227e-01  1.00000000e-11  1.49767470e+00  1.00000000e-11  1.80000000e-02  1.00000000e-11  1.80025379e+00  1.00000000e-11  6.56121580e-01  1.00000000e-11  1.49737976e+00  1.00000000e-11  1.50433691e+00                                 
 2.00000000e-11  7.20608135e-01  2.00000000e-11  6.54882113e-01  2.00000000e-11  1.49813533e+00  2.00000000e-11  3.60000000e-02  2.00000000e-11  1.80035311e+00  2.00000000e-11  6.56516705e-01  2.00000000e-11  1.49773389e+00  2.00000000e-11  1.50434192e+00                                 
 4.00000000e-11  7.20608126e-01  4.00000000e-11  6.54940811e-01  4.00000000e-11  1.49867699e+00  4.00000000e-11  7.20000000e-02  4.00000000e-11  1.80038942e+00  4.00000000e-11  6.57093960e-01  4.00000000e-11  1.49825873e+00  4.00000000e-11  1.50434333e+00                                 
 8.00000000e-11  7.20596529e-01  8.00000000e-11  6.54977689e-01  8.00000000e-11  1.49875629e+00  8.00000000e-11  1.44000000e-01  8.00000000e-11  1.80018375e+00  8.00000000e-11  6.57543291e-01  8.00000000e-11  1.49867861e+00  8.00000000e-11  1.50433285e+00                                 
 1.60000000e-10  7.20593797e-01  1.60000000e-10  6.54987576e-01  1.60000000e-10  1.49841863e+00  1.60000000e-10  2.88000000e-01  1.60000000e-10  1.80000582e+00  1.60000000e-10  6.57637100e-01  1.60000000e-10  1.49872291e+00  1.60000000e-10  1.50432363e+00                                 
 3.20000000e-10  7.20589201e-01  3.20000000e-10  6.54978421e-01  3.20000000e-10  1.49803139e+00  3.20000000e-10  5.76000000e-01  3.20000000e-10  1.79998179e+00  3.20000000e-10  6.57471575e-01  3.20000000e-10  1.49837429e+00  3.20000000e-10  1.50431853e+00                                 
 6.40000000e-10  7.20506142e-01  6.40000000e-10  6.54551633e-01  6.40000000e-10  1.49634201e+00  6.40000000e-10  1.15200000e+00  6.40000000e-10  1.80980823e+00  6.40000000e-10  6.54690886e-01  6.40000000e-10  1.50217019e+00  6.40000000e-10  1.50434374e+00                                 
 1.00000000e-09  7.21076880e-01  1.00000000e-09  6.54935473e-01  1.00000000e-09  1.47568024e+00  1.00000000e-09  1.80000000e+00  1.00000000e-09  1.02886802e-01  1.00000000e-09  6.70167909e-01  1.00000000e-09  1.50713590e+00  1.00000000e-09  1.50434258e+00                                 
 1.03715293e-09  7.21148194e-01  1.03715293e-09  6.54949060e-01  1.03715293e-09  1.47427391e+00  1.03715293e-09  1.80000000e+00  1.03715293e-09  2.41141908e-02  1.03715293e-09  6.73390587e-01  1.03715293e-09  1.50892963e+00  1.03715293e-09  1.50436792e+00                                 
 1.11145880e-09  7.21315249e-01  1.11145880e-09  6.54988321e-01  1.11145880e-09  1.47244716e+00  1.11145880e-09  1.80000000e+00  1.11145880e-09 -1.12864323e-02  1.11145880e-09  6.77479579e-01  1.11145880e-09  1.51210777e+00  1.11145880e-09  1.50438339e+00                                 
 1.26007054e-09  7.21448860e-01  1.26007054e-09  6.54840877e-01  1.26007054e-09  1.46927809e+00  1.26007054e-09  1.80000000e+00  1.26007054e-09  8.96685137e-03  1.26007054e-09  6.77512252e-01  1.26007054e-09  1.51242076e+00  1.26007054e-09  1.50433550e+00                                 
 1.44637783e-09  7.21421267e-01  1.44637783e-09  6.54824002e-01  1.44637783e-09  1.46838955e+00  1.44637783e-09  1.80000000e+00  1.44637783e-09 -6.84305674e-03  1.44637783e-09  6.76566840e-01  1.44637783e-09  1.51139769e+00  1.44637783e-09  1.50437228e+00                                 
 1.65553787e-09  7.21320679e-01  1.65553787e-09  6.54821560e-01  1.65553787e-09  1.46808449e+00  1.65553787e-09  1.80000000e+00  1.65553787e-09  5.66941834e-03  1.65553787e-09  6.74957229e-01  1.65553787e-09  1.51020961e+00  1.65553787e-09  1.50440290e+00                                 
 2.00406683e-09  7.21072646e-01  2.00406683e-09  6.54777225e-01  2.00406683e-09  1.46770539e+00  2.00406683e-09  1.80000000e+00  2.00406683e-09 -5.05187368e-03  2.00406683e-09  6.72259758e-01  2.00406683e-09  1.50774370e+00  2.00406683e-09  1.50452784e+00                                 
 2.52001463e-09  7.20796853e-01  2.52001463e-09  6.54780652e-01  2.52001463e-09  1.46745322e+00  2.52001463e-09  1.80000000e+00  2.52001463e-09  4.59040234e-03  2.52001463e-09  6.68925388e-01  2.52001463e-09  1.50503579e+00  2.52001463e-09  1.50471187e+00                                 
 3.26289269e-09  7.20543666e-01  3.26289269e-09  6.54733904e-01  3.26289269e-09  1.46620697e+00  3.26289269e-09  1.80000000e+00  3.26289269e-09 -4.40679354e-03  3.26289269e-09  6.64507463e-01  3.26289269e-09  1.50112231e+00  3.26289269e-09  1.50497239e+00                                 
 4.45067070e-09  7.20402850e-01  4.45067070e-09  6.54750446e-01  4.45067070e-09  1.46392994e+00  4.45067070e-09  1.80000000e+00  4.45067070e-09  4.21052819e-03  4.45067070e-09  6.59851490e-01  4.45067070e-09  1.49727836e+00  4.45067070e-09  1.50523364e+00                                 
 6.07435020e-09  7.20358288e-01  6.07435020e-09  6.54724451e-01  6.07435020e-09  1.45886706e+00  6.07435020e-09  1.80000000e+00  6.07435020e-09 -4.13171661e-03  6.07435020e-09  6.55841856e-01  6.07435020e-09  1.49373580e+00  6.07435020e-09  1.50531616e+00                                 
 7.49199070e-09  7.20398951e-01  7.49199070e-09  6.54759427e-01  7.49199070e-09  1.45345846e+00  7.49199070e-09  1.80000000e+00  7.49199070e-09  4.00057117e-03  7.49199070e-09  6.54470512e-01  7.49199070e-09  1.49269308e+00  7.49199070e-09  1.50517903e+00                                 
 9.04684543e-09  7.20434746e-01  9.04684543e-09  6.54737130e-01  9.04684543e-09  1.44570638e+00  9.04684543e-09  1.80000000e+00  9.04684543e-09 -3.90429584e-03  9.04684543e-09  6.53448704e-01  9.04684543e-09  1.49169844e+00  9.04684543e-09  1.50492527e+00                                 
 1.04926996e-08  7.20487858e-01  1.04926996e-08  6.54770801e-01  1.04926996e-08  1.43791275e+00  1.04926996e-08  1.80000000e+00  1.04926996e-08  3.79245923e-03  1.04926996e-08  6.53415515e-01  1.04926996e-08  1.49178125e+00  1.04926996e-08  1.50463976e+00                                 
 1.26611373e-08  7.20524862e-01  1.26611373e-08  6.54746309e-01  1.26611373e-08  1.42439426e+00  1.26611373e-08  1.80000000e+00  1.26611373e-08 -3.72338155e-03  1.26611373e-08  6.53164258e-01  1.26611373e-08  1.49143667e+00  1.26611373e-08  1.50420890e+00                                 
 1.50811844e-08  7.20568433e-01  1.50811844e-08  6.54777959e-01  1.50811844e-08  1.40861672e+00  1.50811844e-08  1.80000000e+00  1.50811844e-08  3.66189116e-03  1.50811844e-08  6.53602834e-01  1.50811844e-08  1.49190567e+00  1.50811844e-08  1.50375318e+00                                 
 1.87198448e-08  7.20579014e-01  1.87198448e-08  6.54750482e-01  1.87198448e-08  1.38317618e+00  1.87198448e-08  1.80000000e+00  1.87198448e-08 -3.62024605e-03  1.87198448e-08  6.53747149e-01  1.87198448e-08  1.49189124e+00  1.87198448e-08  1.50316659e+00                                 
 2.32551321e-08  7.20595296e-01  2.32551321e-08  6.54780125e-01  2.32551321e-08  1.35113342e+00  2.32551321e-08  1.80000000e+00  2.32551321e-08  3.58947487e-03  2.32551321e-08  6.54409369e-01  2.32551321e-08  1.49254296e+00  2.32551321e-08  1.50258620e+00                                 
 3.13543088e-08  7.20580833e-01  3.13543088e-08  6.54751081e-01  3.13543088e-08  1.29271927e+00  3.13543088e-08  1.80000000e+00  3.13543088e-08 -3.57028801e-03  3.13543088e-08  6.54699228e-01  3.13543088e-08  1.49265341e+00  3.13543088e-08  1.50187624e+00                                 
 4.41296689e-08  7.20585631e-01  4.41296689e-08  6.54779753e-01  4.41296689e-08  1.20109406e+00  4.41296689e-08  1.80000000e+00  4.41296689e-08  3.56022116e-03  4.41296689e-08  6.55382802e-01  4.41296689e-08  1.49332916e+00  4.41296689e-08  1.50127975e+00                                 
 6.96803891e-08  7.20571047e-01  6.96803891e-08  6.54750234e-01  6.96803891e-08  1.01861543e+00  6.96803891e-08  1.80000000e+00  6.96803891e-08 -3.55304615e-03  6.96803891e-08  6.55433555e-01  6.96803891e-08  1.49325568e+00  6.96803891e-08  1.50089476e+00                                 
 1.01147051e-07  7.20580675e-01  1.01147051e-07  6.54779201e-01  1.01147051e-07  8.03543653e-01  1.01147051e-07  1.80000000e+00  1.01147051e-07  3.55208755e-03  1.01147051e-07  6.55702549e-01  1.01147051e-07  1.49359480e+00  1.01147051e-07  1.50085459e+00                                 
 1.30089580e-07  7.20575953e-01  1.30089580e-07  6.54750453e-01  1.30089580e-07  6.80691479e-01  1.30089580e-07  1.80000000e+00  1.30089580e-07 -3.53649380e-03  1.30089580e-07  6.55470258e-01  1.30089580e-07  1.49328614e+00  1.30089580e-07  1.50085881e+00                                 
 1.55723216e-07  7.20574824e-01  1.55723216e-07  6.54779152e-01  1.55723216e-07  6.58195099e-01  1.55723216e-07  1.80000000e+00  1.55723216e-07  3.54717640e-03  1.55723216e-07  6.55712152e-01  1.55723216e-07  1.49360108e+00  1.55723216e-07  1.50086086e+00                                 
 1.74011760e-07  7.20574745e-01  1.74011760e-07  6.54750105e-01  1.74011760e-07  6.56790265e-01  1.74011760e-07  1.80000000e+00  1.74011760e-07 -3.52243930e-03  1.74011760e-07  6.55466582e-01  1.74011760e-07  1.49328187e+00  1.74011760e-07  1.50086171e+00                                 
 1.94470791e-07  7.20578013e-01  1.94470791e-07  6.54779374e-01  1.94470791e-07  6.56558898e-01  1.94470791e-07  1.80000000e+00  1.94470791e-07  3.53291820e-03  1.94470791e-07  6.55708487e-01  1.94470791e-07  1.49359645e+00  1.94470791e-07  1.50085929e+00                                 
 2.26545835e-07  7.20573814e-01  2.26545835e-07  6.54750105e-01  2.26545835e-07  6.56375293e-01  2.26545835e-07  1.80000000e+00  2.26545835e-07 -3.51142198e-03  2.26545835e-07  6.55466246e-01  2.26545835e-07  1.49327999e+00  2.26545835e-07  1.50085855e+00                                 
 2.90695925e-07  7.20578804e-01  2.90695925e-07  6.54779375e-01  2.90695925e-07  6.56482601e-01  2.90695925e-07  1.80000000e+00  2.90695925e-07  3.52647395e-03  2.90695925e-07  6.55708092e-01  2.90695925e-07  1.49359288e+00  2.90695925e-07  1.50085518e+00                                 
 4.18996103e-07  7.20573489e-01  4.18996103e-07  6.54750110e-01  4.18996103e-07  6.56373540e-01  4.18996103e-07  1.80000000e+00  4.18996103e-07 -3.50821373e-03  4.18996103e-07  6.55466308e-01  4.18996103e-07  1.49327386e+00  4.18996103e-07  1.50085198e+00                                 
 6.70833232e-07  7.20578961e-01  6.70833232e-07  6.54779372e-01  6.70833232e-07  6.56483508e-01  6.70833232e-07  1.80000000e+00  6.70833232e-07  3.52485443e-03  6.70833232e-07  6.55708066e-01  6.70833232e-07  1.49358053e+00  6.70833232e-07  1.50084293e+00                                 
 1.17450749e-06  7.20573411e-01  1.17450749e-06  6.54750112e-01  1.17450749e-06  6.56372873e-01  1.17450749e-06  1.80000000e+00  1.17450749e-06 -3.50739954e-03  1.17450749e-06  6.55466320e-01  1.17450749e-06  1.49324943e+00  1.17450749e-06  1.50082755e+00                                 
 2.18185601e-06  7.20579000e-01  2.18185601e-06  6.54779372e-01  2.18185601e-06  6.56483785e-01  2.18185601e-06  1.80000000e+00  2.18185601e-06  3.52444457e-03  2.18185601e-06  6.55708060e-01  2.18185601e-06  1.49353162e+00  2.18185601e-06  1.50079410e+00                                 
 3.38185601e-06  7.20573387e-01  3.38185601e-06  6.54750113e-01  3.38185601e-06  6.56372653e-01  3.38185601e-06  1.80000000e+00  3.38185601e-06 -3.50716429e-03  3.38185601e-06  6.55466323e-01  3.38185601e-06  1.49317800e+00  3.38185601e-06  1.50075619e+00                                 
 4.58185601e-06  7.20579022e-01  4.58185601e-06  6.54779371e-01  4.58185601e-06  6.56483936e-01  4.58185601e-06  1.80000000e+00  4.58185601e-06  3.52421599e-03  4.58185601e-06  6.55708057e-01  4.58185601e-06  1.49345395e+00  4.58185601e-06  1.50071653e+00                                 
 5.78185601e-06  7.20573366e-01  5.78185601e-06  6.54750113e-01  5.78185601e-06  6.56372457e-01  5.78185601e-06  1.80000000e+00  5.78185601e-06 -3.50693821e-03  5.78185601e-06  6.55466327e-01  5.78185601e-06  1.49310039e+00  5.78185601e-06  1.50067868e+00                                 
 6.00100000e-06  7.20579090e-01  6.00100000e-06  6.54779369e-01  6.00100000e-06  6.56484480e-01  6.00100000e-06  1.80000000e+00  6.00100000e-06  3.52347361e-03  6.00100000e-06  6.55708048e-01  6.00100000e-06  1.49340805e+00  6.00100000e-06  1.50067072e+00                                 
 6.00110000e-06  7.20525999e-01  6.00110000e-06  6.54527144e-01  6.00110000e-06  6.54630029e-01  6.00110000e-06  1.62000000e+00  6.00110000e-06  2.14785251e-04  6.00110000e-06  6.54034244e-01  6.00110000e-06  1.49192784e+00  6.00110000e-06  1.50066004e+00                                 
 6.00130000e-06  7.20558881e-01  6.00130000e-06  6.54523514e-01  6.00130000e-06  6.54702252e-01  6.00130000e-06  1.26000000e+00  6.00130000e-06 -2.48915464e-04  6.00130000e-06  6.53784216e-01  6.00130000e-06  1.49170801e+00  6.00130000e-06  1.50067620e+00                                 
 6.00165496e-06  7.20624220e-01  6.00165496e-06  6.54721123e-01  6.00165496e-06  6.56701045e-01  6.00165496e-06  6.21064989e-01  6.00165496e-06  5.72452748e-03  6.00165496e-06  6.54105168e-01  6.00165496e-06  1.48867280e+00  6.00165496e-06  1.50065253e+00                                 
 6.00200000e-06  7.20561110e-01  6.00200000e-06  6.53318955e-01  6.00200000e-06  6.88944971e-01  6.00200000e-06  0.00000000e+00  6.00200000e-06  1.60292854e+00  6.00200000e-06  6.39329459e-01  6.00200000e-06  1.29395828e+00  6.00200000e-06  1.50007635e+00                                 
 6.00204118e-06  7.20576715e-01  6.00204118e-06  6.52835001e-01  6.00204118e-06  6.95844169e-01  6.00204118e-06  0.00000000e+00  6.00204118e-06  1.72333097e+00  6.00204118e-06  6.33834018e-01  6.00204118e-06  1.23127679e+00  6.00204118e-06  1.50008219e+00                                 
 6.00212353e-06  7.20578086e-01  6.00212353e-06  6.51993410e-01  6.00212353e-06  7.00941661e-01  6.00212353e-06  0.00000000e+00  6.00212353e-06  1.81323114e+00  6.00212353e-06  6.24504907e-01  6.00212353e-06  1.10228262e+00  6.00212353e-06  1.50045616e+00                                 
 6.00228824e-06  7.20573685e-01  6.00228824e-06  6.51877669e-01  6.00228824e-06  6.91844820e-01  6.00228824e-06  0.00000000e+00  6.00228824e-06  1.78947380e+00  6.00228824e-06  6.23984909e-01  6.00228824e-06  8.98211705e-01  6.00228824e-06  1.50093603e+00                                 
 6.00244755e-06  7.20576290e-01  6.00244755e-06  6.52583662e-01  6.00244755e-06  6.82730503e-01  6.00244755e-06  0.00000000e+00  6.00244755e-06  1.80380624e+00  6.00244755e-06  6.31964228e-01  6.00244755e-06  7.79690680e-01  6.00244755e-06  1.50092270e+00                                 
 6.00262978e-06  7.20573111e-01  6.00262978e-06  6.53486937e-01  6.00262978e-06  6.70484581e-01  6.00262978e-06  0.00000000e+00  6.00262978e-06  1.79690203e+00  6.00262978e-06  6.40958651e-01  6.00262978e-06  7.05476835e-01  6.00262978e-06  1.50112713e+00                                 
 6.00285450e-06  7.20576182e-01  6.00285450e-06  6.54468433e-01  6.00285450e-06  6.61632692e-01  6.00285450e-06  0.00000000e+00  6.00285450e-06  1.80188836e+00  6.00285450e-06  6.50260491e-01  6.00285450e-06  6.72735322e-01  6.00285450e-06  1.50081502e+00                                 
 6.00310942e-06  7.20573685e-01  6.00310942e-06  6.54928701e-01  6.00310942e-06  6.58453412e-01  6.00310942e-06  0.00000000e+00  6.00310942e-06  1.79879825e+00  6.00310942e-06  6.53706473e-01  6.00310942e-06  6.60857386e-01  6.00310942e-06  1.50009763e+00                                 
 6.00334365e-06  7.20576495e-01  6.00334365e-06  6.55170896e-01  6.00334365e-06  6.57395022e-01  6.00334365e-06  0.00000000e+00  6.00334365e-06  1.80084622e+00  6.00334365e-06  6.55750030e-01  6.00334365e-06  6.58732403e-01  6.00334365e-06  1.49904334e+00                                 
 6.00372265e-06  7.20574421e-01  6.00372265e-06  6.55226918e-01  6.00372265e-06  6.57911408e-01  6.00372265e-06  0.00000000e+00  6.00372265e-06  1.79938581e+00  6.00372265e-06  6.56132864e-01  6.00372265e-06  6.57495666e-01  6.00372265e-06  1.49717434e+00                                 
 6.00426903e-06  7.20576931e-01  6.00426903e-06  6.55249347e-01  6.00426903e-06  6.58876584e-01  6.00426903e-06  0.00000000e+00  6.00426903e-06  1.80053850e+00  6.00426903e-06  6.56858678e-01  6.00426903e-06  6.58959688e-01  6.00426903e-06  1.49407139e+00                                 
 6.00532540e-06  7.20574985e-01  6.00532540e-06  6.55142688e-01  6.00532540e-06  6.62041922e-01  6.00532540e-06  0.00000000e+00  6.00532540e-06  1.79953576e+00  6.00532540e-06  6.56659667e-01  6.00532540e-06  6.61405282e-01  6.00532540e-06  1.48771515e+00                                 
 6.00704021e-06  7.20577203e-01  6.00704021e-06  6.55050761e-01  6.00704021e-06  6.66751586e-01  6.00704021e-06  0.00000000e+00  6.00704021e-06  1.80046215e+00  6.00704021e-06  6.57029453e-01  6.00704021e-06  6.66728298e-01  6.00704021e-06  1.47671838e+00                                 
 6.01046982e-06  7.20575147e-01  6.01046982e-06  6.54838825e-01  6.01046982e-06  6.77002396e-01  6.01046982e-06  0.00000000e+00  6.01046982e-06  1.79957516e+00  6.01046982e-06  6.56505347e-01  6.01046982e-06  6.76317989e-01  6.01046982e-06  1.45394164e+00                                 
 6.01732904e-06  7.20577238e-01  6.01732904e-06  6.54752338e-01  6.01732904e-06  6.96206044e-01  6.01732904e-06  0.00000000e+00  6.01732904e-06  1.80044196e+00  6.01732904e-06  6.56483644e-01  6.01732904e-06  6.96171612e-01  6.01732904e-06  1.40676043e+00                                 
 6.03104748e-06  7.20575157e-01  6.03104748e-06  6.54742036e-01  6.03104748e-06  7.33550805e-01  6.03104748e-06  0.00000000e+00  6.03104748e-06  1.79958370e+00  6.03104748e-06  6.55696649e-01  6.03104748e-06  7.32749897e-01  6.03104748e-06  1.31719404e+00                                 
 6.04537038e-06  7.20577237e-01  6.04537038e-06  6.54774111e-01  6.04537038e-06  7.69434080e-01  6.04537038e-06  0.00000000e+00  6.04537038e-06  1.80043445e+00  6.04537038e-06  6.55852343e-01  6.04537038e-06  7.69440765e-01  6.04537038e-06  1.23353576e+00                                 
 6.07401620e-06  7.20575162e-01  6.07401620e-06  6.54751263e-01  6.07401620e-06  8.34775063e-01  6.07401620e-06  0.00000000e+00  6.07401620e-06  1.79958568e+00  6.07401620e-06  6.55410861e-01  6.07401620e-06  8.33523820e-01  6.07401620e-06  1.08747223e+00                                 
 6.11324733e-06  7.20577235e-01  6.11324733e-06  6.54778330e-01  6.11324733e-06  9.09469052e-01  6.11324733e-06  0.00000000e+00  6.11324733e-06  1.80042842e+00  6.11324733e-06  6.55747671e-01  6.11324733e-06  9.09702743e-01  6.11324733e-06  9.60283385e-01                                 
 6.17693136e-06  7.20575163e-01  6.17693136e-06  6.54751090e-01  6.17693136e-06  1.00263946e+00  6.17693136e-06  0.00000000e+00  6.17693136e-06  1.79958269e+00  6.17693136e-06  6.55408128e-01  6.17693136e-06  1.00021813e+00  6.17693136e-06  9.60002521e-01                                 
 6.22082361e-06  7.20577234e-01  6.22082361e-06  6.54778621e-01  6.22082361e-06  1.04927556e+00  6.22082361e-06  0.00000000e+00  6.22082361e-06  1.80042349e+00  6.22082361e-06  6.55756124e-01  6.22082361e-06  1.05014417e+00  6.22082361e-06  1.02673829e+00                                 
