 time            v(vbep)         time            v(vben)         time            v(vout)         time            v(vphi1)        time            v(vphi2)        time            v(vref)         yes             currtemp       
 0.00000000e+00  6.53338849e-01  0.00000000e+00  5.95375156e-01  0.00000000e+00  7.19833599e-01  0.00000000e+00  0.00000000e+00  0.00000000e+00  1.79995995e+00  0.00000000e+00  5.00000000e-01  1.00000000e+00  4.40000000e+01 
 5.00000000e-12  6.53312255e-01  5.00000000e-12  5.95353103e-01  5.00000000e-12  7.20505566e-01  5.00000000e-12  1.80000000e-02  5.00000000e-12  1.80005798e+00  5.00000000e-12  5.00000000e-01                                 
 1.00000000e-11  6.53286283e-01  1.00000000e-11  5.95331599e-01  1.00000000e-11  7.21105347e-01  1.00000000e-11  3.60000000e-02  1.00000000e-11  1.80010808e+00  1.00000000e-11  5.00000000e-01                                 
 2.00000000e-11  6.53234703e-01  2.00000000e-11  5.95288746e-01  2.00000000e-11  7.22187605e-01  2.00000000e-11  7.20000000e-02  2.00000000e-11  1.80015384e+00  2.00000000e-11  5.00000000e-01                                 
 4.00000000e-11  6.53132173e-01  4.00000000e-11  5.95203351e-01  4.00000000e-11  7.23839045e-01  4.00000000e-11  1.44000000e-01  4.00000000e-11  1.80012629e+00  4.00000000e-11  5.00000000e-01                                 
 8.00000000e-11  6.52928037e-01  8.00000000e-11  5.95033255e-01  8.00000000e-11  7.25907724e-01  8.00000000e-11  2.88000000e-01  8.00000000e-11  1.80006807e+00  8.00000000e-11  5.00000000e-01                                 
 1.60000000e-10  6.52523714e-01  1.60000000e-10  5.94695823e-01  1.60000000e-10  7.28014198e-01  1.60000000e-10  5.76000000e-01  1.60000000e-10  1.80002177e+00  1.60000000e-10  5.00000000e-01                                 
 3.20000000e-10  6.51729990e-01  3.20000000e-10  5.94031616e-01  3.20000000e-10  7.20522821e-01  3.20000000e-10  1.15200000e+00  3.20000000e-10  1.80033034e+00  3.20000000e-10  5.00000000e-01                                 
 5.00000000e-10  6.50860079e-01  5.00000000e-10  5.93300825e-01  5.00000000e-10  9.01238522e-01  5.00000000e-10  1.80000000e+00  5.00000000e-10  1.19999929e-01  5.00000000e-10  5.00000000e-01                                 
 5.21741578e-10  6.50756785e-01  5.21741578e-10  5.93213838e-01  5.21741578e-10  9.43123700e-01  5.21741578e-10  1.80000000e+00  5.21741578e-10  2.38194855e-02  5.21741578e-10  5.00000000e-01                                 
 5.65224735e-10  6.50550851e-01  5.65224735e-10  5.93040327e-01  5.65224735e-10  1.02144966e+00  5.65224735e-10  1.80000000e+00  5.65224735e-10 -1.11223511e-02  5.65224735e-10  5.00000000e-01                                 
 6.52191049e-10  6.50142944e-01  6.52191049e-10  5.92696167e-01  6.52191049e-10  1.15748540e+00  6.52191049e-10  1.80000000e+00  6.52191049e-10  9.22349078e-03  6.52191049e-10  5.00000000e-01                                 
 7.74533785e-10  6.49577851e-01  7.74533785e-10  5.92218344e-01  7.74533785e-10  1.32286091e+00  7.74533785e-10  1.80000000e+00  7.74533785e-10 -8.00494680e-03  7.74533785e-10  5.00000000e-01                                 
 9.67418704e-10  6.48706870e-01  9.67418704e-10  5.91479534e-01  9.67418704e-10  1.53226995e+00  9.67418704e-10  1.80000000e+00  9.67418704e-10  7.49953398e-03  9.67418704e-10  5.00000000e-01                                 
 1.35318854e-09  6.47033246e-01  1.35318854e-09  5.90052118e-01  1.35318854e-09  1.79127651e+00  1.35318854e-09  1.80000000e+00  1.35318854e-09 -7.08276391e-03  1.35318854e-09  5.00000000e-01                                 
 1.70962663e-09  6.45562471e-01  1.70962663e-09  5.88789235e-01  1.70962663e-09  1.89406185e+00  1.70962663e-09  1.80000000e+00  1.70962663e-09  6.88974229e-03  1.70962663e-09  5.00000000e-01                                 
 2.00064344e-09  6.44411047e-01  2.00064344e-09  5.87795132e-01  2.00064344e-09  1.92774247e+00  2.00064344e-09  1.80000000e+00  2.00064344e-09 -6.45674692e-03  2.00064344e-09  5.00000000e-01                                 
 2.33348234e-09  6.43144154e-01  2.33348234e-09  5.86695997e-01  2.33348234e-09  1.94368320e+00  2.33348234e-09  1.80000000e+00  2.33348234e-09  6.23473148e-03  2.33348234e-09  5.00000000e-01                                 
 2.74305388e-09  6.41652667e-01  2.74305388e-09  5.85395002e-01  2.74305388e-09  1.94973436e+00  2.74305388e-09  1.80000000e+00  2.74305388e-09 -5.95346176e-03  2.74305388e-09  5.00000000e-01                                 
 3.34264890e-09  6.39590208e-01  3.34264890e-09  5.83583910e-01  3.34264890e-09  1.95045554e+00  3.34264890e-09  1.80000000e+00  3.34264890e-09  5.85304774e-03  3.34264890e-09  5.00000000e-01                                 
 4.18350901e-09  6.36910487e-01  4.18350901e-09  5.81210662e-01  4.18350901e-09  1.94811507e+00  4.18350901e-09  1.80000000e+00  4.18350901e-09 -5.70782467e-03  4.18350901e-09  5.00000000e-01                                 
 5.57964524e-09  6.32913777e-01  5.57964524e-09  5.77631653e-01  5.57964524e-09  1.94426745e+00  5.57964524e-09  1.80000000e+00  5.57964524e-09  5.68620283e-03  5.57964524e-09  5.00000000e-01                                 
 8.33853669e-09  6.26245626e-01  8.33853669e-09  5.71567600e-01  8.33853669e-09  1.93702955e+00  8.33853669e-09  1.80000000e+00  8.33853669e-09 -5.61064342e-03  8.33853669e-09  5.00000000e-01                                 
 9.93021346e-09  6.22986401e-01  9.93021346e-09  5.68560860e-01  9.93021346e-09  1.93341783e+00  9.93021346e-09  1.80000000e+00  9.93021346e-09  5.59601580e-03  9.93021346e-09  5.00000000e-01                                 
 1.12433892e-08  6.20533315e-01  1.12433892e-08  5.66282893e-01  1.12433892e-08  1.93067778e+00  1.12433892e-08  1.80000000e+00  1.12433892e-08 -5.50033234e-03  1.12433892e-08  5.00000000e-01                                 
 1.27012982e-08  6.18013992e-01  1.27012982e-08  5.63931880e-01  1.27012982e-08  1.92786128e+00  1.27012982e-08  1.80000000e+00  1.27012982e-08  5.47363207e-03  1.27012982e-08  5.00000000e-01                                 
 1.47146740e-08  6.14824013e-01  1.47146740e-08  5.60940815e-01  1.47146740e-08  1.92409688e+00  1.47146740e-08  1.80000000e+00  1.47146740e-08 -5.40565804e-03  1.47146740e-08  5.00000000e-01                                 
 1.75130487e-08  6.10830936e-01  1.75130487e-08  5.57179266e-01  1.75130487e-08  1.91929750e+00  1.75130487e-08  1.80000000e+00  1.75130487e-08  5.40294267e-03  1.75130487e-08  5.00000000e-01                                 
 2.08539424e-08  6.06572896e-01  2.08539424e-08  5.53154314e-01  2.08539424e-08  1.91377478e+00  2.08539424e-08  1.80000000e+00  2.08539424e-08 -5.35317385e-03  2.08539424e-08  5.00000000e-01                                 
 2.60264738e-08  6.00734472e-01  2.60264738e-08  5.47630660e-01  2.60264738e-08  1.90508275e+00  2.60264738e-08  1.80000000e+00  2.60264738e-08  5.36314376e-03  2.60264738e-08  5.00000000e-01                                 
 3.32361521e-08  5.93658729e-01  3.32361521e-08  5.40949336e-01  3.32361521e-08  1.88989121e+00  3.32361521e-08  1.80000000e+00  3.32361521e-08 -5.32662105e-03  3.32361521e-08  5.00000000e-01                                 
 4.74551340e-08  5.81980702e-01  4.74551340e-08  5.29988695e-01  4.74551340e-08  1.85592003e+00  4.74551340e-08  1.80000000e+00  4.74551340e-08  5.34660579e-03  4.74551340e-08  5.00000000e-01                                 
 6.98620833e-08  5.67451887e-01  6.98620833e-08  5.16488986e-01  6.98620833e-08  1.81068884e+00  6.98620833e-08  1.80000000e+00  6.98620833e-08 -5.31725854e-03  6.98620833e-08  5.00000000e-01                                 
 9.06571372e-08  5.58115420e-01  9.06571372e-08  5.07714284e-01  9.06571372e-08  1.77226293e+00  9.06571372e-08  1.80000000e+00  9.06571372e-08  5.33941612e-03  9.06571372e-08  5.00000000e-01                                 
 1.15986606e-07  5.59103597e-01  1.15986606e-07  5.07110765e-01  1.15986606e-07  1.76734963e+00  1.15986606e-07  1.80000000e+00  1.15986606e-07 -5.30980022e-03  1.15986606e-07  5.00000000e-01                                 
 1.36787493e-07  5.59249597e-01  1.36787493e-07  5.06270830e-01  1.36787493e-07  1.74983584e+00  1.36787493e-07  1.80000000e+00  1.36787493e-07  5.33233674e-03  1.36787493e-07  5.00000000e-01                                 
 1.58299758e-07  5.53487642e-01  1.58299758e-07  5.00865061e-01  1.58299758e-07  1.72153601e+00  1.58299758e-07  1.80000000e+00  1.58299758e-07 -5.30257968e-03  1.58299758e-07  5.00000000e-01                                 
 1.77020048e-07  5.50552751e-01  1.77020048e-07  4.97886544e-01  1.77020048e-07  1.70058865e+00  1.77020048e-07  1.80000000e+00  1.77020048e-07  5.32449263e-03  1.77020048e-07  5.00000000e-01                                 
 1.96589660e-07  5.46080666e-01  1.96589660e-07  4.93729329e-01  1.96589660e-07  1.67705055e+00  1.96589660e-07  1.80000000e+00  1.96589660e-07 -5.29444086e-03  1.96589660e-07  5.00000000e-01                                 
 2.32976301e-07  5.35001381e-01  2.32976301e-07  4.83958170e-01  2.32976301e-07  1.63018785e+00  2.32976301e-07  1.80000000e+00  2.32976301e-07  5.31819208e-03  2.32976301e-07  5.00000000e-01                                 
 2.80739722e-07  5.21639701e-01  2.80739722e-07  4.72304119e-01  2.80739722e-07  1.56813104e+00  2.80739722e-07  1.80000000e+00  2.80739722e-07 -5.29062659e-03  2.80739722e-07  5.00000000e-01                                 
 3.39248317e-07  5.05112458e-01  3.39248317e-07  4.58195539e-01  3.39248317e-07  1.49292077e+00  3.39248317e-07  1.80000000e+00  3.39248317e-07  5.31519933e-03  3.39248317e-07  5.00000000e-01                                 
 4.56265508e-07  4.66350609e-01  4.56265508e-07  4.26156639e-01  4.56265508e-07  1.33215509e+00  4.56265508e-07  1.80000000e+00  4.56265508e-07 -5.28867066e-03  4.56265508e-07  5.00000000e-01                                 
 5.48120166e-07  4.25517522e-01  5.48120166e-07  3.93214649e-01  5.48120166e-07  1.19629201e+00  5.48120166e-07  1.80000000e+00  5.48120166e-07  5.31359072e-03  5.48120166e-07  5.00000000e-01                                 
 5.71083830e-07  4.18356070e-01  5.71083830e-07  3.87474884e-01  5.71083830e-07  1.16452300e+00  5.71083830e-07  1.80000000e+00  5.71083830e-07  1.96698902e-06  5.71083830e-07  5.00000000e-01                                 
 6.17011159e-07  4.66504102e-01  6.17011159e-07  4.25977994e-01  6.17011159e-07  1.16162125e+00  6.17011159e-07  1.80000000e+00  6.17011159e-07  1.43718028e-06  6.17011159e-07  5.00000000e-01                                 
 6.65717553e-07  7.04112563e-01  6.65717553e-07  6.43360806e-01  6.65717553e-07  1.33716625e+00  6.65717553e-07  1.80000000e+00  6.65717553e-07  6.48056288e-06  6.65717553e-07  5.00000000e-01                                 
 7.02677017e-07  7.60711379e-01  7.02677017e-07  6.97489662e-01  7.02677017e-07  1.35460571e+00  7.02677017e-07  1.80000000e+00  7.02677017e-07 -1.48216095e-06  7.02677017e-07  5.00000000e-01                                 
 7.37423393e-07  7.78250156e-01  7.37423393e-07  7.12224570e-01  7.37423393e-07  1.33193492e+00  7.37423393e-07  1.80000000e+00  7.37423393e-07  4.44094660e-06  7.37423393e-07  5.00000000e-01                                 
 7.74683800e-07  7.79457929e-01  7.74683800e-07  7.13330477e-01  7.74683800e-07  1.29629663e+00  7.74683800e-07  1.80000000e+00  7.74683800e-07 -1.71449461e-06  7.74683800e-07  5.00000000e-01                                 
 8.14407177e-07  7.78579729e-01  8.14407177e-07  7.12510361e-01  8.14407177e-07  1.25063745e+00  8.14407177e-07  1.80000000e+00  8.14407177e-07  3.99893792e-06  8.14407177e-07  5.00000000e-01                                 
 8.63407609e-07  7.78123548e-01  8.63407609e-07  7.12231982e-01  8.63407609e-07  1.20071085e+00  8.63407609e-07  1.80000000e+00  8.63407609e-07 -1.44614071e-06  8.63407609e-07  5.00000000e-01                                 
 9.19503188e-07  7.55867557e-01  9.19503188e-07  6.93140451e-01  9.19503188e-07  1.11741654e+00  9.19503188e-07  1.80000000e+00  9.19503188e-07  3.28465210e-06  9.19503188e-07  5.00000000e-01                                 
 9.77011052e-07  7.40391305e-01  9.77011052e-07  6.79280831e-01  9.77011052e-07  1.04504526e+00  9.77011052e-07  1.80000000e+00  9.77011052e-07 -1.17052665e-06  9.77011052e-07  5.00000000e-01                                 
 1.03630580e-06  7.59947007e-01  1.03630580e-06  6.96689847e-01  1.03630580e-06  1.00286761e+00  1.03630580e-06  1.80000000e+00  1.03630580e-06  4.06145751e-06  1.03630580e-06  5.00000000e-01                                 
 1.10917775e-06  7.70579128e-01  1.10917775e-06  7.05945930e-01  1.10917775e-06  9.52687633e-01  1.10917775e-06  1.80000000e+00  1.10917775e-06 -1.32623078e-06  1.10917775e-06  5.00000000e-01                                 
 1.18655504e-06  7.51603634e-01  1.18655504e-06  6.89331161e-01  1.18655504e-06  8.79536383e-01  1.18655504e-06  1.80000000e+00  1.18655504e-06  3.41031925e-06  1.18655504e-06  5.00000000e-01                                 
 1.26344217e-06  7.54391219e-01  1.26344217e-06  6.91900213e-01  1.26344217e-06  8.35857575e-01  1.26344217e-06  1.80000000e+00  1.26344217e-06 -8.70308574e-07  1.26344217e-06  5.00000000e-01                                 
 1.34569941e-06  7.67887691e-01  1.34569941e-06  7.03597607e-01  1.34569941e-06  7.97490385e-01  1.34569941e-06  1.80000000e+00  1.34569941e-06  3.55736119e-06  1.34569941e-06  5.00000000e-01                                 
 1.45100676e-06  7.55427796e-01  1.45100676e-06  6.92848588e-01  1.45100676e-06  7.28615686e-01  1.45100676e-06  1.80000000e+00  1.45100676e-06 -1.23806003e-06  1.45100676e-06  5.00000000e-01                                 
 1.55499539e-06  7.56954117e-01  1.55499539e-06  6.94082015e-01  1.55499539e-06  6.73321864e-01  1.55499539e-06  1.80000000e+00  1.55499539e-06  3.70244854e-06  1.55499539e-06  5.00000000e-01                                 
 1.67034704e-06  7.65089297e-01  1.67034704e-06  7.01262947e-01  1.67034704e-06  6.22837478e-01  1.67034704e-06  1.80000000e+00  1.67034704e-06 -1.11024409e-06  1.67034704e-06  5.00000000e-01                                 
 1.83273925e-06  7.53842347e-01  1.83273925e-06  6.91334553e-01  1.83273925e-06  5.42416848e-01  1.83273925e-06  1.80000000e+00  1.83273925e-06  3.46708368e-06  1.83273925e-06  5.00000000e-01                                 
 2.00680748e-06  7.62914583e-01  2.00680748e-06  6.99374868e-01  2.00680748e-06  5.09707580e-01  2.00680748e-06  1.80000000e+00  2.00680748e-06 -9.11646445e-07  2.00680748e-06  5.00000000e-01                                 
 2.03080665e-06  7.62585513e-01  2.03080665e-06  6.99069282e-01  2.03080665e-06  5.05858801e-01  2.03080665e-06  1.80000000e+00  2.03080665e-06  1.21109733e-06  2.03080665e-06  5.00000000e-01                                 
 2.07880500e-06  7.60006352e-01  2.07880500e-06  6.96824887e-01  2.07880500e-06  4.98483906e-01  2.07880500e-06  1.80000000e+00  2.07880500e-06  1.18140731e-06  2.07880500e-06  5.00000000e-01                                 
 2.17480169e-06  7.57722331e-01  2.17480169e-06  6.94815067e-01  2.17480169e-06  4.90345653e-01  2.17480169e-06  1.80000000e+00  2.17480169e-06  1.25096832e-06  2.17480169e-06  5.00000000e-01                                 
 2.28976724e-06  7.61389253e-01  2.28976724e-06  6.98025673e-01  2.28976724e-06  4.93564582e-01  2.28976724e-06  1.80000000e+00  2.28976724e-06  1.26512089e-06  2.28976724e-06  5.00000000e-01                                 
 2.31102061e-06  7.60807947e-01  2.31102061e-06  6.97522571e-01  2.31102061e-06  4.94936447e-01  2.31102061e-06  1.80000000e+00  2.31102061e-06  1.21821868e-06  2.31102061e-06  5.00000000e-01                                 
 2.35352734e-06  7.59398613e-01  2.35352734e-06  6.96291219e-01  2.35352734e-06  4.97238984e-01  2.35352734e-06  1.80000000e+00  2.35352734e-06  1.20199262e-06  2.35352734e-06  5.00000000e-01                                 
 2.43854080e-06  7.59023228e-01  2.43854080e-06  6.95958208e-01  2.43854080e-06  5.00207179e-01  2.43854080e-06  1.80000000e+00  2.43854080e-06  1.25598666e-06  2.43854080e-06  5.00000000e-01                                 
 2.58637883e-06  7.60374721e-01  2.58637883e-06  6.97143655e-01  2.58637883e-06  5.01081307e-01  2.58637883e-06  1.80000000e+00  2.58637883e-06  1.22575913e-06  2.58637883e-06  5.00000000e-01                                 
 2.83925678e-06  7.58948465e-01  2.83925678e-06  6.95894255e-01  2.83925678e-06  4.99271218e-01  2.83925678e-06  1.80000000e+00  2.83925678e-06  1.23385873e-06  2.83925678e-06  5.00000000e-01                                 
 3.29193967e-06  7.60236795e-01  3.29193967e-06  6.97022230e-01  3.29193967e-06  5.01033069e-01  3.29193967e-06  1.80000000e+00  3.29193967e-06  1.23825300e-06  3.29193967e-06  5.00000000e-01                                 
 3.93207184e-06  7.59090048e-01  3.93207184e-06  6.96019018e-01  3.93207184e-06  4.99442003e-01  3.93207184e-06  1.80000000e+00  3.93207184e-06  1.22706475e-06  3.93207184e-06  5.00000000e-01                                 
 4.93207184e-06  7.60127470e-01  4.93207184e-06  6.96926414e-01  4.93207184e-06  5.00882360e-01  4.93207184e-06  1.80000000e+00  4.93207184e-06  1.24238598e-06  4.93207184e-06  5.00000000e-01                                 
 5.93207184e-06  7.59185791e-01  5.93207184e-06  6.96103160e-01  5.93207184e-06  4.99574819e-01  5.93207184e-06  1.80000000e+00  5.93207184e-06  1.22418045e-06  5.93207184e-06  5.00000000e-01                                 
 6.93207184e-06  7.60028939e-01  6.93207184e-06  6.96840034e-01  6.93207184e-06  5.00741259e-01  6.93207184e-06  1.80000000e+00  6.93207184e-06  1.24498113e-06  6.93207184e-06  5.00000000e-01                                 
 7.93207184e-06  7.59289989e-01  7.93207184e-06  6.96194673e-01  7.93207184e-06  4.99721641e-01  7.93207184e-06  1.80000000e+00  7.93207184e-06  1.22188662e-06  7.93207184e-06  5.00000000e-01                                 
 8.93207184e-06  7.59924098e-01  8.93207184e-06  6.96748185e-01  8.93207184e-06  5.00591191e-01  8.93207184e-06  1.80000000e+00  8.93207184e-06  1.24696475e-06  8.93207184e-06  5.00000000e-01                                 
 9.93207184e-06  7.59398053e-01  9.93207184e-06  6.96289500e-01  9.93207184e-06  4.99873167e-01  9.93207184e-06  1.80000000e+00  9.93207184e-06  1.22021854e-06  9.93207184e-06  5.00000000e-01                                 
 1.00005000e-05  7.59306544e-01  1.00005000e-05  6.96207530e-01  1.00005000e-05  4.99754331e-01  1.00005000e-05  1.80000000e+00  1.00005000e-05  1.24549242e-06  1.00005000e-05  5.00000000e-01                                 
 1.00005500e-05  7.59307318e-01  1.00005500e-05  6.96208210e-01  1.00005500e-05  4.91925276e-01  1.00005500e-05  1.62000000e+00  1.00005500e-05 -7.89887702e-05  1.00005500e-05  5.00000000e-01                                 
 1.00006500e-05  7.59308888e-01  1.00006500e-05  6.96209578e-01  1.00006500e-05  4.78120029e-01  1.00006500e-05  1.26000000e+00  1.00006500e-05 -6.20941833e-05  1.00006500e-05  5.00000000e-01                                 
 1.00008500e-05  7.59312068e-01  1.00008500e-05  6.96212346e-01  1.00008500e-05  4.75913364e-01  1.00008500e-05  5.40000000e-01  1.00008500e-05 -3.87412867e-03  1.00008500e-05  5.00000000e-01                                 
 1.00010000e-05  7.59314364e-01  1.00010000e-05  6.96214374e-01  1.00010000e-05  4.37262950e-01  1.00010000e-05  0.00000000e+00  1.00010000e-05  1.57889098e+00  1.00010000e-05  5.00000000e-01                                 
 1.00010228e-05  7.59314670e-01  1.00010228e-05  6.96214657e-01  1.00010228e-05  4.11905461e-01  1.00010228e-05  0.00000000e+00  1.00010228e-05  1.71948301e+00  1.00010228e-05  5.00000000e-01                                 
