 time            v(vbep)         time            v(vben)         time            v(vout)         time            v(vphi1)        time            v(vphi2)        time            v(vref)         yes             currtemp       
 0.00000000e+00  5.83024293e-01  0.00000000e+00  5.19180292e-01  0.00000000e+00  1.71432512e-01  0.00000000e+00  0.00000000e+00  0.00000000e+00  1.79996787e+00  0.00000000e+00  5.00000000e-01  1.00000000e+00  7.70000000e+01 
 5.00000000e-12  5.83001226e-01  5.00000000e-12  5.19161151e-01  5.00000000e-12  1.72006957e-01  5.00000000e-12  1.80000000e-02  5.00000000e-12  1.80006812e+00  5.00000000e-12  5.00000000e-01                                 
 1.00000000e-11  5.82978571e-01  1.00000000e-11  5.19142449e-01  1.00000000e-11  1.72523759e-01  1.00000000e-11  3.60000000e-02  1.00000000e-11  1.80011763e+00  1.00000000e-11  5.00000000e-01                                 
 2.00000000e-11  5.82933487e-01  2.00000000e-11  5.19105161e-01  2.00000000e-11  1.73471750e-01  2.00000000e-11  7.20000000e-02  2.00000000e-11  1.80015956e+00  2.00000000e-11  5.00000000e-01                                 
 4.00000000e-11  5.82843711e-01  4.00000000e-11  5.19030812e-01  4.00000000e-11  1.74992249e-01  4.00000000e-11  1.44000000e-01  4.00000000e-11  1.80012080e+00  4.00000000e-11  5.00000000e-01                                 
 8.00000000e-11  5.82664822e-01  8.00000000e-11  5.18882600e-01  8.00000000e-11  1.77218837e-01  8.00000000e-11  2.88000000e-01  8.00000000e-11  1.80005631e+00  8.00000000e-11  5.00000000e-01                                 
 1.60000000e-10  5.82309818e-01  1.60000000e-10  5.18588090e-01  1.60000000e-10  1.80594017e-01  1.60000000e-10  5.76000000e-01  1.60000000e-10  1.80001466e+00  1.60000000e-10  5.00000000e-01                                 
 3.20000000e-10  5.81610370e-01  3.20000000e-10  5.18006480e-01  3.20000000e-10  2.01557030e-01  3.20000000e-10  1.15200000e+00  3.20000000e-10  1.80028193e+00  3.20000000e-10  5.00000000e-01                                 
 5.00000000e-10  5.80839838e-01  5.00000000e-10  5.17363639e-01  5.00000000e-10  4.68611158e-01  5.00000000e-10  1.80000000e+00  5.00000000e-10  1.35701517e-01  5.00000000e-10  5.00000000e-01                                 
 5.22580315e-10  5.80744509e-01  5.22580315e-10  5.17283938e-01  5.22580315e-10  5.24938433e-01  5.22580315e-10  1.80000000e+00  5.22580315e-10  2.87183230e-02  5.22580315e-10  5.00000000e-01                                 
 5.67740946e-10  5.80554362e-01  5.67740946e-10  5.17124896e-01  5.67740946e-10  6.27891448e-01  5.67740946e-10  1.80000000e+00  5.67740946e-10 -1.28920453e-02  5.67740946e-10  5.00000000e-01                                 
 6.58062208e-10  5.80177172e-01  6.58062208e-10  5.16809014e-01  6.58062208e-10  7.86949298e-01  6.58062208e-10  1.80000000e+00  6.58062208e-10  1.06917300e-02  6.58062208e-10  5.00000000e-01                                 
 7.81051377e-10  5.79670064e-01  7.81051377e-10  5.16383513e-01  7.81051377e-10  9.42089022e-01  7.81051377e-10  1.80000000e+00  7.81051377e-10 -8.92975608e-03  7.81051377e-10  5.00000000e-01                                 
 9.78049900e-10  5.78872889e-01  9.78049900e-10  5.15712750e-01  9.78049900e-10  1.12325752e+00  9.78049900e-10  1.80000000e+00  9.78049900e-10  8.36109486e-03  9.78049900e-10  5.00000000e-01                                 
 1.27908003e-09  5.77689069e-01  1.27908003e-09  5.14712477e-01  1.27908003e-09  1.31992811e+00  1.27908003e-09  1.80000000e+00  1.27908003e-09 -7.73759638e-03  1.27908003e-09  5.00000000e-01                                 
 1.73990713e-09  5.75951924e-01  1.73990713e-09  5.13235809e-01  1.73990713e-09  1.49053277e+00  1.73990713e-09  1.80000000e+00  1.73990713e-09  7.57117705e-03  1.73990713e-09  5.00000000e-01                                 
 2.14750806e-09  5.74485405e-01  2.14750806e-09  5.11981045e-01  2.14750806e-09  1.55363169e+00  2.14750806e-09  1.80000000e+00  2.14750806e-09 -7.13556021e-03  2.14750806e-09  5.00000000e-01                                 
 2.54328454e-09  5.73118711e-01  2.54328454e-09  5.10805185e-01  2.54328454e-09  1.57724499e+00  2.54328454e-09  1.80000000e+00  2.54328454e-09  6.92661925e-03  2.54328454e-09  5.00000000e-01                                 
 2.96387241e-09  5.71723208e-01  2.96387241e-09  5.09598244e-01  2.96387241e-09  1.58537150e+00  2.96387241e-09  1.80000000e+00  2.96387241e-09 -6.57768250e-03  2.96387241e-09  5.00000000e-01                                 
 3.40801468e-09  5.70308212e-01  3.40801468e-09  5.08368117e-01  3.40801468e-09  1.58691238e+00  3.40801468e-09  1.80000000e+00  3.40801468e-09  6.37914526e-03  3.40801468e-09  5.00000000e-01                                 
 3.93348687e-09  5.68705387e-01  3.93348687e-09  5.06967253e-01  3.93348687e-09  1.58547646e+00  3.93348687e-09  1.80000000e+00  3.93348687e-09 -6.12753077e-03  3.93348687e-09  5.00000000e-01                                 
 4.71925527e-09  5.66437982e-01  4.71925527e-09  5.04972640e-01  4.71925527e-09  1.58197812e+00  4.71925527e-09  1.80000000e+00  4.71925527e-09  6.03644421e-03  4.71925527e-09  5.00000000e-01                                 
 5.87637830e-09  5.63345032e-01  5.87637830e-09  5.02228685e-01  5.87637830e-09  1.57652098e+00  5.87637830e-09  1.80000000e+00  5.87637830e-09 -5.90685225e-03  5.87637830e-09  5.00000000e-01                                 
 8.19062437e-09  5.57858736e-01  8.19062437e-09  4.97303012e-01  8.19062437e-09  1.56720434e+00  8.19062437e-09  1.80000000e+00  8.19062437e-09  5.90335973e-03  8.19062437e-09  5.00000000e-01                                 
 1.28191165e-08  5.48853093e-01  1.28191165e-08  4.89081426e-01  1.28191165e-08  1.55146034e+00  1.28191165e-08  1.80000000e+00  1.28191165e-08 -5.84105164e-03  1.28191165e-08  5.00000000e-01                                 
 2.20761007e-08  5.35497524e-01  2.20761007e-08  4.76648035e-01  2.20761007e-08  1.51907498e+00  2.20761007e-08  1.80000000e+00  2.20761007e-08  5.87125233e-03  2.20761007e-08  5.00000000e-01                                 
 4.00033909e-08  5.19431008e-01  4.00033909e-08  4.61230860e-01  4.00033909e-08  1.43340643e+00  4.00033909e-08  1.80000000e+00  4.00033909e-08 -5.82416064e-03  4.00033909e-08  5.00000000e-01                                 
 6.33333918e-08  5.07525894e-01  6.33333918e-08  4.49369119e-01  6.33333918e-08  1.28572818e+00  6.33333918e-08  1.80000000e+00  6.33333918e-08  5.86188480e-03  6.33333918e-08  5.00000000e-01                                 
 9.18038277e-08  4.96811418e-01  9.18038277e-08  4.38762721e-01  9.18038277e-08  1.09922787e+00  9.18038277e-08  1.80000000e+00  9.18038277e-08 -5.81627164e-03  9.18038277e-08  5.00000000e-01                                 
 1.24331304e-07  4.87632160e-01  1.24331304e-07  4.29678907e-01  1.24331304e-07  9.22609250e-01  1.24331304e-07  1.80000000e+00  1.24331304e-07  5.85544965e-03  1.24331304e-07  5.00000000e-01                                 
 1.67694552e-07  4.77709996e-01  1.67694552e-07  4.19968148e-01  1.67694552e-07  7.79306768e-01  1.67694552e-07  1.80000000e+00  1.67694552e-07 -5.81091206e-03  1.67694552e-07  5.00000000e-01                                 
 2.22474087e-07  4.60664575e-01  2.22474087e-07  4.04699178e-01  2.22474087e-07  6.50862770e-01  2.22474087e-07  1.80000000e+00  2.22474087e-07  5.85126352e-03  2.22474087e-07  5.00000000e-01                                 
 2.80310057e-07  4.41529914e-01  2.80310057e-07  3.88139412e-01  2.80310057e-07  5.27537971e-01  2.80310057e-07  1.80000000e+00  2.80310057e-07 -5.80744693e-03  2.80310057e-07  5.00000000e-01                                 
 3.48057826e-07  4.20008623e-01  3.48057826e-07  3.69886124e-01  3.48057826e-07  4.61522859e-01  3.48057826e-07  1.80000000e+00  3.48057826e-07  5.84812692e-03  3.48057826e-07  5.00000000e-01                                 
 4.13468424e-07  3.94257141e-01  4.13468424e-07  3.48655401e-01  4.13468424e-07  4.60779255e-01  4.13468424e-07  1.80000000e+00  4.13468424e-07 -5.80459899e-03  4.13468424e-07  5.00000000e-01                                 
 4.90815224e-07  3.56508864e-01  4.90815224e-07  3.18063694e-01  4.90815224e-07  5.25124975e-01  4.90815224e-07  1.80000000e+00  4.90815224e-07  5.84527440e-03  4.90815224e-07  5.00000000e-01                                 
 5.77248772e-07  6.21937152e-01  5.77248772e-07  5.55311303e-01  5.77248772e-07  5.91276456e-01  5.77248772e-07  1.80000000e+00  5.77248772e-07 -5.79789651e-03  5.77248772e-07  5.00000000e-01                                 
 6.59235913e-07  7.22037927e-01  6.59235913e-07  6.49505125e-01  6.59235913e-07  4.64353145e-01  6.59235913e-07  1.80000000e+00  6.59235913e-07  5.84112294e-03  6.59235913e-07  5.00000000e-01                                 
 6.67628992e-07  7.23760015e-01  6.67628992e-07  6.50924554e-01  6.67628992e-07  4.65629943e-01  6.67628992e-07  1.80000000e+00  6.67628992e-07  1.03742094e-05  6.67628992e-07  5.00000000e-01                                 
 6.84415149e-07  7.26105198e-01  6.84415149e-07  6.52844307e-01  6.84415149e-07  4.67613087e-01  6.84415149e-07  1.80000000e+00  6.84415149e-07  4.00112249e-06  6.84415149e-07  5.00000000e-01                                 
 7.17987463e-07  7.27194023e-01  7.17987463e-07  6.53735829e-01  7.17987463e-07  4.69282334e-01  7.17987463e-07  1.80000000e+00  7.17987463e-07  1.01989454e-05  7.17987463e-07  5.00000000e-01                                 
 7.61114725e-07  7.27206487e-01  7.61114725e-07  6.53742571e-01  7.61114725e-07  4.84999357e-01  7.61114725e-07  1.80000000e+00  7.61114725e-07  3.95095312e-06  7.61114725e-07  5.00000000e-01                                 
 8.17317571e-07  7.22677677e-01  8.17317571e-07  6.50055678e-01  8.17317571e-07  5.26207767e-01  8.17317571e-07  1.80000000e+00  8.17317571e-07  1.00650904e-05  8.17317571e-07  5.00000000e-01                                 
 8.25237165e-07  7.20140971e-01  8.25237165e-07  6.47965630e-01  8.25237165e-07  5.23235407e-01  8.25237165e-07  1.80000000e+00  8.25237165e-07  6.79666658e-06  8.25237165e-07  5.00000000e-01                                 
 8.41076351e-07  7.12772602e-01  8.41076351e-07  6.41791570e-01  8.41076351e-07  5.09595273e-01  8.41076351e-07  1.80000000e+00  8.41076351e-07  6.57982796e-06  8.41076351e-07  5.00000000e-01                                 
 8.72754725e-07  6.98852055e-01  8.72754725e-07  6.29695796e-01  8.72754725e-07  4.83197651e-01  8.72754725e-07  1.80000000e+00  8.72754725e-07  6.85128194e-06  8.72754725e-07  5.00000000e-01                                 
 9.18374600e-07  7.03637767e-01  9.18374600e-07  6.33867001e-01  9.18374600e-07  4.94554515e-01  9.18374600e-07  1.80000000e+00  9.18374600e-07  7.46394517e-06  9.18374600e-07  5.00000000e-01                                 
 9.76017355e-07  7.16655385e-01  9.76017355e-07  6.45036322e-01  9.76017355e-07  5.14962169e-01  9.76017355e-07  1.80000000e+00  9.76017355e-07  7.05108422e-06  9.76017355e-07  5.00000000e-01                                 
 1.04729407e-06  7.09512639e-01  1.04729407e-06  6.38990290e-01  1.04729407e-06  4.94119299e-01  1.04729407e-06  1.80000000e+00  1.04729407e-06  6.93034521e-06  1.04729407e-06  5.00000000e-01                                 
 1.12894878e-06  7.05897330e-01  1.12894878e-06  6.35847107e-01  1.12894878e-06  4.94667864e-01  1.12894878e-06  1.80000000e+00  1.12894878e-06  7.14439363e-06  1.12894878e-06  5.00000000e-01                                 
 1.22502224e-06  7.13440247e-01  1.22502224e-06  6.42328478e-01  1.22502224e-06  5.10929259e-01  1.22502224e-06  1.80000000e+00  1.22502224e-06  7.12800044e-06  1.22502224e-06  5.00000000e-01                                 
 1.35340390e-06  7.08218334e-01  1.35340390e-06  6.37866609e-01  1.35340390e-06  4.90356037e-01  1.35340390e-06  1.80000000e+00  1.35340390e-06  6.95192072e-06  1.35340390e-06  5.00000000e-01                                 
 1.49889872e-06  7.09534684e-01  1.49889872e-06  6.38991427e-01  1.49889872e-06  5.06676567e-01  1.49889872e-06  1.80000000e+00  1.49889872e-06  7.20845517e-06  1.49889872e-06  5.00000000e-01                                 
 1.66124608e-06  7.11633172e-01  1.66124608e-06  6.40792944e-01  1.66124608e-06  4.98445313e-01  1.66124608e-06  1.80000000e+00  1.66124608e-06  6.95783491e-06  1.66124608e-06  5.00000000e-01                                 
 1.85023926e-06  7.07602002e-01  1.85023926e-06  6.37331376e-01  1.85023926e-06  4.98027484e-01  1.85023926e-06  1.80000000e+00  1.85023926e-06  7.15364464e-06  1.85023926e-06  5.00000000e-01                                 
 2.09914297e-06  7.12134168e-01  2.09914297e-06  6.41215803e-01  2.09914297e-06  5.04956261e-01  2.09914297e-06  1.80000000e+00  2.09914297e-06  7.02113952e-06  2.09914297e-06  5.00000000e-01                                 
 2.41106475e-06  7.07800797e-01  2.41106475e-06  6.37506348e-01  2.41106475e-06  4.93877954e-01  2.41106475e-06  1.80000000e+00  2.41106475e-06  7.10228114e-06  2.41106475e-06  5.00000000e-01                                 
 2.82632437e-06  7.11688599e-01  2.82632437e-06  6.40833871e-01  2.82632437e-06  5.07381656e-01  2.82632437e-06  1.80000000e+00  2.82632437e-06  7.05832883e-06  2.82632437e-06  5.00000000e-01                                 
 3.36060713e-06  7.08322521e-01  3.36060713e-06  6.37957749e-01  3.36060713e-06  4.92612920e-01  3.36060713e-06  1.80000000e+00  3.36060713e-06  7.07724500e-06  3.36060713e-06  5.00000000e-01                                 
 3.97923684e-06  7.11227464e-01  3.97923684e-06  6.40439343e-01  3.97923684e-06  5.08032292e-01  3.97923684e-06  1.80000000e+00  3.97923684e-06  7.07589929e-06  3.97923684e-06  5.00000000e-01                                 
 4.71587749e-06  7.08779759e-01  4.71587749e-06  6.38352159e-01  4.71587749e-06  4.92332761e-01  4.71587749e-06  1.80000000e+00  4.71587749e-06  7.06443395e-06  4.71587749e-06  5.00000000e-01                                 
 5.56130642e-06  7.10842919e-01  5.56130642e-06  6.40110251e-01  5.56130642e-06  5.08082752e-01  5.56130642e-06  1.80000000e+00  5.56130642e-06  7.08510634e-06  5.56130642e-06  5.00000000e-01                                 
 6.53044445e-06  7.09140779e-01  6.53044445e-06  6.38662960e-01  6.53044445e-06  4.92440186e-01  6.53044445e-06  1.80000000e+00  6.53044445e-06  7.05772831e-06  6.53044445e-06  5.00000000e-01                                 
 7.53044445e-06  7.10523250e-01  7.53044445e-06  6.39836548e-01  7.53044445e-06  5.07873994e-01  7.53044445e-06  1.80000000e+00  7.53044445e-06  7.09012333e-06  7.53044445e-06  5.00000000e-01                                 
 8.53044445e-06  7.09466390e-01  8.53044445e-06  6.38942841e-01  8.53044445e-06  4.92753425e-01  8.53044445e-06  1.80000000e+00  8.53044445e-06  7.05382649e-06  8.53044445e-06  5.00000000e-01                                 
 9.53044445e-06  7.10210249e-01  9.53044445e-06  6.39568422e-01  9.53044445e-06  5.07472903e-01  9.53044445e-06  1.80000000e+00  9.53044445e-06  7.09300783e-06  9.53044445e-06  5.00000000e-01                                 
 1.00005000e-05  7.09947961e-01  1.00005000e-05  6.39356032e-01  1.00005000e-05  4.93614925e-01  1.00005000e-05  1.80000000e+00  1.00005000e-05  7.05172484e-06  1.00005000e-05  5.00000000e-01                                 
 1.00005500e-05  7.09940468e-01  1.00005500e-05  6.39349106e-01  1.00005500e-05  4.86190719e-01  1.00005500e-05  1.62000000e+00  1.00005500e-05 -8.56452603e-05  1.00005500e-05  5.00000000e-01                                 
 1.00006500e-05  7.09924843e-01  1.00006500e-05  6.39335562e-01  1.00006500e-05  4.72567295e-01  1.00006500e-05  1.26000000e+00  1.00006500e-05 -7.28408248e-05  1.00006500e-05  5.00000000e-01                                 
 1.00008500e-05  7.09896362e-01  1.00008500e-05  6.39311281e-01  1.00008500e-05  4.70861749e-01  1.00008500e-05  5.40000000e-01  1.00008500e-05  4.54213269e-02  1.00008500e-05  5.00000000e-01                                 
 1.00010000e-05  7.09877761e-01  1.00010000e-05  6.39295140e-01  1.00010000e-05  4.41421366e-01  1.00010000e-05  0.00000000e+00  1.00010000e-05  1.60835619e+00  1.00010000e-05  5.00000000e-01                                 
 1.00010249e-05  7.09874788e-01  1.00010249e-05  6.39292610e-01  1.00010249e-05  4.23716069e-01  1.00010249e-05  0.00000000e+00  1.00010249e-05  1.73527427e+00  1.00010249e-05  5.00000000e-01                                 
 1.00010747e-05  7.09869031e-01  1.00010747e-05  6.39287644e-01  1.00010747e-05  3.94129019e-01  1.00010747e-05  0.00000000e+00  1.00010747e-05  1.81809030e+00  1.00010747e-05  5.00000000e-01                                 
 1.00011743e-05  7.09858159e-01  1.00011743e-05  6.39278187e-01  1.00011743e-05  3.69363389e-01  1.00011743e-05  0.00000000e+00  1.00011743e-05  1.78717358e+00  1.00011743e-05  5.00000000e-01                                 
 1.00013296e-05  7.09842288e-01  1.00013296e-05  6.39264420e-01  1.00013296e-05  3.67246743e-01  1.00013296e-05  0.00000000e+00  1.00013296e-05  1.80910310e+00  1.00013296e-05  5.00000000e-01                                 
 1.00015197e-05  7.09824339e-01  1.00015197e-05  6.39248816e-01  1.00015197e-05  3.66326810e-01  1.00015197e-05  0.00000000e+00  1.00015197e-05  1.79282932e+00  1.00015197e-05  5.00000000e-01                                 
 1.00017314e-05  7.09805822e-01  1.00017314e-05  6.39232707e-01  1.00017314e-05  3.65602914e-01  1.00017314e-05  0.00000000e+00  1.00017314e-05  1.80569426e+00  1.00017314e-05  5.00000000e-01                                 
 1.00021549e-05  7.09772077e-01  1.00021549e-05  6.39203344e-01  1.00021549e-05  3.64342695e-01  1.00021549e-05  0.00000000e+00  1.00021549e-05  1.79487698e+00  1.00021549e-05  5.00000000e-01                                 
 1.00030018e-05  7.09712267e-01  1.00030018e-05  6.39151437e-01  1.00030018e-05  3.63445820e-01  1.00030018e-05  0.00000000e+00  1.00030018e-05  1.80482282e+00  1.00030018e-05  5.00000000e-01                                 
 1.00046956e-05  7.09605859e-01  1.00046956e-05  6.39059579e-01  1.00046956e-05  3.63270248e-01  1.00046956e-05  0.00000000e+00  1.00046956e-05  1.79528662e+00  1.00046956e-05  5.00000000e-01                                 
 1.00080833e-05  7.09413861e-01  1.00080833e-05  6.38894434e-01  1.00080833e-05  3.65636183e-01  1.00080833e-05  0.00000000e+00  1.00080833e-05  1.80462676e+00  1.00080833e-05  5.00000000e-01                                 
 1.00148587e-05  7.09100183e-01  1.00148587e-05  6.38624276e-01  1.00148587e-05  3.73966731e-01  1.00148587e-05  0.00000000e+00  1.00148587e-05  1.79538371e+00  1.00148587e-05  5.00000000e-01                                 
 1.00284096e-05  7.08797977e-01  1.00284096e-05  6.38362735e-01  1.00284096e-05  4.25268618e-01  1.00284096e-05  0.00000000e+00  1.00284096e-05  1.80457904e+00  1.00284096e-05  5.00000000e-01                                 
 1.00480011e-05  7.09005350e-01  1.00480011e-05  6.38539362e-01  1.00480011e-05  5.53793974e-01  1.00480011e-05  0.00000000e+00  1.00480011e-05  1.79541068e+00  1.00480011e-05  5.00000000e-01                                 
 1.00649421e-05  7.09524718e-01  1.00649421e-05  6.38985045e-01  1.00649421e-05  6.33560820e-01  1.00649421e-05  0.00000000e+00  1.00649421e-05  1.80455545e+00  1.00649421e-05  5.00000000e-01                                 
 1.00848208e-05  7.10119592e-01  1.00848208e-05  6.39495596e-01  1.00848208e-05  6.66145088e-01  1.00848208e-05  0.00000000e+00  1.00848208e-05  1.79543426e+00  1.00848208e-05  5.00000000e-01                                 
 1.01170676e-05  7.10482907e-01  1.01170676e-05  6.39808115e-01  1.01170676e-05  6.22526431e-01  1.01170676e-05  0.00000000e+00  1.01170676e-05  1.80453814e+00  1.01170676e-05  5.00000000e-01                                 
