 time            v(vbep)         time            v(vben)         time            v(vout)         time            v(vphi1)        time            v(vphi2)        time            v(vref)         yes             currtemp       
 0.00000000e+00  7.19764200e-01  0.00000000e+00  6.62051790e-01  0.00000000e+00  1.00827927e+00  0.00000000e+00  0.00000000e+00  0.00000000e+00  1.79968888e+00  0.00000000e+00  5.00000000e-01  1.00000000e+00  3.90000000e+01 
 5.00000000e-12  7.19599533e-01  5.00000000e-12  6.61936418e-01  5.00000000e-12  1.00902404e+00  5.00000000e-12  1.80000000e-02  5.00000000e-12  1.79985651e+00  5.00000000e-12  5.00000000e-01                                 
 1.00000000e-11  7.19458982e-01  1.00000000e-11  6.61833757e-01  1.00000000e-11  1.00970120e+00  1.00000000e-11  3.60000000e-02  1.00000000e-11  1.79995793e+00  1.00000000e-11  5.00000000e-01                                 
 2.00000000e-11  7.19202556e-01  2.00000000e-11  6.61632744e-01  2.00000000e-11  1.01095250e+00  2.00000000e-11  7.20000000e-02  2.00000000e-11  1.80008920e+00  2.00000000e-11  5.00000000e-01                                 
 4.00000000e-11  7.18746085e-01  4.00000000e-11  6.61237130e-01  4.00000000e-11  1.01299391e+00  4.00000000e-11  1.44000000e-01  4.00000000e-11  1.80011965e+00  4.00000000e-11  5.00000000e-01                                 
 8.00000000e-11  7.17858629e-01  8.00000000e-11  6.60455150e-01  8.00000000e-11  1.01593790e+00  8.00000000e-11  2.88000000e-01  8.00000000e-11  1.80005296e+00  8.00000000e-11  5.00000000e-01                                 
 1.60000000e-10  7.16128320e-01  1.60000000e-10  6.58929523e-01  1.60000000e-10  1.01955871e+00  1.60000000e-10  5.76000000e-01  1.60000000e-10  1.79999910e+00  1.60000000e-10  5.00000000e-01                                 
 3.20000000e-10  7.12836108e-01  3.20000000e-10  6.56019710e-01  3.20000000e-10  1.01529368e+00  3.20000000e-10  1.15200000e+00  3.20000000e-10  1.80042437e+00  3.20000000e-10  5.00000000e-01                                 
 5.00000000e-10  7.09387284e-01  5.00000000e-10  6.52959896e-01  5.00000000e-10  1.16901755e+00  5.00000000e-10  1.80000000e+00  5.00000000e-10  1.17664124e-01  5.00000000e-10  5.00000000e-01                                 
 5.21521976e-10  7.08994892e-01  5.21521976e-10  6.52610801e-01  5.21521976e-10  1.20428983e+00  5.21521976e-10  1.80000000e+00  5.21521976e-10  2.34772252e-02  5.21521976e-10  5.00000000e-01                                 
 5.64565928e-10  7.08215818e-01  5.64565928e-10  6.51917051e-01  5.64565928e-10  1.26837067e+00  5.64565928e-10  1.80000000e+00  5.64565928e-10 -1.06185916e-02  5.64565928e-10  5.00000000e-01                                 
 6.50653832e-10  7.06696502e-01  6.50653832e-10  6.50562608e-01  6.50653832e-10  1.37167243e+00  6.50653832e-10  1.80000000e+00  6.50653832e-10  9.06328692e-03  6.50653832e-10  5.00000000e-01                                 
 7.72834184e-10  7.04626831e-01  7.72834184e-10  6.48712956e-01  7.72834184e-10  1.48755454e+00  7.72834184e-10  1.80000000e+00  7.72834184e-10 -7.73721382e-03  7.72834184e-10  5.00000000e-01                                 
 9.64574074e-10  7.01566528e-01  9.64574074e-10  6.45968534e-01  9.64574074e-10  1.62095198e+00  9.64574074e-10  1.80000000e+00  9.64574074e-10  7.31075307e-03  9.64574074e-10  5.00000000e-01                                 
 1.34805386e-09  6.96038808e-01  1.34805386e-09  6.40981731e-01  1.34805386e-09  1.76974873e+00  1.34805386e-09  1.80000000e+00  1.34805386e-09 -6.89908954e-03  1.34805386e-09  5.00000000e-01                                 
 1.63019544e-09  6.92427845e-01  1.63019544e-09  6.37699246e-01  1.63019544e-09  1.81387761e+00  1.63019544e-09  1.80000000e+00  1.63019544e-09  6.62121715e-03  1.63019544e-09  5.00000000e-01                                 
 1.97620041e-09  6.88423903e-01  1.97620041e-09  6.34036603e-01  1.97620041e-09  1.83585703e+00  1.97620041e-09  1.80000000e+00  1.97620041e-09 -6.25166914e-03  1.97620041e-09  5.00000000e-01                                 
 2.29857942e-09  6.85053208e-01  2.29857942e-09  6.30934458e-01  2.29857942e-09  1.84223502e+00  2.29857942e-09  1.80000000e+00  2.29857942e-09  6.04930455e-03  2.29857942e-09  5.00000000e-01                                 
 2.66171246e-09  6.81603931e-01  2.66171246e-09  6.27741744e-01  2.66171246e-09  1.84341237e+00  2.66171246e-09  1.80000000e+00  2.66171246e-09 -5.74259365e-03  2.66171246e-09  5.00000000e-01                                 
 3.10107531e-09  6.77840767e-01  3.10107531e-09  6.24238527e-01  3.10107531e-09  1.84216019e+00  3.10107531e-09  1.80000000e+00  3.10107531e-09  5.58512716e-03  3.10107531e-09  5.00000000e-01                                 
 3.56955394e-09  6.74242036e-01  3.56955394e-09  6.20868310e-01  3.56955394e-09  1.83989357e+00  3.56955394e-09  1.80000000e+00  3.56955394e-09 -5.38527242e-03  3.56955394e-09  5.00000000e-01                                 
 4.19969099e-09  6.69940699e-01  4.19969099e-09  6.16816266e-01  4.19969099e-09  1.83695823e+00  4.19969099e-09  1.80000000e+00  4.19969099e-09  5.27698469e-03  4.19969099e-09  5.00000000e-01                                 
 5.05485672e-09  6.64881699e-01  5.05485672e-09  6.12017988e-01  5.05485672e-09  1.83332909e+00  5.05485672e-09  1.80000000e+00  5.05485672e-09 -5.16804930e-03  5.05485672e-09  5.00000000e-01                                 
 6.59514771e-09  6.57372110e-01  6.59514771e-09  6.04837796e-01  6.59514771e-09  1.82808592e+00  6.59514771e-09  1.80000000e+00  6.59514771e-09  5.13612293e-03  6.59514771e-09  5.00000000e-01                                 
 9.45719940e-09  6.46863387e-01  9.45719940e-09  5.94686351e-01  9.45719940e-09  1.82069833e+00  9.45719940e-09  1.80000000e+00  9.45719940e-09 -5.09021777e-03  9.45719940e-09  5.00000000e-01                                 
 1.51813028e-08  6.32728375e-01  1.51813028e-08  5.80874052e-01  1.51813028e-08  1.81091504e+00  1.51813028e-08  1.80000000e+00  1.51813028e-08  5.09769482e-03  1.51813028e-08  5.00000000e-01                                 
 2.51464828e-08  6.17704950e-01  2.51464828e-08  5.66034380e-01  2.51464828e-08  1.80045384e+00  2.51464828e-08  1.80000000e+00  2.51464828e-08 -5.06834777e-03  2.51464828e-08  5.00000000e-01                                 
 3.86569073e-08  6.05201119e-01  3.86569073e-08  5.53593246e-01  3.86569073e-08  1.79179988e+00  3.86569073e-08  1.80000000e+00  3.86569073e-08  5.08528328e-03  3.86569073e-08  5.00000000e-01                                 
 6.09831578e-08  5.91984184e-01  6.09831578e-08  5.40386612e-01  6.09831578e-08  1.78249398e+00  6.09831578e-08  1.80000000e+00  6.09831578e-08 -5.05911593e-03  6.09831578e-08  5.00000000e-01                                 
 9.62956657e-08  5.79157935e-01  9.62956657e-08  5.27460461e-01  9.62956657e-08  1.77789008e+00  9.62956657e-08  1.80000000e+00  9.62956657e-08  5.08008903e-03  9.62956657e-08  5.00000000e-01                                 
 1.46103762e-07  5.68567599e-01  1.46103762e-07  5.16545662e-01  1.46103762e-07  1.78878396e+00  1.46103762e-07  1.80000000e+00  1.46103762e-07 -5.05543399e-03  1.46103762e-07  5.00000000e-01                                 
 1.85685379e-07  5.62473307e-01  1.85685379e-07  5.10286262e-01  1.85685379e-07  1.76738344e+00  1.85685379e-07  1.80000000e+00  1.85685379e-07  5.07678090e-03  1.85685379e-07  5.00000000e-01                                 
 2.19002190e-07  5.55427424e-01  2.19002190e-07  5.03720836e-01  2.19002190e-07  1.68804477e+00  2.19002190e-07  1.80000000e+00  2.19002190e-07 -5.05142502e-03  2.19002190e-07  5.00000000e-01                                 
 2.46274509e-07  5.44458847e-01  2.46274509e-07  4.94341776e-01  2.46274509e-07  1.62278285e+00  2.46274509e-07  1.80000000e+00  2.46274509e-07  5.07166755e-03  2.46274509e-07  5.00000000e-01                                 
 2.74903423e-07  5.35056552e-01  2.74903423e-07  4.86262138e-01  2.74903423e-07  1.47076609e+00  2.74903423e-07  1.80000000e+00  2.74903423e-07 -5.04613408e-03  2.74903423e-07  5.00000000e-01                                 
 2.98021165e-07  5.30268075e-01  2.98021165e-07  4.82017545e-01  2.98021165e-07  1.33746443e+00  2.98021165e-07  1.80000000e+00  2.98021165e-07  5.06605694e-03  2.98021165e-07  5.00000000e-01                                 
 3.22035564e-07  5.36027046e-01  3.22035564e-07  4.86133637e-01  3.22035564e-07  1.25355687e+00  3.22035564e-07  1.80000000e+00  3.22035564e-07 -5.03953121e-03  3.22035564e-07  5.00000000e-01                                 
 3.39975204e-07  5.38989308e-01  3.39975204e-07  4.88152123e-01  3.39975204e-07  1.14344912e+00  3.39975204e-07  1.80000000e+00  3.39975204e-07  5.05880522e-03  3.39975204e-07  5.00000000e-01                                 
 3.60377588e-07  5.34681699e-01  3.60377588e-07  4.84384688e-01  3.60377588e-07  1.01999740e+00  3.60377588e-07  1.80000000e+00  3.60377588e-07 -5.03223855e-03  3.60377588e-07  5.00000000e-01                                 
 3.81112518e-07  5.30480139e-01  3.81112518e-07  4.80719092e-01  3.81112518e-07  9.17672558e-01  3.81112518e-07  1.80000000e+00  3.81112518e-07  5.05164317e-03  3.81112518e-07  5.00000000e-01                                 
 4.01187772e-07  5.26186470e-01  4.01187772e-07  4.77012820e-01  4.01187772e-07  8.44873611e-01  4.01187772e-07  1.80000000e+00  4.01187772e-07 -5.02510294e-03  4.01187772e-07  5.00000000e-01                                 
 4.34346075e-07  5.18635027e-01  4.34346075e-07  4.70571355e-01  4.34346075e-07  7.53500136e-01  4.34346075e-07  1.80000000e+00  4.34346075e-07  5.04574855e-03  4.34346075e-07  5.00000000e-01                                 
 4.76580130e-07  5.08763576e-01  4.76580130e-07  4.62241682e-01  4.76580130e-07  6.53341590e-01  4.76580130e-07  1.80000000e+00  4.76580130e-07 -5.02116399e-03  4.76580130e-07  5.00000000e-01                                 
 5.29204087e-07  4.96742941e-01  5.29204087e-07  4.52188357e-01  5.29204087e-07  5.42073613e-01  5.29204087e-07  1.80000000e+00  5.29204087e-07  5.04263002e-03  5.29204087e-07  5.00000000e-01                                 
 6.19283804e-07  4.67806402e-01  6.19283804e-07  4.28576108e-01  6.19283804e-07  4.44387026e-01  6.19283804e-07  1.80000000e+00  6.19283804e-07 -5.01909861e-03  6.19283804e-07  5.00000000e-01                                 
 6.87235593e-07  4.49510034e-01  6.87235593e-07  4.13729114e-01  6.87235593e-07  4.34089405e-01  6.87235593e-07  1.80000000e+00  6.87235593e-07  5.04079938e-03  6.87235593e-07  5.00000000e-01                                 
 7.59799343e-07  4.18098173e-01  7.59799343e-07  3.88506478e-01  7.59799343e-07  5.10853815e-01  7.59799343e-07  1.80000000e+00  7.59799343e-07 -5.01718667e-03  7.59799343e-07  5.00000000e-01                                 
 7.69727960e-07  4.13989503e-01  7.69727960e-07  3.85215935e-01  7.69727960e-07  5.28330909e-01  7.69727960e-07  1.80000000e+00  7.69727960e-07 -9.98698337e-07  7.69727960e-07  5.00000000e-01                                 
 7.89585193e-07  4.07610317e-01  7.89585193e-07  3.80111394e-01  7.89585193e-07  5.54281138e-01  7.89585193e-07  1.80000000e+00  7.89585193e-07  2.54398888e-06  7.89585193e-07  5.00000000e-01                                 
 8.16063367e-07  4.14985886e-01  8.16063367e-07  3.86047708e-01  8.16063367e-07  5.39712618e-01  8.16063367e-07  1.80000000e+00  8.16063367e-07 -4.78430283e-07  8.16063367e-07  5.00000000e-01                                 
 8.43840665e-07  4.83215673e-01  8.43840665e-07  4.40704650e-01  8.43840665e-07  5.33355566e-01  8.43840665e-07  1.80000000e+00  8.43840665e-07  4.49738628e-06  8.43840665e-07  5.00000000e-01                                 
 8.78310092e-07  6.95879315e-01  8.78310092e-07  6.34845184e-01  8.78310092e-07  5.97761550e-01  8.78310092e-07  1.80000000e+00  8.78310092e-07  4.15130502e-06  8.78310092e-07  5.00000000e-01                                 
 9.01084031e-07  7.47357409e-01  9.01084031e-07  6.87279818e-01  9.01084031e-07  5.57591632e-01  9.01084031e-07  1.80000000e+00  9.01084031e-07  1.01467735e-06  9.01084031e-07  5.00000000e-01                                 
 9.23986757e-07  7.72741943e-01  9.23986757e-07  7.09878190e-01  9.23986757e-07  5.23062110e-01  9.23986757e-07  1.80000000e+00  9.23986757e-07  2.32594689e-06  9.23986757e-07  5.00000000e-01                                 
 9.60598406e-07  7.84531263e-01  9.60598406e-07  7.19962565e-01  9.60598406e-07  5.00286188e-01  9.60598406e-07  1.80000000e+00  9.60598406e-07  5.78307182e-08  9.60598406e-07  5.00000000e-01                                 
 9.99693907e-07  7.84113268e-01  9.99693907e-07  7.19546856e-01  9.99693907e-07  4.88775502e-01  9.99693907e-07  1.80000000e+00  9.99693907e-07  1.68799322e-06  9.99693907e-07  5.00000000e-01                                 
 1.04371505e-06  7.85028974e-01  1.04371505e-06  7.20363985e-01  1.04371505e-06  4.88480393e-01  1.04371505e-06  1.80000000e+00  1.04371505e-06  2.32396942e-07  1.04371505e-06  5.00000000e-01                                 
 1.09868685e-06  7.83161237e-01  1.09868685e-06  7.18767803e-01  1.09868685e-06  4.89353212e-01  1.09868685e-06  1.80000000e+00  1.09868685e-06  1.50185219e-06  1.09868685e-06  5.00000000e-01                                 
 1.10672204e-06  7.82159253e-01  1.10672204e-06  7.17963144e-01  1.10672204e-06  4.90835246e-01  1.10672204e-06  1.80000000e+00  1.10672204e-06  9.03035669e-07  1.10672204e-06  5.00000000e-01                                 
 1.12279244e-06  7.75657635e-01  1.12279244e-06  7.12518506e-01  1.12279244e-06  4.92468933e-01  1.12279244e-06  1.80000000e+00  1.12279244e-06  3.63707354e-07  1.12279244e-06  5.00000000e-01                                 
 1.15493324e-06  7.56975226e-01  1.15493324e-06  6.96059910e-01  1.15493324e-06  4.99337311e-01  1.15493324e-06  1.80000000e+00  1.15493324e-06  6.21544735e-07  1.15493324e-06  5.00000000e-01                                 
 1.19127081e-06  7.52661039e-01  1.19127081e-06  6.92105994e-01  1.19127081e-06  5.07582814e-01  1.19127081e-06  1.80000000e+00  1.19127081e-06  1.02641699e-06  1.19127081e-06  5.00000000e-01                                 
 1.24633086e-06  7.68034216e-01  1.24633086e-06  7.05864641e-01  1.24633086e-06  5.04688902e-01  1.24633086e-06  1.80000000e+00  1.24633086e-06  1.20209338e-06  1.24633086e-06  5.00000000e-01                                 
 1.32046045e-06  7.73797221e-01  1.32046045e-06  7.10896138e-01  1.32046045e-06  4.94391759e-01  1.32046045e-06  1.80000000e+00  1.32046045e-06  7.44260301e-07  1.32046045e-06  5.00000000e-01                                 
 1.39203792e-06  7.62884461e-01  1.39203792e-06  7.01345828e-01  1.39203792e-06  4.98264080e-01  1.39203792e-06  1.80000000e+00  1.39203792e-06  8.64423206e-07  1.39203792e-06  5.00000000e-01                                 
 1.48601814e-06  7.65031903e-01  1.48601814e-06  7.03239186e-01  1.48601814e-06  5.05890499e-01  1.48601814e-06  1.80000000e+00  1.48601814e-06  9.95906999e-07  1.48601814e-06  5.00000000e-01                                 
 1.58491331e-06  7.71895915e-01  1.58491331e-06  7.09245175e-01  1.58491331e-06  4.96921399e-01  1.58491331e-06  1.80000000e+00  1.58491331e-06  9.33824180e-07  1.58491331e-06  5.00000000e-01                                 
 1.72879039e-06  7.62697653e-01  1.72879039e-06  7.01184288e-01  1.72879039e-06  4.99576886e-01  1.72879039e-06  1.80000000e+00  1.72879039e-06  8.04078268e-07  1.72879039e-06  5.00000000e-01                                 
 1.88361226e-06  7.68991451e-01  1.88361226e-06  7.06711497e-01  1.88361226e-06  5.04020508e-01  1.88361226e-06  1.80000000e+00  1.88361226e-06  1.08203337e-06  1.88361226e-06  5.00000000e-01                                 
 2.05719724e-06  7.67208092e-01  2.05719724e-06  7.05176247e-01  2.05719724e-06  4.94869360e-01  2.05719724e-06  1.80000000e+00  2.05719724e-06  7.33863791e-07  2.05719724e-06  5.00000000e-01                                 
 2.29846154e-06  7.65692328e-01  2.29846154e-06  7.03815835e-01  2.29846154e-06  5.05395731e-01  2.29846154e-06  1.80000000e+00  2.29846154e-06  1.08523789e-06  2.29846154e-06  5.00000000e-01                                 
 2.63163649e-06  7.69138879e-01  2.63163649e-06  7.06863514e-01  2.63163649e-06  4.95640734e-01  2.63163649e-06  1.80000000e+00  2.63163649e-06  7.59347215e-07  2.63163649e-06  5.00000000e-01                                 
 2.99727202e-06  7.64531644e-01  2.99727202e-06  7.02792724e-01  2.99727202e-06  5.03812440e-01  2.99727202e-06  1.80000000e+00  2.99727202e-06  1.05125156e-06  2.99727202e-06  5.00000000e-01                                 
 3.46968625e-06  7.69681431e-01  3.46968625e-06  7.07333700e-01  3.46968625e-06  4.97471763e-01  3.46968625e-06  1.80000000e+00  3.46968625e-06  7.93777430e-07  3.46968625e-06  5.00000000e-01                                 
 4.03443794e-06  7.64291853e-01  4.03443794e-06  7.02582754e-01  4.03443794e-06  5.02084130e-01  4.03443794e-06  1.80000000e+00  4.03443794e-06  1.02149164e-06  4.03443794e-06  5.00000000e-01                                 
 4.75015533e-06  7.69700731e-01  4.75015533e-06  7.07348648e-01  4.75015533e-06  4.98981905e-01  4.75015533e-06  1.80000000e+00  4.75015533e-06  8.18571998e-07  4.75015533e-06  5.00000000e-01                                 
 5.63384652e-06  7.64367212e-01  5.63384652e-06  7.02651111e-01  5.63384652e-06  5.00835190e-01  5.63384652e-06  1.80000000e+00  5.63384652e-06  1.00183898e-06  5.63384652e-06  5.00000000e-01                                 
 6.63384652e-06  7.69584486e-01  6.63384652e-06  7.07246209e-01  6.63384652e-06  5.00041020e-01  6.63384652e-06  1.80000000e+00  6.63384652e-06  8.34806990e-07  6.63384652e-06  5.00000000e-01                                 
 7.63384652e-06  7.64537137e-01  7.63384652e-06  7.02802786e-01  7.63384652e-06  4.99840350e-01  7.63384652e-06  1.80000000e+00  7.63384652e-06  9.87055925e-07  7.63384652e-06  5.00000000e-01                                 
 8.63384652e-06  7.69394452e-01  8.63384652e-06  7.07079587e-01  8.63384652e-06  5.01019817e-01  8.63384652e-06  1.80000000e+00  8.63384652e-06  8.49049071e-07  8.63384652e-06  5.00000000e-01                                 
 9.63384652e-06  7.64787908e-01  9.63384652e-06  7.03025807e-01  9.63384652e-06  4.98884274e-01  9.63384652e-06  1.80000000e+00  9.63384652e-06  9.73468660e-07  9.63384652e-06  5.00000000e-01                                 
 1.00005000e-05  7.68871638e-01  1.00005000e-05  7.06621830e-01  1.00005000e-05  5.02628204e-01  1.00005000e-05  1.80000000e+00  1.00005000e-05  8.71593991e-07  1.00005000e-05  5.00000000e-01                                 
 1.00005500e-05  7.68869970e-01  1.00005500e-05  7.06620256e-01  1.00005500e-05  4.94795775e-01  1.00005500e-05  1.62000000e+00  1.00005500e-05 -8.70970002e-05  1.00005500e-05  5.00000000e-01                                 
 1.00006500e-05  7.68867147e-01  1.00006500e-05  7.06617489e-01  1.00006500e-05  4.81031361e-01  1.00006500e-05  1.26000000e+00  1.00006500e-05 -6.52597312e-05  1.00006500e-05  5.00000000e-01                                 
 1.00008500e-05  7.68863779e-01  1.00008500e-05  7.06613936e-01  1.00008500e-05  4.78970138e-01  1.00008500e-05  5.40000000e-01  1.00008500e-05 -4.10083572e-03  1.00008500e-05  5.00000000e-01                                 
 1.00010000e-05  7.68862761e-01  1.00010000e-05  7.06612665e-01  1.00010000e-05  4.44466221e-01  1.00010000e-05  0.00000000e+00  1.00010000e-05  1.57526885e+00  1.00010000e-05  5.00000000e-01                                 
 1.00010257e-05  7.68862684e-01  1.00010257e-05  7.06612542e-01  1.00010257e-05  4.19221083e-01  1.00010257e-05  0.00000000e+00  1.00010257e-05  1.72360262e+00  1.00010257e-05  5.00000000e-01                                 
