 time            v(vbep)         time            v(vben)         time            v(vout)         time            v(vphi1)        time            v(vphi2)        time            v(vref)         time            v(voutc)        time            v(voutcc)       yes             currtemp       
 0.00000000e+00  8.58501194e-01  0.00000000e+00  8.12244752e-01  0.00000000e+00  1.77031001e+00  0.00000000e+00  0.00000000e+00  0.00000000e+00  1.80000000e+00  0.00000000e+00  8.16385770e-01  0.00000000e+00  1.77031000e+00  0.00000000e+00  1.77462614e+00  1.00000000e+00 -3.10000000e+01 
 1.00000000e-11  8.58521318e-01  1.00000000e-11  8.12306527e-01  1.00000000e-11  1.77115483e+00  1.00000000e-11  1.80000000e-02  1.00000000e-11  1.80024035e+00  1.00000000e-11  8.16895152e-01  1.00000000e-11  1.77076252e+00  1.00000000e-11  1.77463435e+00                                 
 2.00000000e-11  8.58527122e-01  2.00000000e-11  8.12345874e-01  2.00000000e-11  1.77175542e+00  2.00000000e-11  3.60000000e-02  2.00000000e-11  1.80034453e+00  2.00000000e-11  8.17285297e-01  2.00000000e-11  1.77112510e+00  2.00000000e-11  1.77463766e+00                                 
 4.00000000e-11  8.58527354e-01  4.00000000e-11  8.12397881e-01  4.00000000e-11  1.77260301e+00  4.00000000e-11  7.20000000e-02  4.00000000e-11  1.80040011e+00  4.00000000e-11  8.17871307e-01  4.00000000e-11  1.77170029e+00  4.00000000e-11  1.77463831e+00                                 
 8.00000000e-11  8.58517220e-01  8.00000000e-11  8.12429623e-01  8.00000000e-11  1.77315389e+00  8.00000000e-11  1.44000000e-01  8.00000000e-11  1.80022055e+00  8.00000000e-11  8.18371635e-01  8.00000000e-11  1.77230938e+00  8.00000000e-11  1.77462717e+00                                 
 1.60000000e-10  8.58513899e-01  1.60000000e-10  8.12429035e-01  1.60000000e-10  1.77309557e+00  1.60000000e-10  2.88000000e-01  1.60000000e-10  1.80002812e+00  1.60000000e-10  8.18478699e-01  1.60000000e-10  1.77267703e+00  1.60000000e-10  1.77461164e+00                                 
 3.20000000e-10  8.58511982e-01  3.20000000e-10  8.12425247e-01  3.20000000e-10  1.77285549e+00  3.20000000e-10  5.76000000e-01  3.20000000e-10  1.80003240e+00  3.20000000e-10  8.18455740e-01  3.20000000e-10  1.77284785e+00  3.20000000e-10  1.77460818e+00                                 
 6.40000000e-10  8.58446017e-01  6.40000000e-10  8.12250671e-01  6.40000000e-10  1.76347635e+00  6.40000000e-10  1.15200000e+00  6.40000000e-10  1.81351491e+00  6.40000000e-10  8.18350020e-01  6.40000000e-10  1.77637218e+00  6.40000000e-10  1.77463128e+00                                 
 9.89500002e-10  8.58773800e-01  9.89500002e-10  8.12211801e-01  9.89500002e-10  1.72903823e+00  9.89500002e-10  1.78110000e+00  9.89500002e-10  7.12603142e-02  9.89500002e-10  8.16149532e-01  9.89500002e-10  1.76139446e+00  9.89500002e-10  1.77447985e+00                                 
 1.00000000e-09  8.58802528e-01  1.00000000e-09  8.12295449e-01  1.00000000e-09  1.72864811e+00  1.00000000e-09  1.80000000e+00  1.00000000e-09  1.71865911e-02  1.00000000e-09  8.17255649e-01  1.00000000e-09  1.76161685e+00  1.00000000e-09  1.77452011e+00                                 
 1.02100000e-09  8.58811418e-01  1.02100000e-09  8.12328844e-01  1.02100000e-09  1.72848623e+00  1.02100000e-09  1.80000000e+00  1.02100000e-09  5.72045793e-03  1.02100000e-09  8.18812184e-01  1.02100000e-09  1.76286683e+00  1.02100000e-09  1.77457515e+00                                 
 1.06299999e-09  8.58904630e-01  1.06299999e-09  8.12362442e-01  1.06299999e-09  1.72719467e+00  1.06299999e-09  1.80000000e+00  1.06299999e-09 -8.59758665e-04  1.06299999e-09  8.20436794e-01  1.06299999e-09  1.76426089e+00  1.06299999e-09  1.77461368e+00                                 
 1.14046582e-09  8.59115829e-01  1.14046582e-09  8.12307904e-01  1.14046582e-09  1.72184715e+00  1.14046582e-09  1.80000000e+00  1.14046582e-09  1.64453763e-03  1.14046582e-09  8.20425692e-01  1.14046582e-09  1.76430471e+00  1.14046582e-09  1.77458281e+00                                 
 1.29539747e-09  8.59289399e-01  1.29539747e-09  8.12249743e-01  1.29539747e-09  1.71294369e+00  1.29539747e-09  1.80000000e+00  1.29539747e-09 -7.87560485e-04  1.29539747e-09  8.20898002e-01  1.29539747e-09  1.76465349e+00  1.29539747e-09  1.77460188e+00                                 
 1.49761139e-09  8.59293421e-01  1.49761139e-09  8.12245678e-01  1.49761139e-09  1.70958098e+00  1.49761139e-09  1.80000000e+00  1.49761139e-09  8.48447686e-04  1.49761139e-09  8.21322331e-01  1.49761139e-09  1.76503341e+00  1.49761139e-09  1.77460272e+00                                 
 1.74582418e-09  8.59140713e-01  1.74582418e-09  8.12227432e-01  1.74582418e-09  1.71117817e+00  1.74582418e-09  1.80000000e+00  1.74582418e-09 -7.70742714e-04  1.74582418e-09  8.21189126e-01  1.74582418e-09  1.76489233e+00  1.74582418e-09  1.77460705e+00                                 
 1.98822286e-09  8.58989434e-01  1.98822286e-09  8.12235079e-01  1.98822286e-09  1.71398387e+00  1.98822286e-09  1.80000000e+00  1.98822286e-09  6.33709896e-04  1.98822286e-09  8.21112163e-01  1.98822286e-09  1.76484901e+00  1.98822286e-09  1.77461052e+00                                 
 2.36992077e-09  8.58772713e-01  2.36992077e-09  8.12226874e-01  2.36992077e-09  1.71825149e+00  2.36992077e-09  1.80000000e+00  2.36992077e-09 -6.45282546e-04  2.36992077e-09  8.20738649e-01  2.36992077e-09  1.76451313e+00  2.36992077e-09  1.77460975e+00                                 
 3.02410544e-09  8.58537908e-01  3.02410544e-09  8.12233404e-01  3.02410544e-09  1.72487228e+00  3.02410544e-09  1.80000000e+00  3.02410544e-09  5.63538965e-04  3.02410544e-09  8.20296709e-01  3.02410544e-09  1.76415976e+00  3.02410544e-09  1.77460904e+00                                 
 4.33247479e-09  8.58353733e-01  4.33247479e-09  8.12227946e-01  4.33247479e-09  1.73507492e+00  4.33247479e-09  1.80000000e+00  4.33247479e-09 -6.01830257e-04  4.33247479e-09  8.19311296e-01  4.33247479e-09  1.76331197e+00  4.33247479e-09  1.77458854e+00                                 
 6.94921348e-09  8.58389670e-01  6.94921348e-09  8.12238833e-01  6.94921348e-09  1.74718752e+00  6.94921348e-09  1.80000000e+00  6.94921348e-09  5.53883723e-04  6.94921348e-09  8.17993859e-01  6.94921348e-09  1.76222317e+00  6.94921348e-09  1.77452322e+00                                 
 9.83565000e-09  8.58457160e-01  9.83565000e-09  8.12237426e-01  9.83565000e-09  1.75234768e+00  9.83565000e-09  1.80000000e+00  9.83565000e-09 -5.80142960e-04  9.83565000e-09  8.17019816e-01  9.83565000e-09  1.76138663e+00  9.83565000e-09  1.77441245e+00                                 
 1.29535433e-08  8.58477314e-01  1.29535433e-08  8.12245854e-01  1.29535433e-08  1.75377704e+00  1.29535433e-08  1.80000000e+00  1.29535433e-08  5.50313415e-04  1.29535433e-08  8.16563452e-01  1.29535433e-08  1.76101995e+00  1.29535433e-08  1.77427262e+00                                 
 1.63830248e-08  8.58484841e-01  1.63830248e-08  8.12241037e-01  1.63830248e-08  1.75328132e+00  1.63830248e-08  1.80000000e+00  1.63830248e-08 -5.66064760e-04  1.63830248e-08  8.16222267e-01  1.63830248e-08  1.76071175e+00  1.63830248e-08  1.77409769e+00                                 
 2.07202697e-08  8.58489884e-01  2.07202697e-08  8.12247456e-01  2.07202697e-08  1.75251550e+00  2.07202697e-08  1.80000000e+00  2.07202697e-08  5.47449968e-04  2.07202697e-08  8.16145922e-01  2.07202697e-08  1.76065785e+00  2.07202697e-08  1.77387284e+00                                 
 2.62321356e-08  8.58485832e-01  2.62321356e-08  8.12241879e-01  2.62321356e-08  1.75191036e+00  2.62321356e-08  1.80000000e+00  2.62321356e-08 -5.53171439e-04  2.62321356e-08  8.16041542e-01  2.62321356e-08  1.76054021e+00  2.62321356e-08  1.77358044e+00                                 
 3.38678067e-08  8.58497911e-01  3.38678067e-08  8.12247706e-01  3.38678067e-08  1.74977615e+00  3.38678067e-08  1.80000000e+00  3.38678067e-08  5.47933477e-04  3.38678067e-08  8.16119240e-01  3.38678067e-08  1.76060460e+00  3.38678067e-08  1.77319057e+00                                 
 4.47710089e-08  8.58500971e-01  4.47710089e-08  8.12241957e-01  4.47710089e-08  1.74313559e+00  4.47710089e-08  1.80000000e+00  4.47710089e-08 -5.47865494e-04  4.47710089e-08  8.16099502e-01  4.47710089e-08  1.76054569e+00  4.47710089e-08  1.77265241e+00                                 
 6.31819968e-08  8.58503692e-01  6.31819968e-08  8.12247676e-01  6.31819968e-08  1.72966290e+00  6.31819968e-08  1.80000000e+00  6.31819968e-08  5.46114281e-04  6.31819968e-08  8.16223023e-01  6.31819968e-08  1.76063202e+00  6.31819968e-08  1.77181506e+00                                 
 8.71046618e-08  8.58500750e-01  8.71046618e-08  8.12241926e-01  8.71046618e-08  1.70994461e+00  8.71046618e-08  1.80000000e+00  8.71046618e-08 -5.46599911e-04  8.71046618e-08  8.16218902e-01  8.71046618e-08  1.76057593e+00  8.71046618e-08  1.77083810e+00                                 
 1.34949992e-07  8.58502675e-01  1.34949992e-07  8.12247626e-01  1.34949992e-07  1.66538610e+00  1.34949992e-07  1.80000000e+00  1.34949992e-07  5.45009104e-04  1.34949992e-07  8.16351648e-01  1.34949992e-07  1.76065588e+00  1.34949992e-07  1.76924530e+00                                 
 2.30640651e-07  8.58500100e-01  2.30640651e-07  8.12241895e-01  2.30640651e-07  1.56647122e+00  2.30640651e-07  1.80000000e+00  2.30640651e-07 -5.46294111e-04  2.30640651e-07  8.16343301e-01  2.30640651e-07  1.76057624e+00  2.30640651e-07  1.76714518e+00                                 
 4.22021971e-07  8.58502341e-01  4.22021971e-07  8.12247609e-01  4.22021971e-07  1.36763031e+00  4.22021971e-07  1.80000000e+00  4.22021971e-07  5.44791373e-04  4.22021971e-07  8.16418675e-01  4.22021971e-07  1.76061119e+00  4.22021971e-07  1.76539204e+00                                 
 8.04784610e-07  8.58500042e-01  8.04784610e-07  8.12241894e-01  8.04784610e-07  9.88815779e-01  8.04784610e-07  1.80000000e+00  8.04784610e-07 -5.45995560e-04  8.04784610e-07  8.16353774e-01  8.04784610e-07  1.76051082e+00  8.04784610e-07  1.76486959e+00                                 
 8.67917949e-07  8.58501183e-01  8.67917949e-07  8.12244750e-01  8.67917949e-07  9.32399795e-01  8.67917949e-07  1.80000000e+00  8.67917949e-07 -6.07299422e-07  8.67917949e-07  8.16384900e-01  8.67917949e-07  1.76054328e+00  8.67917949e-07  1.76488780e+00                                 
 9.94184627e-07  8.58501259e-01  9.94184627e-07  8.12244755e-01  9.94184627e-07  8.50359999e-01  9.94184627e-07  1.80000000e+00  9.94184627e-07 -7.43502891e-08  9.94184627e-07  8.16385750e-01  9.94184627e-07  1.76053881e+00  9.94184627e-07  1.76490975e+00                                 
 1.17894169e-06  8.58501125e-01  1.17894169e-06  8.12244751e-01  1.17894169e-06  8.17500999e-01  1.17894169e-06  1.80000000e+00  1.17894169e-06 -7.40523057e-08  1.17894169e-06  8.16386566e-01  1.17894169e-06  1.76053146e+00  1.17894169e-06  1.76491547e+00                                 
 1.24373886e-06  8.58501176e-01  1.24373886e-06  8.12244743e-01  1.24373886e-06  8.19545054e-01  1.24373886e-06  1.80000000e+00  1.24373886e-06  1.07870347e-07  1.24373886e-06  8.16385367e-01  1.24373886e-06  1.76052758e+00  1.24373886e-06  1.76491391e+00                                 
 1.31551000e-06  8.58501220e-01  1.31551000e-06  8.12244767e-01  1.31551000e-06  8.20241964e-01  1.31551000e-06  1.80000000e+00  1.31551000e-06 -8.43917749e-08  1.31551000e-06  8.16386156e-01  1.31551000e-06  1.76052505e+00  1.31551000e-06  1.76491152e+00                                 
 1.39950810e-06  8.58501155e-01  1.39950810e-06  8.12244734e-01  1.39950810e-06  8.20529957e-01  1.39950810e-06  1.80000000e+00  1.39950810e-06  9.75602276e-08  1.39950810e-06  8.16385421e-01  1.39950810e-06  1.76052068e+00  1.39950810e-06  1.76490834e+00                                 
 1.56750430e-06  8.58501234e-01  1.56750430e-06  8.12244772e-01  1.56750430e-06  8.20583320e-01  1.56750430e-06  1.80000000e+00  1.56750430e-06 -8.45416815e-08  1.56750430e-06  8.16386100e-01  1.56750430e-06  1.76051371e+00  1.56750430e-06  1.76490132e+00                                 
 1.87559460e-06  8.58501151e-01  1.87559460e-06  8.12244732e-01  1.87559460e-06  8.20596546e-01  1.87559460e-06  1.80000000e+00  1.87559460e-06  9.62919254e-08  1.87559460e-06  8.16385447e-01  1.87559460e-06  1.76049934e+00  1.87559460e-06  1.76488775e+00                                 
 2.32406120e-06  8.58501237e-01  2.32406120e-06  8.12244774e-01  2.32406120e-06  8.20580847e-01  2.32406120e-06  1.80000000e+00  2.32406120e-06 -8.40574814e-08  2.32406120e-06  8.16386086e-01  2.32406120e-06  1.76047977e+00  2.32406120e-06  1.76486773e+00                                 
 3.22099441e-06  8.58501150e-01  3.22099441e-06  8.12244731e-01  3.22099441e-06  8.20598190e-01  3.22099441e-06  1.80000000e+00  3.22099441e-06  9.60228055e-08  3.22099441e-06  8.16385456e-01  3.22099441e-06  1.76043896e+00  3.22099441e-06  1.76482771e+00                                 
 4.42099441e-06  8.58501237e-01  4.42099441e-06  8.12244773e-01  4.42099441e-06  8.20580233e-01  4.42099441e-06  1.80000000e+00  4.42099441e-06 -8.39106339e-08  4.42099441e-06  8.16386084e-01  4.42099441e-06  1.76038562e+00  4.42099441e-06  1.76477411e+00                                 
 5.62099441e-06  8.58501149e-01  5.62099441e-06  8.12244730e-01  5.62099441e-06  8.20598928e-01  5.62099441e-06  1.80000000e+00  5.62099441e-06  9.59029215e-08  5.62099441e-06  8.16385458e-01  5.62099441e-06  1.76033131e+00  5.62099441e-06  1.76472064e+00                                 
 6.00100000e-06  8.58501238e-01  6.00100000e-06  8.12244774e-01  6.00100000e-06  8.20580396e-01  6.00100000e-06  1.80000000e+00  6.00100000e-06 -8.36757552e-08  6.00100000e-06  8.16386076e-01  6.00100000e-06  1.76031477e+00  6.00100000e-06  1.76470368e+00                                 
 6.00110000e-06  8.58472985e-01  6.00110000e-06  8.12036854e-01  6.00110000e-06  8.18438184e-01  6.00110000e-06  1.62000000e+00  6.00110000e-06 -9.14283411e-05  6.00110000e-06  8.14433315e-01  6.00110000e-06  1.75867218e+00  6.00110000e-06  1.76468622e+00                                 
 6.00130000e-06  8.58500004e-01  6.00130000e-06  8.12108380e-01  6.00130000e-06  8.19289174e-01  6.00130000e-06  1.26000000e+00  6.00130000e-06  5.21754542e-05  6.00130000e-06  8.14866412e-01  6.00130000e-06  1.75903962e+00  6.00130000e-06  1.76471325e+00                                 
 6.00170000e-06  8.58522910e-01  6.00170000e-06  8.12178026e-01  6.00170000e-06  8.20500171e-01  6.00170000e-06  5.40000000e-01  6.00170000e-06 -2.82473758e-03  6.00170000e-06  8.14543901e-01  6.00170000e-06  1.75493485e+00  6.00170000e-06  1.76466956e+00                                 
 6.00200000e-06  8.58499868e-01  6.00200000e-06  8.09730695e-01  6.00200000e-06  8.72521057e-01  6.00200000e-06  0.00000000e+00  6.00200000e-06  1.57354200e+00  6.00200000e-06  7.80315527e-01  6.00200000e-06  1.54409090e+00  6.00200000e-06  1.76363081e+00                                 
 6.00205202e-06  8.58505436e-01  6.00205202e-06  8.09689673e-01  6.00205202e-06  8.71562745e-01  6.00205202e-06  0.00000000e+00  6.00205202e-06  1.72834851e+00  6.00205202e-06  7.79166675e-01  6.00205202e-06  1.48378153e+00  6.00205202e-06  1.76396512e+00                                 
 6.00215606e-06  8.58499500e-01  6.00215606e-06  8.10047069e-01  6.00215606e-06  8.59987972e-01  6.00215606e-06  0.00000000e+00  6.00215606e-06  1.82174550e+00  6.00215606e-06  7.83329269e-01  6.00215606e-06  1.37533423e+00  6.00215606e-06  1.76456585e+00                                 
 6.00231826e-06  8.58499812e-01  6.00231826e-06  8.10945071e-01  6.00231826e-06  8.44057996e-01  6.00231826e-06  0.00000000e+00  6.00231826e-06  1.78626755e+00  6.00231826e-06  7.94922013e-01  6.00231826e-06  1.25805967e+00  6.00231826e-06  1.76468900e+00                                 
 6.00249552e-06  8.58501038e-01  6.00249552e-06  8.11271862e-01  6.00249552e-06  8.41033604e-01  6.00249552e-06  0.00000000e+00  6.00249552e-06  1.80685749e+00  6.00249552e-06  7.98827835e-01  6.00249552e-06  1.17377158e+00  6.00249552e-06  1.76473775e+00                                 
 6.00276409e-06  8.58499176e-01  6.00276409e-06  8.11636044e-01  6.00276409e-06  8.33666353e-01  6.00276409e-06  0.00000000e+00  6.00276409e-06  1.79463586e+00  6.00276409e-06  8.03150962e-01  6.00276409e-06  1.08476593e+00  6.00276409e-06  1.76479045e+00                                 
 6.00304491e-06  8.58501570e-01  6.00304491e-06  8.11903276e-01  6.00304491e-06  8.32189909e-01  6.00304491e-06  0.00000000e+00  6.00304491e-06  1.80347913e+00  6.00304491e-06  8.06227937e-01  6.00304491e-06  1.01897160e+00  6.00304491e-06  1.76487147e+00                                 
 6.00360654e-06  8.58499483e-01  6.00360654e-06  8.12141602e-01  6.00360654e-06  8.28243314e-01  6.00360654e-06  0.00000000e+00  6.00360654e-06  1.79671510e+00  6.00360654e-06  8.08720517e-01  6.00360654e-06  9.13897921e-01  6.00360654e-06  1.76495559e+00                                 
 6.00414412e-06  8.58502083e-01  6.00414412e-06  8.12448427e-01  6.00414412e-06  8.25162823e-01  6.00414412e-06  0.00000000e+00  6.00414412e-06  1.80242806e+00  6.00414412e-06  8.12663884e-01  6.00414412e-06  8.53975235e-01  6.00414412e-06  1.76498054e+00                                 
 6.00521926e-06  8.58499876e-01  6.00521926e-06  8.12656261e-01  6.00521926e-06  8.20359803e-01  6.00521926e-06  0.00000000e+00  6.00521926e-06  1.79768716e+00  6.00521926e-06  8.16252116e-01  6.00521926e-06  8.17810275e-01  6.00521926e-06  1.76476658e+00                                 
 6.00603632e-06  8.58502362e-01  6.00603632e-06  8.12630838e-01  6.00603632e-06  8.20979551e-01  6.00603632e-06  0.00000000e+00  6.00603632e-06  1.80207368e+00  6.00603632e-06  8.17048849e-01  6.00603632e-06  8.21472298e-01  6.00603632e-06  1.76445408e+00                                 
 6.00695893e-06  8.58499993e-01  6.00695893e-06  8.12487598e-01  6.00695893e-06  8.21108452e-01  6.00695893e-06  0.00000000e+00  6.00695893e-06  1.79812523e+00  6.00695893e-06  8.16435187e-01  6.00695893e-06  8.20712661e-01  6.00695893e-06  1.76399014e+00                                 
 6.00800321e-06  8.58502388e-01  6.00800321e-06  8.12450960e-01  6.00800321e-06  8.21719964e-01  6.00800321e-06  0.00000000e+00  6.00800321e-06  1.80170740e+00  6.00800321e-06  8.17093103e-01  6.00800321e-06  8.21821695e-01  6.00800321e-06  1.76344315e+00                                 
 6.01009177e-06  8.58500013e-01  6.01009177e-06  8.12313392e-01  6.01009177e-06  8.22526898e-01  6.01009177e-06  0.00000000e+00  6.01009177e-06  1.79836938e+00  6.01009177e-06  8.16591304e-01  6.01009177e-06  8.22183055e-01  6.01009177e-06  1.76225704e+00                                 
 6.01426889e-06  8.58502376e-01  6.01426889e-06  8.12290763e-01  6.01426889e-06  8.24862437e-01  6.01426889e-06  0.00000000e+00  6.01426889e-06  1.80159259e+00  6.01426889e-06  8.17169247e-01  6.01426889e-06  8.24890934e-01  6.01426889e-06  1.75985172e+00                                 
 6.02262313e-06  8.58500012e-01  6.02262313e-06  8.12230683e-01  6.02262313e-06  8.29444160e-01  6.02262313e-06  0.00000000e+00  6.02262313e-06  1.79842575e+00  6.02262313e-06  8.16597916e-01  6.02262313e-06  8.29045723e-01  6.02262313e-06  1.75497097e+00                                 
 6.03933161e-06  8.58502373e-01  6.03933161e-06  8.12260019e-01  6.03933161e-06  8.39232340e-01  6.03933161e-06  0.00000000e+00  6.03933161e-06  1.80156506e+00  6.03933161e-06  8.17015856e-01  6.03933161e-06  8.39244356e-01  6.03933161e-06  1.74465295e+00                                 
 6.07274858e-06  8.58500014e-01  6.07274858e-06  8.12224975e-01  6.07274858e-06  8.57530452e-01  6.07274858e-06  0.00000000e+00  6.07274858e-06  1.79843927e+00  6.07274858e-06  8.16343794e-01  6.07274858e-06  8.56994434e-01  6.07274858e-06  1.72067794e+00                                 
