 time            v(vbep)         time            v(vben)         time            v(vout)         time            v(vphi1)        time            v(vphi2)        time            v(vref)         yes             currtemp       
 0.00000000e+00  6.07567214e-01  0.00000000e+00  5.45670353e-01  0.00000000e+00  3.58806693e-01  0.00000000e+00  0.00000000e+00  0.00000000e+00  1.79995533e+00  0.00000000e+00  5.45670353e-01  1.00000000e+00  6.60000000e+01 
 5.00000000e-12  6.07542320e-01  5.00000000e-12  5.45649704e-01  5.00000000e-12  3.59334986e-01  5.00000000e-12  1.80000000e-02  5.00000000e-12  1.80006386e+00  5.00000000e-12  5.45649704e-01                                 
 1.00000000e-11  6.07517930e-01  1.00000000e-11  5.45629548e-01  1.00000000e-11  3.59769726e-01  1.00000000e-11  3.60000000e-02  1.00000000e-11  1.80012502e+00  1.00000000e-11  5.45629548e-01                                 
 2.00000000e-11  6.07469431e-01  2.00000000e-11  5.45589370e-01  2.00000000e-11  3.60496048e-01  2.00000000e-11  7.20000000e-02  2.00000000e-11  1.80018748e+00  2.00000000e-11  5.45589370e-01                                 
 4.00000000e-11  6.07372916e-01  4.00000000e-11  5.45509275e-01  4.00000000e-11  3.61368697e-01  4.00000000e-11  1.44000000e-01  4.00000000e-11  1.80016025e+00  4.00000000e-11  5.45509275e-01                                 
 8.00000000e-11  6.07180648e-01  8.00000000e-11  5.45349647e-01  8.00000000e-11  3.62104792e-01  8.00000000e-11  2.88000000e-01  8.00000000e-11  1.80007874e+00  8.00000000e-11  5.45349647e-01                                 
 1.60000000e-10  6.06799339e-01  1.60000000e-10  5.45032622e-01  1.60000000e-10  3.62644796e-01  1.60000000e-10  5.76000000e-01  1.60000000e-10  1.80003261e+00  1.60000000e-10  5.45032622e-01                                 
 3.20000000e-10  6.06049034e-01  3.20000000e-10  5.44407264e-01  3.20000000e-10  3.60030648e-01  3.20000000e-10  1.15200000e+00  3.20000000e-10  1.80023746e+00  3.20000000e-10  5.44407264e-01                                 
 5.00000000e-10  6.05224071e-01  5.00000000e-10  5.43717243e-01  5.00000000e-10  5.73967452e-01  5.00000000e-10  1.80000000e+00  5.00000000e-10  1.77934220e-01  5.00000000e-10  5.43717243e-01                                 
 5.22274504e-10  6.05123521e-01  5.22274504e-10  5.43632950e-01  5.22274504e-10  6.25630945e-01  5.22274504e-10  1.80000000e+00  5.22274504e-10  4.34535295e-02  5.22274504e-10  5.43632950e-01                                 
 5.66823513e-10  6.04923002e-01  5.66823513e-10  5.43464773e-01  5.66823513e-10  7.21615470e-01  5.66823513e-10  1.80000000e+00  5.66823513e-10 -1.61279532e-02  5.66823513e-10  5.43464773e-01                                 
 6.55921530e-10  6.04525488e-01  6.55921530e-10  5.43130939e-01  6.55921530e-10  8.77945528e-01  6.55921530e-10  1.80000000e+00  6.55921530e-10  1.41911944e-02  6.55921530e-10  5.43130939e-01                                 
 7.73745829e-10  6.04006861e-01  7.73745829e-10  5.42694527e-01  7.73745829e-10  1.04378854e+00  7.73745829e-10  1.80000000e+00  7.73745829e-10 -1.02566409e-02  7.73745829e-10  5.42694527e-01                                 
 9.61109542e-10  6.03198065e-01  9.61109542e-10  5.42012009e-01  9.61109542e-10  1.26046346e+00  9.61109542e-10  1.80000000e+00  9.61109542e-10  1.05705360e-02  9.61109542e-10  5.42012009e-01                                 
 1.32943744e-09  6.01661762e-01  1.32943744e-09  5.40709230e-01  1.32943744e-09  1.55963594e+00  1.32943744e-09  1.80000000e+00  1.32943744e-09 -8.86581170e-03  1.32943744e-09  5.40709230e-01                                 
 1.88591121e-09  5.99464490e-01  1.88591121e-09  5.38831811e-01  1.88591121e-09  1.76342486e+00  1.88591121e-09  1.80000000e+00  1.88591121e-09  9.08453230e-03  1.88591121e-09  5.38831811e-01                                 
 2.15670863e-09  5.98445434e-01  2.15670863e-09  5.37955367e-01  2.15670863e-09  1.79705265e+00  2.15670863e-09  1.80000000e+00  2.15670863e-09 -8.14223551e-03  2.15670863e-09  5.37955367e-01                                 
 2.49688953e-09  5.97207304e-01  2.49688953e-09  5.36885887e-01  2.49688953e-09  1.81633378e+00  2.49688953e-09  1.80000000e+00  2.49688953e-09  7.77673854e-03  2.49688953e-09  5.36885887e-01                                 
 2.87397661e-09  5.95885928e-01  2.87397661e-09  5.35739013e-01  2.87397661e-09  1.82365150e+00  2.87397661e-09  1.80000000e+00  2.87397661e-09 -7.25813116e-03  2.87397661e-09  5.35739013e-01                                 
 3.58113738e-09  5.93538062e-01  3.58113738e-09  5.33687913e-01  3.58113738e-09  1.82567958e+00  3.58113738e-09  1.80000000e+00  3.58113738e-09  7.09365334e-03  3.58113738e-09  5.33687913e-01                                 
 4.30553877e-09  5.91291590e-01  4.30553877e-09  5.31709687e-01  4.30553877e-09  1.82272465e+00  4.30553877e-09  1.80000000e+00  4.30553877e-09 -6.84365392e-03  4.30553877e-09  5.31709687e-01                                 
 5.72978469e-09  5.87260800e-01  5.72978469e-09  5.28125425e-01  5.72978469e-09  1.81911091e+00  5.72978469e-09  1.80000000e+00  5.72978469e-09  6.78149078e-03  5.72978469e-09  5.28125425e-01                                 
 7.73821258e-09  5.82274604e-01  7.73821258e-09  5.23634235e-01  7.73821258e-09  1.81461593e+00  7.73821258e-09  1.80000000e+00  7.73821258e-09 -6.66284254e-03  7.73821258e-09  5.23634235e-01                                 
 9.59854618e-09  5.78222814e-01  9.59854618e-09  5.19942246e-01  9.59854618e-09  1.81038724e+00  9.59854618e-09  1.80000000e+00  9.59854618e-09  6.62805053e-03  9.59854618e-09  5.19942246e-01                                 
 1.15232077e-08  5.74465289e-01  1.15232077e-08  5.16490137e-01  1.15232077e-08  1.80540463e+00  1.15232077e-08  1.80000000e+00  1.15232077e-08 -6.51776682e-03  1.15232077e-08  5.16490137e-01                                 
 1.30408726e-08  5.71753454e-01  1.30408726e-08  5.13984276e-01  1.30408726e-08  1.80217571e+00  1.30408726e-08  1.80000000e+00  1.30408726e-08  6.45862315e-03  1.30408726e-08  5.13984276e-01                                 
 1.45988186e-08  5.69157550e-01  1.45988186e-08  5.11576290e-01  1.45988186e-08  1.79842478e+00  1.45988186e-08  1.80000000e+00  1.45988186e-08 -6.33865683e-03  1.45988186e-08  5.11576290e-01                                 
 1.62612793e-08  5.66565295e-01  1.62612793e-08  5.09164181e-01  1.62612793e-08  1.79516106e+00  1.62612793e-08  1.80000000e+00  1.62612793e-08  6.28669930e-03  1.62612793e-08  5.09164181e-01                                 
 1.81499996e-08  5.63809298e-01  1.81499996e-08  5.06593075e-01  1.81499996e-08  1.79085707e+00  1.81499996e-08  1.80000000e+00  1.81499996e-08 -6.18626158e-03  1.81499996e-08  5.06593075e-01                                 
 2.07933048e-08  5.60233721e-01  2.07933048e-08  5.03249707e-01  2.07933048e-08  1.78548977e+00  2.07933048e-08  1.80000000e+00  2.07933048e-08  6.16453071e-03  2.07933048e-08  5.03249707e-01                                 
 2.38580372e-08  5.56429690e-01  2.38580372e-08  4.99685984e-01  2.38580372e-08  1.77853804e+00  2.38580372e-08  1.80000000e+00  2.38580372e-08 -6.09303595e-03  2.38580372e-08  4.99685984e-01                                 
 2.89111148e-08  5.50769480e-01  2.89111148e-08  4.94378844e-01  2.89111148e-08  1.76736071e+00  2.89111148e-08  1.80000000e+00  2.89111148e-08  6.09539840e-03  2.89111148e-08  4.94378844e-01                                 
 3.52045741e-08  5.44575875e-01  3.52045741e-08  4.88568299e-01  3.52045741e-08  1.75260529e+00  3.52045741e-08  1.80000000e+00  3.52045741e-08 -6.04617976e-03  3.52045741e-08  4.88568299e-01                                 
 4.77914927e-08  5.34461291e-01  4.77914927e-08  4.79039518e-01  4.77914927e-08  1.72536187e+00  4.77914927e-08  1.80000000e+00  4.77914927e-08  6.06494873e-03  4.77914927e-08  4.79039518e-01                                 
 6.66018681e-08  5.27763609e-01  6.66018681e-08  4.71935841e-01  6.66018681e-08  1.70172868e+00  6.66018681e-08  1.80000000e+00  6.66018681e-08 -6.02667504e-03  6.66018681e-08  4.71935841e-01                                 
 8.94843078e-08  5.24782964e-01  8.94843078e-08  4.67885749e-01  8.94843078e-08  1.69219856e+00  8.94843078e-08  1.80000000e+00  8.94843078e-08  6.05402020e-03  8.94843078e-08  4.67885749e-01                                 
 1.08220342e-07  5.19455145e-01  1.08220342e-07  4.62569157e-01  1.08220342e-07  1.66803629e+00  1.08220342e-07  1.80000000e+00  1.08220342e-07 -6.01570970e-03  1.08220342e-07  4.62569157e-01                                 
 1.26093548e-07  5.14183426e-01  1.26093548e-07  4.57495398e-01  1.26093548e-07  1.64438575e+00  1.26093548e-07  1.80000000e+00  1.26093548e-07  6.03990386e-03  1.26093548e-07  4.57495398e-01                                 
 1.50236988e-07  5.08777295e-01  1.50236988e-07  4.52159314e-01  1.50236988e-07  1.61464109e+00  1.50236988e-07  1.80000000e+00  1.50236988e-07 -6.00296280e-03  1.50236988e-07  4.52159314e-01                                 
 1.75511079e-07  5.03806801e-01  1.75511079e-07  4.47272383e-01  1.75511079e-07  1.58520932e+00  1.75511079e-07  1.80000000e+00  1.75511079e-07  6.02965724e-03  1.75511079e-07  4.47272383e-01                                 
 2.22718427e-07  4.90194893e-01  2.22718427e-07  4.35015948e-01  2.22718427e-07  1.52308010e+00  2.22718427e-07  1.80000000e+00  2.22718427e-07 -5.99562178e-03  2.22718427e-07  4.35015948e-01                                 
 2.80017884e-07  4.72167799e-01  2.80017884e-07  4.19336644e-01  2.80017884e-07  1.44739781e+00  2.80017884e-07  1.80000000e+00  2.80017884e-07  6.02468200e-03  2.80017884e-07  4.19336644e-01                                 
 3.42326357e-07  4.54330651e-01  3.42326357e-07  4.04054971e-01  3.42326357e-07  1.36437787e+00  3.42326357e-07  1.80000000e+00  3.42326357e-07 -5.99130542e-03  3.42326357e-07  4.04054971e-01                                 
 4.36940601e-07  4.21566789e-01  4.36940601e-07  3.76888887e-01  4.36940601e-07  1.23461098e+00  4.36940601e-07  1.80000000e+00  4.36940601e-07  6.02116241e-03  4.36940601e-07  3.76888887e-01                                 
 5.83595870e-07  6.36227278e-01  5.83595870e-07  5.72288770e-01  5.83595870e-07  1.28353567e+00  5.83595870e-07  1.80000000e+00  5.83595870e-07 -5.98204947e-03  5.83595870e-07  5.72288770e-01                                 
 6.07642452e-07  6.78601656e-01  6.07642452e-07  6.14223609e-01  6.07642452e-07  1.29945165e+00  6.07642452e-07  1.80000000e+00  6.07642452e-07  6.24352968e-06  6.07642452e-07  6.14223609e-01                                 
 6.55735618e-07  7.22786249e-01  6.55735618e-07  6.55195144e-01  6.55735618e-07  1.29120863e+00  6.55735618e-07  1.80000000e+00  6.55735618e-07  5.00781811e-06  6.55735618e-07  6.55195144e-01                                 
 7.19908126e-07  7.38702009e-01  7.19908126e-07  6.68758265e-01  7.19908126e-07  1.23857266e+00  7.19908126e-07  1.80000000e+00  7.19908126e-07  3.07876659e-06  7.19908126e-07  6.68758265e-01                                 
 7.28342473e-07  7.38882950e-01  7.28342473e-07  6.68916639e-01  7.28342473e-07  1.22998608e+00  7.28342473e-07  1.80000000e+00  7.28342473e-07  3.54069829e-06  7.28342473e-07  6.68916639e-01                                 
 7.45211166e-07  7.39281159e-01  7.45211166e-07  6.69248424e-01  7.45211166e-07  1.21262263e+00  7.45211166e-07  1.80000000e+00  7.45211166e-07  3.52751226e-06  7.45211166e-07  6.69248424e-01                                 
 7.78948554e-07  7.39683326e-01  7.78948554e-07  6.69581221e-01  7.78948554e-07  1.17756612e+00  7.78948554e-07  1.80000000e+00  7.78948554e-07  3.49367702e-06  7.78948554e-07  6.69581221e-01                                 
 8.23119590e-07  7.40112129e-01  8.23119590e-07  6.69936057e-01  8.23119590e-07  1.13202478e+00  8.23119590e-07  1.80000000e+00  8.23119590e-07  3.53845995e-06  8.23119590e-07  6.69936057e-01                                 
 8.86765434e-07  7.29850536e-01  8.86765434e-07  6.61329310e-01  8.86765434e-07  1.05884597e+00  8.86765434e-07  1.80000000e+00  8.86765434e-07  2.78754379e-06  8.86765434e-07  6.61329310e-01                                 
 9.55628024e-07  7.16069282e-01  9.55628024e-07  6.49282758e-01  9.55628024e-07  9.85630112e-01  9.55628024e-07  1.80000000e+00  9.55628024e-07  3.52574001e-06  9.55628024e-07  6.49282758e-01                                 
 1.04419907e-06  7.28815854e-01  1.04419907e-06  6.60410256e-01  1.04419907e-06  9.32563396e-01  1.04419907e-06  1.80000000e+00  1.04419907e-06  4.53329331e-06  1.04419907e-06  6.60410256e-01                                 
 1.05547880e-06  7.31765130e-01  1.05547880e-06  6.62928958e-01  1.05547880e-06  9.27716708e-01  1.05547880e-06  1.80000000e+00  1.05547880e-06  4.32971002e-06  1.05547880e-06  6.62928958e-01                                 
 1.07803826e-06  7.35342766e-01  1.07803826e-06  6.65960362e-01  1.07803826e-06  9.16089690e-01  1.07803826e-06  1.80000000e+00  1.07803826e-06  3.88339237e-06  1.07803826e-06  6.65960362e-01                                 
 1.12315718e-06  7.26607698e-01  1.12315718e-06  6.58549832e-01  1.12315718e-06  8.79724325e-01  1.12315718e-06  1.80000000e+00  1.12315718e-06  2.81681255e-06  1.12315718e-06  6.58549832e-01                                 
 1.17965260e-06  7.19060650e-01  1.17965260e-06  6.51920679e-01  1.17965260e-06  8.38519338e-01  1.17965260e-06  1.80000000e+00  1.17965260e-06  4.18546943e-06  1.17965260e-06  6.51920679e-01                                 
 1.23863838e-06  7.29396226e-01  1.23863838e-06  6.60915988e-01  1.23863838e-06  8.13096014e-01  1.23863838e-06  1.80000000e+00  1.23863838e-06  4.21615520e-06  1.23863838e-06  6.60915988e-01                                 
 1.31733608e-06  7.28557936e-01  1.31733608e-06  6.60211179e-01  1.31733608e-06  7.67392217e-01  1.31733608e-06  1.80000000e+00  1.31733608e-06  3.41512307e-06  1.31733608e-06  6.60211179e-01                                 
 1.40075027e-06  7.23270987e-01  1.40075027e-06  6.55627381e-01  1.40075027e-06  7.19316617e-01  1.40075027e-06  1.80000000e+00  1.40075027e-06  4.06983238e-06  1.40075027e-06  6.55627381e-01                                 
 1.56757864e-06  7.28827520e-01  1.56757864e-06  6.60432534e-01  1.56757864e-06  6.70337701e-01  1.56757864e-06  1.80000000e+00  1.56757864e-06  4.02921931e-06  1.56757864e-06  6.60432534e-01                                 
 1.74198457e-06  7.25468280e-01  1.74198457e-06  6.57543616e-01  1.74198457e-06  6.49765429e-01  1.74198457e-06  1.80000000e+00  1.74198457e-06  4.04041368e-06  1.74198457e-06  6.57543616e-01                                 
 1.90595186e-06  7.26265357e-01  1.90595186e-06  6.58223931e-01  1.90595186e-06  6.58029359e-01  1.90595186e-06  1.80000000e+00  1.90595186e-06  4.24686600e-06  1.90595186e-06  6.58223931e-01                                 
 2.07074944e-06  7.27898733e-01  2.07074944e-06  6.59641320e-01  2.07074944e-06  6.61944295e-01  2.07074944e-06  1.80000000e+00  2.07074944e-06  4.03350013e-06  2.07074944e-06  6.59641320e-01                                 
 2.25818920e-06  7.24778039e-01  2.25818920e-06  6.56938092e-01  2.25818920e-06  6.55108244e-01  2.25818920e-06  1.80000000e+00  2.25818920e-06  4.10958226e-06  2.25818920e-06  6.56938092e-01                                 
 2.50858330e-06  7.28313724e-01  2.50858330e-06  6.59994866e-01  2.50858330e-06  6.61465969e-01  2.50858330e-06  1.80000000e+00  2.50858330e-06  4.18842111e-06  2.50858330e-06  6.59994866e-01                                 
 2.78037919e-06  7.24948861e-01  2.78037919e-06  6.57089218e-01  2.78037919e-06  6.56373734e-01  2.78037919e-06  1.80000000e+00  2.78037919e-06  3.98267232e-06  2.78037919e-06  6.57089218e-01                                 
 3.14746103e-06  7.27901008e-01  3.14746103e-06  6.59638038e-01  3.14746103e-06  6.60413050e-01  3.14746103e-06  1.80000000e+00  3.14746103e-06  4.28307978e-06  3.14746103e-06  6.59638038e-01                                 
 3.68285181e-06  7.25398913e-01  3.68285181e-06  6.57481805e-01  3.68285181e-06  6.57180022e-01  3.68285181e-06  1.80000000e+00  3.68285181e-06  3.92482142e-06  3.68285181e-06  6.57481805e-01                                 
 4.39503353e-06  7.27553825e-01  4.39503353e-06  6.59339006e-01  4.39503353e-06  6.59873689e-01  4.39503353e-06  1.80000000e+00  4.39503353e-06  4.31774413e-06  4.39503353e-06  6.59339006e-01                                 
 5.39503353e-06  7.25686148e-01  5.39503353e-06  6.57730513e-01  5.39503353e-06  6.57585667e-01  5.39503353e-06  1.80000000e+00  5.39503353e-06  3.90290522e-06  5.39503353e-06  6.57730513e-01                                 
 6.39503353e-06  7.27313672e-01  6.39503353e-06  6.59131356e-01  6.39503353e-06  6.59549274e-01  6.39503353e-06  1.80000000e+00  6.39503353e-06  4.33334658e-06  6.39503353e-06  6.59131356e-01                                 
 7.39503353e-06  7.25936875e-01  7.39503353e-06  6.57947603e-01  7.39503353e-06  6.57909516e-01  7.39503353e-06  1.80000000e+00  7.39503353e-06  3.88952402e-06  7.39503353e-06  6.57947603e-01                                 
 8.39503353e-06  7.27067980e-01  8.39503353e-06  6.58919241e-01  8.39503353e-06  6.59240250e-01  8.39503353e-06  1.80000000e+00  8.39503353e-06  4.34450093e-06  8.39503353e-06  6.58919241e-01                                 
 9.39503353e-06  7.26188403e-01  9.39503353e-06  6.58165319e-01  9.39503353e-06  6.58215546e-01  9.39503353e-06  1.80000000e+00  9.39503353e-06  3.88058660e-06  9.39503353e-06  6.58165319e-01                                 
 1.00005000e-05  7.26745921e-01  1.00005000e-05  6.58641163e-01  1.00005000e-05  6.58859386e-01  1.00005000e-05  1.80000000e+00  1.00005000e-05  4.35251955e-06  1.00005000e-05  6.58641163e-01                                 
 1.00005500e-05  7.26747740e-01  1.00005500e-05  6.58642422e-01  1.00005500e-05  6.51973978e-01  1.00005500e-05  1.62000000e+00  1.00005500e-05 -1.24596414e-04  1.00005500e-05  6.58642422e-01                                 
 1.00006500e-05  7.26750642e-01  1.00006500e-05  6.58644930e-01  1.00006500e-05  6.40678941e-01  1.00006500e-05  1.26000000e+00  1.00006500e-05 -9.22677897e-05  1.00006500e-05  6.58644930e-01                                 
 1.00008500e-05  7.26756944e-01  1.00008500e-05  6.58650707e-01  1.00008500e-05  6.32718254e-01  1.00008500e-05  5.40000000e-01  1.00008500e-05  2.34581775e-03  1.00008500e-05  6.58650707e-01                                 
 1.00010000e-05  7.26762566e-01  1.00010000e-05  6.58655596e-01  1.00010000e-05  6.05828120e-01  1.00010000e-05  0.00000000e+00  1.00010000e-05  1.53301288e+00  1.00010000e-05  6.58655596e-01                                 
 1.00010251e-05  7.26763496e-01  1.00010251e-05  6.58656445e-01  1.00010251e-05  5.87613827e-01  1.00010251e-05  0.00000000e+00  1.00010251e-05  1.69612340e+00  1.00010251e-05  6.58656445e-01                                 
 1.00010753e-05  7.26765456e-01  1.00010753e-05  6.58658177e-01  1.00010753e-05  5.57709726e-01  1.00010753e-05  0.00000000e+00  1.00010753e-05  1.81961931e+00  1.00010753e-05  6.58658177e-01                                 
 1.00011757e-05  7.26769618e-01  1.00011757e-05  6.58661789e-01  1.00011757e-05  5.37725090e-01  1.00011757e-05  0.00000000e+00  1.00011757e-05  1.78904660e+00  1.00011757e-05  6.58661789e-01                                 
 1.00013207e-05  7.26775839e-01  1.00013207e-05  6.58667217e-01  1.00013207e-05  5.42110866e-01  1.00013207e-05  0.00000000e+00  1.00013207e-05  1.80723059e+00  1.00013207e-05  6.58667217e-01                                 
 1.00014759e-05  7.26782761e-01  1.00014759e-05  6.58673227e-01  1.00014759e-05  5.41863028e-01  1.00014759e-05  0.00000000e+00  1.00014759e-05  1.79521637e+00  1.00014759e-05  6.58673227e-01                                 
