 time            v(vbep)         time            v(vben)         time            v(vout)         time            v(vphi1)        time            v(vphi2)        time            v(vref)         yes             currtemp       
 0.00000000e+00  7.85856705e-01  0.00000000e+00  7.41593321e-01  0.00000000e+00  6.74885115e-02  0.00000000e+00  0.00000000e+00  0.00000000e+00  1.79996910e+00  0.00000000e+00  5.00000000e-01  1.00000000e+00 -3.10000000e+01 
 5.00000000e-12  7.85838242e-01  5.00000000e-12  7.41577941e-01  5.00000000e-12  6.79105962e-02  5.00000000e-12  1.80000000e-02  5.00000000e-12  1.80004924e+00  5.00000000e-12  5.00000000e-01                                 
 1.00000000e-11  7.85820143e-01  1.00000000e-11  7.41562907e-01  1.00000000e-11  6.82881621e-02  1.00000000e-11  3.60000000e-02  1.00000000e-11  1.80008722e+00  1.00000000e-11  5.00000000e-01                                 
 2.00000000e-11  7.85784140e-01  2.00000000e-11  7.41532931e-01  2.00000000e-11  6.89820442e-02  2.00000000e-11  7.20000000e-02  2.00000000e-11  1.80011897e+00  2.00000000e-11  5.00000000e-01                                 
 4.00000000e-11  7.85712464e-01  4.00000000e-11  7.41473152e-01  4.00000000e-11  7.00968578e-02  4.00000000e-11  1.44000000e-01  4.00000000e-11  1.80008972e+00  4.00000000e-11  5.00000000e-01                                 
 8.00000000e-11  7.85569625e-01  8.00000000e-11  7.41353967e-01  8.00000000e-11  7.17670145e-02  8.00000000e-11  2.88000000e-01  8.00000000e-11  1.80003859e+00  8.00000000e-11  5.00000000e-01                                 
 1.60000000e-10  7.85286242e-01  1.60000000e-10  7.41117177e-01  1.60000000e-10  7.44848324e-02  1.60000000e-10  5.76000000e-01  1.60000000e-10  1.80000762e+00  1.60000000e-10  5.00000000e-01                                 
 3.20000000e-10  7.84728594e-01  3.20000000e-10  7.40650033e-01  3.20000000e-10  1.10461270e-01  3.20000000e-10  1.15200000e+00  3.20000000e-10  1.79985577e+00  3.20000000e-10  5.00000000e-01                                 
 5.00000000e-10  7.84115787e-01  5.00000000e-10  7.40134815e-01  5.00000000e-10  4.63242100e-01  5.00000000e-10  1.80000000e+00  5.00000000e-10  8.82180914e-02  5.00000000e-10  5.00000000e-01                                 
 5.20686954e-10  7.84046436e-01  5.20686954e-10  7.40076375e-01  5.20686954e-10  5.25441965e-01  5.20686954e-10  1.80000000e+00  5.20686954e-10  1.47410732e-02  5.20686954e-10  5.00000000e-01                                 
 5.62060861e-10  7.83908117e-01  5.62060861e-10  7.39959764e-01  5.62060861e-10  6.34565530e-01  5.62060861e-10  1.80000000e+00  5.62060861e-10 -6.90281469e-03  5.62060861e-10  5.00000000e-01                                 
 6.44808676e-10  7.83633807e-01  6.44808676e-10  7.39728218e-01  6.44808676e-10  7.90402216e-01  6.44808676e-10  1.80000000e+00  6.44808676e-10  6.25352915e-03  6.44808676e-10  5.00000000e-01                                 
 7.69900118e-10  7.83224913e-01  7.69900118e-10  7.39382362e-01  7.69900118e-10  9.51118052e-01  7.69900118e-10  1.80000000e+00  7.69900118e-10 -5.48674711e-03  7.69900118e-10  5.00000000e-01                                 
 9.56899517e-10  7.82626189e-01  9.56899517e-10  7.38874429e-01  9.56899517e-10  1.13065314e+00  9.56899517e-10  1.80000000e+00  9.56899517e-10  5.29397285e-03  9.56899517e-10  5.00000000e-01                                 
 1.25939737e-09  7.81687713e-01  1.25939737e-09  7.38074716e-01  1.25939737e-09  1.35038742e+00  1.25939737e-09  1.80000000e+00  1.25939737e-09 -5.01985040e-03  1.25939737e-09  5.00000000e-01                                 
 1.84383754e-09  7.79970343e-01  1.84383754e-09  7.36600465e-01  1.84383754e-09  1.58082557e+00  1.84383754e-09  1.80000000e+00  1.84383754e-09  4.99633529e-03  1.84383754e-09  5.00000000e-01                                 
 2.25497963e-09  7.78832493e-01  2.25497963e-09  7.35615866e-01  2.25497963e-09  1.63736838e+00  2.25497963e-09  1.80000000e+00  2.25497963e-09 -4.78078611e-03  2.25497963e-09  5.00000000e-01                                 
 2.62813691e-09  7.77844176e-01  2.62813691e-09  7.34755856e-01  2.62813691e-09  1.65703654e+00  2.62813691e-09  1.80000000e+00  2.62813691e-09  4.70835792e-03  2.62813691e-09  5.00000000e-01                                 
 2.99176277e-09  7.76918258e-01  2.99176277e-09  7.33946229e-01  2.99176277e-09  1.66366791e+00  2.99176277e-09  1.80000000e+00  2.99176277e-09 -4.52838072e-03  2.99176277e-09  5.00000000e-01                                 
 3.37316900e-09  7.75983358e-01  3.37316900e-09  7.33125025e-01  3.37316900e-09  1.66505042e+00  3.37316900e-09  1.80000000e+00  3.37316900e-09  4.42522454e-03  3.37316900e-09  5.00000000e-01                                 
 4.13598145e-09  7.74212907e-01  4.13598145e-09  7.31560269e-01  4.13598145e-09  1.66248008e+00  4.13598145e-09  1.80000000e+00  4.13598145e-09 -4.34187781e-03  4.13598145e-09  5.00000000e-01                                 
 5.03045688e-09  7.72286467e-01  5.03045688e-09  7.29843801e-01  5.03045688e-09  1.65717525e+00  5.03045688e-09  1.80000000e+00  5.03045688e-09  4.30516444e-03  5.03045688e-09  5.00000000e-01                                 
 6.81940775e-09  7.68820270e-01  6.81940775e-09  7.26723632e-01  6.81940775e-09  1.64705257e+00  6.81940775e-09  1.80000000e+00  6.81940775e-09 -4.26252202e-03  6.81940775e-09  5.00000000e-01                                 
 9.72677788e-09  7.64011576e-01  9.72677788e-09  7.22336593e-01  9.72677788e-09  1.63303238e+00  9.72677788e-09  1.80000000e+00  9.72677788e-09  4.26255649e-03  9.72677788e-09  5.00000000e-01                                 
 1.55415181e-08  7.56300400e-01  1.55415181e-08  7.15203440e-01  1.55415181e-08  1.61004029e+00  1.55415181e-08  1.80000000e+00  1.55415181e-08 -4.23819752e-03  1.55415181e-08  5.00000000e-01                                 
 2.71709986e-08  7.44926391e-01  2.71709986e-08  7.04569893e-01  2.71709986e-08  1.54970201e+00  2.71709986e-08  1.80000000e+00  2.71709986e-08  4.25071663e-03  2.71709986e-08  5.00000000e-01                                 
 4.76491479e-08  7.31264854e-01  4.76491479e-08  6.91742660e-01  4.76491479e-08  1.41070569e+00  4.76491479e-08  1.80000000e+00  4.76491479e-08 -4.23180689e-03  4.76491479e-08  5.00000000e-01                                 
 7.12543236e-08  7.24221500e-01  7.12543236e-08  6.84579465e-01  7.12543236e-08  1.30524235e+00  7.12543236e-08  1.80000000e+00  7.12543236e-08  4.24680047e-03  7.12543236e-08  5.00000000e-01                                 
 9.72497265e-08  7.26325870e-01  9.72497265e-08  6.84967195e-01  9.72497265e-08  1.20355572e+00  9.72497265e-08  1.80000000e+00  9.72497265e-08 -4.22782923e-03  9.72497265e-08  5.00000000e-01                                 
 1.14734288e-07  7.24674736e-01  1.14734288e-07  6.82976571e-01  1.14734288e-07  1.09184416e+00  1.14734288e-07  1.80000000e+00  1.14734288e-07  4.24224749e-03  1.14734288e-07  5.00000000e-01                                 
 1.36073618e-07  7.18159275e-01  1.36073618e-07  6.77085571e-01  1.36073618e-07  9.56502125e-01  1.36073618e-07  1.80000000e+00  1.36073618e-07 -4.22321332e-03  1.36073618e-07  5.00000000e-01                                 
 1.55740931e-07  7.13951298e-01  1.55740931e-07  6.73151141e-01  1.55740931e-07  8.61196926e-01  1.55740931e-07  1.80000000e+00  1.55740931e-07  4.23778764e-03  1.55740931e-07  5.00000000e-01                                 
 1.77158228e-07  7.09587669e-01  1.77158228e-07  6.69108977e-01  1.77158228e-07  7.71501445e-01  1.77158228e-07  1.80000000e+00  1.77158228e-07 -4.21873064e-03  1.77158228e-07  5.00000000e-01                                 
 2.01977001e-07  7.04822676e-01  2.01977001e-07  6.64729791e-01  2.01977001e-07  6.99850814e-01  2.01977001e-07  1.80000000e+00  2.01977001e-07  4.23377632e-03  2.01977001e-07  5.00000000e-01                                 
 2.40589508e-07  6.98476017e-01  2.40589508e-07  6.58887194e-01  2.40589508e-07  6.36985919e-01  2.40589508e-07  1.80000000e+00  2.40589508e-07 -4.21569280e-03  2.40589508e-07  5.00000000e-01                                 
 2.79425573e-07  6.92750665e-01  2.79425573e-07  6.53654295e-01  2.79425573e-07  5.83024231e-01  2.79425573e-07  1.80000000e+00  2.79425573e-07  4.23140796e-03  2.79425573e-07  5.00000000e-01                                 
 3.26928987e-07  6.86549470e-01  3.26928987e-07  6.48014304e-01  3.26928987e-07  5.34411911e-01  3.26928987e-07  1.80000000e+00  3.26928987e-07 -4.21354851e-03  3.26928987e-07  5.00000000e-01                                 
 4.21935814e-07  6.75612693e-01  4.21935814e-07  6.38184196e-01  4.21935814e-07  4.93835898e-01  4.21935814e-07  1.80000000e+00  4.21935814e-07  4.22997202e-03  4.21935814e-07  5.00000000e-01                                 
 5.84329264e-07  6.59622430e-01  5.84329264e-07  6.24100354e-01  5.84329264e-07  4.85334091e-01  5.84329264e-07  1.80000000e+00  5.84329264e-07 -4.21277818e-03  5.84329264e-07  5.00000000e-01                                 
 7.42244007e-07  6.46177519e-01  7.42244007e-07  6.12511979e-01  7.42244007e-07  4.90254734e-01  7.42244007e-07  1.80000000e+00  7.42244007e-07  4.22941258e-03  7.42244007e-07  5.00000000e-01                                 
 7.63418011e-07  6.44489499e-01  7.63418011e-07  6.11074569e-01  7.63418011e-07  4.95172340e-01  7.63418011e-07  1.80000000e+00  7.63418011e-07  5.32865988e-07  7.63418011e-07  5.00000000e-01                                 
 8.05766020e-07  6.41151156e-01  8.05766020e-07  6.08237399e-01  8.05766020e-07  5.04692150e-01  8.05766020e-07  1.80000000e+00  8.05766020e-07 -5.75984705e-07  8.05766020e-07  5.00000000e-01                                 
 8.90462036e-07  6.34792765e-01  8.90462036e-07  6.02858054e-01  8.90462036e-07  5.16256462e-01  8.90462036e-07  1.80000000e+00  8.90462036e-07  5.35464809e-07  8.90462036e-07  5.00000000e-01                                 
 1.00832432e-06  6.26602726e-01  1.00832432e-06  5.95971000e-01  1.00832432e-06  5.04290821e-01  1.00832432e-06  1.80000000e+00  1.00832432e-06 -5.71461596e-07  1.00832432e-06  5.00000000e-01                                 
 1.12818706e-06  6.18996573e-01  1.12818706e-06  5.89611145e-01  1.12818706e-06  4.90870468e-01  1.12818706e-06  1.80000000e+00  1.12818706e-06  5.40231869e-07  1.12818706e-06  5.00000000e-01                                 
 1.28835390e-06  6.09830373e-01  1.28835390e-06  5.81983902e-01  1.28835390e-06  4.91111941e-01  1.28835390e-06  1.80000000e+00  1.28835390e-06 -5.66866302e-07  1.28835390e-06  5.00000000e-01                                 
 1.43841926e-06  6.02193714e-01  1.43841926e-06  5.75653967e-01  1.43841926e-06  4.93744993e-01  1.43841926e-06  1.80000000e+00  1.43841926e-06  5.44776929e-07  1.43841926e-06  5.00000000e-01                                 
 1.72253764e-06  5.90322868e-01  1.72253764e-06  5.65829772e-01  1.72253764e-06  5.06473374e-01  1.72253764e-06  1.80000000e+00  1.72253764e-06 -5.60472099e-07  1.72253764e-06  5.00000000e-01                                 
 1.99894182e-06  5.83975878e-01  1.99894182e-06  5.60506170e-01  1.99894182e-06  5.04924275e-01  1.99894182e-06  1.80000000e+00  1.99894182e-06  5.57258063e-07  1.99894182e-06  5.00000000e-01                                 
 2.04413572e-06  5.83814926e-01  2.04413572e-06  5.60342082e-01  2.04413572e-06  5.03836748e-01  2.04413572e-06  1.80000000e+00  2.04413572e-06  4.81105715e-09  2.04413572e-06  5.00000000e-01                                 
 2.13452352e-06  5.84269498e-01  2.13452352e-06  5.60636600e-01  2.13452352e-06  5.03499254e-01  2.13452352e-06  1.80000000e+00  2.13452352e-06  1.03172862e-08  2.13452352e-06  5.00000000e-01                                 
 2.31529913e-06  5.94529033e-01  2.31529913e-06  5.68709046e-01  2.31529913e-06  5.07913765e-01  2.31529913e-06  1.80000000e+00  2.31529913e-06  3.85557163e-08  2.31529913e-06  5.00000000e-01                                 
 2.35166523e-06  5.99600749e-01  2.35166523e-06  5.72738553e-01  2.35166523e-06  5.08801174e-01  2.35166523e-06  1.80000000e+00  2.35166523e-06  5.16478514e-08  2.35166523e-06  5.00000000e-01                                 
 2.42439745e-06  6.15352485e-01  2.42439745e-06  5.85281456e-01  2.42439745e-06  5.10891777e-01  2.42439745e-06  1.80000000e+00  2.42439745e-06  1.03321218e-07  2.42439745e-06  5.00000000e-01                                 
 2.44258050e-06  6.22118196e-01  2.44258050e-06  5.90677627e-01  2.44258050e-06  5.11916543e-01  2.44258050e-06  1.80000000e+00  2.44258050e-06  1.30000260e-07  2.44258050e-06  5.00000000e-01                                 
 2.47894661e-06  6.40125815e-01  2.47894661e-06  6.05047986e-01  2.47894661e-06  5.15054586e-01  2.47894661e-06  1.80000000e+00  2.47894661e-06  2.15694058e-07  2.47894661e-06  5.00000000e-01                                 
 2.53310155e-06  7.12778430e-01  2.53310155e-06  6.63785485e-01  2.53310155e-06  5.29905298e-01  2.53310155e-06  1.80000000e+00  2.53310155e-06  7.51504439e-07  2.53310155e-06  5.00000000e-01                                 
 2.54174162e-06  7.34639004e-01  2.54174162e-06  6.82122803e-01  2.54174162e-06  5.34281944e-01  2.54174162e-06  1.80000000e+00  2.54174162e-06  9.80734948e-07  2.54174162e-06  5.00000000e-01                                 
 2.55902175e-06  7.79525820e-01  2.55902175e-06  7.25922900e-01  2.55902175e-06  5.40210098e-01  2.55902175e-06  1.80000000e+00  2.55902175e-06  1.30229530e-06  2.55902175e-06  5.00000000e-01                                 
 2.59358203e-06  8.33255349e-01  2.59358203e-06  7.87747392e-01  2.59358203e-06  5.28289223e-01  2.59358203e-06  1.80000000e+00  2.59358203e-06  3.67277630e-07  2.59358203e-06  5.00000000e-01                                 
 2.63162679e-06  8.79081037e-01  2.63162679e-06  8.30863582e-01  2.63162679e-06  5.24073137e-01  2.63162679e-06  1.80000000e+00  2.63162679e-06  9.12832228e-07  2.63162679e-06  5.00000000e-01                                 
 2.63881401e-06  8.88302500e-01  2.63881401e-06  8.38679859e-01  2.63881401e-06  5.25476352e-01  2.63881401e-06  1.80000000e+00  2.63881401e-06  7.06411165e-07  2.63881401e-06  5.00000000e-01                                 
 2.65318846e-06  9.07760960e-01  2.65318846e-06  8.53937204e-01  2.65318846e-06  5.27544302e-01  2.65318846e-06  1.80000000e+00  2.65318846e-06  7.11560339e-07  2.65318846e-06  5.00000000e-01                                 
 2.68193735e-06  9.47128775e-01  2.68193735e-06  8.79900548e-01  2.68193735e-06  5.28039802e-01  2.68193735e-06  1.80000000e+00  2.68193735e-06  6.66334638e-07  2.68193735e-06  5.00000000e-01                                 
 2.70329765e-06  9.54264762e-01  2.70329765e-06  8.84256787e-01  2.70329765e-06  5.18516117e-01  2.70329765e-06  1.80000000e+00  2.70329765e-06 -1.56693141e-07  2.70329765e-06  5.00000000e-01                                 
 2.72745189e-06  9.49329621e-01  2.72745189e-06  8.81370504e-01  2.72745189e-06  5.06220843e-01  2.72745189e-06  1.80000000e+00  2.72745189e-06 -8.50972920e-09  2.72745189e-06  5.00000000e-01                                 
 2.75039281e-06  9.51512644e-01  2.75039281e-06  8.82608293e-01  2.75039281e-06  5.05525201e-01  2.75039281e-06  1.80000000e+00  2.75039281e-06  1.22494324e-07  2.75039281e-06  5.00000000e-01                                 
 2.77652779e-06  9.49974980e-01  2.77652779e-06  8.81787803e-01  2.77652779e-06  5.04433145e-01  2.77652779e-06  1.80000000e+00  2.77652779e-06 -1.39068640e-07  2.77652779e-06  5.00000000e-01                                 
 2.81225438e-06  9.50062316e-01  2.81225438e-06  8.81762821e-01  2.81225438e-06  5.03877076e-01  2.81225438e-06  1.80000000e+00  2.81225438e-06  1.32486828e-07  2.81225438e-06  5.00000000e-01                                 
 2.86251170e-06  9.49308626e-01  2.86251170e-06  8.81406427e-01  2.86251170e-06  5.04007409e-01  2.86251170e-06  1.80000000e+00  2.86251170e-06 -1.21103212e-07  2.86251170e-06  5.00000000e-01                                 
 2.95694123e-06  9.48245648e-01  2.95694123e-06  8.80713263e-01  2.95694123e-06  5.03188768e-01  2.95694123e-06  1.80000000e+00  2.95694123e-06  1.14450503e-07  2.95694123e-06  5.00000000e-01                                 
 3.14580029e-06  9.45940020e-01  3.14580029e-06  8.79443510e-01  3.14580029e-06  5.02473567e-01  3.14580029e-06  1.80000000e+00  3.14580029e-06 -1.11653091e-07  3.14580029e-06  5.00000000e-01                                 
 3.42360640e-06  9.42030133e-01  3.42360640e-06  8.77031865e-01  3.42360640e-06  5.00193232e-01  3.42360640e-06  1.80000000e+00  3.42360640e-06  1.07084774e-07  3.42360640e-06  5.00000000e-01                                 
 3.88011685e-06  9.33323757e-01  3.88011685e-06  8.71732116e-01  3.88011685e-06  4.96695707e-01  3.88011685e-06  1.80000000e+00  3.88011685e-06 -1.13637771e-07  3.88011685e-06  5.00000000e-01                                 
 3.99424446e-06  9.30059475e-01  3.99424446e-06  8.69588709e-01  3.99424446e-06  4.94889477e-01  3.99424446e-06  1.80000000e+00  3.99424446e-06 -1.00076772e-08  3.99424446e-06  5.00000000e-01                                 
 4.22249968e-06  9.21928364e-01  4.22249968e-06  8.64183284e-01  4.22249968e-06  4.90787002e-01  4.22249968e-06  1.80000000e+00  4.22249968e-06 -1.53219662e-08  4.22249968e-06  5.00000000e-01                                 
 4.67901013e-06  8.87197460e-01  4.67901013e-06  8.37854078e-01  4.67901013e-06  4.90835267e-01  4.67901013e-06  1.80000000e+00  4.67901013e-06 -5.38073589e-08  4.67901013e-06  5.00000000e-01                                 
 4.75994257e-06  8.79872926e-01  4.75994257e-06  8.31611928e-01  4.75994257e-06  4.94328635e-01  4.75994257e-06  1.80000000e+00  4.75994257e-06 -4.32098522e-08  4.75994257e-06  5.00000000e-01                                 
 4.92180744e-06  8.70422353e-01  4.92180744e-06  8.23247137e-01  4.92180744e-06  5.02841822e-01  4.92180744e-06  1.80000000e+00  4.92180744e-06 -8.58001227e-09  4.92180744e-06  5.00000000e-01                                 
 4.96227366e-06  8.69761622e-01  4.96227366e-06  8.22651778e-01  4.96227366e-06  5.05255890e-01  4.96227366e-06  1.80000000e+00  4.96227366e-06 -2.97390662e-09  4.96227366e-06  5.00000000e-01                                 
 5.04320609e-06  8.68847877e-01  5.04320609e-06  8.21824209e-01  5.04320609e-06  5.08081377e-01  5.04320609e-06  1.80000000e+00  5.04320609e-06  2.27560312e-09  5.04320609e-06  5.00000000e-01                                 
 5.20507097e-06  8.68343772e-01  5.20507097e-06  8.21366438e-01  5.20507097e-06  5.05152457e-01  5.20507097e-06  1.80000000e+00  5.20507097e-06  6.17508226e-09  5.20507097e-06  5.00000000e-01                                 
 5.47130664e-06  8.68330324e-01  5.47130664e-06  8.21354237e-01  5.47130664e-06  5.02412612e-01  5.47130664e-06  1.80000000e+00  5.47130664e-06  6.08540426e-09  5.47130664e-06  5.00000000e-01                                 
 5.74990170e-06  8.68334232e-01  5.74990170e-06  8.21357767e-01  5.74990170e-06  5.04560545e-01  5.74990170e-06  1.80000000e+00  5.74990170e-06  5.96596115e-09  5.74990170e-06  5.00000000e-01                                 
 6.21457102e-06  8.68332455e-01  6.21457102e-06  8.21356174e-01  6.21457102e-06  5.03186170e-01  6.21457102e-06  1.80000000e+00  6.21457102e-06  6.17609204e-09  6.21457102e-06  5.00000000e-01                                 
 6.76294688e-06  8.68333762e-01  6.76294688e-06  8.21357339e-01  6.76294688e-06  5.02551996e-01  6.76294688e-06  1.80000000e+00  6.76294688e-06  5.93885634e-09  6.76294688e-06  5.00000000e-01                                 
 7.76294688e-06  8.68332645e-01  7.76294688e-06  8.21356347e-01  7.76294688e-06  5.02551923e-01  7.76294688e-06  1.80000000e+00  7.76294688e-06  6.19393400e-09  7.76294688e-06  5.00000000e-01                                 
