 time            v(vbep)         time            v(vben)         time            v(vout)         time            v(vphi1)        time            v(vphi2)        time            v(vref)         time            v(voutc)        time            v(voutcc)       yes             currtemp       
 0.00000000e+00  7.32789474e-01  0.00000000e+00  6.68710554e-01  0.00000000e+00  1.52121723e+00  0.00000000e+00  0.00000000e+00  0.00000000e+00  1.80000000e+00  0.00000000e+00  6.69973638e-01  0.00000000e+00  1.52121722e+00  0.00000000e+00  1.52838773e+00  1.00000000e+00  5.40000000e+01 
 1.00000000e-11  7.32814588e-01  1.00000000e-11  6.68782550e-01  1.00000000e-11  1.52198905e+00  1.00000000e-11  1.80000000e-02  1.00000000e-11  1.80025328e+00  1.00000000e-11  6.70507693e-01  1.00000000e-11  1.52168907e+00  1.00000000e-11  1.52840194e+00                                 
 2.00000000e-11  7.32821451e-01  2.00000000e-11  6.68827333e-01  2.00000000e-11  1.52245617e+00  2.00000000e-11  3.60000000e-02  2.00000000e-11  1.80035287e+00  2.00000000e-11  6.70903158e-01  2.00000000e-11  1.52204428e+00  2.00000000e-11  1.52840716e+00                                 
 4.00000000e-11  7.32821466e-01  4.00000000e-11  6.68886084e-01  4.00000000e-11  1.52300985e+00  4.00000000e-11  7.20000000e-02  4.00000000e-11  1.80038996e+00  4.00000000e-11  6.71481186e-01  4.00000000e-11  1.52257184e+00  4.00000000e-11  1.52840882e+00                                 
 8.00000000e-11  7.32809830e-01  8.00000000e-11  6.68923406e-01  8.00000000e-11  1.52310205e+00  8.00000000e-11  1.44000000e-01  8.00000000e-11  1.80018482e+00  8.00000000e-11  6.71930439e-01  8.00000000e-11  1.52299668e+00  8.00000000e-11  1.52839831e+00                                 
 1.60000000e-10  7.32807080e-01  1.60000000e-10  6.68933709e-01  1.60000000e-10  1.52276512e+00  1.60000000e-10  2.88000000e-01  1.60000000e-10  1.80000512e+00  1.60000000e-10  6.72017060e-01  1.60000000e-10  1.52304272e+00  1.60000000e-10  1.52838897e+00                                 
 3.20000000e-10  7.32802735e-01  3.20000000e-10  6.68926848e-01  3.20000000e-10  1.52238269e+00  3.20000000e-10  5.76000000e-01  3.20000000e-10  1.79998409e+00  3.20000000e-10  6.71857572e-01  3.20000000e-10  1.52270779e+00  3.20000000e-10  1.52838415e+00                                 
 6.40000000e-10  7.32719298e-01  6.40000000e-10  6.68517636e-01  6.40000000e-10  1.52056403e+00  6.40000000e-10  1.15200000e+00  6.40000000e-10  1.81051669e+00  6.40000000e-10  6.69281499e-01  6.40000000e-10  1.52690265e+00  6.40000000e-10  1.52841086e+00                                 
 1.00000000e-09  7.33316210e-01  1.00000000e-09  6.68855937e-01  1.00000000e-09  1.49852974e+00  1.00000000e-09  1.80000000e+00  1.00000000e-09  9.93459184e-02  1.00000000e-09  6.83283913e-01  1.00000000e-09  1.53020294e+00  1.00000000e-09  1.52839651e+00                                 
 1.03689751e-09  7.33379098e-01  1.03689751e-09  6.68878509e-01  1.03689751e-09  1.49725186e+00  1.03689751e-09  1.80000000e+00  1.03689751e-09  2.29121091e-02  1.03689751e-09  6.86427429e-01  1.03689751e-09  1.53194513e+00  1.03689751e-09  1.52842655e+00                                 
 1.11069254e-09  7.33530301e-01  1.11069254e-09  6.68930318e-01  1.11069254e-09  1.49570059e+00  1.11069254e-09  1.80000000e+00  1.11069254e-09 -1.08389533e-02  1.11069254e-09  6.90453512e-01  1.11069254e-09  1.53507668e+00  1.11069254e-09  1.52844610e+00                                 
 1.25828258e-09  7.33656091e-01  1.25828258e-09  6.68791277e-01  1.25828258e-09  1.49288585e+00  1.25828258e-09  1.80000000e+00  1.25828258e-09  8.74518152e-03  1.25828258e-09  6.90571812e-01  1.25828258e-09  1.53545308e+00  1.25828258e-09  1.52839822e+00                                 
 1.45077096e-09  7.33628718e-01  1.45077096e-09  6.68770977e-01  1.45077096e-09  1.49215335e+00  1.45077096e-09  1.80000000e+00  1.45077096e-09 -6.71128805e-03  1.45077096e-09  6.89728530e-01  1.45077096e-09  1.53452094e+00  1.45077096e-09  1.52843295e+00                                 
 1.66487867e-09  7.33531210e-01  1.66487867e-09  6.68767092e-01  1.66487867e-09  1.49194828e+00  1.66487867e-09  1.80000000e+00  1.66487867e-09  5.63599593e-03  1.66487867e-09  6.88195006e-01  1.66487867e-09  1.53339637e+00  1.66487867e-09  1.52845522e+00                                 
 2.02205453e-09  7.33283849e-01  2.02205453e-09  6.68720610e-01  2.02205453e-09  1.49171094e+00  2.02205453e-09  1.80000000e+00  2.02205453e-09 -5.05215670e-03  2.02205453e-09  6.85622127e-01  2.02205453e-09  1.53103854e+00  2.02205453e-09  1.52856585e+00                                 
 2.50396526e-09  7.33030773e-01  2.50396526e-09  6.68723403e-01  2.50396526e-09  1.49165976e+00  2.50396526e-09  1.80000000e+00  2.50396526e-09  4.56281821e-03  2.50396526e-09  6.82723491e-01  2.50396526e-09  1.52870439e+00  2.50396526e-09  1.52871002e+00                                 
 3.19926221e-09  7.32786763e-01  3.19926221e-09  6.68677654e-01  3.19926221e-09  1.49078157e+00  3.19926221e-09  1.80000000e+00  3.19926221e-09 -4.38609690e-03  3.19926221e-09  6.78773115e-01  3.19926221e-09  1.52519219e+00  3.19926221e-09  1.52892368e+00                                 
 4.25172595e-09  7.32641282e-01  4.25172595e-09  6.68695099e-01  4.25172595e-09  1.48955194e+00  4.25172595e-09  1.80000000e+00  4.25172595e-09  4.16265860e-03  4.25172595e-09  6.74725093e-01  4.25172595e-09  1.52186607e+00  4.25172595e-09  1.52913870e+00                                 
 5.89014250e-09  7.32571199e-01  5.89014250e-09  6.68670544e-01  5.89014250e-09  1.48594417e+00  5.89014250e-09  1.80000000e+00  5.89014250e-09 -4.09661606e-03  5.89014250e-09  6.70561960e-01  5.89014250e-09  1.51819269e+00  5.89014250e-09  1.52924409e+00                                 
 7.35035913e-09  7.32604382e-01  7.35035913e-09  6.68706152e-01  7.35035913e-09  1.48171734e+00  7.35035913e-09  1.80000000e+00  7.35035913e-09  3.96893671e-03  7.35035913e-09  6.69081702e-01  7.35035913e-09  1.51705664e+00  7.35035913e-09  1.52913256e+00                                 
 8.77332822e-09  7.32634332e-01  8.77332822e-09  6.68683761e-01  8.77332822e-09  1.47584268e+00  8.77332822e-09  1.80000000e+00  8.77332822e-09 -3.86959725e-03  8.77332822e-09  6.68078994e-01  8.77332822e-09  1.51608073e+00  8.77332822e-09  1.52893061e+00                                 
 1.02782552e-08  7.32689260e-01  1.02782552e-08  6.68716861e-01  1.02782552e-08  1.46896420e+00  1.02782552e-08  1.80000000e+00  1.02782552e-08  3.76390812e-03  1.02782552e-08  6.67980098e-01  1.02782552e-08  1.51610824e+00  1.02782552e-08  1.52866247e+00                                 
 1.23432234e-08  7.32728231e-01  1.23432234e-08  6.68692394e-01  1.23432234e-08  1.45761746e+00  1.23432234e-08  1.80000000e+00  1.23432234e-08 -3.69509811e-03  1.23432234e-08  6.67687449e-01  1.23432234e-08  1.51573197e+00  1.23432234e-08  1.52828320e+00                                 
 1.48398507e-08  7.32776388e-01  1.48398507e-08  6.68723456e-01  1.48398507e-08  1.44307306e+00  1.48398507e-08  1.80000000e+00  1.48398507e-08  3.63669175e-03  1.48398507e-08  6.68094615e-01  1.48398507e-08  1.51617465e+00  1.48398507e-08  1.52784031e+00                                 
 1.82854812e-08  7.32790068e-01  1.82854812e-08  6.68696451e-01  1.82854812e-08  1.42121548e+00  1.82854812e-08  1.80000000e+00  1.82854812e-08 -3.59496063e-03  1.82854812e-08  6.68192380e-01  1.82854812e-08  1.51612358e+00  1.82854812e-08  1.52730769e+00                                 
 2.28781566e-08  7.32807695e-01  2.28781566e-08  6.68725550e-01  2.28781566e-08  1.39167104e+00  2.28781566e-08  1.80000000e+00  2.28781566e-08  3.56501534e-03  2.28781566e-08  6.68835636e-01  2.28781566e-08  1.51675818e+00  2.28781566e-08  1.52673042e+00                                 
 3.04587381e-08  7.32794804e-01  3.04587381e-08  6.68697084e-01  3.04587381e-08  1.34163379e+00  3.04587381e-08  1.80000000e+00  3.04587381e-08 -3.54592247e-03  3.04587381e-08  6.69077819e-01  3.04587381e-08  1.51682893e+00  3.04587381e-08  1.52605148e+00                                 
 4.32860699e-08  7.32798879e-01  4.32860699e-08  6.68725203e-01  4.32860699e-08  1.25737117e+00  4.32860699e-08  1.80000000e+00  4.32860699e-08  3.53556721e-03  4.32860699e-08  6.69760862e-01  4.32860699e-08  1.51750034e+00  4.32860699e-08  1.52539079e+00                                 
 6.79543042e-08  7.32785026e-01  6.79543042e-08  6.68696339e-01  6.79543042e-08  1.09561271e+00  6.79543042e-08  1.80000000e+00  6.79543042e-08 -3.52929682e-03  6.79543042e-08  6.69811747e-01  6.79543042e-08  1.51742447e+00  6.79543042e-08  1.52491656e+00                                 
 1.01238877e-07  7.32793827e-01  1.01238877e-07  6.68724756e-01  1.01238877e-07  8.82902520e-01  1.01238877e-07  1.80000000e+00  1.01238877e-07  3.52696375e-03  1.01238877e-07  6.70091502e-01  1.01238877e-07  1.51777071e+00  1.01238877e-07  1.52480568e+00                                 
 1.37573436e-07  7.32786908e-01  1.37573436e-07  6.68696348e-01  1.37573436e-07  7.15552486e-01  1.37573436e-07  1.80000000e+00  1.37573436e-07 -3.51599727e-03  1.37573436e-07  6.69852552e-01  1.37573436e-07  1.51745628e+00  1.37573436e-07  1.52479295e+00                                 
 1.67173203e-07  7.32792567e-01  1.67173203e-07  6.68724976e-01  1.67173203e-07  6.72542602e-01  1.67173203e-07  1.80000000e+00  1.67173203e-07  3.52444267e-03  1.67173203e-07  6.70100331e-01  1.67173203e-07  1.51777537e+00  1.67173203e-07  1.52479069e+00                                 
 1.95306983e-07  7.32784206e-01  1.95306983e-07  6.68695931e-01  1.95306983e-07  6.71275705e-01  1.95306983e-07  1.80000000e+00  1.95306983e-07 -3.50491061e-03  1.95306983e-07  6.69851479e-01  1.95306983e-07  1.51745354e+00  1.95306983e-07  1.52479101e+00                                 
 2.19570380e-07  7.32794574e-01  2.19570380e-07  6.68725190e-01  2.19570380e-07  6.71323024e-01  2.19570380e-07  1.80000000e+00  2.19570380e-07  3.51426971e-03  2.19570380e-07  6.70095786e-01  2.19570380e-07  1.51776955e+00  2.19570380e-07  1.52478765e+00                                 
 2.44852510e-07  7.32784355e-01  2.44852510e-07  6.68695901e-01  2.44852510e-07  6.71212400e-01  2.44852510e-07  1.80000000e+00  2.44852510e-07 -3.49420407e-03  2.44852510e-07  6.69851718e-01  2.44852510e-07  1.51745219e+00  2.44852510e-07  1.52478747e+00                                 
 2.95416772e-07  7.32794581e-01  2.95416772e-07  6.68725194e-01  2.95416772e-07  6.71327986e-01  2.95416772e-07  1.80000000e+00  2.95416772e-07  3.50636644e-03  2.95416772e-07  6.70095439e-01  2.95416772e-07  1.51776658e+00  2.95416772e-07  1.52478426e+00                                 
 3.96545295e-07  7.32784372e-01  3.96545295e-07  6.68695906e-01  3.96545295e-07  6.71204961e-01  3.96545295e-07  1.80000000e+00  3.96545295e-07 -3.49026598e-03  3.96545295e-07  6.69851822e-01  3.96545295e-07  1.51744728e+00  3.96545295e-07  1.52478200e+00                                 
 5.98802340e-07  7.32794573e-01  5.98802340e-07  6.68725190e-01  5.98802340e-07  6.71330906e-01  5.98802340e-07  1.80000000e+00  5.98802340e-07  3.50439366e-03  5.98802340e-07  6.70095394e-01  5.98802340e-07  1.51775641e+00  5.98802340e-07  1.52477417e+00                                 
 1.00331643e-06  7.32784376e-01  1.00331643e-06  6.68695908e-01  1.00331643e-06  6.71203499e-01  1.00331643e-06  1.80000000e+00  1.00331643e-06 -3.48928650e-03  1.00331643e-06  6.69851842e-01  1.00331643e-06  1.51742710e+00  1.00331643e-06  1.52476181e+00                                 
 1.81234461e-06  7.32794571e-01  1.81234461e-06  6.68725190e-01  1.81234461e-06  6.71331577e-01  1.81234461e-06  1.80000000e+00  1.81234461e-06  3.50390065e-03  1.81234461e-06  6.70095385e-01  1.81234461e-06  1.51771597e+00  1.81234461e-06  1.52473379e+00                                 
 3.01234461e-06  7.32784377e-01  3.01234461e-06  6.68695909e-01  3.01234461e-06  6.71203108e-01  3.01234461e-06  1.80000000e+00  3.01234461e-06 -3.48902476e-03  3.01234461e-06  6.69851848e-01  3.01234461e-06  1.51736010e+00  3.01234461e-06  1.52469490e+00                                 
 4.21234461e-06  7.32794570e-01  4.21234461e-06  6.68725189e-01  4.21234461e-06  6.71331870e-01  4.21234461e-06  1.80000000e+00  4.21234461e-06  3.50368001e-03  4.21234461e-06  6.70095380e-01  4.21234461e-06  1.51763590e+00  4.21234461e-06  1.52465383e+00                                 
 5.41234461e-06  7.32784378e-01  5.41234461e-06  6.68695909e-01  5.41234461e-06  6.71202798e-01  5.41234461e-06  1.80000000e+00  5.41234461e-06 -3.48881043e-03  5.41234461e-06  6.69851852e-01  5.41234461e-06  1.51728011e+00  5.41234461e-06  1.52461499e+00                                 
 6.00100000e-06  7.32794568e-01  6.00100000e-06  6.68725188e-01  6.00100000e-06  6.71332309e-01  6.00100000e-06  1.80000000e+00  6.00100000e-06  3.50334348e-03  6.00100000e-06  6.70095374e-01  6.00100000e-06  1.51757627e+00  6.00100000e-06  1.52459429e+00                                 
 6.00110000e-06  7.32742790e-01  6.00110000e-06  6.68472700e-01  6.00110000e-06  6.69454735e-01  6.00110000e-06  1.62000000e+00  6.00110000e-06  2.04642902e-04  6.00110000e-06  6.68402586e-01  6.00110000e-06  1.51608048e+00  6.00110000e-06  1.52458344e+00                                 
 6.00130000e-06  7.32774915e-01  6.00130000e-06  6.68471355e-01  6.00130000e-06  6.69592044e-01  6.00130000e-06  1.26000000e+00  6.00130000e-06 -2.39318476e-04  6.00130000e-06  6.68197268e-01  6.00130000e-06  1.51589911e+00  6.00130000e-06  1.52460015e+00                                 
 6.00165768e-06  7.32837198e-01  6.00165768e-06  6.68667160e-01  6.00165768e-06  6.71569331e-01  6.00165768e-06  6.16178649e-01  6.00165768e-06  3.20026413e-03  6.00165768e-06  6.68546417e-01  6.00165768e-06  1.51293640e+00  6.00165768e-06  1.52457648e+00                                 
 6.00200000e-06  7.32776861e-01  6.00200000e-06  6.67199797e-01  6.00200000e-06  7.04027947e-01  6.00200000e-06  0.00000000e+00  6.00200000e-06  1.60034302e+00  6.00200000e-06  6.53013216e-01  6.00200000e-06  1.32181859e+00  6.00200000e-06  1.52399684e+00                                 
 6.00204111e-06  7.32791832e-01  6.00204111e-06  6.66768157e-01  6.00204111e-06  7.10411868e-01  6.00204111e-06  0.00000000e+00  6.00204111e-06  1.72235332e+00  6.00204111e-06  6.48127073e-01  6.00204111e-06  1.26111051e+00  6.00204111e-06  1.52400334e+00                                 
 6.00212332e-06  7.32792318e-01  6.00212332e-06  6.65982183e-01  6.00212332e-06  7.14994930e-01  6.00212332e-06  0.00000000e+00  6.00212332e-06  1.81342601e+00  6.00212332e-06  6.39484179e-01  6.00212332e-06  1.13541663e+00  6.00212332e-06  1.52436850e+00                                 
 6.00228774e-06  7.32787885e-01  6.00228774e-06  6.65855600e-01  6.00228774e-06  7.05904301e-01  6.00228774e-06  0.00000000e+00  6.00228774e-06  1.78946504e+00  6.00228774e-06  6.38958760e-01  6.00228774e-06  9.35657139e-01  6.00228774e-06  1.52485542e+00                                 
 6.00244140e-06  7.32790337e-01  6.00244140e-06  6.66415512e-01  6.00244140e-06  6.98931015e-01  6.00244140e-06  0.00000000e+00  6.00244140e-06  1.80376423e+00  6.00244140e-06  6.45399053e-01  6.00244140e-06  8.17378100e-01  6.00244140e-06  1.52481639e+00                                 
 6.00262942e-06  7.32786950e-01  6.00262942e-06  6.67268295e-01  6.00262942e-06  6.87131121e-01  6.00262942e-06  0.00000000e+00  6.00262942e-06  1.79671359e+00  6.00262942e-06  6.53909602e-01  6.00262942e-06  7.30869614e-01  6.00262942e-06  1.52502943e+00                                 
 6.00285467e-06  7.32790021e-01  6.00285467e-06  6.68298288e-01  6.00285467e-06  6.77294526e-01  6.00285467e-06  0.00000000e+00  6.00285467e-06  1.80189822e+00  6.00285467e-06  6.63751448e-01  6.00285467e-06  6.91513008e-01  6.00285467e-06  1.52484164e+00                                 
 6.00306880e-06  7.32787286e-01  6.00306880e-06  6.68745990e-01  6.00306880e-06  6.74115264e-01  6.00306880e-06  0.00000000e+00  6.00306880e-06  1.79886764e+00  6.00306880e-06  6.67079222e-01  6.00306880e-06  6.78298334e-01  6.00306880e-06  1.52443115e+00                                 
 6.00332567e-06  7.32790152e-01  6.00332567e-06  6.69086763e-01  6.00332567e-06  6.72220140e-01  6.00332567e-06  0.00000000e+00  6.00332567e-06  1.80083041e+00  6.00332567e-06  6.69854103e-01  6.00332567e-06  6.74114191e-01  6.00332567e-06  1.52350096e+00                                 
 6.00365126e-06  7.32787903e-01  6.00365126e-06  6.69168242e-01  6.00365126e-06  6.72560748e-01  6.00365126e-06  0.00000000e+00  6.00365126e-06  1.79942952e+00  6.00365126e-06  6.70313462e-01  6.00365126e-06  6.72266622e-01  6.00365126e-06  1.52214245e+00                                 
 6.00418495e-06  7.32790421e-01  6.00418495e-06  6.69218646e-01  6.00418495e-06  6.73155443e-01  6.00418495e-06  0.00000000e+00  6.00418495e-06  1.80049966e+00  6.00418495e-06  6.71208643e-01  6.00418495e-06  6.73326835e-01  6.00418495e-06  1.51949285e+00                                 
 6.00501104e-06  7.32788338e-01  6.00501104e-06  6.69126292e-01  6.00501104e-06  6.75649809e-01  6.00501104e-06  0.00000000e+00  6.00501104e-06  1.79958332e+00  6.00501104e-06  6.70999213e-01  6.00501104e-06  6.74964714e-01  6.00501104e-06  1.51509353e+00                                 
 6.00655508e-06  7.32790536e-01  6.00655508e-06  6.69043948e-01  6.00655508e-06  6.79539111e-01  6.00655508e-06  0.00000000e+00  6.00655508e-06  1.80041354e+00  6.00655508e-06  6.71451349e-01  6.00655508e-06  6.79580659e-01  6.00655508e-06  1.50623752e+00                                 
 6.00964318e-06  7.32788402e-01  6.00964318e-06  6.68827854e-01  6.00964318e-06  6.88636783e-01  6.00964318e-06  0.00000000e+00  6.00964318e-06  1.79962343e+00  6.00964318e-06  6.70960081e-01  6.00964318e-06  6.87886758e-01  6.00964318e-06  1.48775981e+00                                 
 6.01581937e-06  7.32790524e-01  6.01581937e-06  6.68706110e-01  6.01581937e-06  7.05378768e-01  6.01581937e-06  0.00000000e+00  6.01581937e-06  1.80039298e+00  6.01581937e-06  6.70971594e-01  6.01581937e-06  7.05410485e-01  6.01581937e-06  1.44984379e+00                                 
 6.02817176e-06  7.32788417e-01  6.02817176e-06  6.68680584e-01  6.02817176e-06  7.38420459e-01  6.02817176e-06  0.00000000e+00  6.02817176e-06  1.79963216e+00  6.02817176e-06  6.70159796e-01  6.02817176e-06  7.37550705e-01  6.02817176e-06  1.37806327e+00                                 
 6.04372578e-06  7.32790524e-01  6.04372578e-06  6.68721807e-01  6.04372578e-06  7.76401751e-01  6.04372578e-06  0.00000000e+00  6.04372578e-06  1.80038594e+00  6.04372578e-06  6.70263535e-01  6.04372578e-06  7.76501596e-01  6.04372578e-06  1.29659255e+00                                 
 6.07483383e-06  7.32788424e-01  6.07483383e-06  6.68695165e-01  6.07483383e-06  8.44873903e-01  6.07483383e-06  0.00000000e+00  6.07483383e-06  1.79963321e+00  6.07483383e-06  6.69787514e-01  6.07483383e-06  8.43438175e-01  6.07483383e-06  1.15466092e+00                                 
 6.12496909e-06  7.32790523e-01  6.12496909e-06  6.68725903e-01  6.12496909e-06  9.33143214e-01  6.12496909e-06  0.00000000e+00  6.12496909e-06  1.80037992e+00  6.12496909e-06  6.70140845e-01  6.12496909e-06  9.33759798e-01  6.12496909e-06  9.99824085e-01                                 
 6.22523962e-06  7.32788425e-01  6.22523962e-06  6.68695249e-01  6.22523962e-06  1.05220393e+00  6.22523962e-06  0.00000000e+00  6.22523962e-06  1.79962849e+00  6.22523962e-06  6.69790050e-01  6.22523962e-06  1.04963023e+00  6.22523962e-06  9.98722321e-01                                 
 6.28781739e-06  7.32790522e-01  6.28781739e-06  6.68725890e-01  6.28781739e-06  1.09622784e+00  6.28781739e-06  0.00000000e+00  6.28781739e-06  1.80037517e+00  6.28781739e-06  6.70150049e-01  6.28781739e-06  1.09753750e+00  6.28781739e-06  1.08511789e+00                                 
