 time            v(vbep)         time            v(vben)         time            v(vout)         time            v(vphi1)        time            v(vphi2)        time            v(vref)         time            v(voutc)        time            v(voutcc)       yes             currtemp       
 0.00000000e+00  6.63792623e-01  0.00000000e+00  5.89757961e-01  0.00000000e+00  1.28096175e+00  0.00000000e+00  0.00000000e+00  0.00000000e+00  1.79999997e+00  0.00000000e+00  5.88225507e-01  0.00000000e+00  1.28096173e+00  0.00000000e+00  1.28965705e+00  1.00000000e+00  9.90000000e+01 
 1.00000000e-11  6.63818042e-01  1.00000000e-11  5.89828132e-01  1.00000000e-11  1.28165576e+00  1.00000000e-11  1.80000000e-02  1.00000000e-11  1.80023785e+00  1.00000000e-11  5.88712982e-01  1.00000000e-11  1.28138706e+00  1.00000000e-11  1.28966974e+00                                 
 2.00000000e-11  6.63824713e-01  2.00000000e-11  5.89870139e-01  2.00000000e-11  1.28205932e+00  2.00000000e-11  3.60000000e-02  2.00000000e-11  1.80032686e+00  2.00000000e-11  5.89068202e-01  2.00000000e-11  1.28169989e+00  2.00000000e-11  1.28967403e+00                                 
 4.00000000e-11  6.63824348e-01  4.00000000e-11  5.89923209e-01  4.00000000e-11  1.28251333e+00  4.00000000e-11  7.20000000e-02  4.00000000e-11  1.80035105e+00  4.00000000e-11  5.89579103e-01  4.00000000e-11  1.28215385e+00  4.00000000e-11  1.28967487e+00                                 
 8.00000000e-11  6.63812498e-01  8.00000000e-11  5.89952221e-01  8.00000000e-11  1.28253072e+00  8.00000000e-11  1.44000000e-01  8.00000000e-11  1.80015113e+00  8.00000000e-11  5.89960519e-01  8.00000000e-11  1.28249715e+00  8.00000000e-11  1.28966550e+00                                 
 1.60000000e-10  6.63809757e-01  1.60000000e-10  5.89956486e-01  1.60000000e-10  1.28222415e+00  1.60000000e-10  2.88000000e-01  1.60000000e-10  1.80000446e+00  1.60000000e-10  5.90046326e-01  1.60000000e-10  1.28253756e+00  1.60000000e-10  1.28965776e+00                                 
 3.20000000e-10  6.63804156e-01  3.20000000e-10  5.89946417e-01  3.20000000e-10  1.28189051e+00  3.20000000e-10  5.76000000e-01  3.20000000e-10  1.79999020e+00  3.20000000e-10  5.89959628e-01  3.20000000e-10  1.28229931e+00  3.20000000e-10  1.28965299e+00                                 
 6.40000000e-10  6.63723786e-01  6.40000000e-10  5.89420238e-01  6.40000000e-10  1.28005459e+00  6.40000000e-10  1.15200000e+00  6.40000000e-10  1.80553506e+00  6.40000000e-10  5.85975647e-01  6.40000000e-10  1.28329533e+00  6.40000000e-10  1.28966462e+00                                 
 1.00000000e-09  6.64337506e-01  1.00000000e-09  5.89971912e-01  1.00000000e-09  1.26072029e+00  1.00000000e-09  1.80000000e+00  1.00000000e-09  1.22857115e-01  1.00000000e-09  5.94997848e-01  1.00000000e-09  1.28597483e+00  1.00000000e-09  1.28968093e+00                                 
 1.03890801e-09  6.64426748e-01  1.03890801e-09  5.89924066e-01  1.03890801e-09  1.25841889e+00  1.03890801e-09  1.80000000e+00  1.03890801e-09  3.09023582e-02  1.03890801e-09  5.96259063e-01  1.03890801e-09  1.28609454e+00  1.03890801e-09  1.28967975e+00                                 
 1.11672403e-09  6.64605703e-01  1.11672403e-09  5.89909119e-01  1.11672403e-09  1.25640394e+00  1.11672403e-09  1.80000000e+00  1.11672403e-09 -1.34344592e-02  1.11672403e-09  5.97674824e-01  1.11672403e-09  1.28702852e+00  1.11672403e-09  1.28969192e+00                                 
 1.27235607e-09  6.64665665e-01  1.27235607e-09  5.89772359e-01  1.27235607e-09  1.25472877e+00  1.27235607e-09  1.80000000e+00  1.27235607e-09  1.01971582e-02  1.27235607e-09  5.96441432e-01  1.27235607e-09  1.28626272e+00  1.27235607e-09  1.28967538e+00                                 
 1.51985836e-09  6.64512085e-01  1.51985836e-09  5.89772341e-01  1.51985836e-09  1.25454687e+00  1.51985836e-09  1.80000000e+00  1.51985836e-09 -8.24378149e-03  1.51985836e-09  5.95743624e-01  1.51985836e-09  1.28542816e+00  1.51985836e-09  1.28972164e+00                                 
 1.79103725e-09  6.64297646e-01  1.79103725e-09  5.89766802e-01  1.79103725e-09  1.25458803e+00  1.79103725e-09  1.80000000e+00  1.79103725e-09  6.92156205e-03  1.79103725e-09  5.94625521e-01  1.79103725e-09  1.28468420e+00  1.79103725e-09  1.28975517e+00                                 
 2.26480992e-09  6.63991034e-01  2.26480992e-09  5.89749273e-01  2.26480992e-09  1.25322851e+00  2.26480992e-09  1.80000000e+00  2.26480992e-09 -6.26313777e-03  2.26480992e-09  5.93121295e-01  2.26480992e-09  1.28322087e+00  2.26480992e-09  1.28984878e+00                                 
 3.05422177e-09  6.63750213e-01  3.05422177e-09  5.89762508e-01  3.05422177e-09  1.24945573e+00  3.05422177e-09  1.80000000e+00  3.05422177e-09  5.89976318e-03  3.05422177e-09  5.91281312e-01  3.05422177e-09  1.28182927e+00  3.05422177e-09  1.28995233e+00                                 
 4.63304548e-09  6.63602418e-01  4.63304548e-09  5.89737947e-01  4.63304548e-09  1.23866828e+00  4.63304548e-09  1.80000000e+00  4.63304548e-09 -5.71447434e-03  4.63304548e-09  5.88933156e-01  4.63304548e-09  1.27967173e+00  4.63304548e-09  1.29003797e+00                                 
 6.12381658e-09  6.63625867e-01  6.12381658e-09  5.89760410e-01  6.12381658e-09  1.22767135e+00  6.12381658e-09  1.80000000e+00  6.12381658e-09  5.56003562e-03  6.12381658e-09  5.88102005e-01  6.12381658e-09  1.27912846e+00  6.12381658e-09  1.28996410e+00                                 
 7.60486806e-09  6.63648184e-01  7.60486806e-09  5.89739262e-01  7.60486806e-09  1.21531542e+00  7.60486806e-09  1.80000000e+00  7.60486806e-09 -5.36148246e-03  7.60486806e-09  5.87581829e-01  7.60486806e-09  1.27852851e+00  7.60486806e-09  1.28983290e+00                                 
 9.41288073e-09  6.63704831e-01  9.41288073e-09  5.89765905e-01  9.41288073e-09  1.19955590e+00  9.41288073e-09  1.80000000e+00  9.41288073e-09  5.25419341e-03  9.41288073e-09  5.87555292e-01  9.41288073e-09  1.27865320e+00  9.41288073e-09  1.28963041e+00                                 
 1.18967912e-08  6.63741821e-01  1.18967912e-08  5.89743305e-01  1.18967912e-08  1.17601987e+00  1.18967912e-08  1.80000000e+00  1.18967912e-08 -5.12543985e-03  1.18967912e-08  5.87403353e-01  1.18967912e-08  1.27836417e+00  1.18967912e-08  1.28936523e+00                                 
 1.52523041e-08  6.63790285e-01  1.52523041e-08  5.89770327e-01  1.52523041e-08  1.14338055e+00  1.52523041e-08  1.80000000e+00  1.52523041e-08  5.08885408e-03  1.52523041e-08  5.87661700e-01  1.52523041e-08  1.27871792e+00  1.52523041e-08  1.28903929e+00                                 
 2.01855172e-08  6.63797504e-01  2.01855172e-08  5.89745642e-01  2.01855172e-08  1.09363480e+00  2.01855172e-08  1.80000000e+00  2.01855172e-08 -5.00634892e-03  2.01855172e-08  5.87669258e-01  2.01855172e-08  1.27856318e+00  2.01855172e-08  1.28867359e+00                                 
 2.62254023e-08  6.63809729e-01  2.62254023e-08  5.89770572e-01  2.62254023e-08  1.03307357e+00  2.62254023e-08  1.80000000e+00  2.62254023e-08  5.00400355e-03  2.62254023e-08  5.87968235e-01  2.62254023e-08  1.27895082e+00  2.62254023e-08  1.28835227e+00                                 
 3.54347872e-08  6.63792327e-01  3.54347872e-08  5.89745405e-01  3.54347872e-08  9.41318771e-01  3.54347872e-08  1.80000000e+00  3.54347872e-08 -4.94262790e-03  3.54347872e-08  5.87948711e-01  3.54347872e-08  1.27878074e+00  3.54347872e-08  1.28806063e+00                                 
 4.99143858e-08  6.63802181e-01  4.99143858e-08  5.89770794e-01  4.99143858e-08  8.01111050e-01  4.99143858e-08  1.80000000e+00  4.99143858e-08  4.96546477e-03  4.99143858e-08  5.88221707e-01  4.99143858e-08  1.27915118e+00  4.99143858e-08  1.28784552e+00                                 
 6.73355102e-08  6.63790649e-01  6.73355102e-08  5.89745563e-01  6.73355102e-08  6.60599027e-01  6.73355102e-08  1.80000000e+00  6.73355102e-08 -4.90775909e-03  6.73355102e-08  5.88120402e-01  6.73355102e-08  1.27892036e+00  6.73355102e-08  1.28777833e+00                                 
 8.52813374e-08  6.63798376e-01  8.52813374e-08  5.89771063e-01  8.52813374e-08  6.02024985e-01  8.52813374e-08  1.80000000e+00  8.52813374e-08  4.95071742e-03  8.52813374e-08  5.88314216e-01  8.52813374e-08  1.27922818e+00  8.52813374e-08  1.28777002e+00                                 
 1.01975159e-07  6.63782838e-01  1.01975159e-07  5.89744512e-01  1.01975159e-07  5.92155323e-01  1.01975159e-07  1.80000000e+00  1.01975159e-07 -4.87820841e-03  1.01975159e-07  5.88141644e-01  1.01975159e-07  1.27893846e+00  1.01975159e-07  1.28777868e+00                                 
 1.16646143e-07  6.63799546e-01  1.16646143e-07  5.89771314e-01  1.16646143e-07  5.88062892e-01  1.16646143e-07  1.80000000e+00  1.16646143e-07  4.92298805e-03  1.16646143e-07  5.88311692e-01  1.16646143e-07  1.27922504e+00  1.16646143e-07  1.28777587e+00                                 
 1.32733116e-07  6.63785851e-01  1.32733116e-07  5.89744548e-01  1.32733116e-07  5.87692987e-01  1.32733116e-07  1.80000000e+00  1.32733116e-07 -4.84937579e-03  1.32733116e-07  5.88140566e-01  1.32733116e-07  1.27893698e+00  1.32733116e-07  1.28777963e+00                                 
 1.64907062e-07  6.63798819e-01  1.64907062e-07  5.89771348e-01  1.64907062e-07  5.86456764e-01  1.64907062e-07  1.80000000e+00  1.64907062e-07  4.90245847e-03  1.64907062e-07  5.88311056e-01  1.64907062e-07  1.27922269e+00  1.64907062e-07  1.28777504e+00                                 
 2.09861064e-07  6.63786671e-01  2.09861064e-07  5.89744562e-01  2.09861064e-07  5.87027445e-01  2.09861064e-07  1.80000000e+00  2.09861064e-07 -4.83770620e-03  2.09861064e-07  5.88139826e-01  2.09861064e-07  1.27893401e+00  2.09861064e-07  1.28777690e+00                                 
 2.85199152e-07  6.63798442e-01  2.85199152e-07  5.89771352e-01  2.85199152e-07  5.86477207e-01  2.85199152e-07  1.80000000e+00  2.85199152e-07  4.89463635e-03  2.85199152e-07  5.88311251e-01  2.85199152e-07  1.27921887e+00  2.85199152e-07  1.28777098e+00                                 
 4.09554861e-07  6.63786879e-01  4.09554861e-07  5.89744559e-01  4.09554861e-07  5.86994992e-01  4.09554861e-07  1.80000000e+00  4.09554861e-07 -4.83306514e-03  4.09554861e-07  5.88139684e-01  4.09554861e-07  1.27892752e+00  4.09554861e-07  1.28777046e+00                                 
 6.05911723e-07  6.63798321e-01  6.05911723e-07  5.89771354e-01  6.05911723e-07  5.86485059e-01  6.05911723e-07  1.80000000e+00  6.05911723e-07  4.89174831e-03  6.05911723e-07  5.88311342e-01  6.05911723e-07  1.27920860e+00  6.05911723e-07  1.28776068e+00                                 
 9.37821973e-07  6.63786952e-01  9.37821973e-07  5.89744558e-01  9.37821973e-07  5.86983766e-01  9.37821973e-07  1.80000000e+00  9.37821973e-07 -4.83130193e-03  9.37821973e-07  5.88139626e-01  9.37821973e-07  1.27891052e+00  9.37821973e-07  1.28775348e+00                                 
 1.47237111e-06  6.63798278e-01  1.47237111e-06  5.89771355e-01  1.47237111e-06  5.86487851e-01  1.47237111e-06  1.80000000e+00  1.47237111e-06  4.89067509e-03  1.47237111e-06  5.88311378e-01  1.47237111e-06  1.27918076e+00  1.47237111e-06  1.28773286e+00                                 
 2.35652987e-06  6.63786977e-01  2.35652987e-06  5.89744557e-01  2.35652987e-06  5.86979750e-01  2.35652987e-06  1.80000000e+00  2.35652987e-06 -4.83064920e-03  2.35652987e-06  5.88139604e-01  2.35652987e-06  1.27886492e+00  2.35652987e-06  1.28770793e+00                                 
 3.55652987e-06  6.63798261e-01  3.55652987e-06  5.89771356e-01  3.55652987e-06  5.86489119e-01  3.55652987e-06  1.80000000e+00  3.55652987e-06  4.89024349e-03  3.55652987e-06  5.88311392e-01  3.55652987e-06  1.27911381e+00  3.55652987e-06  1.28766595e+00                                 
 4.75652987e-06  6.63786992e-01  4.75652987e-06  5.89744557e-01  4.75652987e-06  5.86977584e-01  4.75652987e-06  1.80000000e+00  4.75652987e-06 -4.83028684e-03  4.75652987e-06  5.88139592e-01  4.75652987e-06  1.27878778e+00  4.75652987e-06  1.28763085e+00                                 
 5.95652987e-06  6.63798247e-01  5.95652987e-06  5.89771356e-01  5.95652987e-06  5.86490140e-01  5.95652987e-06  1.80000000e+00  5.95652987e-06  4.88987735e-03  5.95652987e-06  5.88311404e-01  5.95652987e-06  1.27903666e+00  5.95652987e-06  1.28758885e+00                                 
 6.00100000e-06  6.63787175e-01  6.00100000e-06  5.89744551e-01  6.00100000e-06  5.86951448e-01  6.00100000e-06  1.80000000e+00  6.00100000e-06 -4.82522034e-03  6.00100000e-06  5.88139417e-01  6.00100000e-06  1.27874770e+00  6.00100000e-06  1.28759086e+00                                 
 6.00110000e-06  6.63740862e-01  6.00110000e-06  5.89522550e-01  6.00110000e-06  5.85340251e-01  6.00110000e-06  1.62000000e+00  6.00110000e-06 -5.64653801e-04  6.00110000e-06  5.86749771e-01  6.00110000e-06  1.27762900e+00  6.00110000e-06  1.28758070e+00                                 
 6.00130000e-06  6.63775151e-01  6.00130000e-06  5.89512312e-01  6.00130000e-06  5.85120384e-01  6.00130000e-06  1.26000000e+00  6.00130000e-06  3.88531509e-04  6.00130000e-06  5.86345525e-01  6.00130000e-06  1.27730024e+00  6.00130000e-06  1.28759226e+00                                 
 6.00164137e-06  6.63846121e-01  6.00164137e-06  5.89721671e-01  6.00164137e-06  5.87107163e-01  6.00164137e-06  6.45532549e-01  6.00164137e-06  1.46286331e-02  6.00164137e-06  5.86639178e-01  6.00164137e-06  1.27429925e+00  6.00164137e-06  1.28757163e+00                                 
 6.00196397e-06  6.63780493e-01  6.00196397e-06  5.88875809e-01  6.00196397e-06  6.14984090e-01  6.00196397e-06  6.48519429e-02  6.00196397e-06  1.59222290e+00  6.00196397e-06  5.77940079e-01  6.00196397e-06  1.11025714e+00  6.00196397e-06  1.28701601e+00                                 
 6.00200000e-06  6.63748321e-01  6.00200000e-06  5.88049219e-01  6.00200000e-06  6.24941332e-01  6.00200000e-06  0.00000000e+00  6.00200000e-06  1.75376405e+00  6.00200000e-06  5.69455998e-01  6.00200000e-06  1.05573650e+00  6.00200000e-06  1.28676009e+00                                 
 6.00202673e-06  6.63791400e-01  6.00202673e-06  5.87664181e-01  6.00202673e-06  6.29332013e-01  6.00202673e-06  0.00000000e+00  6.00202673e-06  1.77603286e+00  6.00202673e-06  5.64448460e-01  6.00202673e-06  1.00792182e+00  6.00202673e-06  1.28681013e+00                                 
 6.00208018e-06  6.63800481e-01  6.00208018e-06  5.87150728e-01  6.00208018e-06  6.31447818e-01  6.00208018e-06  0.00000000e+00  6.00208018e-06  1.79732099e+00  6.00208018e-06  5.58352540e-01  6.00208018e-06  9.19100559e-01  6.00208018e-06  1.28714816e+00                                 
 6.00217361e-06  6.63785990e-01  6.00217361e-06  5.87058343e-01  6.00217361e-06  6.24880013e-01  6.00217361e-06  0.00000000e+00  6.00217361e-06  1.79710500e+00  6.00217361e-06  5.57732759e-01  6.00217361e-06  7.96190884e-01  6.00217361e-06  1.28763108e+00                                 
 6.00236047e-06  6.63797376e-01  6.00236047e-06  5.87990538e-01  6.00236047e-06  6.07913460e-01  6.00236047e-06  0.00000000e+00  6.00236047e-06  1.79932460e+00  6.00236047e-06  5.67933977e-01  6.00236047e-06  6.59008986e-01  6.00236047e-06  1.28806761e+00                                 
 6.00254482e-06  6.63786631e-01  6.00254482e-06  5.89013607e-01  6.00254482e-06  5.95406580e-01  6.00254482e-06  0.00000000e+00  6.00254482e-06  1.80005093e+00  6.00254482e-06  5.78501716e-01  6.00254482e-06  6.12254676e-01  6.00254482e-06  1.28794874e+00                                 
 6.00273777e-06  6.63795941e-01  6.00273777e-06  5.89631428e-01  6.00273777e-06  5.90702265e-01  6.00273777e-06  0.00000000e+00  6.00273777e-06  1.80010018e+00  6.00273777e-06  5.84230736e-01  6.00273777e-06  5.96136256e-01  6.00273777e-06  1.28719209e+00                                 
 6.00291717e-06  6.63788199e-01  6.00291717e-06  5.89916706e-01  6.00291717e-06  5.88425149e-01  6.00291717e-06  0.00000000e+00  6.00291717e-06  1.80003435e+00  6.00291717e-06  5.86799481e-01  6.00291717e-06  5.91034731e-01  6.00291717e-06  1.28611819e+00                                 
 6.00319622e-06  6.63795312e-01  6.00319622e-06  5.90090214e-01  6.00319622e-06  5.88114671e-01  6.00319622e-06  0.00000000e+00  6.00319622e-06  1.80004386e+00  6.00319622e-06  5.88289227e-01  6.00319622e-06  5.88328055e-01  6.00319622e-06  1.28417255e+00                                 
 6.00358639e-06  6.63789245e-01  6.00358639e-06  5.90139446e-01  6.00358639e-06  5.88382626e-01  6.00358639e-06  0.00000000e+00  6.00358639e-06  1.79999841e+00  6.00358639e-06  5.88981761e-01  6.00358639e-06  5.88448146e-01  6.00358639e-06  1.28112424e+00                                 
 6.00426070e-06  6.63795336e-01  6.00426070e-06  5.90105394e-01  6.00426070e-06  5.90516776e-01  6.00426070e-06  0.00000000e+00  6.00426070e-06  1.80003172e+00  6.00426070e-06  5.89116227e-01  6.00426070e-06  5.90067563e-01  6.00426070e-06  1.27549083e+00                                 
 6.00525787e-06  6.63789753e-01  6.00525787e-06  5.90047561e-01  6.00525787e-06  5.93266712e-01  6.00525787e-06  0.00000000e+00  6.00525787e-06  1.79999616e+00  6.00525787e-06  5.89261161e-01  6.00525787e-06  5.93181112e-01  6.00525787e-06  1.26660389e+00                                 
 6.00725222e-06  6.63795347e-01  6.00725222e-06  5.89929279e-01  6.00725222e-06  5.99694685e-01  6.00725222e-06  0.00000000e+00  6.00725222e-06  1.80003080e+00  6.00725222e-06  5.89151229e-01  6.00725222e-06  5.99213338e-01  6.00725222e-06  1.24791208e+00                                 
 6.01124093e-06  6.63789879e-01  6.01124093e-06  5.89790598e-01  6.01124093e-06  6.11580352e-01  6.01124093e-06  0.00000000e+00  6.01124093e-06  1.79999529e+00  6.01124093e-06  5.89052958e-01  6.01124093e-06  6.11457801e-01  6.01124093e-06  1.20943695e+00                                 
 6.01786566e-06  6.63795332e-01  6.01786566e-06  5.89738951e-01  6.01786566e-06  6.31502674e-01  6.01786566e-06  0.00000000e+00  6.01786566e-06  1.80003009e+00  6.01786566e-06  5.88722755e-01  6.01786566e-06  6.30955898e-01  6.01786566e-06  1.14454689e+00                                 
 6.03111512e-06  6.63789907e-01  6.03111512e-06  5.89754356e-01  6.03111512e-06  6.68866804e-01  6.03111512e-06  0.00000000e+00  6.03111512e-06  1.79999435e+00  6.03111512e-06  5.88482909e-01  6.03111512e-06  6.68694680e-01  6.03111512e-06  1.01419188e+00                                 
 6.04465165e-06  6.63795328e-01  6.04465165e-06  5.89752515e-01  6.04465165e-06  7.05276821e-01  6.04465165e-06  0.00000000e+00  6.04465165e-06  1.80002863e+00  6.04465165e-06  5.88272494e-01  6.04465165e-06  7.04602684e-01  6.04465165e-06  8.88251551e-01                                 
 6.06291288e-06  6.63789921e-01  6.06291288e-06  5.89759728e-01  6.06291288e-06  7.50345062e-01  6.06291288e-06  0.00000000e+00  6.06291288e-06  1.79999268e+00  6.06291288e-06  5.88280288e-01  6.06291288e-06  7.50186775e-01  6.06291288e-06  7.85971019e-01                                 
 6.08120947e-06  6.63795320e-01  6.08120947e-06  5.89755363e-01  6.08120947e-06  7.92249912e-01  6.08120947e-06  0.00000000e+00  6.08120947e-06  1.80002654e+00  6.08120947e-06  5.88183668e-01  6.08120947e-06  7.91496606e-01  6.08120947e-06  7.74854025e-01                                 
 6.09512724e-06  6.63789932e-01  6.09512724e-06  5.89760246e-01  6.09512724e-06  8.21260888e-01  6.09512724e-06  0.00000000e+00  6.09512724e-06  1.79999112e+00  6.09512724e-06  5.88258932e-01  6.09512724e-06  8.21167913e-01  6.09512724e-06  7.98017865e-01                                 
 6.11085949e-06  6.63795309e-01  6.11085949e-06  5.89755573e-01  6.11085949e-06  8.52282020e-01  6.11085949e-06  0.00000000e+00  6.11085949e-06  1.80002487e+00  6.11085949e-06  5.88175335e-01  6.11085949e-06  8.51389672e-01  6.11085949e-06  8.28624176e-01                                 
