 time            v(vbep)         time            v(vben)         time            v(vout)         time            v(vphi1)        time            v(vphi2)        time            v(vref)         time            v(voutc)        time            v(voutcc)       yes             currtemp       
 0.00000000e+00  7.56361672e-01  0.00000000e+00  6.93156785e-01  0.00000000e+00  1.56325904e+00  0.00000000e+00  0.00000000e+00  0.00000000e+00  1.80000000e+00  0.00000000e+00  6.95064667e-01  0.00000000e+00  1.56325903e+00  0.00000000e+00  1.57013562e+00  1.00000000e+00  4.50000000e+01 
 5.00000000e-12  7.56383509e-01  5.00000000e-12  6.93210787e-01  5.00000000e-12  1.56388350e+00  5.00000000e-12  1.80000000e-02  5.00000000e-12  1.80018508e+00  5.00000000e-12  6.95456887e-01  5.00000000e-12  1.56360736e+00  5.00000000e-12  1.57014878e+00                                 
 1.00000000e-11  7.56393107e-01  1.00000000e-11  6.93246449e-01  1.00000000e-11  1.56433499e+00  1.00000000e-11  3.60000000e-02  1.00000000e-11  1.80026902e+00  1.00000000e-11  6.95765263e-01  1.00000000e-11  1.56388268e+00  1.00000000e-11  1.57015572e+00                                 
 2.00000000e-11  7.56399484e-01  2.00000000e-11  6.93296121e-01  2.00000000e-11  1.56498699e+00  2.00000000e-11  7.20000000e-02  2.00000000e-11  1.80032247e+00  2.00000000e-11  6.96247839e-01  2.00000000e-11  1.56431711e+00  2.00000000e-11  1.57016221e+00                                 
 4.00000000e-11  7.56387302e-01  4.00000000e-11  6.93332433e-01  4.00000000e-11  1.56542339e+00  4.00000000e-11  1.44000000e-01  4.00000000e-11  1.80019236e+00  4.00000000e-11  6.96711613e-01  4.00000000e-11  1.56475043e+00  4.00000000e-11  1.57015612e+00                                 
 8.00000000e-11  7.56373727e-01  8.00000000e-11  6.93337994e-01  8.00000000e-11  1.56529332e+00  8.00000000e-11  2.88000000e-01  8.00000000e-11  1.80003000e+00  8.00000000e-11  6.96844849e-01  8.00000000e-11  1.56491252e+00  8.00000000e-11  1.57014134e+00                                 
 1.60000000e-10  7.56374350e-01  1.60000000e-10  6.93325800e-01  1.60000000e-10  1.56480724e+00  1.60000000e-10  5.76000000e-01  1.60000000e-10  1.80000977e+00  1.60000000e-10  6.96643522e-01  1.60000000e-10  1.56477452e+00  1.60000000e-10  1.57013588e+00                                 
 3.20000000e-10  7.56307440e-01  3.20000000e-10  6.92883098e-01  3.20000000e-10  1.56101852e+00  3.20000000e-10  1.15200000e+00  3.20000000e-10  1.80073012e+00  3.20000000e-10  6.92807989e-01  3.20000000e-10  1.56163948e+00  3.20000000e-10  1.57010580e+00                                 
 5.00000000e-10  7.56397234e-01  5.00000000e-10  6.93350743e-01  5.00000000e-10  1.55715222e+00  5.00000000e-10  1.80000000e+00  5.00000000e-10  1.60692531e-01  5.00000000e-10  6.99034209e-01  5.00000000e-10  1.56692797e+00  5.00000000e-10  1.57019417e+00                                 
 5.21097503e-10  7.56397824e-01  5.21097503e-10  6.93386580e-01  5.21097503e-10  1.55650908e+00  5.21097503e-10  1.80000000e+00  5.21097503e-10  4.27576840e-02  5.21097503e-10  7.00617651e-01  5.21097503e-10  1.56782039e+00  5.21097503e-10  1.57018475e+00                                 
 5.63292509e-10  7.56472339e-01  5.63292509e-10  6.93456360e-01  5.63292509e-10  1.55591922e+00  5.63292509e-10  1.80000000e+00  5.63292509e-10 -1.53018924e-02  5.63292509e-10  7.02766840e-01  5.63292509e-10  1.56966995e+00  5.63292509e-10  1.57018117e+00                                 
 6.47682520e-10  7.56577772e-01  6.47682520e-10  6.93294609e-01  6.47682520e-10  1.55302282e+00  6.47682520e-10  1.80000000e+00  6.47682520e-10  1.20304869e-02  6.47682520e-10  7.02247522e-01  6.47682520e-10  1.56943566e+00  6.47682520e-10  1.57012902e+00                                 
 7.66794595e-10  7.56617460e-01  7.66794595e-10  6.93259347e-01  7.66794595e-10  1.55148703e+00  7.66794595e-10  1.80000000e+00  7.66794595e-10 -9.46623294e-03  7.66794595e-10  7.03449480e-01  7.66794595e-10  1.57031991e+00  7.66794595e-10  1.57015481e+00                                 
 9.44239599e-10  7.56672969e-01  9.44239599e-10  6.93226603e-01  9.44239599e-10  1.55053964e+00  9.44239599e-10  1.80000000e+00  9.44239599e-10  8.67701406e-03  9.44239599e-10  7.04227968e-01  9.44239599e-10  1.57115226e+00  9.44239599e-10  1.57012721e+00                                 
 1.29912961e-09  7.56647227e-01  1.29912961e-09  6.93151148e-01  1.29912961e-09  1.54859740e+00  1.29912961e-09  1.80000000e+00  1.29912961e-09 -7.89131682e-03  1.29912961e-09  7.03908480e-01  1.29912961e-09  1.57074515e+00  1.29912961e-09  1.57015270e+00                                 
 1.72001908e-09  7.56592645e-01  1.72001908e-09  6.93165960e-01  1.72001908e-09  1.54729664e+00  1.72001908e-09  1.80000000e+00  1.72001908e-09  7.58837541e-03  1.72001908e-09  7.03619198e-01  1.72001908e-09  1.57061823e+00  1.72001908e-09  1.57019409e+00                                 
 2.36819251e-09  7.56458211e-01  2.36819251e-09  6.93127132e-01  2.36819251e-09  1.54495186e+00  2.36819251e-09  1.80000000e+00  2.36819251e-09 -7.28865608e-03  2.36819251e-09  7.02140471e-01  2.36819251e-09  1.56920262e+00  2.36819251e-09  1.57030603e+00                                 
 3.03024478e-09  7.56395881e-01  3.03024478e-09  6.93157090e-01  3.03024478e-09  1.54316643e+00  3.03024478e-09  1.80000000e+00  3.03024478e-09  7.05027109e-03  3.03024478e-09  7.01437304e-01  3.03024478e-09  1.56870143e+00  3.03024478e-09  1.57042307e+00                                 
 4.02189553e-09  7.56330718e-01  4.02189553e-09  6.93124227e-01  4.02189553e-09  1.53940352e+00  4.02189553e-09  1.80000000e+00  4.02189553e-09 -6.88711633e-03  4.02189553e-09  6.99536094e-01  4.02189553e-09  1.56692376e+00  4.02189553e-09  1.57059196e+00                                 
 5.48924121e-09  7.56323702e-01  5.48924121e-09  6.93159284e-01  5.48924121e-09  1.53439395e+00  5.48924121e-09  1.80000000e+00  5.48924121e-09  6.78495863e-03  5.48924121e-09  6.98088564e-01  5.48924121e-09  1.56576922e+00  5.48924121e-09  1.57078340e+00                                 
 8.42393257e-09  7.56302593e-01  8.42393257e-09  6.93134637e-01  8.42393257e-09  1.52280958e+00  8.42393257e-09  1.80000000e+00  8.42393257e-09 -6.72402895e-03  8.42393257e-09  6.95253618e-01  8.42393257e-09  1.56318598e+00  8.42393257e-09  1.57095239e+00                                 
 1.18084120e-08  7.56322350e-01  1.18084120e-08  6.93171926e-01  1.18084120e-08  1.50910218e+00  1.18084120e-08  1.80000000e+00  1.18084120e-08  6.69697676e-03  1.18084120e-08  6.94373714e-01  1.18084120e-08  1.56252800e+00  1.18084120e-08  1.57089829e+00                                 
 1.44218228e-08  7.56322878e-01  1.44218228e-08  6.93140439e-01  1.44218228e-08  1.49679395e+00  1.44218228e-08  1.80000000e+00  1.44218228e-08 -6.61720035e-03  1.44218228e-08  6.93610047e-01  1.44218228e-08  1.56174892e+00  1.44218228e-08  1.57076567e+00                                 
 1.74668757e-08  7.56348216e-01  1.74668757e-08  6.93173199e-01  1.74668757e-08  1.48224955e+00  1.74668757e-08  1.80000000e+00  1.74668757e-08  6.59321157e-03  1.74668757e-08  6.93920336e-01  1.74668757e-08  1.56212072e+00  1.74668757e-08  1.57059154e+00                                 
 2.08459030e-08  7.56346783e-01  2.08459030e-08  6.93140839e-01  2.08459030e-08  1.46446457e+00  2.08459030e-08  1.80000000e+00  2.08459030e-08 -6.52362164e-03  2.08459030e-08  6.93594025e-01  2.08459030e-08  1.56172039e+00  2.08459030e-08  1.57040243e+00                                 
 2.56844138e-08  7.56368470e-01  2.56844138e-08  6.93173339e-01  2.56844138e-08  1.43880389e+00  2.56844138e-08  1.80000000e+00  2.56844138e-08  6.52042903e-03  2.56844138e-08  6.94228009e-01  2.56844138e-08  1.56237062e+00  2.56844138e-08  1.57018113e+00                                 
 3.13073565e-08  7.56359787e-01  3.13073565e-08  6.93140822e-01  3.13073565e-08  1.40744029e+00  3.13073565e-08  1.80000000e+00  3.13073565e-08 -6.46717521e-03  3.13073565e-08  6.94090399e-01  3.13073565e-08  1.56213627e+00  3.13073565e-08  1.56999253e+00                                 
 3.98091524e-08  7.56372704e-01  3.98091524e-08  6.93173234e-01  3.98091524e-08  1.36027152e+00  3.98091524e-08  1.80000000e+00  3.98091524e-08  6.47776638e-03  3.98091524e-08  6.94805483e-01  3.98091524e-08  1.56286058e+00  3.98091524e-08  1.56983256e+00                                 
 5.13130650e-08  7.56358267e-01  5.13130650e-08  6.93140619e-01  5.13130650e-08  1.29542503e+00  5.13130650e-08  1.80000000e+00  5.13130650e-08 -6.43761225e-03  5.13130650e-08  6.94638386e-01  5.13130650e-08  1.56260714e+00  5.13130650e-08  1.56975094e+00                                 
 7.19351761e-08  7.56368788e-01  7.19351761e-08  6.93173057e-01  7.19351761e-08  1.18044894e+00  7.19351761e-08  1.80000000e+00  7.19351761e-08  6.45823295e-03  7.19351761e-08  6.95218169e-01  7.19351761e-08  1.56322092e+00  7.19351761e-08  1.56976691e+00                                 
 1.05320446e-07  7.56355408e-01  1.05320446e-07  6.93140508e-01  1.05320446e-07  9.95383129e-01  1.05320446e-07  1.80000000e+00  1.05320446e-07 -6.42612877e-03  1.05320446e-07  6.94860932e-01  1.05320446e-07  1.56280607e+00  1.05320446e-07  1.56985101e+00                                 
 1.35767451e-07  7.56367098e-01  1.35767451e-07  6.93172994e-01  1.35767451e-07  8.35058673e-01  1.35767451e-07  1.80000000e+00  1.35767451e-07  6.44987976e-03  1.35767451e-07  6.95265086e-01  1.35767451e-07  1.56326406e+00  1.35767451e-07  1.56989369e+00                                 
 1.68123510e-07  7.56358155e-01  1.68123510e-07  6.93140616e-01  1.68123510e-07  7.21556841e-01  1.68123510e-07  1.80000000e+00  1.68123510e-07 -6.41465565e-03  1.68123510e-07  6.94861037e-01  1.68123510e-07  1.56280475e+00  1.68123510e-07  1.56990423e+00                                 
 1.93083981e-07  7.56365681e-01  1.93083981e-07  6.93173083e-01  1.93083981e-07  6.98095724e-01  1.93083981e-07  1.80000000e+00  1.93083981e-07  6.44212040e-03  1.93083981e-07  6.95273836e-01  1.93083981e-07  1.56326967e+00  1.93083981e-07  1.56991192e+00                                 
 2.16795089e-07  7.56355898e-01  2.16795089e-07  6.93140327e-01  2.16795089e-07  6.96937818e-01  2.16795089e-07  1.80000000e+00  2.16795089e-07 -6.40273285e-03  2.16795089e-07  6.94860460e-01  2.16795089e-07  1.56280272e+00  2.16795089e-07  1.56991084e+00                                 
 2.42155033e-07  7.56367186e-01  2.42155033e-07  6.93173232e-01  2.42155033e-07  6.97131346e-01  2.42155033e-07  1.80000000e+00  2.42155033e-07  6.43072357e-03  2.42155033e-07  6.95269492e-01  2.42155033e-07  1.56326402e+00  2.42155033e-07  1.56991267e+00                                 
 2.66130222e-07  7.56355950e-01  2.66130222e-07  6.93140311e-01  2.66130222e-07  6.96909597e-01  2.66130222e-07  1.80000000e+00  2.66130222e-07 -6.39150715e-03  2.66130222e-07  6.94859936e-01  2.66130222e-07  1.56280051e+00  2.66130222e-07  1.56990877e+00                                 
 3.14080600e-07  7.56367451e-01  3.14080600e-07  6.93173242e-01  3.14080600e-07  6.97120237e-01  3.14080600e-07  1.80000000e+00  3.14080600e-07  6.42195928e-03  3.14080600e-07  6.95269246e-01  3.14080600e-07  1.56326108e+00  3.14080600e-07  1.56990967e+00                                 
 4.09981357e-07  7.56355864e-01  4.09981357e-07  6.93140312e-01  4.09981357e-07  6.96904315e-01  4.09981357e-07  1.80000000e+00  4.09981357e-07 -6.38699150e-03  4.09981357e-07  6.94859976e-01  4.09981357e-07  1.56279531e+00  4.09981357e-07  1.56990324e+00                                 
 6.01782870e-07  7.56367495e-01  6.01782870e-07  6.93173241e-01  6.01782870e-07  6.97122177e-01  6.01782870e-07  1.80000000e+00  6.01782870e-07  6.41977817e-03  6.01782870e-07  6.95269224e-01  6.01782870e-07  1.56325050e+00  6.01782870e-07  1.56989913e+00                                 
 9.85385895e-07  7.56355842e-01  9.85385895e-07  6.93140313e-01  9.85385895e-07  6.96903351e-01  9.85385895e-07  1.80000000e+00  9.85385895e-07 -6.38591253e-03  9.85385895e-07  6.94859987e-01  9.85385895e-07  1.56277424e+00  9.85385895e-07  1.56988219e+00                                 
 1.75259195e-06  7.56367506e-01  1.75259195e-06  6.93173240e-01  1.75259195e-06  6.97122657e-01  1.75259195e-06  1.80000000e+00  1.75259195e-06  6.41923302e-03  1.75259195e-06  6.95269218e-01  1.75259195e-06  1.56320836e+00  1.75259195e-06  1.56985705e+00                                 
 2.75259195e-06  7.56355836e-01  2.75259195e-06  6.93140314e-01  2.75259195e-06  6.96903067e-01  2.75259195e-06  1.80000000e+00  2.75259195e-06 -6.38575129e-03  2.75259195e-06  6.94859990e-01  2.75259195e-06  1.56270955e+00  2.75259195e-06  1.56981759e+00                                 
 3.75259195e-06  7.56367511e-01  3.75259195e-06  6.93173240e-01  3.75259195e-06  6.97122903e-01  3.75259195e-06  1.80000000e+00  3.75259195e-06  6.41898615e-03  3.75259195e-06  6.95269216e-01  3.75259195e-06  1.56313511e+00  3.75259195e-06  1.56978392e+00                                 
 4.75259195e-06  7.56355831e-01  4.75259195e-06  6.93140314e-01  4.75259195e-06  6.96902820e-01  4.75259195e-06  1.80000000e+00  4.75259195e-06 -6.38550984e-03  4.75259195e-06  6.94859993e-01  4.75259195e-06  1.56263629e+00  4.75259195e-06  1.56974444e+00                                 
 5.75259195e-06  7.56367517e-01  5.75259195e-06  6.93173240e-01  5.75259195e-06  6.97123149e-01  5.75259195e-06  1.80000000e+00  5.75259195e-06  6.41870734e-03  5.75259195e-06  6.95269214e-01  5.75259195e-06  1.56306184e+00  5.75259195e-06  1.56971077e+00                                 
 6.75259195e-06  7.56355826e-01  6.75259195e-06  6.93140314e-01  6.75259195e-06  6.96902572e-01  6.75259195e-06  1.80000000e+00  6.75259195e-06 -6.38523388e-03  6.75259195e-06  6.94859996e-01  6.75259195e-06  1.56256302e+00  6.75259195e-06  1.56967127e+00                                 
 7.75259195e-06  7.56367522e-01  7.75259195e-06  6.93173239e-01  7.75259195e-06  6.97123394e-01  7.75259195e-06  1.80000000e+00  7.75259195e-06  6.41842855e-03  7.75259195e-06  6.95269211e-01  7.75259195e-06  1.56298856e+00  7.75259195e-06  1.56963760e+00                                 
 8.75259195e-06  7.56355820e-01  8.75259195e-06  6.93140314e-01  8.75259195e-06  6.96902325e-01  8.75259195e-06  1.80000000e+00  8.75259195e-06 -6.38495793e-03  8.75259195e-06  6.94859998e-01  8.75259195e-06  1.56248978e+00  8.75259195e-06  1.56959814e+00                                 
 9.75259195e-06  7.56367527e-01  9.75259195e-06  6.93173239e-01  9.75259195e-06  6.97123640e-01  9.75259195e-06  1.80000000e+00  9.75259195e-06  6.41814977e-03  9.75259195e-06  6.95269208e-01  9.75259195e-06  1.56291534e+00  9.75259195e-06  1.56956449e+00                                 
 1.00005000e-05  7.56355807e-01  1.00005000e-05  6.93140315e-01  1.00005000e-05  6.96901702e-01  1.00005000e-05  1.80000000e+00  1.00005000e-05 -6.38429966e-03  1.00005000e-05  6.94860004e-01  1.00005000e-05  1.56244411e+00  1.00005000e-05  1.56955251e+00                                 
 1.00005500e-05  7.56325665e-01  1.00005500e-05  6.92965687e-01  1.00005500e-05  6.95286367e-01  1.00005500e-05  1.62000000e+00  1.00005500e-05 -7.03479619e-04  1.00005500e-05  6.93530298e-01  1.00005500e-05  1.56132653e+00  1.00005500e-05  1.56953840e+00                                 
 1.00006500e-05  7.56353115e-01  1.00006500e-05  6.92945741e-01  1.00006500e-05  6.95329850e-01  1.00006500e-05  1.26000000e+00  1.00006500e-05  5.16244949e-04  1.00006500e-05  6.93233128e-01  1.00006500e-05  1.56107663e+00  1.00006500e-05  1.56955498e+00                                 
 1.00008500e-05  7.56395933e-01  1.00008500e-05  6.93144510e-01  1.00008500e-05  6.97598067e-01  1.00008500e-05  5.40000000e-01  1.00008500e-05 -4.56986786e-03  1.00008500e-05  6.94281700e-01  1.00008500e-05  1.56063847e+00  1.00008500e-05  1.56954910e+00                                 
 1.00010000e-05  7.56350022e-01  1.00010000e-05  6.92220933e-01  1.00010000e-05  7.18279308e-01  1.00010000e-05  0.00000000e+00  1.00010000e-05  1.51090367e+00  1.00010000e-05  6.83564367e-01  1.00010000e-05  1.50312873e+00  1.00010000e-05  1.56904444e+00                                 
 1.00010256e-05  7.56367247e-01  1.00010256e-05  6.91897034e-01  1.00010256e-05  7.24271136e-01  1.00010256e-05  0.00000000e+00  1.00010256e-05  1.69030394e+00  1.00010256e-05  6.79580217e-01  1.00010256e-05  1.47662046e+00  1.00010256e-05  1.56887498e+00                                 
 1.00010768e-05  7.56365857e-01  1.00010768e-05  6.91267052e-01  1.00010768e-05  7.30059534e-01  1.00010768e-05  0.00000000e+00  1.00010768e-05  1.82156211e+00  1.00010768e-05  6.72087373e-01  1.00010768e-05  1.41723671e+00  1.00010768e-05  1.56873485e+00                                 
 1.00011793e-05  7.56359010e-01  1.00011793e-05  6.91141363e-01  1.00011793e-05  7.24020381e-01  1.00011793e-05  0.00000000e+00  1.00011793e-05  1.78658613e+00  1.00011793e-05  6.71275503e-01  1.00011793e-05  1.31312233e+00  1.00011793e-05  1.56926677e+00                                 
 1.00013076e-05  7.56365766e-01  1.00013076e-05  6.91460641e-01  1.00013076e-05  7.20485716e-01  1.00013076e-05  0.00000000e+00  1.00013076e-05  1.80713782e+00  1.00013076e-05  6.75853410e-01  1.00013076e-05  1.21325998e+00  1.00013076e-05  1.56962844e+00                                 
 1.00015244e-05  7.56358217e-01  1.00015244e-05  6.91631523e-01  1.00015244e-05  7.16435556e-01  1.00015244e-05  0.00000000e+00  1.00015244e-05  1.79385319e+00  1.00015244e-05  6.77127139e-01  1.00015244e-05  1.07334125e+00  1.00015244e-05  1.56982450e+00                                 
 1.00018404e-05  7.56364692e-01  1.00018404e-05  6.92183088e-01  1.00018404e-05  7.11703902e-01  1.00018404e-05  0.00000000e+00  1.00018404e-05  1.80452774e+00  1.00018404e-05  6.82089418e-01  1.00018404e-05  9.27317168e-01  1.00018404e-05  1.56979056e+00                                 
 1.00022809e-05  7.56358453e-01  1.00022809e-05  6.92708717e-01  1.00022809e-05  7.06837655e-01  1.00022809e-05  0.00000000e+00  1.00022809e-05  1.79566212e+00  1.00022809e-05  6.86053791e-01  1.00022809e-05  7.90118844e-01  1.00022809e-05  1.56930188e+00                                 
 1.00027578e-05  7.56364498e-01  1.00027578e-05  6.93398013e-01  1.00027578e-05  7.00504321e-01  1.00027578e-05  0.00000000e+00  1.00027578e-05  1.80355709e+00  1.00027578e-05  6.92914815e-01  1.00027578e-05  7.24557199e-01  1.00027578e-05  1.56830896e+00                                 
 1.00031655e-05  7.56358876e-01  1.00031655e-05  6.93538667e-01  1.00031655e-05  6.99985044e-01  1.00031655e-05  0.00000000e+00  1.00031655e-05  1.79690038e+00  1.00031655e-05  6.94070063e-01  1.00031655e-05  7.05436593e-01  1.00031655e-05  1.56702148e+00                                 
 1.00036710e-05  7.56364248e-01  1.00036710e-05  6.93692403e-01  1.00036710e-05  6.99220134e-01  1.00036710e-05  0.00000000e+00  1.00036710e-05  1.80271211e+00  1.00036710e-05  6.96290259e-01  1.00036710e-05  7.01044331e-01  1.00036710e-05  1.56506252e+00                                 
 1.00042248e-05  7.56359204e-01  1.00042248e-05  6.93584554e-01  1.00042248e-05  7.01256384e-01  1.00042248e-05  0.00000000e+00  1.00042248e-05  1.79759208e+00  1.00042248e-05  6.95761716e-01  1.00042248e-05  6.99993656e-01  1.00042248e-05  1.56262859e+00                                 
 1.00051057e-05  7.56364068e-01  1.00051057e-05  6.93562006e-01  1.00051057e-05  7.02698368e-01  1.00051057e-05  0.00000000e+00  1.00051057e-05  1.80223358e+00  1.00051057e-05  6.96781985e-01  1.00051057e-05  7.02749731e-01  1.00051057e-05  1.55851523e+00                                 
 1.00065066e-05  7.56359344e-01  1.00065066e-05  6.93370865e-01  1.00065066e-05  7.07351079e-01  1.00065066e-05  0.00000000e+00  1.00065066e-05  1.79787246e+00  1.00065066e-05  6.96022203e-01  1.00065066e-05  7.05742377e-01  1.00065066e-05  1.55161844e+00                                 
