 time            v(vbep)         time            v(vben)         time            v(vout)         time            v(vphi1)        time            v(vphi2)        time            v(vref)         yes             currtemp       
 0.00000000e+00  6.56141482e-01  0.00000000e+00  5.97799379e-01  0.00000000e+00  1.08739102e+00  0.00000000e+00  0.00000000e+00  0.00000000e+00  1.79994597e+00  0.00000000e+00  5.97799379e-01  1.00000000e+00  4.60000000e+01 
 5.00000000e-12  6.56108553e-01  5.00000000e-12  5.97772176e-01  5.00000000e-12  1.08812729e+00  5.00000000e-12  1.80000000e-02  5.00000000e-12  1.80007254e+00  5.00000000e-12  5.97772176e-01                                 
 1.00000000e-11  6.56076619e-01  1.00000000e-11  5.97745737e-01  1.00000000e-11  1.08879738e+00  1.00000000e-11  3.60000000e-02  1.00000000e-11  1.80014792e+00  1.00000000e-11  5.97745737e-01                                 
 2.00000000e-11  6.56013371e-01  2.00000000e-11  5.97693080e-01  2.00000000e-11  1.09003403e+00  2.00000000e-11  7.20000000e-02  2.00000000e-11  1.80023217e+00  2.00000000e-11  5.97693080e-01                                 
 4.00000000e-11  6.55887939e-01  4.00000000e-11  5.97588213e-01  4.00000000e-11  1.09202743e+00  4.00000000e-11  1.44000000e-01  4.00000000e-11  1.80022262e+00  4.00000000e-11  5.97588213e-01                                 
 8.00000000e-11  6.55638397e-01  8.00000000e-11  5.97379500e-01  8.00000000e-11  1.09470946e+00  8.00000000e-11  2.88000000e-01  8.00000000e-11  1.80012672e+00  8.00000000e-11  5.97379500e-01                                 
 1.60000000e-10  6.55145053e-01  1.60000000e-10  5.96966120e-01  1.60000000e-10  1.09696961e+00  1.60000000e-10  5.76000000e-01  1.60000000e-10  1.80001791e+00  1.60000000e-10  5.96966120e-01                                 
 3.20000000e-10  6.54179865e-01  3.20000000e-10  5.96154930e-01  3.20000000e-10  1.08981736e+00  3.20000000e-10  1.15200000e+00  3.20000000e-10  1.80030066e+00  3.20000000e-10  5.96154930e-01                                 
 5.00000000e-10  6.53127059e-01  5.00000000e-10  5.95266227e-01  5.00000000e-10  1.19256919e+00  5.00000000e-10  1.80000000e+00  5.00000000e-10  1.59098757e-01  5.00000000e-10  5.95266227e-01                                 
 5.21568144e-10  6.53003429e-01  5.21568144e-10  5.95161584e-01  5.21568144e-10  1.21851212e+00  5.21568144e-10  1.80000000e+00  5.21568144e-10  4.06586538e-02  5.21568144e-10  5.95161584e-01                                 
 5.64704433e-10  6.52757081e-01  5.64704433e-10  5.94952948e-01  5.64704433e-10  1.27016195e+00  5.64704433e-10  1.80000000e+00  5.64704433e-10 -1.49579698e-02  5.64704433e-10  5.94952948e-01                                 
 6.50977011e-10  6.52269913e-01  6.50977011e-10  5.94539728e-01  6.50977011e-10  1.36266127e+00  6.50977011e-10  1.80000000e+00  6.50977011e-10  1.26231790e-02  6.50977011e-10  5.94539728e-01                                 
 7.71283087e-10  6.51602556e-01  7.71283087e-10  5.93972311e-01  7.71283087e-10  1.47379676e+00  7.71283087e-10  1.80000000e+00  7.71283087e-10 -9.52343341e-03  7.71283087e-10  5.93972311e-01                                 
 9.53036967e-10  6.50619681e-01  9.53036967e-10  5.93133805e-01  9.53036967e-10  1.60798096e+00  9.53036967e-10  1.80000000e+00  9.53036967e-10  9.36177316e-03  9.53036967e-10  5.93133805e-01                                 
 1.31654473e-09  6.48738779e-01  1.31654473e-09  5.91520043e-01  1.31654473e-09  1.77309116e+00  1.31654473e-09  1.80000000e+00  1.31654473e-09 -8.20459816e-03  1.31654473e-09  5.91520043e-01                                 
 1.64846998e-09  6.47113118e-01  1.64846998e-09  5.90115506e-01  1.64846998e-09  1.84199052e+00  1.64846998e-09  1.80000000e+00  1.64846998e-09  8.01228279e-03  1.64846998e-09  5.90115506e-01                                 
 2.01943765e-09  6.45389432e-01  2.01943765e-09  5.88616680e-01  2.01943765e-09  1.87279030e+00  2.01943765e-09  1.80000000e+00  2.01943765e-09 -7.40223998e-03  2.01943765e-09  5.88616680e-01                                 
 2.37592722e-09  6.43817328e-01  2.37592722e-09  5.87241191e-01  2.37592722e-09  1.88342050e+00  2.37592722e-09  1.80000000e+00  2.37592722e-09  7.05545511e-03  2.37592722e-09  5.87241191e-01                                 
 2.90206625e-09  6.41631140e-01  2.90206625e-09  5.85315554e-01  2.90206625e-09  1.88667014e+00  2.90206625e-09  1.80000000e+00  2.90206625e-09 -6.72370070e-03  2.90206625e-09  5.85315554e-01                                 
 3.56631396e-09  6.39072636e-01  3.56631396e-09  5.83043445e-01  3.56631396e-09  1.88580903e+00  3.56631396e-09  1.80000000e+00  3.56631396e-09  6.54613767e-03  3.56631396e-09  5.83043445e-01                                 
 4.69228134e-09  6.35161563e-01  4.69228134e-09  5.79534043e-01  4.69228134e-09  1.88190359e+00  4.69228134e-09  1.80000000e+00  4.69228134e-09 -6.39391200e-03  4.69228134e-09  5.79534043e-01                                 
 6.46587788e-09  6.29853269e-01  6.46587788e-09  5.74705317e-01  6.46587788e-09  1.87718724e+00  6.46587788e-09  1.80000000e+00  6.46587788e-09  6.34529507e-03  6.46587788e-09  5.74705317e-01                                 
 1.00130710e-08  6.21354482e-01  1.00130710e-08  5.66837511e-01  1.00130710e-08  1.86901498e+00  1.00130710e-08  1.80000000e+00  1.00130710e-08 -6.27459401e-03  1.00130710e-08  5.66837511e-01                                 
 1.21547036e-08  6.17238730e-01  1.21547036e-08  5.62964249e-01  1.21547036e-08  1.86551338e+00  1.21547036e-08  1.80000000e+00  1.21547036e-08  6.24224259e-03  1.21547036e-08  5.62964249e-01                                 
 1.36484617e-08  6.14679437e-01  1.36484617e-08  5.60538758e-01  1.36484617e-08  1.86290035e+00  1.36484617e-08  1.80000000e+00  1.36484617e-08 -6.12802227e-03  1.36484617e-08  5.60538758e-01                                 
 1.52002216e-08  6.12238214e-01  1.52002216e-08  5.58214266e-01  1.52002216e-08  1.86097956e+00  1.52002216e-08  1.80000000e+00  1.52002216e-08  6.06962631e-03  1.52002216e-08  5.58214266e-01                                 
 1.69408523e-08  6.09722486e-01  1.69408523e-08  5.55808362e-01  1.69408523e-08  1.85840642e+00  1.69408523e-08  1.80000000e+00  1.69408523e-08 -5.97230078e-03  1.69408523e-08  5.55808362e-01                                 
 1.90341564e-08  6.06958818e-01  1.90341564e-08  5.53153883e-01  1.90341564e-08  1.85614402e+00  1.90341564e-08  1.80000000e+00  1.90341564e-08  5.93533805e-03  1.90341564e-08  5.53153883e-01                                 
 2.13868676e-08  6.04137599e-01  2.13868676e-08  5.50432497e-01  2.13868676e-08  1.85320800e+00  2.13868676e-08  1.80000000e+00  2.13868676e-08 -5.85914479e-03  2.13868676e-08  5.50432497e-01                                 
 2.49852200e-08  6.00287699e-01  2.49852200e-08  5.46701863e-01  2.49852200e-08  1.84962515e+00  2.49852200e-08  1.80000000e+00  2.49852200e-08  5.84763355e-03  2.49852200e-08  5.46701863e-01                                 
 2.86699934e-08  5.96813549e-01  2.86699934e-08  5.43319925e-01  2.86699934e-08  1.84526751e+00  2.86699934e-08  1.80000000e+00  2.86699934e-08 -5.79114070e-03  2.86699934e-08  5.43319925e-01                                 
 3.60395402e-08  5.90855529e-01  3.60395402e-08  5.37497168e-01  3.60395402e-08  1.83614420e+00  3.60395402e-08  1.80000000e+00  3.60395402e-08  5.79755921e-03  3.60395402e-08  5.37497168e-01                                 
 4.63174604e-08  5.83904311e-01  4.63174604e-08  5.30714102e-01  4.63174604e-08  1.82207314e+00  4.63174604e-08  1.80000000e+00  4.63174604e-08 -5.76238340e-03  4.63174604e-08  5.30714102e-01                                 
 6.68733007e-08  5.71821981e-01  6.68733007e-08  5.19160549e-01  6.68733007e-08  1.80060382e+00  6.68733007e-08  1.80000000e+00  6.68733007e-08  5.78044727e-03  6.68733007e-08  5.19160549e-01                                 
 8.10732327e-08  5.62490748e-01  8.10732327e-08  5.10718090e-01  8.10732327e-08  1.78635704e+00  8.10732327e-08  1.80000000e+00  8.10732327e-08 -5.74805861e-03  8.10732327e-08  5.10718090e-01                                 
 9.74342958e-08  5.54051180e-01  9.74342958e-08  5.03016151e-01  9.74342958e-08  1.75303611e+00  9.74342958e-08  1.80000000e+00  9.74342958e-08  5.76359879e-03  9.74342958e-08  5.03016151e-01                                 
 1.13982593e-07  5.46357885e-01  1.13982593e-07  4.96056685e-01  1.13982593e-07  1.72326981e+00  1.13982593e-07  1.80000000e+00  1.13982593e-07 -5.73288529e-03  1.13982593e-07  4.96056685e-01                                 
 1.30926055e-07  5.39606221e-01  1.30926055e-07  4.89949436e-01  1.30926055e-07  1.69442525e+00  1.30926055e-07  1.80000000e+00  1.30926055e-07  5.74944566e-03  1.30926055e-07  4.89949436e-01                                 
 1.56052349e-07  5.40205098e-01  1.56052349e-07  4.89416432e-01  1.56052349e-07  1.68122834e+00  1.56052349e-07  1.80000000e+00  1.56052349e-07 -5.71849320e-03  1.56052349e-07  4.89416432e-01                                 
 1.79985285e-07  5.42571182e-01  1.79985285e-07  4.90429160e-01  1.79985285e-07  1.66709885e+00  1.79985285e-07  1.80000000e+00  1.79985285e-07  5.73970572e-03  1.79985285e-07  4.90429160e-01                                 
 2.00663549e-07  5.39505891e-01  2.00663549e-07  4.87340034e-01  2.00663549e-07  1.64212734e+00  2.00663549e-07  1.80000000e+00  2.00663549e-07 -5.70910412e-03  2.00663549e-07  4.87340034e-01                                 
 2.22175290e-07  5.35517909e-01  2.22175290e-07  4.83562134e-01  2.22175290e-07  1.61792074e+00  2.22175290e-07  1.80000000e+00  2.22175290e-07  5.72833759e-03  2.22175290e-07  4.83562134e-01                                 
 2.46805730e-07  5.29361086e-01  2.46805730e-07  4.78050374e-01  2.46805730e-07  1.58644519e+00  2.46805730e-07  1.80000000e+00  2.46805730e-07 -5.69910932e-03  2.46805730e-07  4.78050374e-01                                 
 2.91565396e-07  5.17382177e-01  2.91565396e-07  4.67575494e-01  2.91565396e-07  1.53088464e+00  2.91565396e-07  1.80000000e+00  2.91565396e-07  5.72081884e-03  2.91565396e-07  4.67575494e-01                                 
 3.40152509e-07  5.05340611e-01  3.40152509e-07  4.57169237e-01  3.40152509e-07  1.46858680e+00  3.40152509e-07  1.80000000e+00  3.40152509e-07 -5.69398667e-03  3.40152509e-07  4.57169237e-01                                 
 4.37326734e-07  4.76457260e-01  4.37326734e-07  4.33036387e-01  4.37326734e-07  1.34165353e+00  4.37326734e-07  1.80000000e+00  4.37326734e-07  5.71705702e-03  4.37326734e-07  4.33036387e-01                                 
 5.28177159e-07  4.59186683e-01  5.28177159e-07  4.18604047e-01  5.28177159e-07  1.22910695e+00  5.28177159e-07  1.80000000e+00  5.28177159e-07 -5.69113718e-03  5.28177159e-07  4.18604047e-01                                 
 6.10891571e-07  4.23231163e-01  6.10891571e-07  3.89589775e-01  6.10891571e-07  1.11012967e+00  6.10891571e-07  1.80000000e+00  6.10891571e-07  5.71356283e-03  6.10891571e-07  3.89589775e-01                                 
 6.95674241e-07  4.98853862e-01  6.95674241e-07  4.49858127e-01  6.95674241e-07  1.09288182e+00  6.95674241e-07  1.80000000e+00  6.95674241e-07 -5.68360364e-03  6.95674241e-07  4.49858127e-01                                 
 7.09268030e-07  5.64758868e-01  7.09268030e-07  5.02909392e-01  7.09268030e-07  1.14284674e+00  7.09268030e-07  1.80000000e+00  7.09268030e-07  7.80966354e-06  7.09268030e-07  5.02909392e-01                                 
 7.36455606e-07  6.84582681e-01  7.36455606e-07  6.21786597e-01  7.36455606e-07  1.23010665e+00  7.36455606e-07  1.80000000e+00  7.36455606e-07  1.38832573e-05  7.36455606e-07  6.21786597e-01                                 
 7.80545020e-07  7.54630876e-01  7.80545020e-07  6.91429664e-01  7.80545020e-07  1.25216885e+00  7.80545020e-07  1.80000000e+00  7.80545020e-07 -4.29881607e-06  7.80545020e-07  6.91429664e-01                                 
 8.26155960e-07  7.83221744e-01  8.26155960e-07  7.15159002e-01  8.26155960e-07  1.23067679e+00  8.26155960e-07  1.80000000e+00  8.26155960e-07  8.79504942e-06  8.26155960e-07  7.15159002e-01                                 
 8.75953718e-07  7.84123362e-01  8.75953718e-07  7.16075363e-01  8.75953718e-07  1.18076767e+00  8.75953718e-07  1.80000000e+00  8.75953718e-07 -7.04420331e-06  8.75953718e-07  7.16075363e-01                                 
 9.26059687e-07  7.83463105e-01  9.26059687e-07  7.15364675e-01  9.26059687e-07  1.12643093e+00  9.26059687e-07  1.80000000e+00  9.26059687e-07  8.54154030e-06  9.26059687e-07  7.15364675e-01                                 
 9.78896350e-07  7.62383317e-01  9.78896350e-07  6.98230176e-01  9.78896350e-07  1.05381428e+00  9.78896350e-07  1.80000000e+00  9.78896350e-07 -8.67065162e-06  9.78896350e-07  6.98230176e-01                                 
 1.03257923e-06  7.25953017e-01  1.03257923e-06  6.64718759e-01  1.03257923e-06  9.69098988e-01  1.03257923e-06  1.80000000e+00  1.03257923e-06  7.18097785e-06  1.03257923e-06  6.64718759e-01                                 
 1.04057950e-06  7.26541246e-01  1.04057950e-06  6.65583861e-01  1.04057950e-06  9.63484019e-01  1.04057950e-06  1.80000000e+00  1.04057950e-06  1.24164910e-06  1.04057950e-06  6.65583861e-01                                 
 1.05658004e-06  7.30382843e-01  1.05658004e-06  6.69234430e-01  1.05658004e-06  9.54327655e-01  1.05658004e-06  1.80000000e+00  1.05658004e-06  1.86564722e-06  1.05658004e-06  6.69234430e-01                                 
 1.08858112e-06  7.48825862e-01  1.08858112e-06  6.86086078e-01  1.08858112e-06  9.46199274e-01  1.08858112e-06  1.80000000e+00  1.08858112e-06  2.82041759e-06  1.08858112e-06  6.86086078e-01                                 
 1.14083453e-06  7.65641986e-01  1.14083453e-06  7.00821581e-01  1.14083453e-06  9.23502666e-01  1.14083453e-06  1.80000000e+00  1.14083453e-06  7.17108888e-07  1.14083453e-06  7.00821581e-01                                 
 1.19473522e-06  7.64187847e-01  1.19473522e-06  6.99573867e-01  1.19473522e-06  8.86278976e-01  1.19473522e-06  1.80000000e+00  1.19473522e-06  1.27635740e-06  1.19473522e-06  6.99573867e-01                                 
 1.27135218e-06  7.49238627e-01  1.27135218e-06  6.86541782e-01  1.27135218e-06  8.26379143e-01  1.27135218e-06  1.80000000e+00  1.27135218e-06  3.87526520e-08  1.27135218e-06  6.86541782e-01                                 
 1.35411960e-06  7.53829865e-01  1.35411960e-06  6.90555664e-01  1.35411960e-06  7.83669343e-01  1.35411960e-06  1.80000000e+00  1.35411960e-06  2.48069241e-06  1.35411960e-06  6.90555664e-01                                 
 1.45349595e-06  7.63919909e-01  1.45349595e-06  6.99364936e-01  1.45349595e-06  7.46680799e-01  1.45349595e-06  1.80000000e+00  1.45349595e-06  3.64085859e-07  1.45349595e-06  6.99364936e-01                                 
 1.56880168e-06  7.50092480e-01  1.56880168e-06  6.87265240e-01  1.56880168e-06  7.00806861e-01  1.56880168e-06  1.80000000e+00  1.56880168e-06  1.65342626e-06  1.56880168e-06  6.87265240e-01                                 
 1.69153103e-06  7.58066489e-01  1.69153103e-06  6.94300430e-01  1.69153103e-06  6.91239740e-01  1.69153103e-06  1.80000000e+00  1.69153103e-06  1.30689419e-06  1.69153103e-06  6.94300430e-01                                 
 1.81711259e-06  7.58971533e-01  1.81711259e-06  6.95089800e-01  1.81711259e-06  6.82665702e-01  1.81711259e-06  1.80000000e+00  1.81711259e-06  1.44432233e-06  1.81711259e-06  6.95089800e-01                                 
 1.96154200e-06  7.52601615e-01  1.96154200e-06  6.89508186e-01  1.96154200e-06  6.85766684e-01  1.96154200e-06  1.80000000e+00  1.96154200e-06  1.18439785e-06  1.96154200e-06  6.89508186e-01                                 
 2.11463041e-06  7.60221763e-01  2.11463041e-06  6.96163676e-01  2.11463041e-06  7.00648541e-01  2.11463041e-06  1.80000000e+00  2.11463041e-06  1.84423323e-06  2.11463041e-06  6.96163676e-01                                 
 2.28836977e-06  7.53999179e-01  2.28836977e-06  6.90752041e-01  2.28836977e-06  6.87654117e-01  2.28836977e-06  1.80000000e+00  2.28836977e-06  7.41649506e-07  2.28836977e-06  6.90752041e-01                                 
 2.45404502e-06  7.57467289e-01  2.45404502e-06  6.93765268e-01  2.45404502e-06  6.94624312e-01  2.45404502e-06  1.80000000e+00  2.45404502e-06  2.14200109e-06  2.45404502e-06  6.93765268e-01                                 
 2.64319047e-06  7.57216799e-01  2.64319047e-06  6.93575852e-01  2.64319047e-06  6.93926196e-01  2.64319047e-06  1.80000000e+00  2.64319047e-06  6.23870826e-07  2.64319047e-06  6.93575852e-01                                 
 2.89881672e-06  7.55261133e-01  2.89881672e-06  6.91834367e-01  2.89881672e-06  6.91505879e-01  2.89881672e-06  1.80000000e+00  2.89881672e-06  2.11491199e-06  2.89881672e-06  6.91834367e-01                                 
 3.27859511e-06  7.58335433e-01  3.27859511e-06  6.94548290e-01  3.27859511e-06  6.95240326e-01  3.27859511e-06  1.80000000e+00  3.27859511e-06  6.96527513e-07  3.27859511e-06  6.94548290e-01                                 
 3.75852266e-06  7.54682981e-01  3.75852266e-06  6.91327799e-01  3.75852266e-06  6.90897321e-01  3.75852266e-06  1.80000000e+00  3.75852266e-06  2.04251061e-06  3.75852266e-06  6.91327799e-01                                 
 4.49949446e-06  7.58573012e-01  4.49949446e-06  6.94753310e-01  4.49949446e-06  6.95464867e-01  4.49949446e-06  1.80000000e+00  4.49949446e-06  7.55695093e-07  4.49949446e-06  6.94753310e-01                                 
 5.37739333e-06  7.54579118e-01  5.37739333e-06  6.91237542e-01  5.37739333e-06  6.90809905e-01  5.37739333e-06  1.80000000e+00  5.37739333e-06  1.99749607e-06  5.37739333e-06  6.91237542e-01                                 
 6.37739333e-06  7.58603478e-01  6.37739333e-06  6.94778817e-01  6.37739333e-06  6.95473946e-01  6.37739333e-06  1.80000000e+00  6.37739333e-06  7.95043984e-07  6.37739333e-06  6.94778817e-01                                 
 7.37739333e-06  7.54591482e-01  7.37739333e-06  6.91249398e-01  7.37739333e-06  6.90840341e-01  7.37739333e-06  1.80000000e+00  7.37739333e-06  1.96063775e-06  7.37739333e-06  6.91249398e-01                                 
 8.37739333e-06  7.58554671e-01  8.37739333e-06  6.94735505e-01  8.37739333e-06  6.95404714e-01  8.37739333e-06  1.80000000e+00  8.37739333e-06  8.31607768e-07  8.37739333e-06  6.94735505e-01                                 
 9.37739333e-06  7.54681523e-01  9.37739333e-06  6.91329612e-01  9.37739333e-06  6.90949411e-01  9.37739333e-06  1.80000000e+00  9.37739333e-06  1.92471804e-06  9.37739333e-06  6.91329612e-01                                 
 1.00005000e-05  7.58394821e-01  1.00005000e-05  6.94595455e-01  1.00005000e-05  6.95217363e-01  1.00005000e-05  1.80000000e+00  1.00005000e-05  8.76678631e-07  1.00005000e-05  6.94595455e-01                                 
 1.00005500e-05  7.58393679e-01  1.00005500e-05  6.94594874e-01  1.00005500e-05  6.88199575e-01  1.00005500e-05  1.62000000e+00  1.00005500e-05 -1.21847465e-04  1.00005500e-05  6.94594874e-01                                 
 1.00006500e-05  7.58393755e-01  1.00006500e-05  6.94594237e-01  1.00006500e-05  6.77306436e-01  1.00006500e-05  1.26000000e+00  1.00006500e-05 -8.02804107e-05  1.00006500e-05  6.94594237e-01                                 
 1.00008500e-05  7.58395298e-01  1.00008500e-05  6.94593497e-01  1.00008500e-05  6.71266403e-01  1.00008500e-05  5.40000000e-01  1.00008500e-05 -3.88677967e-03  1.00008500e-05  6.94593497e-01                                 
 1.00010000e-05  7.58395999e-01  1.00010000e-05  6.94593251e-01  1.00010000e-05  7.12982398e-01  1.00010000e-05  0.00000000e+00  1.00010000e-05  1.51714634e+00  1.00010000e-05  6.94593251e-01                                 
