 time            v(vbep)         time            v(vben)         time            v(vout)         time            v(vphi1)        time            v(vphi2)        time            v(vref)         yes             currtemp       
 0.00000000e+00  7.00099874e-01  0.00000000e+00  6.48471818e-01  0.00000000e+00  9.49945961e-02  0.00000000e+00  0.00000000e+00  0.00000000e+00  1.79998122e+00  0.00000000e+00  5.00000000e-01  1.00000000e+00  9.00000000e+00 
 5.00000000e-12  7.00087418e-01  5.00000000e-12  6.48461432e-01  5.00000000e-12  9.54713376e-02  5.00000000e-12  1.80000000e-02  5.00000000e-12  1.80006540e+00  5.00000000e-12  5.00000000e-01                                 
 1.00000000e-11  7.00075094e-01  1.00000000e-11  6.48451240e-01  1.00000000e-11  9.58993814e-02  1.00000000e-11  3.60000000e-02  1.00000000e-11  1.80010448e+00  1.00000000e-11  5.00000000e-01                                 
 2.00000000e-11  7.00050511e-01  2.00000000e-11  6.48430904e-01  2.00000000e-11  9.66869875e-02  2.00000000e-11  7.20000000e-02  2.00000000e-11  1.80013563e+00  2.00000000e-11  5.00000000e-01                                 
 4.00000000e-11  7.00001461e-01  4.00000000e-11  6.48390318e-01  4.00000000e-11  9.79576873e-02  4.00000000e-11  1.44000000e-01  4.00000000e-11  1.80010100e+00  4.00000000e-11  5.00000000e-01                                 
 8.00000000e-11  6.99903594e-01  8.00000000e-11  6.48309308e-01  8.00000000e-11  9.98584256e-02  8.00000000e-11  2.88000000e-01  8.00000000e-11  1.80004625e+00  8.00000000e-11  5.00000000e-01                                 
 1.60000000e-10  6.99708845e-01  1.60000000e-10  6.48147955e-01  1.60000000e-10  1.02902636e-01  1.60000000e-10  5.76000000e-01  1.60000000e-10  1.80001132e+00  1.60000000e-10  5.00000000e-01                                 
 3.20000000e-10  6.99323238e-01  3.20000000e-10  6.47827926e-01  3.20000000e-10  1.35658782e-01  3.20000000e-10  1.15200000e+00  3.20000000e-10  1.80002841e+00  3.20000000e-10  5.00000000e-01                                 
 5.00000000e-10  6.98895631e-01  5.00000000e-10  6.47472176e-01  5.00000000e-10  4.66323857e-01  5.00000000e-10  1.80000000e+00  5.00000000e-10  1.05206329e-01  5.00000000e-10  5.00000000e-01                                 
 5.21312621e-10  6.98845481e-01  5.21312621e-10  6.47430388e-01  5.21312621e-10  5.27760966e-01  5.21312621e-10  1.80000000e+00  5.21312621e-10  1.93390415e-02  5.21312621e-10  5.00000000e-01                                 
 5.63937864e-10  6.98745360e-01  5.63937864e-10  6.47346935e-01  5.63937864e-10  6.36666357e-01  5.63937864e-10  1.80000000e+00  5.63937864e-10 -9.02908928e-03  5.63937864e-10  5.00000000e-01                                 
 6.49188349e-10  6.98546212e-01  6.49188349e-10  6.47180795e-01  6.49188349e-10  7.95715754e-01  6.49188349e-10  1.80000000e+00  6.49188349e-10  7.90204440e-03  6.49188349e-10  5.00000000e-01                                 
 7.72466052e-10  6.98260778e-01  7.72466052e-10  6.46942332e-01  7.72466052e-10  9.55914717e-01  7.72466052e-10  1.80000000e+00  7.72466052e-10 -6.83112946e-03  7.72466052e-10  5.00000000e-01                                 
 9.62998312e-10  6.97825394e-01  9.62998312e-10  6.46577830e-01  9.62998312e-10  1.14064976e+00  9.62998312e-10  1.80000000e+00  9.62998312e-10  6.50922214e-03  9.62998312e-10  5.00000000e-01                                 
 1.26710975e-09  6.97144451e-01  1.26710975e-09  6.46005921e-01  1.26710975e-09  1.35794491e+00  1.26710975e-09  1.80000000e+00  1.26710975e-09 -6.12697232e-03  1.26710975e-09  5.00000000e-01                                 
 1.80244103e-09  6.95985680e-01  1.80244103e-09  6.45027662e-01  1.80244103e-09  1.56620786e+00  1.80244103e-09  1.80000000e+00  1.80244103e-09  6.06079964e-03  1.80244103e-09  5.00000000e-01                                 
 2.19767419e-09  6.95161346e-01  2.19767419e-09  6.44327862e-01  2.19767419e-09  1.62321368e+00  2.19767419e-09  1.80000000e+00  2.19767419e-09 -5.77208090e-03  2.19767419e-09  5.00000000e-01                                 
 2.57470485e-09  6.94397367e-01  2.57470485e-09  6.43676528e-01  2.57470485e-09  1.64374864e+00  2.57470485e-09  1.80000000e+00  2.57470485e-09  5.64649110e-03  2.57470485e-09  5.00000000e-01                                 
 2.98106791e-09  6.93596851e-01  2.98106791e-09  6.42991260e-01  2.98106791e-09  1.65087453e+00  2.98106791e-09  1.80000000e+00  2.98106791e-09 -5.42012872e-03  2.98106791e-09  5.00000000e-01                                 
 3.36862799e-09  6.92854282e-01  3.36862799e-09  6.42353094e-01  3.36862799e-09  1.65208452e+00  3.36862799e-09  1.80000000e+00  3.36862799e-09  5.27003476e-03  3.36862799e-09  5.00000000e-01                                 
 3.97719237e-09  6.91726654e-01  3.97719237e-09  6.41379558e-01  3.97719237e-09  1.65088265e+00  3.97719237e-09  1.80000000e+00  3.97719237e-09 -5.13148224e-03  3.97719237e-09  5.00000000e-01                                 
 4.82671879e-09  6.90224925e-01  4.82671879e-09  6.40074950e-01  4.82671879e-09  1.64804711e+00  4.82671879e-09  1.80000000e+00  4.82671879e-09  5.07521667e-03  4.82671879e-09  5.00000000e-01                                 
 6.26384013e-09  6.87854161e-01  6.26384013e-09  6.37997565e-01  6.26384013e-09  1.64396639e+00  6.26384013e-09  1.80000000e+00  6.26384013e-09 -5.00704843e-03  6.26384013e-09  5.00000000e-01                                 
 9.08426650e-09  6.83711181e-01  9.08426650e-09  6.34319232e-01  9.08426650e-09  1.63823830e+00  9.08426650e-09  1.80000000e+00  9.08426650e-09  5.00538481e-03  9.08426650e-09  5.00000000e-01                                 
 1.47251192e-08  6.76917164e-01  1.47251192e-08  6.28168007e-01  1.47251192e-08  1.62517825e+00  1.47251192e-08  1.80000000e+00  1.47251192e-08 -4.97221838e-03  1.47251192e-08  5.00000000e-01                                 
 2.60068247e-08  6.67069794e-01  2.60068247e-08  6.19008471e-01  2.60068247e-08  1.57977958e+00  2.60068247e-08  1.80000000e+00  2.60068247e-08  4.98824061e-03  2.60068247e-08  5.00000000e-01                                 
 4.70523552e-08  6.55239250e-01  4.70523552e-08  6.07667080e-01  4.70523552e-08  1.46051610e+00  4.70523552e-08  1.80000000e+00  4.70523552e-08 -4.96305350e-03  4.70523552e-08  5.00000000e-01                                 
 7.51814646e-08  6.45059492e-01  7.51814646e-08  5.97712867e-01  7.51814646e-08  1.29113804e+00  7.51814646e-08  1.80000000e+00  7.51814646e-08  4.98303097e-03  7.51814646e-08  5.00000000e-01                                 
 1.22766973e-07  6.31657188e-01  1.22766973e-07  5.84859280e-01  1.22766973e-07  1.00647744e+00  1.22766973e-07  1.80000000e+00  1.22766973e-07 -4.95932532e-03  1.22766973e-07  5.00000000e-01                                 
 1.77186893e-07  6.18353339e-01  1.77186893e-07  5.72547058e-01  1.77186893e-07  7.91055250e-01  1.77186893e-07  1.80000000e+00  1.77186893e-07  4.98052423e-03  1.77186893e-07  5.00000000e-01                                 
 2.35709862e-07  6.06449747e-01  2.35709862e-07  5.61714574e-01  2.35709862e-07  6.58105867e-01  2.35709862e-07  1.80000000e+00  2.35709862e-07 -4.95701792e-03  2.35709862e-07  5.00000000e-01                                 
 2.99554783e-07  5.94674015e-01  2.99554783e-07  5.51223942e-01  2.99554783e-07  5.43351807e-01  2.99554783e-07  1.80000000e+00  2.99554783e-07  4.97842966e-03  2.99554783e-07  5.00000000e-01                                 
 3.79242086e-07  5.80893449e-01  3.79242086e-07  5.39212639e-01  3.79242086e-07  4.69408309e-01  3.79242086e-07  1.80000000e+00  3.79242086e-07 -4.95520701e-03  3.79242086e-07  5.00000000e-01                                 
 3.91690130e-07  5.78780191e-01  3.91690130e-07  5.37399747e-01  3.91690130e-07  4.68628328e-01  3.91690130e-07  1.80000000e+00  3.91690130e-07 -1.17465233e-06  3.91690130e-07  5.00000000e-01                                 
 4.16586218e-07  5.74517341e-01  4.16586218e-07  5.33756875e-01  4.16586218e-07  4.67195014e-01  4.16586218e-07  1.80000000e+00  4.16586218e-07  1.26481966e-06  4.16586218e-07  5.00000000e-01                                 
 4.66378393e-07  5.65895623e-01  4.66378393e-07  5.26460941e-01  4.66378393e-07  4.66106483e-01  4.66378393e-07  1.80000000e+00  4.66378393e-07 -1.17354408e-06  4.66378393e-07  5.00000000e-01                                 
 5.18949416e-07  5.56531512e-01  5.18949416e-07  5.18633838e-01  5.18949416e-07  5.00360296e-01  5.18949416e-07  1.80000000e+00  5.18949416e-07  1.26365460e-06  5.18949416e-07  5.00000000e-01                                 
 5.76861188e-07  5.45903628e-01  5.76861188e-07  5.09845280e-01  5.76861188e-07  5.40666399e-01  5.76861188e-07  1.80000000e+00  5.76861188e-07 -1.17818377e-06  5.76861188e-07  5.00000000e-01                                 
 6.20819190e-07  5.37626075e-01  6.20819190e-07  5.03054852e-01  6.20819190e-07  5.05591262e-01  6.20819190e-07  1.80000000e+00  6.20819190e-07  1.25968796e-06  6.20819190e-07  5.00000000e-01                                 
 6.65003140e-07  5.29093914e-01  6.65003140e-07  4.96094735e-01  6.65003140e-07  4.63302180e-01  6.65003140e-07  1.80000000e+00  6.65003140e-07 -1.17526308e-06  6.65003140e-07  5.00000000e-01                                 
 7.12041563e-07  5.19770784e-01  7.12041563e-07  4.88525121e-01  7.12041563e-07  4.66222741e-01  7.12041563e-07  1.80000000e+00  7.12041563e-07  1.25501774e-06  7.12041563e-07  5.00000000e-01                                 
 7.54643055e-07  5.11221592e-01  7.54643055e-07  4.81608692e-01  7.54643055e-07  5.04809404e-01  7.54643055e-07  1.80000000e+00  7.54643055e-07 -1.17449116e-06  7.54643055e-07  5.00000000e-01                                 
 7.95776900e-07  5.03318714e-01  7.95776900e-07  4.75229070e-01  7.95776900e-07  5.44897117e-01  7.95776900e-07  1.80000000e+00  7.95776900e-07  1.25938475e-06  7.95776900e-07  5.00000000e-01                                 
 8.30141173e-07  4.97744207e-01  8.30141173e-07  4.70732098e-01  8.30141173e-07  5.14608491e-01  8.30141173e-07  1.80000000e+00  8.30141173e-07 -1.15249230e-06  8.30141173e-07  5.00000000e-01                                 
 8.63696815e-07  4.94624962e-01  8.63696815e-07  4.68207766e-01  8.63696815e-07  4.77432356e-01  8.63696815e-07  1.80000000e+00  8.63696815e-07  1.32078572e-06  8.63696815e-07  5.00000000e-01                                 
 9.00827969e-07  4.97169173e-01  9.00827969e-07  4.70217940e-01  9.00827969e-07  4.82057645e-01  9.00827969e-07  1.80000000e+00  9.00827969e-07 -1.02873030e-06  9.00827969e-07  5.00000000e-01                                 
 9.35004425e-07  5.11289302e-01  9.35004425e-07  4.81491872e-01  9.35004425e-07  4.95710869e-01  9.35004425e-07  1.80000000e+00  9.35004425e-07  1.59033294e-06  9.35004425e-07  5.00000000e-01                                 
 9.74710600e-07  5.68304283e-01  9.74710600e-07  5.27010061e-01  9.74710600e-07  5.36840191e-01  9.74710600e-07  1.80000000e+00  9.74710600e-07 -1.94664267e-07  9.74710600e-07  5.00000000e-01                                 
 1.03219500e-06  7.47718215e-01  1.03219500e-06  6.93659046e-01  1.03219500e-06  5.59318436e-01  1.03219500e-06  1.80000000e+00  1.03219500e-06  3.56174362e-06  1.03219500e-06  5.00000000e-01                                 
 1.07308324e-06  7.91116219e-01  1.07308324e-06  7.37368009e-01  1.07308324e-06  5.11588578e-01  1.07308324e-06  1.80000000e+00  1.07308324e-06 -1.92998575e-06  1.07308324e-06  5.00000000e-01                                 
 1.11651336e-06  8.13042017e-01  1.11651336e-06  7.57281854e-01  1.11651336e-06  5.09860454e-01  1.11651336e-06  1.80000000e+00  1.11651336e-06  2.78098056e-06  1.11651336e-06  5.00000000e-01                                 
 1.17184658e-06  8.29346372e-01  1.17184658e-06  7.71412270e-01  1.17184658e-06  5.02633198e-01  1.17184658e-06  1.80000000e+00  1.17184658e-06 -2.12742203e-06  1.17184658e-06  5.00000000e-01                                 
 1.17919360e-06  8.30985548e-01  1.17919360e-06  7.72742448e-01  1.17919360e-06  5.01697411e-01  1.17919360e-06  1.80000000e+00  1.17919360e-06  2.03576896e-07  1.17919360e-06  5.00000000e-01                                 
 1.19388764e-06  8.34660834e-01  1.19388764e-06  7.75746943e-01  1.19388764e-06  5.01058134e-01  1.19388764e-06  1.80000000e+00  1.19388764e-06  3.50774318e-07  1.19388764e-06  5.00000000e-01                                 
 1.22327572e-06  8.37041661e-01  1.22327572e-06  7.77703909e-01  1.22327572e-06  4.97883362e-01  1.22327572e-06  1.80000000e+00  1.22327572e-06  1.66121028e-09  1.22327572e-06  5.00000000e-01                                 
 1.25960798e-06  8.11049026e-01  1.25960798e-06  7.55684487e-01  1.25960798e-06  4.76762046e-01  1.25960798e-06  1.80000000e+00  1.25960798e-06 -6.76156955e-07  1.25960798e-06  5.00000000e-01                                 
 1.29411613e-06  7.90231019e-01  1.29411613e-06  7.36403164e-01  1.29411613e-06  4.64652605e-01  1.29411613e-06  1.80000000e+00  1.29411613e-06  1.27175178e-07  1.29411613e-06  5.00000000e-01                                 
 1.32810619e-06  8.07443113e-01  1.32810619e-06  7.52330705e-01  1.32810619e-06  5.00031258e-01  1.32810619e-06  1.80000000e+00  1.32810619e-06  7.61761819e-07  1.32810619e-06  5.00000000e-01                                 
 1.37368444e-06  8.19188907e-01  1.37368444e-06  7.62741089e-01  1.37368444e-06  5.43639855e-01  1.37368444e-06  1.80000000e+00  1.37368444e-06 -1.83175270e-07  1.37368444e-06  5.00000000e-01                                 
 1.41880801e-06  8.14885323e-01  1.41880801e-06  7.59020818e-01  1.41880801e-06  5.08794908e-01  1.41880801e-06  1.80000000e+00  1.41880801e-06  2.74089432e-07  1.41880801e-06  5.00000000e-01                                 
 1.46963800e-06  8.05002931e-01  1.46963800e-06  7.50138353e-01  1.46963800e-06  4.59640044e-01  1.46963800e-06  1.80000000e+00  1.46963800e-06 -2.67366294e-07  1.46963800e-06  5.00000000e-01                                 
 1.47943249e-06  8.05759217e-01  1.47943249e-06  7.50823424e-01  1.47943249e-06  4.61340592e-01  1.47943249e-06  1.80000000e+00  1.47943249e-06  1.58211946e-07  1.47943249e-06  5.00000000e-01                                 
 1.49902146e-06  8.08063882e-01  1.49902146e-06  7.52902180e-01  1.49902146e-06  4.66204950e-01  1.49902146e-06  1.80000000e+00  1.49902146e-06  2.31276780e-07  1.49902146e-06  5.00000000e-01                                 
 1.53819939e-06  8.13952180e-01  1.53819939e-06  7.58162492e-01  1.53819939e-06  5.00469937e-01  1.53819939e-06  1.80000000e+00  1.53819939e-06  2.12507983e-07  1.53819939e-06  5.00000000e-01                                 
 1.58273044e-06  8.13936954e-01  1.58273044e-06  7.58164353e-01  1.58273044e-06  5.42712141e-01  1.58273044e-06  1.80000000e+00  1.58273044e-06  2.20361878e-08  1.58273044e-06  5.00000000e-01                                 
 1.62853719e-06  8.09282638e-01  1.62853719e-06  7.54012712e-01  1.62853719e-06  5.09387152e-01  1.62853719e-06  1.80000000e+00  1.62853719e-06  6.55724316e-08  1.62853719e-06  5.00000000e-01                                 
 1.68002118e-06  8.09759759e-01  1.68002118e-06  7.54431833e-01  1.68002118e-06  4.61834967e-01  1.68002118e-06  1.80000000e+00  1.68002118e-06  1.95957519e-07  1.68002118e-06  5.00000000e-01                                 
 1.72694073e-06  8.12997402e-01  1.72694073e-06  7.57321510e-01  1.72694073e-06  4.77028918e-01  1.72694073e-06  1.80000000e+00  1.72694073e-06  1.37192553e-07  1.72694073e-06  5.00000000e-01                                 
 1.78212090e-06  8.11894388e-01  1.78212090e-06  7.56349665e-01  1.78212090e-06  5.32233767e-01  1.78212090e-06  1.80000000e+00  1.78212090e-06  8.18109544e-08  1.78212090e-06  5.00000000e-01                                 
 1.83750964e-06  8.09831477e-01  1.83750964e-06  7.54499989e-01  1.83750964e-06  5.28258072e-01  1.83750964e-06  1.80000000e+00  1.83750964e-06  8.95203822e-08  1.83750964e-06  5.00000000e-01                                 
 1.89955354e-06  8.11581672e-01  1.89955354e-06  7.56063633e-01  1.89955354e-06  4.71324574e-01  1.89955354e-06  1.80000000e+00  1.89955354e-06  1.90729432e-07  1.89955354e-06  5.00000000e-01                                 
 1.95905768e-06  8.12145556e-01  1.95905768e-06  7.56568730e-01  1.95905768e-06  4.77671282e-01  1.95905768e-06  1.80000000e+00  1.95905768e-06  6.72542196e-08  1.95905768e-06  5.00000000e-01                                 
 2.02422923e-06  8.10621612e-01  2.02422923e-06  7.55210329e-01  2.02422923e-06  5.13847922e-01  2.02422923e-06  1.80000000e+00  2.02422923e-06  1.40224732e-07  2.02422923e-06  5.00000000e-01                                 
 2.03534223e-06  8.10589267e-01  2.03534223e-06  7.55179820e-01  2.03534223e-06  5.24386570e-01  2.03534223e-06  1.80000000e+00  2.03534223e-06  1.23905760e-07  2.03534223e-06  5.00000000e-01                                 
 2.05756822e-06  8.10819828e-01  2.05756822e-06  7.55384406e-01  2.05756822e-06  5.28506391e-01  2.05756822e-06  1.80000000e+00  2.05756822e-06  1.04937757e-07  2.05756822e-06  5.00000000e-01                                 
 2.10202021e-06  8.11631160e-01  2.10202021e-06  7.56109018e-01  2.10202021e-06  5.02601206e-01  2.10202021e-06  1.80000000e+00  2.10202021e-06  1.55453130e-07  2.10202021e-06  5.00000000e-01                                 
 2.16413301e-06  8.11498793e-01  2.16413301e-06  7.55992801e-01  2.16413301e-06  4.87900195e-01  2.16413301e-06  1.80000000e+00  2.16413301e-06  8.58472068e-08  2.16413301e-06  5.00000000e-01                                 
 2.22436081e-06  8.10932647e-01  2.22436081e-06  7.55486619e-01  2.22436081e-06  4.94940489e-01  2.22436081e-06  1.80000000e+00  2.22436081e-06  1.39400183e-07  2.22436081e-06  5.00000000e-01                                 
 2.30939479e-06  8.11422022e-01  2.30939479e-06  7.55922607e-01  2.30939479e-06  5.07211106e-01  2.30939479e-06  1.80000000e+00  2.30939479e-06  1.07378545e-07  2.30939479e-06  5.00000000e-01                                 
 2.32710533e-06  8.11485819e-01  2.32710533e-06  7.55980014e-01  2.32710533e-06  5.06798848e-01  2.32710533e-06  1.80000000e+00  2.32710533e-06  1.19098538e-07  2.32710533e-06  5.00000000e-01                                 
 2.36252642e-06  8.11418560e-01  2.36252642e-06  7.55920674e-01  2.36252642e-06  5.03439230e-01  2.36252642e-06  1.80000000e+00  2.36252642e-06  1.15593482e-07  2.36252642e-06  5.00000000e-01                                 
 2.43336859e-06  8.11134812e-01  2.43336859e-06  7.55667110e-01  2.43336859e-06  4.96521942e-01  2.43336859e-06  1.80000000e+00  2.43336859e-06  1.18445371e-07  2.43336859e-06  5.00000000e-01                                 
 2.57505293e-06  8.11385149e-01  2.57505293e-06  7.55890211e-01  2.57505293e-06  5.00530714e-01  2.57505293e-06  1.80000000e+00  2.57505293e-06  1.22645685e-07  2.57505293e-06  5.00000000e-01                                 
 2.75102076e-06  8.11260060e-01  2.75102076e-06  7.55779176e-01  2.75102076e-06  5.01600921e-01  2.75102076e-06  1.80000000e+00  2.75102076e-06  1.14705468e-07  2.75102076e-06  5.00000000e-01                                 
 3.02085928e-06  8.11279407e-01  3.02085928e-06  7.55795791e-01  3.02085928e-06  4.98128733e-01  3.02085928e-06  1.80000000e+00  3.02085928e-06  1.24059734e-07  3.02085928e-06  5.00000000e-01                                 
 3.43322167e-06  8.11325839e-01  3.43322167e-06  7.55837858e-01  3.43322167e-06  5.02211200e-01  3.43322167e-06  1.80000000e+00  3.43322167e-06  1.14592238e-07  3.43322167e-06  5.00000000e-01                                 
 3.98800571e-06  8.11239038e-01  3.98800571e-06  7.55759801e-01  3.98800571e-06  4.98188438e-01  3.98800571e-06  1.80000000e+00  3.98800571e-06  1.23762324e-07  3.98800571e-06  5.00000000e-01                                 
