 time            v(vbep)         time            v(vben)         time            v(vout)         time            v(vphi1)        time            v(vphi2)        time            v(vref)         yes             currtemp       
 0.00000000e+00  7.74686821e-01  0.00000000e+00  7.29849511e-01  0.00000000e+00  6.40485704e-02  0.00000000e+00  0.00000000e+00  0.00000000e+00  1.79997640e+00  0.00000000e+00  5.00000000e-01  1.00000000e+00 -2.80000000e+01 
 5.00000000e-12  7.74672377e-01  5.00000000e-12  7.29837463e-01  5.00000000e-12  6.44781940e-02  5.00000000e-12  1.80000000e-02  5.00000000e-12  1.80005571e+00  5.00000000e-12  5.00000000e-01                                 
 1.00000000e-11  7.74658142e-01  1.00000000e-11  7.29825655e-01  1.00000000e-11  6.48624789e-02  1.00000000e-11  3.60000000e-02  1.00000000e-11  1.80009243e+00  1.00000000e-11  5.00000000e-01                                 
 2.00000000e-11  7.74629778e-01  2.00000000e-11  7.29802104e-01  2.00000000e-11  6.55684805e-02  2.00000000e-11  7.20000000e-02  2.00000000e-11  1.80012208e+00  2.00000000e-11  5.00000000e-01                                 
 4.00000000e-11  7.74573242e-01  4.00000000e-11  7.29755120e-01  4.00000000e-11  6.67019153e-02  4.00000000e-11  1.44000000e-01  4.00000000e-11  1.80009086e+00  4.00000000e-11  5.00000000e-01                                 
 8.00000000e-11  7.74460520e-01  8.00000000e-11  7.29661405e-01  8.00000000e-11  6.83968299e-02  8.00000000e-11  2.88000000e-01  8.00000000e-11  1.80003916e+00  8.00000000e-11  5.00000000e-01                                 
 1.60000000e-10  7.74236575e-01  1.60000000e-10  7.29475002e-01  1.60000000e-10  7.11518273e-02  1.60000000e-10  5.76000000e-01  1.60000000e-10  1.80000794e+00  1.60000000e-10  5.00000000e-01                                 
 3.20000000e-10  7.73794521e-01  3.20000000e-10  7.29106261e-01  3.20000000e-10  1.08022083e-01  3.20000000e-10  1.15200000e+00  3.20000000e-10  1.79986529e+00  3.20000000e-10  5.00000000e-01                                 
 5.00000000e-10  7.73306420e-01  5.00000000e-10  7.28697867e-01  5.00000000e-10  4.60894163e-01  5.00000000e-10  1.80000000e+00  5.00000000e-10  8.94578143e-02  5.00000000e-10  5.00000000e-01                                 
 5.20735352e-10  7.73250876e-01  5.20735352e-10  7.28651303e-01  5.20735352e-10  5.23158430e-01  5.20735352e-10  1.80000000e+00  5.20735352e-10  1.50569976e-02  5.20735352e-10  5.00000000e-01                                 
 5.62206057e-10  7.73140033e-01  5.62206057e-10  7.28558347e-01  5.62206057e-10  6.32422022e-01  5.62206057e-10  1.80000000e+00  5.62206057e-10 -7.05558087e-03  5.62206057e-10  5.00000000e-01                                 
 6.45147467e-10  7.72919844e-01  6.45147467e-10  7.28373494e-01  6.45147467e-10  7.88448369e-01  6.45147467e-10  1.80000000e+00  6.45147467e-10  6.37253819e-03  6.45147467e-10  5.00000000e-01                                 
 7.70069597e-10  7.72591933e-01  7.70069597e-10  7.28097723e-01  7.70069597e-10  9.48453766e-01  7.70069597e-10  1.80000000e+00  7.70069597e-10 -5.58772759e-03  7.70069597e-10  5.00000000e-01                                 
 9.57357668e-10  7.72108475e-01  9.57357668e-10  7.27690099e-01  9.57357668e-10  1.12707662e+00  9.57357668e-10  1.80000000e+00  9.57357668e-10  5.38491617e-03  9.57357668e-10  5.00000000e-01                                 
 1.25857797e-09  7.71350544e-01  1.25857797e-09  7.27048594e-01  1.25857797e-09  1.34433431e+00  1.25857797e-09  1.80000000e+00  1.25857797e-09 -5.10339305e-03  1.25857797e-09  5.00000000e-01                                 
 1.82723348e-09  7.69981129e-01  1.82723348e-09  7.25882136e-01  1.82723348e-09  1.57284227e+00  1.82723348e-09  1.80000000e+00  1.82723348e-09  5.07516988e-03  1.82723348e-09  5.00000000e-01                                 
 2.25431695e-09  7.69002576e-01  2.25431695e-09  7.25042707e-01  2.25431695e-09  1.63601590e+00  2.25431695e-09  1.80000000e+00  2.25431695e-09 -4.86069829e-03  2.25431695e-09  5.00000000e-01                                 
 2.63524711e-09  7.68162169e-01  2.63524711e-09  7.24318023e-01  2.63524711e-09  1.65636212e+00  2.63524711e-09  1.80000000e+00  2.63524711e-09  4.78571509e-03  2.63524711e-09  5.00000000e-01                                 
 3.00017606e-09  7.67383523e-01  3.00017606e-09  7.23643586e-01  3.00017606e-09  1.66298017e+00  3.00017606e-09  1.80000000e+00  3.00017606e-09 -4.60283305e-03  3.00017606e-09  5.00000000e-01                                 
 3.38484275e-09  7.66588879e-01  3.38484275e-09  7.22952387e-01  3.38484275e-09  1.66461374e+00  3.38484275e-09  1.80000000e+00  3.38484275e-09  4.49694354e-03  3.38484275e-09  5.00000000e-01                                 
 4.15156730e-09  7.65077591e-01  4.15156730e-09  7.21630146e-01  4.15156730e-09  1.66310129e+00  4.15156730e-09  1.80000000e+00  4.15156730e-09 -4.41153028e-03  4.15156730e-09  5.00000000e-01                                 
 5.04283871e-09  7.63430685e-01  5.04283871e-09  7.20178043e-01  5.04283871e-09  1.65959023e+00  5.04283871e-09  1.80000000e+00  5.04283871e-09  4.37386716e-03  5.04283871e-09  5.00000000e-01                                 
 6.82538155e-09  7.60430649e-01  6.82538155e-09  7.17505717e-01  6.82538155e-09  1.65371871e+00  6.82538155e-09  1.80000000e+00  6.82538155e-09 -4.32955589e-03  6.82538155e-09  5.00000000e-01                                 
 9.87075942e-09  7.56014677e-01  9.87075942e-09  7.13514156e-01  9.87075942e-09  1.64639371e+00  9.87075942e-09  1.80000000e+00  9.87075942e-09  4.33056139e-03  9.87075942e-09  5.00000000e-01                                 
 1.59615152e-08  7.49018351e-01  1.59615152e-08  7.07067517e-01  1.59615152e-08  1.63153277e+00  1.59615152e-08  1.80000000e+00  1.59615152e-08 -4.30586924e-03  1.59615152e-08  5.00000000e-01                                 
 2.81430267e-08  7.39506017e-01  2.81430267e-08  6.98046051e-01  2.81430267e-08  1.58289901e+00  2.81430267e-08  1.80000000e+00  2.81430267e-08  4.31897710e-03  2.81430267e-08  5.00000000e-01                                 
 4.91087248e-08  7.29501119e-01  4.91087248e-08  6.88253605e-01  4.91087248e-08  1.46542272e+00  4.91087248e-08  1.80000000e+00  4.91087248e-08 -4.29938830e-03  4.91087248e-08  5.00000000e-01                                 
 7.52372847e-08  7.21034140e-01  7.52372847e-08  6.79912765e-01  7.52372847e-08  1.31366666e+00  7.52372847e-08  1.80000000e+00  7.52372847e-08  4.31499666e-03  7.52372847e-08  5.00000000e-01                                 
 1.14201352e-07  7.10717117e-01  1.14201352e-07  6.69997203e-01  1.14201352e-07  1.08640808e+00  1.14201352e-07  1.80000000e+00  1.14201352e-07 -4.29630713e-03  1.14201352e-07  5.00000000e-01                                 
 1.56612924e-07  7.01518546e-01  1.56612924e-07  6.61330225e-01  1.56612924e-07  8.60806386e-01  1.56612924e-07  1.80000000e+00  1.56612924e-07  4.31269199e-03  1.56612924e-07  5.00000000e-01                                 
 2.11730887e-07  6.92280839e-01  2.11730887e-07  6.52658676e-01  2.11730887e-07  6.85820776e-01  2.11730887e-07  1.80000000e+00  2.11730887e-07 -4.29429481e-03  2.11730887e-07  5.00000000e-01                                 
 2.63839488e-07  6.84920970e-01  2.63839488e-07  6.45835599e-01  2.63839488e-07  6.10702056e-01  2.63839488e-07  1.80000000e+00  2.63839488e-07  4.31093453e-03  2.63839488e-07  5.00000000e-01                                 
 3.32734557e-07  6.76674223e-01  3.32734557e-07  6.38256209e-01  3.32734557e-07  5.31671384e-01  3.32734557e-07  1.80000000e+00  3.32734557e-07 -4.29269484e-03  3.32734557e-07  5.00000000e-01                                 
 3.97225231e-07  6.69819480e-01  3.97225231e-07  6.32038215e-01  3.97225231e-07  4.98333178e-01  3.97225231e-07  1.80000000e+00  3.97225231e-07  4.30952479e-03  3.97225231e-07  5.00000000e-01                                 
 5.26206579e-07  6.57724069e-01  5.26206579e-07  6.21230775e-01  5.26206579e-07  4.94388856e-01  5.26206579e-07  1.80000000e+00  5.26206579e-07 -4.29159722e-03  5.26206579e-07  5.00000000e-01                                 
 6.55857815e-07  6.46924220e-01  6.55857815e-07  6.11770538e-01  6.55857815e-07  4.89187490e-01  6.55857815e-07  1.80000000e+00  6.55857815e-07  4.30880390e-03  6.55857815e-07  5.00000000e-01                                 
 6.79548424e-07  6.45094130e-01  6.79548424e-07  6.10185270e-01  6.79548424e-07  4.89001490e-01  6.79548424e-07  1.80000000e+00  6.79548424e-07  4.91890160e-07  6.79548424e-07  5.00000000e-01                                 
 7.26929641e-07  6.41456583e-01  7.26929641e-07  6.07044409e-01  7.26929641e-07  4.87805299e-01  7.26929641e-07  1.80000000e+00  7.26929641e-07 -5.32831929e-07  7.26929641e-07  5.00000000e-01                                 
 8.21692077e-07  6.34490008e-01  8.21692077e-07  6.01070874e-01  8.21692077e-07  4.88869915e-01  8.21692077e-07  1.80000000e+00  8.21692077e-07  4.94167374e-07  8.21692077e-07  5.00000000e-01                                 
 1.01121695e-06  6.21822603e-01  1.01121695e-06  5.90317984e-01  1.01121695e-06  5.09759084e-01  1.01121695e-06  1.80000000e+00  1.01121695e-06 -5.26970864e-07  1.01121695e-06  5.00000000e-01                                 
 1.04345902e-06  6.19873095e-01  1.04345902e-06  5.88675603e-01  1.04345902e-06  5.12731758e-01  1.04345902e-06  1.80000000e+00  1.04345902e-06 -1.40712852e-08  1.04345902e-06  5.00000000e-01                                 
 1.10794317e-06  6.16036080e-01  1.10794317e-06  5.85448414e-01  1.10794317e-06  5.08579240e-01  1.10794317e-06  1.80000000e+00  1.10794317e-06 -1.33129103e-08  1.10794317e-06  5.00000000e-01                                 
 1.22155110e-06  6.09683759e-01  1.22155110e-06  5.80123636e-01  1.22155110e-06  4.95164433e-01  1.22155110e-06  1.80000000e+00  1.22155110e-06 -1.09411945e-08  1.22155110e-06  5.00000000e-01                                 
 1.33911128e-06  6.03624881e-01  1.33911128e-06  5.75063271e-01  1.33911128e-06  4.96474654e-01  1.33911128e-06  1.80000000e+00  1.33911128e-06 -1.01048413e-08  1.33911128e-06  5.00000000e-01                                 
 1.48579110e-06  5.96745692e-01  1.48579110e-06  5.69334838e-01  1.48579110e-06  4.96322937e-01  1.48579110e-06  1.80000000e+00  1.48579110e-06 -7.59284895e-09  1.48579110e-06  5.00000000e-01                                 
 1.68171620e-06  5.88734485e-01  1.68171620e-06  5.62676983e-01  1.68171620e-06  4.95732898e-01  1.68171620e-06  1.80000000e+00  1.68171620e-06 -5.75584847e-09  1.68171620e-06  5.00000000e-01                                 
 1.94766255e-06  5.80608965e-01  1.94766255e-06  5.55902029e-01  1.94766255e-06  4.96558972e-01  1.94766255e-06  1.80000000e+00  1.94766255e-06 -5.17726332e-10  1.94766255e-06  5.00000000e-01                                 
 2.01414914e-06  5.79393389e-01  2.01414914e-06  5.54870721e-01  2.01414914e-06  4.97343241e-01  2.01414914e-06  1.80000000e+00  2.01414914e-06  1.00222426e-09  2.01414914e-06  5.00000000e-01                                 
 2.14712231e-06  5.77804742e-01  2.14712231e-06  5.53486283e-01  2.14712231e-06  4.99521620e-01  2.14712231e-06  1.80000000e+00  2.14712231e-06  5.18203604e-09  2.14712231e-06  5.00000000e-01                                 
 2.41306866e-06  5.86135454e-01  2.41306866e-06  5.59935473e-01  2.41306866e-06  5.06181585e-01  2.41306866e-06  1.80000000e+00  2.41306866e-06  2.96317865e-08  2.41306866e-06  5.00000000e-01                                 
 2.46714044e-06  5.92057227e-01  2.46714044e-06  5.64628500e-01  2.46714044e-06  5.07144734e-01  2.46714044e-06  1.80000000e+00  2.46714044e-06  4.34442324e-08  2.46714044e-06  5.00000000e-01                                 
 2.57528401e-06  6.16298072e-01  2.57528401e-06  5.83924963e-01  2.57528401e-06  5.10511938e-01  2.57528401e-06  1.80000000e+00  2.57528401e-06  1.21358719e-07  2.57528401e-06  5.00000000e-01                                 
 2.60231990e-06  6.30036893e-01  2.60231990e-06  5.94886519e-01  2.60231990e-06  5.12814608e-01  2.60231990e-06  1.80000000e+00  2.60231990e-06  1.80634809e-07  2.60231990e-06  5.00000000e-01                                 
 2.65639168e-06  6.82321983e-01  2.65639168e-06  6.36784807e-01  2.65639168e-06  5.22895303e-01  2.65639168e-06  1.80000000e+00  2.65639168e-06  5.17912545e-07  2.65639168e-06  5.00000000e-01                                 
 2.66990963e-06  7.09722801e-01  2.66990963e-06  6.59144391e-01  2.66990963e-06  5.28579542e-01  2.66990963e-06  1.80000000e+00  2.66990963e-06  7.66079355e-07  2.66990963e-06  5.00000000e-01                                 
 2.69694552e-06  7.74617385e-01  2.69694552e-06  7.21502291e-01  2.69694552e-06  5.38652891e-01  2.69694552e-06  1.80000000e+00  2.69694552e-06  1.33206103e-06  2.69694552e-06  5.00000000e-01                                 
 2.73866369e-06  8.35217680e-01  2.73866369e-06  7.89090609e-01  2.73866369e-06  5.25217095e-01  2.73866369e-06  1.80000000e+00  2.73866369e-06  2.44355483e-07  2.73866369e-06  5.00000000e-01                                 
 2.78225950e-06  8.86862862e-01  2.78225950e-06  8.36124798e-01  2.78225950e-06  5.23201220e-01  2.78225950e-06  1.80000000e+00  2.78225950e-06  1.03188302e-06  2.78225950e-06  5.00000000e-01                                 
 2.78882751e-06  8.95613220e-01  2.78882751e-06  8.43091180e-01  2.78882751e-06  5.24924229e-01  2.78882751e-06  1.80000000e+00  2.78882751e-06  7.53040534e-07  2.78882751e-06  5.00000000e-01                                 
 2.80196351e-06  9.14042534e-01  2.80196351e-06  8.56646065e-01  2.80196351e-06  5.27192253e-01  2.80196351e-06  1.80000000e+00  2.80196351e-06  7.23792303e-07  2.80196351e-06  5.00000000e-01                                 
 2.82823553e-06  9.46030787e-01  2.82823553e-06  8.77038472e-01  2.82823553e-06  5.25605488e-01  2.82823553e-06  1.80000000e+00  2.82823553e-06  5.38522130e-07  2.82823553e-06  5.00000000e-01                                 
 2.84914874e-06  9.47426086e-01  2.84914874e-06  8.78131738e-01  2.84914874e-06  5.14109555e-01  2.84914874e-06  1.80000000e+00  2.84914874e-06 -2.90770623e-07  2.84914874e-06  5.00000000e-01                                 
 2.87140355e-06  9.44339740e-01  2.87140355e-06  8.76137869e-01  2.87140355e-06  5.04657198e-01  2.87140355e-06  1.80000000e+00  2.87140355e-06  1.43624350e-07  2.87140355e-06  5.00000000e-01                                 
 2.90307131e-06  9.47055398e-01  2.90307131e-06  8.77839479e-01  2.90307131e-06  5.04776688e-01  2.90307131e-06  1.80000000e+00  2.90307131e-06 -1.11094529e-08  2.90307131e-06  5.00000000e-01                                 
 2.93383555e-06  9.43966808e-01  2.93383555e-06  8.75983735e-01  2.93383555e-06  5.02382515e-01  2.93383555e-06  1.80000000e+00  2.93383555e-06 -7.64942498e-08  2.93383555e-06  5.00000000e-01                                 
 2.97262274e-06  9.45356168e-01  2.97262274e-06  8.76813853e-01  2.97262274e-06  5.03177108e-01  2.97262274e-06  1.80000000e+00  2.97262274e-06  1.17507789e-07  2.97262274e-06  5.00000000e-01                                 
 3.01835048e-06  9.43089718e-01  3.01835048e-06  8.75495746e-01  3.01835048e-06  5.02283870e-01  3.01835048e-06  1.80000000e+00  3.01835048e-06 -1.41237281e-07  3.01835048e-06  5.00000000e-01                                 
 3.07723915e-06  9.43444361e-01  3.07723915e-06  8.75679881e-01  3.07723915e-06  5.02426388e-01  3.07723915e-06  1.80000000e+00  3.07723915e-06  1.49559144e-07  3.07723915e-06  5.00000000e-01                                 
 3.15750107e-06  9.41247736e-01  3.15750107e-06  8.74415567e-01  3.15750107e-06  5.01774722e-01  3.15750107e-06  1.80000000e+00  3.15750107e-06 -1.54533540e-07  3.15750107e-06  5.00000000e-01                                 
 3.26983812e-06  9.40297772e-01  3.26983812e-06  8.73808195e-01  3.26983812e-06  5.01048846e-01  3.26983812e-06  1.80000000e+00  3.26983812e-06  1.53228336e-07  3.26983812e-06  5.00000000e-01                                 
 3.43584914e-06  9.36537471e-01  3.43584914e-06  8.71578501e-01  3.43584914e-06  4.99679487e-01  3.43584914e-06  1.80000000e+00  3.43584914e-06 -1.58200679e-07  3.43584914e-06  5.00000000e-01                                 
 3.68302441e-06  9.31577198e-01  3.68302441e-06  8.68449251e-01  3.68302441e-06  4.97239418e-01  3.68302441e-06  1.80000000e+00  3.68302441e-06  1.48500246e-07  3.68302441e-06  5.00000000e-01                                 
 4.06694522e-06  9.10588706e-01  4.06694522e-06  8.54436687e-01  4.06694522e-06  4.89732316e-01  4.06694522e-06  1.80000000e+00  4.06694522e-06 -1.90821566e-07  4.06694522e-06  5.00000000e-01                                 
 4.56563849e-06  8.74413250e-01  4.56563849e-06  8.25563648e-01  4.56563849e-06  5.01521200e-01  4.56563849e-06  1.80000000e+00  4.56563849e-06  1.25028742e-07  4.56563849e-06  5.00000000e-01                                 
 4.63531873e-06  8.69910563e-01  4.63531873e-06  8.21716054e-01  4.63531873e-06  5.05405605e-01  4.63531873e-06  1.80000000e+00  4.63531873e-06 -2.71796849e-08  4.63531873e-06  5.00000000e-01                                 
 4.77467920e-06  8.64447594e-01  4.77467920e-06  8.16814315e-01  4.77467920e-06  5.06265180e-01  4.77467920e-06  1.80000000e+00  4.77467920e-06 -2.45772487e-09  4.77467920e-06  5.00000000e-01                                 
 5.05340015e-06  8.63980094e-01  5.05340015e-06  8.16387127e-01  5.05340015e-06  5.01580242e-01  5.05340015e-06  1.80000000e+00  5.05340015e-06  1.50039059e-08  5.05340015e-06  5.00000000e-01                                 
 5.40085104e-06  8.64254558e-01  5.40085104e-06  8.16639030e-01  5.40085104e-06  5.04078943e-01  5.40085104e-06  1.80000000e+00  5.40085104e-06  3.32593230e-10  5.40085104e-06  5.00000000e-01                                 
 5.75646636e-06  8.64054363e-01  5.75646636e-06  8.16454717e-01  5.75646636e-06  5.02019093e-01  5.75646636e-06  1.80000000e+00  5.75646636e-06  1.33283290e-08  5.75646636e-06  5.00000000e-01                                 
 6.46769701e-06  8.64216585e-01  6.46769701e-06  8.16604487e-01  6.46769701e-06  5.00777915e-01  6.46769701e-06  1.80000000e+00  6.46769701e-06  1.37518628e-09  6.46769701e-06  5.00000000e-01                                 
 7.46769701e-06  8.64068825e-01  7.46769701e-06  8.16467895e-01  7.46769701e-06  5.01353699e-01  7.46769701e-06  1.80000000e+00  7.46769701e-06  1.28154114e-08  7.46769701e-06  5.00000000e-01                                 
 8.46769701e-06  8.64205836e-01  8.46769701e-06  8.16594698e-01  8.46769701e-06  5.00379460e-01  8.46769701e-06  1.80000000e+00  8.46769701e-06  1.76364852e-09  8.46769701e-06  5.00000000e-01                                 
 9.46769701e-06  8.64077848e-01  9.46769701e-06  8.16476121e-01  9.46769701e-06  5.00658074e-01  9.46769701e-06  1.80000000e+00  9.46769701e-06  1.24538194e-08  9.46769701e-06  5.00000000e-01                                 
 1.00005000e-05  8.64194119e-01  1.00005000e-05  8.16584019e-01  1.00005000e-05  5.00541198e-01  1.00005000e-05  1.80000000e+00  1.00005000e-05  2.23896819e-09  1.00005000e-05  5.00000000e-01                                 
 1.00005500e-05  8.64194179e-01  1.00005500e-05  8.16584034e-01  1.00005500e-05  4.92637766e-01  1.00005500e-05  1.62000000e+00  1.00005500e-05 -6.75099971e-05  1.00005500e-05  5.00000000e-01                                 
 1.00006500e-05  8.64194380e-01  1.00006500e-05  8.16584075e-01  1.00006500e-05  4.79292906e-01  1.00006500e-05  1.26000000e+00  1.00006500e-05 -4.10402511e-05  1.00006500e-05  5.00000000e-01                                 
 1.00008500e-05  8.64194721e-01  1.00008500e-05  8.16584119e-01  1.00008500e-05  4.79245099e-01  1.00008500e-05  5.40000000e-01  1.00008500e-05  3.15070388e-05  1.00008500e-05  5.00000000e-01                                 
