 time            v(vbep)         time            v(vben)         time            v(vout)         time            v(vphi1)        time            v(vphi2)        time            v(vref)         yes             currtemp       
 0.00000000e+00  6.37929600e-01  0.00000000e+00  5.76842239e-01  0.00000000e+00  1.01866893e+00  0.00000000e+00  0.00000000e+00  0.00000000e+00  1.79992217e+00  0.00000000e+00  5.76842239e-01  1.00000000e+00  6.10000000e+01 
 5.00000000e-12  6.37883386e-01  5.00000000e-12  5.76804442e-01  5.00000000e-12  1.01940493e+00  5.00000000e-12  1.80000000e-02  5.00000000e-12  1.80005376e+00  5.00000000e-12  5.76804442e-01                                 
 1.00000000e-11  6.37839181e-01  1.00000000e-11  5.76767963e-01  1.00000000e-11  1.02007260e+00  1.00000000e-11  3.60000000e-02  1.00000000e-11  1.80013441e+00  1.00000000e-11  5.76767963e-01                                 
 2.00000000e-11  6.37752134e-01  2.00000000e-11  5.76695391e-01  2.00000000e-11  1.02129948e+00  2.00000000e-11  7.20000000e-02  2.00000000e-11  1.80022644e+00  2.00000000e-11  5.76695391e-01                                 
 4.00000000e-11  6.37580386e-01  4.00000000e-11  5.76551019e-01  4.00000000e-11  1.02325205e+00  4.00000000e-11  1.44000000e-01  4.00000000e-11  1.80022055e+00  4.00000000e-11  5.76551019e-01                                 
 8.00000000e-11  6.37239103e-01  8.00000000e-11  5.76264035e-01  8.00000000e-11  1.02579981e+00  8.00000000e-11  2.88000000e-01  8.00000000e-11  1.80011874e+00  8.00000000e-11  5.76264035e-01                                 
 1.60000000e-10  6.36566297e-01  1.60000000e-10  5.75697045e-01  1.60000000e-10  1.02778764e+00  1.60000000e-10  5.76000000e-01  1.60000000e-10  1.80000448e+00  1.60000000e-10  5.75697045e-01                                 
 3.20000000e-10  6.35256803e-01  3.20000000e-10  5.74589793e-01  3.20000000e-10  1.02090623e+00  3.20000000e-10  1.15200000e+00  3.20000000e-10  1.80029046e+00  3.20000000e-10  5.74589793e-01                                 
 5.00000000e-10  6.33838837e-01  5.00000000e-10  5.73384860e-01  5.00000000e-10  1.13181197e+00  5.00000000e-10  1.80000000e+00  5.00000000e-10  1.68356683e-01  5.00000000e-10  5.73384860e-01                                 
 5.21911180e-10  6.33670501e-01  5.21911180e-10  5.73241379e-01  5.21911180e-10  1.15982357e+00  5.21911180e-10  1.80000000e+00  5.21911180e-10  4.40394152e-02  5.21911180e-10  5.73241379e-01                                 
 5.65733539e-10  6.33335359e-01  5.65733539e-10  5.72955520e-01  5.65733539e-10  1.21572774e+00  5.65733539e-10  1.80000000e+00  5.65733539e-10 -1.57717680e-02  5.65733539e-10  5.72955520e-01                                 
 6.53378259e-10  6.32674404e-01  6.53378259e-10  5.72390788e-01  6.53378259e-10  1.31650185e+00  6.53378259e-10  1.80000000e+00  6.53378259e-10  1.32644403e-02  6.53378259e-10  5.72390788e-01                                 
 7.74129958e-10  6.31783559e-01  7.74129958e-10  5.71627579e-01  7.74129958e-10  1.43676913e+00  7.74129958e-10  1.80000000e+00  7.74129958e-10 -9.82653976e-03  7.74129958e-10  5.71627579e-01                                 
 9.57638647e-10  6.30471348e-01  9.57638647e-10  5.70499135e-01  9.57638647e-10  1.58369645e+00  9.57638647e-10  1.80000000e+00  9.57638647e-10  9.70583501e-03  9.57638647e-10  5.70499135e-01                                 
 1.32465603e-09  6.27984526e-01  1.32465603e-09  5.68347103e-01  1.32465603e-09  1.76518866e+00  1.32465603e-09  1.80000000e+00  1.32465603e-09 -8.42242300e-03  1.32465603e-09  5.68347103e-01                                 
 1.66555551e-09  6.25825242e-01  1.66555551e-09  5.66463929e-01  1.66555551e-09  1.84169350e+00  1.66555551e-09  1.80000000e+00  1.66555551e-09  8.24169413e-03  1.66555551e-09  5.66463929e-01                                 
 2.04303426e-09  6.23583068e-01  2.04303426e-09  5.64494550e-01  2.04303426e-09  1.87467115e+00  2.04303426e-09  1.80000000e+00  2.04303426e-09 -7.58945350e-03  2.04303426e-09  5.64494550e-01                                 
 2.38645678e-09  6.21664829e-01  2.38645678e-09  5.62798605e-01  2.38645678e-09  1.88522152e+00  2.38645678e-09  1.80000000e+00  2.38645678e-09  7.19688740e-03  2.38645678e-09  5.62798605e-01                                 
 2.90135982e-09  6.18977793e-01  2.90135982e-09  5.60406600e-01  2.90135982e-09  1.88838294e+00  2.90135982e-09  1.80000000e+00  2.90135982e-09 -6.83632205e-03  2.90135982e-09  5.60406600e-01                                 
 3.54073403e-09  6.15916059e-01  3.54073403e-09  5.57658310e-01  3.54073403e-09  1.88717858e+00  3.54073403e-09  1.80000000e+00  3.54073403e-09  6.63592209e-03  3.54073403e-09  5.57658310e-01                                 
 4.64060758e-09  6.11225955e-01  4.64060758e-09  5.53404708e-01  4.64060758e-09  1.88249838e+00  4.64060758e-09  1.80000000e+00  4.64060758e-09 -6.47219271e-03  4.64060758e-09  5.53404708e-01                                 
 6.31147355e-09  6.05175603e-01  6.31147355e-09  5.47843820e-01  6.31147355e-09  1.87695351e+00  6.31147355e-09  1.80000000e+00  6.31147355e-09  6.41597105e-03  6.31147355e-09  5.47843820e-01                                 
 9.65320551e-09  5.95631821e-01  9.65320551e-09  5.38926299e-01  9.65320551e-09  1.86762206e+00  9.65320551e-09  1.80000000e+00  9.65320551e-09 -6.33735673e-03  9.65320551e-09  5.38926299e-01                                 
 1.14334744e-08  5.91583010e-01  1.14334744e-08  5.35085538e-01  1.14334744e-08  1.86412895e+00  1.14334744e-08  1.80000000e+00  1.14334744e-08  6.28994309e-03  1.14334744e-08  5.35085538e-01                                 
 1.28521433e-08  5.88703111e-01  1.28521433e-08  5.32336789e-01  1.28521433e-08  1.86116579e+00  1.28521433e-08  1.80000000e+00  1.28521433e-08 -6.16333573e-03  1.28521433e-08  5.32336789e-01                                 
 1.44670241e-08  5.85725069e-01  1.44670241e-08  5.29480829e-01  1.44670241e-08  1.85872829e+00  1.44670241e-08  1.80000000e+00  1.44670241e-08  6.10564021e-03  1.44670241e-08  5.29480829e-01                                 
 1.62012932e-08  5.82824129e-01  1.62012932e-08  5.26686038e-01  1.62012932e-08  1.85578640e+00  1.62012932e-08  1.80000000e+00  1.62012932e-08 -6.00167585e-03  1.62012932e-08  5.26686038e-01                                 
 1.81015043e-08  5.79938376e-01  1.81015043e-08  5.23894072e-01  1.81015043e-08  1.85347168e+00  1.81015043e-08  1.80000000e+00  1.81015043e-08  5.95703633e-03  1.81015043e-08  5.23894072e-01                                 
 2.03561311e-08  5.76839677e-01  2.03561311e-08  5.20884019e-01  2.03561311e-08  1.85040156e+00  2.03561311e-08  1.80000000e+00  2.03561311e-08 -5.87316812e-03  2.03561311e-08  5.20884019e-01                                 
 2.36652661e-08  5.72798635e-01  2.36652661e-08  5.16941921e-01  2.36652661e-08  1.84709955e+00  2.36652661e-08  1.80000000e+00  2.36652661e-08  5.85921252e-03  2.36652661e-08  5.16941921e-01                                 
 2.75797955e-08  5.68629842e-01  2.75797955e-08  5.12857203e-01  2.75797955e-08  1.84318051e+00  2.75797955e-08  1.80000000e+00  2.75797955e-08 -5.80021208e-03  2.75797955e-08  5.12857203e-01                                 
 3.46841476e-08  5.62262572e-01  3.46841476e-08  5.06589074e-01  3.46841476e-08  1.83802656e+00  3.46841476e-08  1.80000000e+00  3.46841476e-08  5.80847157e-03  3.46841476e-08  5.06589074e-01                                 
 4.21198617e-08  5.56798054e-01  4.21198617e-08  5.01184710e-01  4.21198617e-08  1.83319160e+00  4.21198617e-08  1.80000000e+00  4.21198617e-08 -5.76414483e-03  4.21198617e-08  5.01184710e-01                                 
 5.69912898e-08  5.48098064e-01  5.69912898e-08  4.92546708e-01  5.69912898e-08  1.82636892e+00  5.69912898e-08  1.80000000e+00  5.69912898e-08  5.78322065e-03  5.69912898e-08  4.92546708e-01                                 
 7.60549258e-08  5.39771254e-01  7.60549258e-08  4.84231670e-01  7.60549258e-08  1.81796172e+00  7.60549258e-08  1.80000000e+00  7.60549258e-08 -5.74836513e-03  7.60549258e-08  4.84231670e-01                                 
 1.00309420e-07  5.31019486e-01  1.00309420e-07  4.75614882e-01  1.00309420e-07  1.79689570e+00  1.00309420e-07  1.80000000e+00  1.00309420e-07  5.77095893e-03  1.00309420e-07  4.75614882e-01                                 
 1.29856551e-07  5.17094136e-01  1.29856551e-07  4.63010535e-01  1.29856551e-07  1.76238363e+00  1.29856551e-07  1.80000000e+00  1.29856551e-07 -5.73947070e-03  1.29856551e-07  4.63010535e-01                                 
 1.51882935e-07  5.06847504e-01  1.51882935e-07  4.53951983e-01  1.51882935e-07  1.72986481e+00  1.51882935e-07  1.80000000e+00  1.51882935e-07  5.76055743e-03  1.51882935e-07  4.53951983e-01                                 
 1.77266742e-07  4.97438777e-01  1.77266742e-07  4.45585734e-01  1.77266742e-07  1.68790038e+00  1.77266742e-07  1.80000000e+00  1.77266742e-07 -5.72873443e-03  1.77266742e-07  4.45585734e-01                                 
 2.02686446e-07  4.97974903e-01  2.02686446e-07  4.45197376e-01  2.02686446e-07  1.67291726e+00  2.02686446e-07  1.80000000e+00  2.02686446e-07  5.75306783e-03  2.02686446e-07  4.45197376e-01                                 
 2.29730084e-07  5.00661112e-01  2.29730084e-07  4.46528780e-01  2.29730084e-07  1.65413494e+00  2.29730084e-07  1.80000000e+00  2.29730084e-07 -5.71915271e-03  2.29730084e-07  4.46528780e-01                                 
 2.53415499e-07  4.97439128e-01  2.53415499e-07  4.43346084e-01  2.53415499e-07  1.62665285e+00  2.53415499e-07  1.80000000e+00  2.53415499e-07  5.74191051e-03  2.53415499e-07  4.43346084e-01                                 
 2.77757343e-07  4.94865242e-01  2.77757343e-07  4.40716092e-01  2.77757343e-07  1.59962730e+00  2.77757343e-07  1.80000000e+00  2.77757343e-07 -5.70862080e-03  2.77757343e-07  4.40716092e-01                                 
 3.05108598e-07  4.89473723e-01  3.05108598e-07  4.35842829e-01  3.05108598e-07  1.56680764e+00  3.05108598e-07  1.80000000e+00  3.05108598e-07  5.73182291e-03  3.05108598e-07  4.35842829e-01                                 
 3.52260301e-07  4.77670905e-01  3.52260301e-07  4.25590799e-01  3.52260301e-07  1.50704197e+00  3.52260301e-07  1.80000000e+00  3.52260301e-07 -5.70166425e-03  3.52260301e-07  4.25590799e-01                                 
 4.13517889e-07  4.63143859e-01  4.13517889e-07  4.13130048e-01  4.13517889e-07  1.42956151e+00  4.13517889e-07  1.80000000e+00  4.13517889e-07  5.72720499e-03  4.13517889e-07  4.13130048e-01                                 
 4.96721637e-07  4.42221837e-01  4.96721637e-07  3.95573941e-01  4.96721637e-07  1.32242022e+00  4.96721637e-07  1.80000000e+00  4.96721637e-07 -5.69820879e-03  4.96721637e-07  3.95573941e-01                                 
 6.41688833e-07  3.87505405e-01  6.41688833e-07  3.51102949e-01  6.41688833e-07  1.11876505e+00  6.41688833e-07  1.80000000e+00  6.41688833e-07  5.72446358e-03  6.41688833e-07  3.51102949e-01                                 
 7.85270277e-07  6.85436398e-01  7.85270277e-07  6.22002876e-01  7.85270277e-07  1.25351006e+00  7.85270277e-07  1.80000000e+00  7.85270277e-07 -5.68589498e-03  7.85270277e-07  6.22002876e-01                                 
 9.20348809e-07  9.13501656e-01  9.20348809e-07  7.85100087e-01  9.20348809e-07  1.32756064e+00  9.20348809e-07  1.80000000e+00  9.20348809e-07  5.72135949e-03  9.20348809e-07  7.85100087e-01                                 
 9.36320420e-07  9.40931182e-01  9.36320420e-07  7.97942219e-01  9.36320420e-07  1.33359838e+00  9.36320420e-07  1.80000000e+00  9.36320420e-07  8.08285812e-06  9.36320420e-07  7.97942219e-01                                 
 9.68263642e-07  9.72931984e-01  9.68263642e-07  8.11602105e-01  9.68263642e-07  1.33000074e+00  9.68263642e-07  1.80000000e+00  9.68263642e-07  9.33012231e-07  9.68263642e-07  8.11602105e-01                                 
 9.95499677e-07  9.65419072e-01  9.95499677e-07  8.08775708e-01  9.95499677e-07  1.29527458e+00  9.95499677e-07  1.80000000e+00  9.95499677e-07  3.20935722e-06  9.95499677e-07  8.08775708e-01                                 
 1.02598749e-06  9.65301463e-01  1.02598749e-06  8.08469136e-01  1.02598749e-06  1.26177810e+00  1.02598749e-06  1.80000000e+00  1.02598749e-06  1.75338782e-06  1.02598749e-06  8.08469136e-01                                 
 1.06276020e-06  9.67097595e-01  1.06276020e-06  8.09426352e-01  1.06276020e-06  1.22571655e+00  1.06276020e-06  1.80000000e+00  1.06276020e-06  3.61826315e-06  1.06276020e-06  8.09426352e-01                                 
 1.11550845e-06  9.63885451e-01  1.11550845e-06  8.07930839e-01  1.11550845e-06  1.16639317e+00  1.11550845e-06  1.80000000e+00  1.11550845e-06  1.21564401e-06  1.11550845e-06  8.07930839e-01                                 
 1.17271171e-06  9.66196795e-01  1.17271171e-06  8.09026658e-01  1.17271171e-06  1.10992092e+00  1.17271171e-06  1.80000000e+00  1.17271171e-06  4.11888126e-06  1.17271171e-06  8.09026658e-01                                 
 1.25209834e-06  9.62397367e-01  1.25209834e-06  8.07348273e-01  1.25209834e-06  1.02880393e+00  1.25209834e-06  1.80000000e+00  1.25209834e-06  9.29828838e-07  1.25209834e-06  8.07348273e-01                                 
 1.35115449e-06  9.63844414e-01  1.35115449e-06  8.08047170e-01  1.35115449e-06  9.50922663e-01  1.35115449e-06  1.80000000e+00  1.35115449e-06  4.61167743e-06  1.35115449e-06  8.08047170e-01                                 
 1.48162166e-06  9.59441323e-01  1.48162166e-06  8.06138354e-01  1.48162166e-06  8.69148280e-01  1.48162166e-06  1.80000000e+00  1.48162166e-06  9.95591110e-07  1.48162166e-06  8.06138354e-01                                 
 1.65985604e-06  9.59476163e-01  1.65985604e-06  8.06232534e-01  1.65985604e-06  8.11712593e-01  1.65985604e-06  1.80000000e+00  1.65985604e-06  5.05778955e-06  1.65985604e-06  8.06232534e-01                                 
 1.80691033e-06  9.54966696e-01  1.80691033e-06  8.04267972e-01  1.80691033e-06  7.89990974e-01  1.80691033e-06  1.80000000e+00  1.80691033e-06  1.07266647e-06  1.80691033e-06  8.04267972e-01                                 
 1.98054319e-06  9.54760099e-01  1.98054319e-06  8.04242854e-01  1.98054319e-06  8.01968206e-01  1.98054319e-06  1.80000000e+00  1.98054319e-06  5.35927410e-06  1.98054319e-06  8.04242854e-01                                 
 2.16390426e-06  9.49852268e-01  2.16390426e-06  8.02089126e-01  2.16390426e-06  8.04345819e-01  2.16390426e-06  1.80000000e+00  2.16390426e-06  9.16318297e-07  2.16390426e-06  8.02089126e-01                                 
 2.36318683e-06  9.49028181e-01  2.36318683e-06  8.01781792e-01  2.36318683e-06  7.98543561e-01  2.36318683e-06  1.80000000e+00  2.36318683e-06  5.40204966e-06  2.36318683e-06  8.01781792e-01                                 
 2.54767640e-06  9.44239655e-01  2.54767640e-06  7.99648298e-01  2.54767640e-06  8.00455082e-01  2.54767640e-06  1.80000000e+00  2.54767640e-06  8.88680531e-07  2.54767640e-06  7.99648298e-01                                 
 2.79073886e-06  9.42562598e-01  2.79073886e-06  7.98944374e-01  2.79073886e-06  7.97688512e-01  2.79073886e-06  1.80000000e+00  2.79073886e-06  5.43022856e-06  2.79073886e-06  7.98944374e-01                                 
 2.83050315e-06  9.40850130e-01  2.83050315e-06  7.98170074e-01  2.83050315e-06  7.97255194e-01  2.83050315e-06  1.80000000e+00  2.83050315e-06  3.11674482e-06  2.83050315e-06  7.98170074e-01                                 
 2.91003174e-06  9.39201877e-01  2.91003174e-06  7.97425141e-01  2.91003174e-06  7.97001912e-01  2.91003174e-06  1.80000000e+00  2.91003174e-06  3.17427205e-06  2.91003174e-06  7.97425141e-01                                 
 3.06908891e-06  9.36269796e-01  3.06908891e-06  7.96108506e-01  3.06908891e-06  7.95434430e-01  3.06908891e-06  1.80000000e+00  3.06908891e-06  3.11523276e-06  3.06908891e-06  7.96108506e-01                                 
 3.32806725e-06  9.31236040e-01  3.32806725e-06  7.93796581e-01  3.32806725e-06  7.93322690e-01  3.32806725e-06  1.80000000e+00  3.32806725e-06  3.17419391e-06  3.32806725e-06  7.93796581e-01                                 
 3.84602391e-06  9.21644792e-01  3.84602391e-06  7.89289733e-01  3.84602391e-06  7.88714301e-01  3.84602391e-06  1.80000000e+00  3.84602391e-06  3.11561174e-06  3.84602391e-06  7.89289733e-01                                 
 3.97102391e-06  9.19282918e-01  3.97102391e-06  7.88150582e-01  3.97102391e-06  7.87630848e-01  3.97102391e-06  1.80000000e+00  3.97102391e-06  3.14458573e-06  3.97102391e-06  7.88150582e-01                                 
 4.22102391e-06  9.14650195e-01  4.22102391e-06  7.85893730e-01  4.22102391e-06  7.85408596e-01  4.22102391e-06  1.80000000e+00  4.22102391e-06  3.14460333e-06  4.22102391e-06  7.85893730e-01                                 
 4.72102391e-06  9.04244429e-01  4.72102391e-06  7.80687326e-01  4.72102391e-06  7.80091982e-01  4.72102391e-06  1.80000000e+00  4.72102391e-06  3.13530962e-06  4.72102391e-06  7.80687326e-01                                 
 4.81107333e-06  9.01910087e-01  4.81107333e-06  7.79493308e-01  4.81107333e-06  7.78839734e-01  4.81107333e-06  1.80000000e+00  4.81107333e-06  3.13029728e-06  4.81107333e-06  7.79493308e-01                                 
 4.99117218e-06  8.95972785e-01  4.99117218e-06  7.76413347e-01  4.99117218e-06  7.75466775e-01  4.99117218e-06  1.80000000e+00  4.99117218e-06  3.10354362e-06  4.99117218e-06  7.76413347e-01                                 
 5.03619689e-06  8.93776349e-01  5.03619689e-06  7.75258846e-01  5.03619689e-06  7.74134495e-01  5.03619689e-06  1.80000000e+00  5.03619689e-06  3.08704979e-06  5.03619689e-06  7.75258846e-01                                 
 5.12624632e-06  8.87594158e-01  5.12624632e-06  7.71966108e-01  5.12624632e-06  7.70155213e-01  5.12624632e-06  1.80000000e+00  5.12624632e-06  3.01071289e-06  5.12624632e-06  7.71966108e-01                                 
 5.14875867e-06  8.85043421e-01  5.14875867e-06  7.70589482e-01  5.14875867e-06  7.68403575e-01  5.14875867e-06  1.80000000e+00  5.14875867e-06  2.96275797e-06  5.14875867e-06  7.70589482e-01                                 
 5.19378338e-06  8.77400009e-01  5.19378338e-06  7.66402955e-01  5.19378338e-06  7.62844932e-01  5.19378338e-06  1.80000000e+00  5.19378338e-06  2.74063627e-06  5.19378338e-06  7.66402955e-01                                 
 5.24489041e-06  8.22320310e-01  5.24489041e-06  7.33525491e-01  5.24489041e-06  7.16200902e-01  5.24489041e-06  1.80000000e+00  5.24489041e-06 -7.29087008e-07  5.24489041e-06  7.33525491e-01                                 
 5.28871023e-06  7.45410725e-01  5.28871023e-06  6.76338177e-01  5.28871023e-06  6.51877152e-01  5.28871023e-06  1.80000000e+00  5.28871023e-06 -5.06099604e-07  5.28871023e-06  6.76338177e-01                                 
 5.31896108e-06  7.19362291e-01  5.31896108e-06  6.55000658e-01  5.31896108e-06  6.35243337e-01  5.31896108e-06  1.80000000e+00  5.31896108e-06  3.23212176e-06  5.31896108e-06  6.55000658e-01                                 
 5.34637246e-06  7.05800547e-01  5.34637246e-06  6.40548780e-01  5.34637246e-06  6.29693853e-01  5.34637246e-06  1.80000000e+00  5.34637246e-06  7.58054710e-07  5.34637246e-06  6.40548780e-01                                 
 5.37511930e-06  7.17153123e-01  5.37511930e-06  6.52749688e-01  5.37511930e-06  6.45759541e-01  5.37511930e-06  1.80000000e+00  5.37511930e-06  7.77263147e-06  5.37511930e-06  6.52749688e-01                                 
 5.42026990e-06  7.36555983e-01  5.42026990e-06  6.68866922e-01  5.42026990e-06  6.68842341e-01  5.42026990e-06  1.80000000e+00  5.42026990e-06  5.84689037e-07  5.42026990e-06  6.68866922e-01                                 
