 time            v(vbep)         time            v(vben)         time            v(vout)         time            v(vphi1)        time            v(vphi2)        time            v(vref)         yes             currtemp       
 0.00000000e+00  7.85820468e-01  0.00000000e+00  7.41911493e-01  0.00000000e+00  5.90154360e-02  0.00000000e+00  0.00000000e+00  0.00000000e+00  1.79997400e+00  0.00000000e+00  5.00000000e-01  1.00000000e+00 -3.30000000e+01 
 5.00000000e-12  7.85804801e-01  5.00000000e-12  7.41898429e-01  5.00000000e-12  5.94369554e-02  5.00000000e-12  1.80000000e-02  5.00000000e-12  1.80005295e+00  5.00000000e-12  5.00000000e-01                                 
 1.00000000e-11  7.85789388e-01  1.00000000e-11  7.41885635e-01  1.00000000e-11  5.98137437e-02  1.00000000e-11  3.60000000e-02  1.00000000e-11  1.80008972e+00  1.00000000e-11  5.00000000e-01                                 
 2.00000000e-11  7.85758696e-01  2.00000000e-11  7.41860121e-01  2.00000000e-11  6.05057600e-02  2.00000000e-11  7.20000000e-02  2.00000000e-11  1.80011971e+00  2.00000000e-11  5.00000000e-01                                 
 4.00000000e-11  7.85697544e-01  4.00000000e-11  7.41809230e-01  4.00000000e-11  6.16158495e-02  4.00000000e-11  1.44000000e-01  4.00000000e-11  1.80008933e+00  4.00000000e-11  5.00000000e-01                                 
 8.00000000e-11  7.85575644e-01  8.00000000e-11  7.41707738e-01  8.00000000e-11  6.32757649e-02  8.00000000e-11  2.88000000e-01  8.00000000e-11  1.80003811e+00  8.00000000e-11  5.00000000e-01                                 
 1.60000000e-10  7.85333596e-01  1.60000000e-10  7.41505958e-01  1.60000000e-10  6.59804003e-02  1.60000000e-10  5.76000000e-01  1.60000000e-10  1.80000749e+00  1.60000000e-10  5.00000000e-01                                 
 3.20000000e-10  7.84856349e-01  3.20000000e-10  7.41107187e-01  3.20000000e-10  1.03598290e-01  3.20000000e-10  1.15200000e+00  3.20000000e-10  1.79983902e+00  3.20000000e-10  5.00000000e-01                                 
 5.00000000e-10  7.84330295e-01  5.00000000e-10  7.40666195e-01  5.00000000e-10  4.59459299e-01  5.00000000e-10  1.80000000e+00  5.00000000e-10  8.73951980e-02  5.00000000e-10  5.00000000e-01                                 
 5.20660011e-10  7.84270718e-01  5.20660011e-10  7.40616147e-01  5.20660011e-10  5.21760681e-01  5.20660011e-10  1.80000000e+00  5.20660011e-10  1.45273645e-02  5.20660011e-10  5.00000000e-01                                 
 5.61980032e-10  7.84151852e-01  5.61980032e-10  7.40516254e-01  5.61980032e-10  6.30984973e-01  5.61980032e-10  1.80000000e+00  5.61980032e-10 -6.80490976e-03  5.61980032e-10  5.00000000e-01                                 
 6.44620074e-10  7.83915866e-01  6.44620074e-10  7.40317711e-01  6.44620074e-10  7.86583842e-01  6.44620074e-10  1.80000000e+00  6.44620074e-10  6.17220251e-03  6.44620074e-10  5.00000000e-01                                 
 7.69843242e-10  7.83562662e-01  7.69843242e-10  7.40019994e-01  7.69843242e-10  9.46575979e-01  7.69843242e-10  1.80000000e+00  7.69843242e-10 -5.42117707e-03  7.69843242e-10  5.00000000e-01                                 
 9.56668448e-10  7.83045230e-01  9.56668448e-10  7.39582655e-01  9.56668448e-10  1.12411541e+00  9.56668448e-10  1.80000000e+00  9.56668448e-10  5.23305026e-03  9.56668448e-10  5.00000000e-01                                 
 1.25682683e-09  7.82236647e-01  1.25682683e-09  7.38896443e-01  1.25682683e-09  1.34068348e+00  1.25682683e-09  1.80000000e+00  1.25682683e-09 -4.96320007e-03  1.25682683e-09  5.00000000e-01                                 
 1.82759037e-09  7.80770464e-01  1.82759037e-09  7.37643747e-01  1.82759037e-09  1.57153375e+00  1.82759037e-09  1.80000000e+00  1.82759037e-09  4.93878519e-03  1.82759037e-09  5.00000000e-01                                 
 2.26364416e-09  7.79709432e-01  2.26364416e-09  7.36730374e-01  2.26364416e-09  1.63488093e+00  2.26364416e-09  1.80000000e+00  2.26364416e-09 -4.73461402e-03  2.26364416e-09  5.00000000e-01                                 
 2.64300990e-09  7.78823497e-01  2.64300990e-09  7.35963524e-01  2.64300990e-09  1.65419885e+00  2.64300990e-09  1.80000000e+00  2.64300990e-09  4.66543088e-03  2.64300990e-09  5.00000000e-01                                 
 3.00469667e-09  7.78008412e-01  3.00469667e-09  7.35254731e-01  3.00469667e-09  1.66110658e+00  3.00469667e-09  1.80000000e+00  3.00469667e-09 -4.48831810e-03  3.00469667e-09  5.00000000e-01                                 
 3.38775457e-09  7.77174346e-01  3.38775457e-09  7.34526282e-01  3.38775457e-09  1.66261472e+00  3.38775457e-09  1.80000000e+00  3.38775457e-09  4.38761376e-03  3.38775457e-09  5.00000000e-01                                 
 4.15387035e-09  7.75587414e-01  4.15387035e-09  7.33131984e-01  4.15387035e-09  1.66058282e+00  4.15387035e-09  1.80000000e+00  4.15387035e-09 -4.30580192e-03  4.15387035e-09  5.00000000e-01                                 
 5.05558778e-09  7.73843944e-01  5.05558778e-09  7.31587918e-01  5.05558778e-09  1.65724574e+00  5.05558778e-09  1.80000000e+00  5.05558778e-09  4.27071114e-03  5.05558778e-09  5.00000000e-01                                 
 6.85902264e-09  7.70686125e-01  6.85902264e-09  7.28762169e-01  6.85902264e-09  1.65037807e+00  6.85902264e-09  1.80000000e+00  6.85902264e-09 -4.22878755e-03  6.85902264e-09  5.00000000e-01                                 
 1.00986285e-08  7.65850466e-01  1.00986285e-08  7.24370878e-01  1.00986285e-08  1.64112554e+00  1.00986285e-08  1.80000000e+00  1.00986285e-08  4.23070972e-03  1.00986285e-08  5.00000000e-01                                 
 1.65778404e-08  7.58299563e-01  1.65778404e-08  7.17384777e-01  1.65778404e-08  1.62214773e+00  1.65778404e-08  1.80000000e+00  1.65778404e-08 -4.20754043e-03  1.65778404e-08  5.00000000e-01                                 
 2.95362640e-08  7.48571250e-01  2.95362640e-08  7.08078374e-01  2.95362640e-08  1.57159991e+00  2.95362640e-08  1.80000000e+00  2.95362640e-08  4.22041009e-03  2.95362640e-08  5.00000000e-01                                 
 5.13288957e-08  7.39285886e-01  5.13288957e-08  6.98816841e-01  5.13288957e-08  1.45106554e+00  5.13288957e-08  1.80000000e+00  5.13288957e-08 -4.20165868e-03  5.13288957e-08  5.00000000e-01                                 
 7.23118263e-08  7.32026210e-01  7.23118263e-08  6.91759473e-01  7.23118263e-08  1.32760329e+00  7.23118263e-08  1.80000000e+00  7.23118263e-08  4.21622415e-03  7.23118263e-08  5.00000000e-01                                 
 1.05712672e-07  7.21621116e-01  1.05712672e-07  6.81954276e-01  1.05712672e-07  1.13326890e+00  1.05712672e-07  1.80000000e+00  1.05712672e-07 -4.19812772e-03  1.05712672e-07  5.00000000e-01                                 
 1.44686742e-07  7.12590208e-01  1.44686742e-07  6.73452531e-01  1.44686742e-07  9.10576452e-01  1.44686742e-07  1.80000000e+00  1.44686742e-07  4.21376380e-03  1.44686742e-07  5.00000000e-01                                 
 2.07322242e-07  7.01362524e-01  2.07322242e-07  6.62969218e-01  2.07322242e-07  6.97885874e-01  2.07322242e-07  1.80000000e+00  2.07322242e-07 -4.19621037e-03  2.07322242e-07  5.00000000e-01                                 
 2.67615719e-07  6.92906322e-01  2.67615719e-07  6.55147632e-01  2.67615719e-07  6.06411474e-01  2.67615719e-07  1.80000000e+00  2.67615719e-07  4.21231819e-03  2.67615719e-07  5.00000000e-01                                 
 3.27657535e-07  6.85849082e-01  3.27657535e-07  6.48674944e-01  3.27657535e-07  5.41569758e-01  3.27657535e-07  1.80000000e+00  3.27657535e-07 -4.19467997e-03  3.27657535e-07  5.00000000e-01                                 
 4.02326782e-07  6.78261226e-01  4.02326782e-07  6.41780589e-01  4.02326782e-07  5.01009263e-01  4.02326782e-07  1.80000000e+00  4.02326782e-07  4.21097617e-03  4.02326782e-07  5.00000000e-01                                 
 4.20994094e-07  6.76571007e-01  4.20994094e-07  6.40254877e-01  4.20994094e-07  5.00303398e-01  4.20994094e-07  1.80000000e+00  4.20994094e-07  5.94224152e-07  4.20994094e-07  5.00000000e-01                                 
 4.58328717e-07  6.73261765e-01  4.58328717e-07  6.37276596e-01  4.58328717e-07  4.99232085e-01  4.58328717e-07  1.80000000e+00  4.58328717e-07 -6.48200429e-07  4.58328717e-07  5.00000000e-01                                 
 5.32997964e-07  6.67134051e-01  5.32997964e-07  6.31797306e-01  5.32997964e-07  4.97387392e-01  5.32997964e-07  1.80000000e+00  5.32997964e-07  5.98661023e-07  5.32997964e-07  5.00000000e-01                                 
 6.82336457e-07  6.56376034e-01  6.82336457e-07  6.22282041e-01  6.82336457e-07  4.93726666e-01  6.82336457e-07  1.80000000e+00  6.82336457e-07 -6.39596892e-07  6.82336457e-07  5.00000000e-01                                 
 8.41113307e-07  6.46681574e-01  8.41113307e-07  6.13809620e-01  8.41113307e-07  4.90375171e-01  8.41113307e-07  1.80000000e+00  8.41113307e-07  6.07231566e-07  8.41113307e-07  5.00000000e-01                                 
 1.10981116e-06  6.33315150e-01  1.10981116e-06  6.02234988e-01  1.10981116e-06  4.90636774e-01  1.10981116e-06  1.80000000e+00  1.10981116e-06 -6.30927646e-07  1.10981116e-06  5.00000000e-01                                 
 1.49021839e-06  6.19152312e-01  1.49021839e-06  5.90053180e-01  1.49021839e-06  5.07160259e-01  1.49021839e-06  1.80000000e+00  1.49021839e-06  6.16327461e-07  1.49021839e-06  5.00000000e-01                                 
 1.56381396e-06  6.17029975e-01  1.56381396e-06  5.88229846e-01  1.56381396e-06  5.08728817e-01  1.56381396e-06  1.80000000e+00  1.56381396e-06 -4.33069071e-09  1.56381396e-06  5.00000000e-01                                 
 1.71100509e-06  6.12979391e-01  1.71100509e-06  5.84751306e-01  1.71100509e-06  5.06432113e-01  1.71100509e-06  1.80000000e+00  1.71100509e-06 -3.42471412e-09  1.71100509e-06  5.00000000e-01                                 
 2.00538737e-06  6.06137267e-01  2.00538737e-06  5.78864793e-01  2.00538737e-06  4.99281959e-01  2.00538737e-06  1.80000000e+00  2.00538737e-06 -1.33346658e-09  2.00538737e-06  5.00000000e-01                                 
 2.33624258e-06  6.00232419e-01  2.33624258e-06  5.73749732e-01  2.33624258e-06  5.00587686e-01  2.33624258e-06  1.80000000e+00  2.33624258e-06  2.34884739e-10  2.33624258e-06  5.00000000e-01                                 
 2.72753376e-06  5.95581544e-01  2.72753376e-06  5.69629874e-01  2.72753376e-06  5.01318150e-01  2.72753376e-06  1.80000000e+00  2.72753376e-06  2.63613149e-09  2.72753376e-06  5.00000000e-01                                 
 3.40366526e-06  5.99152004e-01  3.40366526e-06  5.71862256e-01  3.40366526e-06  5.05108088e-01  3.40366526e-06  1.80000000e+00  3.40366526e-06  1.13958878e-08  3.40366526e-06  5.00000000e-01                                 
 3.51684031e-06  6.03079985e-01  3.51684031e-06  5.74901704e-01  3.51684031e-06  5.06042489e-01  3.51684031e-06  1.80000000e+00  3.51684031e-06  1.65744819e-08  3.51684031e-06  5.00000000e-01                                 
 3.74319042e-06  6.26710955e-01  3.74319042e-06  5.93592094e-01  3.74319042e-06  5.09566168e-01  3.74319042e-06  1.80000000e+00  3.74319042e-06  6.25277777e-08  3.74319042e-06  5.00000000e-01                                 
 3.77793975e-06  6.35463223e-01  3.77793975e-06  6.00560161e-01  3.77793975e-06  5.10904204e-01  3.77793975e-06  1.80000000e+00  3.77793975e-06  8.90466861e-08  3.77793975e-06  5.00000000e-01                                 
 3.84743840e-06  6.67442067e-01  3.84743840e-06  6.26114478e-01  3.84743840e-06  5.16459091e-01  3.84743840e-06  1.80000000e+00  3.84743840e-06  2.33810102e-07  3.84743840e-06  5.00000000e-01                                 
 3.86481307e-06  6.84012000e-01  3.86481307e-06  6.39422952e-01  3.86481307e-06  5.19572177e-01  3.86481307e-06  1.80000000e+00  3.86481307e-06  3.38075768e-07  3.86481307e-06  5.00000000e-01                                 
 3.89956239e-06  7.37186149e-01  3.89956239e-06  6.83800879e-01  3.89956239e-06  5.30333225e-01  3.89956239e-06  1.80000000e+00  3.89956239e-06  8.09401437e-07  3.89956239e-06  5.00000000e-01                                 
 3.95667497e-06  8.35101027e-01  3.95667497e-06  7.89560345e-01  3.95667497e-06  5.31903829e-01  3.95667497e-06  1.80000000e+00  3.95667497e-06  8.55118649e-07  3.95667497e-06  5.00000000e-01                                 
 3.96486944e-06  8.45247934e-01  3.96486944e-06  7.99999046e-01  3.96486944e-06  5.29546727e-01  3.96486944e-06  1.80000000e+00  3.96486944e-06  6.69799935e-07  3.96486944e-06  5.00000000e-01                                 
 3.98125838e-06  8.64888312e-01  3.98125838e-06  8.18785195e-01  3.98125838e-06  5.26298531e-01  3.98125838e-06  1.80000000e+00  3.98125838e-06  6.10059510e-07  3.98125838e-06  5.00000000e-01                                 
 4.00972307e-06  9.02254594e-01  4.00972307e-06  8.50866599e-01  4.00972307e-06  5.27145379e-01  4.00972307e-06  1.80000000e+00  4.00972307e-06  7.68127599e-07  4.00972307e-06  5.00000000e-01                                 
 4.04072368e-06  9.39342063e-01  4.04072368e-06  8.76702477e-01  4.04072368e-06  5.26440385e-01  4.04072368e-06  1.80000000e+00  4.04072368e-06  4.66399800e-07  4.04072368e-06  5.00000000e-01                                 
 4.06358443e-06  9.42403529e-01  4.06358443e-06  8.78861980e-01  4.06358443e-06  5.15415687e-01  4.06358443e-06  1.80000000e+00  4.06358443e-06 -2.00424974e-07  4.06358443e-06  5.00000000e-01                                 
 4.08921908e-06  9.39015014e-01  4.08921908e-06  8.76594950e-01  4.08921908e-06  5.05623075e-01  4.08921908e-06  1.80000000e+00  4.08921908e-06  8.29005379e-08  4.08921908e-06  5.00000000e-01                                 
 4.11854796e-06  9.41206482e-01  4.11854796e-06  8.78062676e-01  4.11854796e-06  5.05635809e-01  4.11854796e-06  1.80000000e+00  4.11854796e-06  1.88013955e-08  4.11854796e-06  5.00000000e-01                                 
 4.14912777e-06  9.38634563e-01  4.14912777e-06  8.76409898e-01  4.14912777e-06  5.03649148e-01  4.14912777e-06  1.80000000e+00  4.14912777e-06 -8.25300163e-08  4.14912777e-06  5.00000000e-01                                 
 4.18748426e-06  9.39476358e-01  4.18748426e-06  8.76962705e-01  4.18748426e-06  5.03830138e-01  4.18748426e-06  1.80000000e+00  4.18748426e-06  1.01318665e-07  4.18748426e-06  5.00000000e-01                                 
 4.23256560e-06  9.37504114e-01  4.23256560e-06  8.75722622e-01  4.23256560e-06  5.02918625e-01  4.23256560e-06  1.80000000e+00  4.23256560e-06 -1.20116654e-07  4.23256560e-06  5.00000000e-01                                 
 4.29317619e-06  9.37292399e-01  4.29317619e-06  8.75587280e-01  4.29317619e-06  5.02451333e-01  4.29317619e-06  1.80000000e+00  4.29317619e-06  1.15435963e-07  4.29317619e-06  5.00000000e-01                                 
 4.37485605e-06  9.34866734e-01  4.37485605e-06  8.74060791e-01  4.37485605e-06  5.01403088e-01  4.37485605e-06  1.80000000e+00  4.37485605e-06 -1.26239616e-07  4.37485605e-06  5.00000000e-01                                 
 4.49123226e-06  9.32953110e-01  4.49123226e-06  8.72817792e-01  4.49123226e-06  4.99961311e-01  4.49123226e-06  1.80000000e+00  4.49123226e-06  1.14014176e-07  4.49123226e-06  5.00000000e-01                                 
 4.65981123e-06  9.27735873e-01  4.65981123e-06  8.69413587e-01  4.65981123e-06  4.97374144e-01  4.65981123e-06  1.80000000e+00  4.65981123e-06 -1.31178057e-07  4.65981123e-06  5.00000000e-01                                 
 4.90433377e-06  9.18595904e-01  4.90433377e-06  8.63113557e-01  4.90433377e-06  4.91942970e-01  4.90433377e-06  1.80000000e+00  4.90433377e-06  1.00542026e-07  4.90433377e-06  5.00000000e-01                                 
 5.29238624e-06  8.89232266e-01  5.29238624e-06  8.40484258e-01  5.29238624e-06  4.86543560e-01  5.29238624e-06  1.80000000e+00  5.29238624e-06 -1.68612413e-07  5.29238624e-06  5.00000000e-01                                 
 5.36855762e-06  8.83318357e-01  5.36855762e-06  8.35394302e-01  5.36855762e-06  4.90632627e-01  5.36855762e-06  1.80000000e+00  5.36855762e-06 -3.75233327e-08  5.36855762e-06  5.00000000e-01                                 
 5.52090036e-06  8.74680448e-01  5.52090036e-06  8.27778356e-01  5.52090036e-06  5.01765921e-01  5.52090036e-06  1.80000000e+00  5.52090036e-06 -1.28416200e-08  5.52090036e-06  5.00000000e-01                                 
 5.78738639e-06  8.70777063e-01  5.78738639e-06  8.24252432e-01  5.78738639e-06  5.08355664e-01  5.78738639e-06  1.80000000e+00  5.78738639e-06  7.48037464e-09  5.78738639e-06  5.00000000e-01                                 
 6.06715088e-06  8.71175045e-01  6.06715088e-06  8.24611351e-01  6.06715088e-06  5.00929742e-01  6.06715088e-06  1.80000000e+00  6.06715088e-06  5.08905170e-09  6.06715088e-06  5.00000000e-01                                 
 6.39291095e-06  8.71115888e-01  6.39291095e-06  8.24560729e-01  6.39291095e-06  5.04932262e-01  6.39291095e-06  1.80000000e+00  6.39291095e-06  5.75782166e-09  6.39291095e-06  5.00000000e-01                                 
 6.74281142e-06  8.71119933e-01  6.74281142e-06  8.24561260e-01  6.74281142e-06  5.04235924e-01  6.74281142e-06  1.80000000e+00  6.74281142e-06  5.04433298e-09  6.74281142e-06  5.00000000e-01                                 
 7.44261234e-06  8.71127327e-01  7.44261234e-06  8.24571110e-01  7.44261234e-06  5.00689220e-01  7.44261234e-06  1.80000000e+00  7.44261234e-06  5.97760338e-09  7.44261234e-06  5.00000000e-01                                 
 8.10991199e-06  8.71117977e-01  8.10991199e-06  8.24559496e-01  8.10991199e-06  5.02798464e-01  8.10991199e-06  1.80000000e+00  8.10991199e-06  4.89585350e-09  8.10991199e-06  5.00000000e-01                                 
 9.01576052e-06  8.71127998e-01  9.01576052e-06  8.24571707e-01  9.01576052e-06  5.03032576e-01  9.01576052e-06  1.80000000e+00  9.01576052e-06  6.09217644e-09  9.01576052e-06  5.00000000e-01                                 
 1.00005000e-05  8.71117906e-01  1.00005000e-05  8.24559442e-01  1.00005000e-05  5.02605561e-01  1.00005000e-05  1.80000000e+00  1.00005000e-05  4.80638507e-09  1.00005000e-05  5.00000000e-01                                 
 1.00005500e-05  8.71118260e-01  1.00005500e-05  8.24559910e-01  1.00005500e-05  4.94734660e-01  1.00005500e-05  1.62000000e+00  1.00005500e-05 -6.55076560e-05  1.00005500e-05  5.00000000e-01                                 
 1.00006500e-05  8.71119056e-01  1.00006500e-05  8.24560805e-01  1.00006500e-05  4.81459677e-01  1.00006500e-05  1.26000000e+00  1.00006500e-05 -3.94642512e-05  1.00006500e-05  5.00000000e-01                                 
 1.00008500e-05  8.71120351e-01  1.00008500e-05  8.24562216e-01  1.00008500e-05  4.81366935e-01  1.00008500e-05  5.40000000e-01  1.00008500e-05  8.90546650e-05  1.00008500e-05  5.00000000e-01                                 
 1.00010000e-05  8.71120870e-01  1.00010000e-05  8.24562899e-01  1.00010000e-05  4.50775311e-01  1.00010000e-05  0.00000000e+00  1.00010000e-05  1.54035327e+00  1.00010000e-05  5.00000000e-01                                 
 1.00010136e-05  8.71120853e-01  1.00010136e-05  8.24562919e-01  1.00010136e-05  4.34565857e-01  1.00010136e-05  0.00000000e+00  1.00010136e-05  1.66808662e+00  1.00010136e-05  5.00000000e-01                                 
 1.00010408e-05  8.71120811e-01  1.00010408e-05  8.24562948e-01  1.00010408e-05  3.92958070e-01  1.00010408e-05  0.00000000e+00  1.00010408e-05  1.79521628e+00  1.00010408e-05  5.00000000e-01                                 
 1.00010951e-05  8.71120936e-01  1.00010951e-05  8.24563072e-01  1.00010951e-05  3.18165097e-01  1.00010951e-05  0.00000000e+00  1.00010951e-05  1.79736997e+00  1.00010951e-05  5.00000000e-01                                 
