 time            v(vbep)         time            v(vben)         time            v(vout)         time            v(vphi1)        time            v(vphi2)        time            v(vref)         time            v(voutc)        time            v(voutcc)       yes             currtemp       
 0.00000000e+00  8.38327976e-01  0.00000000e+00  7.89205029e-01  0.00000000e+00  1.73202529e+00  0.00000000e+00  0.00000000e+00  0.00000000e+00  1.80000000e+00  0.00000000e+00  7.93068535e-01  0.00000000e+00  1.73202528e+00  0.00000000e+00  1.73691934e+00  1.00000000e+00 -1.70000000e+01 
 1.00000000e-11  8.38349636e-01  1.00000000e-11  7.89271105e-01  1.00000000e-11  1.73285022e+00  1.00000000e-11  1.80000000e-02  1.00000000e-11  1.80024299e+00  1.00000000e-11  7.93584008e-01  1.00000000e-11  1.73248289e+00  1.00000000e-11  1.73692909e+00                                 
 2.00000000e-11  8.38355735e-01  2.00000000e-11  7.89312848e-01  2.00000000e-11  1.73341271e+00  2.00000000e-11  3.60000000e-02  2.00000000e-11  1.80034539e+00  2.00000000e-11  7.93974519e-01  2.00000000e-11  1.73284285e+00  2.00000000e-11  1.73693297e+00                                 
 4.00000000e-11  8.38355738e-01  4.00000000e-11  7.89367556e-01  4.00000000e-11  1.73417082e+00  4.00000000e-11  7.20000000e-02  4.00000000e-11  1.80039454e+00  4.00000000e-11  7.94554089e-01  4.00000000e-11  1.73340143e+00  4.00000000e-11  1.73693396e+00                                 
 8.00000000e-11  8.38344782e-01  8.00000000e-11  7.89399808e-01  8.00000000e-11  1.73455913e+00  8.00000000e-11  1.44000000e-01  8.00000000e-11  1.80020533e+00  8.00000000e-11  7.95024451e-01  8.00000000e-11  1.73394156e+00  8.00000000e-11  1.73692287e+00                                 
 1.60000000e-10  8.38341406e-01  1.60000000e-10  7.89399044e-01  1.60000000e-10  1.73436453e+00  1.60000000e-10  2.88000000e-01  1.60000000e-10  1.80001642e+00  1.60000000e-10  7.95096447e-01  1.60000000e-10  1.73417318e+00  1.60000000e-10  1.73690966e+00                                 
 3.20000000e-10  8.38339083e-01  3.20000000e-10  7.89396872e-01  3.20000000e-10  1.73407372e+00  3.20000000e-10  5.76000000e-01  3.20000000e-10  1.80002295e+00  3.20000000e-10  7.95061250e-01  3.20000000e-10  1.73418149e+00  3.20000000e-10  1.73690730e+00                                 
 6.40000000e-10  8.38269604e-01  6.40000000e-10  7.89199566e-01  6.40000000e-10  1.72700084e+00  6.40000000e-10  1.15200000e+00  6.40000000e-10  1.81354939e+00  6.40000000e-10  7.94724290e-01  6.40000000e-10  1.73857331e+00  6.40000000e-10  1.73693442e+00                                 
 9.95089632e-10  8.38660180e-01  9.95089632e-10  7.89206959e-01  9.95089632e-10  1.69571394e+00  9.95089632e-10  1.79116134e+00  9.95089632e-10  7.44346975e-02  9.95089632e-10  7.94923514e-01  9.95089632e-10  1.72650861e+00  9.95089632e-10  1.73680843e+00                                 
 1.00000000e-09  8.38676373e-01  1.00000000e-09  7.89236451e-01  1.00000000e-09  1.69540536e+00  1.00000000e-09  1.80000000e+00  1.00000000e-09  4.22055504e-02  1.00000000e-09  7.95321593e-01  1.00000000e-09  1.72640542e+00  1.00000000e-09  1.73681974e+00                                 
 1.00982074e-09  8.38659443e-01  1.00982074e-09  7.89249834e-01  1.00982074e-09  1.69535863e+00  1.00982074e-09  1.80000000e+00  1.00982074e-09  2.01545946e-02  1.00982074e-09  7.96200059e-01  1.00982074e-09  1.72688831e+00  1.00982074e-09  1.73685369e+00                                 
 1.02946221e-09  8.38658155e-01  1.02946221e-09  7.89304759e-01  1.02946221e-09  1.69566544e+00  1.02946221e-09  1.80000000e+00  1.02946221e-09  1.56590279e-04  1.02946221e-09  7.97859059e-01  1.02946221e-09  1.72810239e+00  1.02946221e-09  1.73690945e+00                                 
 1.06874516e-09  8.38750191e-01  1.06874516e-09  7.89350845e-01  1.06874516e-09  1.69541186e+00  1.06874516e-09  1.80000000e+00  1.06874516e-09  1.59959873e-03  1.06874516e-09  7.99316937e-01  1.06874516e-09  1.72944374e+00  1.06874516e-09  1.73692131e+00                                 
 1.14731105e-09  8.38927765e-01  1.14731105e-09  7.89268234e-01  1.14731105e-09  1.69159591e+00  1.14731105e-09  1.80000000e+00  1.14731105e-09  2.98994344e-05  1.14731105e-09  7.99438897e-01  1.14731105e-09  1.72953452e+00  1.14731105e-09  1.73688970e+00                                 
 1.30444283e-09  8.39102999e-01  1.30444283e-09  7.89219089e-01  1.30444283e-09  1.68491931e+00  1.30444283e-09  1.80000000e+00  1.30444283e-09  6.29364738e-04  1.30444283e-09  8.00184028e-01  1.30444283e-09  1.73016301e+00  1.30444283e-09  1.73691497e+00                                 
 1.52387489e-09  8.39107707e-01  1.52387489e-09  7.89202870e-01  1.52387489e-09  1.68175532e+00  1.52387489e-09  1.80000000e+00  1.52387489e-09 -3.49719752e-04  1.52387489e-09  8.00301932e-01  1.52387489e-09  1.73024549e+00  1.52387489e-09  1.73690474e+00                                 
 1.78556699e-09  8.38947005e-01  1.78556699e-09  7.89197188e-01  1.78556699e-09  1.68318808e+00  1.78556699e-09  1.80000000e+00  1.78556699e-09  3.00861290e-04  1.78556699e-09  8.00041216e-01  1.78556699e-09  1.73003324e+00  1.78556699e-09  1.73691682e+00                                 
 2.04049671e-09  8.38783480e-01  2.04049671e-09  7.89194408e-01  2.04049671e-09  1.68533508e+00  2.04049671e-09  1.80000000e+00  2.04049671e-09 -3.24430022e-04  2.04049671e-09  7.99664249e-01  2.04049671e-09  1.72970520e+00  2.04049671e-09  1.73691094e+00                                 
 2.42781510e-09  8.38565662e-01  2.42781510e-09  7.89192889e-01  2.42781510e-09  1.68868341e+00  2.42781510e-09  1.80000000e+00  2.42781510e-09  2.38969890e-04  2.42781510e-09  7.99163472e-01  2.42781510e-09  1.72929036e+00  2.42781510e-09  1.73691748e+00                                 
 3.11454879e-09  8.38335186e-01  3.11454879e-09  7.89187930e-01  3.11454879e-09  1.69361123e+00  3.11454879e-09  1.80000000e+00  3.11454879e-09 -2.89492174e-04  3.11454879e-09  7.98237018e-01  3.11454879e-09  1.72849950e+00  3.11454879e-09  1.73690933e+00                                 
 4.48801618e-09  8.38184191e-01  4.48801618e-09  7.89188267e-01  4.48801618e-09  1.70096339e+00  4.48801618e-09  1.80000000e+00  4.48801618e-09  2.26650113e-04  4.48801618e-09  7.96714159e-01  4.48801618e-09  1.72722098e+00  4.48801618e-09  1.73689260e+00                                 
 7.23495095e-09  8.38239161e-01  7.23495095e-09  7.89192987e-01  7.23495095e-09  1.70808013e+00  7.23495095e-09  1.80000000e+00  7.23495095e-09 -2.72806095e-04  7.23495095e-09  7.94553299e-01  7.23495095e-09  1.72538787e+00  7.23495095e-09  1.73678645e+00                                 
 1.04360741e-08  8.38288071e-01  1.04360741e-08  7.89201978e-01  1.04360741e-08  1.70954474e+00  1.04360741e-08  1.80000000e+00  1.04360741e-08  2.31621934e-04  1.04360741e-08  7.93343041e-01  1.04360741e-08  1.72437150e+00  1.04360741e-08  1.73659499e+00                                 
 1.33884389e-08  8.38301136e-01  1.33884389e-08  7.89202725e-01  1.33884389e-08  1.70841449e+00  1.33884389e-08  1.80000000e+00  1.33884389e-08 -2.60101375e-04  1.33884389e-08  7.92816745e-01  1.33884389e-08  1.72391511e+00  1.33884389e-08  1.73636480e+00                                 
 1.61829154e-08  8.38298729e-01  1.61829154e-08  7.89205624e-01  1.61829154e-08  1.70744419e+00  1.61829154e-08  1.80000000e+00  1.61829154e-08  2.34770449e-04  1.61829154e-08  7.92646453e-01  1.61829154e-08  1.72377262e+00  1.61829154e-08  1.73613889e+00                                 
 2.01171346e-08  8.38301189e-01  2.01171346e-08  7.89204095e-01  2.01171346e-08  1.70646890e+00  2.01171346e-08  1.80000000e+00  2.01171346e-08 -2.45824632e-04  2.01171346e-08  7.92521665e-01  2.01171346e-08  1.72364830e+00  2.01171346e-08  1.73580591e+00                                 
 2.51966489e-08  8.38312947e-01  2.51966489e-08  7.89206082e-01  2.51966489e-08  1.70363099e+00  2.51966489e-08  1.80000000e+00  2.51966489e-08  2.38489283e-04  2.51966489e-08  7.92556983e-01  2.51966489e-08  1.72366883e+00  2.51966489e-08  1.73539703e+00                                 
 3.25967739e-08  8.38328943e-01  3.25967739e-08  7.89204161e-01  3.25967739e-08  1.69618646e+00  3.25967739e-08  1.80000000e+00  3.25967739e-08 -2.40538769e-04  3.25967739e-08  7.92591194e-01  3.25967739e-08  1.72366629e+00  3.25967739e-08  1.73482877e+00                                 
 4.30040532e-08  8.38328486e-01  4.30040532e-08  7.89206132e-01  4.30040532e-08  1.68350272e+00  4.30040532e-08  1.80000000e+00  4.30040532e-08  2.37745544e-04  4.30040532e-08  7.92714696e-01  4.30040532e-08  1.72374889e+00  4.30040532e-08  1.73411755e+00                                 
 5.95551646e-08  8.38331690e-01  5.95551646e-08  7.89204121e-01  5.95551646e-08  1.66167678e+00  5.95551646e-08  1.80000000e+00  5.95551646e-08 -2.39489373e-04  5.95551646e-08  7.92795865e-01  5.95551646e-08  1.72377446e+00  5.95551646e-08  1.73314195e+00                                 
 8.49283110e-08  8.38326865e-01  8.49283110e-08  7.89206054e-01  8.49283110e-08  1.62616476e+00  8.49283110e-08  1.80000000e+00  8.49283110e-08  2.37146880e-04  8.49283110e-08  7.92936875e-01  8.49283110e-08  1.72386393e+00  8.49283110e-08  1.73198412e+00                                 
 1.35674604e-07  8.38330326e-01  1.35674604e-07  7.89204054e-01  1.35674604e-07  1.55151446e+00  1.35674604e-07  1.80000000e+00  1.35674604e-07 -2.39201918e-04  1.35674604e-07  7.93009965e-01  1.35674604e-07  1.72387749e+00  1.35674604e-07  1.73047999e+00                                 
 2.37167189e-07  8.38325949e-01  2.37167189e-07  7.89206020e-01  2.37167189e-07  1.40113218e+00  2.37167189e-07  1.80000000e+00  2.37167189e-07  2.37065699e-04  2.37167189e-07  7.93085636e-01  2.37167189e-07  1.72391753e+00  2.37167189e-07  1.72921525e+00                                 
 4.31283994e-07  8.38330012e-01  4.31283994e-07  7.89204045e-01  4.31283994e-07  1.12058612e+00  4.31283994e-07  1.80000000e+00  4.31283994e-07 -2.38963620e-04  4.31283994e-07  7.93052501e-01  4.31283994e-07  1.72386543e+00  4.31283994e-07  1.72876944e+00                                 
 6.88916602e-07  8.38325954e-01  6.88916602e-07  7.89206014e-01  6.88916602e-07  8.40748263e-01  6.88916602e-07  1.80000000e+00  6.88916602e-07  2.37517870e-04  6.88916602e-07  7.93083775e-01  6.88916602e-07  1.72388845e+00  6.88916602e-07  1.72880750e+00                                 
 9.41018671e-07  8.38330015e-01  9.41018671e-07  7.89204048e-01  9.41018671e-07  7.82729378e-01  9.41018671e-07  1.80000000e+00  9.41018671e-07 -2.37636205e-04  9.41018671e-07  7.93054103e-01  9.41018671e-07  1.72384489e+00  9.41018671e-07  1.72878341e+00                                 
 1.10528953e-06  8.38325857e-01  1.10528953e-06  7.89206005e-01  1.10528953e-06  8.01503520e-01  1.10528953e-06  1.80000000e+00  1.10528953e-06  2.37782988e-04  1.10528953e-06  7.93082976e-01  1.10528953e-06  1.72386958e+00  1.10528953e-06  1.72878157e+00                                 
 1.18572360e-06  8.38330168e-01  1.18572360e-06  7.89204065e-01  1.18572360e-06  7.97353247e-01  1.18572360e-06  1.80000000e+00  1.18572360e-06 -2.37667126e-04  1.18572360e-06  7.93053708e-01  1.18572360e-06  1.72383398e+00  1.18572360e-06  1.72877394e+00                                 
 1.26825162e-06  8.38325799e-01  1.26825162e-06  7.89205994e-01  1.26825162e-06  7.96971253e-01  1.26825162e-06  1.80000000e+00  1.26825162e-06  2.37793426e-04  1.26825162e-06  7.93083460e-01  1.26825162e-06  1.72386294e+00  1.26825162e-06  1.72877452e+00                                 
 1.35176525e-06  8.38330134e-01  1.35176525e-06  7.89204074e-01  1.35176525e-06  7.97005854e-01  1.35176525e-06  1.80000000e+00  1.35176525e-06 -2.38446779e-04  1.35176525e-06  7.93053632e-01  1.35176525e-06  1.72382673e+00  1.35176525e-06  1.72876688e+00                                 
 1.49249240e-06  8.38325828e-01  1.49249240e-06  7.89205991e-01  1.49249240e-06  7.96977239e-01  1.49249240e-06  1.80000000e+00  1.49249240e-06  2.37821359e-04  1.49249240e-06  7.93083468e-01  1.49249240e-06  1.72385327e+00  1.49249240e-06  1.72876487e+00                                 
 1.77394669e-06  8.38330121e-01  1.77394669e-06  7.89204074e-01  1.77394669e-06  7.97025754e-01  1.77394669e-06  1.80000000e+00  1.77394669e-06 -2.37431810e-04  1.77394669e-06  7.93053619e-01  1.77394669e-06  1.72380849e+00  1.77394669e-06  1.72874871e+00                                 
 2.33685527e-06  8.38325835e-01  2.33685527e-06  7.89205991e-01  2.33685527e-06  7.96983367e-01  2.33685527e-06  1.80000000e+00  2.33685527e-06  2.37872636e-04  2.33685527e-06  7.93083475e-01  2.33685527e-06  1.72381675e+00  2.33685527e-06  1.72872847e+00                                 
 3.46267243e-06  8.38330117e-01  3.46267243e-06  7.89204074e-01  3.46267243e-06  7.97025418e-01  3.46267243e-06  1.80000000e+00  3.46267243e-06 -2.37414045e-04  3.46267243e-06  7.93053616e-01  3.46267243e-06  1.72373543e+00  3.46267243e-06  1.72867588e+00                                 
 4.66267243e-06  8.38325836e-01  4.66267243e-06  7.89205987e-01  4.66267243e-06  7.96983957e-01  4.66267243e-06  1.80000000e+00  4.66267243e-06  2.37626435e-04  4.66267243e-06  7.93083464e-01  4.66267243e-06  1.72371621e+00  4.66267243e-06  1.72862826e+00                                 
 5.86267243e-06  8.38330115e-01  5.86267243e-06  7.89204077e-01  5.86267243e-06  7.97025899e-01  5.86267243e-06  1.80000000e+00  5.86267243e-06 -2.38334378e-04  5.86267243e-06  7.93053625e-01  5.86267243e-06  1.72363177e+00  5.86267243e-06  1.72857254e+00                                 
 6.00100000e-06  8.38325846e-01  6.00100000e-06  7.89205985e-01  6.00100000e-06  7.96985932e-01  6.00100000e-06  1.80000000e+00  6.00100000e-06  2.37423538e-04  6.00100000e-06  7.93083470e-01  6.00100000e-06  1.72365842e+00  6.00100000e-06  1.72857065e+00                                 
 6.00110000e-06  8.38296740e-01  6.00110000e-06  7.88985115e-01  6.00110000e-06  7.94901849e-01  6.00110000e-06  1.62000000e+00  6.00110000e-06 -7.99395752e-05  6.00110000e-06  7.91194892e-01  6.00110000e-06  1.72205929e+00  6.00110000e-06  1.72855350e+00                                 
 6.00130000e-06  8.38325999e-01  6.00130000e-06  7.89048906e-01  6.00130000e-06  7.95661936e-01  6.00130000e-06  1.26000000e+00  6.00130000e-06  3.48788023e-05  6.00130000e-06  7.91544056e-01  6.00130000e-06  1.72235678e+00  6.00130000e-06  1.72857722e+00                                 
 6.00170000e-06  8.38353624e-01  6.00170000e-06  7.89082069e-01  6.00170000e-06  7.96934695e-01  6.00170000e-06  5.40000000e-01  6.00170000e-06  3.25733047e-02  6.00170000e-06  7.90587719e-01  6.00170000e-06  1.71524939e+00  6.00170000e-06  1.72852196e+00                                 
 6.00200000e-06  8.38323711e-01  6.00200000e-06  7.86804209e-01  6.00200000e-06  8.46139600e-01  6.00200000e-06  0.00000000e+00  6.00200000e-06  1.59236161e+00  6.00200000e-06  7.61622428e-01  6.00200000e-06  1.51072987e+00  6.00200000e-06  1.72764960e+00                                 
 6.00205086e-06  8.38330473e-01  6.00205086e-06  7.86789360e-01  6.00205086e-06  8.43955822e-01  6.00205086e-06  0.00000000e+00  6.00205086e-06  1.73271281e+00  6.00205086e-06  7.61155406e-01  6.00205086e-06  1.45193581e+00  6.00205086e-06  1.72793270e+00                                 
 6.00215258e-06  8.38326766e-01  6.00215258e-06  7.86941835e-01  6.00215258e-06  8.34594196e-01  6.00215258e-06  0.00000000e+00  6.00215258e-06  1.81945985e+00  6.00215258e-06  7.62885151e-01  6.00215258e-06  1.33995277e+00  6.00215258e-06  1.72845131e+00                                 
 6.00230652e-06  8.38326651e-01  6.00230652e-06  7.87595668e-01  6.00230652e-06  8.21843220e-01  6.00230652e-06  0.00000000e+00  6.00230652e-06  1.78764908e+00  6.00230652e-06  7.70822501e-01  6.00230652e-06  1.21685537e+00  6.00230652e-06  1.72860230e+00                                 
 6.00247503e-06  8.38327615e-01  6.00247503e-06  7.87919077e-01  6.00247503e-06  8.18312348e-01  6.00247503e-06  0.00000000e+00  6.00247503e-06  1.80582287e+00  6.00247503e-06  7.74422442e-01  6.00247503e-06  1.12729685e+00  6.00247503e-06  1.72867372e+00                                 
 6.00271219e-06  8.38326030e-01  6.00271219e-06  7.88242163e-01  6.00271219e-06  8.12667388e-01  6.00271219e-06  0.00000000e+00  6.00271219e-06  1.79547115e+00  6.00271219e-06  7.77665216e-01  6.00271219e-06  1.03313851e+00  6.00271219e-06  1.72874975e+00                                 
 6.00296691e-06  8.38327982e-01  6.00296691e-06  7.88578222e-01  6.00296691e-06  8.10420453e-01  6.00296691e-06  0.00000000e+00  6.00296691e-06  1.80267684e+00  6.00296691e-06  7.81070197e-01  6.00296691e-06  9.57121233e-01  6.00296691e-06  1.72883666e+00                                 
 6.00347634e-06  8.38326362e-01  6.00347634e-06  7.89033719e-01  6.00347634e-06  8.04666331e-01  6.00347634e-06  0.00000000e+00  6.00347634e-06  1.79728457e+00  6.00347634e-06  7.85471568e-01  6.00347634e-06  8.49087006e-01  6.00347634e-06  1.72887583e+00                                 
 6.00407237e-06  8.38328564e-01  6.00407237e-06  7.89593475e-01  6.00407237e-06  7.98525668e-01  6.00407237e-06  0.00000000e+00  6.00407237e-06  1.80211755e+00  6.00407237e-06  7.91887762e-01  6.00407237e-06  8.04009040e-01  6.00407237e-06  1.72877002e+00                                 
 6.00452823e-06  8.38326760e-01  6.00452823e-06  7.89642408e-01  6.00452823e-06  7.97535441e-01  6.00452823e-06  0.00000000e+00  6.00452823e-06  1.79828697e+00  6.00452823e-06  7.92558154e-01  6.00452823e-06  7.98412298e-01  6.00452823e-06  1.72852522e+00                                 
 6.00511141e-06  8.38328812e-01  6.00511141e-06  7.89678518e-01  6.00511141e-06  7.97333032e-01  6.00511141e-06  0.00000000e+00  6.00511141e-06  1.80146265e+00  6.00511141e-06  7.93676032e-01  6.00511141e-06  7.97787444e-01  6.00511141e-06  1.72810574e+00                                 
 6.00574479e-06  8.38326976e-01  6.00574479e-06  7.89570003e-01  6.00574479e-06  7.97723288e-01  6.00574479e-06  0.00000000e+00  6.00574479e-06  1.79874398e+00  6.00574479e-06  7.93265146e-01  6.00574479e-06  7.97331649e-01  6.00574479e-06  1.72753184e+00                                 
 6.00701155e-06  8.38328906e-01  6.00701155e-06  7.89486284e-01  6.00701155e-06  7.98478033e-01  6.00701155e-06  0.00000000e+00  6.00701155e-06  1.80117108e+00  6.00701155e-06  7.93894241e-01  6.00701155e-06  7.98613905e-01  6.00701155e-06  1.72628958e+00                                 
 6.00954507e-06  8.38327045e-01  6.00954507e-06  7.89306759e-01  6.00954507e-06  8.00541918e-01  6.00954507e-06  0.00000000e+00  6.00954507e-06  1.79887705e+00  6.00954507e-06  7.93498930e-01  6.00954507e-06  8.00065584e-01  6.00954507e-06  1.72361294e+00                                 
 6.01461211e-06  8.38328903e-01  6.01461211e-06  7.89256162e-01  6.01461211e-06  8.04883230e-01  6.01461211e-06  0.00000000e+00  6.01461211e-06  1.80110799e+00  6.01461211e-06  7.93975332e-01  6.01461211e-06  8.04949878e-01  6.01461211e-06  1.71823998e+00                                 
 6.02474619e-06  8.38327050e-01  6.02474619e-06  7.89181863e-01  6.02474619e-06  8.14230807e-01  6.02474619e-06  0.00000000e+00  6.02474619e-06  1.79890811e+00  6.02474619e-06  7.93374248e-01  6.02474619e-06  8.13668012e-01  6.02474619e-06  1.70747036e+00                                 
 6.04258636e-06  8.38328902e-01  6.04258636e-06  7.89218662e-01  6.04258636e-06  8.30077276e-01  6.04258636e-06  0.00000000e+00  6.04258636e-06  1.80109189e+00  6.04258636e-06  7.93666376e-01  6.04258636e-06  8.30164704e-01  6.04258636e-06  1.68758295e+00                                 
 6.07826670e-06  8.38327051e-01  6.07826670e-06  7.89186911e-01  6.07826670e-06  8.59960204e-01  6.07826670e-06  0.00000000e+00  6.07826670e-06  1.79891616e+00  6.07826670e-06  7.92993800e-01  6.07826670e-06  8.59094556e-01  6.07826670e-06  1.64418978e+00                                 
