 time            v(vbep)         time            v(vben)         time            v(vout)         time            v(vphi1)        time            v(vphi2)        time            v(vref)         yes             currtemp       
 0.00000000e+00  6.94190898e-01  0.00000000e+00  6.40215142e-01  0.00000000e+00  7.54951968e-01  0.00000000e+00  0.00000000e+00  0.00000000e+00  1.79995629e+00  0.00000000e+00  6.40215142e-01  1.00000000e+00  2.20000000e+01 
 5.00000000e-12  6.94165893e-01  5.00000000e-12  6.40194383e-01  5.00000000e-12  7.55590113e-01  5.00000000e-12  1.80000000e-02  5.00000000e-12  1.80007326e+00  5.00000000e-12  6.40194383e-01                                 
 1.00000000e-11  6.94141467e-01  1.00000000e-11  6.40174132e-01  1.00000000e-11  7.56149810e-01  1.00000000e-11  3.60000000e-02  1.00000000e-11  1.80014214e+00  1.00000000e-11  6.40174132e-01                                 
 2.00000000e-11  6.94092959e-01  2.00000000e-11  6.40133776e-01  2.00000000e-11  7.57139207e-01  2.00000000e-11  7.20000000e-02  2.00000000e-11  1.80021758e+00  2.00000000e-11  6.40133776e-01                                 
 4.00000000e-11  6.93996537e-01  4.00000000e-11  6.40053354e-01  4.00000000e-11  7.58557923e-01  4.00000000e-11  1.44000000e-01  4.00000000e-11  1.80020311e+00  4.00000000e-11  6.40053354e-01                                 
 8.00000000e-11  6.93804566e-01  8.00000000e-11  6.39893169e-01  8.00000000e-11  7.60085241e-01  8.00000000e-11  2.88000000e-01  8.00000000e-11  1.80010818e+00  8.00000000e-11  6.39893169e-01                                 
 1.60000000e-10  6.93424377e-01  1.60000000e-10  6.39575429e-01  1.60000000e-10  7.61121563e-01  1.60000000e-10  5.76000000e-01  1.60000000e-10  1.80003071e+00  1.60000000e-10  6.39575429e-01                                 
 3.20000000e-10  6.92678199e-01  3.20000000e-10  6.38950114e-01  3.20000000e-10  7.52509801e-01  3.20000000e-10  1.15200000e+00  3.20000000e-10  1.80021903e+00  3.20000000e-10  6.38950114e-01                                 
 5.00000000e-10  6.91860633e-01  5.00000000e-10  6.38262293e-01  5.00000000e-10  8.69485408e-01  5.00000000e-10  1.80000000e+00  5.00000000e-10  1.43352595e-01  5.00000000e-10  6.38262293e-01                                 
 5.21162722e-10  6.91766150e-01  5.21162722e-10  6.38182610e-01  5.21162722e-10  8.98809698e-01  5.21162722e-10  1.80000000e+00  5.21162722e-10  3.34672605e-02  5.21162722e-10  6.38182610e-01                                 
 5.63488165e-10  6.91577776e-01  5.63488165e-10  6.38023663e-01  5.63488165e-10  9.55874320e-01  5.63488165e-10  1.80000000e+00  5.63488165e-10 -1.30588788e-02  5.63488165e-10  6.38023663e-01                                 
 6.48139052e-10  6.91204604e-01  6.48139052e-10  6.37708360e-01  6.48139052e-10  1.05881995e+00  6.48139052e-10  1.80000000e+00  6.48139052e-10  1.13963093e-02  6.48139052e-10  6.37708360e-01                                 
 7.67277984e-10  6.90687286e-01  7.67277984e-10  6.37270328e-01  7.67277984e-10  1.19173760e+00  7.67277984e-10  1.80000000e+00  7.67277984e-10 -8.67308000e-03  7.67277984e-10  6.37270328e-01                                 
 9.51132007e-10  6.89906365e-01  9.51132007e-10  6.36607057e-01  9.51132007e-10  1.36993455e+00  9.51132007e-10  1.80000000e+00  9.51132007e-10  8.84468240e-03  9.51132007e-10  6.36607057e-01                                 
 1.31884005e-09  6.88403748e-01  1.31884005e-09  6.35324102e-01  1.31884005e-09  1.61783922e+00  1.31884005e-09  1.80000000e+00  1.31884005e-09 -7.61991712e-03  1.31884005e-09  6.35324102e-01                                 
 1.86778748e-09  6.86294288e-01  1.86778748e-09  6.33508374e-01  1.86778748e-09  1.78716799e+00  1.86778748e-09  1.80000000e+00  1.86778748e-09  7.76326117e-03  1.86778748e-09  6.33508374e-01                                 
 2.19935502e-09  6.85091404e-01  2.19935502e-09  6.32465237e-01  2.19935502e-09  1.81792430e+00  2.19935502e-09  1.80000000e+00  2.19935502e-09 -7.17434790e-03  2.19935502e-09  6.32465237e-01                                 
 2.62327558e-09  6.83622690e-01  2.62327558e-09  6.31184369e-01  2.62327558e-09  1.83311602e+00  2.62327558e-09  1.80000000e+00  2.62327558e-09  6.94423903e-03  2.62327558e-09  6.31184369e-01                                 
 3.02148017e-09  6.82308165e-01  3.02148017e-09  6.30031346e-01  3.02148017e-09  1.83654259e+00  3.02148017e-09  1.80000000e+00  3.02148017e-09 -6.57131085e-03  3.02148017e-09  6.30031346e-01                                 
 3.81788936e-09  6.79844506e-01  3.81788936e-09  6.27854586e-01  3.81788936e-09  1.83696494e+00  3.81788936e-09  1.80000000e+00  3.81788936e-09  6.45174072e-03  3.81788936e-09  6.27854586e-01                                 
 4.72062358e-09  6.77286202e-01  4.72062358e-09  6.25572744e-01  4.72062358e-09  1.83412770e+00  4.72062358e-09  1.80000000e+00  4.72062358e-09 -6.28943841e-03  4.72062358e-09  6.25572744e-01                                 
 6.52609204e-09  6.72756087e-01  6.52609204e-09  6.21484351e-01  6.52609204e-09  1.82987568e+00  6.52609204e-09  1.80000000e+00  6.52609204e-09  6.24957472e-03  6.52609204e-09  6.21484351e-01                                 
 9.67215931e-09  6.66226428e-01  9.67215931e-09  6.15494791e-01  9.67215931e-09  1.82281218e+00  9.67215931e-09  1.80000000e+00  9.67215931e-09 -6.18390754e-03  9.67215931e-09  6.15494791e-01                                 
 1.37941669e-08  6.59418127e-01  1.37941669e-08  6.09145612e-01  1.37941669e-08  1.81504926e+00  1.37941669e-08  1.80000000e+00  1.37941669e-08  6.18380641e-03  1.37941669e-08  6.09145612e-01                                 
 1.56461612e-08  6.56815882e-01  1.56461612e-08  6.06695395e-01  1.56461612e-08  1.81176555e+00  1.56461612e-08  1.80000000e+00  1.56461612e-08 -6.09658719e-03  1.56461612e-08  6.06695395e-01                                 
 1.68411059e-08  6.55243376e-01  1.68411059e-08  6.05210756e-01  1.68411059e-08  1.81009013e+00  1.68411059e-08  1.80000000e+00  1.68411059e-08  6.02383618e-03  1.68411059e-08  6.05210756e-01                                 
 1.84476610e-08  6.53237322e-01  1.84476610e-08  6.03313849e-01  1.84476610e-08  1.80733487e+00  1.84476610e-08  1.80000000e+00  1.84476610e-08 -5.93105364e-03  1.84476610e-08  6.03313849e-01                                 
 2.10022648e-08  6.50253618e-01  2.10022648e-08  6.00489802e-01  2.10022648e-08  1.80370549e+00  2.10022648e-08  1.80000000e+00  2.10022648e-08  5.90910944e-03  2.10022648e-08  6.00489802e-01                                 
 2.39249172e-08  6.47073945e-01  2.39249172e-08  5.97483145e-01  2.39249172e-08  1.79889227e+00  2.39249172e-08  1.80000000e+00  2.39249172e-08 -5.84971882e-03  2.39249172e-08  5.97483145e-01                                 
 2.80004814e-08  6.42937019e-01  2.80004814e-08  5.93584860e-01  2.80004814e-08  1.79221087e+00  2.80004814e-08  1.80000000e+00  2.80004814e-08  5.84383871e-03  2.80004814e-08  5.93584860e-01                                 
 3.30615662e-08  6.38280537e-01  3.30615662e-08  5.89204438e-01  3.30615662e-08  1.78258238e+00  3.30615662e-08  1.80000000e+00  3.30615662e-08 -5.80117056e-03  3.30615662e-08  5.89204438e-01                                 
 4.21707273e-08  6.31008522e-01  4.21707273e-08  5.82369357e-01  4.21707273e-08  1.76378103e+00  4.21707273e-08  1.80000000e+00  4.21707273e-08  5.81021934e-03  4.21707273e-08  5.82369357e-01                                 
 5.72038454e-08  6.20819155e-01  5.72038454e-08  5.72869047e-01  5.72038454e-08  1.73197550e+00  5.72038454e-08  1.80000000e+00  5.72038454e-08 -5.78176387e-03  5.72038454e-08  5.72869047e-01                                 
 8.37008656e-08  6.07019920e-01  8.37008656e-08  5.60061840e-01  8.37008656e-08  1.68235352e+00  8.37008656e-08  1.80000000e+00  8.37008656e-08  5.79957985e-03  8.37008656e-08  5.60061840e-01                                 
 1.11349673e-07  6.05457876e-01  1.11349673e-07  5.57344607e-01  1.11349673e-07  1.66451502e+00  1.11349673e-07  1.80000000e+00  1.11349673e-07 -5.77139534e-03  1.11349673e-07  5.57344607e-01                                 
 1.37834056e-07  6.05874901e-01  1.37834056e-07  5.56523587e-01  1.37834056e-07  1.64740403e+00  1.37834056e-07  1.80000000e+00  1.37834056e-07  5.79173168e-03  1.37834056e-07  5.56523587e-01                                 
 1.58870008e-07  6.01380667e-01  1.58870008e-07  5.52195590e-01  1.58870008e-07  1.62168649e+00  1.58870008e-07  1.80000000e+00  1.58870008e-07 -5.76337190e-03  1.58870008e-07  5.52195590e-01                                 
 1.81619955e-07  5.96034514e-01  1.81619955e-07  5.47229959e-01  1.81619955e-07  1.59482325e+00  1.81619955e-07  1.80000000e+00  1.81619955e-07  5.78190864e-03  1.81619955e-07  5.47229959e-01                                 
 2.07360098e-07  5.88541450e-01  2.07360098e-07  5.40568735e-01  2.07360098e-07  1.56178574e+00  2.07360098e-07  1.80000000e+00  2.07360098e-07 -5.75478529e-03  2.07360098e-07  5.40568735e-01                                 
 2.51205075e-07  5.76150125e-01  2.51205075e-07  5.29715131e-01  2.51205075e-07  1.50668719e+00  2.51205075e-07  1.80000000e+00  2.51205075e-07  5.77535882e-03  2.51205075e-07  5.29715131e-01                                 
 3.01912069e-07  5.62387339e-01  3.01912069e-07  5.17868565e-01  3.01912069e-07  1.44191669e+00  3.01912069e-07  1.80000000e+00  3.01912069e-07 -5.75021986e-03  3.01912069e-07  5.17868565e-01                                 
 4.03326056e-07  5.31923728e-01  4.03326056e-07  4.92447226e-01  4.03326056e-07  1.31013063e+00  4.03326056e-07  1.80000000e+00  4.03326056e-07  5.77216215e-03  4.03326056e-07  4.92447226e-01                                 
 5.59544680e-07  4.76292354e-01  5.59544680e-07  4.47387851e-01  5.59544680e-07  1.09463542e+00  5.59544680e-07  1.80000000e+00  5.59544680e-07 -5.74860569e-03  5.59544680e-07  4.47387851e-01                                 
 5.86310421e-07  4.78819343e-01  5.86310421e-07  4.49406036e-01  5.86310421e-07  1.06954510e+00  5.86310421e-07  1.80000000e+00  5.86310421e-07 -9.90143811e-07  5.86310421e-07  4.49406036e-01                                 
 6.39841901e-07  6.99240410e-01  6.39841901e-07  6.41257022e-01  6.39841901e-07  1.22635328e+00  6.39841901e-07  1.80000000e+00  6.39841901e-07  1.42439466e-05  6.39841901e-07  6.41257022e-01                                 
 6.51670802e-07  7.37597963e-01  6.51670802e-07  6.81356901e-01  6.51670802e-07  1.25226869e+00  6.51670802e-07  1.80000000e+00  6.51670802e-07  6.73661738e-06  6.51670802e-07  6.81356901e-01                                 
 6.75328605e-07  7.73888036e-01  6.75328605e-07  7.17253196e-01  6.75328605e-07  1.26363796e+00  6.75328605e-07  1.80000000e+00  6.75328605e-07 -4.94888093e-07  6.75328605e-07  7.17253196e-01                                 
 7.15983989e-07  7.99138924e-01  7.15983989e-07  7.39931010e-01  7.15983989e-07  1.24503787e+00  7.15983989e-07  1.80000000e+00  7.15983989e-07  2.64831540e-06  7.15983989e-07  7.39931010e-01                                 
 7.57140475e-07  8.01732002e-01  7.57140475e-07  7.42260467e-01  7.57140475e-07  1.20614082e+00  7.57140475e-07  1.80000000e+00  7.57140475e-07 -2.78027820e-06  7.57140475e-07  7.42260467e-01                                 
 7.64553350e-07  8.01691349e-01  7.64553350e-07  7.42188255e-01  7.64553350e-07  1.19799009e+00  7.64553350e-07  1.80000000e+00  7.64553350e-07 -2.86388877e-07  7.64553350e-07  7.42188255e-01                                 
 7.79379100e-07  8.02011983e-01  7.79379100e-07  7.42454166e-01  7.79379100e-07  1.18284305e+00  7.79379100e-07  1.80000000e+00  7.79379100e-07 -7.37443552e-08  7.79379100e-07  7.42454166e-01                                 
 8.09030601e-07  8.02879299e-01  8.09030601e-07  7.43202723e-01  8.09030601e-07  1.15300998e+00  8.09030601e-07  1.80000000e+00  8.09030601e-07 -2.36632767e-07  8.09030601e-07  7.43202723e-01                                 
 8.57586067e-07  8.04579976e-01  8.57586067e-07  7.44642982e-01  8.57586067e-07  1.10398516e+00  8.57586067e-07  1.80000000e+00  8.57586067e-07 -5.18116995e-08  8.57586067e-07  7.44642982e-01                                 
 9.29033330e-07  7.98796758e-01  9.29033330e-07  7.39704750e-01  9.29033330e-07  1.02468023e+00  9.29033330e-07  1.80000000e+00  9.29033330e-07 -6.82265817e-07  9.29033330e-07  7.39704750e-01                                 
 9.37123731e-07  7.96057751e-01  9.37123731e-07  7.37323107e-01  9.37123731e-07  1.01393442e+00  9.37123731e-07  1.80000000e+00  9.37123731e-07 -8.76813112e-07  9.37123731e-07  7.37323107e-01                                 
 9.53304533e-07  7.90111967e-01  9.53304533e-07  7.32069792e-01  9.53304533e-07  9.92423234e-01  9.53304533e-07  1.80000000e+00  9.53304533e-07 -9.68132243e-07  9.53304533e-07  7.32069792e-01                                 
 9.85666137e-07  7.84980752e-01  9.85666137e-07  7.27428143e-01  9.85666137e-07  9.58172812e-01  9.85666137e-07  1.80000000e+00  9.85666137e-07  6.90456814e-08  9.85666137e-07  7.27428143e-01                                 
 1.05038935e-06  7.93450450e-01  1.05038935e-06  7.35001591e-01  1.05038935e-06  9.14500625e-01  1.05038935e-06  1.80000000e+00  1.05038935e-06  3.58107324e-07  1.05038935e-06  7.35001591e-01                                 
 1.12569567e-06  7.95464043e-01  1.12569567e-06  7.36790108e-01  1.12569567e-06  8.64755735e-01  1.12569567e-06  1.80000000e+00  1.12569567e-06 -2.28393250e-07  1.12569567e-06  7.36790108e-01                                 
 1.21107148e-06  7.89185708e-01  1.21107148e-06  7.31221461e-01  1.21107148e-06  8.08975911e-01  1.21107148e-06  1.80000000e+00  1.21107148e-06  7.20109211e-08  1.21107148e-06  7.31221461e-01                                 
 1.36377408e-06  7.93493476e-01  1.36377408e-06  7.35045105e-01  1.36377408e-06  7.56289367e-01  1.36377408e-06  1.80000000e+00  1.36377408e-06  3.76521369e-07  1.36377408e-06  7.35045105e-01                                 
 1.50693486e-06  7.92887909e-01  1.50693486e-06  7.34519450e-01  1.50693486e-06  7.34027103e-01  1.50693486e-06  1.80000000e+00  1.50693486e-06  1.12143061e-07  1.50693486e-06  7.34519450e-01                                 
 1.53572595e-06  7.91486263e-01  1.53572595e-06  7.33274581e-01  1.53572595e-06  7.30445724e-01  1.53572595e-06  1.80000000e+00  1.53572595e-06  1.82342718e-07  1.53572595e-06  7.33274581e-01                                 
 1.59330813e-06  7.91284544e-01  1.59330813e-06  7.33090152e-01  1.59330813e-06  7.26205041e-01  1.59330813e-06  1.80000000e+00  1.59330813e-06  3.64617950e-07  1.59330813e-06  7.33090152e-01                                 
 1.70847249e-06  7.93376765e-01  1.70847249e-06  7.34946777e-01  1.70847249e-06  7.25142960e-01  1.70847249e-06  1.80000000e+00  1.70847249e-06  2.98167608e-07  1.70847249e-06  7.34946777e-01                                 
 1.72586889e-06  7.93002154e-01  1.72586889e-06  7.34616709e-01  1.72586889e-06  7.26124294e-01  1.72586889e-06  1.80000000e+00  1.72586889e-06  2.91842149e-07  1.72586889e-06  7.34616709e-01                                 
 1.76066168e-06  7.92156357e-01  1.76066168e-06  7.33868138e-01  1.76066168e-06  7.29099975e-01  1.76066168e-06  1.80000000e+00  1.76066168e-06  2.99614530e-07  1.76066168e-06  7.33868138e-01                                 
 1.83024728e-06  7.91758103e-01  1.83024728e-06  7.33512370e-01  1.83024728e-06  7.33587750e-01  1.83024728e-06  1.80000000e+00  1.83024728e-06  3.29312651e-07  1.83024728e-06  7.33512370e-01                                 
 1.93230161e-06  7.92733134e-01  1.93230161e-06  7.34377322e-01  1.93230161e-06  7.34803906e-01  1.93230161e-06  1.80000000e+00  1.93230161e-06  3.17209947e-07  1.93230161e-06  7.34377322e-01                                 
 2.08459839e-06  7.92014543e-01  2.08459839e-06  7.33741580e-01  2.08459839e-06  7.33675733e-01  2.08459839e-06  1.80000000e+00  2.08459839e-06  2.70654000e-07  2.08459839e-06  7.33741580e-01                                 
 2.24526835e-06  7.92268921e-01  2.24526835e-06  7.33965479e-01  2.24526835e-06  7.34084032e-01  2.24526835e-06  1.80000000e+00  2.24526835e-06  3.44042455e-07  2.24526835e-06  7.33965479e-01                                 
 2.56660825e-06  7.92376865e-01  2.56660825e-06  7.34062918e-01  2.56660825e-06  7.34166344e-01  2.56660825e-06  1.80000000e+00  2.56660825e-06  2.65305477e-07  2.56660825e-06  7.34062918e-01                                 
 3.20928807e-06  7.92107138e-01  3.20928807e-06  7.33822132e-01  3.20928807e-06  7.33890643e-01  3.20928807e-06  1.80000000e+00  3.20928807e-06  3.40983177e-07  3.20928807e-06  7.33822132e-01                                 
 4.20928807e-06  7.92453426e-01  4.20928807e-06  7.34130655e-01  4.20928807e-06  7.34252897e-01  4.20928807e-06  1.80000000e+00  4.20928807e-06  2.68413125e-07  4.20928807e-06  7.34130655e-01                                 
 5.20928807e-06  7.92053529e-01  5.20928807e-06  7.33774672e-01  5.20928807e-06  7.33831867e-01  5.20928807e-06  1.80000000e+00  5.20928807e-06  3.37960669e-07  5.20928807e-06  7.33774672e-01                                 
 6.20928807e-06  7.92500866e-01  6.20928807e-06  7.34172577e-01  6.20928807e-06  7.34303852e-01  6.20928807e-06  1.80000000e+00  6.20928807e-06  2.71839968e-07  6.20928807e-06  7.34172577e-01                                 
 7.20928807e-06  7.92011580e-01  7.20928807e-06  7.33737569e-01  7.20928807e-06  7.33787781e-01  7.20928807e-06  1.80000000e+00  7.20928807e-06  3.34177656e-07  7.20928807e-06  7.33737569e-01                                 
 8.20928807e-06  7.92536234e-01  8.20928807e-06  7.34203785e-01  8.20928807e-06  7.34340267e-01  8.20928807e-06  1.80000000e+00  8.20928807e-06  2.75929726e-07  8.20928807e-06  7.34203785e-01                                 
 9.20928807e-06  7.91982040e-01  9.20928807e-06  7.33711487e-01  9.20928807e-06  7.33758075e-01  9.20928807e-06  1.80000000e+00  9.20928807e-06  3.29831581e-07  9.20928807e-06  7.33711487e-01                                 
 1.00005000e-05  7.92561212e-01  1.00005000e-05  7.34225758e-01  1.00005000e-05  7.34364613e-01  1.00005000e-05  1.80000000e+00  1.00005000e-05  2.81104324e-07  1.00005000e-05  7.34225758e-01                                 
 1.00005500e-05  7.92560812e-01  1.00005500e-05  7.34225411e-01  1.00005500e-05  7.27362739e-01  1.00005500e-05  1.62000000e+00  1.00005500e-05 -1.13191203e-04  1.00005500e-05  7.34225411e-01                                 
 1.00006500e-05  7.92560054e-01  1.00006500e-05  7.34224736e-01  1.00006500e-05  7.17254067e-01  1.00006500e-05  1.26000000e+00  1.00006500e-05 -6.14552528e-05  1.00006500e-05  7.34224736e-01                                 
 1.00008500e-05  7.92558576e-01  1.00008500e-05  7.34223420e-01  1.00008500e-05  7.14896580e-01  1.00008500e-05  5.40000000e-01  1.00008500e-05 -1.90832543e-03  1.00008500e-05  7.34223420e-01                                 
 1.00010000e-05  7.92557447e-01  1.00010000e-05  7.34222428e-01  1.00010000e-05  7.26652002e-01  1.00010000e-05  0.00000000e+00  1.00010000e-05  1.50410919e+00  1.00010000e-05  7.34222428e-01                                 
 1.00010262e-05  7.92557254e-01  1.00010262e-05  7.34222255e-01  1.00010262e-05  7.33413463e-01  1.00010262e-05  0.00000000e+00  1.00010262e-05  1.68949633e+00  1.00010262e-05  7.34222255e-01                                 
 1.00010787e-05  7.92556838e-01  1.00010787e-05  7.34221895e-01  1.00010787e-05  7.45816927e-01  1.00010787e-05  0.00000000e+00  1.00010787e-05  1.82345918e+00  1.00010787e-05  7.34221895e-01                                 
 1.00011835e-05  7.92555978e-01  1.00011835e-05  7.34221147e-01  1.00011835e-05  7.58477628e-01  1.00011835e-05  0.00000000e+00  1.00011835e-05  1.78677100e+00  1.00011835e-05  7.34221147e-01                                 
