 time            v(vbep)         time            v(vben)         time            v(vout)         time            v(vphi1)        time            v(vphi2)        time            v(vref)         time            v(voutc)        time            v(voutcc)       yes             currtemp       
 0.00000000e+00  7.20746672e-01  0.00000000e+00  6.52091536e-01  0.00000000e+00  1.49351210e+00  0.00000000e+00  0.00000000e+00  0.00000000e+00  1.79999999e+00  0.00000000e+00  6.52749601e-01  0.00000000e+00  1.49351209e+00  0.00000000e+00  1.50112007e+00  1.00000000e+00  6.90000000e+01 
 5.00000000e-12  7.20768283e-01  5.00000000e-12  6.52146102e-01  5.00000000e-12  1.49412633e+00  5.00000000e-12  1.80000000e-02  5.00000000e-12  1.80018633e+00  5.00000000e-12  6.53140094e-01  5.00000000e-12  1.49385905e+00  5.00000000e-12  1.50113315e+00                                 
 1.00000000e-11  7.20777747e-01  1.00000000e-11  6.52181820e-01  1.00000000e-11  1.49456375e+00  1.00000000e-11  3.60000000e-02  1.00000000e-11  1.80027027e+00  1.00000000e-11  6.53446186e-01  1.00000000e-11  1.49413218e+00  1.00000000e-11  1.50113987e+00                                 
 2.00000000e-11  7.20784032e-01  2.00000000e-11  6.52231240e-01  2.00000000e-11  1.49518597e+00  2.00000000e-11  7.20000000e-02  2.00000000e-11  1.80032270e+00  2.00000000e-11  6.53924706e-01  2.00000000e-11  1.49456207e+00  2.00000000e-11  1.50114590e+00                                 
 4.00000000e-11  7.20772097e-01  4.00000000e-11  6.52266484e-01  4.00000000e-11  1.49557441e+00  4.00000000e-11  1.44000000e-01  4.00000000e-11  1.80018979e+00  4.00000000e-11  6.54383699e-01  4.00000000e-11  1.49498681e+00  4.00000000e-11  1.50113949e+00                                 
 8.00000000e-11  7.20759021e-01  8.00000000e-11  6.52271703e-01  8.00000000e-11  1.49542183e+00  8.00000000e-11  2.88000000e-01  8.00000000e-11  1.80003088e+00  8.00000000e-11  6.54528684e-01  8.00000000e-11  1.49514797e+00  8.00000000e-11  1.50112554e+00                                 
 1.60000000e-10  7.20759129e-01  1.60000000e-10  6.52257355e-01  1.60000000e-10  1.49492653e+00  1.60000000e-10  5.76000000e-01  1.60000000e-10  1.80000815e+00  1.60000000e-10  6.54337149e-01  1.60000000e-10  1.49499850e+00  1.60000000e-10  1.50111978e+00                                 
 3.20000000e-10  7.20691789e-01  3.20000000e-10  6.51813564e-01  3.20000000e-10  1.49141420e+00  3.20000000e-10  1.15200000e+00  3.20000000e-10  1.80072557e+00  3.20000000e-10  6.50509420e-01  3.20000000e-10  1.49187846e+00  3.20000000e-10  1.50109058e+00                                 
 5.00000000e-10  7.20741838e-01  5.00000000e-10  6.52330034e-01  5.00000000e-10  1.48919271e+00  5.00000000e-10  1.80000000e+00  5.00000000e-10  1.75691202e-01  5.00000000e-10  6.58122336e-01  5.00000000e-10  1.49855144e+00  5.00000000e-10  1.50118972e+00                                 
 5.21599912e-10  7.20746987e-01  5.21599912e-10  6.52353085e-01  5.21599912e-10  1.48848383e+00  5.21599912e-10  1.80000000e+00  5.21599912e-10  4.85866970e-02  5.21599912e-10  6.59849815e-01  5.21599912e-10  1.49950980e+00  5.21599912e-10  1.50117566e+00                                 
 5.64799737e-10  7.20840686e-01  5.64799737e-10  6.52407490e-01  5.64799737e-10  1.48776965e+00  5.64799737e-10  1.80000000e+00  5.64799737e-10 -1.66905784e-02  5.64799737e-10  6.62264927e-01  5.64799737e-10  1.50155011e+00  5.64799737e-10  1.50116959e+00                                 
 6.51199387e-10  7.20962863e-01  6.51199387e-10  6.52236492e-01  6.51199387e-10  1.48469504e+00  6.51199387e-10  1.80000000e+00  6.51199387e-10  1.28353839e-02  6.51199387e-10  6.62305579e-01  6.51199387e-10  1.50182116e+00  6.51199387e-10  1.50111925e+00                                 
 7.71348347e-10  7.21018293e-01  7.71348347e-10  6.52188187e-01  7.71348347e-10  1.48276720e+00  7.71348347e-10  1.80000000e+00  7.71348347e-10 -1.00332992e-02  7.71348347e-10  6.63729464e-01  7.71348347e-10  1.50289414e+00  7.71348347e-10  1.50113598e+00                                 
 9.50398407e-10  7.21086555e-01  9.50398407e-10  6.52155177e-01  9.50398407e-10  1.48135471e+00  9.50398407e-10  1.80000000e+00  9.50398407e-10  9.01718327e-03  9.50398407e-10  6.64503538e-01  9.50398407e-10  1.50373238e+00  9.50398407e-10  1.50111256e+00                                 
 1.30849853e-09  7.21039045e-01  1.30849853e-09  6.52082507e-01  1.30849853e-09  1.47914414e+00  1.30849853e-09  1.80000000e+00  1.30849853e-09 -8.23087823e-03  1.30849853e-09  6.63872845e-01  1.30849853e-09  1.50304810e+00  1.30849853e-09  1.50115830e+00                                 
 1.68717081e-09  7.20976271e-01  1.68717081e-09  6.52104351e-01  1.68717081e-09  1.47772238e+00  1.68717081e-09  1.80000000e+00  1.68717081e-09  7.80080279e-03  1.68717081e-09  6.63319790e-01  1.68717081e-09  1.50269256e+00  1.68717081e-09  1.50123481e+00                                 
 2.33846786e-09  7.20834495e-01  2.33846786e-09  6.52063202e-01  2.33846786e-09  1.47431994e+00  2.33846786e-09  1.80000000e+00  2.33846786e-09 -7.47355691e-03  2.33846786e-09  6.61372784e-01  2.33846786e-09  1.50086075e+00  2.33846786e-09  1.50141750e+00                                 
 3.12142516e-09  7.20765591e-01  3.12142516e-09  6.52093843e-01  3.12142516e-09  1.47075446e+00  3.12142516e-09  1.80000000e+00  3.12142516e-09  7.25740210e-03  3.12142516e-09  6.59974191e-01  3.12142516e-09  1.49975185e+00  3.12142516e-09  1.50163820e+00                                 
 4.36587376e-09  7.20690815e-01  4.36587376e-09  6.52057159e-01  4.36587376e-09  1.46392735e+00  4.36587376e-09  1.80000000e+00  4.36587376e-09 -7.10143782e-03  4.36587376e-09  6.57135909e-01  4.36587376e-09  1.49715016e+00  4.36587376e-09  1.50193410e+00                                 
 6.13798795e-09  7.20687898e-01  6.13798795e-09  6.52094952e-01  6.13798795e-09  1.45459792e+00  6.13798795e-09  1.80000000e+00  6.13798795e-09  7.02312221e-03  6.13798795e-09  6.54955556e-01  6.13798795e-09  1.49536068e+00  6.13798795e-09  1.50218911e+00                                 
 9.68221633e-09  7.20682388e-01  9.68221633e-09  6.52068967e-01  9.68221633e-09  1.43299609e+00  9.68221633e-09  1.80000000e+00  9.68221633e-09 -6.94907124e-03  9.68221633e-09  6.51778375e-01  9.68221633e-09  1.49247381e+00  9.68221633e-09  1.50225108e+00                                 
 1.23802715e-08  7.20719483e-01  1.23802715e-08  6.52107786e-01  1.23802715e-08  1.41553995e+00  1.23802715e-08  1.80000000e+00  1.23802715e-08  6.91649285e-03  1.23802715e-08  6.51460916e-01  1.23802715e-08  1.49230443e+00  1.23802715e-08  1.50206750e+00                                 
 1.48072902e-08  7.20716886e-01  1.48072902e-08  6.52073955e-01  1.48072902e-08  1.39833810e+00  1.48072902e-08  1.80000000e+00  1.48072902e-08 -6.81641494e-03  1.48072902e-08  6.50865885e-01  1.48072902e-08  1.49166406e+00  1.48072902e-08  1.50185243e+00                                 
 1.74302706e-08  7.20744201e-01  1.74302706e-08  6.52109506e-01  1.74302706e-08  1.37980752e+00  1.74302706e-08  1.80000000e+00  1.74302706e-08  6.78535711e-03  1.74302706e-08  6.51297519e-01  1.74302706e-08  1.49214206e+00  1.74302706e-08  1.50162488e+00                                 
 2.11207343e-08  7.20737430e-01  2.11207343e-08  6.52074428e-01  2.11207343e-08  1.35214063e+00  2.11207343e-08  1.80000000e+00  2.11207343e-08 -6.70858556e-03  2.11207343e-08  6.51089295e-01  2.11207343e-08  1.49183729e+00  2.11207343e-08  1.50133940e+00                                 
 2.56462021e-08  7.20758883e-01  2.56462021e-08  6.52109609e-01  2.56462021e-08  1.31822685e+00  2.56462021e-08  1.80000000e+00  2.56462021e-08  6.70540453e-03  2.56462021e-08  6.51802868e-01  2.56462021e-08  1.49255906e+00  2.56462021e-08  1.50107613e+00                                 
 3.17598546e-08  7.20744316e-01  3.17598546e-08  6.52074347e-01  3.17598546e-08  1.27103756e+00  3.17598546e-08  1.80000000e+00  3.17598546e-08 -6.64608668e-03  3.17598546e-08  6.51754955e-01  3.17598546e-08  1.49239921e+00  3.17598546e-08  1.50084369e+00                                 
 4.01801703e-08  7.20759074e-01  4.01801703e-08  6.52109459e-01  4.01801703e-08  1.20652836e+00  4.01801703e-08  1.80000000e+00  4.01801703e-08  6.65985951e-03  4.01801703e-08  6.52500699e-01  4.01801703e-08  1.49315557e+00  4.01801703e-08  1.50069993e+00                                 
 5.40750433e-08  7.20740582e-01  5.40750433e-08  6.52074042e-01  5.40750433e-08  1.09939918e+00  5.40750433e-08  1.80000000e+00  5.40750433e-08 -6.61533126e-03  5.40750433e-08  6.52377078e-01  5.40750433e-08  1.49294016e+00  5.40750433e-08  1.50066728e+00                                 
 7.55518930e-08  7.20754466e-01  7.55518930e-08  6.52109151e-01  7.55518930e-08  9.36337792e-01  7.55518930e-08  1.80000000e+00  7.55518930e-08  6.64112202e-03  7.55518930e-08  6.52923324e-01  7.55518930e-08  1.49353079e+00  7.55518930e-08  1.50077056e+00                                 
 1.18505592e-07  7.20739298e-01  1.18505592e-07  6.52073885e-01  1.18505592e-07  6.94644035e-01  1.18505592e-07  1.80000000e+00  1.18505592e-07 -6.60117009e-03  1.18505592e-07  6.52546491e-01  1.18505592e-07  1.49309609e+00  1.18505592e-07  1.50090838e+00                                 
 1.53319390e-07  7.20756119e-01  1.53319390e-07  6.52109397e-01  1.53319390e-07  6.44663327e-01  1.53319390e-07  1.80000000e+00  1.53319390e-07  6.63783182e-03  1.53319390e-07  6.52963127e-01  1.53319390e-07  1.49356767e+00  1.53319390e-07  1.50093640e+00                                 
 1.85759665e-07  7.20734374e-01  1.85759665e-07  6.52073443e-01  1.85759665e-07  6.54779982e-01  1.85759665e-07  1.80000000e+00  1.85759665e-07 -6.59108416e-03  1.85759665e-07  6.52541176e-01  1.85759665e-07  1.49308964e+00  1.85759665e-07  1.50093538e+00                                 
 2.02343704e-07  7.20758825e-01  2.02343704e-07  6.52109701e-01  2.02343704e-07  6.53641261e-01  2.02343704e-07  1.80000000e+00  2.02343704e-07  6.62345478e-03  2.02343704e-07  6.52956042e-01  2.02343704e-07  1.49355974e+00  2.02343704e-07  1.50093648e+00                                 
 2.24391624e-07  7.20735640e-01  2.24391624e-07  6.52073361e-01  2.24391624e-07  6.53371075e-01  2.24391624e-07  1.80000000e+00  2.24391624e-07 -6.57465398e-03  2.24391624e-07  6.52542832e-01  2.24391624e-07  1.49308985e+00  2.24391624e-07  1.50093231e+00                                 
 2.54674653e-07  7.20757108e-01  2.54674653e-07  6.52109688e-01  2.54674653e-07  6.53521515e-01  2.54674653e-07  1.80000000e+00  2.54674653e-07  6.61120060e-03  2.54674653e-07  6.52956217e-01  2.54674653e-07  1.49355805e+00  2.54674653e-07  1.50093432e+00                                 
 3.07982302e-07  7.20736530e-01  3.07982302e-07  6.52073374e-01  3.07982302e-07  6.53339050e-01  3.07982302e-07  1.80000000e+00  3.07982302e-07 -6.56658154e-03  3.07982302e-07  6.52542882e-01  3.07982302e-07  1.49308718e+00  3.07982302e-07  1.50092937e+00                                 
 4.14597599e-07  7.20756676e-01  4.14597599e-07  6.52109678e-01  4.14597599e-07  6.53528133e-01  4.14597599e-07  1.80000000e+00  4.14597599e-07  6.60679122e-03  4.14597599e-07  6.52956196e-01  4.14597599e-07  1.49355267e+00  4.14597599e-07  1.50092900e+00                                 
 6.27828194e-07  7.20736733e-01  6.27828194e-07  6.52073379e-01  6.27828194e-07  6.53334506e-01  6.27828194e-07  1.80000000e+00  6.27828194e-07 -6.56435227e-03  6.27828194e-07  6.52542892e-01  6.27828194e-07  1.49307657e+00  6.27828194e-07  1.50091874e+00                                 
 1.05428938e-06  7.20756578e-01  1.05428938e-06  6.52109676e-01  1.05428938e-06  6.53529447e-01  1.05428938e-06  1.80000000e+00  1.05428938e-06  6.60569387e-03  1.05428938e-06  6.52956191e-01  1.05428938e-06  1.49353138e+00  1.05428938e-06  1.50090775e+00                                 
 1.90721176e-06  7.20736781e-01  1.90721176e-06  6.52073380e-01  1.90721176e-06  6.53333478e-01  1.90721176e-06  1.80000000e+00  1.90721176e-06 -6.56380945e-03  1.90721176e-06  6.52542895e-01  1.90721176e-06  1.49303402e+00  1.90721176e-06  1.50087623e+00                                 
 2.90721176e-06  7.20756549e-01  2.90721176e-06  6.52109675e-01  2.90721176e-06  6.53529742e-01  2.90721176e-06  1.80000000e+00  2.90721176e-06  6.60537564e-03  2.90721176e-06  6.52956189e-01  2.90721176e-06  1.49346974e+00  2.90721176e-06  1.50084620e+00                                 
 3.90721176e-06  7.20736808e-01  3.90721176e-06  6.52073381e-01  3.90721176e-06  6.53332816e-01  3.90721176e-06  1.80000000e+00  3.90721176e-06 -6.56365962e-03  3.90721176e-06  6.52542896e-01  3.90721176e-06  1.49296750e+00  3.90721176e-06  1.50080980e+00                                 
 4.90721176e-06  7.20756522e-01  4.90721176e-06  6.52109674e-01  4.90721176e-06  6.53530093e-01  4.90721176e-06  1.80000000e+00  4.90721176e-06  6.60506546e-03  4.90721176e-06  6.52956188e-01  4.90721176e-06  1.49340324e+00  4.90721176e-06  1.50077979e+00                                 
 5.90721176e-06  7.20736835e-01  5.90721176e-06  6.52073382e-01  5.90721176e-06  6.53332269e-01  5.90721176e-06  1.80000000e+00  5.90721176e-06 -6.56335092e-03  5.90721176e-06  6.52542898e-01  5.90721176e-06  1.49290103e+00  5.90721176e-06  1.50074341e+00                                 
 6.90721176e-06  7.20756495e-01  6.90721176e-06  6.52109673e-01  6.90721176e-06  6.53530446e-01  6.90721176e-06  1.80000000e+00  6.90721176e-06  6.60475354e-03  6.90721176e-06  6.52956186e-01  6.90721176e-06  1.49333676e+00  6.90721176e-06  1.50071340e+00                                 
 7.90721176e-06  7.20736861e-01  7.90721176e-06  6.52073383e-01  7.90721176e-06  6.53331732e-01  7.90721176e-06  1.80000000e+00  7.90721176e-06 -6.56304224e-03  7.90721176e-06  6.52542900e-01  7.90721176e-06  1.49283457e+00  7.90721176e-06  1.50067704e+00                                 
 8.90721176e-06  7.20756469e-01  8.90721176e-06  6.52109672e-01  8.90721176e-06  6.53530791e-01  8.90721176e-06  1.80000000e+00  8.90721176e-06  6.60444163e-03  8.90721176e-06  6.52956184e-01  8.90721176e-06  1.49327029e+00  8.90721176e-06  1.50064702e+00                                 
 9.90721176e-06  7.20736887e-01  9.90721176e-06  6.52073383e-01  9.90721176e-06  6.53331205e-01  9.90721176e-06  1.80000000e+00  9.90721176e-06 -6.56273357e-03  9.90721176e-06  6.52542901e-01  9.90721176e-06  1.49276808e+00  9.90721176e-06  1.50061064e+00                                 
 1.00005000e-05  7.20756321e-01  1.00005000e-05  6.52109668e-01  1.00005000e-05  6.53532777e-01  1.00005000e-05  1.80000000e+00  1.00005000e-05  6.60261634e-03  1.00005000e-05  6.52956175e-01  1.00005000e-05  1.49323392e+00  1.00005000e-05  1.50061073e+00                                 
 1.00005500e-05  7.20712563e-01  1.00005500e-05  6.51902194e-01  1.00005500e-05  6.51660651e-01  1.00005500e-05  1.62000000e+00  1.00005500e-05  6.05211536e-04  1.00005500e-05  6.51268748e-01  1.00005500e-05  1.49170626e+00  1.00005500e-05  1.50059071e+00                                 
 1.00006500e-05  7.20735604e-01  1.00006500e-05  6.51870638e-01  1.00006500e-05  6.51550203e-01  1.00006500e-05  1.26000000e+00  1.00006500e-05 -5.30697754e-04  1.00006500e-05  6.50817797e-01  1.00006500e-05  1.49130266e+00  1.00006500e-05  1.50061063e+00                                 
 1.00008500e-05  7.20788788e-01  1.00008500e-05  6.52048662e-01  1.00008500e-05  6.53743776e-01  1.00008500e-05  5.40000000e-01  1.00008500e-05  7.06652788e-03  1.00008500e-05  6.51437886e-01  1.00008500e-05  1.48999622e+00  1.00008500e-05  1.50059770e+00                                 
 1.00010000e-05  7.20731714e-01  1.00010000e-05  6.51338464e-01  1.00010000e-05  6.74421392e-01  1.00010000e-05  0.00000000e+00  1.00010000e-05  1.52865947e+00  1.00010000e-05  6.43475284e-01  1.00010000e-05  1.43439599e+00  1.00010000e-05  1.50013354e+00                                 
 1.00010250e-05  7.20749912e-01  1.00010250e-05  6.50965028e-01  1.00010250e-05  6.80282926e-01  1.00010250e-05  0.00000000e+00  1.00010250e-05  1.69597229e+00  1.00010250e-05  6.38948323e-01  1.00010250e-05  1.40658178e+00  1.00010250e-05  1.49992745e+00                                 
 1.00010751e-05  7.20752467e-01  1.00010751e-05  6.50260675e-01  1.00010751e-05  6.86099027e-01  1.00010751e-05  0.00000000e+00  1.00010751e-05  1.81995873e+00  1.00010751e-05  6.30432254e-01  1.00010751e-05  1.34470593e+00  1.00010751e-05  1.49976768e+00                                 
 1.00011752e-05  7.20745581e-01  1.00011752e-05  6.50107859e-01  1.00011752e-05  6.81233468e-01  1.00011752e-05  0.00000000e+00  1.00011752e-05  1.78741450e+00  1.00011752e-05  6.28852619e-01  1.00011752e-05  1.23636637e+00  1.00011752e-05  1.50032456e+00                                 
 1.00013026e-05  7.20750880e-01  1.00013026e-05  6.50392567e-01  1.00013026e-05  6.78060092e-01  1.00013026e-05  0.00000000e+00  1.00013026e-05  1.80666710e+00  1.00013026e-05  6.32822434e-01  1.00013026e-05  1.12920821e+00  1.00013026e-05  1.50070249e+00                                 
 1.00015226e-05  7.20744717e-01  1.00015226e-05  6.50539889e-01  1.00015226e-05  6.74402356e-01  1.00015226e-05  0.00000000e+00  1.00015226e-05  1.79406552e+00  1.00015226e-05  6.33603651e-01  1.00015226e-05  9.74789527e-01  1.00015226e-05  1.50091738e+00                                 
 1.00018055e-05  7.20749559e-01  1.00018055e-05  6.51116245e-01  1.00018055e-05  6.69015871e-01  1.00018055e-05  0.00000000e+00  1.00018055e-05  1.80420463e+00  1.00018055e-05  6.39111771e-01  1.00018055e-05  8.33772661e-01  1.00018055e-05  1.50080265e+00                                 
 1.00022254e-05  7.20744665e-01  1.00022254e-05  6.51800088e-01  1.00022254e-05  6.61489847e-01  1.00022254e-05  0.00000000e+00  1.00022254e-05  1.79589818e+00  1.00022254e-05  6.45212515e-01  1.00022254e-05  7.10412210e-01  1.00022254e-05  1.50003710e+00                                 
 1.00026695e-05  7.20749086e-01  1.00026695e-05  6.52439793e-01  1.00026695e-05  6.55893554e-01  1.00026695e-05  0.00000000e+00  1.00026695e-05  1.80344209e+00  1.00026695e-05  6.51870545e-01  1.00026695e-05  6.67907915e-01  1.00026695e-05  1.49835665e+00                                 
 1.00030585e-05  7.20744831e-01  1.00030585e-05  6.52495819e-01  1.00030585e-05  6.56243695e-01  1.00030585e-05  0.00000000e+00  1.00030585e-05  1.79703555e+00  1.00030585e-05  6.52360104e-01  1.00030585e-05  6.57790436e-01  1.00030585e-05  1.49633843e+00                                 
 1.00035174e-05  7.20748751e-01  1.00035174e-05  6.52600700e-01  1.00035174e-05  6.56085380e-01  1.00035174e-05  0.00000000e+00  1.00035174e-05  1.80260252e+00  1.00035174e-05  6.54199173e-01  1.00035174e-05  6.57098201e-01  1.00035174e-05  1.49363670e+00                                 
 1.00040808e-05  7.20744981e-01  1.00040808e-05  6.52479876e-01  1.00040808e-05  6.58415539e-01  1.00040808e-05  0.00000000e+00  1.00040808e-05  1.79767043e+00  1.00040808e-05  6.53514449e-01  1.00040808e-05  6.56975064e-01  1.00040808e-05  1.49008974e+00                                 
 1.00051254e-05  7.20748515e-01  1.00051254e-05  6.52448645e-01  1.00051254e-05  6.60807426e-01  1.00051254e-05  0.00000000e+00  1.00051254e-05  1.80220366e+00  1.00051254e-05  6.54522839e-01  1.00051254e-05  6.60845724e-01  1.00051254e-05  1.48317929e+00                                 
 1.00068984e-05  7.20744957e-01  1.00068984e-05  6.52239788e-01  1.00068984e-05  6.67052764e-01  1.00068984e-05  0.00000000e+00  1.00068984e-05  1.79787762e+00  1.00068984e-05  6.53629962e-01  1.00068984e-05  6.65445649e-01  1.00068984e-05  1.47092703e+00                                 
 1.00104443e-05  7.20748394e-01  1.00104443e-05  6.52154737e-01  1.00104443e-05  6.77182011e-01  1.00104443e-05  0.00000000e+00  1.00104443e-05  1.80209234e+00  1.00104443e-05  6.54238603e-01  1.00104443e-05  6.77140154e-01  1.00104443e-05  1.44548230e+00                                 
