 time            v(vbep)         time            v(vben)         time            v(vout)         time            v(vphi1)        time            v(vphi2)        time            v(vref)         yes             currtemp       
 0.00000000e+00  5.43156087e-01  0.00000000e+00  4.76865141e-01  0.00000000e+00  1.93539966e-01  0.00000000e+00  0.00000000e+00  0.00000000e+00  1.79997816e+00  0.00000000e+00  5.00000000e-01  1.00000000e+00  9.10000000e+01 
 5.00000000e-12  5.43139566e-01  5.00000000e-12  4.76851416e-01  5.00000000e-12  1.94150394e-01  5.00000000e-12  1.80000000e-02  5.00000000e-12  1.80007412e+00  5.00000000e-12  5.00000000e-01                                 
 1.00000000e-11  5.43123240e-01  1.00000000e-11  4.76837965e-01  1.00000000e-11  1.94698409e-01  1.00000000e-11  3.60000000e-02  1.00000000e-11  1.80012162e+00  1.00000000e-11  5.00000000e-01                                 
 2.00000000e-11  5.43090682e-01  2.00000000e-11  4.76811133e-01  2.00000000e-11  1.95698498e-01  2.00000000e-11  7.20000000e-02  2.00000000e-11  1.80016313e+00  2.00000000e-11  5.00000000e-01                                 
 4.00000000e-11  5.43025745e-01  4.00000000e-11  4.76757596e-01  4.00000000e-11  1.97265720e-01  4.00000000e-11  1.44000000e-01  4.00000000e-11  1.80013150e+00  4.00000000e-11  5.00000000e-01                                 
 8.00000000e-11  5.42896222e-01  8.00000000e-11  4.76650772e-01  8.00000000e-11  1.99370010e-01  8.00000000e-11  2.88000000e-01  8.00000000e-11  1.80007676e+00  8.00000000e-11  5.00000000e-01                                 
 1.60000000e-10  5.42638628e-01  1.60000000e-10  4.76438118e-01  1.60000000e-10  2.01857984e-01  1.60000000e-10  5.76000000e-01  1.60000000e-10  1.80003154e+00  1.60000000e-10  5.00000000e-01                                 
 3.20000000e-10  5.42129014e-01  3.20000000e-10  4.76016657e-01  3.20000000e-10  2.18736844e-01  3.20000000e-10  1.15200000e+00  3.20000000e-10  1.80031070e+00  3.20000000e-10  5.00000000e-01                                 
 5.00000000e-10  5.41564328e-01  5.00000000e-10  4.75548471e-01  5.00000000e-10  4.81164075e-01  5.00000000e-10  1.80000000e+00  5.00000000e-10  1.42139362e-01  5.00000000e-10  5.00000000e-01                                 
 5.22880657e-10  5.41493269e-01  5.22880657e-10  4.75489459e-01  5.22880657e-10  5.39774433e-01  5.22880657e-10  1.80000000e+00  5.22880657e-10  3.06351963e-02  5.22880657e-10  5.00000000e-01                                 
 5.68641971e-10  5.41351440e-01  5.68641971e-10  4.75371634e-01  5.68641971e-10  6.49302381e-01  5.68641971e-10  1.80000000e+00  5.68641971e-10 -1.38552730e-02  5.68641971e-10  5.00000000e-01                                 
 6.60164600e-10  5.41069525e-01  6.60164600e-10  4.75137201e-01  6.60164600e-10  8.26357583e-01  6.60164600e-10  1.80000000e+00  6.60164600e-10  1.11768515e-02  6.60164600e-10  5.00000000e-01                                 
 7.83334196e-10  5.40693693e-01  7.83334196e-10  4.74824198e-01  7.83334196e-10  1.00594974e+00  7.83334196e-10  1.80000000e+00  7.83334196e-10 -9.39874433e-03  7.83334196e-10  5.00000000e-01                                 
 9.81965285e-10  5.40095916e-01  9.81965285e-10  4.74325252e-01  9.81965285e-10  1.22817005e+00  9.81965285e-10  1.80000000e+00  9.81965285e-10  8.71777627e-03  9.81965285e-10  5.00000000e-01                                 
 1.29531495e-09  5.39172950e-01  1.29531495e-09  4.73552263e-01  1.29531495e-09  1.47953969e+00  1.29531495e-09  1.80000000e+00  1.29531495e-09 -8.06910880e-03  1.29531495e-09  5.00000000e-01                                 
 1.88806392e-09  5.37489937e-01  1.88806392e-09  4.72134755e-01  1.88806392e-09  1.70835710e+00  1.88806392e-09  1.80000000e+00  1.88806392e-09  7.96066931e-03  1.88806392e-09  5.00000000e-01                                 
 2.17653636e-09  5.36699309e-01  2.17653636e-09  4.71465249e-01  2.17653636e-09  1.74229061e+00  2.17653636e-09  1.80000000e+00  2.17653636e-09 -7.35839375e-03  2.17653636e-09  5.00000000e-01                                 
 2.51198387e-09  5.35801692e-01  2.51198387e-09  4.70702458e-01  2.51198387e-09  1.76050383e+00  2.51198387e-09  1.80000000e+00  2.51198387e-09  7.06844764e-03  2.51198387e-09  5.00000000e-01                                 
 2.89289927e-09  5.34809391e-01  2.89289927e-09  4.69855931e-01  2.89289927e-09  1.76830078e+00  2.89289927e-09  1.80000000e+00  2.89289927e-09 -6.65526623e-03  2.89289927e-09  5.00000000e-01                                 
 3.57944721e-09  5.33088215e-01  3.57944721e-09  4.68379718e-01  3.57944721e-09  1.77134841e+00  3.57944721e-09  1.80000000e+00  3.57944721e-09  6.56156153e-03  3.57944721e-09  5.00000000e-01                                 
 4.34245274e-09  5.31269259e-01  4.34245274e-09  4.66808926e-01  4.34245274e-09  1.76996915e+00  4.34245274e-09  1.80000000e+00  4.34245274e-09 -6.33606074e-03  4.34245274e-09  5.00000000e-01                                 
 5.73831267e-09  5.28163184e-01  5.73831267e-09  4.64102878e-01  5.73831267e-09  1.76719232e+00  5.73831267e-09  1.80000000e+00  5.73831267e-09  6.32997039e-03  5.73831267e-09  5.00000000e-01                                 
 7.91108844e-09  5.23804892e-01  7.91108844e-09  4.60258585e-01  7.91108844e-09  1.76226802e+00  7.91108844e-09  1.80000000e+00  7.91108844e-09 -6.20316831e-03  7.91108844e-09  5.00000000e-01                                 
 9.36240432e-09  5.21169163e-01  9.36240432e-09  4.57907390e-01  9.36240432e-09  1.75934367e+00  9.36240432e-09  1.80000000e+00  9.36240432e-09  6.19387957e-03  9.36240432e-09  5.00000000e-01                                 
 1.13470682e-08  5.17853047e-01  1.13470682e-08  4.54924337e-01  1.13470682e-08  1.75524981e+00  1.13470682e-08  1.80000000e+00  1.13470682e-08 -6.07651446e-03  1.13470682e-08  5.00000000e-01                                 
 1.34635713e-08  5.14630685e-01  1.34635713e-08  4.52000142e-01  1.34635713e-08  1.75114976e+00  1.34635713e-08  1.80000000e+00  1.34635713e-08  6.08277672e-03  1.34635713e-08  5.00000000e-01                                 
 1.58065055e-08  5.11382493e-01  1.58065055e-08  4.49028356e-01  1.58065055e-08  1.74650601e+00  1.58065055e-08  1.80000000e+00  1.58065055e-08 -5.98067799e-03  1.58065055e-08  5.00000000e-01                                 
 1.85305394e-08  5.07962401e-01  1.85305394e-08  4.45873887e-01  1.85305394e-08  1.74135311e+00  1.85305394e-08  1.80000000e+00  1.85305394e-08  5.99607201e-03  1.85305394e-08  5.00000000e-01                                 
 2.24547476e-08  5.03591590e-01  2.24547476e-08  4.41805315e-01  2.24547476e-08  1.73398188e+00  2.24547476e-08  1.80000000e+00  2.24547476e-08 -5.91441082e-03  2.24547476e-08  5.00000000e-01                                 
 2.85538697e-08  4.97815599e-01  2.85538697e-08  4.36365206e-01  2.85538697e-08  1.72330267e+00  2.85538697e-08  1.80000000e+00  2.85538697e-08  5.95134523e-03  2.85538697e-08  5.00000000e-01                                 
 3.96486017e-08  4.89444040e-01  3.96486017e-08  4.28364976e-01  3.96486017e-08  1.70494165e+00  3.96486017e-08  1.80000000e+00  3.96486017e-08 -5.88728931e-03  3.96486017e-08  5.00000000e-01                                 
 6.18380656e-08  4.77215627e-01  6.18380656e-08  4.16502664e-01  6.18380656e-08  1.67129708e+00  6.18380656e-08  1.80000000e+00  6.18380656e-08  5.93725266e-03  6.18380656e-08  5.00000000e-01                                 
 9.79209754e-08  4.62835398e-01  9.79209754e-08  4.02547057e-01  9.79209754e-08  1.62078494e+00  9.79209754e-08  1.80000000e+00  9.79209754e-08 -5.87952417e-03  9.79209754e-08  5.00000000e-01                                 
 1.49636192e-07  4.43856087e-01  1.49636192e-07  3.84958968e-01  1.49636192e-07  1.54909555e+00  1.49636192e-07  1.80000000e+00  1.49636192e-07  5.93234101e-03  1.49636192e-07  5.00000000e-01                                 
 2.18386298e-07  4.21750644e-01  2.18386298e-07  3.65110923e-01  2.18386298e-07  1.45479260e+00  2.18386298e-07  1.80000000e+00  2.18386298e-07 -5.87592264e-03  2.18386298e-07  5.00000000e-01                                 
 2.89386772e-07  4.01403455e-01  2.89386772e-07  3.47317889e-01  2.89386772e-07  1.35874118e+00  2.89386772e-07  1.80000000e+00  2.89386772e-07  5.92938835e-03  2.89386772e-07  5.00000000e-01                                 
 4.14535209e-07  3.60484249e-01  4.14535209e-07  3.12989155e-01  4.14535209e-07  1.18514285e+00  4.14535209e-07  1.80000000e+00  4.14535209e-07 -5.87366836e-03  4.14535209e-07  5.00000000e-01                                 
 5.25419929e-07  3.30203508e-01  5.25419929e-07  2.88106008e-01  5.25419929e-07  1.04844840e+00  5.25419929e-07  1.80000000e+00  5.25419929e-07  5.92768493e-03  5.25419929e-07  5.00000000e-01                                 
 5.53141109e-07  3.41779943e-01  5.53141109e-07  2.97304868e-01  5.53141109e-07  1.03577073e+00  5.53141109e-07  1.80000000e+00  5.53141109e-07  1.46118946e-05  5.53141109e-07  5.00000000e-01                                 
 6.08583470e-07  5.50428163e-01  6.08583470e-07  4.77735192e-01  6.08583470e-07  1.18038750e+00  6.08583470e-07  1.80000000e+00  6.08583470e-07  1.67880215e-05  6.08583470e-07  5.00000000e-01                                 
 6.50112155e-07  6.48010503e-01  6.50112155e-07  5.78048764e-01  6.50112155e-07  1.23116925e+00  6.50112155e-07  1.80000000e+00  6.50112155e-07  1.39990396e-05  6.50112155e-07  5.00000000e-01                                 
 6.86815724e-07  6.80808399e-01  6.86815724e-07  6.08137036e-01  6.86815724e-07  1.22150556e+00  6.86815724e-07  1.80000000e+00  6.86815724e-07  1.42834415e-05  6.86815724e-07  5.00000000e-01                                 
 7.23588733e-07  6.95937957e-01  7.23588733e-07  6.20843131e-01  7.23588733e-07  1.19788844e+00  7.23588733e-07  1.80000000e+00  7.23588733e-07  1.33632727e-05  7.23588733e-07  5.00000000e-01                                 
 7.60308101e-07  7.01414393e-01  7.60308101e-07  6.25467121e-01  7.60308101e-07  1.16264817e+00  7.60308101e-07  1.80000000e+00  7.60308101e-07  1.36735736e-05  7.60308101e-07  5.00000000e-01                                 
 8.16962637e-07  7.05200725e-01  8.16962637e-07  6.28444195e-01  8.16962637e-07  1.10978204e+00  8.16962637e-07  1.80000000e+00  8.16962637e-07  1.33345467e-05  8.16962637e-07  5.00000000e-01                                 
 8.76193806e-07  6.91795549e-01  8.76193806e-07  6.17539897e-01  8.76193806e-07  1.04120747e+00  8.76193806e-07  1.80000000e+00  8.76193806e-07  1.31141492e-05  8.76193806e-07  5.00000000e-01                                 
 8.85434405e-07  6.87290376e-01  8.85434405e-07  6.13672536e-01  8.85434405e-07  1.03010608e+00  8.85434405e-07  1.80000000e+00  8.85434405e-07  1.30607515e-05  8.85434405e-07  5.00000000e-01                                 
 9.03915603e-07  6.79969979e-01  9.03915603e-07  6.07349720e-01  9.03915603e-07  1.00867918e+00  9.03915603e-07  1.80000000e+00  9.03915603e-07  1.31243083e-05  9.03915603e-07  5.00000000e-01                                 
 9.40877998e-07  6.81903088e-01  9.40877998e-07  6.09001732e-01  9.40877998e-07  9.82583199e-01  9.40877998e-07  1.80000000e+00  9.40877998e-07  1.37901375e-05  9.40877998e-07  5.00000000e-01                                 
 9.90134835e-07  6.93073827e-01  9.90134835e-07  6.18520137e-01  9.90134835e-07  9.57854606e-01  9.90134835e-07  1.80000000e+00  9.90134835e-07  1.34545102e-05  9.90134835e-07  5.00000000e-01                                 
 1.05675729e-06  6.90426187e-01  1.05675729e-06  6.16314418e-01  1.05675729e-06  9.11053327e-01  1.05675729e-06  1.80000000e+00  1.05675729e-06  1.33355022e-05  1.05675729e-06  5.00000000e-01                                 
 1.12808130e-06  6.84955819e-01  1.12808130e-06  6.11642352e-01  1.12808130e-06  8.61268958e-01  1.12808130e-06  1.80000000e+00  1.12808130e-06  1.33840176e-05  1.12808130e-06  5.00000000e-01                                 
 1.24644585e-06  6.90749286e-01  1.24644585e-06  6.16574669e-01  1.24644585e-06  7.94291593e-01  1.24644585e-06  1.80000000e+00  1.24644585e-06  1.35489955e-05  1.24644585e-06  5.00000000e-01                                 
 1.39963148e-06  6.88145765e-01  1.39963148e-06  6.14373015e-01  1.39963148e-06  7.03101055e-01  1.39963148e-06  1.80000000e+00  1.39963148e-06  1.32761077e-05  1.39963148e-06  5.00000000e-01                                 
 1.56454533e-06  6.87766568e-01  1.56454533e-06  6.14046777e-01  1.56454533e-06  6.13075374e-01  1.56454533e-06  1.80000000e+00  1.56454533e-06  1.35693765e-05  1.56454533e-06  5.00000000e-01                                 
 1.83600800e-06  6.90148174e-01  1.83600800e-06  6.16068541e-01  1.83600800e-06  5.15038378e-01  1.83600800e-06  1.80000000e+00  1.83600800e-06  1.32999940e-05  1.83600800e-06  5.00000000e-01                                 
 1.87119635e-06  6.88471397e-01  1.87119635e-06  6.14649963e-01  1.87119635e-06  5.07508242e-01  1.87119635e-06  1.80000000e+00  1.87119635e-06  1.33852109e-05  1.87119635e-06  5.00000000e-01                                 
 1.94157306e-06  6.87874986e-01  1.94157306e-06  6.14139294e-01  1.94157306e-06  4.97034146e-01  1.94157306e-06  1.80000000e+00  1.94157306e-06  1.34516297e-05  1.94157306e-06  5.00000000e-01                                 
 2.08232647e-06  6.89478908e-01  2.08232647e-06  6.15502040e-01  2.08232647e-06  4.92566380e-01  2.08232647e-06  1.80000000e+00  2.08232647e-06  1.34210644e-05  2.08232647e-06  5.00000000e-01                                 
 2.22173063e-06  6.88065524e-01  2.22173063e-06  6.14303475e-01  2.22173063e-06  5.00548853e-01  2.22173063e-06  1.80000000e+00  2.22173063e-06  1.34140759e-05  2.22173063e-06  5.00000000e-01                                 
 2.37833438e-06  6.88899160e-01  2.37833438e-06  6.15009361e-01  2.37833438e-06  5.01721813e-01  2.37833438e-06  1.80000000e+00  2.37833438e-06  1.34434095e-05  2.37833438e-06  5.00000000e-01                                 
 2.63723367e-06  6.88626586e-01  2.63723367e-06  6.14780618e-01  2.63723367e-06  4.98815799e-01  2.63723367e-06  1.80000000e+00  2.63723367e-06  1.34074091e-05  2.63723367e-06  5.00000000e-01                                 
 2.92346832e-06  6.88518116e-01  2.92346832e-06  6.14686017e-01  2.92346832e-06  5.01353063e-01  2.92346832e-06  1.80000000e+00  2.92346832e-06  1.34421114e-05  2.92346832e-06  5.00000000e-01                                 
 3.30566738e-06  6.88898576e-01  3.30566738e-06  6.15011189e-01  3.30566738e-06  4.99426258e-01  3.30566738e-06  1.80000000e+00  3.30566738e-06  1.34113186e-05  3.30566738e-06  5.00000000e-01                                 
 3.84229601e-06  6.88354693e-01  3.84229601e-06  6.14547458e-01  3.84229601e-06  5.00901009e-01  3.84229601e-06  1.80000000e+00  3.84229601e-06  1.34378077e-05  3.84229601e-06  5.00000000e-01                                 
 4.56259068e-06  6.88992782e-01  4.56259068e-06  6.15090864e-01  4.56259068e-06  4.99751098e-01  4.56259068e-06  1.80000000e+00  4.56259068e-06  1.34150611e-05  4.56259068e-06  5.00000000e-01                                 
 5.56259068e-06  6.88297588e-01  5.56259068e-06  6.14499115e-01  5.56259068e-06  5.00684545e-01  5.56259068e-06  1.80000000e+00  5.56259068e-06  1.34348059e-05  5.56259068e-06  5.00000000e-01                                 
 6.56259068e-06  6.89030723e-01  6.56259068e-06  6.15122880e-01  6.56259068e-06  4.99921107e-01  6.56259068e-06  1.80000000e+00  6.56259068e-06  1.34177114e-05  6.56259068e-06  5.00000000e-01                                 
 7.56259068e-06  6.88266845e-01  7.56259068e-06  6.14473153e-01  7.56259068e-06  5.00519770e-01  7.56259068e-06  1.80000000e+00  7.56259068e-06  1.34320706e-05  7.56259068e-06  5.00000000e-01                                 
 8.56259068e-06  6.89053352e-01  8.56259068e-06  6.15141903e-01  8.56259068e-06  5.00071085e-01  8.56259068e-06  1.80000000e+00  8.56259068e-06  1.34205077e-05  8.56259068e-06  5.00000000e-01                                 
 9.56259068e-06  6.88251413e-01  9.56259068e-06  6.14460200e-01  9.56259068e-06  5.00392649e-01  9.56259068e-06  1.80000000e+00  9.56259068e-06  1.34292374e-05  9.56259068e-06  5.00000000e-01                                 
 1.00005000e-05  6.89059046e-01  1.00005000e-05  6.15146465e-01  1.00005000e-05  5.00237200e-01  1.00005000e-05  1.80000000e+00  1.00005000e-05  1.34251575e-05  1.00005000e-05  5.00000000e-01                                 
 1.00005500e-05  6.89058698e-01  1.00005500e-05  6.15146173e-01  1.00005500e-05  4.92916355e-01  1.00005500e-05  1.62000000e+00  1.00005500e-05 -7.39677744e-05  1.00005500e-05  5.00000000e-01                                 
 1.00006500e-05  6.89058025e-01  1.00006500e-05  6.15145598e-01  1.00006500e-05  4.79371477e-01  1.00006500e-05  1.26000000e+00  1.00006500e-05 -6.23820231e-05  1.00006500e-05  5.00000000e-01                                 
 1.00008500e-05  6.89056715e-01  1.00008500e-05  6.15144472e-01  1.00008500e-05  4.78770773e-01  1.00008500e-05  5.40000000e-01  1.00008500e-05  1.41284675e-01  1.00008500e-05  5.00000000e-01                                 
 1.00010000e-05  6.89055651e-01  1.00010000e-05  6.15143585e-01  1.00010000e-05  4.44231352e-01  1.00010000e-05  0.00000000e+00  1.00010000e-05  1.63356276e+00  1.00010000e-05  5.00000000e-01                                 
 1.00010247e-05  6.89055460e-01  1.00010247e-05  6.15143426e-01  1.00010247e-05  4.25444204e-01  1.00010247e-05  0.00000000e+00  1.00010247e-05  1.74430144e+00  1.00010247e-05  5.00000000e-01                                 
 1.00010742e-05  6.89055112e-01  1.00010742e-05  6.15143125e-01  1.00010742e-05  3.92441187e-01  1.00010742e-05  0.00000000e+00  1.00010742e-05  1.81614457e+00  1.00010742e-05  5.00000000e-01                                 
 1.00011731e-05  6.89054508e-01  1.00011731e-05  6.15142583e-01  1.00011731e-05  3.59016226e-01  1.00011731e-05  0.00000000e+00  1.00011731e-05  1.78848025e+00  1.00011731e-05  5.00000000e-01                                 
 1.00013314e-05  6.89053525e-01  1.00013314e-05  6.15141748e-01  1.00013314e-05  3.50921572e-01  1.00013314e-05  0.00000000e+00  1.00013314e-05  1.80807258e+00  1.00013314e-05  5.00000000e-01                                 
 1.00015769e-05  6.89051847e-01  1.00015769e-05  6.15140342e-01  1.00015769e-05  3.51416036e-01  1.00015769e-05  0.00000000e+00  1.00015769e-05  1.79317897e+00  1.00015769e-05  5.00000000e-01                                 
 1.00018129e-05  6.89050082e-01  1.00018129e-05  6.15138859e-01  1.00018129e-05  3.51544761e-01  1.00018129e-05  0.00000000e+00  1.00018129e-05  1.80556354e+00  1.00018129e-05  5.00000000e-01                                 
 1.00022404e-05  6.89046684e-01  1.00022404e-05  6.15136001e-01  1.00022404e-05  3.51416550e-01  1.00022404e-05  0.00000000e+00  1.00022404e-05  1.79497910e+00  1.00022404e-05  5.00000000e-01                                 
 1.00027770e-05  6.89042299e-01  1.00027770e-05  6.15132295e-01  1.00027770e-05  3.51667516e-01  1.00027770e-05  0.00000000e+00  1.00027770e-05  1.80459272e+00  1.00027770e-05  5.00000000e-01                                 
 1.00038502e-05  6.89033514e-01  1.00038502e-05  6.15124857e-01  1.00038502e-05  3.52016976e-01  1.00038502e-05  0.00000000e+00  1.00038502e-05  1.79558229e+00  1.00038502e-05  5.00000000e-01                                 
 1.00059966e-05  6.89014864e-01  1.00059966e-05  6.15109087e-01  1.00059966e-05  3.53599223e-01  1.00059966e-05  0.00000000e+00  1.00059966e-05  1.80430921e+00  1.00059966e-05  5.00000000e-01                                 
 1.00102894e-05  6.88969043e-01  1.00102894e-05  6.15070387e-01  1.00102894e-05  3.57154357e-01  1.00102894e-05  0.00000000e+00  1.00102894e-05  1.79572100e+00  1.00102894e-05  5.00000000e-01                                 
