 time            v(vbep)         time            v(vben)         time            v(vout)         time            v(vphi1)        time            v(vphi2)        time            v(vref)         yes             currtemp       
 0.00000000e+00  7.59033151e-01  0.00000000e+00  7.12545667e-01  0.00000000e+00  6.65323396e-02  0.00000000e+00  0.00000000e+00  0.00000000e+00  1.79997546e+00  0.00000000e+00  5.00000000e-01  1.00000000e+00 -1.90000000e+01 
 5.00000000e-12  7.59017934e-01  5.00000000e-12  7.12532978e-01  5.00000000e-12  6.69667678e-02  5.00000000e-12  1.80000000e-02  5.00000000e-12  1.80005137e+00  5.00000000e-12  5.00000000e-01                                 
 1.00000000e-11  7.59002945e-01  1.00000000e-11  7.12520547e-01  1.00000000e-11  6.73548045e-02  1.00000000e-11  3.60000000e-02  1.00000000e-11  1.80008805e+00  1.00000000e-11  5.00000000e-01                                 
 2.00000000e-11  7.58973082e-01  2.00000000e-11  7.12495754e-01  2.00000000e-11  6.80648229e-02  2.00000000e-11  7.20000000e-02  2.00000000e-11  1.80012090e+00  2.00000000e-11  5.00000000e-01                                 
 4.00000000e-11  7.58913563e-01  4.00000000e-11  7.12446295e-01  4.00000000e-11  6.91767302e-02  4.00000000e-11  1.44000000e-01  4.00000000e-11  1.80010117e+00  4.00000000e-11  5.00000000e-01                                 
 8.00000000e-11  7.58794900e-01  8.00000000e-11  7.12347646e-01  8.00000000e-11  7.06793807e-02  8.00000000e-11  2.88000000e-01  8.00000000e-11  1.80005976e+00  8.00000000e-11  5.00000000e-01                                 
 1.60000000e-10  7.58559175e-01  1.60000000e-10  7.12151448e-01  1.60000000e-10  7.25702743e-02  1.60000000e-10  5.76000000e-01  1.60000000e-10  1.80002250e+00  1.60000000e-10  5.00000000e-01                                 
 3.20000000e-10  7.58093964e-01  3.20000000e-10  7.11763404e-01  3.20000000e-10  1.11020117e-01  3.20000000e-10  1.15200000e+00  3.20000000e-10  1.79986094e+00  3.20000000e-10  5.00000000e-01                                 
 5.00000000e-10  7.57580479e-01  5.00000000e-10  7.11333774e-01  5.00000000e-10  4.94950995e-01  5.00000000e-10  1.80000000e+00  5.00000000e-10  9.31302508e-02  5.00000000e-10  5.00000000e-01                                 
 5.20872690e-10  7.57521675e-01  5.20872690e-10  7.11284476e-01  5.20872690e-10  5.64079788e-01  5.20872690e-10  1.80000000e+00  5.20872690e-10  1.58750616e-02  5.20872690e-10  5.00000000e-01                                 
 5.62618070e-10  7.57404333e-01  5.62618070e-10  7.11186067e-01  5.62618070e-10  6.86903094e-01  5.62618070e-10  1.80000000e+00  5.62618070e-10 -7.62957409e-03  5.62618070e-10  5.00000000e-01                                 
 6.46108829e-10  7.57171261e-01  6.46108829e-10  7.10990391e-01  6.46108829e-10  8.70306514e-01  6.46108829e-10  1.80000000e+00  6.46108829e-10  6.69743118e-03  6.46108829e-10  5.00000000e-01                                 
 7.70506590e-10  7.56827928e-01  7.70506590e-10  7.10701637e-01  7.70506590e-10  1.07481628e+00  7.70506590e-10  1.80000000e+00  7.70506590e-10 -5.94333094e-03  7.70506590e-10  5.00000000e-01                                 
 9.58643733e-10  7.56317390e-01  9.58643733e-10  7.10271151e-01  9.58643733e-10  1.32535633e+00  9.58643733e-10  1.80000000e+00  9.58643733e-10  5.67458401e-03  9.58643733e-10  5.00000000e-01                                 
 1.32763672e-09  7.55345078e-01  1.32763672e-09  7.09447708e-01  1.32763672e-09  1.66842800e+00  1.32763672e-09  1.80000000e+00  1.32763672e-09 -5.41101249e-03  1.32763672e-09  5.00000000e-01                                 
 2.00136904e-09  7.53660765e-01  2.00136904e-09  7.08010471e-01  2.00136904e-09  1.89894166e+00  2.00136904e-09  1.80000000e+00  2.00136904e-09  5.38850246e-03  2.00136904e-09  5.00000000e-01                                 
 2.24491049e-09  7.53079231e-01  2.24491049e-09  7.07510979e-01  2.24491049e-09  1.91455496e+00  2.24491049e-09  1.80000000e+00  2.24491049e-09 -5.07185958e-03  2.24491049e-09  5.00000000e-01                                 
 2.54864330e-09  7.52372388e-01  2.54864330e-09  7.06901732e-01  2.54864330e-09  1.92149381e+00  2.54864330e-09  1.80000000e+00  2.54864330e-09  4.92821540e-03  2.54864330e-09  5.00000000e-01                                 
 2.89545119e-09  7.51588971e-01  2.89545119e-09  7.06223808e-01  2.89545119e-09  1.92666090e+00  2.89545119e-09  1.80000000e+00  2.89545119e-09 -4.72471895e-03  2.89545119e-09  5.00000000e-01                                 
 3.58906697e-09  7.50091367e-01  3.58906697e-09  7.04920376e-01  3.58906697e-09  1.93371880e+00  3.58906697e-09  1.80000000e+00  3.58906697e-09  4.68295442e-03  3.58906697e-09  5.00000000e-01                                 
 4.86723747e-09  7.47543206e-01  4.86723747e-09  7.02681161e-01  4.86723747e-09  1.93225294e+00  4.86723747e-09  1.80000000e+00  4.86723747e-09 -4.61276765e-03  4.86723747e-09  5.00000000e-01                                 
 7.01160557e-09  7.43766788e-01  7.01160557e-09  6.99316748e-01  7.01160557e-09  1.91932001e+00  7.01160557e-09  1.80000000e+00  7.01160557e-09  4.61991701e-03  7.01160557e-09  5.00000000e-01                                 
 9.11567570e-09  7.40541119e-01  9.11567570e-09  6.96402150e-01  9.11567570e-09  1.90888402e+00  9.11567570e-09  1.80000000e+00  9.11567570e-09 -4.56131407e-03  9.11567570e-09  5.00000000e-01                                 
 1.04455763e-08  7.38696505e-01  1.04455763e-08  6.94720123e-01  1.04455763e-08  1.90318503e+00  1.04455763e-08  1.80000000e+00  1.04455763e-08  4.54835990e-03  1.04455763e-08  5.00000000e-01                                 
 1.24785440e-08  7.36110016e-01  1.24785440e-08  6.92345279e-01  1.24785440e-08  1.89577202e+00  1.24785440e-08  1.80000000e+00  1.24785440e-08 -4.49928553e-03  1.24785440e-08  5.00000000e-01                                 
 1.49312282e-08  7.33310449e-01  1.49312282e-08  6.89753718e-01  1.49312282e-08  1.88780726e+00  1.49312282e-08  1.80000000e+00  1.49312282e-08  4.49834015e-03  1.49312282e-08  5.00000000e-01                                 
 1.88698954e-08  7.29417209e-01  1.88698954e-08  6.86112349e-01  1.88698954e-08  1.87714519e+00  1.88698954e-08  1.80000000e+00  1.88698954e-08 -4.46616200e-03  1.88698954e-08  5.00000000e-01                                 
 2.36677594e-08  7.25503927e-01  2.36677594e-08  6.82398839e-01  2.36677594e-08  1.86645711e+00  2.36677594e-08  1.80000000e+00  2.36677594e-08  4.47373476e-03  2.36677594e-08  5.00000000e-01                                 
 3.19696334e-08  7.20229393e-01  3.19696334e-08  6.77297225e-01  3.19696334e-08  1.85199432e+00  3.19696334e-08  1.80000000e+00  3.19696334e-08 -4.44911920e-03  3.19696334e-08  5.00000000e-01                                 
 4.54365579e-08  7.13726688e-01  4.54365579e-08  6.70922157e-01  4.54365579e-08  1.83244111e+00  4.54365579e-08  1.80000000e+00  4.54365579e-08  4.46371290e-03  4.54365579e-08  5.00000000e-01                                 
 7.23704070e-08  7.04036782e-01  7.23704070e-08  6.61409170e-01  7.23704070e-08  1.79786575e+00  7.23704070e-08  1.80000000e+00  7.23704070e-08 -4.44340375e-03  7.23704070e-08  5.00000000e-01                                 
 1.15335332e-07  6.93895885e-01  1.15335332e-07  6.51353018e-01  1.15335332e-07  1.74989483e+00  1.15335332e-07  1.80000000e+00  1.15335332e-07  4.46070231e-03  1.15335332e-07  5.00000000e-01                                 
 1.57781363e-07  6.85797185e-01  1.57781363e-07  6.43518988e-01  1.57781363e-07  1.70387343e+00  1.57781363e-07  1.80000000e+00  1.57781363e-07 -4.44096981e-03  1.57781363e-07  5.00000000e-01                                 
 2.37722007e-07  6.71340422e-01  2.37722007e-07  6.30125937e-01  2.37722007e-07  1.61567086e+00  2.37722007e-07  1.80000000e+00  2.37722007e-07  4.45885999e-03  2.37722007e-07  5.00000000e-01                                 
 3.15328740e-07  6.59939510e-01  3.15328740e-07  6.19765085e-01  3.15328740e-07  1.53070069e+00  3.15328740e-07  1.80000000e+00  3.15328740e-07 -4.43962327e-03  3.15328740e-07  5.00000000e-01                                 
 4.38471528e-07  6.44030507e-01  4.38471528e-07  6.05652270e-01  4.38471528e-07  1.39473397e+00  4.38471528e-07  1.80000000e+00  4.38471528e-07  4.45780212e-03  4.38471528e-07  5.00000000e-01                                 
 6.84757103e-07  6.15164215e-01  6.84757103e-07  5.80946620e-01  6.84757103e-07  1.11963284e+00  6.84757103e-07  1.80000000e+00  6.84757103e-07 -4.43886375e-03  6.84757103e-07  5.00000000e-01                                 
 1.17732825e-06  5.62978421e-01  1.17732825e-06  5.37937219e-01  1.17732825e-06  7.27484064e-01  1.17732825e-06  1.80000000e+00  1.17732825e-06  4.45750565e-03  1.17732825e-06  5.00000000e-01                                 
 1.23678724e-06  5.58347718e-01  1.23678724e-06  5.34183077e-01  1.23678724e-06  6.99199056e-01  1.23678724e-06  1.80000000e+00  1.23678724e-06  2.05359043e-07  1.23678724e-06  5.00000000e-01                                 
 1.35570521e-06  5.54049689e-01  1.35570521e-06  5.30658964e-01  1.35570521e-06  6.49698784e-01  1.35570521e-06  1.80000000e+00  1.35570521e-06 -2.04189744e-07  1.35570521e-06  5.00000000e-01                                 
 1.38543470e-06  5.55983704e-01  1.38543470e-06  5.32189497e-01  1.38543470e-06  6.40858891e-01  1.38543470e-06  1.80000000e+00  1.38543470e-06  3.52683190e-08  1.38543470e-06  5.00000000e-01                                 
 1.44489369e-06  5.65648381e-01  1.44489369e-06  5.39890872e-01  1.44489369e-06  6.28568829e-01  1.44489369e-06  1.80000000e+00  1.44489369e-06  1.02342663e-07  1.44489369e-06  5.00000000e-01                                 
 1.45975844e-06  5.70870939e-01  1.45975844e-06  5.44061900e-01  1.45975844e-06  6.28060418e-01  1.45975844e-06  1.80000000e+00  1.45975844e-06  1.34015367e-07  1.45975844e-06  5.00000000e-01                                 
 1.48948793e-06  5.85152871e-01  1.48948793e-06  5.55471998e-01  1.48948793e-06  6.30441343e-01  1.48948793e-06  1.80000000e+00  1.48948793e-06  2.24872817e-07  1.48948793e-06  5.00000000e-01                                 
 1.53629381e-06  6.41611806e-01  1.53629381e-06  6.00589990e-01  1.53629381e-06  6.63904298e-01  1.53629381e-06  1.80000000e+00  1.53629381e-06  6.60005870e-07  1.53629381e-06  5.00000000e-01                                 
 1.54338372e-06  6.57038740e-01  1.54338372e-06  6.12925923e-01  1.54338372e-06  6.74943688e-01  1.54338372e-06  1.80000000e+00  1.54338372e-06  8.13055618e-07  1.54338372e-06  5.00000000e-01                                 
 1.55756355e-06  6.95149801e-01  1.55756355e-06  6.43656108e-01  1.55756355e-06  7.03241608e-01  1.55756355e-06  1.80000000e+00  1.55756355e-06  1.25705271e-06  1.55756355e-06  5.00000000e-01                                 
 1.58592320e-06  7.80666263e-01  1.58592320e-06  7.29172977e-01  1.58592320e-06  7.65630546e-01  1.58592320e-06  1.80000000e+00  1.58592320e-06  1.55826821e-06  1.58592320e-06  5.00000000e-01                                 
 1.62097016e-06  8.26717521e-01  1.62097016e-06  7.78946959e-01  1.62097016e-06  7.86519852e-01  1.62097016e-06  1.80000000e+00  1.62097016e-06  3.71196319e-08  1.62097016e-06  5.00000000e-01                                 
 1.65788051e-06  8.63990248e-01  1.65788051e-06  8.12908744e-01  1.65788051e-06  7.95589880e-01  1.65788051e-06  1.80000000e+00  1.65788051e-06  1.00084049e-06  1.65788051e-06  5.00000000e-01                                 
 1.69013234e-06  9.03191301e-01  1.69013234e-06  8.43440720e-01  1.69013234e-06  8.07619082e-01  1.69013234e-06  1.80000000e+00  1.69013234e-06  3.60429798e-07  1.69013234e-06  5.00000000e-01                                 
 1.72917942e-06  9.41331270e-01  1.72917942e-06  8.67458917e-01  1.72917942e-06  8.09530865e-01  1.72917942e-06  1.80000000e+00  1.72917942e-06  5.91426985e-07  1.72917942e-06  5.00000000e-01                                 
 1.75897658e-06  9.40872066e-01  1.75897658e-06  8.67468799e-01  1.75897658e-06  7.93716281e-01  1.75897658e-06  1.80000000e+00  1.75897658e-06 -3.56856361e-07  1.75897658e-06  5.00000000e-01                                 
 1.79076276e-06  9.40000736e-01  1.79076276e-06  8.66719138e-01  1.79076276e-06  7.73338061e-01  1.79076276e-06  1.80000000e+00  1.79076276e-06  3.02509040e-07  1.79076276e-06  5.00000000e-01                                 
 1.82741491e-06  9.40964522e-01  1.82741491e-06  8.67492115e-01  1.82741491e-06  7.57573384e-01  1.82741491e-06  1.80000000e+00  1.82741491e-06 -1.86443142e-07  1.82741491e-06  5.00000000e-01                                 
 1.89756868e-06  9.38519030e-01  1.89756868e-06  8.65895854e-01  1.89756868e-06  7.22152210e-01  1.89756868e-06  1.80000000e+00  1.89756868e-06  1.79178463e-07  1.89756868e-06  5.00000000e-01                                 
 1.96286653e-06  9.39217918e-01  1.96286653e-06  8.66479127e-01  1.96286653e-06  6.97443892e-01  1.96286653e-06  1.80000000e+00  1.96286653e-06 -1.21869087e-07  1.96286653e-06  5.00000000e-01                                 
 2.06039400e-06  9.35908877e-01  2.06039400e-06  8.64399165e-01  2.06039400e-06  6.56331689e-01  2.06039400e-06  1.80000000e+00  2.06039400e-06  1.13400354e-07  2.06039400e-06  5.00000000e-01                                 
 2.17697551e-06  9.35467737e-01  2.17697551e-06  8.64298356e-01  2.17697551e-06  6.16463565e-01  2.17697551e-06  1.80000000e+00  2.17697551e-06 -8.30648848e-08  2.17697551e-06  5.00000000e-01                                 
 2.31615922e-06  9.30764051e-01  2.31615922e-06  8.61361805e-01  2.31615922e-06  5.67105712e-01  2.31615922e-06  1.80000000e+00  2.31615922e-06  7.56727538e-08  2.31615922e-06  5.00000000e-01                                 
 2.50124782e-06  9.27078376e-01  2.50124782e-06  8.59278813e-01  2.50124782e-06  5.26328218e-01  2.50124782e-06  1.80000000e+00  2.50124782e-06 -5.67877261e-08  2.50124782e-06  5.00000000e-01                                 
 2.74857059e-06  9.09942177e-01  2.74857059e-06  8.48123404e-01  2.74857059e-06  4.93276936e-01  2.74857059e-06  1.80000000e+00  2.74857059e-06  1.38690176e-08  2.74857059e-06  5.00000000e-01                                 
 2.78835120e-06  9.06294367e-01  2.78835120e-06  8.45732124e-01  2.78835120e-06  4.90318667e-01  2.78835120e-06  1.80000000e+00  2.78835120e-06 -3.55291290e-08  2.78835120e-06  5.00000000e-01                                 
 2.86791242e-06  8.94499071e-01  2.86791242e-06  8.37373100e-01  2.86791242e-06  4.79451034e-01  2.86791242e-06  1.80000000e+00  2.86791242e-06 -1.01301803e-07  2.86791242e-06  5.00000000e-01                                 
 2.96731029e-06  8.72012730e-01  2.96731029e-06  8.19804571e-01  2.96731029e-06  4.66549371e-01  2.96731029e-06  1.80000000e+00  2.96731029e-06 -1.20922120e-07  2.96731029e-06  5.00000000e-01                                 
 2.98216071e-06  8.68190482e-01  2.98216071e-06  8.16614141e-01  2.98216071e-06  4.66844277e-01  2.98216071e-06  1.80000000e+00  2.98216071e-06 -1.21902976e-07  2.98216071e-06  5.00000000e-01                                 
 3.01186156e-06  8.61141451e-01  3.01186156e-06  8.10564403e-01  3.01186156e-06  4.67870429e-01  3.01186156e-06  1.80000000e+00  3.01186156e-06 -1.21768504e-07  3.01186156e-06  5.00000000e-01                                 
 3.07126325e-06  8.52934888e-01  3.07126325e-06  8.03290925e-01  3.07126325e-06  4.72881357e-01  3.07126325e-06  1.80000000e+00  3.07126325e-06 -2.63074204e-08  3.07126325e-06  5.00000000e-01                                 
 3.18922797e-06  8.50831837e-01  3.18922797e-06  8.01387315e-01  3.18922797e-06  4.87608533e-01  3.18922797e-06  1.80000000e+00  3.18922797e-06  2.76279647e-08  3.18922797e-06  5.00000000e-01                                 
 3.30529092e-06  8.51771360e-01  3.30529092e-06  8.02239558e-01  3.30529092e-06  4.96305612e-01  3.30529092e-06  1.80000000e+00  3.30529092e-06  6.48756197e-09  3.30529092e-06  5.00000000e-01                                 
 3.49643214e-06  8.51297533e-01  3.49643214e-06  8.01810084e-01  3.49643214e-06  5.00327960e-01  3.49643214e-06  1.80000000e+00  3.49643214e-06  1.66590627e-08  3.49643214e-06  5.00000000e-01                                 
 3.71229260e-06  8.51578761e-01  3.71229260e-06  8.02065161e-01  3.71229260e-06  5.01743421e-01  3.71229260e-06  1.80000000e+00  3.71229260e-06  1.12615889e-08  3.71229260e-06  5.00000000e-01                                 
 4.07914905e-06  8.51394193e-01  4.07914905e-06  8.01897701e-01  4.07914905e-06  5.00832540e-01  4.07914905e-06  1.80000000e+00  4.07914905e-06  1.47816473e-08  4.07914905e-06  5.00000000e-01                                 
 4.46477982e-06  8.51529506e-01  4.46477982e-06  8.02020555e-01  4.46477982e-06  5.00235981e-01  4.46477982e-06  1.80000000e+00  4.46477982e-06  1.22792260e-08  4.46477982e-06  5.00000000e-01                                 
 5.23604135e-06  8.51423456e-01  5.23604135e-06  8.01924213e-01  5.23604135e-06  4.99733260e-01  5.23604135e-06  1.80000000e+00  5.23604135e-06  1.42172511e-08  5.23604135e-06  5.00000000e-01                                 
 6.23604135e-06  8.51515157e-01  6.23604135e-06  8.02007561e-01  6.23604135e-06  5.00192024e-01  6.23604135e-06  1.80000000e+00  6.23604135e-06  1.25306786e-08  6.23604135e-06  5.00000000e-01                                 
 7.23604135e-06  8.51434537e-01  7.23604135e-06  8.01934251e-01  7.23604135e-06  5.00196463e-01  7.23604135e-06  1.80000000e+00  7.23604135e-06  1.40205468e-08  7.23604135e-06  5.00000000e-01                                 
 8.23604135e-06  8.51505190e-01  8.23604135e-06  8.01998536e-01  8.23604135e-06  5.00043028e-01  8.23604135e-06  1.80000000e+00  8.23604135e-06  1.27017518e-08  8.23604135e-06  5.00000000e-01                                 
 9.23604135e-06  8.51443506e-01  9.23604135e-06  8.01942374e-01  9.23604135e-06  5.00080500e-01  9.23604135e-06  1.80000000e+00  9.23604135e-06  1.38774080e-08  9.23604135e-06  5.00000000e-01                                 
 1.00005000e-05  8.51496067e-01  1.00005000e-05  8.01990275e-01  1.00005000e-05  5.00162753e-01  1.00005000e-05  1.80000000e+00  1.00005000e-05  1.28367391e-08  1.00005000e-05  5.00000000e-01                                 
 1.00005500e-05  8.51495965e-01  1.00005500e-05  8.01990150e-01  1.00005500e-05  4.92165725e-01  1.00005500e-05  1.62000000e+00  1.00005500e-05 -6.33175987e-05  1.00005500e-05  5.00000000e-01                                 
 1.00006500e-05  8.51495738e-01  1.00006500e-05  8.01989919e-01  1.00006500e-05  4.78686825e-01  1.00006500e-05  1.26000000e+00  1.00006500e-05 -4.28219927e-05  1.00006500e-05  5.00000000e-01                                 
 1.00008500e-05  8.51495412e-01  1.00008500e-05  8.01989600e-01  1.00008500e-05  4.78652734e-01  1.00008500e-05  5.40000000e-01  1.00008500e-05 -1.19411995e-04  1.00008500e-05  5.00000000e-01                                 
 1.00010000e-05  8.51495147e-01  1.00010000e-05  8.01989369e-01  1.00010000e-05  4.44122956e-01  1.00010000e-05  0.00000000e+00  1.00010000e-05  1.54391970e+00  1.00010000e-05  5.00000000e-01                                 
 1.00010133e-05  8.51495065e-01  1.00010133e-05  8.01989320e-01  1.00010133e-05  4.27312362e-01  1.00010133e-05  0.00000000e+00  1.00010133e-05  1.66900129e+00  1.00010133e-05  5.00000000e-01                                 
 1.00010400e-05  8.51494900e-01  1.00010400e-05  8.01989215e-01  1.00010400e-05  3.83986218e-01  1.00010400e-05  0.00000000e+00  1.00010400e-05  1.79503989e+00  1.00010400e-05  5.00000000e-01                                 
 1.00010933e-05  8.51494775e-01  1.00010933e-05  8.01989071e-01  1.00010933e-05  2.96971656e-01  1.00010933e-05  0.00000000e+00  1.00010933e-05  1.79884481e+00  1.00010933e-05  5.00000000e-01                                 
