 time            v(vbep)         time            v(vben)         time            v(vout)         time            v(vphi1)        time            v(vphi2)        time            v(vref)         yes             currtemp       
 0.00000000e+00  7.89054419e-01  0.00000000e+00  7.40344214e-01  0.00000000e+00  9.79012054e-01  0.00000000e+00  0.00000000e+00  0.00000000e+00  1.79978487e+00  0.00000000e+00  7.40344214e-01  1.00000000e+00 -8.00000000e+00 
 5.00000000e-12  7.88947446e-01  5.00000000e-12  7.40264833e-01  5.00000000e-12  9.79748478e-01  5.00000000e-12  1.80000000e-02  5.00000000e-12  1.79993049e+00  5.00000000e-12  7.40264833e-01                                 
 1.00000000e-11  7.88853288e-01  1.00000000e-11  7.40191993e-01  1.00000000e-11  9.80428466e-01  1.00000000e-11  3.60000000e-02  1.00000000e-11  1.80002818e+00  1.00000000e-11  7.40191993e-01                                 
 2.00000000e-11  7.88677244e-01  2.00000000e-11  7.40048477e-01  2.00000000e-11  9.81695524e-01  2.00000000e-11  7.20000000e-02  2.00000000e-11  1.80015957e+00  2.00000000e-11  7.40048477e-01                                 
 4.00000000e-11  7.88351396e-01  4.00000000e-11  7.39765017e-01  4.00000000e-11  9.83807396e-01  4.00000000e-11  1.44000000e-01  4.00000000e-11  1.80020433e+00  4.00000000e-11  7.39765017e-01                                 
 8.00000000e-11  7.87711385e-01  8.00000000e-11  7.39204459e-01  8.00000000e-11  9.86774709e-01  8.00000000e-11  2.88000000e-01  8.00000000e-11  1.80012775e+00  8.00000000e-11  7.39204459e-01                                 
 1.60000000e-10  7.86462792e-01  1.60000000e-10  7.38109290e-01  1.60000000e-10  9.89805853e-01  1.60000000e-10  5.76000000e-01  1.60000000e-10  1.80001970e+00  1.60000000e-10  7.38109290e-01                                 
 3.20000000e-10  7.84082273e-01  3.20000000e-10  7.36015162e-01  3.20000000e-10  9.78757593e-01  3.20000000e-10  1.15200000e+00  3.20000000e-10  1.80023053e+00  3.20000000e-10  7.36015162e-01                                 
 5.00000000e-10  7.81579491e-01  5.00000000e-10  7.33803353e-01  5.00000000e-10  1.05281372e+00  5.00000000e-10  1.80000000e+00  5.00000000e-10  1.23057468e-01  5.00000000e-10  7.33803353e-01                                 
 5.20463153e-10  7.81307646e-01  5.20463153e-10  7.33562373e-01  5.20463153e-10  1.07368698e+00  5.20463153e-10  1.80000000e+00  5.20463153e-10  2.78978656e-02  5.20463153e-10  7.33562373e-01                                 
 5.61389459e-10  7.80767671e-01  5.61389459e-10  7.33083295e-01  5.61389459e-10  1.11561389e+00  5.61389459e-10  1.80000000e+00  5.61389459e-10 -1.13317739e-02  5.61389459e-10  7.33083295e-01                                 
 6.43242072e-10  7.79711969e-01  6.43242072e-10  7.32145376e-01  6.43242072e-10  1.19327779e+00  6.43242072e-10  1.80000000e+00  6.43242072e-10  9.79042488e-03  6.43242072e-10  7.32145376e-01                                 
 7.63275006e-10  7.78220468e-01  7.63275006e-10  7.30816780e-01  7.63275006e-10  1.29856178e+00  7.63275006e-10  1.80000000e+00  7.63275006e-10 -7.76860532e-03  7.63275006e-10  7.30816780e-01                                 
 9.43673227e-10  7.76095791e-01  9.43673227e-10  7.28917192e-01  9.43673227e-10  1.43526050e+00  9.43673227e-10  1.80000000e+00  9.43673227e-10  7.74993095e-03  9.43673227e-10  7.28917192e-01                                 
 1.30446967e-09  7.72212965e-01  1.30446967e-09  7.25424421e-01  1.30446967e-09  1.62498094e+00  1.30446967e-09  1.80000000e+00  1.30446967e-09 -6.85308498e-03  1.30446967e-09  7.25424421e-01                                 
 1.77877187e-09  7.67740410e-01  1.77877187e-09  7.21364351e-01  1.77877187e-09  1.74701547e+00  1.77877187e-09  1.80000000e+00  1.77877187e-09  6.89876360e-03  1.77877187e-09  7.21364351e-01                                 
 2.15582471e-09  7.64611537e-01  2.15582471e-09  7.18498522e-01  2.15582471e-09  1.78186274e+00  2.15582471e-09  1.80000000e+00  2.15582471e-09 -6.46375894e-03  2.15582471e-09  7.18498522e-01                                 
 2.58090250e-09  7.61442592e-01  2.58090250e-09  7.15575794e-01  2.58090250e-09  1.79592199e+00  2.58090250e-09  1.80000000e+00  2.58090250e-09  6.26548006e-03  2.58090250e-09  7.15575794e-01                                 
 3.05165379e-09  7.58298872e-01  3.05165379e-09  7.12656538e-01  3.05165379e-09  1.79872393e+00  3.05165379e-09  1.80000000e+00  3.05165379e-09 -6.00957418e-03  3.05165379e-09  7.12656538e-01                                 
 3.81917624e-09  7.53815506e-01  3.81917624e-09  7.08461559e-01  3.81917624e-09  1.79689710e+00  3.81917624e-09  1.80000000e+00  3.81917624e-09  5.89445740e-03  3.81917624e-09  7.08461559e-01                                 
 4.85315220e-09  7.48737978e-01  4.85315220e-09  7.03666629e-01  4.85315220e-09  1.79172177e+00  4.85315220e-09  1.80000000e+00  4.85315220e-09 -5.78120792e-03  4.85315220e-09  7.03666629e-01                                 
 6.81688552e-09  7.41090872e-01  6.81688552e-09  6.96368393e-01  6.81688552e-09  1.78444158e+00  6.81688552e-09  1.80000000e+00  6.81688552e-09  5.74698985e-03  6.81688552e-09  6.96368393e-01                                 
 1.04119629e-08  7.31051673e-01  1.04119629e-08  6.86663246e-01  1.04119629e-08  1.77443903e+00  1.04119629e-08  1.80000000e+00  1.04119629e-08 -5.70196503e-03  1.04119629e-08  6.86663246e-01                                 
 1.61917795e-08  7.20324824e-01  1.61917795e-08  6.76162025e-01  1.61917795e-08  1.76436034e+00  1.61917795e-08  1.80000000e+00  1.61917795e-08  5.70739192e-03  1.61917795e-08  6.76162025e-01                                 
 2.01566600e-08  7.15091984e-01  2.01566600e-08  6.70996136e-01  2.01566600e-08  1.75912897e+00  2.01566600e-08  1.80000000e+00  2.01566600e-08 -5.66109720e-03  2.01566600e-08  6.70996136e-01                                 
 2.17485258e-08  7.13280970e-01  2.17485258e-08  6.69203381e-01  2.17485258e-08  1.75763538e+00  2.17485258e-08  1.80000000e+00  2.17485258e-08  5.62087224e-03  2.17485258e-08  6.69203381e-01                                 
 2.40617214e-08  7.10865301e-01  2.40617214e-08  6.66808888e-01  2.40617214e-08  1.75509726e+00  2.40617214e-08  1.80000000e+00  2.40617214e-08 -5.55881544e-03  2.40617214e-08  6.66808888e-01                                 
 2.64071940e-08  7.08638111e-01  2.64071940e-08  6.64598103e-01  2.64071940e-08  1.75321624e+00  2.64071940e-08  1.80000000e+00  2.64071940e-08  5.53866271e-03  2.64071940e-08  6.64598103e-01                                 
 3.10981392e-08  7.04702890e-01  3.10981392e-08  6.60685464e-01  3.10981392e-08  1.74923972e+00  3.10981392e-08  1.80000000e+00  3.10981392e-08 -5.49796141e-03  3.10981392e-08  6.60685464e-01                                 
 3.53486030e-08  7.01619809e-01  3.53486030e-08  6.57614475e-01  3.53486030e-08  1.74654707e+00  3.53486030e-08  1.80000000e+00  3.53486030e-08  5.49666890e-03  3.53486030e-08  6.57614475e-01                                 
 4.38495305e-08  6.96401488e-01  4.38495305e-08  6.52407333e-01  4.38495305e-08  1.74136287e+00  4.38495305e-08  1.80000000e+00  4.38495305e-08 -5.46465630e-03  4.38495305e-08  6.52407333e-01                                 
 5.34453581e-08  6.91613839e-01  5.34453581e-08  6.47620164e-01  5.34453581e-08  1.73704889e+00  5.34453581e-08  1.80000000e+00  5.34453581e-08  5.47633044e-03  5.34453581e-08  6.47620164e-01                                 
 7.26370134e-08  6.84199142e-01  7.26370134e-08  6.40176301e-01  7.26370134e-08  1.73002854e+00  7.26370134e-08  1.80000000e+00  7.26370134e-08 -5.45004803e-03  7.26370134e-08  6.40176301e-01                                 
 1.00728414e-07  6.76777193e-01  1.00728414e-07  6.32606081e-01  1.00728414e-07  1.72476055e+00  1.00728414e-07  1.80000000e+00  1.00728414e-07  5.46867189e-03  1.00728414e-07  6.32606081e-01                                 
 1.24285476e-07  6.72390540e-01  1.24285476e-07  6.28049051e-01  1.24285476e-07  1.72217683e+00  1.24285476e-07  1.80000000e+00  1.24285476e-07 -5.44260683e-03  1.24285476e-07  6.28049051e-01                                 
 1.48947678e-07  6.68492401e-01  1.48947678e-07  6.24026455e-01  1.48947678e-07  1.72026589e+00  1.48947678e-07  1.80000000e+00  1.48947678e-07  5.46111547e-03  1.48947678e-07  6.24026455e-01                                 
 1.76566775e-07  6.64663450e-01  1.76566775e-07  6.20111680e-01  1.76566775e-07  1.71362249e+00  1.76566775e-07  1.80000000e+00  1.76566775e-07 -5.43569148e-03  1.76566775e-07  6.20111680e-01                                 
 2.02525788e-07  6.60318348e-01  2.02525788e-07  6.15955802e-01  2.02525788e-07  1.69539172e+00  2.02525788e-07  1.80000000e+00  2.02525788e-07  5.45374979e-03  2.02525788e-07  6.15955802e-01                                 
 2.31102678e-07  6.52209593e-01  2.31102678e-07  6.08842432e-01  2.31102678e-07  1.66732784e+00  2.31102678e-07  1.80000000e+00  2.31102678e-07 -5.42947230e-03  2.31102678e-07  6.08842432e-01                                 
 2.61634378e-07  6.42309018e-01  2.61634378e-07  6.00362265e-01  2.61634378e-07  1.61733552e+00  2.61634378e-07  1.80000000e+00  2.61634378e-07  5.44684972e-03  2.61634378e-07  6.00362265e-01                                 
 2.89981799e-07  6.34784416e-01  2.89981799e-07  5.93896145e-01  2.89981799e-07  1.57509155e+00  2.89981799e-07  1.80000000e+00  2.89981799e-07 -5.42300724e-03  2.89981799e-07  5.93896145e-01                                 
 3.16832025e-07  6.40755421e-01  3.16832025e-07  5.98193233e-01  3.16832025e-07  1.57573603e+00  3.16832025e-07  1.80000000e+00  3.16832025e-07  5.44264794e-03  3.16832025e-07  5.98193233e-01                                 
 3.37806491e-07  6.43843558e-01  3.37806491e-07  6.00305104e-01  3.37806491e-07  1.55935004e+00  3.37806491e-07  1.80000000e+00  3.37806491e-07 -5.41631694e-03  3.37806491e-07  6.00305104e-01                                 
 3.58293159e-07  6.38123345e-01  3.58293159e-07  5.95457026e-01  3.58293159e-07  1.53558818e+00  3.58293159e-07  1.80000000e+00  3.58293159e-07  5.43274238e-03  3.58293159e-07  5.95457026e-01                                 
 3.77244775e-07  6.34547383e-01  3.77244775e-07  5.92353568e-01  3.77244775e-07  1.51125497e+00  3.77244775e-07  1.80000000e+00  3.77244775e-07 -5.40713910e-03  3.77244775e-07  5.92353568e-01                                 
 3.97033028e-07  6.30942531e-01  3.97033028e-07  5.89233971e-01  3.97033028e-07  1.49022733e+00  3.97033028e-07  1.80000000e+00  3.97033028e-07  5.42365226e-03  3.97033028e-07  5.89233971e-01                                 
 4.28167449e-07  6.24391077e-01  4.28167449e-07  5.83664833e-01  4.28167449e-07  1.45096405e+00  4.28167449e-07  1.80000000e+00  4.28167449e-07 -5.39986869e-03  4.28167449e-07  5.83664833e-01                                 
 4.71058655e-07  6.15464780e-01  4.71058655e-07  5.76141536e-01  4.71058655e-07  1.40183557e+00  4.71058655e-07  1.80000000e+00  4.71058655e-07  5.41878133e-03  4.71058655e-07  5.76141536e-01                                 
 5.42994873e-07  6.00060268e-01  5.42994873e-07  5.63335215e-01  5.42994873e-07  1.31299960e+00  5.42994873e-07  1.80000000e+00  5.42994873e-07 -5.39677121e-03  5.42994873e-07  5.63335215e-01                                 
 6.52821688e-07  5.68928987e-01  6.52821688e-07  5.38043402e-01  6.52821688e-07  1.17475467e+00  6.52821688e-07  1.80000000e+00  6.52821688e-07  5.41663582e-03  6.52821688e-07  5.38043402e-01                                 
 7.98185316e-07  5.22972082e-01  7.98185316e-07  5.01146514e-01  7.98185316e-07  9.70692747e-01  7.98185316e-07  1.80000000e+00  7.98185316e-07 -5.39548320e-03  7.98185316e-07  5.01146514e-01                                 
 8.17014544e-07  5.17762369e-01  8.17014544e-07  4.96986485e-01  8.17014544e-07  9.51387973e-01  8.17014544e-07  1.80000000e+00  8.17014544e-07 -1.71730974e-06  8.17014544e-07  4.96986485e-01                                 
 8.54672999e-07  5.25854712e-01  8.54672999e-07  5.03486649e-01  8.54672999e-07  9.27624876e-01  8.54672999e-07  1.80000000e+00  8.54672999e-07  1.67925212e-06  8.54672999e-07  5.03486649e-01                                 
 9.29989908e-07  7.92709065e-01  9.29989908e-07  7.42362676e-01  9.29989908e-07  1.10953635e+00  9.29989908e-07  1.80000000e+00  9.29989908e-07  8.54596538e-06  9.29989908e-07  7.42362676e-01                                 
 9.99657828e-07  8.78411429e-01  9.99657828e-07  8.18940359e-01  9.99657828e-07  1.12759530e+00  9.99657828e-07  1.80000000e+00  9.99657828e-07 -4.60441584e-06  9.99657828e-07  8.18940359e-01                                 
 1.00751189e-06  8.87494313e-01  1.00751189e-06  8.25453595e-01  1.00751189e-06  1.12470916e+00  1.00751189e-06  1.80000000e+00  1.00751189e-06  1.26838934e-06  1.00751189e-06  8.25453595e-01                                 
 1.02322001e-06  9.07250526e-01  1.02322001e-06  8.38632175e-01  1.02322001e-06  1.12538276e+00  1.02322001e-06  1.80000000e+00  1.02322001e-06  1.95774401e-06  1.02322001e-06  8.38632175e-01                                 
 1.05077550e-06  9.48892261e-01  1.05077550e-06  8.62573687e-01  1.05077550e-06  1.13348668e+00  1.05077550e-06  1.80000000e+00  1.05077550e-06  1.81407670e-06  1.05077550e-06  8.62573687e-01                                 
 1.07860211e-06  9.74181342e-01  1.07860211e-06  8.75092559e-01  1.07860211e-06  1.12856582e+00  1.07860211e-06  1.80000000e+00  1.07860211e-06  4.68229951e-08  1.07860211e-06  8.75092559e-01                                 
 1.10952173e-06  9.66814949e-01  1.10952173e-06  8.71848127e-01  1.10952173e-06  1.09067553e+00  1.10952173e-06  1.80000000e+00  1.10952173e-06 -1.51164539e-06  1.10952173e-06  8.71848127e-01                                 
 1.13833851e-06  9.68728207e-01  1.13833851e-06  8.72483317e-01  1.13833851e-06  1.05940957e+00  1.13833851e-06  1.80000000e+00  1.13833851e-06  7.10786697e-07  1.13833851e-06  8.72483317e-01                                 
 1.16840920e-06  9.69551358e-01  1.16840920e-06  8.73133708e-01  1.16840920e-06  1.06022659e+00  1.16840920e-06  1.80000000e+00  1.16840920e-06 -1.93459703e-07  1.16840920e-06  8.73133708e-01                                 
 1.21209625e-06  9.66715080e-01  1.21209625e-06  8.71574221e-01  1.21209625e-06  1.04658787e+00  1.21209625e-06  1.80000000e+00  1.21209625e-06 -1.33848114e-07  1.21209625e-06  8.71574221e-01                                 
 1.25663422e-06  9.68505555e-01  1.25663422e-06  8.72603057e-01  1.25663422e-06  1.01434310e+00  1.25663422e-06  1.80000000e+00  1.25663422e-06 -4.11811582e-07  1.25663422e-06  8.72603057e-01                                 
 1.31256781e-06  9.65143035e-01  1.31256781e-06  8.70863118e-01  1.31256781e-06  1.00189932e+00  1.31256781e-06  1.80000000e+00  1.31256781e-06  2.55836455e-07  1.31256781e-06  8.70863118e-01                                 
 1.37361038e-06  9.66485053e-01  1.37361038e-06  8.71619989e-01  1.37361038e-06  9.67894361e-01  1.37361038e-06  1.80000000e+00  1.37361038e-06 -6.66866432e-07  1.37361038e-06  8.71619989e-01                                 
 1.44144920e-06  9.63379195e-01  1.44144920e-06  8.70040196e-01  1.44144920e-06  9.50709265e-01  1.44144920e-06  1.80000000e+00  1.44144920e-06  4.97489795e-07  1.44144920e-06  8.70040196e-01                                 
 1.52635074e-06  9.64049607e-01  1.52635074e-06  8.70438466e-01  1.52635074e-06  9.22535631e-01  1.52635074e-06  1.80000000e+00  1.52635074e-06 -6.99122452e-07  1.52635074e-06  8.70438466e-01                                 
 1.63395891e-06  9.60800996e-01  1.63395891e-06  8.68801356e-01  1.63395891e-06  9.01112918e-01  1.63395891e-06  1.80000000e+00  1.63395891e-06  5.86180330e-07  1.63395891e-06  8.68801356e-01                                 
 1.80098829e-06  9.60151773e-01  1.80098829e-06  8.68538206e-01  1.80098829e-06  8.78532007e-01  1.80098829e-06  1.80000000e+00  1.80098829e-06 -6.31085369e-07  1.80098829e-06  8.68538206e-01                                 
 2.01342948e-06  9.55779868e-01  2.01342948e-06  8.66321073e-01  2.01342948e-06  8.68515387e-01  2.01342948e-06  1.80000000e+00  2.01342948e-06  6.29578526e-07  2.01342948e-06  8.66321073e-01                                 
 2.30310216e-06  9.53503345e-01  2.30310216e-06  8.65220746e-01  2.30310216e-06  8.64065423e-01  2.30310216e-06  1.80000000e+00  2.30310216e-06 -6.00010099e-07  2.30310216e-06  8.65220746e-01                                 
 2.67201919e-06  9.47287765e-01  2.67201919e-06  8.61973538e-01  2.67201919e-06  8.61666140e-01  2.67201919e-06  1.80000000e+00  2.67201919e-06  6.24144241e-07  2.67201919e-06  8.61973538e-01                                 
 3.10971467e-06  9.42902398e-01  3.10971467e-06  8.59700820e-01  3.10971467e-06  8.58828821e-01  3.10971467e-06  1.80000000e+00  3.10971467e-06 -5.91931206e-07  3.10971467e-06  8.59700820e-01                                 
 3.20709708e-06  9.40811929e-01  3.20709708e-06  8.58555426e-01  3.20709708e-06  8.57836631e-01  3.20709708e-06  1.80000000e+00  3.20709708e-06  5.91398699e-09  3.20709708e-06  8.58555426e-01                                 
 3.40186190e-06  9.37905244e-01  3.40186190e-06  8.56971055e-01  3.40186190e-06  8.56426522e-01  3.40186190e-06  1.80000000e+00  3.40186190e-06  1.75199263e-08  3.40186190e-06  8.56971055e-01                                 
 3.79139155e-06  9.30278285e-01  3.79139155e-06  8.52714165e-01  3.79139155e-06  8.51866098e-01  3.79139155e-06  1.80000000e+00  3.79139155e-06 -9.34848619e-09  3.79139155e-06  8.52714165e-01                                 
 3.85889479e-06  9.28416984e-01  3.85889479e-06  8.51649271e-01  3.85889479e-06  8.50804767e-01  3.85889479e-06  1.80000000e+00  3.85889479e-06 -6.71933331e-09  3.85889479e-06  8.51649271e-01                                 
 3.99390128e-06  9.24049008e-01  3.99390128e-06  8.49113966e-01  3.99390128e-06  8.48103731e-01  3.99390128e-06  1.80000000e+00  3.99390128e-06 -2.22959102e-08  3.99390128e-06  8.49113966e-01                                 
 4.18899923e-06  9.11999399e-01  4.18899923e-06  8.41833097e-01  4.18899923e-06  8.40109294e-01  4.18899923e-06  1.80000000e+00  4.18899923e-06 -9.49710869e-08  4.18899923e-06  8.41833097e-01                                 
 4.23777372e-06  9.05888577e-01  4.23777372e-06  8.37971884e-01  4.23777372e-06  8.35834194e-01  4.23777372e-06  1.80000000e+00  4.23777372e-06 -1.55998867e-07  4.23777372e-06  8.37971884e-01                                 
 4.33532269e-06  8.81491203e-01  4.33532269e-06  8.21315961e-01  4.33532269e-06  8.17596124e-01  4.33532269e-06  1.80000000e+00  4.33532269e-06 -5.60701985e-07  4.33532269e-06  8.21315961e-01                                 
 4.35502292e-06  8.72058087e-01  4.35502292e-06  8.14281600e-01  4.35502292e-06  8.10221528e-01  4.35502292e-06  1.80000000e+00  4.35502292e-06 -7.47918638e-07  4.35502292e-06  8.14281600e-01                                 
 4.39442337e-06  8.52045795e-01  4.39442337e-06  7.98162589e-01  4.39442337e-06  7.94379945e-01  4.39442337e-06  1.80000000e+00  4.39442337e-06 -8.99509276e-07  4.39442337e-06  7.98162589e-01                                 
 4.46221913e-06  8.32412306e-01  4.46221913e-06  7.80907779e-01  4.46221913e-06  7.79689515e-01  4.46221913e-06  1.80000000e+00  4.46221913e-06 -3.82636109e-08  4.46221913e-06  7.80907779e-01                                 
 4.52693298e-06  8.35674530e-01  4.52693298e-06  7.83836847e-01  4.52693298e-06  7.83799320e-01  4.52693298e-06  1.80000000e+00  4.52693298e-06  2.87317959e-07  4.52693298e-06  7.83836847e-01                                 
 4.61403604e-06  8.37237736e-01  4.61403604e-06  7.85263270e-01  4.61403604e-06  7.85196269e-01  4.61403604e-06  1.80000000e+00  4.61403604e-06 -1.59225958e-07  4.61403604e-06  7.85263270e-01                                 
