 time            v(vbep)         time            v(vben)         time            v(vout)         time            v(vphi1)        time            v(vphi2)        time            v(vref)         yes             currtemp       
 0.00000000e+00  7.48378753e-01  0.00000000e+00  7.00969166e-01  0.00000000e+00  7.13394276e-02  0.00000000e+00  0.00000000e+00  0.00000000e+00  1.79997695e+00  0.00000000e+00  5.00000000e-01  1.00000000e+00 -1.40000000e+01 
 5.00000000e-12  7.48364269e-01  5.00000000e-12  7.00957087e-01  5.00000000e-12  7.17813723e-02  5.00000000e-12  1.80000000e-02  5.00000000e-12  1.80005333e+00  5.00000000e-12  5.00000000e-01                                 
 1.00000000e-11  7.48349984e-01  1.00000000e-11  7.00945247e-01  1.00000000e-11  7.21763545e-02  1.00000000e-11  3.60000000e-02  1.00000000e-11  1.80009013e+00  1.00000000e-11  5.00000000e-01                                 
 2.00000000e-11  7.48321516e-01  2.00000000e-11  7.00921631e-01  2.00000000e-11  7.28992965e-02  2.00000000e-11  7.20000000e-02  2.00000000e-11  1.80012287e+00  2.00000000e-11  5.00000000e-01                                 
 4.00000000e-11  7.48264761e-01  4.00000000e-11  7.00874515e-01  4.00000000e-11  7.40327255e-02  4.00000000e-11  1.44000000e-01  4.00000000e-11  1.80010247e+00  4.00000000e-11  5.00000000e-01                                 
 8.00000000e-11  7.48151585e-01  8.00000000e-11  7.00780523e-01  8.00000000e-11  7.55671968e-02  8.00000000e-11  2.88000000e-01  8.00000000e-11  1.80006074e+00  8.00000000e-11  5.00000000e-01                                 
 1.60000000e-10  7.47926665e-01  1.60000000e-10  7.00593518e-01  1.60000000e-10  7.74991293e-02  1.60000000e-10  5.76000000e-01  1.60000000e-10  1.80002317e+00  1.60000000e-10  5.00000000e-01                                 
 3.20000000e-10  7.47482418e-01  3.20000000e-10  7.00223395e-01  3.20000000e-10  1.15185464e-01  3.20000000e-10  1.15200000e+00  3.20000000e-10  1.79988488e+00  3.20000000e-10  5.00000000e-01                                 
 5.00000000e-10  7.46991515e-01  5.00000000e-10  6.99813204e-01  5.00000000e-10  4.95685793e-01  5.00000000e-10  1.80000000e+00  5.00000000e-10  9.52475054e-02  5.00000000e-10  5.00000000e-01                                 
 5.20949311e-10  7.46935051e-01  5.20949311e-10  6.99765934e-01  5.20949311e-10  5.64736657e-01  5.20949311e-10  1.80000000e+00  5.20949311e-10  1.64363657e-02  5.20949311e-10  5.00000000e-01                                 
 5.62847933e-10  7.46822362e-01  5.62847933e-10  6.99671563e-01  5.62847933e-10  6.87575815e-01  5.62847933e-10  1.80000000e+00  5.62847933e-10 -7.89397879e-03  5.62847933e-10  5.00000000e-01                                 
 6.46645178e-10  7.46598451e-01  6.46645178e-10  6.99483857e-01  6.46645178e-10  8.71430710e-01  6.46645178e-10  1.80000000e+00  6.46645178e-10  6.90301341e-03  6.46645178e-10  5.00000000e-01                                 
 7.70784898e-10  7.46270291e-01  7.70784898e-10  6.99208295e-01  7.70784898e-10  1.07555224e+00  7.70784898e-10  1.80000000e+00  7.70784898e-10 -6.11364532e-03  7.70784898e-10  5.00000000e-01                                 
 9.59365129e-10  7.45779685e-01  9.59365129e-10  6.98795309e-01  9.59365129e-10  1.32642313e+00  9.59365129e-10  1.80000000e+00  9.59365129e-10  5.82843861e-03  9.59365129e-10  5.00000000e-01                                 
 1.32834457e-09  7.44846077e-01  1.32834457e-09  6.98006109e-01  1.32834457e-09  1.66844685e+00  1.32834457e-09  1.80000000e+00  1.32834457e-09 -5.55339392e-03  1.32834457e-09  5.00000000e-01                                 
 1.99650605e-09  7.43237255e-01  1.99650605e-09  6.96636279e-01  1.99650605e-09  1.89693681e+00  1.99650605e-09  1.80000000e+00  1.99650605e-09  5.52757086e-03  1.99650605e-09  5.00000000e-01                                 
 2.24244105e-09  7.42670195e-01  2.24244105e-09  6.96150411e-01  2.24244105e-09  1.91299217e+00  2.24244105e-09  1.80000000e+00  2.24244105e-09 -5.19952786e-03  2.24244105e-09  5.00000000e-01                                 
 2.54866935e-09  7.41981324e-01  2.54866935e-09  6.95558159e-01  2.54866935e-09  1.91995831e+00  2.54866935e-09  1.80000000e+00  2.54866935e-09  5.04928450e-03  2.54866935e-09  5.00000000e-01                                 
 2.89595226e-09  7.41222030e-01  2.89595226e-09  6.94902838e-01  2.89595226e-09  1.92470979e+00  2.89595226e-09  1.80000000e+00  2.89595226e-09 -4.83741743e-03  2.89595226e-09  5.00000000e-01                                 
 3.59051807e-09  7.39767643e-01  3.59051807e-09  6.93640528e-01  3.59051807e-09  1.93051269e+00  3.59051807e-09  1.80000000e+00  3.59051807e-09  4.79275544e-03  3.59051807e-09  5.00000000e-01                                 
 4.79969271e-09  7.37416466e-01  4.79969271e-09  6.91581069e-01  4.79969271e-09  1.92836255e+00  4.79969271e-09  1.80000000e+00  4.79969271e-09 -4.71705538e-03  4.79969271e-09  5.00000000e-01                                 
 7.04745091e-09  7.33540413e-01  7.04745091e-09  6.88139477e-01  7.04745091e-09  1.91492255e+00  7.04745091e-09  1.80000000e+00  7.04745091e-09  4.72520814e-03  7.04745091e-09  5.00000000e-01                                 
 9.17721071e-09  7.30343417e-01  9.17721071e-09  6.85259062e-01  9.17721071e-09  1.90428358e+00  9.17721071e-09  1.80000000e+00  9.17721071e-09 -4.66501449e-03  9.17721071e-09  5.00000000e-01                                 
 1.05345119e-08  7.28497495e-01  1.05345119e-08  6.83580328e-01  1.05345119e-08  1.89859425e+00  1.05345119e-08  1.80000000e+00  1.05345119e-08  4.65171822e-03  1.05345119e-08  5.00000000e-01                                 
 1.26015599e-08  7.25918227e-01  1.26015599e-08  6.81217751e-01  1.26015599e-08  1.89120363e+00  1.26015599e-08  1.80000000e+00  1.26015599e-08 -4.60131771e-03  1.26015599e-08  5.00000000e-01                                 
 1.50171622e-08  7.23209318e-01  1.50171622e-08  6.78715382e-01  1.50171622e-08  1.88361226e+00  1.50171622e-08  1.80000000e+00  1.50171622e-08  4.59970854e-03  1.50171622e-08  5.00000000e-01                                 
 1.89923969e-08  7.19337445e-01  1.89923969e-08  6.75100801e-01  1.89923969e-08  1.87322563e+00  1.89923969e-08  1.80000000e+00  1.89923969e-08 -4.56633930e-03  1.89923969e-08  5.00000000e-01                                 
 2.36999376e-08  7.15519900e-01  2.36999376e-08  6.71487025e-01  2.36999376e-08  1.86303616e+00  2.36999376e-08  1.80000000e+00  2.36999376e-08  4.57394081e-03  2.36999376e-08  5.00000000e-01                                 
 3.20835578e-08  7.10112386e-01  3.20835578e-08  6.66283969e-01  3.20835578e-08  1.84845819e+00  3.20835578e-08  1.80000000e+00  3.20835578e-08 -4.54837427e-03  3.20835578e-08  5.00000000e-01                                 
 4.55143690e-08  7.03475972e-01  4.55143690e-08  6.59815091e-01  4.55143690e-08  1.82876143e+00  4.55143690e-08  1.80000000e+00  4.55143690e-08  4.56351098e-03  4.55143690e-08  5.00000000e-01                                 
 7.23759913e-08  6.93733218e-01  7.23759913e-08  6.50264402e-01  7.23759913e-08  1.79424998e+00  7.23759913e-08  1.80000000e+00  7.23759913e-08 -4.54238320e-03  7.23759913e-08  5.00000000e-01                                 
 1.18551957e-07  6.82805793e-01  1.18551957e-07  6.39441216e-01  1.18551957e-07  1.74238630e+00  1.18551957e-07  1.80000000e+00  1.18551957e-07  4.56045215e-03  1.18551957e-07  5.00000000e-01                                 
 1.63166712e-07  6.73954587e-01  1.63166712e-07  6.30964890e-01  1.63166712e-07  1.69337241e+00  1.63166712e-07  1.80000000e+00  1.63166712e-07 -4.53999286e-03  1.63166712e-07  5.00000000e-01                                 
 2.42823671e-07  6.59143398e-01  2.42823671e-07  6.17331327e-01  2.42823671e-07  1.60449705e+00  2.42823671e-07  1.80000000e+00  2.42823671e-07  4.55858735e-03  2.42823671e-07  5.00000000e-01                                 
 3.24338659e-07  6.46819296e-01  3.24338659e-07  6.06198376e-01  3.24338659e-07  1.51421438e+00  3.24338659e-07  1.80000000e+00  3.24338659e-07 -4.53861364e-03  3.24338659e-07  5.00000000e-01                                 
 4.52925224e-07  6.29112933e-01  4.52925224e-07  5.90653231e-01  4.52925224e-07  1.37049824e+00  4.52925224e-07  1.80000000e+00  4.52925224e-07  4.55752989e-03  4.52925224e-07  5.00000000e-01                                 
 7.10098354e-07  5.95888569e-01  7.10098354e-07  5.62556479e-01  7.10098354e-07  1.07699735e+00  7.10098354e-07  1.80000000e+00  7.10098354e-07 -4.53801685e-03  7.10098354e-07  5.00000000e-01                                 
 7.67134501e-07  5.88648803e-01  7.67134501e-07  5.56604698e-01  7.67134501e-07  1.00677092e+00  7.67134501e-07  1.80000000e+00  7.67134501e-07 -2.47429191e-07  7.67134501e-07  5.00000000e-01                                 
 8.81206794e-07  5.74028691e-01  8.81206794e-07  5.44641177e-01  8.81206794e-07  8.95764583e-01  8.81206794e-07  1.80000000e+00  8.81206794e-07  1.95108790e-07  8.81206794e-07  5.00000000e-01                                 
 9.97646676e-07  5.59355073e-01  9.97646676e-07  5.32721574e-01  9.97646676e-07  8.01984934e-01  9.97646676e-07  1.80000000e+00  9.97646676e-07 -2.43654354e-07  9.97646676e-07  5.00000000e-01                                 
 1.12140166e-06  5.45568048e-01  1.12140166e-06  5.21566588e-01  1.12140166e-06  7.23658119e-01  1.12140166e-06  1.80000000e+00  1.12140166e-06  2.04107010e-07  1.12140166e-06  5.00000000e-01                                 
 1.15234040e-06  5.43359276e-01  1.15234040e-06  5.19777376e-01  1.15234040e-06  7.08648687e-01  1.15234040e-06  1.80000000e+00  1.15234040e-06 -5.70330764e-09  1.15234040e-06  5.00000000e-01                                 
 1.21421789e-06  5.41551058e-01  1.21421789e-06  5.18291269e-01  1.21421789e-06  6.81518374e-01  1.21421789e-06  1.80000000e+00  1.21421789e-06  2.37548105e-08  1.21421789e-06  5.00000000e-01                                 
 1.22968726e-06  5.42427481e-01  1.22968726e-06  5.18984188e-01  1.22968726e-06  6.76166981e-01  1.22968726e-06  1.80000000e+00  1.22968726e-06  3.89805538e-08  1.22968726e-06  5.00000000e-01                                 
 1.26062601e-06  5.45801101e-01  1.26062601e-06  5.21667733e-01  1.26062601e-06  6.67019903e-01  1.26062601e-06  1.80000000e+00  1.26062601e-06  7.56842528e-08  1.26062601e-06  5.00000000e-01                                 
 1.32250350e-06  5.72532042e-01  1.32250350e-06  5.43020848e-01  1.32250350e-06  6.66771864e-01  1.32250350e-06  1.80000000e+00  1.32250350e-06  2.67469375e-07  1.32250350e-06  5.00000000e-01                                 
 1.38086560e-06  7.10405678e-01  1.38086560e-06  6.56516558e-01  1.38086560e-06  7.64134316e-01  1.38086560e-06  1.80000000e+00  1.38086560e-06  1.58786756e-06  1.38086560e-06  5.00000000e-01                                 
 1.44453582e-06  8.18741196e-01  1.44453582e-06  7.69488522e-01  1.44453582e-06  8.21254755e-01  1.44453582e-06  1.80000000e+00  1.44453582e-06  2.77383389e-07  1.44453582e-06  5.00000000e-01                                 
 1.51702304e-06  8.98829849e-01  1.51702304e-06  8.37251244e-01  1.51702304e-06  8.36274092e-01  1.51702304e-06  1.80000000e+00  1.51702304e-06  9.37873683e-07  1.51702304e-06  5.00000000e-01                                 
 1.52357855e-06  9.08086774e-01  1.52357855e-06  8.43413235e-01  1.52357855e-06  8.39328615e-01  1.52357855e-06  1.80000000e+00  1.52357855e-06  7.94678814e-07  1.52357855e-06  5.00000000e-01                                 
 1.53668958e-06  9.27763277e-01  1.53668958e-06  8.55632153e-01  1.53668958e-06  8.44325498e-01  1.53668958e-06  1.80000000e+00  1.53668958e-06  7.36340738e-07  1.53668958e-06  5.00000000e-01                                 
 1.55622994e-06  9.46393234e-01  1.55622994e-06  8.66349550e-01  1.55622994e-06  8.44302615e-01  1.55622994e-06  1.80000000e+00  1.55622994e-06  3.36775746e-07  1.55622994e-06  5.00000000e-01                                 
 1.57866350e-06  9.40248924e-01  1.57866350e-06  8.63220394e-01  1.57866350e-06  8.25821884e-01  1.57866350e-06  1.80000000e+00  1.57866350e-06 -3.29512053e-07  1.57866350e-06  5.00000000e-01                                 
 1.60095574e-06  9.40037933e-01  1.60095574e-06  8.62795714e-01  1.60095574e-06  8.10343332e-01  1.60095574e-06  1.80000000e+00  1.60095574e-06  2.84365322e-07  1.60095574e-06  5.00000000e-01                                 
 1.62157730e-06  9.42976767e-01  1.62157730e-06  8.64652865e-01  1.62157730e-06  8.01091860e-01  1.62157730e-06  1.80000000e+00  1.62157730e-06 -6.00356375e-08  1.62157730e-06  5.00000000e-01                                 
 1.65482269e-06  9.39166824e-01  1.65482269e-06  8.62407304e-01  1.65482269e-06  7.79335549e-01  1.65482269e-06  1.80000000e+00  1.65482269e-06  3.36062633e-08  1.65482269e-06  5.00000000e-01                                 
 1.68830086e-06  9.41110559e-01  1.68830086e-06  8.63564972e-01  1.68830086e-06  7.63901529e-01  1.68830086e-06  1.80000000e+00  1.68830086e-06  5.64582201e-08  1.68830086e-06  5.00000000e-01                                 
 1.72795599e-06  9.38420154e-01  1.72795599e-06  8.62032325e-01  1.72795599e-06  7.42975533e-01  1.72795599e-06  1.80000000e+00  1.72795599e-06 -4.77996164e-08  1.72795599e-06  5.00000000e-01                                 
 1.78181790e-06  9.39069797e-01  1.78181790e-06  8.62402574e-01  1.78181790e-06  7.19397920e-01  1.78181790e-06  1.80000000e+00  1.78181790e-06  9.23051638e-08  1.78181790e-06  5.00000000e-01                                 
 1.84699047e-06  9.36678140e-01  1.84699047e-06  8.61065172e-01  1.84699047e-06  6.90557025e-01  1.84699047e-06  1.80000000e+00  1.84699047e-06 -7.21410709e-08  1.84699047e-06  5.00000000e-01                                 
 1.94320817e-06  9.35987888e-01  1.94320817e-06  8.60654076e-01  1.94320817e-06  6.52184488e-01  1.94320817e-06  1.80000000e+00  1.94320817e-06  9.98801438e-08  1.94320817e-06  5.00000000e-01                                 
 2.07742219e-06  9.32228301e-01  2.07742219e-06  8.58520611e-01  2.07742219e-06  6.01081474e-01  2.07742219e-06  1.80000000e+00  2.07742219e-06 -8.13860111e-08  2.07742219e-06  5.00000000e-01                                 
 2.27496796e-06  9.27716726e-01  2.27496796e-06  8.55843934e-01  2.27496796e-06  5.39148410e-01  2.27496796e-06  1.80000000e+00  2.27496796e-06  9.86811885e-08  2.27496796e-06  5.00000000e-01                                 
 2.31337735e-06  9.25974117e-01  2.31337735e-06  8.54822499e-01  2.31337735e-06  5.31085970e-01  2.31337735e-06  1.80000000e+00  2.31337735e-06  8.18801745e-09  2.31337735e-06  5.00000000e-01                                 
 2.39019614e-06  9.22880366e-01  2.39019614e-06  8.52952293e-01  2.39019614e-06  5.18246067e-01  2.39019614e-06  1.80000000e+00  2.39019614e-06  2.17818473e-09  2.39019614e-06  5.00000000e-01                                 
 2.54383373e-06  9.13553108e-01  2.54383373e-06  8.47139503e-01  2.54383373e-06  5.02003197e-01  2.54383373e-06  1.80000000e+00  2.54383373e-06 -2.38714586e-08  2.54383373e-06  5.00000000e-01                                 
 2.57476670e-06  9.10619428e-01  2.57476670e-06  8.45250018e-01  2.57476670e-06  4.99114985e-01  2.57476670e-06  1.80000000e+00  2.57476670e-06 -3.24408061e-08  2.57476670e-06  5.00000000e-01                                 
 2.63663265e-06  9.03438002e-01  2.63663265e-06  8.40501038e-01  2.63663265e-06  4.92168211e-01  2.63663265e-06  1.80000000e+00  2.63663265e-06 -5.81110571e-08  2.63663265e-06  5.00000000e-01                                 
 2.76036453e-06  8.72400660e-01  2.76036453e-06  8.17727833e-01  2.76036453e-06  4.66547278e-01  2.76036453e-06  1.80000000e+00  2.76036453e-06 -1.86672728e-07  2.76036453e-06  5.00000000e-01                                 
 2.85207627e-06  8.47591664e-01  2.85207627e-06  7.96684551e-01  2.85207627e-06  4.64878869e-01  2.85207627e-06  1.80000000e+00  2.85207627e-06 -8.26627483e-08  2.85207627e-06  5.00000000e-01                                 
 2.95156225e-06  8.42639581e-01  2.95156225e-06  7.92262969e-01  2.95156225e-06  4.83659450e-01  2.95156225e-06  1.80000000e+00  2.95156225e-06  4.65343885e-08  2.95156225e-06  5.00000000e-01                                 
 3.06306508e-06  8.45291572e-01  3.06306508e-06  7.94616606e-01  3.06306508e-06  4.94182948e-01  3.06306508e-06  1.80000000e+00  3.06306508e-06  1.92807018e-08  3.06306508e-06  5.00000000e-01                                 
 3.19165417e-06  8.44073340e-01  3.19165417e-06  7.93562932e-01  3.19165417e-06  4.98549545e-01  3.19165417e-06  1.80000000e+00  3.19165417e-06  8.98031747e-09  3.19165417e-06  5.00000000e-01                                 
 3.36806213e-06  8.44403471e-01  3.36806213e-06  7.93815822e-01  3.36806213e-06  5.02062678e-01  3.36806213e-06  1.80000000e+00  3.36806213e-06  3.09920732e-08  3.36806213e-06  5.00000000e-01                                 
 3.69483018e-06  8.44468513e-01  3.69483018e-06  7.93919030e-01  3.69483018e-06  5.00156798e-01  3.69483018e-06  1.80000000e+00  3.69483018e-06  8.52082055e-09  3.69483018e-06  5.00000000e-01                                 
 4.02974020e-06  8.44223748e-01  4.02974020e-06  7.93654006e-01  4.02974020e-06  4.99535516e-01  4.02974020e-06  1.80000000e+00  4.02974020e-06  2.97591676e-08  4.02974020e-06  5.00000000e-01                                 
 4.55330594e-06  8.44581960e-01  4.55330594e-06  7.94020843e-01  4.55330594e-06  5.00359725e-01  4.55330594e-06  1.80000000e+00  4.55330594e-06  1.02065135e-08  4.55330594e-06  5.00000000e-01                                 
 5.55330594e-06  8.44172440e-01  5.55330594e-06  7.93607944e-01  5.55330594e-06  5.00007636e-01  5.55330594e-06  1.80000000e+00  5.55330594e-06  2.84436856e-08  5.55330594e-06  5.00000000e-01                                 
 6.55330594e-06  8.44611050e-01  6.55330594e-06  7.94046854e-01  6.55330594e-06  5.00178249e-01  6.55330594e-06  1.80000000e+00  6.55330594e-06  1.12192816e-08  6.55330594e-06  5.00000000e-01                                 
 7.55330594e-06  8.44147675e-01  7.55330594e-06  7.93585777e-01  7.55330594e-06  4.99978410e-01  7.55330594e-06  1.80000000e+00  7.55330594e-06  2.73817131e-08  7.55330594e-06  5.00000000e-01                                 
 8.55330594e-06  8.44632061e-01  8.55330594e-06  7.94065576e-01  8.55330594e-06  5.00335703e-01  8.55330594e-06  1.80000000e+00  8.55330594e-06  1.23204362e-08  8.55330594e-06  5.00000000e-01                                 
 9.55330594e-06  8.44130222e-01  9.55330594e-06  7.93570222e-01  9.55330594e-06  4.99797803e-01  9.55330594e-06  1.80000000e+00  9.55330594e-06  2.62466756e-08  9.55330594e-06  5.00000000e-01                                 
 1.00005000e-05  8.44651898e-01  1.00005000e-05  7.94083104e-01  1.00005000e-05  5.00490139e-01  1.00005000e-05  1.80000000e+00  1.00005000e-05  1.42277975e-08  1.00005000e-05  5.00000000e-01                                 
 1.00005500e-05  8.44643162e-01  1.00005500e-05  7.94073280e-01  1.00005500e-05  4.92479588e-01  1.00005500e-05  1.62000000e+00  1.00005500e-05 -6.49847391e-05  1.00005500e-05  5.00000000e-01                                 
 1.00006500e-05  8.44624374e-01  1.00006500e-05  7.94054384e-01  1.00006500e-05  4.78960398e-01  1.00006500e-05  1.26000000e+00  1.00006500e-05 -4.43015129e-05  1.00006500e-05  5.00000000e-01                                 
 1.00008500e-05  8.44592404e-01  1.00008500e-05  7.94023150e-01  1.00008500e-05  4.78863381e-01  1.00008500e-05  5.40000000e-01  1.00008500e-05 -2.33568800e-04  1.00008500e-05  5.00000000e-01                                 
 1.00010000e-05  8.44574044e-01  1.00010000e-05  7.94004546e-01  1.00010000e-05  4.43847966e-01  1.00010000e-05  0.00000000e+00  1.00010000e-05  1.54555568e+00  1.00010000e-05  5.00000000e-01                                 
