 time            v(vbep)         time            v(vben)         time            v(vout)         time            v(vphi1)        time            v(vphi2)        time            v(vref)         time            v(voutc)        time            v(voutcc)       yes             currtemp       
 0.00000000e+00  7.26700661e-01  0.00000000e+00  6.58965992e-01  0.00000000e+00  1.50427545e+00  0.00000000e+00  0.00000000e+00  0.00000000e+00  1.79999999e+00  0.00000000e+00  6.59852239e-01  0.00000000e+00  1.50427543e+00  0.00000000e+00  1.51176127e+00  1.00000000e+00  6.50000000e+01 
 5.00000000e-12  7.26722304e-01  5.00000000e-12  6.59020410e-01  5.00000000e-12  1.50489142e+00  5.00000000e-12  1.80000000e-02  5.00000000e-12  1.80018614e+00  5.00000000e-12  6.60243107e-01  5.00000000e-12  1.50462273e+00  5.00000000e-12  1.51177439e+00                                 
 1.00000000e-11  7.26731793e-01  1.00000000e-11  6.59056088e-01  1.00000000e-11  1.50533103e+00  1.00000000e-11  3.60000000e-02  1.00000000e-11  1.80027008e+00  1.00000000e-11  6.60549633e-01  1.00000000e-11  1.50489630e+00  1.00000000e-11  1.51178115e+00                                 
 2.00000000e-11  7.26738107e-01  2.00000000e-11  6.59105515e-01  2.00000000e-11  1.50595772e+00  2.00000000e-11  7.20000000e-02  2.00000000e-11  1.80032266e+00  2.00000000e-11  6.61028909e-01  2.00000000e-11  1.50532703e+00  2.00000000e-11  1.51178726e+00                                 
 4.00000000e-11  7.26726157e-01  4.00000000e-11  6.59140930e-01  4.00000000e-11  1.50635295e+00  4.00000000e-11  1.44000000e-01  4.00000000e-11  1.80019021e+00  4.00000000e-11  6.61488749e-01  4.00000000e-11  1.50575318e+00  4.00000000e-11  1.51178090e+00                                 
 8.00000000e-11  7.26713017e-01  8.00000000e-11  6.59146240e-01  8.00000000e-11  1.50620310e+00  8.00000000e-11  2.88000000e-01  8.00000000e-11  1.80003079e+00  8.00000000e-11  6.61631856e-01  8.00000000e-11  1.50591424e+00  8.00000000e-11  1.51176682e+00                                 
 1.60000000e-10  7.26713210e-01  1.60000000e-10  6.59132227e-01  1.60000000e-10  1.50570835e+00  1.60000000e-10  5.76000000e-01  1.60000000e-10  1.80000829e+00  1.60000000e-10  6.61438039e-01  1.60000000e-10  1.50576544e+00  1.60000000e-10  1.51176112e+00                                 
 3.20000000e-10  7.26645805e-01  3.20000000e-10  6.58688838e-01  3.20000000e-10  1.50215746e+00  3.20000000e-10  1.15200000e+00  3.20000000e-10  1.80072866e+00  3.20000000e-10  6.57609209e-01  3.20000000e-10  1.50264379e+00  3.20000000e-10  1.51173183e+00                                 
 5.00000000e-10  7.26702335e-01  5.00000000e-10  6.59197134e-01  5.00000000e-10  1.49969969e+00  5.00000000e-10  1.80000000e+00  5.00000000e-10  1.73036284e-01  5.00000000e-10  6.64996827e-01  5.00000000e-10  1.50909164e+00  5.00000000e-10  1.51182914e+00                                 
 5.21509350e-10  7.26706804e-01  5.21509350e-10  6.59222500e-01  5.21509350e-10  1.49900634e+00  5.21509350e-10  1.80000000e+00  5.21509350e-10  4.75693781e-02  5.21509350e-10  6.66701990e-01  5.21509350e-10  1.51004096e+00  5.21509350e-10  1.51181590e+00                                 
 5.64528051e-10  7.26797649e-01  5.64528051e-10  6.59279282e-01  5.64528051e-10  1.49830921e+00  5.64528051e-10  1.80000000e+00  5.64528051e-10 -1.64531150e-02  5.64528051e-10  6.69071116e-01  5.64528051e-10  1.51204815e+00  5.64528051e-10  1.51181018e+00                                 
 6.50565451e-10  7.26917943e-01  6.50565451e-10  6.59110130e-01  6.50565451e-10  1.49524786e+00  6.50565451e-10  1.80000000e+00  6.50565451e-10  1.26943422e-02  6.50565451e-10  6.69024839e-01  6.50565451e-10  1.51224051e+00  6.50565451e-10  1.51175975e+00                                 
 7.70549219e-10  7.26972176e-01  7.70549219e-10  6.59063998e-01  7.70549219e-10  1.49335929e+00  7.70549219e-10  1.80000000e+00  7.70549219e-10 -9.93853087e-03  7.70549219e-10  6.70423992e-01  7.70549219e-10  1.51329289e+00  7.70549219e-10  1.51177790e+00                                 
 9.49297687e-10  7.27039046e-01  9.49297687e-10  6.59031046e-01  9.49297687e-10  1.49200680e+00  9.49297687e-10  1.80000000e+00  9.49297687e-10  8.95698237e-03  9.49297687e-10  6.71208164e-01  9.49297687e-10  1.51413851e+00  9.49297687e-10  1.51175355e+00                                 
 1.30679462e-09  7.26993308e-01  1.30679462e-09  6.58957730e-01  1.30679462e-09  1.48989600e+00  1.30679462e-09  1.80000000e+00  1.30679462e-09 -8.17292334e-03  1.30679462e-09  6.70634103e-01  1.30679462e-09  1.51350470e+00  1.30679462e-09  1.51179528e+00                                 
 1.69102600e-09  7.26931018e-01  1.69102600e-09  6.58978335e-01  1.69102600e-09  1.48853143e+00  1.69102600e-09  1.80000000e+00  1.69102600e-09  7.76409684e-03  1.69102600e-09  6.70121905e-01  1.69102600e-09  1.51318456e+00  1.69102600e-09  1.51186569e+00                                 
 2.34146939e-09  7.26791052e-01  2.34146939e-09  6.58937428e-01  2.34146939e-09  1.48529837e+00  2.34146939e-09  1.80000000e+00  2.34146939e-09 -7.44142388e-03  2.34146939e-09  6.68252763e-01  2.34146939e-09  1.51142181e+00  2.34146939e-09  1.51203604e+00                                 
 3.11197194e-09  7.26723131e-01  3.11197194e-09  6.58967843e-01  3.11197194e-09  1.48199957e+00  3.11197194e-09  1.80000000e+00  3.11197194e-09  7.22305217e-03  3.11197194e-09  6.66958253e-01  3.11197194e-09  1.51040374e+00  3.11197194e-09  1.51223985e+00                                 
 4.30657063e-09  7.26649821e-01  4.30657063e-09  6.58931820e-01  4.30657063e-09  1.47577413e+00  4.30657063e-09  1.80000000e+00  4.30657063e-09 -7.06723488e-03  4.30657063e-09  6.64292512e-01  4.30657063e-09  1.50795333e+00  4.30657063e-09  1.51251248e+00                                 
 5.99757874e-09  7.26643985e-01  5.99757874e-09  6.58969134e-01  5.99757874e-09  1.46748448e+00  5.99757874e-09  1.80000000e+00  5.99757874e-09  6.98239849e-03  5.99757874e-09  6.62251800e-01  5.99757874e-09  1.50628471e+00  5.99757874e-09  1.51275824e+00                                 
 9.37959496e-09  7.26633854e-01  9.37959496e-09  6.58943296e-01  9.37959496e-09  1.44825231e+00  9.37959496e-09  1.80000000e+00  9.37959496e-09 -6.90993060e-03  9.37959496e-09  6.59102029e-01  9.37959496e-09  1.50342272e+00  9.37959496e-09  1.51285295e+00                                 
 1.21942742e-08  7.26670411e-01  1.21942742e-08  6.58981930e-01  1.21942742e-08  1.43116852e+00  1.21942742e-08  1.80000000e+00  1.21942742e-08  6.87871787e-03  1.21942742e-08  6.58662235e-01  1.21942742e-08  1.50314709e+00  1.21942742e-08  1.51269060e+00                                 
 1.46025706e-08  7.26668541e-01  1.46025706e-08  6.58948564e-01  1.46025706e-08  1.41499371e+00  1.46025706e-08  1.80000000e+00  1.46025706e-08 -6.78133453e-03  1.46025706e-08  6.58030066e-01  1.46025706e-08  1.50247581e+00  1.46025706e-08  1.51249259e+00                                 
 1.72705501e-08  7.26696165e-01  1.72705501e-08  6.58983702e-01  1.72705501e-08  1.39709529e+00  1.72705501e-08  1.80000000e+00  1.72705501e-08  6.75065647e-03  1.72705501e-08  6.58434656e-01  1.72705501e-08  1.50293013e+00  1.72705501e-08  1.51227273e+00                                 
 2.08305550e-08  7.26690343e-01  2.08305550e-08  6.58949090e-01  2.08305550e-08  1.37163006e+00  2.08305550e-08  1.80000000e+00  2.08305550e-08 -6.67477827e-03  2.08305550e-08  6.58199048e-01  2.08305550e-08  1.50260278e+00  2.08305550e-08  1.51200596e+00                                 
 2.53527427e-08  7.26712103e-01  2.53527427e-08  6.58983823e-01  2.53527427e-08  1.33925236e+00  2.53527427e-08  1.80000000e+00  2.53527427e-08  6.67059057e-03  2.53527427e-08  6.58900045e-01  2.53527427e-08  1.50331303e+00  2.53527427e-08  1.51174567e+00                                 
 3.12272676e-08  7.26698501e-01  3.12272676e-08  6.58949018e-01  3.12272676e-08  1.29576613e+00  3.12272676e-08  1.80000000e+00  3.12272676e-08 -6.61228383e-03  3.12272676e-08  6.58836842e-01  3.12272676e-08  1.50314029e+00  3.12272676e-08  1.51151803e+00                                 
 3.94726764e-08  7.26713056e-01  3.94726764e-08  6.58983682e-01  3.94726764e-08  1.23511892e+00  3.94726764e-08  1.80000000e+00  3.94726764e-08  6.62441886e-03  3.94726764e-08  6.59583147e-01  3.94726764e-08  1.50389595e+00  3.94726764e-08  1.51136454e+00                                 
 5.23574525e-08  7.26695156e-01  5.23574525e-08  6.58948733e-01  5.23574525e-08  1.13950509e+00  5.23574525e-08  1.80000000e+00  5.23574525e-08 -6.58083094e-03  5.23574525e-08  6.59456371e-01  5.23574525e-08  1.50367744e+00  5.23574525e-08  1.51131428e+00                                 
 7.35604901e-08  7.26708651e-01  7.35604901e-08  6.58983394e-01  7.35604901e-08  9.84168215e-01  7.35604901e-08  1.80000000e+00  7.35604901e-08  6.60496237e-03  7.35604901e-08  6.60020932e-01  7.35604901e-08  1.50428316e+00  7.35604901e-08  1.51139950e+00                                 
 1.08926739e-07  7.26692306e-01  1.08926739e-07  6.58948524e-01  1.08926739e-07  7.51693056e-01  1.08926739e-07  1.80000000e+00  1.08926739e-07 -6.56765825e-03  1.08926739e-07  6.59645828e-01  1.08926739e-07  1.50385054e+00  1.08926739e-07  1.51152228e+00                                 
 1.41043448e-07  7.26712288e-01  1.41043448e-07  6.58983640e-01  1.41043448e-07  6.57215678e-01  1.41043448e-07  1.80000000e+00  1.41043448e-07  6.60070809e-03  1.41043448e-07  6.60062370e-01  1.41043448e-07  1.50432190e+00  1.41043448e-07  1.51156275e+00                                 
 1.73241175e-07  7.26686972e-01  1.73241175e-07  6.58948272e-01  1.73241175e-07  6.60514528e-01  1.73241175e-07  1.80000000e+00  1.73241175e-07 -6.55607273e-03  1.73241175e-07  6.59649653e-01  1.73241175e-07  1.50385267e+00  1.73241175e-07  1.51156937e+00                                 
 1.89665488e-07  7.26712151e-01  1.89665488e-07  6.58983563e-01  1.89665488e-07  6.61329403e-01  1.89665488e-07  1.80000000e+00  1.89665488e-07  6.58647566e-03  1.89665488e-07  6.60056056e-01  1.89665488e-07  1.50431486e+00  1.89665488e-07  1.51157212e+00                                 
 2.10292184e-07  7.26690383e-01  2.10292184e-07  6.58948437e-01  2.10292184e-07  6.60517174e-01  2.10292184e-07  1.80000000e+00  2.10292184e-07 -6.53939171e-03  2.10292184e-07  6.59647594e-01  2.10292184e-07  1.50384971e+00  2.10292184e-07  1.51156786e+00                                 
 2.51545575e-07  7.26710579e-01  2.51545575e-07  6.58983528e-01  2.51545575e-07  6.60999206e-01  2.51545575e-07  1.80000000e+00  2.51545575e-07  6.57531856e-03  2.51545575e-07  6.60056812e-01  2.51545575e-07  1.50431331e+00  2.51545575e-07  1.51156954e+00                                 
 2.99308911e-07  7.26691015e-01  2.99308911e-07  6.58948441e-01  2.99308911e-07  6.60532051e-01  2.99308911e-07  1.80000000e+00  2.99308911e-07 -6.53256317e-03  2.99308911e-07  6.59647525e-01  2.99308911e-07  1.50384670e+00  2.99308911e-07  1.51156478e+00                                 
 3.94835582e-07  7.26710182e-01  3.94835582e-07  6.58983525e-01  3.94835582e-07  6.60985899e-01  3.94835582e-07  1.80000000e+00  3.94835582e-07  6.57051654e-03  3.94835582e-07  6.60056843e-01  3.94835582e-07  1.50430847e+00  3.94835582e-07  1.51156471e+00                                 
 5.85888925e-07  7.26691199e-01  5.85888925e-07  6.58948443e-01  5.85888925e-07  6.60537097e-01  5.85888925e-07  1.80000000e+00  5.85888925e-07 -6.53003822e-03  5.85888925e-07  6.59647516e-01  5.85888925e-07  1.50383705e+00  5.85888925e-07  1.51155513e+00                                 
 9.67995611e-07  7.26710093e-01  9.67995611e-07  6.58983525e-01  9.67995611e-07  6.60983004e-01  9.67995611e-07  1.80000000e+00  9.67995611e-07  6.56931657e-03  9.67995611e-07  6.60056846e-01  9.67995611e-07  1.50428913e+00  9.67995611e-07  1.51154542e+00                                 
 1.73220898e-06  7.26691242e-01  1.73220898e-06  6.58948443e-01  1.73220898e-06  6.60538295e-01  1.73220898e-06  1.80000000e+00  1.73220898e-06 -6.52944464e-03  1.73220898e-06  6.59647515e-01  1.73220898e-06  1.50379840e+00  1.73220898e-06  1.51151653e+00                                 
 2.73220898e-06  7.26710068e-01  2.73220898e-06  6.58983525e-01  2.73220898e-06  6.60982184e-01  2.73220898e-06  1.80000000e+00  2.73220898e-06  6.56898363e-03  2.73220898e-06  6.60056847e-01  2.73220898e-06  1.50422967e+00  2.73220898e-06  1.51148603e+00                                 
 3.73220898e-06  7.26691264e-01  3.73220898e-06  6.58948443e-01  3.73220898e-06  6.60538889e-01  3.73220898e-06  1.80000000e+00  3.73220898e-06 -6.52930522e-03  3.73220898e-06  6.59647514e-01  3.73220898e-06  1.50373101e+00  3.73220898e-06  1.51144923e+00                                 
 4.73220898e-06  7.26710046e-01  4.73220898e-06  6.58983525e-01  4.73220898e-06  6.60981487e-01  4.73220898e-06  1.80000000e+00  4.73220898e-06  6.56868187e-03  4.73220898e-06  6.60056847e-01  4.73220898e-06  1.50416226e+00  4.73220898e-06  1.51141872e+00                                 
 5.73220898e-06  7.26691286e-01  5.73220898e-06  6.58948443e-01  5.73220898e-06  6.60539477e-01  5.73220898e-06  1.80000000e+00  5.73220898e-06 -6.52900274e-03  5.73220898e-06  6.59647514e-01  5.73220898e-06  1.50366359e+00  5.73220898e-06  1.51138190e+00                                 
 6.73220898e-06  7.26710025e-01  6.73220898e-06  6.58983525e-01  6.73220898e-06  6.60980801e-01  6.73220898e-06  1.80000000e+00  6.73220898e-06  6.56837624e-03  6.73220898e-06  6.60056848e-01  6.73220898e-06  1.50409485e+00  6.73220898e-06  1.51135140e+00                                 
 7.73220898e-06  7.26691307e-01  7.73220898e-06  6.58948443e-01  7.73220898e-06  6.60540057e-01  7.73220898e-06  1.80000000e+00  7.73220898e-06 -6.52870028e-03  7.73220898e-06  6.59647513e-01  7.73220898e-06  1.50359622e+00  7.73220898e-06  1.51131461e+00                                 
 8.73220898e-06  7.26710004e-01  8.73220898e-06  6.58983525e-01  8.73220898e-06  6.60980126e-01  8.73220898e-06  1.80000000e+00  8.73220898e-06  6.56807063e-03  8.73220898e-06  6.60056848e-01  8.73220898e-06  1.50402749e+00  8.73220898e-06  1.51128413e+00                                 
 9.73220898e-06  7.26691328e-01  9.73220898e-06  6.58948443e-01  9.73220898e-06  6.60540630e-01  9.73220898e-06  1.80000000e+00  9.73220898e-06 -6.52839783e-03  9.73220898e-06  6.59647513e-01  9.73220898e-06  1.50352886e+00  9.73220898e-06  1.51124734e+00                                 
 1.00005000e-05  7.26709955e-01  1.00005000e-05  6.58983574e-01  1.00005000e-05  6.60980751e-01  1.00005000e-05  1.80000000e+00  1.00005000e-05  6.56267530e-03  1.00005000e-05  6.60057190e-01  1.00005000e-05  1.50398502e+00  1.00005000e-05  1.51124088e+00                                 
 1.00005500e-05  7.26666516e-01  1.00005500e-05  6.58776684e-01  1.00005500e-05  6.59096733e-01  1.00005500e-05  1.62000000e+00  1.00005500e-05  5.92757454e-04  1.00005500e-05  6.58365921e-01  1.00005500e-05  1.50245434e+00  1.00005500e-05  1.51122080e+00                                 
 1.00006500e-05  7.26689605e-01  1.00006500e-05  6.58746384e-01  1.00006500e-05  6.58995648e-01  1.00006500e-05  1.26000000e+00  1.00006500e-05 -5.22524141e-04  1.00006500e-05  6.57931904e-01  1.00006500e-05  1.50206574e+00  1.00006500e-05  1.51124098e+00                                 
 1.00008500e-05  7.26741712e-01  1.00008500e-05  6.58927049e-01  1.00008500e-05  6.61182691e-01  1.00008500e-05  5.40000000e-01  1.00008500e-05  3.23488438e-03  1.00008500e-05  6.58614926e-01  1.00008500e-05  1.50088755e+00  1.00008500e-05  1.51122862e+00                                 
 1.00010000e-05  7.26686081e-01  1.00010000e-05  6.58190013e-01  1.00010000e-05  6.81769132e-01  1.00010000e-05  0.00000000e+00  1.00010000e-05  1.52485518e+00  1.00010000e-05  6.50294671e-01  1.00010000e-05  1.44541145e+00  1.00010000e-05  1.51076314e+00                                 
 1.00010251e-05  7.26704237e-01  1.00010251e-05  6.57827477e-01  1.00010251e-05  6.87623675e-01  1.00010251e-05  0.00000000e+00  1.00010251e-05  1.69461784e+00  1.00010251e-05  6.45886102e-01  1.00010251e-05  1.41794651e+00  1.00010251e-05  1.51056193e+00                                 
 1.00010753e-05  7.26706216e-01  1.00010753e-05  6.57134962e-01  1.00010753e-05  6.93450946e-01  1.00010753e-05  0.00000000e+00  1.00010753e-05  1.82024295e+00  1.00010753e-05  6.37525857e-01  1.00010753e-05  1.35661866e+00  1.00010753e-05  1.51040173e+00                                 
 1.00011757e-05  7.26699272e-01  1.00011757e-05  6.56982999e-01  1.00011757e-05  6.88433446e-01  1.00011757e-05  0.00000000e+00  1.00011757e-05  1.78727484e+00  1.00011757e-05  6.36023197e-01  1.00011757e-05  1.24909171e+00  1.00011757e-05  1.51095319e+00                                 
 1.00013027e-05  7.26704821e-01  1.00013027e-05  6.57272583e-01  1.00013027e-05  6.85193178e-01  1.00013027e-05  0.00000000e+00  1.00013027e-05  1.80673224e+00  1.00013027e-05  6.40088040e-01  1.00013027e-05  1.14360234e+00  1.00013027e-05  1.51132830e+00                                 
 1.00015237e-05  7.26698407e-01  1.00015237e-05  6.57421960e-01  1.00015237e-05  6.81485774e-01  1.00015237e-05  0.00000000e+00  1.00015237e-05  1.79403016e+00  1.00015237e-05  6.40927112e-01  1.00015237e-05  9.90655346e-01  1.00015237e-05  1.51154185e+00                                 
 1.00018100e-05  7.26703528e-01  1.00018100e-05  6.57983876e-01  1.00018100e-05  6.76333937e-01  1.00018100e-05  0.00000000e+00  1.00018100e-05  1.80425578e+00  1.00018100e-05  6.46241664e-01  1.00018100e-05  8.49127870e-01  1.00018100e-05  1.51143864e+00                                 
 1.00022336e-05  7.26698420e-01  1.00022336e-05  6.58646034e-01  1.00022336e-05  6.69162885e-01  1.00022336e-05  0.00000000e+00  1.00022336e-05  1.79585333e+00  1.00022336e-05  6.52047464e-01  1.00022336e-05  7.22554674e-01  1.00022336e-05  1.51073283e+00                                 
 1.00026831e-05  7.26703114e-01  1.00026831e-05  6.59300396e-01  1.00026831e-05  6.63345323e-01  1.00026831e-05  0.00000000e+00  1.00026831e-05  1.80346683e+00  1.00026831e-05  6.58812888e-01  1.00026831e-05  6.76691304e-01  1.00026831e-05  1.50917963e+00                                 
 1.00030706e-05  7.26698644e-01  1.00030706e-05  6.59367107e-01  1.00030706e-05  6.63601828e-01  1.00030706e-05  0.00000000e+00  1.00030706e-05  1.79701572e+00  1.00030706e-05  6.59374761e-01  1.00030706e-05  6.65583846e-01  1.00030706e-05  1.50730310e+00                                 
 1.00035481e-05  7.26702804e-01  1.00035481e-05  6.59479550e-01  1.00035481e-05  6.63364513e-01  1.00035481e-05  0.00000000e+00  1.00035481e-05  1.80262762e+00  1.00035481e-05  6.61294341e-01  1.00035481e-05  6.64440792e-01  1.00035481e-05  1.50464616e+00                                 
 1.00040978e-05  7.26698835e-01  1.00040978e-05  6.59360103e-01  1.00040978e-05  6.65652346e-01  1.00040978e-05  0.00000000e+00  1.00040978e-05  1.79765674e+00  1.00040978e-05  6.60609678e-01  1.00040978e-05  6.64215687e-01  1.00040978e-05  1.50135156e+00                                 
 1.00051287e-05  7.26702589e-01  1.00051287e-05  6.59329901e-01  1.00051287e-05  6.67920997e-01  1.00051287e-05  0.00000000e+00  1.00051287e-05  1.80221234e+00  1.00051287e-05  6.61630493e-01  1.00051287e-05  6.67965617e-01  1.00051287e-05  1.49484517e+00                                 
 1.00068130e-05  7.26698848e-01  1.00068130e-05  6.59125306e-01  1.00068130e-05  6.73853811e-01  1.00068130e-05  0.00000000e+00  1.00068130e-05  1.79787353e+00  1.00068130e-05  6.60748961e-01  1.00068130e-05  6.72228093e-01  1.00068130e-05  1.48371969e+00                                 
 1.00101816e-05  7.26702478e-01  1.00101816e-05  6.59038459e-01  1.00101816e-05  6.83307771e-01  1.00101816e-05  0.00000000e+00  1.00101816e-05  1.80209328e+00  1.00101816e-05  6.61369328e-01  1.00101816e-05  6.83266957e-01  1.00101816e-05  1.46061491e+00                                 
