 time            v(vbep)         time            v(vben)         time            v(vout)         time            v(vphi1)        time            v(vphi2)        time            v(vref)         time            v(voutc)        time            v(voutcc)       yes             currtemp       
 0.00000000e+00  7.76940301e-01  0.00000000e+00  7.16847611e-01  0.00000000e+00  1.60247631e+00  0.00000000e+00  0.00000000e+00  0.00000000e+00  1.80000000e+00  0.00000000e+00  7.19328779e-01  0.00000000e+00  1.60247630e+00  0.00000000e+00  1.60893135e+00  1.00000000e+00  3.10000000e+01 
 5.00000000e-12  7.76962100e-01  5.00000000e-12  7.16901797e-01  5.00000000e-12  1.60310702e+00  5.00000000e-12  1.80000000e-02  5.00000000e-12  1.80018437e+00  5.00000000e-12  7.19721894e-01  5.00000000e-12  1.60282512e+00  5.00000000e-12  1.60894438e+00                                 
 1.00000000e-11  7.76971684e-01  1.00000000e-11  7.16937697e-01  1.00000000e-11  1.60356818e+00  1.00000000e-11  3.60000000e-02  1.00000000e-11  1.80026838e+00  1.00000000e-11  7.20031596e-01  1.00000000e-11  1.60310156e+00  1.00000000e-11  1.60895137e+00                                 
 2.00000000e-11  7.76978010e-01  2.00000000e-11  7.16987791e-01  2.00000000e-11  1.60424169e+00  2.00000000e-11  7.20000000e-02  2.00000000e-11  1.80032258e+00  2.00000000e-11  7.20516579e-01  2.00000000e-11  1.60353854e+00  2.00000000e-11  1.60895805e+00                                 
 4.00000000e-11  7.76965666e-01  4.00000000e-11  7.17024608e-01  4.00000000e-11  1.60471574e+00  4.00000000e-11  1.44000000e-01  4.00000000e-11  1.80019425e+00  4.00000000e-11  7.20983634e-01  4.00000000e-11  1.60397769e+00  4.00000000e-11  1.60895221e+00                                 
 8.00000000e-11  7.76951795e-01  8.00000000e-11  7.17029673e-01  8.00000000e-11  1.60460819e+00  8.00000000e-11  2.88000000e-01  8.00000000e-11  1.80002955e+00  8.00000000e-11  7.21111240e-01  8.00000000e-11  1.60414355e+00  8.00000000e-11  1.60893685e+00                                 
 1.60000000e-10  7.76952677e-01  1.60000000e-10  7.17018102e-01  1.60000000e-10  1.60413261e+00  1.60000000e-10  5.76000000e-01  1.60000000e-10  1.80001153e+00  1.60000000e-10  7.20909198e-01  1.60000000e-10  1.60402148e+00  1.60000000e-10  1.60893143e+00                                 
 3.20000000e-10  7.76887236e-01  3.20000000e-10  7.16574775e-01  3.20000000e-10  1.60012182e+00  3.20000000e-10  1.15200000e+00  3.20000000e-10  1.80071668e+00  3.20000000e-10  7.17061722e-01  3.20000000e-10  1.60086544e+00  3.20000000e-10  1.60890049e+00                                 
 5.00000000e-10  7.76994760e-01  5.00000000e-10  7.17016607e-01  5.00000000e-10  1.59523543e+00  5.00000000e-10  1.80000000e+00  5.00000000e-10  1.52171522e-01  5.00000000e-10  7.22489730e-01  5.00000000e-10  1.60534834e+00  5.00000000e-10  1.60898300e+00                                 
 5.20844192e-10  7.76991231e-01  5.20844192e-10  7.17058758e-01  5.20844192e-10  1.59463237e+00  5.20844192e-10  1.80000000e+00  5.20844192e-10  3.94758130e-02  5.20844192e-10  7.23995397e-01  5.20844192e-10  1.60620906e+00  5.20844192e-10  1.60897634e+00                                 
 5.62532576e-10  7.77050980e-01  5.62532576e-10  7.17137244e-01  5.62532576e-10  1.59417175e+00  5.62532576e-10  1.80000000e+00  5.62532576e-10 -1.44612092e-02  5.62532576e-10  7.26018349e-01  5.62532576e-10  1.60797354e+00  5.62532576e-10  1.60897453e+00                                 
 6.45909343e-10  7.77138968e-01  6.45909343e-10  7.16977193e-01  6.45909343e-10  1.59154582e+00  6.45909343e-10  1.80000000e+00  6.45909343e-10  1.15419621e-02  6.45909343e-10  7.25161543e-01  6.45909343e-10  1.60743506e+00  6.45909343e-10  1.60891978e+00                                 
 7.64550809e-10  7.77163045e-01  7.64550809e-10  7.16949013e-01  7.64550809e-10  1.59042275e+00  7.64550809e-10  1.80000000e+00  7.64550809e-10 -9.09879381e-03  7.64550809e-10  7.26178641e-01  7.64550809e-10  1.60816146e+00  7.64550809e-10  1.60895111e+00                                 
 9.41292380e-10  7.77218188e-01  9.41292380e-10  7.16916298e-01  9.41292380e-10  1.58959836e+00  9.41292380e-10  1.80000000e+00  9.41292380e-10  8.45084172e-03  9.41292380e-10  7.26904164e-01  9.41292380e-10  1.60894047e+00  9.41292380e-10  1.60892255e+00                                 
 1.29477552e-09  7.77218698e-01  1.29477552e-09  7.16842065e-01  1.29477552e-09  1.58719929e+00  1.29477552e-09  1.80000000e+00  1.29477552e-09 -7.67329510e-03  1.29477552e-09  7.26738351e-01  1.29477552e-09  1.60867048e+00  1.29477552e-09  1.60894098e+00                                 
 1.75834975e-09  7.77168026e-01  1.75834975e-09  7.16853047e-01  1.75834975e-09  1.58576813e+00  1.75834975e-09  1.80000000e+00  1.75834975e-09  7.43770208e-03  1.75834975e-09  7.26605410e-01  1.75834975e-09  1.60867816e+00  1.75834975e-09  1.60896569e+00                                 
 2.33192339e-09  7.77044827e-01  2.33192339e-09  7.16817288e-01  2.33192339e-09  1.58424158e+00  2.33192339e-09  1.80000000e+00  2.33192339e-09 -7.12824490e-03  2.33192339e-09  7.25480386e-01  2.33192339e-09  1.60757676e+00  2.33192339e-09  1.60903505e+00                                 
 2.94466516e-09  7.76979918e-01  2.94466516e-09  7.16846867e-01  2.94466516e-09  1.58332752e+00  2.94466516e-09  1.80000000e+00  2.94466516e-09  6.88929509e-03  2.94466516e-09  7.25089963e-01  2.94466516e-09  1.60734767e+00  2.94466516e-09  1.60910923e+00                                 
 3.81399692e-09  7.76917194e-01  3.81399692e-09  7.16816707e-01  3.81399692e-09  1.58099178e+00  3.81399692e-09  1.80000000e+00  3.81399692e-09 -6.71551403e-03  3.81399692e-09  7.23641598e-01  3.81399692e-09  1.60597049e+00  3.81399692e-09  1.60921941e+00                                 
 5.31673688e-09  7.76906569e-01  5.31673688e-09  7.16850810e-01  5.31673688e-09  1.57748051e+00  5.31673688e-09  1.80000000e+00  5.31673688e-09  6.62343178e-03  5.31673688e-09  7.22465597e-01  5.31673688e-09  1.60505055e+00  5.31673688e-09  1.60937844e+00                                 
 8.32221682e-09  7.76894159e-01  8.32221682e-09  7.16827436e-01  8.32221682e-09  1.56867269e+00  8.32221682e-09  1.80000000e+00  8.32221682e-09 -6.57001437e-03  8.32221682e-09  7.19879091e-01  8.32221682e-09  1.60268773e+00  8.32221682e-09  1.60954964e+00                                 
 1.21417791e-08  7.76910339e-01  1.21417791e-08  7.16862576e-01  1.21417791e-08  1.55721317e+00  1.21417791e-08  1.80000000e+00  1.21417791e-08  6.54521137e-03  1.21417791e-08  7.18935613e-01  1.21417791e-08  1.60197371e+00  1.21417791e-08  1.60954504e+00                                 
 1.51058312e-08  7.76904083e-01  1.51058312e-08  7.16832210e-01  1.51058312e-08  1.54700520e+00  1.51058312e-08  1.80000000e+00  1.51058312e-08 -6.47952737e-03  1.51058312e-08  7.18144074e-01  1.51058312e-08  1.60117525e+00  1.51058312e-08  1.60944557e+00                                 
 1.85388049e-08  7.76925572e-01  1.85388049e-08  7.16863071e-01  1.85388049e-08  1.53501664e+00  1.85388049e-08  1.80000000e+00  1.85388049e-08  6.46188697e-03  1.85388049e-08  7.18426330e-01  1.85388049e-08  1.60152174e+00  1.85388049e-08  1.60930559e+00                                 
 2.21512222e-08  7.76924048e-01  2.21512222e-08  7.16832337e-01  2.21512222e-08  1.52074819e+00  2.21512222e-08  1.80000000e+00  2.21512222e-08 -6.39925671e-03  2.21512222e-08  7.18067256e-01  2.21512222e-08  1.60109713e+00  2.21512222e-08  1.60915613e+00                                 
 2.75099292e-08  7.76944416e-01  2.75099292e-08  7.16863234e-01  2.75099292e-08  1.49924587e+00  2.75099292e-08  1.80000000e+00  2.75099292e-08  6.39988551e-03  2.75099292e-08  7.18651263e-01  2.75099292e-08  1.60170259e+00  2.75099292e-08  1.60897133e+00                                 
 3.36387919e-08  7.76937951e-01  3.36387919e-08  7.16832369e-01  3.36387919e-08  1.47293115e+00  3.36387919e-08  1.80000000e+00  3.36387919e-08 -6.35107521e-03  3.36387919e-08  7.18466008e-01  3.36387919e-08  1.60142988e+00  3.36387919e-08  1.60881124e+00                                 
 4.31602224e-08  7.76949601e-01  4.31602224e-08  7.16863156e-01  4.31602224e-08  1.43211614e+00  4.31602224e-08  1.80000000e+00  4.31602224e-08  6.36386026e-03  4.31602224e-08  7.19133795e-01  4.31602224e-08  1.60211049e+00  4.31602224e-08  1.60866589e+00                                 
 5.57738470e-08  7.76937419e-01  5.57738470e-08  7.16832216e-01  5.57738470e-08  1.37686139e+00  5.57738470e-08  1.80000000e+00  5.57738470e-08 -6.32618869e-03  5.57738470e-08  7.18930778e-01  5.57738470e-08  1.60182739e+00  5.57738470e-08  1.60858370e+00                                 
 7.89042338e-08  7.76946426e-01  7.89042338e-08  7.16863050e-01  7.89042338e-08  1.27658832e+00  7.89042338e-08  1.80000000e+00  7.89042338e-08  6.34731783e-03  7.89042338e-08  7.19486984e-01  7.89042338e-08  1.60241689e+00  7.89042338e-08  1.60857757e+00                                 
 1.14367171e-07  7.76935035e-01  1.14367171e-07  7.16832159e-01  1.14367171e-07  1.12317538e+00  1.14367171e-07  1.80000000e+00  1.14367171e-07 -6.31651897e-03  1.14367171e-07  7.19124988e-01  1.14367171e-07  1.60199905e+00  1.14367171e-07  1.60863178e+00                                 
 1.64951739e-07  7.76945535e-01  1.64951739e-07  7.16863036e-01  1.64951739e-07  9.10099765e-01  1.64951739e-07  1.80000000e+00  1.64951739e-07  6.34122954e-03  1.64951739e-07  7.19530566e-01  1.64951739e-07  1.60245525e+00  1.64951739e-07  1.60867579e+00                                 
 2.41843229e-07  7.76935326e-01  2.41843229e-07  7.16832172e-01  2.41843229e-07  7.26964797e-01  2.41843229e-07  1.80000000e+00  2.41843229e-07 -6.31003079e-03  2.41843229e-07  7.19125463e-01  2.41843229e-07  1.60199517e+00  2.41843229e-07  1.60867985e+00                                 
 3.09021549e-07  7.76945357e-01  3.09021549e-07  7.16863074e-01  3.09021549e-07  7.19034106e-01  3.09021549e-07  1.80000000e+00  3.09021549e-07  6.33949857e-03  3.09021549e-07  7.19535407e-01  3.09021549e-07  1.60245368e+00  3.09021549e-07  1.60868138e+00                                 
 3.54125659e-07  7.76934337e-01  3.54125659e-07  7.16832025e-01  3.54125659e-07  7.23123531e-01  3.54125659e-07  1.80000000e+00  3.54125659e-07 -6.30524834e-03  3.54125659e-07  7.19122392e-01  3.54125659e-07  1.60198823e+00  3.54125659e-07  1.60867623e+00                                 
 3.94599230e-07  7.76946797e-01  3.94599230e-07  7.16863257e-01  3.94599230e-07  7.21372701e-01  3.94599230e-07  1.80000000e+00  3.94599230e-07  6.33339732e-03  3.94599230e-07  7.19533808e-01  3.94599230e-07  1.60244886e+00  3.94599230e-07  1.60867640e+00                                 
 4.35910565e-07  7.76933720e-01  4.35910565e-07  7.16831906e-01  4.35910565e-07  7.22002754e-01  4.35910565e-07  1.80000000e+00  4.35910565e-07 -6.29890042e-03  4.35910565e-07  7.19124248e-01  4.35910565e-07  1.60198673e+00  4.35910565e-07  1.60867259e+00                                 
 4.79843803e-07  7.76946802e-01  4.79843803e-07  7.16863315e-01  4.79843803e-07  7.21852964e-01  4.79843803e-07  1.80000000e+00  4.79843803e-07  6.32725417e-03  4.79843803e-07  7.19532903e-01  4.79843803e-07  1.60244474e+00  4.79843803e-07  1.60867338e+00                                 
 5.40861569e-07  7.76933893e-01  5.40861569e-07  7.16831882e-01  5.40861569e-07  7.21806385e-01  5.40861569e-07  1.80000000e+00  5.40861569e-07 -6.29377995e-03  5.40861569e-07  7.19124632e-01  5.40861569e-07  1.60198305e+00  5.40861569e-07  1.60866841e+00                                 
 6.31861607e-07  7.76946640e-01  6.31861607e-07  7.16863323e-01  6.31861607e-07  7.21927273e-01  6.31861607e-07  1.80000000e+00  6.31861607e-07  6.32366211e-03  6.31861607e-07  7.19532746e-01  6.31861607e-07  1.60243871e+00  6.31861607e-07  1.60866758e+00                                 
 7.88246980e-07  7.76934002e-01  7.88246980e-07  7.16831881e-01  7.88246980e-07  7.21773811e-01  7.88246980e-07  1.80000000e+00  7.88246980e-07 -6.29145644e-03  7.88246980e-07  7.19124704e-01  7.88246980e-07  1.60197358e+00  7.88246980e-07  1.60865885e+00                                 
 1.10101773e-06  7.76946580e-01  1.10101773e-06  7.16863323e-01  1.10101773e-06  7.21941434e-01  1.10101773e-06  1.80000000e+00  1.10101773e-06  6.32238123e-03  1.10101773e-06  7.19532713e-01  1.10101773e-06  1.60242056e+00  1.10101773e-06  1.60864951e+00                                 
 1.72655922e-06  7.76934031e-01  1.72655922e-06  7.16831880e-01  1.72655922e-06  7.21767480e-01  1.72655922e-06  1.80000000e+00  1.72655922e-06 -6.29074638e-03  1.72655922e-06  7.19124719e-01  1.72655922e-06  1.60193738e+00  1.72655922e-06  1.60862269e+00                                 
 2.72655922e-06  7.76946564e-01  2.72655922e-06  7.16863323e-01  2.72655922e-06  7.21944626e-01  2.72655922e-06  1.80000000e+00  2.72655922e-06  6.32206404e-03  2.72655922e-06  7.19532705e-01  2.72655922e-06  1.60235781e+00  2.72655922e-06  1.60858688e+00                                 
 3.72655922e-06  7.76934044e-01  3.72655922e-06  7.16831880e-01  3.72655922e-06  7.21765096e-01  3.72655922e-06  1.80000000e+00  3.72655922e-06 -6.29070392e-03  3.72655922e-06  7.19124725e-01  3.72655922e-06  1.60186015e+00  3.72655922e-06  1.60854558e+00                                 
 4.72655922e-06  7.76946552e-01  4.72655922e-06  7.16863323e-01  4.72655922e-06  7.21946926e-01  4.72655922e-06  1.80000000e+00  4.72655922e-06  6.32181950e-03  4.72655922e-06  7.19532698e-01  4.72655922e-06  1.60228054e+00  4.72655922e-06  1.60850974e+00                                 
 5.72655922e-06  7.76934056e-01  5.72655922e-06  7.16831880e-01  5.72655922e-06  7.21762843e-01  5.72655922e-06  1.80000000e+00  5.72655922e-06 -6.29044510e-03  5.72655922e-06  7.19124731e-01  5.72655922e-06  1.60178292e+00  5.72655922e-06  1.60846847e+00                                 
 6.72655922e-06  7.76946540e-01  6.72655922e-06  7.16863323e-01  6.72655922e-06  7.21949095e-01  6.72655922e-06  1.80000000e+00  6.72655922e-06  6.32155805e-03  6.72655922e-06  7.19532693e-01  6.72655922e-06  1.60220330e+00  6.72655922e-06  1.60843264e+00                                 
 7.72655922e-06  7.76934068e-01  7.72655922e-06  7.16831880e-01  7.72655922e-06  7.21760715e-01  7.72655922e-06  1.80000000e+00  7.72655922e-06 -6.29018628e-03  7.72655922e-06  7.19124736e-01  7.72655922e-06  1.60170571e+00  7.72655922e-06  1.60839137e+00                                 
 8.72655922e-06  7.76946527e-01  8.72655922e-06  7.16863323e-01  8.72655922e-06  7.21951143e-01  8.72655922e-06  1.80000000e+00  8.72655922e-06  6.32129661e-03  8.72655922e-06  7.19532688e-01  8.72655922e-06  1.60212611e+00  8.72655922e-06  1.60835558e+00                                 
 9.72655922e-06  7.76934080e-01  9.72655922e-06  7.16831880e-01  9.72655922e-06  7.21758705e-01  9.72655922e-06  1.80000000e+00  9.72655922e-06 -6.28992748e-03  9.72655922e-06  7.19124741e-01  9.72655922e-06  1.60162850e+00  9.72655922e-06  1.60831429e+00                                 
 1.00005000e-05  7.76946499e-01  1.00005000e-05  7.16863323e-01  1.00005000e-05  7.21955487e-01  1.00005000e-05  1.80000000e+00  1.00005000e-05  6.32069367e-03  1.00005000e-05  7.19532676e-01  1.00005000e-05  1.60207689e+00  1.00005000e-05  1.60830646e+00                                 
 1.00005500e-05  7.76908056e-01  1.00005500e-05  7.16657127e-01  1.00005500e-05  7.20024189e-01  1.00005500e-05  1.62000000e+00  1.00005500e-05  5.03925320e-04  1.00005500e-05  7.17785358e-01  1.00005500e-05  1.60050238e+00  1.00005500e-05  1.60828511e+00                                 
 1.00006500e-05  7.76933035e-01  1.00006500e-05  7.16641546e-01  1.00006500e-05  7.20135771e-01  1.00006500e-05  1.26000000e+00  1.00006500e-05 -4.53968267e-04  1.00006500e-05  7.17519852e-01  1.00006500e-05  1.60026317e+00  1.00006500e-05  1.60830829e+00                                 
 1.00008500e-05  7.76972398e-01  1.00008500e-05  7.16868677e-01  1.00008500e-05  7.22588333e-01  1.00008500e-05  5.40000000e-01  1.00008500e-05 -2.20264393e-03  1.00008500e-05  7.19028946e-01  1.00008500e-05  1.60060113e+00  1.00008500e-05  1.60830424e+00                                 
 1.00010000e-05  7.76930270e-01  1.00010000e-05  7.15777181e-01  1.00010000e-05  7.43231139e-01  1.00010000e-05  0.00000000e+00  1.00010000e-05  1.49778760e+00  1.00010000e-05  7.06162599e-01  1.00010000e-05  1.54068394e+00  1.00010000e-05  1.60775941e+00                                 
 1.00010259e-05  7.76947668e-01  1.00010259e-05  7.15476323e-01  1.00010259e-05  7.49600647e-01  1.00010259e-05  0.00000000e+00  1.00010259e-05  1.68615161e+00  1.00010259e-05  7.02439810e-01  1.00010259e-05  1.51475621e+00  1.00010259e-05  1.60761383e+00                                 
 1.00010777e-05  7.76944351e-01  1.00010777e-05  7.14895523e-01  1.00010777e-05  7.55438291e-01  1.00010777e-05  0.00000000e+00  1.00010777e-05  1.82260325e+00  1.00010777e-05  6.95629375e-01  1.00010777e-05  1.45691774e+00  1.00010777e-05  1.60749365e+00                                 
 1.00011813e-05  7.76937333e-01  1.00011813e-05  7.14799769e-01  1.00011813e-05  7.48503760e-01  1.00011813e-05  0.00000000e+00  1.00011813e-05  1.78603774e+00  1.00011813e-05  6.95363837e-01  1.00011813e-05  1.35570868e+00  1.00011813e-05  1.60800843e+00                                 
 1.00013120e-05  7.76945135e-01  1.00013120e-05  7.15150515e-01  1.00013120e-05  7.44818235e-01  1.00013120e-05  0.00000000e+00  1.00013120e-05  1.80751314e+00  1.00013120e-05  7.00375576e-01  1.00013120e-05  1.25877653e+00  1.00013120e-05  1.60836475e+00                                 
 1.00015268e-05  7.76936536e-01  1.00015268e-05  7.15343846e-01  1.00015268e-05  7.40379475e-01  1.00015268e-05  0.00000000e+00  1.00015268e-05  1.79365015e+00  1.00015268e-05  7.02058868e-01  1.00015268e-05  1.12769302e+00  1.00015268e-05  1.60854557e+00                                 
 1.00018725e-05  7.76944043e-01  1.00018725e-05  7.15928681e-01  1.00018725e-05  7.35435450e-01  1.00018725e-05  0.00000000e+00  1.00018725e-05  1.80478846e+00  1.00018725e-05  7.07215656e-01  1.00018725e-05  9.79443120e-01  1.00018725e-05  1.60857141e+00                                 
 1.00023347e-05  7.76936676e-01  1.00023347e-05  7.16368340e-01  1.00023347e-05  7.31952269e-01  1.00023347e-05  0.00000000e+00  1.00023347e-05  1.79547948e+00  1.00023347e-05  7.10015118e-01  1.00023347e-05  8.40105755e-01  1.00023347e-05  1.60818220e+00                                 
 1.00028325e-05  7.76943763e-01  1.00028325e-05  7.17018630e-01  1.00028325e-05  7.26154365e-01  1.00028325e-05  0.00000000e+00  1.00028325e-05  1.80368749e+00  1.00028325e-05  7.16304478e-01  1.00028325e-05  7.62499605e-01  1.00028325e-05  1.60745339e+00                                 
 1.00033452e-05  7.76937054e-01  1.00033452e-05  7.17229505e-01  1.00033452e-05  7.24833097e-01  1.00033452e-05  0.00000000e+00  1.00033452e-05  1.79666250e+00  1.00033452e-05  7.18150393e-01  1.00033452e-05  7.31958594e-01  1.00033452e-05  1.60629460e+00                                 
 1.00038923e-05  7.76943482e-01  1.00038923e-05  7.17393115e-01  1.00038923e-05  7.23870862e-01  1.00038923e-05  0.00000000e+00  1.00038923e-05  1.80292450e+00  1.00038923e-05  7.20467082e-01  1.00038923e-05  7.26107434e-01  1.00038923e-05  1.60472180e+00                                 
 1.00045305e-05  7.76937354e-01  1.00045305e-05  7.17271825e-01  1.00045305e-05  7.25892827e-01  1.00045305e-05  0.00000000e+00  1.00045305e-05  1.79736608e+00  1.00045305e-05  7.19944003e-01  1.00045305e-05  7.24619732e-01  1.00045305e-05  1.60256266e+00                                 
 1.00053388e-05  7.76943243e-01  1.00053388e-05  7.17254951e-01  1.00053388e-05  7.26839817e-01  1.00053388e-05  0.00000000e+00  1.00053388e-05  1.80241138e+00  1.00053388e-05  7.20967977e-01  1.00053388e-05  7.26963986e-01  1.00053388e-05  1.59966380e+00                                 
