 time            v(vbep)         time            v(vben)         time            v(vout)         time            v(vphi1)        time            v(vphi2)        time            v(vref)         time            v(voutc)        time            v(voutcc)       yes             currtemp       
 0.00000000e+00  8.22356801e-01  0.00000000e+00  7.70960881e-01  0.00000000e+00  1.69982860e+00  0.00000000e+00  0.00000000e+00  0.00000000e+00  1.80000000e+00  0.00000000e+00  7.74507482e-01  0.00000000e+00  1.69982860e+00  0.00000000e+00  1.70512070e+00  1.00000000e+00 -6.00000000e+00 
 1.00000000e-11  8.22379551e-01  1.00000000e-11  7.71029500e-01  1.00000000e-11  1.70064283e+00  1.00000000e-11  1.80000000e-02  1.00000000e-11  1.80024514e+00  1.00000000e-11  7.75027130e-01  1.00000000e-11  1.70028977e+00  1.00000000e-11  1.70513471e+00                                 
 2.00000000e-11  8.22385870e-01  2.00000000e-11  7.71072712e-01  2.00000000e-11  1.70118263e+00  2.00000000e-11  3.60000000e-02  2.00000000e-11  1.80034663e+00  2.00000000e-11  7.75418350e-01  2.00000000e-11  1.70064854e+00  2.00000000e-11  1.70514099e+00                                 
 4.00000000e-11  8.22385751e-01  4.00000000e-11  7.71129267e-01  4.00000000e-11  1.70188813e+00  4.00000000e-11  7.20000000e-02  4.00000000e-11  1.80039218e+00  4.00000000e-11  7.75995468e-01  4.00000000e-11  1.70119828e+00  4.00000000e-11  1.70514484e+00                                 
 8.00000000e-11  8.22374288e-01  8.00000000e-11  7.71162802e-01  8.00000000e-11  1.70218808e+00  8.00000000e-11  1.44000000e-01  8.00000000e-11  1.80019768e+00  8.00000000e-11  7.76452439e-01  8.00000000e-11  1.70170173e+00  8.00000000e-11  1.70513500e+00                                 
 1.60000000e-10  8.22370918e-01  1.60000000e-10  7.71163919e-01  1.60000000e-10  1.70193445e+00  1.60000000e-10  2.88000000e-01  1.60000000e-10  1.80001063e+00  1.60000000e-10  7.76511606e-01  1.60000000e-10  1.70186513e+00  1.60000000e-10  1.70512304e+00                                 
 3.20000000e-10  8.22368275e-01  3.20000000e-10  7.71163554e-01  3.20000000e-10  1.70162550e+00  3.20000000e-10  5.76000000e-01  3.20000000e-10  1.80001559e+00  3.20000000e-10  7.76459405e-01  3.20000000e-10  1.70178630e+00  3.20000000e-10  1.70512078e+00                                 
 6.40000000e-10  8.22295820e-01  6.40000000e-10  7.70933082e-01  6.40000000e-10  1.69604751e+00  6.40000000e-10  1.15200000e+00  6.40000000e-10  1.81343168e+00  6.40000000e-10  7.75771626e-01  6.40000000e-10  1.70660126e+00  6.40000000e-10  1.70514940e+00                                 
 9.96495662e-10  8.22743891e-01  9.96495662e-10  7.70980807e-01  9.96495662e-10  1.66650291e+00  9.96495662e-10  1.79369219e+00  9.96495662e-10  7.76942658e-02  9.96495662e-10  7.77893445e-01  9.96495662e-10  1.69685260e+00  9.96495662e-10  1.70504122e+00                                 
 1.00000000e-09  8.22756123e-01  1.00000000e-09  7.70997906e-01  1.00000000e-09  1.66626092e+00  1.00000000e-09  1.80000000e+00  1.00000000e-09  5.29260815e-02  1.00000000e-09  7.78160861e-01  1.00000000e-09  1.69673685e+00  1.00000000e-09  1.70504673e+00                                 
 1.00700868e-09  8.22739136e-01  1.00700868e-09  7.70998726e-01  1.00700868e-09  1.66610722e+00  1.00700868e-09  1.80000000e+00  1.00700868e-09  2.99821377e-02  1.00700868e-09  7.78760398e-01  1.00700868e-09  1.69695309e+00  1.00700868e-09  1.70506826e+00                                 
 1.02102603e-09  8.22721693e-01  1.02102603e-09  7.71039942e-01  1.02102603e-09  1.66634835e+00  1.02102603e-09  1.80000000e+00  1.02102603e-09  4.83434219e-03  1.02102603e-09  7.80127058e-01  1.02102603e-09  1.69782550e+00  1.02102603e-09  1.70511533e+00                                 
 1.04906073e-09  8.22754038e-01  1.04906073e-09  7.71122124e-01  1.04906073e-09  1.66705849e+00  1.04906073e-09  1.80000000e+00  1.04906073e-09  6.08640271e-04  1.04906073e-09  7.82053267e-01  1.04906073e-09  1.69949472e+00  1.04906073e-09  1.70515145e+00                                 
 1.10513015e-09  8.22873669e-01  1.10513015e-09  7.71086127e-01  1.10513015e-09  1.66588904e+00  1.10513015e-09  1.80000000e+00  1.10513015e-09  9.77935479e-04  1.10513015e-09  7.82754525e-01  1.10513015e-09  1.70013738e+00  1.10513015e-09  1.70511805e+00                                 
 1.21726897e-09  8.23038414e-01  1.21726897e-09  7.70997939e-01  1.21726897e-09  1.66193980e+00  1.21726897e-09  1.80000000e+00  1.21726897e-09  1.82595337e-04  1.21726897e-09  7.83209815e-01  1.21726897e-09  1.70050338e+00  1.21726897e-09  1.70512401e+00                                 
 1.44154661e-09  8.23148334e-01  1.44154661e-09  7.70972945e-01  1.44154661e-09  1.65720812e+00  1.44154661e-09  1.80000000e+00  1.44154661e-09  2.72491699e-04  1.44154661e-09  7.83690481e-01  1.44154661e-09  1.70090833e+00  1.44154661e-09  1.70512836e+00                                 
 1.68262816e-09  8.23037429e-01  1.68262816e-09  7.70958582e-01  1.68262816e-09  1.65725516e+00  1.68262816e-09  1.80000000e+00  1.68262816e-09 -1.92868329e-04  1.68262816e-09  7.83171367e-01  1.68262816e-09  1.70046066e+00  1.68262816e-09  1.70512791e+00                                 
 1.95757234e-09  8.22854740e-01  1.95757234e-09  7.70956443e-01  1.95757234e-09  1.65916274e+00  1.95757234e-09  1.80000000e+00  1.95757234e-09  1.20152063e-04  1.95757234e-09  7.82656274e-01  1.95757234e-09  1.70002988e+00  1.95757234e-09  1.70513497e+00                                 
 2.26089896e-09  8.22667325e-01  2.26089896e-09  7.70948910e-01  2.26089896e-09  1.66129960e+00  2.26089896e-09  1.80000000e+00  2.26089896e-09 -1.80496800e-04  2.26089896e-09  7.81980732e-01  2.26089896e-09  1.69945285e+00  2.26089896e-09  1.70513717e+00                                 
 2.81535725e-09  8.22432491e-01  2.81535725e-09  7.70943620e-01  2.81535725e-09  1.66478530e+00  2.81535725e-09  1.80000000e+00  2.81535725e-09  9.87170193e-05  2.81535725e-09  7.80925477e-01  2.81535725e-09  1.69856361e+00  2.81535725e-09  1.70514796e+00                                 
 3.89816097e-09  8.22244454e-01  3.89816097e-09  7.70937974e-01  3.89816097e-09  1.66967860e+00  3.89816097e-09  1.80000000e+00  3.89816097e-09 -1.65385860e-04  3.89816097e-09  7.79032184e-01  3.89816097e-09  1.69695532e+00  3.89816097e-09  1.70515124e+00                                 
 6.06376841e-09  8.22243188e-01  6.06376841e-09  7.70944935e-01  6.06376841e-09  1.67441822e+00  6.06376841e-09  1.80000000e+00  6.06376841e-09  1.00701572e-04  6.06376841e-09  7.76467964e-01  6.06376841e-09  1.69478720e+00  6.06376841e-09  1.70510840e+00                                 
 8.33904797e-09  8.22297459e-01  8.33904797e-09  7.70952791e-01  8.33904797e-09  1.67485717e+00  8.33904797e-09  1.80000000e+00  8.33904797e-09 -1.52259287e-04  8.33904797e-09  7.74976419e-01  8.33904797e-09  1.69351879e+00  8.33904797e-09  1.70498062e+00                                 
 1.03734726e-08  8.22310331e-01  1.03734726e-08  7.70957775e-01  1.03734726e-08  1.67382034e+00  1.03734726e-08  1.80000000e+00  1.03734726e-08  1.06397476e-04  1.03734726e-08  7.74356137e-01  1.03734726e-08  1.69299563e+00  1.03734726e-08  1.70482201e+00                                 
 1.26758663e-08  8.22307423e-01  1.26758663e-08  7.70959272e-01  1.26758663e-08  1.67288728e+00  1.26758663e-08  1.80000000e+00  1.26758663e-08 -1.36026220e-04  1.26758663e-08  7.73966911e-01  1.26758663e-08  1.69265779e+00  1.26758663e-08  1.70460790e+00                                 
 1.55737622e-08  8.22308178e-01  1.55737622e-08  7.70960954e-01  1.55737622e-08  1.67203209e+00  1.55737622e-08  1.80000000e+00  1.55737622e-08  1.17667100e-04  1.55737622e-08  7.73829078e-01  1.55737622e-08  1.69253718e+00  1.55737622e-08  1.70432649e+00                                 
 1.94149660e-08  8.22330970e-01  1.94149660e-08  7.70960494e-01  1.94149660e-08  1.66890122e+00  1.94149660e-08  1.80000000e+00  1.94149660e-08 -1.25241207e-04  1.94149660e-08  7.73773611e-01  1.94149660e-08  1.69247266e+00  1.94149660e-08  1.70394893e+00                                 
 2.44527569e-08  8.22350611e-01  2.44527569e-08  7.70961306e-01  2.44527569e-08  1.66203277e+00  2.44527569e-08  1.80000000e+00  2.44527569e-08  1.19892997e-04  2.44527569e-08  7.73869848e-01  2.44527569e-08  1.69253908e+00  2.44527569e-08  1.70348491e+00                                 
 3.17119081e-08  8.22359169e-01  3.17119081e-08  7.70960737e-01  3.17119081e-08  1.64985305e+00  3.17119081e-08  1.80000000e+00  3.17119081e-08 -1.22713466e-04  3.17119081e-08  7.73958857e-01  3.17119081e-08  1.69258516e+00  3.17119081e-08  1.70287492e+00                                 
 4.32779911e-08  8.22360192e-01  4.32779911e-08  7.70961356e-01  4.32779911e-08  1.62903651e+00  4.32779911e-08  1.80000000e+00  4.32779911e-08  1.19389268e-04  4.32779911e-08  7.74138997e-01  4.32779911e-08  1.69270972e+00  4.32779911e-08  1.70205106e+00                                 
 5.98355825e-08  8.22358242e-01  5.98355825e-08  7.70960637e-01  5.98355825e-08  1.59793857e+00  5.98355825e-08  1.80000000e+00  5.98355825e-08 -1.22618594e-04  5.98355825e-08  7.74256481e-01  5.98355825e-08  1.69277339e+00  5.98355825e-08  1.70111606e+00                                 
 9.29507653e-08  8.22357857e-01  9.29507653e-08  7.70961227e-01  9.29507653e-08  1.53386236e+00  9.29507653e-08  1.80000000e+00  9.29507653e-08  1.18987405e-04  9.29507653e-08  7.74436550e-01  9.29507653e-08  1.69289348e+00  9.29507653e-08  1.69986968e+00                                 
 1.59181131e-07  8.22356600e-01  1.59181131e-07  7.70960570e-01  1.59181131e-07  1.40450221e+00  1.59181131e-07  1.80000000e+00  1.59181131e-07 -1.22652356e-04  1.59181131e-07  7.74490620e-01  1.59181131e-07  1.69290677e+00  1.59181131e-07  1.69871191e+00                                 
 2.71285987e-07  8.22357070e-01  2.71285987e-07  7.70961206e-01  2.71285987e-07  1.18878276e+00  2.71285987e-07  1.80000000e+00  2.71285987e-07  1.18979089e-04  2.71285987e-07  7.74522072e-01  2.71285987e-07  1.69292429e+00  2.71285987e-07  1.69824765e+00                                 
 4.19294789e-07  8.22356538e-01  4.19294789e-07  7.70960561e-01  4.19294789e-07  9.18138889e-01  4.19294789e-07  1.80000000e+00  4.19294789e-07 -1.21657638e-04  4.19294789e-07  7.74492665e-01  4.19294789e-07  1.69288820e+00  4.19294789e-07  1.69820948e+00                                 
 5.69155610e-07  8.22357144e-01  5.69155610e-07  7.70961203e-01  5.69155610e-07  7.79593748e-01  5.69155610e-07  1.80000000e+00  5.69155610e-07  1.20602211e-04  5.69155610e-07  7.74522017e-01  5.69155610e-07  1.69291079e+00  5.69155610e-07  1.69821036e+00                                 
 7.16585379e-07  8.22356390e-01  7.16585379e-07  7.70960562e-01  7.16585379e-07  7.77481216e-01  7.16585379e-07  1.80000000e+00  7.16585379e-07 -1.20504729e-04  7.16585379e-07  7.74494170e-01  7.16585379e-07  1.69287700e+00  7.16585379e-07  1.69820224e+00                                 
 7.79968909e-07  8.22357079e-01  7.79968909e-07  7.70961176e-01  7.79968909e-07  7.78256680e-01  7.79968909e-07  1.80000000e+00  7.79968909e-07  1.20552648e-04  7.79968909e-07  7.74520304e-01  7.79968909e-07  1.69290046e+00  7.79968909e-07  1.69820130e+00                                 
 8.65194466e-07  8.22356647e-01  8.65194466e-07  7.70960611e-01  8.65194466e-07  7.77891078e-01  8.65194466e-07  1.80000000e+00  8.65194466e-07 -1.20684307e-04  8.65194466e-07  7.74494480e-01  8.65194466e-07  1.69287105e+00  8.65194466e-07  1.69819538e+00                                 
 1.00093978e-06  8.22356902e-01  1.00093978e-06  7.70961152e-01  1.00093978e-06  7.78197152e-01  1.00093978e-06  1.80000000e+00  1.00093978e-06  1.20570865e-04  1.00093978e-06  7.74520593e-01  1.00093978e-06  1.69289148e+00  1.00093978e-06  1.69819207e+00                                 
 1.13891520e-06  8.22356747e-01  1.13891520e-06  7.70960627e-01  1.13891520e-06  7.77976934e-01  1.13891520e-06  1.80000000e+00  1.13891520e-06 -1.20551202e-04  1.13891520e-06  7.74494333e-01  1.13891520e-06  1.69285951e+00  1.13891520e-06  1.69818403e+00                                 
 1.38782904e-06  8.22356836e-01  1.38782904e-06  7.70961141e-01  1.38782904e-06  7.78218557e-01  1.38782904e-06  1.80000000e+00  1.38782904e-06  1.20550526e-04  1.38782904e-06  7.74520691e-01  1.38782904e-06  1.69287541e+00  1.38782904e-06  1.69817595e+00                                 
 1.70559935e-06  8.22356783e-01  1.70559935e-06  7.70960635e-01  1.70559935e-06  7.77987268e-01  1.70559935e-06  1.80000000e+00  1.70559935e-06 -1.20586108e-04  1.70559935e-06  7.74494281e-01  1.70559935e-06  1.69283579e+00  1.70559935e-06  1.69816042e+00                                 
 2.18756963e-06  8.22356812e-01  2.18756963e-06  7.70961135e-01  2.18756963e-06  7.78221591e-01  2.18756963e-06  1.80000000e+00  2.18756963e-06  1.20501413e-04  2.18756963e-06  7.74520726e-01  2.18756963e-06  1.69284204e+00  2.18756963e-06  1.69814262e+00                                 
 2.99781059e-06  8.22356798e-01  2.99781059e-06  7.70960639e-01  2.99781059e-06  7.77992044e-01  2.99781059e-06  1.80000000e+00  2.99781059e-06 -1.20684047e-04  2.99781059e-06  7.74494261e-01  2.99781059e-06  1.69278181e+00  2.99781059e-06  1.69810659e+00                                 
 4.19781059e-06  8.22356804e-01  4.19781059e-06  7.70961134e-01  4.19781059e-06  7.78219858e-01  4.19781059e-06  1.80000000e+00  4.19781059e-06  1.20490388e-04  4.19781059e-06  7.74520740e-01  4.19781059e-06  1.69275805e+00  4.19781059e-06  1.69805883e+00                                 
 5.39781059e-06  8.22356805e-01  5.39781059e-06  7.70960638e-01  5.39781059e-06  7.78002514e-01  5.39781059e-06  1.80000000e+00  5.39781059e-06 -1.20503343e-04  5.39781059e-06  7.74494244e-01  5.39781059e-06  1.69268147e+00  5.39781059e-06  1.69800652e+00                                 
 6.00100000e-06  8.22356794e-01  6.00100000e-06  7.70961129e-01  6.00100000e-06  7.78224403e-01  6.00100000e-06  1.80000000e+00  6.00100000e-06  1.20405210e-04  6.00100000e-06  7.74520748e-01  6.00100000e-06  1.69268267e+00  6.00100000e-06  1.69798362e+00                                 
 6.00110000e-06  8.22324123e-01  6.00110000e-06  7.70732467e-01  6.00110000e-06  7.76176867e-01  6.00110000e-06  1.62000000e+00  6.00110000e-06 -9.02962542e-05  6.00110000e-06  7.72695056e-01  6.00110000e-06  1.69113392e+00  6.00110000e-06  1.69796858e+00                                 
 6.00130000e-06  8.22354081e-01  6.00130000e-06  7.70785130e-01  6.00130000e-06  7.76831998e-01  6.00130000e-06  1.26000000e+00  6.00130000e-06  3.69971105e-05  6.00130000e-06  7.72958667e-01  6.00130000e-06  1.69135975e+00  6.00130000e-06  1.69799052e+00                                 
 6.00170000e-06  8.22386841e-01  6.00170000e-06  7.70867836e-01  6.00170000e-06  7.80355423e-01  6.00170000e-06  5.40000000e-01  6.00170000e-06  4.17657868e-01  6.00170000e-06  7.72506366e-01  6.00170000e-06  1.68117415e+00  6.00170000e-06  1.69792379e+00                                 
 6.00200000e-06  8.22350124e-01  6.00200000e-06  7.68621506e-01  6.00200000e-06  8.22367629e-01  6.00200000e-06  0.00000000e+00  6.00200000e-06  1.68066928e+00  6.00200000e-06  7.45755320e-01  6.00200000e-06  1.46794264e+00  6.00200000e-06  1.69712825e+00                                 
 6.00204709e-06  8.22358351e-01  6.00204709e-06  7.68560353e-01  6.00204709e-06  8.21499278e-01  6.00204709e-06  0.00000000e+00  6.00204709e-06  1.75820250e+00  6.00204709e-06  7.44958937e-01  6.00204709e-06  1.41077734e+00  6.00204709e-06  1.69740328e+00                                 
 6.00214128e-06  8.22356701e-01  6.00214128e-06  7.68535646e-01  6.00214128e-06  8.15398252e-01  6.00214128e-06  0.00000000e+00  6.00214128e-06  1.81005209e+00  6.00214128e-06  7.44816838e-01  6.00214128e-06  1.30345138e+00  6.00214128e-06  1.69790067e+00                                 
 6.00232964e-06  8.22355604e-01  6.00232964e-06  7.69066274e-01  6.00232964e-06  8.03343404e-01  6.00232964e-06  0.00000000e+00  6.00232964e-06  1.79201286e+00  6.00232964e-06  7.51220484e-01  6.00232964e-06  1.15115142e+00  6.00232964e-06  1.69808133e+00                                 
 6.00252798e-06  8.22356577e-01  6.00252798e-06  7.69453244e-01  6.00252798e-06  7.99249953e-01  6.00252798e-06  0.00000000e+00  6.00252798e-06  1.80406203e+00  6.00252798e-06  7.55335702e-01  6.00252798e-06  1.04735897e+00  6.00252798e-06  1.69816209e+00                                 
 6.00276822e-06  8.22355064e-01  6.00276822e-06  7.69822291e-01  6.00276822e-06  7.94454563e-01  6.00276822e-06  0.00000000e+00  6.00276822e-06  1.79666874e+00  6.00276822e-06  7.58740258e-01  6.00276822e-06  9.49975157e-01  6.00276822e-06  1.69824939e+00                                 
 6.00305081e-06  8.22356823e-01  6.00305081e-06  7.70308966e-01  6.00305081e-06  7.90543477e-01  6.00305081e-06  0.00000000e+00  6.00305081e-06  1.80179914e+00  6.00305081e-06  7.63374627e-01  6.00305081e-06  8.66099576e-01  6.00305081e-06  1.69830538e+00                                 
 6.00361601e-06  8.22355430e-01  6.00361601e-06  7.71128060e-01  6.00361601e-06  7.80958022e-01  6.00361601e-06  0.00000000e+00  6.00361601e-06  1.79811618e+00  6.00361601e-06  7.71298100e-01  6.00361601e-06  7.88246941e-01  6.00361601e-06  1.69822297e+00                                 
 6.00398244e-06  8.22357272e-01  6.00398244e-06  7.71422711e-01  6.00398244e-06  7.79006116e-01  6.00398244e-06  0.00000000e+00  6.00398244e-06  1.80149372e+00  6.00398244e-06  7.74212087e-01  6.00398244e-06  7.81830621e-01  6.00398244e-06  1.69801125e+00                                 
 6.00438889e-06  8.22355741e-01  6.00438889e-06  7.71442918e-01  6.00438889e-06  7.78748237e-01  6.00438889e-06  0.00000000e+00  6.00438889e-06  1.79881883e+00  6.00438889e-06  7.74362355e-01  6.00438889e-06  7.78905262e-01  6.00438889e-06  1.69762725e+00                                 
 6.00488487e-06  8.22357516e-01  6.00488487e-06  7.71469012e-01  6.00488487e-06  7.78748319e-01  6.00488487e-06  0.00000000e+00  6.00488487e-06  1.80099431e+00  6.00488487e-06  7.75240936e-01  6.00488487e-06  7.79095445e-01  6.00488487e-06  1.69704530e+00                                 
 6.00587682e-06  8.22355980e-01  6.00587682e-06  7.71326027e-01  6.00587682e-06  7.79728901e-01  6.00587682e-06  0.00000000e+00  6.00587682e-06  1.79910167e+00  6.00587682e-06  7.74942120e-01  6.00587682e-06  7.79222475e-01  6.00587682e-06  1.69568242e+00                                 
 6.00756547e-06  8.22357634e-01  6.00756547e-06  7.71216912e-01  6.00756547e-06  7.81330392e-01  6.00756547e-06  0.00000000e+00  6.00756547e-06  1.80086047e+00  6.00756547e-06  7.75531847e-01  6.00756547e-06  7.81445596e-01  6.00756547e-06  1.69315202e+00                                 
 6.01094276e-06  8.22356001e-01  6.01094276e-06  7.71042582e-01  6.01094276e-06  7.85376695e-01  6.01094276e-06  0.00000000e+00  6.01094276e-06  1.79917162e+00  6.01094276e-06  7.75116468e-01  6.01094276e-06  7.84806171e-01  6.01094276e-06  1.68794867e+00                                 
 6.01769735e-06  8.22357611e-01  6.01769735e-06  7.70987184e-01  6.01769735e-06  7.93498848e-01  6.01769735e-06  0.00000000e+00  6.01769735e-06  1.80084354e+00  6.01769735e-06  7.75452518e-01  6.01769735e-06  7.93615459e-01  6.01769735e-06  1.67765058e+00                                 
 6.03120653e-06  8.22355997e-01  6.03120653e-06  7.70931640e-01  6.03120653e-06  8.09929583e-01  6.03120653e-06  0.00000000e+00  6.03120653e-06  1.79918812e+00  6.03120653e-06  7.74763863e-01  6.03120653e-06  8.09256600e-01  6.03120653e-06  1.65691296e+00                                 
 6.05605708e-06  8.22357608e-01  6.05605708e-06  7.70979020e-01  6.05605708e-06  8.37852723e-01  6.05605708e-06  0.00000000e+00  6.05605708e-06  1.80081765e+00  6.05605708e-06  7.74962647e-01  6.05605708e-06  8.37976605e-01  6.05605708e-06  1.61730396e+00                                 
